! Network Analyzer HP8722D
! Hewlett-Packard
! Data name: Linha & Wilkinson
! Saver's name: Rodrigo Anjos
! Comments: Teste da utilização de aquisição
continua pelo VNA HP8722D
! Time and date: 8/5/2025 16:24
!              Frequency                     S11                                                   S21                                                   S12                                                   S22
# HZ  S  MA R 50
4800000000.000000      4.923096000000000E-01     -1.672656000000000E+02      2.646942000000000E-01     -2.101855000000000E+01      2.604218000000000E-01     -1.422656000000000E+02      6.535339000000000E-01     -8.019922000000000E+01
4801000000.000000      4.937744000000000E-01     -1.673437000000000E+02      2.683258000000000E-01     -2.141602000000000E+01      2.639771000000000E-01     -1.423828000000000E+02      6.524048000000000E-01     -7.996484000000000E+01
4802000000.000000      4.956055000000000E-01     -1.674062000000000E+02      2.720184000000000E-01     -2.153515000000000E+01      2.684021000000000E-01     -1.424453000000000E+02      6.510010000000000E-01     -7.962500000000000E+01
4803000000.000000      4.968414000000000E-01     -1.675078000000000E+02      2.766571000000000E-01     -2.183594000000000E+01      2.704468000000000E-01     -1.425234000000000E+02      6.505127000000000E-01     -7.952343000000000E+01
4804000000.000000      4.995575000000000E-01     -1.674453000000000E+02      2.806549000000000E-01     -2.228222000000000E+01      2.745972000000000E-01     -1.427109000000000E+02      6.502075000000000E-01     -7.924218000000000E+01
4805000000.000000      5.026550000000000E-01     -1.675469000000000E+02      2.843323000000000E-01     -2.250879000000000E+01      2.787781000000000E-01     -1.426563000000000E+02      6.498413000000000E-01     -7.917187000000000E+01
4806000000.000000      5.042725000000000E-01     -1.674609000000000E+02      2.882080000000000E-01     -2.285742000000000E+01      2.810211000000000E-01     -1.427344000000000E+02      6.505432000000000E-01     -7.895312000000000E+01
4807000000.000000      5.073547000000000E-01     -1.675547000000000E+02      2.925415000000000E-01     -2.332324000000000E+01      2.851257000000000E-01     -1.431172000000000E+02      6.502075000000000E-01     -7.864843000000000E+01
4808000000.000000      5.101624000000000E-01     -1.674531000000000E+02      2.966614000000000E-01     -2.351367000000000E+01      2.879028000000000E-01     -1.431094000000000E+02      6.506653000000000E-01     -7.855469000000000E+01
4809000000.000000      5.127563000000000E-01     -1.674922000000000E+02      2.999725000000000E-01     -2.405957000000000E+01      2.924347000000000E-01     -1.433516000000000E+02      6.507263000000000E-01     -7.830468000000000E+01
4810000000.000000      5.161743000000000E-01     -1.675703000000000E+02      3.035126000000000E-01     -2.426758000000000E+01      2.953644000000000E-01     -1.434141000000000E+02      6.526184000000000E-01     -7.824609000000000E+01
4811000000.000000      5.193787000000000E-01     -1.674844000000000E+02      3.076782000000000E-01     -2.492188000000000E+01      2.991943000000000E-01     -1.435313000000000E+02      6.514282000000000E-01     -7.788671000000000E+01
4812000000.000000      5.235291000000000E-01     -1.674375000000000E+02      3.113403000000000E-01     -2.518652000000000E+01      3.017731000000000E-01     -1.436563000000000E+02      6.532898000000000E-01     -7.777734000000000E+01
4813000000.000000      5.265503000000000E-01     -1.674062000000000E+02      3.148499000000000E-01     -2.561816000000000E+01      3.049469000000000E-01     -1.437734000000000E+02      6.536560000000000E-01     -7.753906000000000E+01
4814000000.000000      5.294800000000000E-01     -1.675469000000000E+02      3.177795000000000E-01     -2.613379000000000E+01      3.078766000000000E-01     -1.441015000000000E+02      6.545410000000000E-01     -7.742969000000000E+01
4815000000.000000      5.335388000000000E-01     -1.673828000000000E+02      3.214417000000000E-01     -2.640918000000000E+01      3.108368000000000E-01     -1.442031000000000E+02      6.559143000000000E-01     -7.716797000000000E+01
4816000000.000000      5.382996000000000E-01     -1.672500000000000E+02      3.253326000000000E-01     -2.673730000000000E+01      3.150330000000000E-01     -1.444531000000000E+02      6.571960000000000E-01     -7.703515000000000E+01
4817000000.000000      5.430603000000000E-01     -1.671562000000000E+02      3.284760000000000E-01     -2.738770000000000E+01      3.165741000000000E-01     -1.446563000000000E+02      6.579590000000000E-01     -7.705859000000000E+01
4818000000.000000      5.466919000000000E-01     -1.672109000000000E+02      3.310852000000000E-01     -2.774902000000000E+01      3.200226000000000E-01     -1.447734000000000E+02      6.608582000000000E-01     -7.683594000000000E+01
4819000000.000000      5.522766000000000E-01     -1.671484000000000E+02      3.348236000000000E-01     -2.822949000000000E+01      3.226318000000000E-01     -1.450547000000000E+02      6.630859000000000E-01     -7.672656000000000E+01
4820000000.000000      5.547180000000000E-01     -1.671250000000000E+02      3.379211000000000E-01     -2.865723000000000E+01      3.256836000000000E-01     -1.451719000000000E+02      6.646118000000000E-01     -7.650781000000000E+01
4821000000.000000      5.610352000000000E-01     -1.670234000000000E+02      3.418274000000000E-01     -2.919434000000000E+01      3.282776000000000E-01     -1.455469000000000E+02      6.654053000000000E-01     -7.641015000000000E+01
4822000000.000000      5.679626000000000E-01     -1.670156000000000E+02      3.444519000000000E-01     -2.970019000000000E+01      3.306580000000000E-01     -1.456484000000000E+02      6.691284000000000E-01     -7.638281000000000E+01
4823000000.000000      5.714722000000000E-01     -1.668984000000000E+02      3.466797000000000E-01     -3.031445000000000E+01      3.327637000000000E-01     -1.457422000000000E+02      6.713867000000000E-01     -7.620703000000000E+01
4824000000.000000      5.787354000000000E-01     -1.668750000000000E+02      3.506622000000000E-01     -3.076074000000000E+01      3.366852000000000E-01     -1.459844000000000E+02      6.733093000000000E-01     -7.615624000000000E+01
4825000000.000000      5.828552000000000E-01     -1.668125000000000E+02      3.532562000000000E-01     -3.124512000000000E+01      3.388824000000000E-01     -1.461953000000000E+02      6.765442000000000E-01     -7.592187000000000E+01
4826000000.000000      5.896606000000000E-01     -1.667109000000000E+02      3.550720000000000E-01     -3.153711000000000E+01      3.403168000000000E-01     -1.464219000000000E+02      6.783752000000000E-01     -7.582031000000000E+01
4827000000.000000      5.950928000000000E-01     -1.666406000000000E+02      3.585358000000000E-01     -3.216406000000000E+01      3.427277000000000E-01     -1.465000000000000E+02      6.821899000000000E-01     -7.581249000000000E+01
4828000000.000000      6.024780000000000E-01     -1.665859000000000E+02      3.616180000000000E-01     -3.270703000000000E+01      3.456116000000000E-01     -1.467891000000000E+02      6.854553000000000E-01     -7.573047000000000E+01
4829000000.000000      6.052856000000000E-01     -1.664453000000000E+02      3.635406000000000E-01     -3.333593000000000E+01      3.481903000000000E-01     -1.470391000000000E+02      6.884766000000000E-01     -7.556250000000000E+01
4830000000.000000      6.138000000000000E-01     -1.664609000000000E+02      3.654327000000000E-01     -3.378711000000000E+01      3.502350000000000E-01     -1.470859000000000E+02      6.902466000000000E-01     -7.564062000000000E+01
4831000000.000000      6.193237000000000E-01     -1.663984000000000E+02      3.675385000000000E-01     -3.432031000000000E+01      3.529053000000000E-01     -1.472109000000000E+02      6.940002000000000E-01     -7.557031000000000E+01
4832000000.000000      6.282959000000000E-01     -1.663281000000000E+02      3.700867000000000E-01     -3.501172000000000E+01      3.543854000000000E-01     -1.475312000000000E+02      6.961670000000000E-01     -7.545312000000000E+01
4833000000.000000      6.337585000000000E-01     -1.663281000000000E+02      3.725891000000000E-01     -3.527539000000000E+01      3.571625000000000E-01     -1.477813000000000E+02      7.004089000000000E-01     -7.548046000000000E+01
4834000000.000000      6.397705000000000E-01     -1.662500000000000E+02      3.739471000000000E-01     -3.599023000000000E+01      3.580627000000000E-01     -1.478672000000000E+02      7.037964000000000E-01     -7.530468000000000E+01
4835000000.000000      6.469421000000000E-01     -1.661875000000000E+02      3.766174000000000E-01     -3.654882000000000E+01      3.607330000000000E-01     -1.480156000000000E+02      7.073975000000000E-01     -7.540234000000000E+01
4836000000.000000      6.550903000000000E-01     -1.661250000000000E+02      3.772736000000000E-01     -3.705664000000000E+01      3.628540000000000E-01     -1.482656000000000E+02      7.115479000000000E-01     -7.535546000000000E+01
4837000000.000000      6.615906000000000E-01     -1.660078000000000E+02      3.795471000000000E-01     -3.792773000000000E+01      3.650360000000000E-01     -1.485312000000000E+02      7.144775000000000E-01     -7.528125000000000E+01
4838000000.000000      6.682434000000000E-01     -1.661484000000000E+02      3.816986000000000E-01     -3.810937000000000E+01      3.660583000000000E-01     -1.486328000000000E+02      7.192383000000000E-01     -7.523046000000000E+01
4839000000.000000      6.756897000000000E-01     -1.659375000000000E+02      3.821869000000000E-01     -3.862890000000000E+01      3.683319000000000E-01     -1.488125000000000E+02      7.226563000000000E-01     -7.516406000000000E+01
4840000000.000000      6.814880000000000E-01     -1.660000000000000E+02      3.838959000000000E-01     -3.926562000000000E+01      3.698578000000000E-01     -1.490000000000000E+02      7.264099000000000E-01     -7.526562000000000E+01
4841000000.000000      6.895447000000000E-01     -1.660234000000000E+02      3.848724000000000E-01     -4.000977000000000E+01      3.719940000000000E-01     -1.492969000000000E+02      7.302856000000000E-01     -7.514453000000000E+01
4842000000.000000      6.976624000000000E-01     -1.659297000000000E+02      3.864288000000000E-01     -4.031446000000000E+01      3.728943000000000E-01     -1.493515000000000E+02      7.357178000000000E-01     -7.514062000000000E+01
4843000000.000000      7.029114000000000E-01     -1.660156000000000E+02      3.876953000000000E-01     -4.099805000000000E+01      3.747864000000000E-01     -1.496094000000000E+02      7.385864000000000E-01     -7.517187000000000E+01
4844000000.000000      7.105103000000000E-01     -1.659531000000000E+02      3.877411000000000E-01     -4.140625000000000E+01      3.762970000000000E-01     -1.497266000000000E+02      7.431335000000000E-01     -7.520312000000000E+01
4845000000.000000      7.167358000000000E-01     -1.659219000000000E+02      3.898773000000000E-01     -4.203711000000000E+01      3.780060000000000E-01     -1.499453000000000E+02      7.478333000000000E-01     -7.522655000000000E+01
4846000000.000000      7.242737000000000E-01     -1.657656000000000E+02      3.898010000000000E-01     -4.251172000000000E+01      3.807373000000000E-01     -1.500859000000000E+02      7.517090000000000E-01     -7.519531000000000E+01
4847000000.000000      7.324524000000000E-01     -1.659062000000000E+02      3.901672000000000E-01     -4.303906000000000E+01      3.817596000000000E-01     -1.502109000000000E+02      7.566833000000000E-01     -7.531640000000000E+01
4848000000.000000      7.393188000000000E-01     -1.658281000000000E+02      3.907318000000000E-01     -4.348633000000000E+01      3.836823000000000E-01     -1.504297000000000E+02      7.592468000000000E-01     -7.531250000000000E+01
4849000000.000000      7.462769000000000E-01     -1.661406000000000E+02      3.919678000000000E-01     -4.424218000000000E+01      3.846588000000000E-01     -1.505781000000000E+02      7.640686000000000E-01     -7.530859000000000E+01
4850000000.000000      7.528992000000000E-01     -1.659453000000000E+02      3.917999000000000E-01     -4.470117000000000E+01      3.856659000000000E-01     -1.506797000000000E+02      7.695007000000000E-01     -7.528906000000000E+01
4851000000.000000      7.605896000000000E-01     -1.658828000000000E+02      3.926239000000000E-01     -4.524610000000000E+01      3.870544000000000E-01     -1.508281000000000E+02      7.748108000000000E-01     -7.536718000000000E+01
4852000000.000000      7.678223000000000E-01     -1.659765000000000E+02      3.927307000000000E-01     -4.560937000000000E+01      3.887024000000000E-01     -1.509922000000000E+02      7.784729000000000E-01     -7.535546000000000E+01
4853000000.000000      7.737732000000000E-01     -1.659219000000000E+02      3.906860000000000E-01     -4.623632000000000E+01      3.905792000000000E-01     -1.512734000000000E+02      7.835083000000000E-01     -7.552343000000000E+01
4854000000.000000      7.812805000000000E-01     -1.659765000000000E+02      3.924713000000000E-01     -4.686719000000000E+01      3.912964000000000E-01     -1.514219000000000E+02      7.885437000000000E-01     -7.555078000000000E+01
4855000000.000000      7.854919000000000E-01     -1.660547000000000E+02      3.914490000000000E-01     -4.710351000000000E+01      3.920135000000000E-01     -1.513906000000000E+02      7.908936000000000E-01     -7.546875000000000E+01
4856000000.000000      7.936707000000000E-01     -1.659219000000000E+02      3.908997000000000E-01     -4.760156000000000E+01      3.936768000000000E-01     -1.516875000000000E+02      7.963562000000000E-01     -7.555469000000000E+01
4857000000.000000      7.994995000000000E-01     -1.660703000000000E+02      3.916473000000000E-01     -4.816015000000000E+01      3.947601000000000E-01     -1.517969000000000E+02      8.018799000000000E-01     -7.564453000000000E+01
4858000000.000000      8.025208000000000E-01     -1.661250000000000E+02      3.905334000000000E-01     -4.864062000000000E+01      3.956604000000000E-01     -1.520078000000000E+02      8.058472000000000E-01     -7.580078000000000E+01
4859000000.000000      8.095703000000000E-01     -1.660859000000000E+02      3.901978000000000E-01     -4.913086000000000E+01      3.965149000000000E-01     -1.522187000000000E+02      8.125000000000000E-01     -7.592578000000000E+01
4860000000.000000      8.169250000000000E-01     -1.661406000000000E+02      3.894348000000000E-01     -4.947851000000000E+01      3.972931000000000E-01     -1.522344000000000E+02      8.159180000000000E-01     -7.576172000000000E+01
4861000000.000000      8.224792000000000E-01     -1.660469000000000E+02      3.889465000000000E-01     -4.998828000000000E+01      3.982849000000000E-01     -1.524219000000000E+02      8.216248000000000E-01     -7.593359000000000E+01
4862000000.000000      8.285828000000000E-01     -1.661016000000000E+02      3.881683000000000E-01     -5.030273000000000E+01      3.997192000000000E-01     -1.526250000000000E+02      8.270264000000000E-01     -7.596874000000000E+01
4863000000.000000      8.308716000000000E-01     -1.661484000000000E+02      3.867035000000000E-01     -5.086132000000000E+01      4.013062000000000E-01     -1.527109000000000E+02      8.310852000000000E-01     -7.598437000000000E+01
4864000000.000000      8.395691000000000E-01     -1.662578000000000E+02      3.864136000000000E-01     -5.109961000000000E+01      4.011688000000000E-01     -1.528437000000000E+02      8.346558000000000E-01     -7.614452000000000E+01
4865000000.000000      8.424072000000000E-01     -1.662891000000000E+02      3.850555000000000E-01     -5.138476000000000E+01      4.022827000000000E-01     -1.530391000000000E+02      8.405151000000000E-01     -7.612109000000000E+01
4866000000.000000      8.463440000000000E-01     -1.661641000000000E+02      3.836365000000000E-01     -5.195507000000000E+01      4.026642000000000E-01     -1.531797000000000E+02      8.441772000000000E-01     -7.627343000000000E+01
4867000000.000000      8.518066000000000E-01     -1.660781000000000E+02      3.835602000000000E-01     -5.226757000000000E+01      4.032898000000000E-01     -1.533437000000000E+02      8.502197000000000E-01     -7.624609000000000E+01
4868000000.000000      8.556519000000000E-01     -1.661562000000000E+02      3.823090000000000E-01     -5.259960000000000E+01      4.044952000000000E-01     -1.535000000000000E+02      8.545837000000000E-01     -7.639453000000000E+01
4869000000.000000      8.581848000000000E-01     -1.662578000000000E+02      3.803101000000000E-01     -5.302148000000000E+01      4.049377000000000E-01     -1.536719000000000E+02      8.595581000000000E-01     -7.671484000000000E+01
4870000000.000000      8.645020000000000E-01     -1.660078000000000E+02      3.796387000000000E-01     -5.326366000000000E+01      4.051971000000000E-01     -1.538594000000000E+02      8.635254000000000E-01     -7.657421000000000E+01
4871000000.000000      8.686218000000000E-01     -1.662734000000000E+02      3.779449000000000E-01     -5.359179000000000E+01      4.054565000000000E-01     -1.540234000000000E+02      8.669739000000000E-01     -7.685156000000000E+01
4872000000.000000      8.702087000000000E-01     -1.662656000000000E+02      3.757935000000000E-01     -5.382226000000000E+01      4.062042000000000E-01     -1.542812000000000E+02      8.732910000000000E-01     -7.691015000000000E+01
4873000000.000000      8.733826000000000E-01     -1.660234000000000E+02      3.750000000000000E-01     -5.415820000000000E+01      4.061737000000000E-01     -1.542656000000000E+02      8.763428000000000E-01     -7.700390000000000E+01
4874000000.000000      8.771667000000000E-01     -1.659922000000000E+02      3.737335000000000E-01     -5.458593000000000E+01      4.073181000000000E-01     -1.543672000000000E+02      8.793335000000000E-01     -7.698828000000000E+01
4875000000.000000      8.809509000000000E-01     -1.661250000000000E+02      3.720703000000000E-01     -5.468359000000000E+01      4.075928000000000E-01     -1.547266000000000E+02      8.838196000000000E-01     -7.720312000000000E+01
4876000000.000000      8.825073000000000E-01     -1.660859000000000E+02      3.700714000000000E-01     -5.491211000000000E+01      4.067230000000000E-01     -1.547812000000000E+02      8.888855000000000E-01     -7.726563000000000E+01
4877000000.000000      8.841248000000000E-01     -1.659141000000000E+02      3.693085000000000E-01     -5.515234000000000E+01      4.081726000000000E-01     -1.549531000000000E+02      8.932800000000000E-01     -7.748437000000000E+01
4878000000.000000      8.872070000000000E-01     -1.659531000000000E+02      3.685608000000000E-01     -5.541992000000000E+01      4.078674000000000E-01     -1.550234000000000E+02      8.962097000000000E-01     -7.757421000000000E+01
4879000000.000000      8.901062000000000E-01     -1.658203000000000E+02      3.657684000000000E-01     -5.555273000000000E+01      4.077759000000000E-01     -1.551797000000000E+02      8.982544000000000E-01     -7.756249000000000E+01
4880000000.000000      8.900452000000000E-01     -1.658203000000000E+02      3.647461000000000E-01     -5.576757000000000E+01      4.083710000000000E-01     -1.552578000000000E+02      9.036255000000000E-01     -7.774609000000000E+01
4881000000.000000      8.951721000000000E-01     -1.656016000000000E+02      3.637848000000000E-01     -5.581640000000000E+01      4.087219000000000E-01     -1.554141000000000E+02      9.067383000000000E-01     -7.783984000000000E+01
4882000000.000000      8.952332000000000E-01     -1.655078000000000E+02      3.618011000000000E-01     -5.612695000000000E+01      4.083252000000000E-01     -1.555781000000000E+02      9.110107000000000E-01     -7.794531000000000E+01
