! Network Analyzer HP8722D
! Hewlett-Packard
! Data name: Linha & Wilkinson
! Saver's name: Rodrigo Anjos
! Comments: Teste da utilização de aquisição
continua pelo VNA HP8722D
! Time and date: 8/5/2025 15:30
!              Frequency                     S11                                                   S21                                                   S12                                                   S22
# HZ  S  MA R 50
4800000000.000000      8.732910000000000E-01      8.852343000000000E+01      1.368332000000000E-01     -2.680469000000000E+01      1.268768000000000E-01      1.005859000000000E+02      2.359390000000000E-01      6.439843000000000E+01
4801000000.000000      8.739624000000000E-01      8.872656000000000E+01      1.329956000000000E-01     -2.557422000000000E+01      1.247177000000000E-01      1.014648000000000E+02      2.456512000000000E-01      6.335938000000000E+01
4802000000.000000      8.787231000000000E-01      8.902344000000000E+01      1.311722000000000E-01     -2.405664000000000E+01      1.227036000000000E-01      1.026641000000000E+02      2.501373000000000E-01      6.328320000000000E+01
4803000000.000000      8.799744000000000E-01      8.914063000000000E+01      1.289749000000000E-01     -2.268457000000000E+01      1.201859000000000E-01      1.037734000000000E+02      2.542725000000000E-01      6.266992000000000E+01
4804000000.000000      8.846130000000000E-01      8.978125000000000E+01      1.266861000000000E-01     -2.131836000000000E+01      1.182976000000000E-01      1.049726000000000E+02      2.562103000000000E-01      6.288086000000000E+01
4805000000.000000      8.882446000000000E-01      8.987108000000000E+01      1.245918000000000E-01     -1.979492000000000E+01      1.165199000000000E-01      1.063086000000000E+02      2.598267000000000E-01      6.219727000000000E+01
4806000000.000000      8.898926000000000E-01      9.013672000000000E+01      1.225815000000000E-01     -1.832129000000000E+01      1.147423000000000E-01      1.076719000000000E+02      2.641296000000000E-01      6.229101000000000E+01
4807000000.000000      8.941650000000000E-01      9.032812000000000E+01      1.211510000000000E-01     -1.692773000000000E+01      1.133385000000000E-01      1.089336000000000E+02      2.684326000000000E-01      6.158789000000000E+01
4808000000.000000      8.945007000000000E-01      9.060156000000000E+01      1.202164000000000E-01     -1.501563000000000E+01      1.121979000000000E-01      1.105937000000000E+02      2.705231000000000E-01      6.069726000000000E+01
4809000000.000000      8.961487000000000E-01      9.110937000000000E+01      1.188660000000000E-01     -1.338281000000000E+01      1.114883000000000E-01      1.121484000000000E+02      2.760620000000000E-01      6.075390000000000E+01
4810000000.000000      8.993835000000000E-01      9.135157000000000E+01      1.180267000000000E-01     -1.157422000000000E+01      1.104164000000000E-01      1.136016000000000E+02      2.770538000000000E-01      6.011523000000000E+01
4811000000.000000      8.996582000000000E-01      9.164063000000000E+01      1.175270000000000E-01     -9.893555000000000E+00      1.101341000000000E-01      1.154180000000000E+02      2.820587000000000E-01      5.965820000000000E+01
4812000000.000000      9.024048000000000E-01      9.197657000000000E+01      1.169510000000000E-01     -8.068359000000000E+00      1.097679000000000E-01      1.167188000000000E+02      2.829132000000000E-01      5.872460000000000E+01
4813000000.000000      9.041443000000000E-01      9.233202000000000E+01      1.166534000000000E-01     -6.144287000000000E+00      1.096649000000000E-01      1.185195000000000E+02      2.883148000000000E-01      5.878515000000000E+01
4814000000.000000      9.031677000000000E-01      9.246485000000000E+01      1.162491000000000E-01     -4.444092000000000E+00      1.095772000000000E-01      1.202539000000000E+02      2.885895000000000E-01      5.828515000000000E+01
4815000000.000000      9.046936000000000E-01      9.269531000000000E+01      1.168556000000000E-01     -2.823486000000000E+00      1.095886000000000E-01      1.216914000000000E+02      2.925720000000000E-01      5.736914000000000E+01
4816000000.000000      9.074402000000000E-01      9.305079000000000E+01      1.175575000000000E-01     -9.324646000000000E-01      1.101036000000000E-01      1.233437000000000E+02      2.938995000000000E-01      5.664648000000000E+01
4817000000.000000      9.049683000000000E-01      9.337109000000000E+01      1.178093000000000E-01      6.083679000000000E-01      1.104622000000000E-01      1.248906000000000E+02      2.959747000000000E-01      5.699219000000000E+01
4818000000.000000      9.076843000000000E-01      9.367188000000000E+01      1.186218000000000E-01      2.373047000000000E+00      1.114159000000000E-01      1.264453000000000E+02      2.994690000000000E-01      5.614258000000000E+01
4819000000.000000      9.110107000000000E-01      9.400391000000000E+01      1.198502000000000E-01      4.114258000000000E+00      1.122208000000000E-01      1.280703000000000E+02      3.009491000000000E-01      5.543163000000000E+01
4820000000.000000      9.054565000000000E-01      9.433203000000000E+01      1.206474000000000E-01      5.722412000000000E+00      1.132736000000000E-01      1.295625000000000E+02      3.013153000000000E-01      5.492382000000000E+01
4821000000.000000      9.093933000000000E-01      9.473047000000000E+01      1.222649000000000E-01      7.241211000000000E+00      1.149025000000000E-01      1.308750000000000E+02      3.021393000000000E-01      5.433788000000000E+01
4822000000.000000      9.080811000000000E-01      9.470312000000000E+01      1.232376000000000E-01      8.540039000000000E+00      1.156616000000000E-01      1.321640000000000E+02      3.054047000000000E-01      5.341015000000000E+01
4823000000.000000      9.083252000000000E-01      9.512890000000000E+01      1.249657000000000E-01      1.000000000000000E+01      1.171341000000000E-01      1.336562000000000E+02      3.058319000000000E-01      5.283984000000000E+01
4824000000.000000      9.076233000000000E-01      9.531641000000000E+01      1.271362000000000E-01      1.115381000000000E+01      1.187973000000000E-01      1.347578000000000E+02      3.074951000000000E-01      5.234375000000000E+01
4825000000.000000      9.081116000000000E-01      9.555079000000000E+01      1.292114000000000E-01      1.271484000000000E+01      1.211548000000000E-01      1.361016000000000E+02      3.088226000000000E-01      5.164648000000000E+01
4826000000.000000      9.062500000000000E-01      9.580078000000000E+01      1.313324000000000E-01      1.368164000000000E+01      1.223564000000000E-01      1.373047000000000E+02      3.091278000000000E-01      5.099609000000000E+01
4827000000.000000      9.048767000000000E-01      9.616405000000000E+01      1.334457000000000E-01      1.519531000000000E+01      1.244774000000000E-01      1.382500000000000E+02      3.104401000000000E-01      5.043163000000000E+01
4828000000.000000      9.064026000000000E-01      9.640234000000000E+01      1.357727000000000E-01      1.612793000000000E+01      1.261520000000000E-01      1.393047000000000E+02      3.107147000000000E-01      4.930859000000000E+01
4829000000.000000      9.007874000000000E-01      9.687109000000000E+01      1.380920000000000E-01      1.731641000000000E+01      1.289063000000000E-01      1.403359000000000E+02      3.139038000000000E-01      4.913476000000000E+01
4830000000.000000      9.035950000000000E-01      9.698437000000000E+01      1.410675000000000E-01      1.794336000000000E+01      1.305923000000000E-01      1.414063000000000E+02      3.130188000000000E-01      4.860352000000000E+01
4831000000.000000      8.991394000000000E-01      9.724609000000000E+01      1.430969000000000E-01      1.890723000000000E+01      1.331100000000000E-01      1.421719000000000E+02      3.119354000000000E-01      4.777929000000000E+01
4832000000.000000      8.980103000000000E-01      9.745312000000000E+01      1.453857000000000E-01      1.982715000000000E+01      1.354828000000000E-01      1.430625000000000E+02      3.121338000000000E-01      4.725586000000000E+01
4833000000.000000      8.947144000000000E-01      9.758593000000000E+01      1.486359000000000E-01      2.068359000000000E+01      1.377869000000000E-01      1.438281000000000E+02      3.134918000000000E-01      4.668945000000000E+01
4834000000.000000      8.938293000000000E-01      9.779686000000000E+01      1.512146000000000E-01      2.120312000000000E+01      1.402817000000000E-01      1.444297000000000E+02      3.137817000000000E-01      4.607617000000000E+01
4835000000.000000      8.923035000000000E-01      9.805077000000000E+01      1.544495000000000E-01      2.201855000000000E+01      1.431656000000000E-01      1.452656000000000E+02      3.137817000000000E-01      4.533593000000000E+01
4836000000.000000      8.895264000000000E-01      9.827734000000000E+01      1.569672000000000E-01      2.252930000000000E+01      1.453247000000000E-01      1.460078000000000E+02      3.134460000000000E-01      4.459374000000000E+01
4837000000.000000      8.862915000000000E-01      9.866796000000000E+01      1.599884000000000E-01      2.299414000000000E+01      1.484222000000000E-01      1.464453000000000E+02      3.128967000000000E-01      4.440234000000000E+01
4838000000.000000      8.824158000000000E-01      9.874218000000000E+01      1.630020000000000E-01      2.370215000000000E+01      1.509323000000000E-01      1.471797000000000E+02      3.129425000000000E-01      4.374609000000000E+01
4839000000.000000      8.850708000000000E-01      9.916405000000000E+01      1.663666000000000E-01      2.425586000000000E+01      1.537094000000000E-01      1.475703000000000E+02      3.114777000000000E-01      4.299024000000000E+01
4840000000.000000      8.775940000000000E-01      9.933983000000000E+01      1.697693000000000E-01      2.484375000000000E+01      1.566086000000000E-01      1.482031000000000E+02      3.116608000000000E-01      4.238281000000000E+01
4841000000.000000      8.755188000000000E-01      9.941795000000000E+01      1.725693000000000E-01      2.495117000000000E+01      1.594925000000000E-01      1.485312000000000E+02      3.134918000000000E-01      4.182813000000000E+01
4842000000.000000      8.715210000000000E-01      9.973045000000000E+01      1.757507000000000E-01      2.538769000000000E+01      1.621323000000000E-01      1.491250000000000E+02      3.130035000000000E-01      4.150586000000000E+01
4843000000.000000      8.690796000000000E-01      9.974998000000000E+01      1.791153000000000E-01      2.575000000000000E+01      1.650696000000000E-01      1.495391000000000E+02      3.114319000000000E-01      4.064062000000000E+01
4844000000.000000      8.652954000000000E-01      9.987890000000000E+01      1.823425000000000E-01      2.602441000000000E+01      1.675262000000000E-01      1.499297000000000E+02      3.110657000000000E-01      4.032227000000000E+01
4845000000.000000      8.616333000000000E-01      1.002578000000000E+02      1.852951000000000E-01      2.634472000000000E+01      1.712418000000000E-01      1.502109000000000E+02      3.106384000000000E-01      3.968945000000000E+01
4846000000.000000      8.587952000000000E-01      1.004492000000000E+02      1.890564000000000E-01      2.638769000000000E+01      1.741486000000000E-01      1.506250000000000E+02      3.116760000000000E-01      3.940625000000000E+01
4847000000.000000      8.540649000000000E-01      1.006875000000000E+02      1.919022000000000E-01      2.680664000000000E+01      1.769867000000000E-01      1.509375000000000E+02      3.100281000000000E-01      3.869336000000000E+01
4848000000.000000      8.514709000000000E-01      1.006094000000000E+02      1.952744000000000E-01      2.682812000000000E+01      1.797485000000000E-01      1.512109000000000E+02      3.089752000000000E-01      3.804883000000000E+01
4849000000.000000      8.448181000000000E-01      1.006953000000000E+02      1.986237000000000E-01      2.692578000000000E+01      1.829224000000000E-01      1.515078000000000E+02      3.081512000000000E-01      3.772851000000000E+01
4850000000.000000      8.417053000000000E-01      1.008750000000000E+02      2.019272000000000E-01      2.712500000000000E+01      1.862030000000000E-01      1.517422000000000E+02      3.094025000000000E-01      3.731640000000000E+01
4851000000.000000      8.359375000000000E-01      1.011250000000000E+02      2.055740000000000E-01      2.720605000000000E+01      1.890030000000000E-01      1.519844000000000E+02      3.077087000000000E-01      3.680078000000000E+01
4852000000.000000      8.321228000000000E-01      1.011953000000000E+02      2.089005000000000E-01      2.735937000000000E+01      1.920776000000000E-01      1.521328000000000E+02      3.075104000000000E-01      3.622265000000000E+01
4853000000.000000      8.301086000000000E-01      1.012852000000000E+02      2.116699000000000E-01      2.728222000000000E+01      1.954956000000000E-01      1.524219000000000E+02      3.062134000000000E-01      3.565430000000000E+01
4854000000.000000      8.230591000000000E-01      1.013633000000000E+02      2.154541000000000E-01      2.723828000000000E+01      1.986923000000000E-01      1.524531000000000E+02      3.076172000000000E-01      3.532617000000000E+01
4855000000.000000      8.199463000000000E-01      1.015039000000000E+02      2.189789000000000E-01      2.735644000000000E+01      2.019272000000000E-01      1.527344000000000E+02      3.060455000000000E-01      3.491015000000000E+01
4856000000.000000      8.156433000000000E-01      1.016172000000000E+02      2.222824000000000E-01      2.729199000000000E+01      2.050247000000000E-01      1.528828000000000E+02      3.057404000000000E-01      3.458984000000000E+01
4857000000.000000      8.093567000000000E-01      1.015312000000000E+02      2.262344000000000E-01      2.741894000000000E+01      2.082138000000000E-01      1.530781000000000E+02      3.033600000000000E-01      3.426172000000000E+01
4858000000.000000      8.042297000000000E-01      1.015625000000000E+02      2.295456000000000E-01      2.739355000000000E+01      2.112198000000000E-01      1.531094000000000E+02      3.061981000000000E-01      3.370312000000000E+01
4859000000.000000      8.024292000000000E-01      1.016016000000000E+02      2.335129000000000E-01      2.730762000000000E+01      2.145386000000000E-01      1.531094000000000E+02      3.050232000000000E-01      3.332812000000000E+01
4860000000.000000      7.968750000000000E-01      1.016445000000000E+02      2.364883000000000E-01      2.720898000000000E+01      2.174606000000000E-01      1.532500000000000E+02      3.040161000000000E-01      3.275976000000000E+01
4861000000.000000      7.901611000000000E-01      1.017383000000000E+02      2.401199000000000E-01      2.696777000000000E+01      2.209549000000000E-01      1.533828000000000E+02      3.037109000000000E-01      3.261133000000000E+01
4862000000.000000      7.855225000000000E-01      1.017266000000000E+02      2.438049000000000E-01      2.717382000000000E+01      2.245789000000000E-01      1.533672000000000E+02      3.047485000000000E-01      3.192480000000000E+01
4863000000.000000      7.807007000000000E-01      1.017226000000000E+02      2.461548000000000E-01      2.678125000000000E+01      2.279205000000000E-01      1.535156000000000E+02      3.045349000000000E-01      3.195703000000000E+01
4864000000.000000      7.763977000000000E-01      1.017617000000000E+02      2.511902000000000E-01      2.685840000000000E+01      2.311249000000000E-01      1.534609000000000E+02      3.043060000000000E-01      3.141894000000000E+01
4865000000.000000      7.691650000000000E-01      1.015859000000000E+02      2.535400000000000E-01      2.673437000000000E+01      2.346802000000000E-01      1.535078000000000E+02      3.053436000000000E-01      3.110352000000000E+01
4866000000.000000      7.640076000000000E-01      1.014805000000000E+02      2.575836000000000E-01      2.655664000000000E+01      2.378540000000000E-01      1.532812000000000E+02      3.031006000000000E-01      3.054296000000000E+01
4867000000.000000      7.602234000000000E-01      1.014180000000000E+02      2.610931000000000E-01      2.624023000000000E+01      2.408066000000000E-01      1.534219000000000E+02      3.039093000000000E-01      3.030078000000000E+01
4868000000.000000      7.542419000000000E-01      1.013828000000000E+02      2.651825000000000E-01      2.605469000000000E+01      2.445679000000000E-01      1.534531000000000E+02      3.048706000000000E-01      3.006738000000000E+01
4869000000.000000      7.497864000000000E-01      1.014141000000000E+02      2.682648000000000E-01      2.598730000000000E+01      2.477036000000000E-01      1.533281000000000E+02      3.046265000000000E-01      2.959375000000000E+01
4870000000.000000      7.436829000000000E-01      1.012148000000000E+02      2.718964000000000E-01      2.596191000000000E+01      2.511292000000000E-01      1.532500000000000E+02      3.058624000000000E-01      2.934961000000000E+01
4871000000.000000      7.390442000000000E-01      1.009531000000000E+02      2.755280000000000E-01      2.548340000000000E+01      2.544708000000000E-01      1.531016000000000E+02      3.064423000000000E-01      2.894336000000000E+01
4872000000.000000      7.359619000000000E-01      1.009687000000000E+02      2.788391000000000E-01      2.550000000000000E+01      2.577362000000000E-01      1.528984000000000E+02      3.064117000000000E-01      2.883886000000000E+01
4873000000.000000      7.299805000000000E-01      1.008203000000000E+02      2.827911000000000E-01      2.517480000000000E+01      2.613068000000000E-01      1.529297000000000E+02      3.047638000000000E-01      2.838867000000000E+01
4874000000.000000      7.256165000000000E-01      1.006250000000000E+02      2.862701000000000E-01      2.479980000000000E+01      2.654266000000000E-01      1.527578000000000E+02      3.078156000000000E-01      2.807910000000000E+01
4875000000.000000      7.214355000000000E-01      1.002031000000000E+02      2.895508000000000E-01      2.472851000000000E+01      2.677460000000000E-01      1.527891000000000E+02      3.081360000000000E-01      2.799316000000000E+01
4876000000.000000      7.157898000000000E-01      1.001836000000000E+02      2.936554000000000E-01      2.442383000000000E+01      2.714539000000000E-01      1.525859000000000E+02      3.075256000000000E-01      2.761523000000000E+01
4877000000.000000      7.125244000000000E-01      9.982811000000000E+01      2.975464000000000E-01      2.422558000000000E+01      2.745667000000000E-01      1.524531000000000E+02      3.076324000000000E-01      2.737011000000000E+01
4878000000.000000      7.053528000000000E-01      9.969139000000000E+01      3.015289000000000E-01      2.388379000000000E+01      2.777710000000000E-01      1.523203000000000E+02      3.095703000000000E-01      2.696289000000000E+01
4879000000.000000      7.037048000000000E-01      9.944530000000000E+01      3.039703000000000E-01      2.358691000000000E+01      2.812500000000000E-01      1.520469000000000E+02      3.109741000000000E-01      2.659375000000000E+01
4880000000.000000      6.964722000000000E-01      9.911327000000000E+01      3.081818000000000E-01      2.335547000000000E+01      2.846069000000000E-01      1.518906000000000E+02      3.108978000000000E-01      2.635839000000000E+01
4881000000.000000      6.931152000000000E-01      9.879295000000000E+01      3.123627000000000E-01      2.312695000000000E+01      2.874908000000000E-01      1.516328000000000E+02      3.127747000000000E-01      2.626953000000000E+01
4882000000.000000      6.885986000000000E-01      9.848045000000000E+01      3.164978000000000E-01      2.266016000000000E+01      2.915955000000000E-01      1.514766000000000E+02      3.136444000000000E-01      2.616504000000000E+01
