! Network Analyzer HP8722D
! Hewlett-Packard
! Data name: Linha & Wilkinson
! Saver's name: Rodrigo Anjos
! Comments: Teste da utilização de aquisição
continua pelo VNA HP8722D
! Time and date: 8/5/2025 14:36
!              Frequency                     S11                                                   S21                                                   S12                                                   S22
# HZ  S  MA R 50
4800000000.000000      5.383911000000000E-01     -2.533203000000000E+01      3.624115000000000E-01     -1.485078000000000E+02      3.803101000000000E-01      1.073340000000000E+01      5.039673000000000E-01      1.505127000000000E+00
4801000000.000000      5.356445000000000E-01     -2.496679000000000E+01      3.667297000000000E-01     -1.490156000000000E+02      3.838959000000000E-01      1.067578000000000E+01      4.995117000000000E-01      1.476257000000000E+00
4802000000.000000      5.362854000000000E-01     -2.487793000000000E+01      3.704681000000000E-01     -1.491797000000000E+02      3.874207000000000E-01      1.046973000000000E+01      4.946899000000000E-01      1.907471000000000E+00
4803000000.000000      5.334473000000000E-01     -2.431641000000000E+01      3.756104000000000E-01     -1.496875000000000E+02      3.909607000000000E-01      1.054932000000000E+01      4.886627000000000E-01      1.742676000000000E+00
4804000000.000000      5.323486000000000E-01     -2.434473000000000E+01      3.790131000000000E-01     -1.499375000000000E+02      3.964996000000000E-01      1.017725000000000E+01      4.819031000000000E-01      1.712463000000000E+00
4805000000.000000      5.321655000000000E-01     -2.390527000000000E+01      3.830719000000000E-01     -1.504141000000000E+02      3.992920000000000E-01      9.925781000000000E+00      4.754791000000000E-01      1.937683000000000E+00
4806000000.000000      5.296631000000000E-01     -2.383496000000000E+01      3.868103000000000E-01     -1.508047000000000E+02      4.040833000000000E-01      1.003174000000000E+01      4.677734000000000E-01      1.853943000000000E+00
4807000000.000000      5.297241000000000E-01     -2.356934000000000E+01      3.903503000000000E-01     -1.513515000000000E+02      4.083557000000000E-01      9.692383000000000E+00      4.611359000000000E-01      1.978882000000000E+00
4808000000.000000      5.269775000000000E-01     -2.329883000000000E+01      3.944855000000000E-01     -1.515312000000000E+02      4.103394000000000E-01      9.674805000000000E+00      4.546814000000000E-01      2.253540000000000E+00
4809000000.000000      5.250244000000000E-01     -2.293262000000000E+01      3.981171000000000E-01     -1.522187000000000E+02      4.147797000000000E-01      9.331055000000000E+00      4.469299000000000E-01      2.469116000000000E+00
4810000000.000000      5.261536000000000E-01     -2.274609000000000E+01      4.025879000000000E-01     -1.525156000000000E+02      4.195099000000000E-01      9.321777000000000E+00      4.401245000000000E-01      2.344116000000000E+00
4811000000.000000      5.243530000000000E-01     -2.267871000000000E+01      4.060364000000000E-01     -1.530703000000000E+02      4.233856000000000E-01      9.343750000000000E+00      4.328461000000000E-01      2.797363000000000E+00
4812000000.000000      5.261536000000000E-01     -2.220215000000000E+01      4.093933000000000E-01     -1.533906000000000E+02      4.275970000000000E-01      8.975586000000000E+00      4.250031000000000E-01      2.691650000000000E+00
4813000000.000000      5.222168000000000E-01     -2.223437000000000E+01      4.129791000000000E-01     -1.538672000000000E+02      4.301147000000000E-01      8.987793000000000E+00      4.175415000000000E-01      3.269775000000000E+00
4814000000.000000      5.196228000000000E-01     -2.199805000000000E+01      4.168549000000000E-01     -1.542500000000000E+02      4.331360000000000E-01      8.705078000000000E+00      4.090729000000000E-01      3.290405000000000E+00
4815000000.000000      5.184631000000000E-01     -2.163769000000000E+01      4.196625000000000E-01     -1.546875000000000E+02      4.366455000000000E-01      8.642090000000000E+00      4.015808000000000E-01      3.552612000000000E+00
4816000000.000000      5.177917000000000E-01     -2.155566000000000E+01      4.232635000000000E-01     -1.551016000000000E+02      4.409180000000000E-01      8.520996000000000E+00      3.940430000000000E-01      3.758667000000000E+00
4817000000.000000      5.140686000000000E-01     -2.132324000000000E+01      4.260712000000000E-01     -1.556250000000000E+02      4.430389000000000E-01      8.452148000000000E+00      3.831787000000000E-01      4.148682000000000E+00
4818000000.000000      5.140076000000000E-01     -2.128906000000000E+01      4.292755000000000E-01     -1.561406000000000E+02      4.466553000000000E-01      8.280762000000000E+00      3.744659000000000E-01      4.395752000000000E+00
4819000000.000000      5.128784000000000E-01     -2.115429000000000E+01      4.321594000000000E-01     -1.566484000000000E+02      4.503632000000000E-01      8.275391000000000E+00      3.655853000000000E-01      4.490479000000000E+00
4820000000.000000      5.113831000000000E-01     -2.077832000000000E+01      4.355164000000000E-01     -1.569453000000000E+02      4.545135000000000E-01      7.888184000000000E+00      3.578033000000000E-01      4.969727000000000E+00
4821000000.000000      5.101624000000000E-01     -2.066211000000000E+01      4.383698000000000E-01     -1.575078000000000E+02      4.553223000000000E-01      7.698486000000000E+00      3.480377000000000E-01      5.509521000000000E+00
4822000000.000000      5.068665000000000E-01     -2.065430000000000E+01      4.401398000000000E-01     -1.578672000000000E+02      4.599609000000000E-01      7.547607000000000E+00      3.397217000000000E-01      5.755371000000000E+00
4823000000.000000      5.065308000000000E-01     -2.043067000000000E+01      4.440460000000000E-01     -1.583828000000000E+02      4.630890000000000E-01      7.406006000000000E+00      3.302612000000000E-01      6.115234000000000E+00
4824000000.000000      5.045471000000000E-01     -2.028418000000000E+01      4.465942000000000E-01     -1.588906000000000E+02      4.667358000000000E-01      7.238525000000000E+00      3.205261000000000E-01      6.483154000000000E+00
4825000000.000000      5.048828000000000E-01     -2.015918000000000E+01      4.490814000000000E-01     -1.592734000000000E+02      4.708099000000000E-01      7.264648000000000E+00      3.123779000000000E-01      7.216553000000000E+00
4826000000.000000      5.026245000000000E-01     -2.027442000000000E+01      4.516602000000000E-01     -1.598828000000000E+02      4.732056000000000E-01      6.958252000000000E+00      3.026733000000000E-01      7.738281000000000E+00
4827000000.000000      5.014954000000000E-01     -1.987500000000000E+01      4.541016000000000E-01     -1.602422000000000E+02      4.752502000000000E-01      6.854004000000000E+00      2.937469000000000E-01      8.250488000000000E+00
4828000000.000000      4.995575000000000E-01     -1.973145000000000E+01      4.570160000000000E-01     -1.607500000000000E+02      4.792480000000000E-01      6.819580000000000E+00      2.845154000000000E-01      8.642090000000000E+00
4829000000.000000      4.975891000000000E-01     -1.953711000000000E+01      4.592896000000000E-01     -1.611016000000000E+02      4.813232000000000E-01      6.716553000000000E+00      2.761536000000000E-01      9.871094000000000E+00
4830000000.000000      4.953918000000000E-01     -1.939648000000000E+01      4.607544000000000E-01     -1.616328000000000E+02      4.851837000000000E-01      6.358154000000000E+00      2.649384000000000E-01      1.071680000000000E+01
4831000000.000000      4.938507000000000E-01     -1.927734000000000E+01      4.636536000000000E-01     -1.622187000000000E+02      4.882507000000000E-01      6.253906000000000E+00      2.557068000000000E-01      1.143652000000000E+01
4832000000.000000      4.931335000000000E-01     -1.926660000000000E+01      4.649353000000000E-01     -1.625469000000000E+02      4.915466000000000E-01      6.068359000000000E+00      2.456894000000000E-01      1.271387000000000E+01
4833000000.000000      4.884491000000000E-01     -1.925683000000000E+01      4.672394000000000E-01     -1.629609000000000E+02      4.951324000000000E-01      5.959961000000000E+00      2.355957000000000E-01      1.376416000000000E+01
4834000000.000000      4.877014000000000E-01     -1.909082000000000E+01      4.689026000000000E-01     -1.634609000000000E+02      4.962311000000000E-01      5.681152000000000E+00      2.267609000000000E-01      1.504541000000000E+01
4835000000.000000      4.878235000000000E-01     -1.861523000000000E+01      4.709015000000000E-01     -1.639609000000000E+02      4.991150000000000E-01      5.672852000000000E+00      2.183228000000000E-01      1.626172000000000E+01
4836000000.000000      4.848175000000000E-01     -1.829004000000000E+01      4.720612000000000E-01     -1.643047000000000E+02      5.017090000000000E-01      5.686768000000000E+00      2.086182000000000E-01      1.790137000000000E+01
4837000000.000000      4.811096000000000E-01     -1.842187000000000E+01      4.733276000000000E-01     -1.649765000000000E+02      5.032654000000000E-01      5.490234000000000E+00      1.998749000000000E-01      1.964160000000000E+01
4838000000.000000      4.817047000000000E-01     -1.827734000000000E+01      4.764557000000000E-01     -1.651094000000000E+02      5.074158000000000E-01      5.289795000000000E+00      1.919556000000000E-01      2.143652000000000E+01
4839000000.000000      4.832764000000000E-01     -1.779980000000000E+01      4.771729000000000E-01     -1.656016000000000E+02      5.103760000000000E-01      5.173096000000000E+00      1.846237000000000E-01      2.325488000000000E+01
4840000000.000000      4.803925000000000E-01     -1.791113000000000E+01      4.790192000000000E-01     -1.660547000000000E+02      5.138245000000000E-01      5.173096000000000E+00      1.756897000000000E-01      2.533105000000000E+01
4841000000.000000      4.756470000000000E-01     -1.770215000000000E+01      4.805450000000000E-01     -1.665078000000000E+02      5.147400000000000E-01      4.706055000000000E+00      1.685867000000000E-01      2.816895000000000E+01
4842000000.000000      4.745941000000000E-01     -1.752734000000000E+01      4.813385000000000E-01     -1.669141000000000E+02      5.157166000000000E-01      4.735107000000000E+00      1.615677000000000E-01      3.099218000000000E+01
4843000000.000000      4.757385000000000E-01     -1.729590000000000E+01      4.833679000000000E-01     -1.674609000000000E+02      5.203552000000000E-01      4.524902000000000E+00      1.544113000000000E-01      3.411523000000000E+01
4844000000.000000      4.735870000000000E-01     -1.717383000000000E+01      4.839630000000000E-01     -1.678828000000000E+02      5.215759000000000E-01      4.170654000000000E+00      1.473007000000000E-01      3.750586000000000E+01
4845000000.000000      4.716492000000000E-01     -1.673828000000000E+01      4.852142000000000E-01     -1.682031000000000E+02      5.244446000000000E-01      4.086914000000000E+00      1.432495000000000E-01      4.084570000000000E+01
4846000000.000000      4.700165000000000E-01     -1.649902000000000E+01      4.864960000000000E-01     -1.685625000000000E+02      5.276184000000000E-01      3.856201000000000E+00      1.376648000000000E-01      4.499413000000000E+01
4847000000.000000      4.670258000000000E-01     -1.629199000000000E+01      4.878693000000000E-01     -1.689297000000000E+02      5.291138000000000E-01      3.809448000000000E+00      1.328659000000000E-01      4.894921000000000E+01
4848000000.000000      4.661713000000000E-01     -1.628125000000000E+01      4.872742000000000E-01     -1.693438000000000E+02      5.299377000000000E-01      3.674927000000000E+00      1.308289000000000E-01      5.330468000000000E+01
4849000000.000000      4.647217000000000E-01     -1.615332000000000E+01      4.901428000000000E-01     -1.698359000000000E+02      5.325012000000000E-01      3.304077000000000E+00      1.278229000000000E-01      5.800195000000000E+01
4850000000.000000      4.658051000000000E-01     -1.566260000000000E+01      4.905243000000000E-01     -1.701562000000000E+02      5.333252000000000E-01      3.128296000000000E+00      1.271439000000000E-01      6.264648000000000E+01
4851000000.000000      4.658051000000000E-01     -1.534521000000000E+01      4.918518000000000E-01     -1.704531000000000E+02      5.349426000000000E-01      2.968994000000000E+00      1.270752000000000E-01      6.682812000000000E+01
4852000000.000000      4.632416000000000E-01     -1.507617000000000E+01      4.920502000000000E-01     -1.707969000000000E+02      5.376892000000000E-01      2.947021000000000E+00      1.274109000000000E-01      7.153906000000000E+01
4853000000.000000      4.627686000000000E-01     -1.490332000000000E+01      4.921417000000000E-01     -1.713516000000000E+02      5.400085000000000E-01      2.775391000000000E+00      1.284637000000000E-01      7.616796000000000E+01
4854000000.000000      4.622650000000000E-01     -1.474658000000000E+01      4.934692000000000E-01     -1.717031000000000E+02      5.405273000000000E-01      2.763062000000000E+00      1.324463000000000E-01      7.995312000000000E+01
4855000000.000000      4.609680000000000E-01     -1.444043000000000E+01      4.946442000000000E-01     -1.720547000000000E+02      5.423279000000000E-01      2.399048000000000E+00      1.343918000000000E-01      8.468750000000000E+01
4856000000.000000      4.617462000000000E-01     -1.395020000000000E+01      4.956970000000000E-01     -1.723359000000000E+02      5.432434000000000E-01      2.323608000000000E+00      1.388016000000000E-01      8.825390000000000E+01
4857000000.000000      4.624481000000000E-01     -1.379102000000000E+01      4.979401000000000E-01     -1.726641000000000E+02      5.445251000000000E-01      2.176636000000000E+00      1.421432000000000E-01      9.177734000000000E+01
4858000000.000000      4.605713000000000E-01     -1.347656000000000E+01      4.978485000000000E-01     -1.730625000000000E+02      5.455933000000000E-01      1.874512000000000E+00      1.470947000000000E-01      9.464062000000000E+01
4859000000.000000      4.615479000000000E-01     -1.328564000000000E+01      4.996796000000000E-01     -1.734922000000000E+02      5.462341000000000E-01      1.866272000000000E+00      1.524277000000000E-01      9.775000000000000E+01
4860000000.000000      4.600220000000000E-01     -1.279785000000000E+01      4.993896000000000E-01     -1.737500000000000E+02      5.455933000000000E-01      1.646545000000000E+00      1.590118000000000E-01      1.002148000000000E+02
4861000000.000000      4.624023000000000E-01     -1.261670000000000E+01      4.996338000000000E-01     -1.740859000000000E+02      5.487976000000000E-01      1.544922000000000E+00      1.641769000000000E-01      1.030508000000000E+02
4862000000.000000      4.598999000000000E-01     -1.240771000000000E+01      5.008545000000000E-01     -1.744219000000000E+02      5.505066000000000E-01      1.470764000000000E+00      1.702194000000000E-01      1.050547000000000E+02
4863000000.000000      4.633484000000000E-01     -1.227051000000000E+01      5.013733000000000E-01     -1.749219000000000E+02      5.500183000000000E-01      1.271667000000000E+00      1.782150000000000E-01      1.069844000000000E+02
4864000000.000000      4.619446000000000E-01     -1.180664000000000E+01      5.026550000000000E-01     -1.751719000000000E+02      5.507813000000000E-01      1.159058000000000E+00      1.840591000000000E-01      1.079375000000000E+02
4865000000.000000      4.640808000000000E-01     -1.140674000000000E+01      5.026245000000000E-01     -1.755391000000000E+02      5.513306000000000E-01      9.448242000000000E-01      1.894531000000000E-01      1.095469000000000E+02
4866000000.000000      4.655151000000000E-01     -1.108545000000000E+01      5.019836000000000E-01     -1.758203000000000E+02      5.519714000000000E-01      7.951355000000000E-01      1.958847000000000E-01      1.112539000000000E+02
4867000000.000000      4.666290000000000E-01     -1.098633000000000E+01      5.045776000000000E-01     -1.763438000000000E+02      5.509949000000000E-01      7.937622000000000E-01      2.038498000000000E-01      1.122617000000000E+02
4868000000.000000      4.667358000000000E-01     -1.083154000000000E+01      5.065613000000000E-01     -1.766094000000000E+02      5.518188000000000E-01      4.600525000000000E-01      2.078094000000000E-01      1.138750000000000E+02
4869000000.000000      4.690399000000000E-01     -1.056348000000000E+01      5.061951000000000E-01     -1.770859000000000E+02      5.540466000000000E-01      4.394531000000000E-01      2.154160000000000E-01      1.147617000000000E+02
4870000000.000000      4.705963000000000E-01     -1.030664000000000E+01      5.071411000000000E-01     -1.770781000000000E+02      5.528259000000000E-01      4.875183000000000E-01      2.218018000000000E-01      1.157305000000000E+02
4871000000.000000      4.736481000000000E-01     -9.873047000000000E+00      5.081482000000000E-01     -1.777578000000000E+02      5.509644000000000E-01      2.224731000000000E-01      2.280960000000000E-01      1.161875000000000E+02
4872000000.000000      4.757233000000000E-01     -9.679199000000000E+00      5.095520000000000E-01     -1.777969000000000E+02      5.518494000000000E-01      1.895142000000000E-01      2.354279000000000E-01      1.169297000000000E+02
4873000000.000000      4.771729000000000E-01     -9.436035000000000E+00      5.085449000000000E-01     -1.784844000000000E+02      5.530396000000000E-01     -1.922607000000000E-02      2.407074000000000E-01      1.176914000000000E+02
4874000000.000000      4.806976000000000E-01     -9.166992000000000E+00      5.083008000000000E-01     -1.786484000000000E+02      5.523376000000000E-01     -4.394531000000000E-02      2.440338000000000E-01      1.183672000000000E+02
4875000000.000000      4.826050000000000E-01     -9.035156000000000E+00      5.108337000000000E-01     -1.790469000000000E+02      5.518494000000000E-01     -1.263428000000000E-01      2.510681000000000E-01      1.186172000000000E+02
4876000000.000000      4.850159000000000E-01     -8.678223000000000E+00      5.119324000000000E-01     -1.794531000000000E+02      5.525208000000000E-01     -1.263428000000000E-01      2.588806000000000E-01      1.198203000000000E+02
4877000000.000000      4.895630000000000E-01     -8.687500000000000E+00      5.121155000000000E-01     -1.798984000000000E+02      5.514221000000000E-01     -3.845215000000000E-02      2.617950000000000E-01      1.196328000000000E+02
4878000000.000000      4.892120000000000E-01     -8.509277000000000E+00      5.134277000000000E-01      1.796641000000000E+02      5.507813000000000E-01     -2.320862000000000E-01      2.678223000000000E-01      1.199844000000000E+02
4879000000.000000      4.925995000000000E-01     -8.496582000000000E+00      5.130005000000000E-01      1.795625000000000E+02      5.519714000000000E-01     -2.856445000000000E-01      2.715759000000000E-01      1.204297000000000E+02
4880000000.000000      4.964600000000000E-01     -8.239746000000000E+00      5.140076000000000E-01      1.790703000000000E+02      5.510559000000000E-01     -4.325867000000000E-01      2.753754000000000E-01      1.204726000000000E+02
4881000000.000000      4.988403000000000E-01     -8.119141000000000E+00      5.155640000000000E-01      1.787578000000000E+02      5.505981000000000E-01     -3.433228000000000E-01      2.834778000000000E-01      1.208594000000000E+02
4882000000.000000      5.028381000000000E-01     -7.880127000000000E+00      5.166931000000000E-01      1.781875000000000E+02      5.506287000000000E-01     -5.204773000000000E-01      2.873993000000000E-01      1.212539000000000E+02
