! Network Analyzer HP8722D
! Hewlett-Packard
! Data name: Linha & Wilkinson
! Saver's name: Rodrigo Anjos
! Comments: Teste da utilização de aquisição
continua pelo VNA HP8722D
! Time and date: 8/5/2025 15:41
!              Frequency                     S11                                                   S21                                                   S12                                                   S22
# HZ  S  MA R 50
4800000000.000000      9.363098000000000E-01      1.629375000000000E+02      4.550781000000000E-01      1.201445000000000E+02      4.452515000000000E-01      1.544678000000000E+01      9.329529000000000E-01     -3.961133000000000E+01
4801000000.000000      9.374084000000000E-01      1.629219000000000E+02      4.548798000000000E-01      1.195469000000000E+02      4.446106000000000E-01      1.493555000000000E+01      9.301758000000000E-01     -4.000000000000000E+01
4802000000.000000      9.355774000000000E-01      1.629844000000000E+02      4.564819000000000E-01      1.193750000000000E+02      4.479065000000000E-01      1.483838000000000E+01      9.249268000000000E-01     -4.031054000000000E+01
4803000000.000000      9.318237000000000E-01      1.629453000000000E+02      4.607849000000000E-01      1.187695000000000E+02      4.461517000000000E-01      1.441113000000000E+01      9.186096000000000E-01     -4.098437000000000E+01
4804000000.000000      9.342957000000000E-01      1.631016000000000E+02      4.608459000000000E-01      1.182031000000000E+02      4.479980000000000E-01      1.392480000000000E+01      9.140625000000000E-01     -4.136719000000000E+01
4805000000.000000      9.322815000000000E-01      1.631641000000000E+02      4.611511000000000E-01      1.178320000000000E+02      4.489441000000000E-01      1.372998000000000E+01      9.064636000000000E-01     -4.181836000000000E+01
4806000000.000000      9.288330000000000E-01      1.632813000000000E+02      4.638367000000000E-01      1.174414000000000E+02      4.477539000000000E-01      1.336182000000000E+01      9.027710000000000E-01     -4.243750000000000E+01
4807000000.000000      9.305420000000000E-01      1.632031000000000E+02      4.648132000000000E-01      1.168047000000000E+02      4.498901000000000E-01      1.288525000000000E+01      8.968811000000000E-01     -4.271484000000000E+01
4808000000.000000      9.285583000000000E-01      1.632813000000000E+02      4.682770000000000E-01      1.166250000000000E+02      4.516754000000000E-01      1.279492000000000E+01      8.909912000000000E-01     -4.319140000000000E+01
4809000000.000000      9.273987000000000E-01      1.633125000000000E+02      4.688721000000000E-01      1.155859000000000E+02      4.510193000000000E-01      1.240479000000000E+01      8.842773000000000E-01     -4.368360000000000E+01
4810000000.000000      9.244690000000000E-01      1.632969000000000E+02      4.704132000000000E-01      1.153672000000000E+02      4.524231000000000E-01      1.187891000000000E+01      8.786621000000000E-01     -4.419335000000000E+01
4811000000.000000      9.221497000000000E-01      1.635391000000000E+02      4.717712000000000E-01      1.145898000000000E+02      4.532471000000000E-01      1.173584000000000E+01      8.729858000000000E-01     -4.450976000000000E+01
4812000000.000000      9.224548000000000E-01      1.635859000000000E+02      4.733276000000000E-01      1.141250000000000E+02      4.525909000000000E-01      1.158350000000000E+01      8.659973000000000E-01     -4.515038000000000E+01
4813000000.000000      9.182129000000000E-01      1.636797000000000E+02      4.747467000000000E-01      1.136328000000000E+02      4.526215000000000E-01      1.112500000000000E+01      8.611450000000000E-01     -4.544335000000000E+01
4814000000.000000      9.142151000000000E-01      1.637031000000000E+02      4.757538000000000E-01      1.131211000000000E+02      4.533844000000000E-01      1.100000000000000E+01      8.548889000000000E-01     -4.605469000000000E+01
4815000000.000000      9.137268000000000E-01      1.637344000000000E+02      4.775085000000000E-01      1.123750000000000E+02      4.537201000000000E-01      1.077197000000000E+01      8.480225000000000E-01     -4.634179000000000E+01
4816000000.000000      9.127197000000000E-01      1.637109000000000E+02      4.810944000000000E-01      1.120898000000000E+02      4.548950000000000E-01      1.036377000000000E+01      8.426819000000000E-01     -4.693749000000000E+01
4817000000.000000      9.104004000000000E-01      1.637656000000000E+02      4.813538000000000E-01      1.114101000000000E+02      4.556732000000000E-01      9.976563000000000E+00      8.338623000000000E-01     -4.735937000000000E+01
4818000000.000000      9.065552000000000E-01      1.639844000000000E+02      4.815521000000000E-01      1.108359000000000E+02      4.557495000000000E-01      9.810547000000000E+00      8.278198000000000E-01     -4.775781000000000E+01
4819000000.000000      9.060669000000000E-01      1.640078000000000E+02      4.844208000000000E-01      1.102344000000000E+02      4.543915000000000E-01      9.372559000000000E+00      8.206177000000000E-01     -4.834374000000000E+01
4820000000.000000      8.997498000000000E-01      1.639297000000000E+02      4.838867000000000E-01      1.096797000000000E+02      4.546204000000000E-01      9.075684000000000E+00      8.149109000000000E-01     -4.873047000000000E+01
4821000000.000000      8.998108000000000E-01      1.640469000000000E+02      4.884491000000000E-01      1.093125000000000E+02      4.558868000000000E-01      8.728516000000000E+00      8.073730000000000E-01     -4.916992000000000E+01
4822000000.000000      9.002075000000000E-01      1.639688000000000E+02      4.878998000000000E-01      1.083906000000000E+02      4.553986000000000E-01      8.395996000000000E+00      8.005676000000000E-01     -4.975195000000000E+01
4823000000.000000      8.934937000000000E-01      1.641641000000000E+02      4.882660000000000E-01      1.077461000000000E+02      4.562225000000000E-01      8.272461000000000E+00      7.930298000000000E-01     -5.008398000000000E+01
4824000000.000000      8.927002000000000E-01      1.640156000000000E+02      4.910583000000000E-01      1.070078000000000E+02      4.547272000000000E-01      7.879883000000000E+00      7.849426000000000E-01     -5.060351000000000E+01
4825000000.000000      8.883057000000000E-01      1.642109000000000E+02      4.904480000000000E-01      1.065039000000000E+02      4.562378000000000E-01      7.474609000000000E+00      7.785645000000000E-01     -5.108788000000000E+01
4826000000.000000      8.876953000000000E-01      1.643437000000000E+02      4.920502000000000E-01      1.058711000000000E+02      4.553986000000000E-01      7.241211000000000E+00      7.731323000000000E-01     -5.151367000000000E+01
4827000000.000000      8.840637000000000E-01      1.643047000000000E+02      4.922791000000000E-01      1.053867000000000E+02      4.564209000000000E-01      6.838867000000000E+00      7.661438000000000E-01     -5.192577000000000E+01
4828000000.000000      8.815613000000000E-01      1.643203000000000E+02      4.935303000000000E-01      1.044023000000000E+02      4.550781000000000E-01      6.385742000000000E+00      7.585754000000000E-01     -5.245898000000000E+01
4829000000.000000      8.746338000000000E-01      1.643750000000000E+02      4.924164000000000E-01      1.035742000000000E+02      4.576416000000000E-01      6.293701000000000E+00      7.529907000000000E-01     -5.276367000000000E+01
4830000000.000000      8.735962000000000E-01      1.643672000000000E+02      4.952545000000000E-01      1.031367000000000E+02      4.555511000000000E-01      5.747070000000000E+00      7.437134000000000E-01     -5.319140000000000E+01
4831000000.000000      8.686523000000000E-01      1.644844000000000E+02      4.940491000000000E-01      1.023203000000000E+02      4.550323000000000E-01      5.668945000000000E+00      7.371826000000000E-01     -5.362305000000000E+01
4832000000.000000      8.666382000000000E-01      1.645625000000000E+02      4.942017000000000E-01      1.016602000000000E+02      4.569702000000000E-01      5.126465000000000E+00      7.285156000000000E-01     -5.403515000000000E+01
4833000000.000000      8.635254000000000E-01      1.643672000000000E+02      4.960480000000000E-01      1.009297000000000E+02      4.550171000000000E-01      4.796875000000000E+00      7.202148000000000E-01     -5.445117000000000E+01
4834000000.000000      8.594360000000000E-01      1.646406000000000E+02      4.951935000000000E-01      1.002226000000000E+02      4.553223000000000E-01      4.559326000000000E+00      7.135010000000000E-01     -5.479297000000000E+01
4835000000.000000      8.560791000000000E-01      1.645313000000000E+02      4.941101000000000E-01      9.925781000000000E+01      4.557495000000000E-01      4.358643000000000E+00      7.065430000000000E-01     -5.526367000000000E+01
4836000000.000000      8.540039000000000E-01      1.645625000000000E+02      4.928741000000000E-01      9.854687000000000E+01      4.550018000000000E-01      3.911133000000000E+00      6.979675000000000E-01     -5.558594000000000E+01
4837000000.000000      8.496704000000000E-01      1.645469000000000E+02      4.931793000000000E-01      9.777733000000000E+01      4.557800000000000E-01      3.407104000000000E+00      6.907349000000000E-01     -5.596874000000000E+01
4838000000.000000      8.462524000000000E-01      1.646406000000000E+02      4.925079000000000E-01      9.726171000000000E+01      4.534760000000000E-01      3.047241000000000E+00      6.832581000000000E-01     -5.630664000000000E+01
4839000000.000000      8.428040000000000E-01      1.647422000000000E+02      4.914551000000000E-01      9.648827000000000E+01      4.547272000000000E-01      2.749268000000000E+00      6.763916000000000E-01     -5.672461000000000E+01
4840000000.000000      8.381348000000000E-01      1.646797000000000E+02      4.916687000000000E-01      9.586329000000000E+01      4.538727000000000E-01      2.215088000000000E+00      6.683350000000000E-01     -5.712109000000000E+01
4841000000.000000      8.345032000000000E-01      1.646484000000000E+02      4.893188000000000E-01      9.483202000000000E+01      4.541321000000000E-01      1.921204000000000E+00      6.597290000000000E-01     -5.734179000000000E+01
4842000000.000000      8.285217000000000E-01      1.647109000000000E+02      4.888458000000000E-01      9.422266000000000E+01      4.533844000000000E-01      1.488647000000000E+00      6.536255000000000E-01     -5.765234000000000E+01
4843000000.000000      8.304749000000000E-01      1.646094000000000E+02      4.869080000000000E-01      9.354296000000000E+01      4.533997000000000E-01      1.032715000000000E+00      6.454773000000000E-01     -5.791601000000000E+01
4844000000.000000      8.246460000000000E-01      1.648359000000000E+02      4.866333000000000E-01      9.267578000000000E+01      4.518890000000000E-01      8.665466000000000E-01      6.364746000000000E-01     -5.827148000000000E+01
4845000000.000000      8.197632000000000E-01      1.647969000000000E+02      4.828339000000000E-01      9.212891000000000E+01      4.537659000000000E-01      3.817749000000000E-01      6.279907000000000E-01     -5.852539000000000E+01
4846000000.000000      8.159180000000000E-01      1.649375000000000E+02      4.828033000000000E-01      9.140625000000000E+01      4.529572000000000E-01     -1.043701000000000E-01      6.211548000000000E-01     -5.884570000000000E+01
4847000000.000000      8.118896000000000E-01      1.647656000000000E+02      4.784698000000000E-01      9.067968000000000E+01      4.528198000000000E-01     -4.600525000000000E-01      6.128845000000000E-01     -5.908789000000000E+01
4848000000.000000      8.102417000000000E-01      1.647734000000000E+02      4.767609000000000E-01      8.987499000000000E+01      4.513397000000000E-01     -8.555603000000000E-01      6.045532000000000E-01     -5.935156000000000E+01
4849000000.000000      8.048096000000000E-01      1.647109000000000E+02      4.764252000000000E-01      8.910936000000000E+01      4.512329000000000E-01     -1.382935000000000E+00      5.966492000000000E-01     -5.944336000000000E+01
4850000000.000000      8.004456000000000E-01      1.647031000000000E+02      4.727325000000000E-01      8.839062000000000E+01      4.502716000000000E-01     -1.848450000000000E+00      5.890808000000000E-01     -5.969531000000000E+01
4851000000.000000      7.967834000000000E-01      1.648906000000000E+02      4.722137000000000E-01      8.773046000000000E+01      4.499207000000000E-01     -2.215210000000000E+00      5.809021000000000E-01     -5.981835000000000E+01
4852000000.000000      7.939758000000000E-01      1.648984000000000E+02      4.683380000000000E-01      8.674219000000000E+01      4.491882000000000E-01     -2.631226000000000E+00      5.722656000000000E-01     -5.999218000000000E+01
4853000000.000000      7.919006000000000E-01      1.648906000000000E+02      4.668274000000000E-01      8.627733000000000E+01      4.483795000000000E-01     -3.069336000000000E+00      5.634460000000000E-01     -6.017383000000000E+01
4854000000.000000      7.873230000000000E-01      1.647969000000000E+02      4.641876000000000E-01      8.557032000000000E+01      4.472656000000000E-01     -3.562378000000000E+00      5.563354000000000E-01     -6.015038000000000E+01
4855000000.000000      7.823792000000000E-01      1.648594000000000E+02      4.609985000000000E-01      8.492188000000000E+01      4.454346000000000E-01     -3.985352000000000E+00      5.462646000000000E-01     -6.032227000000000E+01
4856000000.000000      7.785339000000000E-01      1.648672000000000E+02      4.587860000000000E-01      8.451563000000000E+01      4.454651000000000E-01     -4.537354000000000E+00      5.391235000000000E-01     -6.029882000000000E+01
4857000000.000000      7.743835000000000E-01      1.648438000000000E+02      4.564209000000000E-01      8.349218000000000E+01      4.432068000000000E-01     -5.030518000000000E+00      5.299988000000000E-01     -6.043750000000000E+01
4858000000.000000      7.705994000000000E-01      1.649453000000000E+02      4.541931000000000E-01      8.317577000000000E+01      4.423828000000000E-01     -5.522217000000000E+00      5.231018000000000E-01     -6.042382000000000E+01
4859000000.000000      7.669983000000000E-01      1.646953000000000E+02      4.492798000000000E-01      8.242188000000000E+01      4.420166000000000E-01     -6.086426000000000E+00      5.147095000000000E-01     -6.047070000000000E+01
4860000000.000000      7.637634000000000E-01      1.648281000000000E+02      4.472961000000000E-01      8.176172000000000E+01      4.391785000000000E-01     -6.598877000000000E+00      5.065002000000000E-01     -6.017968000000000E+01
4861000000.000000      7.594910000000000E-01      1.649922000000000E+02      4.437103000000000E-01      8.095703000000000E+01      4.395447000000000E-01     -6.811523000000000E+00      4.981842000000000E-01     -6.025391000000000E+01
4862000000.000000      7.569885000000000E-01      1.648203000000000E+02      4.422607000000000E-01      8.053125000000000E+01      4.376526000000000E-01     -7.447510000000000E+00      4.915161000000000E-01     -6.004687000000000E+01
4863000000.000000      7.507935000000000E-01      1.648516000000000E+02      4.364319000000000E-01      7.958593000000000E+01      4.363098000000000E-01     -7.984375000000000E+00      4.836731000000000E-01     -5.976563000000000E+01
4864000000.000000      7.497864000000000E-01      1.649531000000000E+02      4.361725000000000E-01      7.926562000000000E+01      4.337769000000000E-01     -8.440430000000000E+00      4.754028000000000E-01     -5.962695000000000E+01
4865000000.000000      7.470703000000000E-01      1.647500000000000E+02      4.311218000000000E-01      7.857031000000000E+01      4.337769000000000E-01     -9.099609000000000E+00      4.684906000000000E-01     -5.923242000000000E+01
4866000000.000000      7.413635000000000E-01      1.650234000000000E+02      4.271240000000000E-01      7.807031000000000E+01      4.302063000000000E-01     -9.692871000000000E+00      4.606476000000000E-01     -5.893555000000000E+01
4867000000.000000      7.398071000000000E-01      1.649297000000000E+02      4.258728000000000E-01      7.728516000000000E+01      4.288177000000000E-01     -1.007617000000000E+01      4.533844000000000E-01     -5.854882000000000E+01
4868000000.000000      7.344360000000000E-01      1.648828000000000E+02      4.231262000000000E-01      7.683594000000000E+01      4.271698000000000E-01     -1.082324000000000E+01      4.457092000000000E-01     -5.814843000000000E+01
4869000000.000000      7.329407000000000E-01      1.649453000000000E+02      4.177704000000000E-01      7.631640000000000E+01      4.243927000000000E-01     -1.113330000000000E+01      4.386749000000000E-01     -5.778515000000000E+01
4870000000.000000      7.310181000000000E-01      1.651094000000000E+02      4.153290000000000E-01      7.569921000000000E+01      4.218903000000000E-01     -1.198779000000000E+01      4.319611000000000E-01     -5.708789000000000E+01
4871000000.000000      7.274475000000000E-01      1.647969000000000E+02      4.137115000000000E-01      7.495312000000000E+01      4.206085000000000E-01     -1.228271000000000E+01      4.251862000000000E-01     -5.660156000000000E+01
4872000000.000000      7.289124000000000E-01      1.650391000000000E+02      4.085999000000000E-01      7.483203000000000E+01      4.178925000000000E-01     -1.320557000000000E+01      4.191132000000000E-01     -5.590038000000000E+01
4873000000.000000      7.240601000000000E-01      1.648281000000000E+02      4.047394000000000E-01      7.389062000000000E+01      4.145203000000000E-01     -1.360840000000000E+01      4.120026000000000E-01     -5.535351000000000E+01
4874000000.000000      7.220154000000000E-01      1.649922000000000E+02      4.007111000000000E-01      7.335938000000000E+01      4.140015000000000E-01     -1.418896000000000E+01      4.064331000000000E-01     -5.439648000000000E+01
4875000000.000000      7.203369000000000E-01      1.649375000000000E+02      3.995361000000000E-01      7.267968000000000E+01      4.103394000000000E-01     -1.477393000000000E+01      4.008179000000000E-01     -5.366015000000000E+01
4876000000.000000      7.162170000000000E-01      1.648203000000000E+02      3.947296000000000E-01      7.205859000000000E+01      4.080048000000000E-01     -1.531494000000000E+01      3.963318000000000E-01     -5.294335000000000E+01
4877000000.000000      7.142029000000000E-01      1.650625000000000E+02      3.921356000000000E-01      7.174609000000000E+01      4.052582000000000E-01     -1.594287000000000E+01      3.905029000000000E-01     -5.199609000000000E+01
4878000000.000000      7.125244000000000E-01      1.650781000000000E+02      3.906555000000000E-01      7.115234000000000E+01      4.013367000000000E-01     -1.639941000000000E+01      3.862762000000000E-01     -5.106250000000000E+01
4879000000.000000      7.132874000000000E-01      1.649531000000000E+02      3.846130000000000E-01      7.071094000000000E+01      3.990631000000000E-01     -1.704394000000000E+01      3.820496000000000E-01     -5.002539000000000E+01
4880000000.000000      7.092590000000000E-01      1.649688000000000E+02      3.819122000000000E-01      6.986328000000000E+01      3.974609000000000E-01     -1.759277000000000E+01      3.780975000000000E-01     -4.897655000000000E+01
4881000000.000000      7.105103000000000E-01      1.651328000000000E+02      3.784485000000000E-01      6.954687000000000E+01      3.923950000000000E-01     -1.820898000000000E+01      3.751373000000000E-01     -4.791601000000000E+01
4882000000.000000      7.070618000000000E-01      1.651875000000000E+02      3.744812000000000E-01      6.900781000000000E+01      3.900299000000000E-01     -1.877344000000000E+01      3.717804000000000E-01     -4.673633000000000E+01
