! Network Analyzer HP8722D
! Hewlett-Packard
! Data name: Linha & Wilkinson
! Saver's name: Rodrigo Anjos
! Comments: Teste da utilização de aquisição
continua pelo VNA HP8722D
! Time and date: 8/5/2025 15:10
!              Frequency                     S11                                                   S21                                                   S12                                                   S22
# HZ  S  MA R 50
4800000000.000000      5.240479000000000E-01     -2.495019000000000E+01      3.826294000000000E-01     -1.520000000000000E+02      3.996277000000000E-01      7.183594000000000E+00      4.909515000000000E-01      4.985046000000000E-01
4801000000.000000      5.234375000000000E-01     -2.446972000000000E+01      3.857574000000000E-01     -1.524062000000000E+02      4.046326000000000E-01      6.864990000000000E+00      4.882355000000000E-01      5.905151000000000E-01
4802000000.000000      5.219727000000000E-01     -2.442480000000000E+01      3.894653000000000E-01     -1.528750000000000E+02      4.077759000000000E-01      6.748291000000000E+00      4.828491000000000E-01      9.448242000000000E-01
4803000000.000000      5.217896000000000E-01     -2.411718000000000E+01      3.934479000000000E-01     -1.532422000000000E+02      4.101715000000000E-01      6.779785000000000E+00      4.755249000000000E-01      9.667969000000000E-01
4804000000.000000      5.198059000000000E-01     -2.381054000000000E+01      3.977814000000000E-01     -1.538203000000000E+02      4.161072000000000E-01      6.370605000000000E+00      4.673767000000000E-01      1.301880000000000E+00
4805000000.000000      5.197449000000000E-01     -2.374316000000000E+01      4.009399000000000E-01     -1.538906000000000E+02      4.198761000000000E-01      6.576660000000000E+00      4.616852000000000E-01      1.325195000000000E+00
4806000000.000000      5.161133000000000E-01     -2.335840000000000E+01      4.045563000000000E-01     -1.543906000000000E+02      4.221191000000000E-01      6.333496000000000E+00      4.544830000000000E-01      1.319702000000000E+00
4807000000.000000      5.149536000000000E-01     -2.303027000000000E+01      4.088898000000000E-01     -1.551094000000000E+02      4.264832000000000E-01      6.300537000000000E+00      4.471588000000000E-01      1.656189000000000E+00
4808000000.000000      5.166016000000000E-01     -2.286035000000000E+01      4.119263000000000E-01     -1.552187000000000E+02      4.298248000000000E-01      6.023193000000000E+00      4.400177000000000E-01      1.890991000000000E+00
4809000000.000000      5.126648000000000E-01     -2.264062000000000E+01      4.170685000000000E-01     -1.558828000000000E+02      4.343262000000000E-01      5.741699000000000E+00      4.318237000000000E-01      2.275513000000000E+00
4810000000.000000      5.140991000000000E-01     -2.232031000000000E+01      4.203033000000000E-01     -1.560078000000000E+02      4.378357000000000E-01      5.671631000000000E+00      4.248962000000000E-01      2.180786000000000E+00
4811000000.000000      5.137939000000000E-01     -2.205273000000000E+01      4.233551000000000E-01     -1.567109000000000E+02      4.414215000000000E-01      5.677002000000000E+00      4.173584000000000E-01      2.732788000000000E+00
4812000000.000000      5.131836000000000E-01     -2.180859000000000E+01      4.264679000000000E-01     -1.569141000000000E+02      4.449921000000000E-01      5.271973000000000E+00      4.094543000000000E-01      2.717651000000000E+00
4813000000.000000      5.113220000000000E-01     -2.176856000000000E+01      4.295959000000000E-01     -1.576015000000000E+02      4.481506000000000E-01      5.243164000000000E+00      4.024963000000000E-01      3.376831000000000E+00
4814000000.000000      5.086060000000000E-01     -2.183008000000000E+01      4.338379000000000E-01     -1.579375000000000E+02      4.521484000000000E-01      5.293945000000000E+00      3.933105000000000E-01      3.544434000000000E+00
4815000000.000000      5.069580000000000E-01     -2.126953000000000E+01      4.357758000000000E-01     -1.584375000000000E+02      4.547272000000000E-01      4.962891000000000E+00      3.855438000000000E-01      4.007080000000000E+00
4816000000.000000      5.068970000000000E-01     -2.112011000000000E+01      4.386139000000000E-01     -1.587891000000000E+02      4.608612000000000E-01      5.024658000000000E+00      3.778229000000000E-01      4.224121000000000E+00
4817000000.000000      5.054016000000000E-01     -2.110254000000000E+01      4.410248000000000E-01     -1.594063000000000E+02      4.617004000000000E-01      4.818848000000000E+00      3.674316000000000E-01      4.744629000000000E+00
4818000000.000000      5.038147000000000E-01     -2.088379000000000E+01      4.449463000000000E-01     -1.598359000000000E+02      4.652252000000000E-01      4.619629000000000E+00      3.585510000000000E-01      5.197754000000000E+00
4819000000.000000      5.018616000000000E-01     -2.069043000000000E+01      4.469452000000000E-01     -1.602656000000000E+02      4.682007000000000E-01      4.354492000000000E+00      3.492432000000000E-01      5.457275000000000E+00
4820000000.000000      4.999237000000000E-01     -2.029590000000000E+01      4.506531000000000E-01     -1.607109000000000E+02      4.732361000000000E-01      4.141846000000000E+00      3.414459000000000E-01      6.144043000000000E+00
4821000000.000000      4.997864000000000E-01     -2.034863000000000E+01      4.542694000000000E-01     -1.611094000000000E+02      4.746704000000000E-01      4.024902000000000E+00      3.320160000000000E-01      6.826416000000000E+00
4822000000.000000      4.981232000000000E-01     -2.031933000000000E+01      4.548492000000000E-01     -1.617031000000000E+02      4.779816000000000E-01      3.935791000000000E+00      3.238068000000000E-01      7.191895000000000E+00
4823000000.000000      4.979095000000000E-01     -2.003808000000000E+01      4.581299000000000E-01     -1.621641000000000E+02      4.815674000000000E-01      3.713379000000000E+00      3.146973000000000E-01      7.886719000000000E+00
4824000000.000000      4.944458000000000E-01     -1.995898000000000E+01      4.604950000000000E-01     -1.625469000000000E+02      4.851532000000000E-01      3.529297000000000E+00      3.051300000000000E-01      8.452148000000000E+00
4825000000.000000      4.944763000000000E-01     -1.977148000000000E+01      4.628601000000000E-01     -1.629766000000000E+02      4.899597000000000E-01      3.460693000000000E+00      2.977295000000000E-01      9.354492000000000E+00
4826000000.000000      4.925690000000000E-01     -1.970215000000000E+01      4.649963000000000E-01     -1.634687000000000E+02      4.907379000000000E-01      3.350830000000000E+00      2.871857000000000E-01      1.014697000000000E+01
4827000000.000000      4.910278000000000E-01     -1.946094000000000E+01      4.673004000000000E-01     -1.637891000000000E+02      4.932404000000000E-01      3.099487000000000E+00      2.793427000000000E-01      1.103955000000000E+01
4828000000.000000      4.912720000000000E-01     -1.942676000000000E+01      4.706879000000000E-01     -1.643828000000000E+02      4.974365000000000E-01      2.988281000000000E+00      2.706146000000000E-01      1.176611000000000E+01
4829000000.000000      4.870300000000000E-01     -1.909180000000000E+01      4.720764000000000E-01     -1.648203000000000E+02      5.001526000000000E-01      2.881104000000000E+00      2.622986000000000E-01      1.324512000000000E+01
4830000000.000000      4.860687000000000E-01     -1.923047000000000E+01      4.732513000000000E-01     -1.653047000000000E+02      5.045776000000000E-01      2.776733000000000E+00      2.517090000000000E-01      1.454590000000000E+01
4831000000.000000      4.851532000000000E-01     -1.896875000000000E+01      4.768982000000000E-01     -1.658359000000000E+02      5.061340000000000E-01      2.614746000000000E+00      2.434464000000000E-01      1.563867000000000E+01
4832000000.000000      4.837646000000000E-01     -1.886426000000000E+01      4.772949000000000E-01     -1.660391000000000E+02      5.090637000000000E-01      2.452637000000000E+00      2.337189000000000E-01      1.742480000000000E+01
4833000000.000000      4.822388000000000E-01     -1.885840000000000E+01      4.791412000000000E-01     -1.664141000000000E+02      5.113831000000000E-01      2.109375000000000E+00      2.243958000000000E-01      1.871094000000000E+01
4834000000.000000      4.814911000000000E-01     -1.845312000000000E+01      4.808350000000000E-01     -1.670781000000000E+02      5.148315000000000E-01      2.146362000000000E+00      2.182846000000000E-01      2.055371000000000E+01
4835000000.000000      4.788055000000000E-01     -1.845215000000000E+01      4.834290000000000E-01     -1.676250000000000E+02      5.175781000000000E-01      1.980286000000000E+00      2.094498000000000E-01      2.235547000000000E+01
4836000000.000000      4.761505000000000E-01     -1.807129000000000E+01      4.824982000000000E-01     -1.679297000000000E+02      5.196533000000000E-01      2.028320000000000E+00      2.019272000000000E-01      2.450879000000000E+01
4837000000.000000      4.744110000000000E-01     -1.792187000000000E+01      4.839630000000000E-01     -1.686250000000000E+02      5.213928000000000E-01      1.485901000000000E+00      1.942368000000000E-01      2.672558000000000E+01
4838000000.000000      4.732971000000000E-01     -1.795508000000000E+01      4.877167000000000E-01     -1.687422000000000E+02      5.253906000000000E-01      1.377380000000000E+00      1.880264000000000E-01      2.910937000000000E+01
4839000000.000000      4.742126000000000E-01     -1.748926000000000E+01      4.882202000000000E-01     -1.692656000000000E+02      5.279846000000000E-01      1.389771000000000E+00      1.823120000000000E-01      3.139453000000000E+01
4840000000.000000      4.712982000000000E-01     -1.771191000000000E+01      4.893341000000000E-01     -1.695234000000000E+02      5.298767000000000E-01      1.079407000000000E+00      1.754913000000000E-01      3.411523000000000E+01
4841000000.000000      4.673767000000000E-01     -1.732715000000000E+01      4.903259000000000E-01     -1.700391000000000E+02      5.307922000000000E-01      7.635498000000000E-01      1.697769000000000E-01      3.749218000000000E+01
4842000000.000000      4.665222000000000E-01     -1.727344000000000E+01      4.915314000000000E-01     -1.703359000000000E+02      5.325928000000000E-01      8.116150000000000E-01      1.657791000000000E-01      4.082421000000000E+01
4843000000.000000      4.659119000000000E-01     -1.705957000000000E+01      4.932251000000000E-01     -1.709297000000000E+02      5.358887000000000E-01      4.669189000000000E-01      1.614380000000000E-01      4.408593000000000E+01
4844000000.000000      4.654999000000000E-01     -1.661035000000000E+01      4.938507000000000E-01     -1.713594000000000E+02      5.375977000000000E-01      3.707886000000000E-01      1.565704000000000E-01      4.799805000000000E+01
4845000000.000000      4.644470000000000E-01     -1.638965000000000E+01      4.945679000000000E-01     -1.715703000000000E+02      5.394897000000000E-01      1.071167000000000E-01      1.545792000000000E-01      5.123632000000000E+01
4846000000.000000      4.625397000000000E-01     -1.611426000000000E+01      4.952087000000000E-01     -1.720469000000000E+02      5.418091000000000E-01     -1.922607000000000E-02      1.525955000000000E-01      5.525781000000000E+01
4847000000.000000      4.624176000000000E-01     -1.600098000000000E+01      4.972534000000000E-01     -1.723516000000000E+02      5.446777000000000E-01     -2.348328000000000E-01      1.500168000000000E-01      5.914063000000000E+01
4848000000.000000      4.603882000000000E-01     -1.602832000000000E+01      4.961395000000000E-01     -1.727578000000000E+02      5.449524000000000E-01     -4.710388000000000E-01      1.516953000000000E-01      6.309960000000000E+01
4849000000.000000      4.601440000000000E-01     -1.569678000000000E+01      4.982300000000000E-01     -1.731719000000000E+02      5.466309000000000E-01     -6.330872000000000E-01      1.504669000000000E-01      6.709374000000000E+01
4850000000.000000      4.584503000000000E-01     -1.544971000000000E+01      4.982300000000000E-01     -1.734141000000000E+02      5.493774000000000E-01     -6.811523000000000E-01      1.533127000000000E-01      7.073047000000000E+01
4851000000.000000      4.568329000000000E-01     -1.515332000000000E+01      4.983673000000000E-01     -1.738906000000000E+02      5.490723000000000E-01     -8.418274000000000E-01      1.548386000000000E-01      7.414453000000000E+01
4852000000.000000      4.581299000000000E-01     -1.459424000000000E+01      5.003967000000000E-01     -1.742969000000000E+02      5.510254000000000E-01     -8.885193000000000E-01      1.575165000000000E-01      7.748437000000000E+01
4853000000.000000      4.571838000000000E-01     -1.466699000000000E+01      5.007629000000000E-01     -1.746562000000000E+02      5.536194000000000E-01     -1.244202000000000E+00      1.612320000000000E-01      8.065233000000000E+01
4854000000.000000      4.565735000000000E-01     -1.419189000000000E+01      5.018005000000000E-01     -1.751250000000000E+02      5.536194000000000E-01     -1.333496000000000E+00      1.650391000000000E-01      8.378124000000000E+01
4855000000.000000      4.559937000000000E-01     -1.414941000000000E+01      5.015259000000000E-01     -1.753828000000000E+02      5.561523000000000E-01     -1.572449000000000E+00      1.689072000000000E-01      8.694921000000000E+01
4856000000.000000      4.554901000000000E-01     -1.354102000000000E+01      5.025024000000000E-01     -1.757031000000000E+02      5.560608000000000E-01     -1.750977000000000E+00      1.745605000000000E-01      8.962891000000000E+01
4857000000.000000      4.556885000000000E-01     -1.343262000000000E+01      5.060425000000000E-01     -1.759453000000000E+02      5.570068000000000E-01     -1.874573000000000E+00      1.784973000000000E-01      9.203905000000000E+01
4858000000.000000      4.561615000000000E-01     -1.322900000000000E+01      5.048828000000000E-01     -1.763438000000000E+02      5.592346000000000E-01     -2.047607000000000E+00      1.828384000000000E-01      9.453905000000000E+01
4859000000.000000      4.570923000000000E-01     -1.302588000000000E+01      5.066223000000000E-01     -1.766562000000000E+02      5.583496000000000E-01     -2.198730000000000E+00      1.906204000000000E-01      9.596483000000000E+01
4860000000.000000      4.565277000000000E-01     -1.258643000000000E+01      5.065613000000000E-01     -1.769844000000000E+02      5.575256000000000E-01     -2.421143000000000E+00      1.956329000000000E-01      9.787109000000000E+01
4861000000.000000      4.582520000000000E-01     -1.241602000000000E+01      5.062866000000000E-01     -1.775547000000000E+02      5.594177000000000E-01     -2.498047000000000E+00      2.004395000000000E-01      1.003477000000000E+02
4862000000.000000      4.569855000000000E-01     -1.222656000000000E+01      5.092773000000000E-01     -1.776562000000000E+02      5.610352000000000E-01     -2.636719000000000E+00      2.066650000000000E-01      1.010820000000000E+02
4863000000.000000      4.599457000000000E-01     -1.164160000000000E+01      5.076904000000000E-01     -1.781250000000000E+02      5.592957000000000E-01     -2.749390000000000E+00      2.133789000000000E-01      1.025703000000000E+02
4864000000.000000      4.598846000000000E-01     -1.143848000000000E+01      5.091858000000000E-01     -1.782969000000000E+02      5.596924000000000E-01     -2.908691000000000E+00      2.203522000000000E-01      1.042578000000000E+02
4865000000.000000      4.607544000000000E-01     -1.114844000000000E+01      5.086060000000000E-01     -1.785156000000000E+02      5.601501000000000E-01     -2.853760000000000E+00      2.259903000000000E-01      1.051601000000000E+02
4866000000.000000      4.638977000000000E-01     -1.102490000000000E+01      5.107117000000000E-01     -1.791094000000000E+02      5.605469000000000E-01     -3.195679000000000E+00      2.317123000000000E-01      1.059258000000000E+02
4867000000.000000      4.633636000000000E-01     -1.058301000000000E+01      5.097351000000000E-01     -1.794609000000000E+02      5.592651000000000E-01     -3.180542000000000E+00      2.367859000000000E-01      1.073125000000000E+02
4868000000.000000      4.661865000000000E-01     -1.050879000000000E+01      5.119019000000000E-01     -1.799219000000000E+02      5.606384000000000E-01     -3.466187000000000E+00      2.427979000000000E-01      1.076797000000000E+02
4869000000.000000      4.688721000000000E-01     -1.032031000000000E+01      5.118713000000000E-01      1.798047000000000E+02      5.596924000000000E-01     -3.429199000000000E+00      2.477417000000000E-01      1.089375000000000E+02
4870000000.000000      4.697418000000000E-01     -1.002783000000000E+01      5.132446000000000E-01      1.796484000000000E+02      5.596008000000000E-01     -3.592529000000000E+00      2.542877000000000E-01      1.097070000000000E+02
4871000000.000000      4.714508000000000E-01     -9.741211000000000E+00      5.149841000000000E-01      1.791250000000000E+02      5.597839000000000E-01     -3.643433000000000E+00      2.590637000000000E-01      1.101133000000000E+02
4872000000.000000      4.737854000000000E-01     -9.588379000000000E+00      5.141907000000000E-01      1.789297000000000E+02      5.590210000000000E-01     -3.795776000000000E+00      2.662201000000000E-01      1.106289000000000E+02
4873000000.000000      4.755859000000000E-01     -9.481445000000000E+00      5.153198000000000E-01      1.784062000000000E+02      5.597534000000000E-01     -3.891968000000000E+00      2.702637000000000E-01      1.110781000000000E+02
4874000000.000000      4.786682000000000E-01     -9.400391000000000E+00      5.156250000000000E-01      1.780391000000000E+02      5.576477000000000E-01     -4.136475000000000E+00      2.760010000000000E-01      1.117539000000000E+02
4875000000.000000      4.830780000000000E-01     -9.106445000000000E+00      5.158386000000000E-01      1.777109000000000E+02      5.576172000000000E-01     -3.880981000000000E+00      2.786713000000000E-01      1.124844000000000E+02
4876000000.000000      4.829559000000000E-01     -8.533691000000000E+00      5.162659000000000E-01      1.773672000000000E+02      5.580139000000000E-01     -3.783447000000000E+00      2.854462000000000E-01      1.125742000000000E+02
4877000000.000000      4.877777000000000E-01     -9.040527000000000E+00      5.173950000000000E-01      1.768828000000000E+02      5.563049000000000E-01     -4.253174000000000E+00      2.898560000000000E-01      1.130078000000000E+02
4878000000.000000      4.896240000000000E-01     -8.646484000000000E+00      5.195313000000000E-01      1.764922000000000E+02      5.568542000000000E-01     -3.988037000000000E+00      2.951202000000000E-01      1.130156000000000E+02
4879000000.000000      4.927826000000000E-01     -8.445801000000000E+00      5.188293000000000E-01      1.761953000000000E+02      5.563660000000000E-01     -4.176270000000000E+00      2.992859000000000E-01      1.133281000000000E+02
4880000000.000000      4.963531000000000E-01     -8.569336000000000E+00      5.187683000000000E-01      1.756875000000000E+02      5.549622000000000E-01     -4.058105000000000E+00      3.006897000000000E-01      1.137852000000000E+02
4881000000.000000      4.981537000000000E-01     -8.322266000000000E+00      5.202637000000000E-01      1.753047000000000E+02      5.548401000000000E-01     -4.125488000000000E+00      3.062592000000000E-01      1.142109000000000E+02
4882000000.000000      5.019531000000000E-01     -8.094238000000000E+00      5.208740000000000E-01      1.751016000000000E+02      5.546875000000000E-01     -4.243652000000000E+00      3.115234000000000E-01      1.138281000000000E+02
