! Network Analyzer HP8722D
! Hewlett-Packard
! Data name: Linha & Wilkinson
! Saver's name: Rodrigo Anjos
! Comments: Teste da utilização de aquisição
continua pelo VNA HP8722D
! Time and date: 8/5/2025 16:54
!              Frequency                     S11                                                   S21                                                   S12                                                   S22
# HZ  S  MA R 50
4800000000.000000      4.932861000000000E-01     -1.672812000000000E+02      2.637634000000000E-01     -2.080761000000000E+01      2.604828000000000E-01     -1.421016000000000E+02      6.528625000000000E-01     -8.018358000000000E+01
4801000000.000000      4.949188000000000E-01     -1.673516000000000E+02      2.681580000000000E-01     -2.119824000000000E+01      2.638092000000000E-01     -1.422422000000000E+02      6.514893000000000E-01     -7.998437000000000E+01
4802000000.000000      4.959106000000000E-01     -1.674531000000000E+02      2.714233000000000E-01     -2.139355000000000E+01      2.678070000000000E-01     -1.421484000000000E+02      6.503601000000000E-01     -7.976953000000000E+01
4803000000.000000      4.983368000000000E-01     -1.675313000000000E+02      2.758789000000000E-01     -2.170508000000000E+01      2.705688000000000E-01     -1.423203000000000E+02      6.504517000000000E-01     -7.951953000000000E+01
4804000000.000000      5.003662000000000E-01     -1.674453000000000E+02      2.797394000000000E-01     -2.191016000000000E+01      2.743378000000000E-01     -1.426094000000000E+02      6.503906000000000E-01     -7.920703000000000E+01
4805000000.000000      5.037842000000000E-01     -1.675859000000000E+02      2.841034000000000E-01     -2.235938000000000E+01      2.780151000000000E-01     -1.425859000000000E+02      6.510620000000000E-01     -7.908984000000000E+01
4806000000.000000      5.052795000000000E-01     -1.674922000000000E+02      2.880096000000000E-01     -2.262012000000000E+01      2.804260000000000E-01     -1.425156000000000E+02      6.502686000000000E-01     -7.898438000000000E+01
4807000000.000000      5.085754000000000E-01     -1.675859000000000E+02      2.919464000000000E-01     -2.309277000000000E+01      2.847290000000000E-01     -1.428594000000000E+02      6.497498000000000E-01     -7.873047000000000E+01
4808000000.000000      5.112000000000000E-01     -1.675313000000000E+02      2.961273000000000E-01     -2.321484000000000E+01      2.874298000000000E-01     -1.429922000000000E+02      6.498413000000000E-01     -7.845312000000000E+01
4809000000.000000      5.132751000000000E-01     -1.675469000000000E+02      2.998505000000000E-01     -2.384082000000000E+01      2.919769000000000E-01     -1.432188000000000E+02      6.508484000000000E-01     -7.833593000000000E+01
4810000000.000000      5.169373000000000E-01     -1.675703000000000E+02      3.036652000000000E-01     -2.407129000000000E+01      2.942657000000000E-01     -1.432734000000000E+02      6.517639000000000E-01     -7.819140000000000E+01
4811000000.000000      5.202332000000000E-01     -1.675313000000000E+02      3.068542000000000E-01     -2.455664000000000E+01      2.991486000000000E-01     -1.434453000000000E+02      6.522827000000000E-01     -7.784765000000000E+01
4812000000.000000      5.245667000000000E-01     -1.674609000000000E+02      3.106079000000000E-01     -2.499023000000000E+01      3.018188000000000E-01     -1.436484000000000E+02      6.536560000000000E-01     -7.776953000000000E+01
4813000000.000000      5.269775000000000E-01     -1.674375000000000E+02      3.144073000000000E-01     -2.535840000000000E+01      3.044891000000000E-01     -1.437344000000000E+02      6.528320000000000E-01     -7.748047000000000E+01
4814000000.000000      5.301819000000000E-01     -1.675313000000000E+02      3.178864000000000E-01     -2.574023000000000E+01      3.073120000000000E-01     -1.439375000000000E+02      6.546021000000000E-01     -7.746094000000000E+01
4815000000.000000      5.341492000000000E-01     -1.673281000000000E+02      3.212891000000000E-01     -2.633496000000000E+01      3.103790000000000E-01     -1.440703000000000E+02      6.550598000000000E-01     -7.718750000000000E+01
4816000000.000000      5.391846000000000E-01     -1.672656000000000E+02      3.254547000000000E-01     -2.659277000000000E+01      3.148956000000000E-01     -1.442812000000000E+02      6.576843000000000E-01     -7.704687000000000E+01
4817000000.000000      5.438232000000000E-01     -1.672578000000000E+02      3.274841000000000E-01     -2.722851000000000E+01      3.165131000000000E-01     -1.444609000000000E+02      6.584473000000000E-01     -7.692968000000000E+01
4818000000.000000      5.473938000000000E-01     -1.672344000000000E+02      3.311768000000000E-01     -2.756250000000000E+01      3.198700000000000E-01     -1.446172000000000E+02      6.596985000000000E-01     -7.683203000000000E+01
4819000000.000000      5.525818000000000E-01     -1.671406000000000E+02      3.339539000000000E-01     -2.806543000000000E+01      3.222656000000000E-01     -1.448359000000000E+02      6.625061000000000E-01     -7.671093000000000E+01
4820000000.000000      5.554504000000000E-01     -1.670547000000000E+02      3.371735000000000E-01     -2.851171000000000E+01      3.259277000000000E-01     -1.449531000000000E+02      6.651001000000000E-01     -7.645312000000000E+01
4821000000.000000      5.615845000000000E-01     -1.670547000000000E+02      3.408356000000000E-01     -2.883691000000000E+01      3.275604000000000E-01     -1.453438000000000E+02      6.654358000000000E-01     -7.637500000000000E+01
4822000000.000000      5.686951000000000E-01     -1.670234000000000E+02      3.439941000000000E-01     -2.951367000000000E+01      3.302002000000000E-01     -1.455625000000000E+02      6.691589000000000E-01     -7.640625000000000E+01
4823000000.000000      5.722351000000000E-01     -1.668516000000000E+02      3.468781000000000E-01     -2.995605000000000E+01      3.330536000000000E-01     -1.455156000000000E+02      6.708984000000000E-01     -7.628906000000000E+01
4824000000.000000      5.793457000000000E-01     -1.668984000000000E+02      3.492737000000000E-01     -3.062207000000000E+01      3.358459000000000E-01     -1.458516000000000E+02      6.733704000000000E-01     -7.607812000000000E+01
4825000000.000000      5.838928000000000E-01     -1.668125000000000E+02      3.526154000000000E-01     -3.095898000000000E+01      3.387604000000000E-01     -1.460312000000000E+02      6.762085000000000E-01     -7.596874000000000E+01
4826000000.000000      5.903931000000000E-01     -1.667500000000000E+02      3.548737000000000E-01     -3.151367000000000E+01      3.407135000000000E-01     -1.462422000000000E+02      6.790161000000000E-01     -7.596093000000000E+01
4827000000.000000      5.961609000000000E-01     -1.665781000000000E+02      3.573914000000000E-01     -3.192578000000000E+01      3.430634000000000E-01     -1.463750000000000E+02      6.817017000000000E-01     -7.575390000000000E+01
4828000000.000000      6.028748000000000E-01     -1.665390000000000E+02      3.614349000000000E-01     -3.256445000000000E+01      3.449249000000000E-01     -1.466016000000000E+02      6.855164000000000E-01     -7.575000000000000E+01
4829000000.000000      6.060181000000000E-01     -1.664922000000000E+02      3.626862000000000E-01     -3.300586000000000E+01      3.477936000000000E-01     -1.467969000000000E+02      6.884460000000000E-01     -7.563281000000000E+01
4830000000.000000      6.141968000000000E-01     -1.663906000000000E+02      3.652191000000000E-01     -3.350976000000000E+01      3.493195000000000E-01     -1.469453000000000E+02      6.900940000000000E-01     -7.550781000000000E+01
4831000000.000000      6.188354000000000E-01     -1.663516000000000E+02      3.676147000000000E-01     -3.425000000000000E+01      3.523102000000000E-01     -1.471016000000000E+02      6.936035000000000E-01     -7.544140000000000E+01
4832000000.000000      6.275940000000000E-01     -1.662891000000000E+02      3.700409000000000E-01     -3.474609000000000E+01      3.538818000000000E-01     -1.473984000000000E+02      6.977539000000000E-01     -7.548828000000000E+01
4833000000.000000      6.344910000000000E-01     -1.662891000000000E+02      3.719940000000000E-01     -3.528320000000000E+01      3.566895000000000E-01     -1.476875000000000E+02      7.008057000000000E-01     -7.538280000000000E+01
4834000000.000000      6.402283000000000E-01     -1.662891000000000E+02      3.740692000000000E-01     -3.576172000000000E+01      3.585510000000000E-01     -1.477266000000000E+02      7.026672000000000E-01     -7.538280000000000E+01
4835000000.000000      6.464233000000000E-01     -1.661406000000000E+02      3.755035000000000E-01     -3.632031000000000E+01      3.608856000000000E-01     -1.479766000000000E+02      7.082825000000000E-01     -7.537499000000000E+01
4836000000.000000      6.555786000000000E-01     -1.661016000000000E+02      3.773041000000000E-01     -3.687304000000000E+01      3.621063000000000E-01     -1.481406000000000E+02      7.104187000000000E-01     -7.523438000000000E+01
4837000000.000000      6.617737000000000E-01     -1.659922000000000E+02      3.798065000000000E-01     -3.761328000000000E+01      3.641052000000000E-01     -1.484141000000000E+02      7.156372000000000E-01     -7.521093000000000E+01
4838000000.000000      6.686401000000000E-01     -1.660547000000000E+02      3.810883000000000E-01     -3.795312000000000E+01      3.659515000000000E-01     -1.485000000000000E+02      7.193604000000000E-01     -7.519921000000000E+01
4839000000.000000      6.754150000000000E-01     -1.659765000000000E+02      3.823853000000000E-01     -3.855859000000000E+01      3.674316000000000E-01     -1.485781000000000E+02      7.225037000000000E-01     -7.510156000000000E+01
4840000000.000000      6.816101000000000E-01     -1.660078000000000E+02      3.832855000000000E-01     -3.898438000000000E+01      3.702393000000000E-01     -1.489219000000000E+02      7.274170000000000E-01     -7.517968000000000E+01
4841000000.000000      6.900635000000000E-01     -1.660312000000000E+02      3.849335000000000E-01     -3.967187000000000E+01      3.721008000000000E-01     -1.490547000000000E+02      7.308960000000000E-01     -7.521874000000000E+01
4842000000.000000      6.971436000000000E-01     -1.659453000000000E+02      3.861847000000000E-01     -4.028320000000000E+01      3.732605000000000E-01     -1.492969000000000E+02      7.362366000000000E-01     -7.514843000000000E+01
4843000000.000000      7.037048000000000E-01     -1.659765000000000E+02      3.868256000000000E-01     -4.086719000000000E+01      3.746033000000000E-01     -1.495000000000000E+02      7.388306000000000E-01     -7.519140000000000E+01
4844000000.000000      7.110291000000000E-01     -1.659141000000000E+02      3.882751000000000E-01     -4.126367000000000E+01      3.764343000000000E-01     -1.496250000000000E+02      7.434692000000000E-01     -7.524219000000000E+01
4845000000.000000      7.174988000000000E-01     -1.658594000000000E+02      3.888702000000000E-01     -4.184570000000000E+01      3.781891000000000E-01     -1.497109000000000E+02      7.472229000000000E-01     -7.518749000000000E+01
4846000000.000000      7.245178000000000E-01     -1.657578000000000E+02      3.895721000000000E-01     -4.241015000000000E+01      3.798523000000000E-01     -1.500234000000000E+02      7.518311000000000E-01     -7.530468000000000E+01
4847000000.000000      7.331848000000000E-01     -1.658516000000000E+02      3.901215000000000E-01     -4.291016000000000E+01      3.816071000000000E-01     -1.502109000000000E+02      7.573853000000000E-01     -7.535156000000000E+01
4848000000.000000      7.404480000000000E-01     -1.658281000000000E+02      3.899231000000000E-01     -4.336523000000000E+01      3.828430000000000E-01     -1.502578000000000E+02      7.601318000000000E-01     -7.527734000000000E+01
4849000000.000000      7.469482000000000E-01     -1.660234000000000E+02      3.915253000000000E-01     -4.411718000000000E+01      3.838959000000000E-01     -1.504922000000000E+02      7.648621000000000E-01     -7.523438000000000E+01
4850000000.000000      7.536621000000000E-01     -1.658594000000000E+02      3.913879000000000E-01     -4.441015000000000E+01      3.857727000000000E-01     -1.505703000000000E+02      7.697449000000000E-01     -7.530859000000000E+01
4851000000.000000      7.604370000000000E-01     -1.658828000000000E+02      3.922577000000000E-01     -4.505468000000000E+01      3.862000000000000E-01     -1.508047000000000E+02      7.749939000000000E-01     -7.534374000000000E+01
4852000000.000000      7.677917000000000E-01     -1.658359000000000E+02      3.927765000000000E-01     -4.556250000000000E+01      3.882599000000000E-01     -1.509063000000000E+02      7.795105000000000E-01     -7.541016000000000E+01
4853000000.000000      7.740479000000000E-01     -1.659375000000000E+02      3.903351000000000E-01     -4.591992000000000E+01      3.902588000000000E-01     -1.511562000000000E+02      7.835999000000000E-01     -7.555078000000000E+01
4854000000.000000      7.810669000000000E-01     -1.659297000000000E+02      3.915100000000000E-01     -4.668554000000000E+01      3.908539000000000E-01     -1.512656000000000E+02      7.891235000000000E-01     -7.551562000000000E+01
4855000000.000000      7.859802000000000E-01     -1.658906000000000E+02      3.909607000000000E-01     -4.695313000000000E+01      3.917084000000000E-01     -1.514297000000000E+02      7.920837000000000E-01     -7.548046000000000E+01
4856000000.000000      7.941589000000000E-01     -1.659297000000000E+02      3.905640000000000E-01     -4.732031000000000E+01      3.931122000000000E-01     -1.515859000000000E+02      7.986145000000000E-01     -7.555469000000000E+01
4857000000.000000      8.001404000000000E-01     -1.660078000000000E+02      3.909149000000000E-01     -4.794141000000000E+01      3.941040000000000E-01     -1.515859000000000E+02      8.018494000000000E-01     -7.557812000000000E+01
4858000000.000000      8.030090000000000E-01     -1.660000000000000E+02      3.898468000000000E-01     -4.839257000000000E+01      3.948822000000000E-01     -1.518750000000000E+02      8.059387000000000E-01     -7.569921000000000E+01
4859000000.000000      8.104248000000000E-01     -1.659922000000000E+02      3.901215000000000E-01     -4.885351000000000E+01      3.962402000000000E-01     -1.521016000000000E+02      8.129272000000000E-01     -7.576953000000000E+01
4860000000.000000      8.158569000000000E-01     -1.660938000000000E+02      3.890839000000000E-01     -4.916992000000000E+01      3.967285000000000E-01     -1.521172000000000E+02      8.163147000000000E-01     -7.573437000000000E+01
4861000000.000000      8.242188000000000E-01     -1.659531000000000E+02      3.883362000000000E-01     -4.985352000000000E+01      3.981934000000000E-01     -1.523828000000000E+02      8.210754000000000E-01     -7.591015000000000E+01
4862000000.000000      8.277893000000000E-01     -1.659531000000000E+02      3.885040000000000E-01     -5.011132000000000E+01      3.994598000000000E-01     -1.524219000000000E+02      8.271790000000000E-01     -7.598827000000000E+01
4863000000.000000      8.331909000000000E-01     -1.660312000000000E+02      3.858337000000000E-01     -5.062500000000000E+01      4.011230000000000E-01     -1.526172000000000E+02      8.313904000000000E-01     -7.598437000000000E+01
4864000000.000000      8.398438000000000E-01     -1.660547000000000E+02      3.861237000000000E-01     -5.077343000000000E+01      4.000854000000000E-01     -1.527500000000000E+02      8.355408000000000E-01     -7.610546000000000E+01
4865000000.000000      8.390808000000000E-01     -1.661953000000000E+02      3.843536000000000E-01     -5.136719000000000E+01      4.018707000000000E-01     -1.529297000000000E+02      8.397217000000000E-01     -7.611328000000000E+01
4866000000.000000      8.464966000000000E-01     -1.661484000000000E+02      3.833008000000000E-01     -5.179296000000000E+01      4.028168000000000E-01     -1.531094000000000E+02      8.442688000000000E-01     -7.617578000000000E+01
4867000000.000000      8.512268000000000E-01     -1.659922000000000E+02      3.823395000000000E-01     -5.227344000000000E+01      4.030457000000000E-01     -1.532656000000000E+02      8.503418000000000E-01     -7.629687000000000E+01
4868000000.000000      8.545227000000000E-01     -1.662656000000000E+02      3.811951000000000E-01     -5.253124000000000E+01      4.041290000000000E-01     -1.533437000000000E+02      8.539124000000000E-01     -7.635547000000000E+01
4869000000.000000      8.572998000000000E-01     -1.660625000000000E+02      3.786316000000000E-01     -5.291016000000000E+01      4.044647000000000E-01     -1.535781000000000E+02      8.593445000000000E-01     -7.660937000000000E+01
4870000000.000000      8.635254000000000E-01     -1.660781000000000E+02      3.786926000000000E-01     -5.304688000000000E+01      4.053040000000000E-01     -1.537578000000000E+02      8.643188000000000E-01     -7.659374000000000E+01
4871000000.000000      8.657837000000000E-01     -1.660938000000000E+02      3.782349000000000E-01     -5.349023000000000E+01      4.051208000000000E-01     -1.539141000000000E+02      8.669128000000000E-01     -7.673437000000000E+01
4872000000.000000      8.730469000000000E-01     -1.660781000000000E+02      3.754425000000000E-01     -5.355859000000000E+01      4.056549000000000E-01     -1.541797000000000E+02      8.729858000000000E-01     -7.682031000000000E+01
4873000000.000000      8.740234000000000E-01     -1.659531000000000E+02      3.749084000000000E-01     -5.409180000000000E+01      4.059143000000000E-01     -1.541797000000000E+02      8.744812000000000E-01     -7.702734000000000E+01
4874000000.000000      8.769531000000000E-01     -1.659922000000000E+02      3.728180000000000E-01     -5.441992000000000E+01      4.072723000000000E-01     -1.543047000000000E+02      8.802490000000000E-01     -7.693749000000000E+01
4875000000.000000      8.819580000000000E-01     -1.658516000000000E+02      3.720551000000000E-01     -5.453906000000000E+01      4.073334000000000E-01     -1.545547000000000E+02      8.841858000000000E-01     -7.724609000000000E+01
4876000000.000000      8.826599000000000E-01     -1.660312000000000E+02      3.702240000000000E-01     -5.487695000000000E+01      4.066772000000000E-01     -1.546641000000000E+02      8.884583000000000E-01     -7.731250000000000E+01
4877000000.000000      8.851318000000000E-01     -1.658672000000000E+02      3.691254000000000E-01     -5.500195000000000E+01      4.075317000000000E-01     -1.548437000000000E+02      8.918152000000000E-01     -7.747656000000000E+01
4878000000.000000      8.861084000000000E-01     -1.657656000000000E+02      3.681641000000000E-01     -5.515429000000000E+01      4.078369000000000E-01     -1.548984000000000E+02      8.978271000000000E-01     -7.761328000000000E+01
4879000000.000000      8.908081000000000E-01     -1.658437000000000E+02      3.648682000000000E-01     -5.533008000000000E+01      4.075470000000000E-01     -1.550625000000000E+02      9.004517000000000E-01     -7.762109000000000E+01
4880000000.000000      8.926392000000000E-01     -1.657344000000000E+02      3.651886000000000E-01     -5.575976000000000E+01      4.079437000000000E-01     -1.551172000000000E+02      9.053955000000000E-01     -7.766406000000000E+01
4881000000.000000      8.957825000000000E-01     -1.656875000000000E+02      3.634033000000000E-01     -5.565624000000000E+01      4.082489000000000E-01     -1.553750000000000E+02      9.086914000000000E-01     -7.790625000000000E+01
4882000000.000000      8.949890000000000E-01     -1.656328000000000E+02      3.615875000000000E-01     -5.590625000000000E+01      4.079437000000000E-01     -1.554531000000000E+02      9.109497000000000E-01     -7.797656000000000E+01
