! Network Analyzer HP8722D
! Hewlett-Packard
! Data name: Linha & Wilkinson
! Saver's name: Rodrigo Anjos
! Comments: Teste da utilização de aquisição
continua pelo VNA HP8722D
! Time and date: 8/5/2025 13:12
!              Frequency                     S11                                                   S21                                                   S12                                                   S22
# HZ  S  MA R 50
4800000000.000000      5.445251000000000E-01      4.213086000000000E+01      1.651917000000000E-01      7.779687000000000E+01      1.553802000000000E-01      4.288671000000000E+01      4.038544000000000E-01      1.819433000000000E+01
4801000000.000000      5.480652000000000E-01      4.307031000000000E+01      1.635666000000000E-01      7.870312000000000E+01      1.536636000000000E-01      4.376758000000000E+01      4.031525000000000E-01      1.927344000000000E+01
4802000000.000000      5.528870000000000E-01      4.400000000000000E+01      1.626205000000000E-01      7.982422000000000E+01      1.528931000000000E-01      4.473242000000000E+01      4.010925000000000E-01      2.034668000000000E+01
4803000000.000000      5.559692000000000E-01      4.473633000000000E+01      1.616821000000000E-01      8.096094000000000E+01      1.517105000000000E-01      4.586914000000000E+01      3.986206000000000E-01      2.124804000000000E+01
4804000000.000000      5.597534000000000E-01      4.571485000000000E+01      1.606598000000000E-01      8.188671000000000E+01      1.509857000000000E-01      4.687500000000000E+01      3.945313000000000E-01      2.212305000000000E+01
4805000000.000000      5.647583000000000E-01      4.626172000000000E+01      1.598892000000000E-01      8.305468000000000E+01      1.497726000000000E-01      4.803905000000000E+01      3.949585000000000E-01      2.305176000000000E+01
4806000000.000000      5.672607000000000E-01      4.728906000000000E+01      1.589661000000000E-01      8.407421000000000E+01      1.498947000000000E-01      4.918163000000000E+01      3.895874000000000E-01      2.379004000000000E+01
4807000000.000000      5.709229000000000E-01      4.793164000000000E+01      1.595383000000000E-01      8.505077000000000E+01      1.496277000000000E-01      5.006836000000000E+01      3.872986000000000E-01      2.484082000000000E+01
4808000000.000000      5.772095000000000E-01      4.864843000000000E+01      1.590500000000000E-01      8.629297000000000E+01      1.494980000000000E-01      5.134179000000000E+01      3.865356000000000E-01      2.561816000000000E+01
4809000000.000000      5.797119000000000E-01      4.935741000000000E+01      1.592331000000000E-01      8.750000000000000E+01      1.497192000000000E-01      5.239452000000000E+01      3.842010000000000E-01      2.674414000000000E+01
4810000000.000000      5.847168000000000E-01      5.011719000000000E+01      1.592941000000000E-01      8.863672000000000E+01      1.494598000000000E-01      5.370898000000000E+01      3.822632000000000E-01      2.739648000000000E+01
4811000000.000000      5.878601000000000E-01      5.068945000000000E+01      1.597137000000000E-01      8.942968000000000E+01      1.504593000000000E-01      5.476563000000000E+01      3.797607000000000E-01      2.825781000000000E+01
4812000000.000000      5.943604000000000E-01      5.157812000000000E+01      1.604080000000000E-01      9.076563000000000E+01      1.509399000000000E-01      5.581055000000000E+01      3.786621000000000E-01      2.904199000000000E+01
4813000000.000000      5.974426000000000E-01      5.212695000000000E+01      1.611710000000000E-01      9.184374000000000E+01      1.517639000000000E-01      5.698437000000000E+01      3.768005000000000E-01      3.005566000000000E+01
4814000000.000000      5.990601000000000E-01      5.266211000000000E+01      1.622620000000000E-01      9.286327000000000E+01      1.523285000000000E-01      5.807617000000000E+01      3.734131000000000E-01      3.086719000000000E+01
4815000000.000000      6.052551000000000E-01      5.302343000000000E+01      1.628723000000000E-01      9.398046000000000E+01      1.530457000000000E-01      5.909374000000000E+01      3.726959000000000E-01      3.190136000000000E+01
4816000000.000000      6.099243000000000E-01      5.363476000000000E+01      1.644135000000000E-01      9.503906000000000E+01      1.548920000000000E-01      6.017578000000000E+01      3.726044000000000E-01      3.260937000000000E+01
4817000000.000000      6.124878000000000E-01      5.424023000000000E+01      1.657944000000000E-01      9.584375000000000E+01      1.557388000000000E-01      6.107422000000000E+01      3.689728000000000E-01      3.347461000000000E+01
4818000000.000000      6.166077000000000E-01      5.474218000000000E+01      1.675034000000000E-01      9.669922000000000E+01      1.573715000000000E-01      6.216015000000000E+01      3.668060000000000E-01      3.435351000000000E+01
4819000000.000000      6.203308000000000E-01      5.524414000000000E+01      1.687698000000000E-01      9.760155000000000E+01      1.588211000000000E-01      6.304882000000000E+01      3.648529000000000E-01      3.485937000000000E+01
4820000000.000000      6.225586000000000E-01      5.563477000000000E+01      1.705856000000000E-01      9.864843000000000E+01      1.609039000000000E-01      6.395312000000000E+01      3.629303000000000E-01      3.608984000000000E+01
4821000000.000000      6.274109000000000E-01      5.599999000000000E+01      1.727600000000000E-01      9.933983000000000E+01      1.621933000000000E-01      6.463281000000000E+01      3.615112000000000E-01      3.674609000000000E+01
4822000000.000000      6.294556000000000E-01      5.625390000000000E+01      1.735840000000000E-01      1.001758000000000E+02      1.640854000000000E-01      6.544140000000000E+01      3.610535000000000E-01      3.708984000000000E+01
4823000000.000000      6.338501000000000E-01      5.686913000000000E+01      1.764526000000000E-01      1.008203000000000E+02      1.656723000000000E-01      6.632421000000000E+01      3.585815000000000E-01      3.793554000000000E+01
4824000000.000000      6.353760000000000E-01      5.720508000000000E+01      1.784134000000000E-01      1.013555000000000E+02      1.681747000000000E-01      6.703125000000000E+01      3.568115000000000E-01      3.863476000000000E+01
4825000000.000000      6.379089000000000E-01      5.750390000000000E+01      1.806870000000000E-01      1.021953000000000E+02      1.707993000000000E-01      6.769921000000000E+01      3.555908000000000E-01      3.929492000000000E+01
4826000000.000000      6.419983000000000E-01      5.772070000000000E+01      1.830750000000000E-01      1.027969000000000E+02      1.725693000000000E-01      6.846093000000000E+01      3.538818000000000E-01      4.003125000000000E+01
4827000000.000000      6.427612000000000E-01      5.797852000000000E+01      1.853485000000000E-01      1.034336000000000E+02      1.747894000000000E-01      6.907421000000000E+01      3.542786000000000E-01      4.049805000000000E+01
4828000000.000000      6.457214000000000E-01      5.838085000000000E+01      1.882858000000000E-01      1.038281000000000E+02      1.774139000000000E-01      6.974218000000000E+01      3.513794000000000E-01      4.117773000000000E+01
4829000000.000000      6.463318000000000E-01      5.881640000000000E+01      1.905746000000000E-01      1.043984000000000E+02      1.800461000000000E-01      7.022265000000000E+01      3.500824000000000E-01      4.213867000000000E+01
4830000000.000000      6.484985000000000E-01      5.887109000000000E+01      1.922684000000000E-01      1.048945000000000E+02      1.821365000000000E-01      7.064453000000000E+01      3.482971000000000E-01      4.299218000000000E+01
4831000000.000000      6.499329000000000E-01      5.913086000000000E+01      1.954422000000000E-01      1.053828000000000E+02      1.853027000000000E-01      7.122265000000000E+01      3.468628000000000E-01      4.305664000000000E+01
4832000000.000000      6.499634000000000E-01      5.942773000000000E+01      1.985703000000000E-01      1.057734000000000E+02      1.870651000000000E-01      7.167969000000000E+01      3.441772000000000E-01      4.430273000000000E+01
4833000000.000000      6.508484000000000E-01      5.964844000000000E+01      2.007980000000000E-01      1.061562000000000E+02      1.903610000000000E-01      7.205078000000000E+01      3.422241000000000E-01      4.458008000000000E+01
4834000000.000000      6.516113000000000E-01      5.974218000000000E+01      2.034912000000000E-01      1.062852000000000E+02      1.930847000000000E-01      7.254296000000000E+01      3.404541000000000E-01      4.538281000000000E+01
4835000000.000000      6.525269000000000E-01      5.993359000000000E+01      2.060852000000000E-01      1.066640000000000E+02      1.956787000000000E-01      7.286718000000000E+01      3.401794000000000E-01      4.596680000000000E+01
4836000000.000000      6.530457000000000E-01      6.019921000000000E+01      2.088242000000000E-01      1.069375000000000E+02      1.987228000000000E-01      7.330078000000000E+01      3.372803000000000E-01      4.658789000000000E+01
4837000000.000000      6.529236000000000E-01      6.039844000000000E+01      2.113342000000000E-01      1.069453000000000E+02      2.011642000000000E-01      7.349218000000000E+01      3.368073000000000E-01      4.722852000000000E+01
4838000000.000000      6.517029000000000E-01      6.033398000000000E+01      2.144699000000000E-01      1.074062000000000E+02      2.040558000000000E-01      7.383203000000000E+01      3.344421000000000E-01      4.778516000000000E+01
4839000000.000000      6.549377000000000E-01      6.076757000000000E+01      2.172470000000000E-01      1.076563000000000E+02      2.064362000000000E-01      7.410546000000000E+01      3.339844000000000E-01      4.813086000000000E+01
4840000000.000000      6.526794000000000E-01      6.072266000000000E+01      2.202377000000000E-01      1.078281000000000E+02      2.093887000000000E-01      7.441406000000000E+01      3.311310000000000E-01      4.895312000000000E+01
4841000000.000000      6.508484000000000E-01      6.091210000000000E+01      2.230530000000000E-01      1.078281000000000E+02      2.122040000000000E-01      7.445703000000000E+01      3.313599000000000E-01      4.948242000000000E+01
4842000000.000000      6.498718000000000E-01      6.097265000000000E+01      2.256927000000000E-01      1.080820000000000E+02      2.146225000000000E-01      7.475390000000000E+01      3.315430000000000E-01      5.017968000000000E+01
4843000000.000000      6.502991000000000E-01      6.093945000000000E+01      2.287903000000000E-01      1.080234000000000E+02      2.182541000000000E-01      7.482422000000000E+01      3.281250000000000E-01      5.086132000000000E+01
4844000000.000000      6.490173000000000E-01      6.119531000000000E+01      2.315674000000000E-01      1.080976000000000E+02      2.210083000000000E-01      7.506249000000000E+01      3.243561000000000E-01      5.128515000000000E+01
4845000000.000000      6.473389000000000E-01      6.129101000000000E+01      2.345886000000000E-01      1.082813000000000E+02      2.239304000000000E-01      7.514843000000000E+01      3.244019000000000E-01      5.190234000000000E+01
4846000000.000000      6.456909000000000E-01      6.126171000000000E+01      2.376709000000000E-01      1.082734000000000E+02      2.273560000000000E-01      7.528906000000000E+01      3.225098000000000E-01      5.242578000000000E+01
4847000000.000000      6.434021000000000E-01      6.137890000000000E+01      2.404175000000000E-01      1.082695000000000E+02      2.297134000000000E-01      7.537499000000000E+01      3.229675000000000E-01      5.313671000000000E+01
4848000000.000000      6.405640000000000E-01      6.126562000000000E+01      2.427063000000000E-01      1.082617000000000E+02      2.330551000000000E-01      7.546484000000000E+01      3.212738000000000E-01      5.336523000000000E+01
4849000000.000000      6.389160000000000E-01      6.147655000000000E+01      2.463989000000000E-01      1.084141000000000E+02      2.354279000000000E-01      7.556250000000000E+01      3.189697000000000E-01      5.374218000000000E+01
4850000000.000000      6.356812000000000E-01      6.150000000000000E+01      2.486343000000000E-01      1.083125000000000E+02      2.378540000000000E-01      7.556250000000000E+01      3.175354000000000E-01      5.454883000000000E+01
4851000000.000000      6.341553000000000E-01      6.163086000000000E+01      2.517853000000000E-01      1.081719000000000E+02      2.409744000000000E-01      7.572266000000000E+01      3.174744000000000E-01      5.474023000000000E+01
4852000000.000000      6.301270000000000E-01      6.155859000000000E+01      2.543030000000000E-01      1.082109000000000E+02      2.434845000000000E-01      7.571484000000000E+01      3.161316000000000E-01      5.543554000000000E+01
4853000000.000000      6.285400000000000E-01      6.157812000000000E+01      2.569733000000000E-01      1.080234000000000E+02      2.465820000000000E-01      7.578125000000000E+01      3.151398000000000E-01      5.612499000000000E+01
4854000000.000000      6.241760000000000E-01      6.168750000000000E+01      2.595520000000000E-01      1.078672000000000E+02      2.494278000000000E-01      7.582421000000000E+01      3.153229000000000E-01      5.658203000000000E+01
4855000000.000000      6.219177000000000E-01      6.161327000000000E+01      2.632751000000000E-01      1.078516000000000E+02      2.518463000000000E-01      7.582421000000000E+01      3.121490000000000E-01      5.734179000000000E+01
4856000000.000000      6.188354000000000E-01      6.149023000000000E+01      2.655487000000000E-01      1.078984000000000E+02      2.550354000000000E-01      7.585155000000000E+01      3.128510000000000E-01      5.751171000000000E+01
4857000000.000000      6.152649000000000E-01      6.163867000000000E+01      2.693329000000000E-01      1.077617000000000E+02      2.579651000000000E-01      7.575000000000000E+01      3.112030000000000E-01      5.804688000000000E+01
4858000000.000000      6.119995000000000E-01      6.162304000000000E+01      2.716522000000000E-01      1.076328000000000E+02      2.601166000000000E-01      7.584374000000000E+01      3.104248000000000E-01      5.846680000000000E+01
4859000000.000000      6.089783000000000E-01      6.145117000000000E+01      2.749939000000000E-01      1.074844000000000E+02      2.627411000000000E-01      7.587109000000000E+01      3.109741000000000E-01      5.874609000000000E+01
4860000000.000000      6.043701000000000E-01      6.152734000000000E+01      2.768097000000000E-01      1.073828000000000E+02      2.652740000000000E-01      7.578125000000000E+01      3.101196000000000E-01      5.936718000000000E+01
4861000000.000000      6.014709000000000E-01      6.136913000000000E+01      2.806244000000000E-01      1.071133000000000E+02      2.675781000000000E-01      7.569921000000000E+01      3.090668000000000E-01      5.979687000000000E+01
4862000000.000000      5.962524000000000E-01      6.138476000000000E+01      2.835541000000000E-01      1.070313000000000E+02      2.710571000000000E-01      7.574219000000000E+01      3.101196000000000E-01      6.041992000000000E+01
4863000000.000000      5.941467000000000E-01      6.137109000000000E+01      2.852020000000000E-01      1.067617000000000E+02      2.736359000000000E-01      7.564062000000000E+01      3.105316000000000E-01      6.071484000000000E+01
4864000000.000000      5.919495000000000E-01      6.123047000000000E+01      2.887878000000000E-01      1.066250000000000E+02      2.754517000000000E-01      7.582812000000000E+01      3.089600000000000E-01      6.107422000000000E+01
4865000000.000000      5.856323000000000E-01      6.114452000000000E+01      2.914276000000000E-01      1.065391000000000E+02      2.786255000000000E-01      7.575000000000000E+01      3.099670000000000E-01      6.152344000000000E+01
4866000000.000000      5.820618000000000E-01      6.099023000000000E+01      2.938995000000000E-01      1.061836000000000E+02      2.805634000000000E-01      7.541016000000000E+01      3.101654000000000E-01      6.184179000000000E+01
4867000000.000000      5.771179000000000E-01      6.085938000000000E+01      2.966461000000000E-01      1.059062000000000E+02      2.830048000000000E-01      7.557422000000000E+01      3.105774000000000E-01      6.195507000000000E+01
4868000000.000000      5.750732000000000E-01      6.096484000000000E+01      2.997589000000000E-01      1.058750000000000E+02      2.855835000000000E-01      7.551952000000000E+01      3.092804000000000E-01      6.262890000000000E+01
4869000000.000000      5.700684000000000E-01      6.067968000000000E+01      3.023529000000000E-01      1.056094000000000E+02      2.878265000000000E-01      7.538280000000000E+01      3.110962000000000E-01      6.276953000000000E+01
4870000000.000000      5.649719000000000E-01      6.070313000000000E+01      3.054047000000000E-01      1.055430000000000E+02      2.909088000000000E-01      7.553124000000000E+01      3.126221000000000E-01      6.321875000000000E+01
4871000000.000000      5.624390000000000E-01      6.028320000000000E+01      3.075256000000000E-01      1.051211000000000E+02      2.923279000000000E-01      7.537499000000000E+01      3.142242000000000E-01      6.322656000000000E+01
4872000000.000000      5.593262000000000E-01      6.014062000000000E+01      3.105469000000000E-01      1.049961000000000E+02      2.949677000000000E-01      7.512109000000000E+01      3.148804000000000E-01      6.371484000000000E+01
4873000000.000000      5.556641000000000E-01      6.016211000000000E+01      3.126984000000000E-01      1.046406000000000E+02      2.968750000000000E-01      7.514062000000000E+01      3.142700000000000E-01      6.370312000000000E+01
4874000000.000000      5.505676000000000E-01      5.994726000000000E+01      3.157654000000000E-01      1.043633000000000E+02      3.000793000000000E-01      7.506640000000000E+01      3.159027000000000E-01      6.386913000000000E+01
4875000000.000000      5.484619000000000E-01      5.957226000000000E+01      3.177643000000000E-01      1.041211000000000E+02      3.020020000000000E-01      7.505859000000000E+01      3.166504000000000E-01      6.424609000000000E+01
4876000000.000000      5.450134000000000E-01      5.972461000000000E+01      3.215637000000000E-01      1.038203000000000E+02      3.045197000000000E-01      7.491796000000000E+01      3.196564000000000E-01      6.432422000000000E+01
4877000000.000000      5.417175000000000E-01      5.918163000000000E+01      3.239746000000000E-01      1.034609000000000E+02      3.065796000000000E-01      7.488671000000000E+01      3.207245000000000E-01      6.435937000000000E+01
4878000000.000000      5.367432000000000E-01      5.897461000000000E+01      3.265533000000000E-01      1.032539000000000E+02      3.079071000000000E-01      7.481250000000000E+01      3.223267000000000E-01      6.465625000000000E+01
4879000000.000000      5.333862000000000E-01      5.907617000000000E+01      3.285828000000000E-01      1.029688000000000E+02      3.106995000000000E-01      7.462500000000000E+01      3.239899000000000E-01      6.473046000000000E+01
4880000000.000000      5.309448000000000E-01      5.847461000000000E+01      3.317413000000000E-01      1.026406000000000E+02      3.124847000000000E-01      7.458202000000000E+01      3.261261000000000E-01      6.472265000000000E+01
4881000000.000000      5.275879000000000E-01      5.832617000000000E+01      3.348083000000000E-01      1.023281000000000E+02      3.153229000000000E-01      7.458593000000000E+01      3.302765000000000E-01      6.487109000000000E+01
4882000000.000000      5.262451000000000E-01      5.787890000000000E+01      3.374023000000000E-01      1.019570000000000E+02      3.170013000000000E-01      7.441406000000000E+01      3.314972000000000E-01      6.457421000000000E+01
