! Network Analyzer HP8722D
! Hewlett-Packard
! Data name: Linha & Wilkinson
! Saver's name: Rodrigo Anjos
! Comments: Teste da utilização de aquisição
continua pelo VNA HP8722D
! Time and date: 8/5/2025 14:48
!              Frequency                     S11                                                   S21                                                   S12                                                   S22
# HZ  S  MA R 50
4800000000.000000      5.244446000000000E-01     -2.496289000000000E+01      3.814850000000000E-01     -1.521719000000000E+02      3.978271000000000E-01      7.246826000000000E+00      4.923248000000000E-01      5.575562000000000E-01
4801000000.000000      5.228271000000000E-01     -2.462793000000000E+01      3.857117000000000E-01     -1.521484000000000E+02      4.028778000000000E-01      7.201416000000000E+00      4.888000000000000E-01      7.182312000000000E-01
4802000000.000000      5.213928000000000E-01     -2.440820000000000E+01      3.869781000000000E-01     -1.525078000000000E+02      4.047852000000000E-01      6.810059000000000E+00      4.833374000000000E-01      1.168640000000000E+00
4803000000.000000      5.235901000000000E-01     -2.430957000000000E+01      3.935089000000000E-01     -1.527891000000000E+02      4.092102000000000E-01      6.965332000000000E+00      4.764404000000000E-01      1.038208000000000E+00
4804000000.000000      5.225220000000000E-01     -2.402734000000000E+01      3.952637000000000E-01     -1.534765000000000E+02      4.132385000000000E-01      6.627441000000000E+00      4.691925000000000E-01      1.270264000000000E+00
4805000000.000000      5.216675000000000E-01     -2.356055000000000E+01      3.998718000000000E-01     -1.538437000000000E+02      4.165344000000000E-01      6.564209000000000E+00      4.631042000000000E-01      1.321106000000000E+00
4806000000.000000      5.204163000000000E-01     -2.347558000000000E+01      4.032898000000000E-01     -1.541875000000000E+02      4.221802000000000E-01      6.586182000000000E+00      4.556580000000000E-01      1.373291000000000E+00
4807000000.000000      5.171814000000000E-01     -2.329102000000000E+01      4.075928000000000E-01     -1.548516000000000E+02      4.248810000000000E-01      6.226318000000000E+00      4.483032000000000E-01      1.661682000000000E+00
4808000000.000000      5.143433000000000E-01     -2.300683000000000E+01      4.102936000000000E-01     -1.551328000000000E+02      4.293671000000000E-01      6.209961000000000E+00      4.417725000000000E-01      1.852539000000000E+00
4809000000.000000      5.155029000000000E-01     -2.282910000000000E+01      4.166107000000000E-01     -1.555547000000000E+02      4.324188000000000E-01      5.844727000000000E+00      4.340363000000000E-01      2.245239000000000E+00
4810000000.000000      5.133667000000000E-01     -2.262988000000000E+01      4.196777000000000E-01     -1.558906000000000E+02      4.360199000000000E-01      5.940674000000000E+00      4.263458000000000E-01      2.216431000000000E+00
4811000000.000000      5.140991000000000E-01     -2.225293000000000E+01      4.228363000000000E-01     -1.564062000000000E+02      4.402618000000000E-01      5.667480000000000E+00      4.191284000000000E-01      2.736938000000000E+00
4812000000.000000      5.136719000000000E-01     -2.179492000000000E+01      4.261322000000000E-01     -1.569922000000000E+02      4.431915000000000E-01      5.804688000000000E+00      4.116211000000000E-01      2.680664000000000E+00
4813000000.000000      5.115051000000000E-01     -2.175293000000000E+01      4.295807000000000E-01     -1.572969000000000E+02      4.470062000000000E-01      5.597412000000000E+00      4.037628000000000E-01      3.338379000000000E+00
4814000000.000000      5.081482000000000E-01     -2.167969000000000E+01      4.321289000000000E-01     -1.577891000000000E+02      4.503021000000000E-01      5.373535000000000E+00      3.944092000000000E-01      3.505981000000000E+00
4815000000.000000      5.065308000000000E-01     -2.134668000000000E+01      4.356232000000000E-01     -1.582266000000000E+02      4.536133000000000E-01      5.245850000000000E+00      3.870392000000000E-01      3.905640000000000E+00
4816000000.000000      5.070190000000000E-01     -2.129101000000000E+01      4.374084000000000E-01     -1.586328000000000E+02      4.576874000000000E-01      5.109863000000000E+00      3.796234000000000E-01      4.162354000000000E+00
4817000000.000000      5.060120000000000E-01     -2.111328000000000E+01      4.400482000000000E-01     -1.592266000000000E+02      4.604645000000000E-01      4.942383000000000E+00      3.691101000000000E-01      4.708984000000000E+00
4818000000.000000      5.043640000000000E-01     -2.098731000000000E+01      4.441223000000000E-01     -1.596406000000000E+02      4.644623000000000E-01      4.759766000000000E+00      3.605499000000000E-01      5.100342000000000E+00
4819000000.000000      5.026855000000000E-01     -2.093359000000000E+01      4.466248000000000E-01     -1.600625000000000E+02      4.669952000000000E-01      4.621094000000000E+00      3.507538000000000E-01      5.291260000000000E+00
4820000000.000000      5.005798000000000E-01     -2.048144000000000E+01      4.496918000000000E-01     -1.603125000000000E+02      4.718018000000000E-01      4.491943000000000E+00      3.431244000000000E-01      5.951660000000000E+00
4821000000.000000      5.007019000000000E-01     -2.041992000000000E+01      4.542084000000000E-01     -1.609453000000000E+02      4.753571000000000E-01      4.196777000000000E+00      3.337555000000000E-01      6.759277000000000E+00
4822000000.000000      4.985046000000000E-01     -2.036328000000000E+01      4.536743000000000E-01     -1.612969000000000E+02      4.769592000000000E-01      4.171875000000000E+00      3.260193000000000E-01      7.119141000000000E+00
4823000000.000000      4.993134000000000E-01     -2.020410000000000E+01      4.576569000000000E-01     -1.617891000000000E+02      4.794312000000000E-01      4.055176000000000E+00      3.157806000000000E-01      7.735596000000000E+00
4824000000.000000      4.951324000000000E-01     -1.995019000000000E+01      4.610596000000000E-01     -1.623906000000000E+02      4.838409000000000E-01      3.872681000000000E+00      3.063660000000000E-01      8.220215000000000E+00
4825000000.000000      4.937134000000000E-01     -1.995410000000000E+01      4.621887000000000E-01     -1.628438000000000E+02      4.873657000000000E-01      3.751831000000000E+00      2.976990000000000E-01      9.269531000000000E+00
4826000000.000000      4.940338000000000E-01     -1.992285000000000E+01      4.646301000000000E-01     -1.633281000000000E+02      4.909668000000000E-01      3.503174000000000E+00      2.891083000000000E-01      9.875000000000000E+00
4827000000.000000      4.912262000000000E-01     -1.956152000000000E+01      4.669189000000000E-01     -1.636094000000000E+02      4.936676000000000E-01      3.338379000000000E+00      2.810669000000000E-01      1.081836000000000E+01
4828000000.000000      4.909515000000000E-01     -1.957227000000000E+01      4.684143000000000E-01     -1.639766000000000E+02      4.956055000000000E-01      3.120117000000000E+00      2.715607000000000E-01      1.157666000000000E+01
4829000000.000000      4.886627000000000E-01     -1.919629000000000E+01      4.712677000000000E-01     -1.646875000000000E+02      4.998322000000000E-01      3.122803000000000E+00      2.638397000000000E-01      1.281689000000000E+01
4830000000.000000      4.873962000000000E-01     -1.915332000000000E+01      4.728394000000000E-01     -1.651094000000000E+02      5.019226000000000E-01      3.006104000000000E+00      2.523804000000000E-01      1.421631000000000E+01
4831000000.000000      4.847107000000000E-01     -1.913281000000000E+01      4.767151000000000E-01     -1.655703000000000E+02      5.044556000000000E-01      2.739624000000000E+00      2.439651000000000E-01      1.523242000000000E+01
4832000000.000000      4.841919000000000E-01     -1.879492000000000E+01      4.773102000000000E-01     -1.657344000000000E+02      5.080566000000000E-01      2.622925000000000E+00      2.348175000000000E-01      1.688379000000000E+01
4833000000.000000      4.824066000000000E-01     -1.888867000000000E+01      4.784698000000000E-01     -1.663359000000000E+02      5.110474000000000E-01      2.491089000000000E+00      2.260971000000000E-01      1.825586000000000E+01
4834000000.000000      4.788971000000000E-01     -1.858398000000000E+01      4.808044000000000E-01     -1.669141000000000E+02      5.126953000000000E-01      2.356567000000000E+00      2.188263000000000E-01      2.010840000000000E+01
4835000000.000000      4.794464000000000E-01     -1.848340000000000E+01      4.826202000000000E-01     -1.671094000000000E+02      5.174866000000000E-01      1.948669000000000E+00      2.104797000000000E-01      2.169629000000000E+01
4836000000.000000      4.764404000000000E-01     -1.812109000000000E+01      4.825287000000000E-01     -1.674375000000000E+02      5.181274000000000E-01      2.118896000000000E+00      2.027206000000000E-01      2.372168000000000E+01
4837000000.000000      4.753265000000000E-01     -1.804590000000000E+01      4.836578000000000E-01     -1.682031000000000E+02      5.215454000000000E-01      1.842957000000000E+00      1.950989000000000E-01      2.614160000000000E+01
4838000000.000000      4.736481000000000E-01     -1.789063000000000E+01      4.855347000000000E-01     -1.685703000000000E+02      5.222778000000000E-01      1.663025000000000E+00      1.883545000000000E-01      2.835546000000000E+01
4839000000.000000      4.739990000000000E-01     -1.766504000000000E+01      4.870911000000000E-01     -1.690078000000000E+02      5.253296000000000E-01      1.606750000000000E+00      1.824265000000000E-01      3.066601000000000E+01
4840000000.000000      4.715118000000000E-01     -1.790039000000000E+01      4.891815000000000E-01     -1.692656000000000E+02      5.287476000000000E-01      1.212585000000000E+00      1.746216000000000E-01      3.350586000000000E+01
4841000000.000000      4.681396000000000E-01     -1.726953000000000E+01      4.905548000000000E-01     -1.698594000000000E+02      5.286255000000000E-01      1.032715000000000E+00      1.706619000000000E-01      3.665820000000000E+01
4842000000.000000      4.675751000000000E-01     -1.725195000000000E+01      4.904633000000000E-01     -1.700156000000000E+02      5.320435000000000E-01      1.172791000000000E+00      1.649246000000000E-01      3.982031000000000E+01
4843000000.000000      4.679260000000000E-01     -1.715332000000000E+01      4.938507000000000E-01     -1.708125000000000E+02      5.342102000000000E-01      6.948853000000000E-01      1.604309000000000E-01      4.360742000000000E+01
4844000000.000000      4.659882000000000E-01     -1.685644000000000E+01      4.928436000000000E-01     -1.710312000000000E+02      5.362854000000000E-01      6.097412000000000E-01      1.558456000000000E-01      4.701562000000000E+01
4845000000.000000      4.631500000000000E-01     -1.654590000000000E+01      4.944153000000000E-01     -1.712656000000000E+02      5.385132000000000E-01      2.568054000000000E-01      1.531067000000000E-01      5.044335000000000E+01
4846000000.000000      4.634399000000000E-01     -1.644531000000000E+01      4.954224000000000E-01     -1.717734000000000E+02      5.411682000000000E-01      2.389526000000000E-01      1.512222000000000E-01      5.438477000000000E+01
4847000000.000000      4.617157000000000E-01     -1.586035000000000E+01      4.966278000000000E-01     -1.720234000000000E+02      5.440674000000000E-01      5.218506000000000E-02      1.495361000000000E-01      5.817383000000000E+01
4848000000.000000      4.615631000000000E-01     -1.594678000000000E+01      4.950562000000000E-01     -1.725156000000000E+02      5.455322000000000E-01     -1.057434000000000E-01      1.485367000000000E-01      6.229882000000000E+01
4849000000.000000      4.580383000000000E-01     -1.575586000000000E+01      4.980927000000000E-01     -1.730703000000000E+02      5.461121000000000E-01     -3.941345000000000E-01      1.494141000000000E-01      6.628124000000000E+01
4850000000.000000      4.589844000000000E-01     -1.542480000000000E+01      4.966736000000000E-01     -1.733594000000000E+02      5.486755000000000E-01     -4.627991000000000E-01      1.509933000000000E-01      6.996094000000000E+01
4851000000.000000      4.575195000000000E-01     -1.495557000000000E+01      5.003967000000000E-01     -1.738672000000000E+02      5.496521000000000E-01     -5.726624000000000E-01      1.531906000000000E-01      7.349609000000000E+01
4852000000.000000      4.570313000000000E-01     -1.487012000000000E+01      4.992981000000000E-01     -1.738906000000000E+02      5.502930000000000E-01     -6.921387000000000E-01      1.545334000000000E-01      7.707031000000000E+01
4853000000.000000      4.570160000000000E-01     -1.469189000000000E+01      4.993439000000000E-01     -1.742422000000000E+02      5.521545000000000E-01     -8.747864000000000E-01      1.579819000000000E-01      8.019922000000000E+01
4854000000.000000      4.570465000000000E-01     -1.418652000000000E+01      5.000916000000000E-01     -1.750000000000000E+02      5.524902000000000E-01     -1.062927000000000E+00      1.624451000000000E-01      8.355469000000000E+01
4855000000.000000      4.556274000000000E-01     -1.397070000000000E+01      5.024719000000000E-01     -1.751562000000000E+02      5.541382000000000E-01     -1.371948000000000E+00      1.656570000000000E-01      8.698437000000000E+01
4856000000.000000      4.561462000000000E-01     -1.371533000000000E+01      5.033569000000000E-01     -1.755391000000000E+02      5.552979000000000E-01     -1.502380000000000E+00      1.722565000000000E-01      8.932421000000000E+01
4857000000.000000      4.579926000000000E-01     -1.359424000000000E+01      5.044556000000000E-01     -1.756016000000000E+02      5.553894000000000E-01     -1.634216000000000E+00      1.752243000000000E-01      9.192186000000000E+01
4858000000.000000      4.562378000000000E-01     -1.308789000000000E+01      5.041504000000000E-01     -1.761719000000000E+02      5.563049000000000E-01     -1.851196000000000E+00      1.810455000000000E-01      9.428905000000000E+01
4859000000.000000      4.565735000000000E-01     -1.318262000000000E+01      5.059509000000000E-01     -1.765391000000000E+02      5.564575000000000E-01     -1.819641000000000E+00      1.866531000000000E-01      9.605078000000000E+01
4860000000.000000      4.556274000000000E-01     -1.284717000000000E+01      5.052490000000000E-01     -1.767031000000000E+02      5.568542000000000E-01     -2.084717000000000E+00      1.923523000000000E-01      9.823046000000000E+01
4861000000.000000      4.573822000000000E-01     -1.231055000000000E+01      5.061951000000000E-01     -1.770469000000000E+02      5.585938000000000E-01     -2.375854000000000E+00      1.963654000000000E-01      1.002812000000000E+02
4862000000.000000      4.590454000000000E-01     -1.219482000000000E+01      5.068665000000000E-01     -1.774922000000000E+02      5.577393000000000E-01     -2.444458000000000E+00      2.043839000000000E-01      1.018164000000000E+02
4863000000.000000      4.601593000000000E-01     -1.195215000000000E+01      5.073242000000000E-01     -1.779766000000000E+02      5.597229000000000E-01     -2.614746000000000E+00      2.108612000000000E-01      1.030508000000000E+02
4864000000.000000      4.629974000000000E-01     -1.148096000000000E+01      5.091248000000000E-01     -1.781016000000000E+02      5.598145000000000E-01     -2.590088000000000E+00      2.157516000000000E-01      1.040586000000000E+02
4865000000.000000      4.611816000000000E-01     -1.127344000000000E+01      5.098267000000000E-01     -1.782422000000000E+02      5.595398000000000E-01     -2.675171000000000E+00      2.230301000000000E-01      1.056055000000000E+02
4866000000.000000      4.635925000000000E-01     -1.114600000000000E+01      5.092773000000000E-01     -1.789063000000000E+02      5.618286000000000E-01     -3.044678000000000E+00      2.281647000000000E-01      1.065586000000000E+02
4867000000.000000      4.648438000000000E-01     -1.074756000000000E+01      5.111694000000000E-01     -1.793047000000000E+02      5.592957000000000E-01     -2.999268000000000E+00      2.338028000000000E-01      1.078437000000000E+02
4868000000.000000      4.680328000000000E-01     -1.064063000000000E+01      5.106812000000000E-01     -1.795469000000000E+02      5.598145000000000E-01     -3.124268000000000E+00      2.381744000000000E-01      1.086133000000000E+02
4869000000.000000      4.677429000000000E-01     -1.050293000000000E+01      5.123291000000000E-01     -1.799844000000000E+02      5.597839000000000E-01     -3.293213000000000E+00      2.464752000000000E-01      1.094141000000000E+02
4870000000.000000      4.707794000000000E-01     -9.845215000000000E+00      5.122375000000000E-01      1.798906000000000E+02      5.582886000000000E-01     -3.258911000000000E+00      2.512970000000000E-01      1.097930000000000E+02
4871000000.000000      4.724579000000000E-01     -1.005811000000000E+01      5.146790000000000E-01      1.792969000000000E+02      5.596619000000000E-01     -3.235474000000000E+00      2.572479000000000E-01      1.104375000000000E+02
4872000000.000000      4.754181000000000E-01     -9.677734000000000E+00      5.139160000000000E-01      1.791172000000000E+02      5.583191000000000E-01     -3.679077000000000E+00      2.621613000000000E-01      1.112305000000000E+02
4873000000.000000      4.759827000000000E-01     -9.388184000000000E+00      5.151672000000000E-01      1.786250000000000E+02      5.582886000000000E-01     -3.528076000000000E+00      2.662659000000000E-01      1.115586000000000E+02
4874000000.000000      4.803467000000000E-01     -9.260254000000000E+00      5.140381000000000E-01      1.782266000000000E+02      5.575867000000000E-01     -3.727173000000000E+00      2.725830000000000E-01      1.121133000000000E+02
4875000000.000000      4.837189000000000E-01     -9.136719000000000E+00      5.154419000000000E-01      1.779609000000000E+02      5.584717000000000E-01     -3.718872000000000E+00      2.769165000000000E-01      1.128242000000000E+02
4876000000.000000      4.848022000000000E-01     -8.748047000000000E+00      5.184631000000000E-01      1.775078000000000E+02      5.585327000000000E-01     -3.629639000000000E+00      2.820587000000000E-01      1.131445000000000E+02
4877000000.000000      4.898682000000000E-01     -8.876953000000000E+00      5.159302000000000E-01      1.771484000000000E+02      5.568848000000000E-01     -3.905640000000000E+00      2.869873000000000E-01      1.135430000000000E+02
4878000000.000000      4.891815000000000E-01     -8.666992000000000E+00      5.179749000000000E-01      1.767812000000000E+02      5.564270000000000E-01     -3.820557000000000E+00      2.923431000000000E-01      1.137656000000000E+02
4879000000.000000      4.939880000000000E-01     -8.609375000000000E+00      5.173645000000000E-01      1.765781000000000E+02      5.567017000000000E-01     -3.880981000000000E+00      2.966614000000000E-01      1.139648000000000E+02
4880000000.000000      4.981995000000000E-01     -8.628418000000000E+00      5.202026000000000E-01      1.758906000000000E+02      5.540466000000000E-01     -4.026611000000000E+00      2.994537000000000E-01      1.141719000000000E+02
4881000000.000000      4.989014000000000E-01     -8.423828000000000E+00      5.202637000000000E-01      1.757891000000000E+02      5.541382000000000E-01     -4.111816000000000E+00      3.040924000000000E-01      1.145351000000000E+02
4882000000.000000      5.024719000000000E-01     -8.117676000000000E+00      5.218506000000000E-01      1.750859000000000E+02      5.535889000000000E-01     -3.909790000000000E+00      3.094635000000000E-01      1.149141000000000E+02
