! Network Analyzer HP8722D
! Hewlett-Packard
! Data name: Linha & Wilkinson
! Saver's name: Rodrigo Anjos
! Comments: Teste da utilização de aquisição
continua pelo VNA HP8722D
! Time and date: 8/5/2025 13:46
!              Frequency                     S11                                                   S21                                                   S12                                                   S22
# HZ  S  MA R 50
4800000000.000000      5.308228000000000E-01     -2.522070000000000E+01      3.700409000000000E-01     -1.502734000000000E+02      3.901672000000000E-01      9.259766000000000E+00      4.975891000000000E-01      1.093140000000000E+00
4801000000.000000      5.292969000000000E-01     -2.512988000000000E+01      3.751221000000000E-01     -1.505469000000000E+02      3.919220000000000E-01      8.994629000000000E+00      4.950562000000000E-01      9.928894000000000E-01
4802000000.000000      5.282593000000000E-01     -2.488476000000000E+01      3.784790000000000E-01     -1.508203000000000E+02      3.964996000000000E-01      8.913574000000000E+00      4.898529000000000E-01      1.377380000000000E+00
4803000000.000000      5.285645000000000E-01     -2.453711000000000E+01      3.831787000000000E-01     -1.512891000000000E+02      4.003906000000000E-01      9.059570000000000E+00      4.817657000000000E-01      1.407593000000000E+00
4804000000.000000      5.246582000000000E-01     -2.434375000000000E+01      3.865051000000000E-01     -1.516328000000000E+02      4.054108000000000E-01      8.602051000000000E+00      4.755249000000000E-01      1.521606000000000E+00
4805000000.000000      5.268555000000000E-01     -2.390820000000000E+01      3.905487000000000E-01     -1.520469000000000E+02      4.088440000000000E-01      8.503418000000000E+00      4.702301000000000E-01      1.417236000000000E+00
4806000000.000000      5.235596000000000E-01     -2.370605000000000E+01      3.949738000000000E-01     -1.523672000000000E+02      4.120331000000000E-01      8.483887000000000E+00      4.619293000000000E-01      1.597107000000000E+00
4807000000.000000      5.205383000000000E-01     -2.351269000000000E+01      3.979645000000000E-01     -1.529453000000000E+02      4.152527000000000E-01      8.089844000000000E+00      4.549561000000000E-01      1.829224000000000E+00
4808000000.000000      5.202332000000000E-01     -2.316699000000000E+01      4.015198000000000E-01     -1.532656000000000E+02      4.183960000000000E-01      7.962158000000000E+00      4.483795000000000E-01      2.020020000000000E+00
4809000000.000000      5.205383000000000E-01     -2.296973000000000E+01      4.051514000000000E-01     -1.537734000000000E+02      4.232178000000000E-01      7.649170000000000E+00      4.406433000000000E-01      2.341431000000000E+00
4810000000.000000      5.182800000000000E-01     -2.272168000000000E+01      4.103699000000000E-01     -1.540781000000000E+02      4.267273000000000E-01      7.822266000000000E+00      4.338226000000000E-01      2.253540000000000E+00
4811000000.000000      5.205994000000000E-01     -2.282617000000000E+01      4.140930000000000E-01     -1.547031000000000E+02      4.310913000000000E-01      7.635498000000000E+00      4.256592000000000E-01      2.742432000000000E+00
4812000000.000000      5.192871000000000E-01     -2.225976000000000E+01      4.172668000000000E-01     -1.551797000000000E+02      4.354858000000000E-01      7.473389000000000E+00      4.185333000000000E-01      2.603760000000000E+00
4813000000.000000      5.159912000000000E-01     -2.213769000000000E+01      4.199066000000000E-01     -1.555938000000000E+02      4.381104000000000E-01      7.382813000000000E+00      4.109192000000000E-01      3.173584000000000E+00
4814000000.000000      5.143738000000000E-01     -2.201562000000000E+01      4.240875000000000E-01     -1.561094000000000E+02      4.419403000000000E-01      7.248047000000000E+00      4.020844000000000E-01      3.306885000000000E+00
4815000000.000000      5.138245000000000E-01     -2.173047000000000E+01      4.269867000000000E-01     -1.562891000000000E+02      4.435577000000000E-01      7.130127000000000E+00      3.941956000000000E-01      3.617188000000000E+00
4816000000.000000      5.146484000000000E-01     -2.149707000000000E+01      4.299622000000000E-01     -1.568750000000000E+02      4.491119000000000E-01      6.914307000000000E+00      3.872375000000000E-01      3.863037000000000E+00
4817000000.000000      5.118103000000000E-01     -2.141797000000000E+01      4.332123000000000E-01     -1.572422000000000E+02      4.514771000000000E-01      6.705566000000000E+00      3.766479000000000E-01      4.329834000000000E+00
4818000000.000000      5.097046000000000E-01     -2.124218000000000E+01      4.359283000000000E-01     -1.578750000000000E+02      4.558411000000000E-01      6.708496000000000E+00      3.672791000000000E-01      4.670410000000000E+00
4819000000.000000      5.090027000000000E-01     -2.097461000000000E+01      4.391785000000000E-01     -1.582266000000000E+02      4.583740000000000E-01      6.383057000000000E+00      3.581543000000000E-01      4.821533000000000E+00
4820000000.000000      5.053101000000000E-01     -2.077148000000000E+01      4.421692000000000E-01     -1.584766000000000E+02      4.618988000000000E-01      6.273193000000000E+00      3.506317000000000E-01      5.335205000000000E+00
4821000000.000000      5.056458000000000E-01     -2.066308000000000E+01      4.453888000000000E-01     -1.592969000000000E+02      4.653320000000000E-01      5.939453000000000E+00      3.410797000000000E-01      5.964111000000000E+00
4822000000.000000      5.030212000000000E-01     -2.063867000000000E+01      4.460449000000000E-01     -1.593437000000000E+02      4.668274000000000E-01      5.939453000000000E+00      3.326569000000000E-01      6.237305000000000E+00
4823000000.000000      5.020447000000000E-01     -2.053515000000000E+01      4.513245000000000E-01     -1.602031000000000E+02      4.701843000000000E-01      5.955811000000000E+00      3.229980000000000E-01      6.792236000000000E+00
4824000000.000000      4.982758000000000E-01     -2.011523000000000E+01      4.512939000000000E-01     -1.605625000000000E+02      4.745789000000000E-01      5.460205000000000E+00      3.137360000000000E-01      7.227539000000000E+00
4825000000.000000      4.995880000000000E-01     -2.010547000000000E+01      4.555206000000000E-01     -1.609609000000000E+02      4.790192000000000E-01      5.446289000000000E+00      3.061066000000000E-01      7.956787000000000E+00
4826000000.000000      4.971771000000000E-01     -2.024805000000000E+01      4.585876000000000E-01     -1.613906000000000E+02      4.806671000000000E-01      5.120850000000000E+00      2.960052000000000E-01      8.624023000000000E+00
4827000000.000000      4.971771000000000E-01     -1.989648000000000E+01      4.600372000000000E-01     -1.618828000000000E+02      4.843750000000000E-01      5.281494000000000E+00      2.871246000000000E-01      9.320313000000000E+00
4828000000.000000      4.971008000000000E-01     -1.968945000000000E+01      4.619904000000000E-01     -1.622890000000000E+02      4.869537000000000E-01      4.928711000000000E+00      2.779694000000000E-01      9.833984000000000E+00
4829000000.000000      4.931030000000000E-01     -1.952344000000000E+01      4.639130000000000E-01     -1.629141000000000E+02      4.896698000000000E-01      5.068604000000000E+00      2.697906000000000E-01      1.113184000000000E+01
4830000000.000000      4.924469000000000E-01     -1.950781000000000E+01      4.655304000000000E-01     -1.633906000000000E+02      4.927673000000000E-01      4.870850000000000E+00      2.583466000000000E-01      1.214355000000000E+01
4831000000.000000      4.894867000000000E-01     -1.925683000000000E+01      4.692841000000000E-01     -1.638281000000000E+02      4.963074000000000E-01      4.722656000000000E+00      2.493286000000000E-01      1.303662000000000E+01
4832000000.000000      4.889984000000000E-01     -1.887500000000000E+01      4.704590000000000E-01     -1.639844000000000E+02      4.989014000000000E-01      4.497314000000000E+00      2.391586000000000E-01      1.456885000000000E+01
4833000000.000000      4.856720000000000E-01     -1.899609000000000E+01      4.709473000000000E-01     -1.646328000000000E+02      5.032654000000000E-01      4.291504000000000E+00      2.313385000000000E-01      1.585840000000000E+01
4834000000.000000      4.847107000000000E-01     -1.903418000000000E+01      4.751434000000000E-01     -1.650078000000000E+02      5.035706000000000E-01      4.048340000000000E+00      2.224503000000000E-01      1.706250000000000E+01
4835000000.000000      4.824677000000000E-01     -1.865234000000000E+01      4.755402000000000E-01     -1.656406000000000E+02      5.077515000000000E-01      4.004395000000000E+00      2.137756000000000E-01      1.860449000000000E+01
4836000000.000000      4.816589000000000E-01     -1.853613000000000E+01      4.767303000000000E-01     -1.659765000000000E+02      5.089111000000000E-01      3.798462000000000E+00      2.044067000000000E-01      2.055664000000000E+01
4837000000.000000      4.794312000000000E-01     -1.825000000000000E+01      4.778137000000000E-01     -1.665859000000000E+02      5.122986000000000E-01      3.667969000000000E+00      1.969757000000000E-01      2.257519000000000E+01
4838000000.000000      4.771118000000000E-01     -1.828613000000000E+01      4.807434000000000E-01     -1.666875000000000E+02      5.129089000000000E-01      3.588379000000000E+00      1.892929000000000E-01      2.448535000000000E+01
4839000000.000000      4.783020000000000E-01     -1.795996000000000E+01      4.822845000000000E-01     -1.673047000000000E+02      5.175781000000000E-01      3.457886000000000E+00      1.822968000000000E-01      2.663086000000000E+01
4840000000.000000      4.747162000000000E-01     -1.805762000000000E+01      4.840088000000000E-01     -1.677266000000000E+02      5.207520000000000E-01      3.328857000000000E+00      1.737442000000000E-01      2.898242000000000E+01
4841000000.000000      4.717255000000000E-01     -1.750977000000000E+01      4.838562000000000E-01     -1.681250000000000E+02      5.214539000000000E-01      3.055542000000000E+00      1.678238000000000E-01      3.204492000000000E+01
4842000000.000000      4.739532000000000E-01     -1.748340000000000E+01      4.848175000000000E-01     -1.683984000000000E+02      5.227356000000000E-01      2.960815000000000E+00      1.618881000000000E-01      3.517187000000000E+01
4843000000.000000      4.714355000000000E-01     -1.726367000000000E+01      4.873047000000000E-01     -1.689062000000000E+02      5.271912000000000E-01      2.837158000000000E+00      1.557465000000000E-01      3.838867000000000E+01
4844000000.000000      4.685822000000000E-01     -1.711426000000000E+01      4.889832000000000E-01     -1.695078000000000E+02      5.276489000000000E-01      2.567993000000000E+00      1.492157000000000E-01      4.209765000000000E+01
4845000000.000000      4.666595000000000E-01     -1.667773000000000E+01      4.906616000000000E-01     -1.696406000000000E+02      5.296936000000000E-01      2.287842000000000E+00      1.464157000000000E-01      4.557226000000000E+01
4846000000.000000      4.672394000000000E-01     -1.666308000000000E+01      4.901123000000000E-01     -1.702969000000000E+02      5.332336000000000E-01      2.107910000000000E+00      1.425018000000000E-01      4.953906000000000E+01
4847000000.000000      4.674683000000000E-01     -1.645117000000000E+01      4.929810000000000E-01     -1.703672000000000E+02      5.347290000000000E-01      1.984375000000000E+00      1.385727000000000E-01      5.357226000000000E+01
4848000000.000000      4.641113000000000E-01     -1.605176000000000E+01      4.907379000000000E-01     -1.707656000000000E+02      5.360413000000000E-01      1.757813000000000E+00      1.387482000000000E-01      5.765625000000000E+01
4849000000.000000      4.633331000000000E-01     -1.612988000000000E+01      4.941559000000000E-01     -1.712265000000000E+02      5.390930000000000E-01      1.385620000000000E+00      1.369553000000000E-01      6.214257000000000E+01
4850000000.000000      4.615326000000000E-01     -1.580127000000000E+01      4.934387000000000E-01     -1.716875000000000E+02      5.405273000000000E-01      1.458435000000000E+00      1.368179000000000E-01      6.644921000000000E+01
4851000000.000000      4.620667000000000E-01     -1.546094000000000E+01      4.959259000000000E-01     -1.720937000000000E+02      5.409546000000000E-01      1.450195000000000E+00      1.378174000000000E-01      7.037109000000000E+01
4852000000.000000      4.615479000000000E-01     -1.516406000000000E+01      4.963074000000000E-01     -1.724141000000000E+02      5.435791000000000E-01      1.157654000000000E+00      1.391907000000000E-01      7.433984000000000E+01
4853000000.000000      4.621277000000000E-01     -1.503906000000000E+01      4.959259000000000E-01     -1.726172000000000E+02      5.444641000000000E-01      1.005249000000000E+00      1.414185000000000E-01      7.842968000000000E+01
4854000000.000000      4.597473000000000E-01     -1.465723000000000E+01      4.973450000000000E-01     -1.732422000000000E+02      5.463257000000000E-01      7.882690000000000E-01      1.453552000000000E-01      8.207031000000000E+01
4855000000.000000      4.594574000000000E-01     -1.419580000000000E+01      4.987183000000000E-01     -1.735312000000000E+02      5.476074000000000E-01      5.424500000000000E-01      1.480713000000000E-01      8.601954000000000E+01
4856000000.000000      4.575043000000000E-01     -1.412744000000000E+01      4.992523000000000E-01     -1.738672000000000E+02      5.484009000000000E-01      5.259705000000000E-01      1.533585000000000E-01      8.897655000000000E+01
4857000000.000000      4.590302000000000E-01     -1.380615000000000E+01      5.014038000000000E-01     -1.742422000000000E+02      5.486145000000000E-01      3.955078000000000E-01      1.563950000000000E-01      9.218750000000000E+01
4858000000.000000      4.579773000000000E-01     -1.349561000000000E+01      5.008240000000000E-01     -1.745547000000000E+02      5.523987000000000E-01      1.936340000000000E-01      1.620102000000000E-01      9.452734000000000E+01
4859000000.000000      4.584503000000000E-01     -1.322656000000000E+01      5.018921000000000E-01     -1.749375000000000E+02      5.511475000000000E-01      8.514404000000000E-02      1.668701000000000E-01      9.739061000000000E+01
4860000000.000000      4.585876000000000E-01     -1.298584000000000E+01      5.033264000000000E-01     -1.752656000000000E+02      5.515747000000000E-01     -1.428223000000000E-01      1.732559000000000E-01      9.965233000000000E+01
4861000000.000000      4.589081000000000E-01     -1.267139000000000E+01      5.039368000000000E-01     -1.757109000000000E+02      5.550232000000000E-01     -2.993774000000000E-01      1.789932000000000E-01      1.017578000000000E+02
4862000000.000000      4.605408000000000E-01     -1.226367000000000E+01      5.043030000000000E-01     -1.758437000000000E+02      5.545654000000000E-01     -3.117371000000000E-01      1.844711000000000E-01      1.034023000000000E+02
4863000000.000000      4.596710000000000E-01     -1.204102000000000E+01      5.044861000000000E-01     -1.763828000000000E+02      5.541687000000000E-01     -6.880188000000000E-01      1.916656000000000E-01      1.049570000000000E+02
4864000000.000000      4.623260000000000E-01     -1.185986000000000E+01      5.048523000000000E-01     -1.765703000000000E+02      5.541077000000000E-01     -7.003784000000000E-01      1.974335000000000E-01      1.067226000000000E+02
4865000000.000000      4.633942000000000E-01     -1.161816000000000E+01      5.063477000000000E-01     -1.768828000000000E+02      5.549011000000000E-01     -8.349609000000000E-01      2.044144000000000E-01      1.081016000000000E+02
4866000000.000000      4.628296000000000E-01     -1.134912000000000E+01      5.064087000000000E-01     -1.773281000000000E+02      5.563049000000000E-01     -1.231873000000000E+00      2.115402000000000E-01      1.088984000000000E+02
4867000000.000000      4.658661000000000E-01     -1.108936000000000E+01      5.066223000000000E-01     -1.778359000000000E+02      5.543213000000000E-01     -9.338379000000000E-01      2.155762000000000E-01      1.104023000000000E+02
4868000000.000000      4.660492000000000E-01     -1.092334000000000E+01      5.094910000000000E-01     -1.781563000000000E+02      5.564880000000000E-01     -1.237366000000000E+00      2.230911000000000E-01      1.114531000000000E+02
4869000000.000000      4.696503000000000E-01     -1.050195000000000E+01      5.107727000000000E-01     -1.785000000000000E+02      5.556030000000000E-01     -1.205750000000000E+00      2.280655000000000E-01      1.124531000000000E+02
4870000000.000000      4.714203000000000E-01     -1.024512000000000E+01      5.104065000000000E-01     -1.786328000000000E+02      5.540771000000000E-01     -1.267578000000000E+00      2.355194000000000E-01      1.132734000000000E+02
4871000000.000000      4.716949000000000E-01     -1.012695000000000E+01      5.118408000000000E-01     -1.791250000000000E+02      5.545349000000000E-01     -1.430969000000000E+00      2.416534000000000E-01      1.137812000000000E+02
4872000000.000000      4.738312000000000E-01     -9.821777000000000E+00      5.117798000000000E-01     -1.793828000000000E+02      5.548706000000000E-01     -1.623230000000000E+00      2.472610000000000E-01      1.144805000000000E+02
4873000000.000000      4.763489000000000E-01     -9.552734000000000E+00      5.114441000000000E-01      1.799687000000000E+02      5.547485000000000E-01     -1.594421000000000E+00      2.519226000000000E-01      1.151914000000000E+02
4874000000.000000      4.797516000000000E-01     -9.346680000000000E+00      5.130920000000000E-01      1.797891000000000E+02      5.548706000000000E-01     -1.764709000000000E+00      2.583618000000000E-01      1.154531000000000E+02
4875000000.000000      4.824829000000000E-01     -9.373047000000000E+00      5.130920000000000E-01      1.793906000000000E+02      5.555115000000000E-01     -1.875916000000000E+00      2.628021000000000E-01      1.161328000000000E+02
4876000000.000000      4.835358000000000E-01     -8.932129000000000E+00      5.142517000000000E-01      1.790781000000000E+02      5.549622000000000E-01     -1.729004000000000E+00      2.700348000000000E-01      1.165234000000000E+02
4877000000.000000      4.896393000000000E-01     -9.022949000000000E+00      5.155640000000000E-01      1.786016000000000E+02      5.543823000000000E-01     -2.024292000000000E+00      2.745056000000000E-01      1.171328000000000E+02
4878000000.000000      4.890137000000000E-01     -8.614746000000000E+00      5.149536000000000E-01      1.782734000000000E+02      5.534973000000000E-01     -1.961060000000000E+00      2.790222000000000E-01      1.170195000000000E+02
4879000000.000000      4.937592000000000E-01     -8.432129000000000E+00      5.156860000000000E-01      1.778672000000000E+02      5.531006000000000E-01     -1.956970000000000E+00      2.831116000000000E-01      1.177266000000000E+02
4880000000.000000      4.980164000000000E-01     -8.576660000000000E+00      5.176086000000000E-01      1.776094000000000E+02      5.517578000000000E-01     -2.135498000000000E+00      2.877808000000000E-01      1.178672000000000E+02
4881000000.000000      4.976807000000000E-01     -8.310059000000000E+00      5.177612000000000E-01      1.772812000000000E+02      5.527344000000000E-01     -2.145142000000000E+00      2.922974000000000E-01      1.179766000000000E+02
4882000000.000000      5.031128000000000E-01     -7.908936000000000E+00      5.192261000000000E-01      1.766953000000000E+02      5.523682000000000E-01     -2.183594000000000E+00      2.969971000000000E-01      1.184805000000000E+02
