! Network Analyzer HP8722D
! Hewlett-Packard
! Data name: Linha & Wilkinson
! Saver's name: Rodrigo Anjos
! Comments: Teste da utilização de aquisição
continua pelo VNA HP8722D
! Time and date: 8/5/2025 14:54
!              Frequency                     S11                                                   S21                                                   S12                                                   S22
# HZ  S  MA R 50
4800000000.000000      5.332336000000000E-01     -2.523340000000000E+01      3.694000000000000E-01     -1.498125000000000E+02      3.883667000000000E-01      9.394531000000000E+00      4.988861000000000E-01      1.251038000000000E+00
4801000000.000000      5.314026000000000E-01     -2.475586000000000E+01      3.731232000000000E-01     -1.500937000000000E+02      3.898163000000000E-01      9.360352000000000E+00      4.964294000000000E-01      1.134338000000000E+00
4802000000.000000      5.299377000000000E-01     -2.451269000000000E+01      3.766937000000000E-01     -1.503750000000000E+02      3.938293000000000E-01      9.438477000000000E+00      4.893341000000000E-01      1.630066000000000E+00
4803000000.000000      5.297852000000000E-01     -2.439258000000000E+01      3.824158000000000E-01     -1.507891000000000E+02      3.979645000000000E-01      9.188477000000000E+00      4.846039000000000E-01      1.450195000000000E+00
4804000000.000000      5.274658000000000E-01     -2.408105000000000E+01      3.855591000000000E-01     -1.512969000000000E+02      4.028778000000000E-01      8.926270000000000E+00      4.765472000000000E-01      1.580627000000000E+00
4805000000.000000      5.268860000000000E-01     -2.394336000000000E+01      3.892517000000000E-01     -1.517031000000000E+02      4.055939000000000E-01      8.942871000000000E+00      4.708405000000000E-01      1.693237000000000E+00
4806000000.000000      5.258789000000000E-01     -2.362500000000000E+01      3.930664000000000E-01     -1.520859000000000E+02      4.103394000000000E-01      8.890625000000000E+00      4.638824000000000E-01      1.687744000000000E+00
4807000000.000000      5.231018000000000E-01     -2.326270000000000E+01      3.962555000000000E-01     -1.525312000000000E+02      4.142914000000000E-01      8.774902000000000E+00      4.565582000000000E-01      1.937683000000000E+00
4808000000.000000      5.231934000000000E-01     -2.311523000000000E+01      4.007263000000000E-01     -1.527578000000000E+02      4.173737000000000E-01      8.539063000000000E+00      4.497986000000000E-01      2.129883000000000E+00
4809000000.000000      5.237122000000000E-01     -2.284375000000000E+01      4.044342000000000E-01     -1.533281000000000E+02      4.214020000000000E-01      8.223145000000000E+00      4.423523000000000E-01      2.423828000000000E+00
4810000000.000000      5.204163000000000E-01     -2.281641000000000E+01      4.089813000000000E-01     -1.537891000000000E+02      4.264526000000000E-01      8.356445000000000E+00      4.354858000000000E-01      2.276855000000000E+00
4811000000.000000      5.180359000000000E-01     -2.243359000000000E+01      4.121857000000000E-01     -1.542891000000000E+02      4.299164000000000E-01      7.979980000000000E+00      4.271088000000000E-01      2.785034000000000E+00
4812000000.000000      5.194397000000000E-01     -2.204297000000000E+01      4.156799000000000E-01     -1.547188000000000E+02      4.333649000000000E-01      8.161133000000000E+00      4.203033000000000E-01      2.673706000000000E+00
4813000000.000000      5.172119000000000E-01     -2.217480000000000E+01      4.186401000000000E-01     -1.551875000000000E+02      4.352264000000000E-01      7.853760000000000E+00      4.124908000000000E-01      3.262939000000000E+00
4814000000.000000      5.151672000000000E-01     -2.171875000000000E+01      4.228210000000000E-01     -1.554609000000000E+02      4.418793000000000E-01      7.587402000000000E+00      4.040070000000000E-01      3.353516000000000E+00
4815000000.000000      5.133972000000000E-01     -2.152148000000000E+01      4.252930000000000E-01     -1.559687000000000E+02      4.421997000000000E-01      7.606445000000000E+00      3.961334000000000E-01      3.739380000000000E+00
4816000000.000000      5.148315000000000E-01     -2.129101000000000E+01      4.292908000000000E-01     -1.563437000000000E+02      4.486389000000000E-01      7.484375000000000E+00      3.888855000000000E-01      3.893188000000000E+00
4817000000.000000      5.109863000000000E-01     -2.113281000000000E+01      4.318237000000000E-01     -1.569219000000000E+02      4.492493000000000E-01      6.980225000000000E+00      3.782501000000000E-01      4.335449000000000E+00
4818000000.000000      5.095520000000000E-01     -2.108203000000000E+01      4.349518000000000E-01     -1.573672000000000E+02      4.544678000000000E-01      6.980225000000000E+00      3.692017000000000E-01      4.632080000000000E+00
4819000000.000000      5.085144000000000E-01     -2.083301000000000E+01      4.378662000000000E-01     -1.577812000000000E+02      4.579773000000000E-01      6.826416000000000E+00      3.603821000000000E-01      4.762451000000000E+00
4820000000.000000      5.075073000000000E-01     -2.058105000000000E+01      4.411621000000000E-01     -1.581953000000000E+02      4.611359000000000E-01      6.756592000000000E+00      3.528595000000000E-01      5.372314000000000E+00
4821000000.000000      5.058594000000000E-01     -2.054883000000000E+01      4.441223000000000E-01     -1.586953000000000E+02      4.623260000000000E-01      6.544922000000000E+00      3.429871000000000E-01      5.948975000000000E+00
4822000000.000000      5.038757000000000E-01     -2.048047000000000E+01      4.454041000000000E-01     -1.590156000000000E+02      4.671326000000000E-01      6.326660000000000E+00      3.351898000000000E-01      6.133057000000000E+00
4823000000.000000      5.029297000000000E-01     -2.025781000000000E+01      4.493103000000000E-01     -1.598203000000000E+02      4.690704000000000E-01      6.326660000000000E+00      3.253174000000000E-01      6.608154000000000E+00
4824000000.000000      5.002136000000000E-01     -2.004492000000000E+01      4.515686000000000E-01     -1.600625000000000E+02      4.738922000000000E-01      6.032715000000000E+00      3.155212000000000E-01      6.999512000000000E+00
4825000000.000000      4.989929000000000E-01     -2.006445000000000E+01      4.538269000000000E-01     -1.605781000000000E+02      4.774780000000000E-01      6.130371000000000E+00      3.073425000000000E-01      7.776855000000000E+00
4826000000.000000      4.983215000000000E-01     -1.987305000000000E+01      4.567871000000000E-01     -1.612031000000000E+02      4.799805000000000E-01      5.786865000000000E+00      2.978668000000000E-01      8.341309000000000E+00
4827000000.000000      4.973297000000000E-01     -1.958594000000000E+01      4.585571000000000E-01     -1.613750000000000E+02      4.820404000000000E-01      5.762207000000000E+00      2.890930000000000E-01      9.040039000000000E+00
4828000000.000000      4.963531000000000E-01     -1.962988000000000E+01      4.620361000000000E-01     -1.619609000000000E+02      4.866180000000000E-01      5.631836000000000E+00      2.794800000000000E-01      9.631836000000000E+00
4829000000.000000      4.942322000000000E-01     -1.923633000000000E+01      4.637299000000000E-01     -1.624141000000000E+02      4.887695000000000E-01      5.689453000000000E+00      2.714386000000000E-01      1.072510000000000E+01
4830000000.000000      4.922333000000000E-01     -1.910254000000000E+01      4.658813000000000E-01     -1.629141000000000E+02      4.926147000000000E-01      5.346191000000000E+00      2.604523000000000E-01      1.176611000000000E+01
4831000000.000000      4.910889000000000E-01     -1.904492000000000E+01      4.678955000000000E-01     -1.635078000000000E+02      4.935608000000000E-01      5.375000000000000E+00      2.513428000000000E-01      1.275879000000000E+01
4832000000.000000      4.890594000000000E-01     -1.889648000000000E+01      4.691620000000000E-01     -1.637734000000000E+02      4.970398000000000E-01      4.853027000000000E+00      2.413635000000000E-01      1.419824000000000E+01
4833000000.000000      4.866791000000000E-01     -1.890137000000000E+01      4.716949000000000E-01     -1.640703000000000E+02      4.992371000000000E-01      4.718506000000000E+00      2.318954000000000E-01      1.521191000000000E+01
4834000000.000000      4.848328000000000E-01     -1.876465000000000E+01      4.730988000000000E-01     -1.646953000000000E+02      5.013428000000000E-01      4.552246000000000E+00      2.239532000000000E-01      1.660937000000000E+01
4835000000.000000      4.840546000000000E-01     -1.862793000000000E+01      4.747772000000000E-01     -1.652187000000000E+02      5.071411000000000E-01      4.486328000000000E+00      2.147903000000000E-01      1.797754000000000E+01
4836000000.000000      4.817810000000000E-01     -1.832031000000000E+01      4.757385000000000E-01     -1.655234000000000E+02      5.088501000000000E-01      4.343506000000000E+00      2.064133000000000E-01      2.003613000000000E+01
4837000000.000000      4.777679000000000E-01     -1.806348000000000E+01      4.767914000000000E-01     -1.661641000000000E+02      5.096741000000000E-01      4.126709000000000E+00      1.975479000000000E-01      2.178809000000000E+01
4838000000.000000      4.782104000000000E-01     -1.791797000000000E+01      4.793549000000000E-01     -1.663359000000000E+02      5.129395000000000E-01      3.880859000000000E+00      1.901093000000000E-01      2.370410000000000E+01
4839000000.000000      4.788361000000000E-01     -1.761816000000000E+01      4.813843000000000E-01     -1.667266000000000E+02      5.146484000000000E-01      4.004395000000000E+00      1.833649000000000E-01      2.581836000000000E+01
4840000000.000000      4.762726000000000E-01     -1.791601000000000E+01      4.823303000000000E-01     -1.673281000000000E+02      5.181885000000000E-01      3.845215000000000E+00      1.749649000000000E-01      2.803711000000000E+01
4841000000.000000      4.741974000000000E-01     -1.735352000000000E+01      4.843597000000000E-01     -1.678281000000000E+02      5.210571000000000E-01      3.434570000000000E+00      1.683197000000000E-01      3.114160000000000E+01
4842000000.000000      4.730225000000000E-01     -1.735352000000000E+01      4.853821000000000E-01     -1.680938000000000E+02      5.217896000000000E-01      3.489502000000000E+00      1.621170000000000E-01      3.411914000000000E+01
4843000000.000000      4.726563000000000E-01     -1.708105000000000E+01      4.871826000000000E-01     -1.686172000000000E+02      5.258484000000000E-01      3.213501000000000E+00      1.558685000000000E-01      3.739453000000000E+01
4844000000.000000      4.702301000000000E-01     -1.691113000000000E+01      4.877167000000000E-01     -1.690234000000000E+02      5.270691000000000E-01      2.989624000000000E+00      1.493607000000000E-01      4.102539000000000E+01
4845000000.000000      4.686737000000000E-01     -1.669141000000000E+01      4.885406000000000E-01     -1.693047000000000E+02      5.298767000000000E-01      2.785034000000000E+00      1.451645000000000E-01      4.431054000000000E+01
4846000000.000000      4.668884000000000E-01     -1.655371000000000E+01      4.897308000000000E-01     -1.697422000000000E+02      5.325012000000000E-01      2.735596000000000E+00      1.413269000000000E-01      4.844531000000000E+01
4847000000.000000      4.651489000000000E-01     -1.632324000000000E+01      4.916382000000000E-01     -1.700547000000000E+02      5.343933000000000E-01      2.529541000000000E+00      1.373444000000000E-01      5.259570000000000E+01
4848000000.000000      4.638824000000000E-01     -1.606152000000000E+01      4.906158000000000E-01     -1.705234000000000E+02      5.352478000000000E-01      2.253540000000000E+00      1.362228000000000E-01      5.694921000000000E+01
4849000000.000000      4.610443000000000E-01     -1.568164000000000E+01      4.931030000000000E-01     -1.708672000000000E+02      5.371399000000000E-01      2.102417000000000E+00      1.347885000000000E-01      6.113086000000000E+01
4850000000.000000      4.615784000000000E-01     -1.571191000000000E+01      4.930878000000000E-01     -1.711953000000000E+02      5.390320000000000E-01      2.000854000000000E+00      1.348419000000000E-01      6.556641000000000E+01
4851000000.000000      4.618835000000000E-01     -1.518604000000000E+01      4.952240000000000E-01     -1.716875000000000E+02      5.401001000000000E-01      1.893738000000000E+00      1.349030000000000E-01      6.972656000000000E+01
4852000000.000000      4.610748000000000E-01     -1.512012000000000E+01      4.960480000000000E-01     -1.720156000000000E+02      5.418701000000000E-01      1.632813000000000E+00      1.365814000000000E-01      7.375390000000000E+01
4853000000.000000      4.614563000000000E-01     -1.485352000000000E+01      4.949799000000000E-01     -1.724062000000000E+02      5.444641000000000E-01      1.396606000000000E+00      1.387177000000000E-01      7.765234000000000E+01
4854000000.000000      4.591675000000000E-01     -1.433447000000000E+01      4.963226000000000E-01     -1.727578000000000E+02      5.455017000000000E-01      1.496887000000000E+00      1.419449000000000E-01      8.169531000000000E+01
4855000000.000000      4.567413000000000E-01     -1.426855000000000E+01      4.976501000000000E-01     -1.732188000000000E+02      5.470581000000000E-01      1.073914000000000E+00      1.440277000000000E-01      8.581640000000000E+01
4856000000.000000      4.596405000000000E-01     -1.372510000000000E+01      4.985809000000000E-01     -1.734609000000000E+02      5.464172000000000E-01      1.002502000000000E+00      1.501465000000000E-01      8.900391000000000E+01
4857000000.000000      4.581604000000000E-01     -1.358057000000000E+01      5.002441000000000E-01     -1.736719000000000E+02      5.498657000000000E-01      9.255981000000000E-01      1.534424000000000E-01      9.201563000000000E+01
4858000000.000000      4.611816000000000E-01     -1.326611000000000E+01      5.008850000000000E-01     -1.742422000000000E+02      5.497437000000000E-01      8.143616000000000E-01      1.587601000000000E-01      9.481640000000000E+01
4859000000.000000      4.598999000000000E-01     -1.321289000000000E+01      5.021362000000000E-01     -1.745000000000000E+02      5.512390000000000E-01      6.344604000000000E-01      1.632538000000000E-01      9.734375000000000E+01
4860000000.000000      4.600677000000000E-01     -1.281738000000000E+01      5.018005000000000E-01     -1.749141000000000E+02      5.517273000000000E-01      2.952576000000000E-01      1.706009000000000E-01      9.948046000000000E+01
4861000000.000000      4.572906000000000E-01     -1.257813000000000E+01      5.024109000000000E-01     -1.752344000000000E+02      5.534668000000000E-01      1.702881000000000E-01      1.741714000000000E-01      1.017070000000000E+02
4862000000.000000      4.600220000000000E-01     -1.222510000000000E+01      5.039063000000000E-01     -1.756484000000000E+02      5.534668000000000E-01      1.359558000000000E-01      1.825409000000000E-01      1.041875000000000E+02
4863000000.000000      4.610291000000000E-01     -1.193848000000000E+01      5.032654000000000E-01     -1.759219000000000E+02      5.545044000000000E-01     -6.591797000000000E-02      1.887131000000000E-01      1.055820000000000E+02
4864000000.000000      4.628601000000000E-01     -1.164990000000000E+01      5.059814000000000E-01     -1.760313000000000E+02      5.532227000000000E-01     -1.840210000000000E-01      1.937103000000000E-01      1.068594000000000E+02
4865000000.000000      4.654846000000000E-01     -1.158398000000000E+01      5.066223000000000E-01     -1.765469000000000E+02      5.534973000000000E-01     -1.428223000000000E-01      2.012253000000000E-01      1.084648000000000E+02
4866000000.000000      4.647675000000000E-01     -1.119922000000000E+01      5.066223000000000E-01     -1.768984000000000E+02      5.560608000000000E-01     -5.946350000000000E-01      2.071304000000000E-01      1.093008000000000E+02
4867000000.000000      4.656219000000000E-01     -1.078076000000000E+01      5.076294000000000E-01     -1.774219000000000E+02      5.549622000000000E-01     -5.863953000000000E-01      2.124176000000000E-01      1.107969000000000E+02
4868000000.000000      4.668427000000000E-01     -1.049512000000000E+01      5.082703000000000E-01     -1.777344000000000E+02      5.549316000000000E-01     -6.811523000000000E-01      2.197723000000000E-01      1.119102000000000E+02
4869000000.000000      4.682312000000000E-01     -1.035352000000000E+01      5.070190000000000E-01     -1.781328000000000E+02      5.556030000000000E-01     -8.528137000000000E-01      2.270050000000000E-01      1.128711000000000E+02
4870000000.000000      4.703827000000000E-01     -1.010352000000000E+01      5.099487000000000E-01     -1.781719000000000E+02      5.551147000000000E-01     -8.857727000000000E-01      2.318573000000000E-01      1.138203000000000E+02
4871000000.000000      4.735718000000000E-01     -9.892090000000000E+00      5.099182000000000E-01     -1.788281000000000E+02      5.552979000000000E-01     -1.039612000000000E+00      2.388153000000000E-01      1.147539000000000E+02
4872000000.000000      4.750061000000000E-01     -9.623047000000000E+00      5.121155000000000E-01     -1.790078000000000E+02      5.554810000000000E-01     -1.139832000000000E+00      2.442932000000000E-01      1.146641000000000E+02
4873000000.000000      4.771729000000000E-01     -9.467773000000000E+00      5.112610000000000E-01     -1.793984000000000E+02      5.541992000000000E-01     -1.198914000000000E+00      2.499161000000000E-01      1.157578000000000E+02
4874000000.000000      4.782104000000000E-01     -8.940430000000000E+00      5.114746000000000E-01     -1.798359000000000E+02      5.551453000000000E-01     -1.300537000000000E+00      2.542725000000000E-01      1.161211000000000E+02
4875000000.000000      4.814606000000000E-01     -8.952637000000000E+00      5.118103000000000E-01      1.797422000000000E+02      5.539246000000000E-01     -1.319763000000000E+00      2.598572000000000E-01      1.172266000000000E+02
4876000000.000000      4.835815000000000E-01     -8.650391000000000E+00      5.152283000000000E-01      1.794531000000000E+02      5.560913000000000E-01     -1.307373000000000E+00      2.660980000000000E-01      1.173203000000000E+02
4877000000.000000      4.870453000000000E-01     -8.829102000000000E+00      5.149231000000000E-01      1.790234000000000E+02      5.525208000000000E-01     -1.481812000000000E+00      2.712555000000000E-01      1.174844000000000E+02
4878000000.000000      4.893799000000000E-01     -8.322266000000000E+00      5.160522000000000E-01      1.785234000000000E+02      5.533752000000000E-01     -1.523010000000000E+00      2.764893000000000E-01      1.178047000000000E+02
4879000000.000000      4.920197000000000E-01     -8.264648000000000E+00      5.151978000000000E-01      1.783437000000000E+02      5.523682000000000E-01     -1.594421000000000E+00      2.806091000000000E-01      1.182734000000000E+02
4880000000.000000      4.962311000000000E-01     -8.300293000000000E+00      5.162659000000000E-01      1.779063000000000E+02      5.522766000000000E-01     -1.529846000000000E+00      2.837677000000000E-01      1.183164000000000E+02
4881000000.000000      4.985962000000000E-01     -8.179688000000000E+00      5.166626000000000E-01      1.775938000000000E+02      5.518188000000000E-01     -1.691895000000000E+00      2.891388000000000E-01      1.186719000000000E+02
4882000000.000000      5.030212000000000E-01     -7.844238000000000E+00      5.198059000000000E-01      1.769687000000000E+02      5.534363000000000E-01     -1.569702000000000E+00      2.934875000000000E-01      1.188477000000000E+02
