! Network Analyzer HP8722D
! Hewlett-Packard
! Data name: Linha & Wilkinson
! Saver's name: Rodrigo Anjos
! Comments: Teste da utilização de aquisição
continua pelo VNA HP8722D
! Time and date: 8/5/2025 15:46
!              Frequency                     S11                                                   S21                                                   S12                                                   S22
# HZ  S  MA R 50
4800000000.000000      5.342712000000000E-01     -1.096484000000000E+02      1.163673000000000E-01     -1.434219000000000E+02      1.165199000000000E-01     -8.777735000000000E+01      6.787415000000000E-01     -7.452734000000000E+01
4801000000.000000      5.362549000000000E-01     -1.104297000000000E+02      1.165810000000000E-01     -1.417578000000000E+02      1.163177000000000E-01     -8.606640000000000E+01      6.780090000000000E-01     -7.474999000000000E+01
4802000000.000000      5.365601000000000E-01     -1.112734000000000E+02      1.163330000000000E-01     -1.397812000000000E+02      1.167488000000000E-01     -8.396875000000000E+01      6.781616000000000E-01     -7.484375000000000E+01
4803000000.000000      5.362244000000000E-01     -1.118516000000000E+02      1.171761000000000E-01     -1.382031000000000E+02      1.166725000000000E-01     -8.219530000000000E+01      6.759949000000000E-01     -7.512109000000000E+01
4804000000.000000      5.368042000000000E-01     -1.127891000000000E+02      1.175880000000000E-01     -1.364687000000000E+02      1.177521000000000E-01     -8.052734000000000E+01      6.759338000000000E-01     -7.507421000000000E+01
4805000000.000000      5.379944000000000E-01     -1.134062000000000E+02      1.185989000000000E-01     -1.346250000000000E+02      1.188469000000000E-01     -7.851563000000000E+01      6.749268000000000E-01     -7.524219000000000E+01
4806000000.000000      5.385437000000000E-01     -1.141484000000000E+02      1.196976000000000E-01     -1.328672000000000E+02      1.190910000000000E-01     -7.677734000000000E+01      6.749268000000000E-01     -7.547656000000000E+01
4807000000.000000      5.389404000000000E-01     -1.147969000000000E+02      1.210823000000000E-01     -1.313750000000000E+02      1.207809000000000E-01     -7.530078000000000E+01      6.726074000000000E-01     -7.547265000000000E+01
4808000000.000000      5.386353000000000E-01     -1.154883000000000E+02      1.227303000000000E-01     -1.297500000000000E+02      1.222420000000000E-01     -7.355859000000000E+01      6.718750000000000E-01     -7.565234000000000E+01
4809000000.000000      5.391541000000000E-01     -1.161641000000000E+02      1.240578000000000E-01     -1.283984000000000E+02      1.240730000000000E-01     -7.208202000000000E+01      6.717529000000000E-01     -7.575000000000000E+01
4810000000.000000      5.417480000000000E-01     -1.171133000000000E+02      1.263199000000000E-01     -1.269219000000000E+02      1.259613000000000E-01     -7.048046000000000E+01      6.707764000000000E-01     -7.593750000000000E+01
4811000000.000000      5.447693000000000E-01     -1.175039000000000E+02      1.280899000000000E-01     -1.258320000000000E+02      1.281891000000000E-01     -6.906250000000000E+01      6.700134000000000E-01     -7.582812000000000E+01
4812000000.000000      5.483398000000000E-01     -1.181562000000000E+02      1.304016000000000E-01     -1.244844000000000E+02      1.301956000000000E-01     -6.780859000000000E+01      6.688843000000000E-01     -7.615624000000000E+01
4813000000.000000      5.491943000000000E-01     -1.188711000000000E+02      1.323013000000000E-01     -1.232617000000000E+02      1.321030000000000E-01     -6.647265000000000E+01      6.690369000000000E-01     -7.603125000000000E+01
4814000000.000000      5.510864000000000E-01     -1.196484000000000E+02      1.351013000000000E-01     -1.221367000000000E+02      1.349869000000000E-01     -6.523046000000000E+01      6.671753000000000E-01     -7.618359000000000E+01
4815000000.000000      5.538940000000000E-01     -1.202695000000000E+02      1.371460000000000E-01     -1.211758000000000E+02      1.372147000000000E-01     -6.415625000000000E+01      6.667786000000000E-01     -7.620312000000000E+01
4816000000.000000      5.563965000000000E-01     -1.206953000000000E+02      1.402512000000000E-01     -1.200547000000000E+02      1.404953000000000E-01     -6.311523000000000E+01      6.661682000000000E-01     -7.628515000000000E+01
4817000000.000000      5.604248000000000E-01     -1.214570000000000E+02      1.430740000000000E-01     -1.193125000000000E+02      1.427460000000000E-01     -6.204687000000000E+01      6.652222000000000E-01     -7.644140000000000E+01
4818000000.000000      5.630188000000000E-01     -1.220820000000000E+02      1.456070000000000E-01     -1.183594000000000E+02      1.455536000000000E-01     -6.114452000000000E+01      6.654358000000000E-01     -7.651953000000000E+01
4819000000.000000      5.674438000000000E-01     -1.226601000000000E+02      1.483917000000000E-01     -1.180664000000000E+02      1.485672000000000E-01     -6.040429000000000E+01      6.651306000000000E-01     -7.661327000000000E+01
4820000000.000000      5.697632000000000E-01     -1.232031000000000E+02      1.512833000000000E-01     -1.169336000000000E+02      1.517487000000000E-01     -5.946289000000000E+01      6.655273000000000E-01     -7.663280000000000E+01
4821000000.000000      5.735474000000000E-01     -1.236406000000000E+02      1.544266000000000E-01     -1.165078000000000E+02      1.546249000000000E-01     -5.891602000000000E+01      6.635132000000000E-01     -7.674218000000000E+01
4822000000.000000      5.811768000000000E-01     -1.245273000000000E+02      1.572571000000000E-01     -1.158633000000000E+02      1.575394000000000E-01     -5.820313000000000E+01      6.645508000000000E-01     -7.677734000000000E+01
4823000000.000000      5.824280000000000E-01     -1.247695000000000E+02      1.604385000000000E-01     -1.153945000000000E+02      1.608047000000000E-01     -5.738476000000000E+01      6.644287000000000E-01     -7.678905000000000E+01
4824000000.000000      5.892029000000000E-01     -1.254336000000000E+02      1.635208000000000E-01     -1.149492000000000E+02      1.643982000000000E-01     -5.685741000000000E+01      6.647949000000000E-01     -7.678124000000000E+01
4825000000.000000      5.946655000000000E-01     -1.258047000000000E+02      1.660614000000000E-01     -1.144531000000000E+02      1.677246000000000E-01     -5.638085000000000E+01      6.647949000000000E-01     -7.683984000000000E+01
4826000000.000000      5.971375000000000E-01     -1.261992000000000E+02      1.697617000000000E-01     -1.142539000000000E+02      1.705551000000000E-01     -5.600195000000000E+01      6.643677000000000E-01     -7.692968000000000E+01
4827000000.000000      6.023254000000000E-01     -1.266016000000000E+02      1.728668000000000E-01     -1.136641000000000E+02      1.737976000000000E-01     -5.537890000000000E+01      6.644287000000000E-01     -7.691015000000000E+01
4828000000.000000      6.111755000000000E-01     -1.269961000000000E+02      1.763687000000000E-01     -1.134648000000000E+02      1.773682000000000E-01     -5.490624000000000E+01      6.653748000000000E-01     -7.692187000000000E+01
4829000000.000000      6.133728000000000E-01     -1.275508000000000E+02      1.792068000000000E-01     -1.133476000000000E+02      1.808319000000000E-01     -5.458984000000000E+01      6.662598000000000E-01     -7.691015000000000E+01
4830000000.000000      6.204224000000000E-01     -1.280313000000000E+02      1.827011000000000E-01     -1.130234000000000E+02      1.840744000000000E-01     -5.413086000000000E+01      6.660156000000000E-01     -7.698437000000000E+01
4831000000.000000      6.262207000000000E-01     -1.283203000000000E+02      1.851807000000000E-01     -1.128984000000000E+02      1.878967000000000E-01     -5.394726000000000E+01      6.670532000000000E-01     -7.700390000000000E+01
4832000000.000000      6.339111000000000E-01     -1.284297000000000E+02      1.887970000000000E-01     -1.127226000000000E+02      1.909103000000000E-01     -5.364843000000000E+01      6.670837000000000E-01     -7.698437000000000E+01
4833000000.000000      6.397095000000000E-01     -1.289297000000000E+02      1.923065000000000E-01     -1.125977000000000E+02      1.943665000000000E-01     -5.339844000000000E+01      6.677551000000000E-01     -7.693359000000000E+01
4834000000.000000      6.471252000000000E-01     -1.292734000000000E+02      1.948929000000000E-01     -1.125391000000000E+02      1.978683000000000E-01     -5.314062000000000E+01      6.673889000000000E-01     -7.692187000000000E+01
4835000000.000000      6.516113000000000E-01     -1.293750000000000E+02      1.990128000000000E-01     -1.125430000000000E+02      2.014160000000000E-01     -5.299609000000000E+01      6.694946000000000E-01     -7.700390000000000E+01
4836000000.000000      6.597900000000000E-01     -1.295156000000000E+02      2.016373000000000E-01     -1.122812000000000E+02      2.047195000000000E-01     -5.265625000000000E+01      6.694336000000000E-01     -7.686718000000000E+01
4837000000.000000      6.665955000000000E-01     -1.297109000000000E+02      2.050323000000000E-01     -1.128047000000000E+02      2.086868000000000E-01     -5.267187000000000E+01      6.714783000000000E-01     -7.685547000000000E+01
4838000000.000000      6.740417000000000E-01     -1.300625000000000E+02      2.086563000000000E-01     -1.125859000000000E+02      2.119293000000000E-01     -5.237695000000000E+01      6.724854000000000E-01     -7.694140000000000E+01
4839000000.000000      6.813660000000000E-01     -1.302500000000000E+02      2.113419000000000E-01     -1.126172000000000E+02      2.156677000000000E-01     -5.223633000000000E+01      6.730652000000000E-01     -7.680859000000000E+01
4840000000.000000      6.874084000000000E-01     -1.302969000000000E+02      2.143097000000000E-01     -1.126601000000000E+02      2.192993000000000E-01     -5.213867000000000E+01      6.736145000000000E-01     -7.686328000000000E+01
4841000000.000000      6.939392000000000E-01     -1.306641000000000E+02      2.179718000000000E-01     -1.129180000000000E+02      2.227707000000000E-01     -5.207226000000000E+01      6.762390000000000E-01     -7.687109000000000E+01
4842000000.000000      7.022400000000000E-01     -1.307734000000000E+02      2.207947000000000E-01     -1.128164000000000E+02      2.259598000000000E-01     -5.199219000000000E+01      6.781006000000000E-01     -7.682812000000000E+01
4843000000.000000      7.097778000000000E-01     -1.308828000000000E+02      2.233582000000000E-01     -1.131289000000000E+02      2.299271000000000E-01     -5.189258000000000E+01      6.783447000000000E-01     -7.682422000000000E+01
4844000000.000000      7.160645000000000E-01     -1.309453000000000E+02      2.267075000000000E-01     -1.131758000000000E+02      2.329636000000000E-01     -5.193749000000000E+01      6.800537000000000E-01     -7.682031000000000E+01
4845000000.000000      7.232971000000000E-01     -1.310625000000000E+02      2.291489000000000E-01     -1.132695000000000E+02      2.367477000000000E-01     -5.177734000000000E+01      6.810913000000000E-01     -7.665625000000000E+01
4846000000.000000      7.314453000000000E-01     -1.311719000000000E+02      2.323380000000000E-01     -1.134023000000000E+02      2.409744000000000E-01     -5.170507000000000E+01      6.840820000000000E-01     -7.662499000000000E+01
4847000000.000000      7.404480000000000E-01     -1.312500000000000E+02      2.352982000000000E-01     -1.136016000000000E+02      2.447205000000000E-01     -5.176952000000000E+01      6.858826000000000E-01     -7.680078000000000E+01
4848000000.000000      7.473450000000000E-01     -1.312344000000000E+02      2.379608000000000E-01     -1.137461000000000E+02      2.481155000000000E-01     -5.171093000000000E+01      6.876831000000000E-01     -7.670312000000000E+01
4849000000.000000      7.547302000000000E-01     -1.314922000000000E+02      2.411880000000000E-01     -1.141055000000000E+02      2.518158000000000E-01     -5.177148000000000E+01      6.886597000000000E-01     -7.666406000000000E+01
4850000000.000000      7.627258000000000E-01     -1.312031000000000E+02      2.442169000000000E-01     -1.141797000000000E+02      2.549896000000000E-01     -5.167969000000000E+01      6.905823000000000E-01     -7.663671000000000E+01
4851000000.000000      7.708130000000000E-01     -1.314219000000000E+02      2.473679000000000E-01     -1.145703000000000E+02      2.583313000000000E-01     -5.180078000000000E+01      6.946106000000000E-01     -7.661718000000000E+01
4852000000.000000      7.783508000000000E-01     -1.314141000000000E+02      2.498245000000000E-01     -1.146758000000000E+02      2.625885000000000E-01     -5.170898000000000E+01      6.953125000000000E-01     -7.660937000000000E+01
4853000000.000000      7.856445000000000E-01     -1.314453000000000E+02      2.518005000000000E-01     -1.150430000000000E+02      2.665710000000000E-01     -5.173828000000000E+01      6.983643000000000E-01     -7.667578000000000E+01
4854000000.000000      7.939453000000000E-01     -1.314297000000000E+02      2.551422000000000E-01     -1.152891000000000E+02      2.703705000000000E-01     -5.190039000000000E+01      7.005615000000000E-01     -7.656640000000000E+01
4855000000.000000      8.015442000000000E-01     -1.314375000000000E+02      2.570038000000000E-01     -1.154609000000000E+02      2.729034000000000E-01     -5.188867000000000E+01      7.010193000000000E-01     -7.642968000000000E+01
4856000000.000000      8.098755000000000E-01     -1.312266000000000E+02      2.602997000000000E-01     -1.156055000000000E+02      2.770386000000000E-01     -5.199413000000000E+01      7.047119000000000E-01     -7.655859000000000E+01
4857000000.000000      8.164978000000000E-01     -1.313203000000000E+02      2.630615000000000E-01     -1.160273000000000E+02      2.805634000000000E-01     -5.197656000000000E+01      7.075195000000000E-01     -7.653906000000000E+01
4858000000.000000      8.209534000000000E-01     -1.312813000000000E+02      2.653961000000000E-01     -1.163477000000000E+02      2.838287000000000E-01     -5.209961000000000E+01      7.084351000000000E-01     -7.655859000000000E+01
4859000000.000000      8.307800000000000E-01     -1.312187000000000E+02      2.676086000000000E-01     -1.165078000000000E+02      2.885132000000000E-01     -5.237890000000000E+01      7.122192000000000E-01     -7.663671000000000E+01
4860000000.000000      8.398743000000000E-01     -1.311172000000000E+02      2.699585000000000E-01     -1.166953000000000E+02      2.910919000000000E-01     -5.222265000000000E+01      7.130432000000000E-01     -7.643749000000000E+01
4861000000.000000      8.466187000000000E-01     -1.310313000000000E+02      2.716217000000000E-01     -1.172461000000000E+02      2.950897000000000E-01     -5.242773000000000E+01      7.166138000000000E-01     -7.658984000000000E+01
4862000000.000000      8.532715000000000E-01     -1.310547000000000E+02      2.746277000000000E-01     -1.173867000000000E+02      2.988434000000000E-01     -5.252343000000000E+01      7.212219000000000E-01     -7.653125000000000E+01
4863000000.000000      8.616333000000000E-01     -1.310078000000000E+02      2.762451000000000E-01     -1.178047000000000E+02      3.027344000000000E-01     -5.265625000000000E+01      7.230225000000000E-01     -7.660937000000000E+01
4864000000.000000      8.694153000000000E-01     -1.308984000000000E+02      2.790222000000000E-01     -1.179336000000000E+02      3.058472000000000E-01     -5.273438000000000E+01      7.248230000000000E-01     -7.664063000000000E+01
4865000000.000000      8.726807000000000E-01     -1.310313000000000E+02      2.809448000000000E-01     -1.182695000000000E+02      3.095703000000000E-01     -5.294335000000000E+01      7.284241000000000E-01     -7.654687000000000E+01
4866000000.000000      8.804016000000000E-01     -1.308984000000000E+02      2.821960000000000E-01     -1.184727000000000E+02      3.130798000000000E-01     -5.311328000000000E+01      7.312317000000000E-01     -7.645702000000000E+01
4867000000.000000      8.873901000000000E-01     -1.307500000000000E+02      2.847595000000000E-01     -1.189023000000000E+02      3.168793000000000E-01     -5.310156000000000E+01      7.347412000000000E-01     -7.659765000000000E+01
4868000000.000000      8.948669000000000E-01     -1.308203000000000E+02      2.873840000000000E-01     -1.192461000000000E+02      3.202820000000000E-01     -5.339844000000000E+01      7.359619000000000E-01     -7.661327000000000E+01
4869000000.000000      8.986511000000000E-01     -1.307734000000000E+02      2.880554000000000E-01     -1.195508000000000E+02      3.246002000000000E-01     -5.352539000000000E+01      7.388306000000000E-01     -7.686718000000000E+01
4870000000.000000      9.039612000000000E-01     -1.305078000000000E+02      2.908325000000000E-01     -1.196367000000000E+02      3.275909000000000E-01     -5.375390000000000E+01      7.426453000000000E-01     -7.682422000000000E+01
4871000000.000000      9.127808000000000E-01     -1.305547000000000E+02      2.923431000000000E-01     -1.201328000000000E+02      3.305359000000000E-01     -5.389062000000000E+01      7.447815000000000E-01     -7.691406000000000E+01
4872000000.000000      9.177246000000000E-01     -1.304219000000000E+02      2.936859000000000E-01     -1.202148000000000E+02      3.346558000000000E-01     -5.433594000000000E+01      7.475891000000000E-01     -7.696484000000000E+01
4873000000.000000      9.221191000000000E-01     -1.302187000000000E+02      2.957001000000000E-01     -1.206836000000000E+02      3.381958000000000E-01     -5.428124000000000E+01      7.500610000000000E-01     -7.692968000000000E+01
4874000000.000000      9.271545000000000E-01     -1.301641000000000E+02      2.973938000000000E-01     -1.209844000000000E+02      3.414764000000000E-01     -5.454492000000000E+01      7.517090000000000E-01     -7.698047000000000E+01
4875000000.000000      9.346619000000000E-01     -1.300547000000000E+02      2.986603000000000E-01     -1.212031000000000E+02      3.453369000000000E-01     -5.477539000000000E+01      7.543945000000000E-01     -7.705468000000000E+01
4876000000.000000      9.367371000000000E-01     -1.299687000000000E+02      3.002625000000000E-01     -1.216797000000000E+02      3.484039000000000E-01     -5.492969000000000E+01      7.577820000000000E-01     -7.722265000000000E+01
4877000000.000000      9.413757000000000E-01     -1.298359000000000E+02      3.016968000000000E-01     -1.217812000000000E+02      3.519745000000000E-01     -5.524219000000000E+01      7.612305000000000E-01     -7.733984000000000E+01
4878000000.000000      9.461365000000000E-01     -1.297188000000000E+02      3.042603000000000E-01     -1.219922000000000E+02      3.555908000000000E-01     -5.534570000000000E+01      7.633057000000000E-01     -7.742578000000000E+01
4879000000.000000      9.532776000000000E-01     -1.296953000000000E+02      3.046722000000000E-01     -1.221875000000000E+02      3.585358000000000E-01     -5.565430000000000E+01      7.656250000000000E-01     -7.742578000000000E+01
4880000000.000000      9.523315000000000E-01     -1.296250000000000E+02      3.066711000000000E-01     -1.226797000000000E+02      3.623352000000000E-01     -5.577929000000000E+01      7.685852000000000E-01     -7.746484000000000E+01
4881000000.000000      9.576416000000000E-01     -1.293437000000000E+02      3.083191000000000E-01     -1.227266000000000E+02      3.660126000000000E-01     -5.621875000000000E+01      7.705688000000000E-01     -7.758203000000000E+01
4882000000.000000      9.595947000000000E-01     -1.291719000000000E+02      3.093719000000000E-01     -1.231133000000000E+02      3.685760000000000E-01     -5.634179000000000E+01      7.720642000000000E-01     -7.775000000000000E+01
