! Network Analyzer HP8722D
! Hewlett-Packard
! Data name: Linha & Wilkinson
! Saver's name: Rodrigo Anjos
! Comments: Teste da utilização de aquisição
continua pelo VNA HP8722D
! Time and date: 8/5/2025 16:48
!              Frequency                     S11                                                   S21                                                   S12                                                   S22
# HZ  S  MA R 50
4800000000.000000      4.931946000000000E-01     -1.673594000000000E+02      2.632904000000000E-01     -2.082617000000000E+01      2.594147000000000E-01     -1.419844000000000E+02      6.518555000000000E-01     -8.016796000000000E+01
4801000000.000000      4.948578000000000E-01     -1.674375000000000E+02      2.671814000000000E-01     -2.102246000000000E+01      2.628021000000000E-01     -1.421484000000000E+02      6.508179000000000E-01     -7.991796000000000E+01
4802000000.000000      4.963684000000000E-01     -1.675078000000000E+02      2.711182000000000E-01     -2.127148000000000E+01      2.669983000000000E-01     -1.421328000000000E+02      6.503906000000000E-01     -7.964844000000000E+01
4803000000.000000      4.985809000000000E-01     -1.675469000000000E+02      2.754517000000000E-01     -2.159375000000000E+01      2.699280000000000E-01     -1.422266000000000E+02      6.496887000000000E-01     -7.943749000000000E+01
4804000000.000000      5.006409000000000E-01     -1.674766000000000E+02      2.792358000000000E-01     -2.195508000000000E+01      2.737885000000000E-01     -1.424766000000000E+02      6.502380000000000E-01     -7.927343000000000E+01
4805000000.000000      5.036011000000000E-01     -1.676250000000000E+02      2.830048000000000E-01     -2.220703000000000E+01      2.775421000000000E-01     -1.424766000000000E+02      6.495667000000000E-01     -7.917578000000000E+01
4806000000.000000      5.051880000000000E-01     -1.675234000000000E+02      2.873230000000000E-01     -2.248242000000000E+01      2.799072000000000E-01     -1.424219000000000E+02      6.503601000000000E-01     -7.899219000000000E+01
4807000000.000000      5.083618000000000E-01     -1.675469000000000E+02      2.916260000000000E-01     -2.302734000000000E+01      2.846985000000000E-01     -1.427891000000000E+02      6.498413000000000E-01     -7.871094000000000E+01
4808000000.000000      5.111694000000000E-01     -1.675234000000000E+02      2.952576000000000E-01     -2.321582000000000E+01      2.871094000000000E-01     -1.429141000000000E+02      6.500244000000000E-01     -7.845703000000000E+01
4809000000.000000      5.133057000000000E-01     -1.676250000000000E+02      2.993011000000000E-01     -2.379981000000000E+01      2.913513000000000E-01     -1.431015000000000E+02      6.491699000000000E-01     -7.836328000000000E+01
4810000000.000000      5.166626000000000E-01     -1.676250000000000E+02      3.031464000000000E-01     -2.393457000000000E+01      2.942810000000000E-01     -1.432266000000000E+02      6.510315000000000E-01     -7.813281000000000E+01
4811000000.000000      5.200195000000000E-01     -1.675078000000000E+02      3.065796000000000E-01     -2.441113000000000E+01      2.985382000000000E-01     -1.432969000000000E+02      6.520996000000000E-01     -7.783203000000000E+01
4812000000.000000      5.244446000000000E-01     -1.675234000000000E+02      3.102264000000000E-01     -2.490625000000000E+01      3.011475000000000E-01     -1.435000000000000E+02      6.528320000000000E-01     -7.775000000000000E+01
4813000000.000000      5.271301000000000E-01     -1.674141000000000E+02      3.134918000000000E-01     -2.529004000000000E+01      3.042755000000000E-01     -1.436094000000000E+02      6.535339000000000E-01     -7.763281000000000E+01
4814000000.000000      5.296936000000000E-01     -1.675703000000000E+02      3.170624000000000E-01     -2.574804000000000E+01      3.072815000000000E-01     -1.437500000000000E+02      6.539612000000000E-01     -7.745312000000000E+01
4815000000.000000      5.336609000000000E-01     -1.673750000000000E+02      3.201294000000000E-01     -2.603125000000000E+01      3.095703000000000E-01     -1.439375000000000E+02      6.546936000000000E-01     -7.721093000000000E+01
4816000000.000000      5.387268000000000E-01     -1.673125000000000E+02      3.250732000000000E-01     -2.644726000000000E+01      3.140106000000000E-01     -1.442188000000000E+02      6.572876000000000E-01     -7.693749000000000E+01
4817000000.000000      5.435181000000000E-01     -1.672500000000000E+02      3.280029000000000E-01     -2.701953000000000E+01      3.164368000000000E-01     -1.443750000000000E+02      6.576843000000000E-01     -7.697656000000000E+01
4818000000.000000      5.469971000000000E-01     -1.672578000000000E+02      3.308258000000000E-01     -2.748437000000000E+01      3.192291000000000E-01     -1.444687000000000E+02      6.595459000000000E-01     -7.673046000000000E+01
4819000000.000000      5.523987000000000E-01     -1.671797000000000E+02      3.337860000000000E-01     -2.781347000000000E+01      3.209686000000000E-01     -1.447344000000000E+02      6.625366000000000E-01     -7.666016000000000E+01
4820000000.000000      5.552673000000000E-01     -1.671094000000000E+02      3.367920000000000E-01     -2.836621000000000E+01      3.247681000000000E-01     -1.448281000000000E+02      6.632690000000000E-01     -7.653906000000000E+01
4821000000.000000      5.615540000000000E-01     -1.670625000000000E+02      3.403931000000000E-01     -2.891211000000000E+01      3.271484000000000E-01     -1.451797000000000E+02      6.647339000000000E-01     -7.644531000000000E+01
4822000000.000000      5.679321000000000E-01     -1.670078000000000E+02      3.433990000000000E-01     -2.936328000000000E+01      3.295288000000000E-01     -1.453672000000000E+02      6.678162000000000E-01     -7.635156000000000E+01
4823000000.000000      5.717468000000000E-01     -1.669297000000000E+02      3.458252000000000E-01     -2.976660000000000E+01      3.325500000000000E-01     -1.454219000000000E+02      6.699524000000000E-01     -7.618359000000000E+01
4824000000.000000      5.792542000000000E-01     -1.669297000000000E+02      3.496552000000000E-01     -3.046387000000000E+01      3.359985000000000E-01     -1.457187000000000E+02      6.730652000000000E-01     -7.610937000000000E+01
4825000000.000000      5.832825000000000E-01     -1.668125000000000E+02      3.522034000000000E-01     -3.078320000000000E+01      3.387756000000000E-01     -1.458828000000000E+02      6.752625000000000E-01     -7.591406000000000E+01
4826000000.000000      5.891418000000000E-01     -1.667500000000000E+02      3.552704000000000E-01     -3.141894000000000E+01      3.391571000000000E-01     -1.461875000000000E+02      6.775513000000000E-01     -7.592187000000000E+01
4827000000.000000      5.953064000000000E-01     -1.665781000000000E+02      3.575592000000000E-01     -3.181543000000000E+01      3.423462000000000E-01     -1.463047000000000E+02      6.817932000000000E-01     -7.564453000000000E+01
4828000000.000000      6.028748000000000E-01     -1.666406000000000E+02      3.607178000000000E-01     -3.234961000000000E+01      3.448334000000000E-01     -1.464922000000000E+02      6.848755000000000E-01     -7.566796000000000E+01
4829000000.000000      6.057739000000000E-01     -1.664687000000000E+02      3.616028000000000E-01     -3.287109000000000E+01      3.472748000000000E-01     -1.467109000000000E+02      6.873474000000000E-01     -7.553515000000000E+01
4830000000.000000      6.139221000000000E-01     -1.664063000000000E+02      3.648987000000000E-01     -3.356836000000000E+01      3.495941000000000E-01     -1.468125000000000E+02      6.903381000000000E-01     -7.559765000000000E+01
4831000000.000000      6.186523000000000E-01     -1.663437000000000E+02      3.671875000000000E-01     -3.411914000000000E+01      3.522797000000000E-01     -1.470156000000000E+02      6.936646000000000E-01     -7.549999000000000E+01
4832000000.000000      6.276855000000000E-01     -1.663203000000000E+02      3.700256000000000E-01     -3.457031000000000E+01      3.538361000000000E-01     -1.472500000000000E+02      6.966248000000000E-01     -7.544140000000000E+01
4833000000.000000      6.336060000000000E-01     -1.663594000000000E+02      3.716583000000000E-01     -3.505859000000000E+01      3.558044000000000E-01     -1.475156000000000E+02      6.996460000000000E-01     -7.534374000000000E+01
4834000000.000000      6.395874000000000E-01     -1.662891000000000E+02      3.729401000000000E-01     -3.571484000000000E+01      3.579559000000000E-01     -1.477813000000000E+02      7.029419000000000E-01     -7.531250000000000E+01
4835000000.000000      6.465149000000000E-01     -1.661953000000000E+02      3.752136000000000E-01     -3.628320000000000E+01      3.604889000000000E-01     -1.478672000000000E+02      7.070313000000000E-01     -7.533203000000000E+01
4836000000.000000      6.548767000000000E-01     -1.660391000000000E+02      3.772430000000000E-01     -3.673828000000000E+01      3.619232000000000E-01     -1.480000000000000E+02      7.116699000000000E-01     -7.524219000000000E+01
4837000000.000000      6.617737000000000E-01     -1.660000000000000E+02      3.788757000000000E-01     -3.759570000000000E+01      3.641052000000000E-01     -1.482656000000000E+02      7.147217000000000E-01     -7.530468000000000E+01
4838000000.000000      6.687927000000000E-01     -1.660625000000000E+02      3.823547000000000E-01     -3.779882000000000E+01      3.663025000000000E-01     -1.484609000000000E+02      7.176819000000000E-01     -7.523828000000000E+01
4839000000.000000      6.760864000000000E-01     -1.659219000000000E+02      3.816071000000000E-01     -3.835156000000000E+01      3.678436000000000E-01     -1.485781000000000E+02      7.232361000000000E-01     -7.515234000000000E+01
4840000000.000000      6.812439000000000E-01     -1.659531000000000E+02      3.834839000000000E-01     -3.898438000000000E+01      3.702545000000000E-01     -1.488516000000000E+02      7.255859000000000E-01     -7.516796000000000E+01
4841000000.000000      6.892700000000000E-01     -1.659688000000000E+02      3.849030000000000E-01     -3.953906000000000E+01      3.713684000000000E-01     -1.490703000000000E+02      7.306824000000000E-01     -7.521874000000000E+01
4842000000.000000      6.971130000000000E-01     -1.658516000000000E+02      3.860779000000000E-01     -4.012109000000000E+01      3.724670000000000E-01     -1.491406000000000E+02      7.344971000000000E-01     -7.521484000000000E+01
4843000000.000000      7.034607000000000E-01     -1.659297000000000E+02      3.865967000000000E-01     -4.076172000000000E+01      3.747101000000000E-01     -1.493750000000000E+02      7.385254000000000E-01     -7.518359000000000E+01
4844000000.000000      7.102661000000000E-01     -1.658750000000000E+02      3.879852000000000E-01     -4.138085000000000E+01      3.761749000000000E-01     -1.494062000000000E+02      7.413330000000000E-01     -7.519921000000000E+01
4845000000.000000      7.169800000000000E-01     -1.658047000000000E+02      3.889465000000000E-01     -4.166016000000000E+01      3.775940000000000E-01     -1.497500000000000E+02      7.464905000000000E-01     -7.509766000000000E+01
4846000000.000000      7.246094000000000E-01     -1.657578000000000E+02      3.889465000000000E-01     -4.222461000000000E+01      3.800049000000000E-01     -1.498516000000000E+02      7.514038000000000E-01     -7.512890000000000E+01
4847000000.000000      7.318726000000000E-01     -1.658281000000000E+02      3.904266000000000E-01     -4.274610000000000E+01      3.811798000000000E-01     -1.501641000000000E+02      7.561646000000000E-01     -7.530078000000000E+01
4848000000.000000      7.390442000000000E-01     -1.658047000000000E+02      3.906250000000000E-01     -4.316406000000000E+01      3.828735000000000E-01     -1.501719000000000E+02      7.595215000000000E-01     -7.520702000000000E+01
4849000000.000000      7.461548000000000E-01     -1.660391000000000E+02      3.908844000000000E-01     -4.382617000000000E+01      3.842468000000000E-01     -1.504141000000000E+02      7.650757000000000E-01     -7.514453000000000E+01
4850000000.000000      7.536316000000000E-01     -1.658359000000000E+02      3.914948000000000E-01     -4.432226000000000E+01      3.856964000000000E-01     -1.504844000000000E+02      7.690430000000000E-01     -7.522655000000000E+01
4851000000.000000      7.606812000000000E-01     -1.658125000000000E+02      3.926239000000000E-01     -4.488086000000000E+01      3.866882000000000E-01     -1.506250000000000E+02      7.746277000000000E-01     -7.524219000000000E+01
4852000000.000000      7.665100000000000E-01     -1.658750000000000E+02      3.924408000000000E-01     -4.543164000000000E+01      3.886871000000000E-01     -1.507266000000000E+02      7.781677000000000E-01     -7.528515000000000E+01
4853000000.000000      7.735901000000000E-01     -1.659062000000000E+02      3.911285000000000E-01     -4.597265000000000E+01      3.897552000000000E-01     -1.510625000000000E+02      7.832642000000000E-01     -7.547265000000000E+01
4854000000.000000      7.807922000000000E-01     -1.659219000000000E+02      3.911133000000000E-01     -4.648633000000000E+01      3.905792000000000E-01     -1.512266000000000E+02      7.876892000000000E-01     -7.542578000000000E+01
4855000000.000000      7.853394000000000E-01     -1.659688000000000E+02      3.911285000000000E-01     -4.691602000000000E+01      3.915863000000000E-01     -1.512266000000000E+02      7.910461000000000E-01     -7.542187000000000E+01
4856000000.000000      7.930908000000000E-01     -1.659219000000000E+02      3.905029000000000E-01     -4.730859000000000E+01      3.929901000000000E-01     -1.514766000000000E+02      7.979736000000000E-01     -7.547656000000000E+01
4857000000.000000      7.992249000000000E-01     -1.659531000000000E+02      3.914642000000000E-01     -4.790625000000000E+01      3.941956000000000E-01     -1.516406000000000E+02      8.008118000000000E-01     -7.548437000000000E+01
4858000000.000000      8.022766000000000E-01     -1.659922000000000E+02      3.901978000000000E-01     -4.833984000000000E+01      3.945618000000000E-01     -1.518281000000000E+02      8.065186000000000E-01     -7.560937000000000E+01
4859000000.000000      8.110352000000000E-01     -1.658906000000000E+02      3.905029000000000E-01     -4.869922000000000E+01      3.962250000000000E-01     -1.519844000000000E+02      8.130798000000000E-01     -7.571094000000000E+01
4860000000.000000      8.163757000000000E-01     -1.660312000000000E+02      3.894043000000000E-01     -4.902148000000000E+01      3.964996000000000E-01     -1.520625000000000E+02      8.153381000000000E-01     -7.567187000000000E+01
4861000000.000000      8.228149000000000E-01     -1.659844000000000E+02      3.894958000000000E-01     -4.972461000000000E+01      3.984985000000000E-01     -1.522422000000000E+02      8.207703000000000E-01     -7.590234000000000E+01
4862000000.000000      8.278503000000000E-01     -1.660391000000000E+02      3.881073000000000E-01     -5.003515000000000E+01      4.000854000000000E-01     -1.523359000000000E+02      8.265381000000000E-01     -7.580859000000000E+01
4863000000.000000      8.324585000000000E-01     -1.659375000000000E+02      3.867950000000000E-01     -5.061132000000000E+01      4.009094000000000E-01     -1.525234000000000E+02      8.303528000000000E-01     -7.591015000000000E+01
4864000000.000000      8.378601000000000E-01     -1.661484000000000E+02      3.865051000000000E-01     -5.087109000000000E+01      4.008331000000000E-01     -1.525859000000000E+02      8.351746000000000E-01     -7.610937000000000E+01
4865000000.000000      8.415222000000000E-01     -1.661719000000000E+02      3.847046000000000E-01     -5.122070000000000E+01      4.018402000000000E-01     -1.528750000000000E+02      8.399048000000000E-01     -7.612499000000000E+01
4866000000.000000      8.483582000000000E-01     -1.660078000000000E+02      3.834534000000000E-01     -5.165820000000000E+01      4.024048000000000E-01     -1.529453000000000E+02      8.456421000000000E-01     -7.608984000000000E+01
4867000000.000000      8.539734000000000E-01     -1.660859000000000E+02      3.835144000000000E-01     -5.210546000000000E+01      4.031677000000000E-01     -1.531328000000000E+02      8.503418000000000E-01     -7.628515000000000E+01
4868000000.000000      8.550415000000000E-01     -1.660547000000000E+02      3.821411000000000E-01     -5.249413000000000E+01      4.045410000000000E-01     -1.533047000000000E+02      8.535156000000000E-01     -7.630859000000000E+01
4869000000.000000      8.598022000000000E-01     -1.660312000000000E+02      3.797760000000000E-01     -5.274219000000000E+01      4.049835000000000E-01     -1.534141000000000E+02      8.590698000000000E-01     -7.652734000000000E+01
4870000000.000000      8.635864000000000E-01     -1.661250000000000E+02      3.787079000000000E-01     -5.286914000000000E+01      4.054871000000000E-01     -1.536250000000000E+02      8.634949000000000E-01     -7.650781000000000E+01
4871000000.000000      8.680115000000000E-01     -1.661875000000000E+02      3.773499000000000E-01     -5.340625000000000E+01      4.054871000000000E-01     -1.538516000000000E+02      8.675232000000000E-01     -7.676562000000000E+01
4872000000.000000      8.712158000000000E-01     -1.659297000000000E+02      3.763428000000000E-01     -5.355078000000000E+01      4.060364000000000E-01     -1.540937000000000E+02      8.725891000000000E-01     -7.670703000000000E+01
4873000000.000000      8.746033000000000E-01     -1.658516000000000E+02      3.746338000000000E-01     -5.390038000000000E+01      4.060364000000000E-01     -1.540390000000000E+02      8.759766000000000E-01     -7.691406000000000E+01
4874000000.000000      8.764648000000000E-01     -1.658984000000000E+02      3.731079000000000E-01     -5.422852000000000E+01      4.072113000000000E-01     -1.541875000000000E+02      8.803101000000000E-01     -7.680078000000000E+01
4875000000.000000      8.817139000000000E-01     -1.659219000000000E+02      3.713837000000000E-01     -5.450781000000000E+01      4.074707000000000E-01     -1.544609000000000E+02      8.843994000000000E-01     -7.706640000000000E+01
4876000000.000000      8.821716000000000E-01     -1.658984000000000E+02      3.706055000000000E-01     -5.474609000000000E+01      4.067383000000000E-01     -1.545703000000000E+02      8.873901000000000E-01     -7.722656000000000E+01
4877000000.000000      8.866882000000000E-01     -1.658125000000000E+02      3.690338000000000E-01     -5.488281000000000E+01      4.074707000000000E-01     -1.547891000000000E+02      8.916931000000000E-01     -7.743750000000000E+01
4878000000.000000      8.896484000000000E-01     -1.657500000000000E+02      3.680878000000000E-01     -5.514453000000000E+01      4.076996000000000E-01     -1.547656000000000E+02      8.967285000000000E-01     -7.750000000000000E+01
4879000000.000000      8.923950000000000E-01     -1.657656000000000E+02      3.662415000000000E-01     -5.535156000000000E+01      4.071960000000000E-01     -1.549922000000000E+02      9.010925000000000E-01     -7.742188000000000E+01
4880000000.000000      8.918152000000000E-01     -1.656563000000000E+02      3.649597000000000E-01     -5.565430000000000E+01      4.081726000000000E-01     -1.550469000000000E+02      9.052124000000000E-01     -7.757421000000000E+01
4881000000.000000      8.940430000000000E-01     -1.655859000000000E+02      3.636475000000000E-01     -5.553905000000000E+01      4.085693000000000E-01     -1.552891000000000E+02      9.071045000000000E-01     -7.775000000000000E+01
4882000000.000000      8.952637000000000E-01     -1.654687000000000E+02      3.621826000000000E-01     -5.593359000000000E+01      4.080353000000000E-01     -1.553281000000000E+02      9.103088000000000E-01     -7.794531000000000E+01
