! Network Analyzer HP8722D
! Hewlett-Packard
! Data name: Linha & Wilkinson
! Saver's name: Rodrigo Anjos
! Comments: Teste da utilização de aquisição
continua pelo VNA HP8722D
! Time and date: 8/5/2025 15:35
!              Frequency                     S11                                                   S21                                                   S12                                                   S22
# HZ  S  MA R 50
4800000000.000000      8.733215000000000E-01      8.847656000000000E+01      1.369629000000000E-01     -2.712891000000000E+01      1.273956000000000E-01      1.003906000000000E+02      2.360458000000000E-01      6.421875000000000E+01
4801000000.000000      8.750000000000000E-01      8.873827000000000E+01      1.340179000000000E-01     -2.594922000000000E+01      1.250229000000000E-01      1.011875000000000E+02      2.419357000000000E-01      6.346680000000000E+01
4802000000.000000      8.794861000000000E-01      8.919140000000000E+01      1.314926000000000E-01     -2.446386000000000E+01      1.230164000000000E-01      1.021367000000000E+02      2.487106000000000E-01      6.331836000000000E+01
4803000000.000000      8.826599000000000E-01      8.938671000000000E+01      1.292953000000000E-01     -2.316211000000000E+01      1.204109000000000E-01      1.034297000000000E+02      2.511139000000000E-01      6.298046000000000E+01
4804000000.000000      8.872070000000000E-01      8.975000000000000E+01      1.269836000000000E-01     -2.174121000000000E+01      1.187248000000000E-01      1.046523000000000E+02      2.554016000000000E-01      6.314258000000000E+01
4805000000.000000      8.900146000000000E-01      8.987890000000000E+01      1.249695000000000E-01     -2.036523000000000E+01      1.170349000000000E-01      1.058789000000000E+02      2.606506000000000E-01      6.233203000000000E+01
4806000000.000000      8.891907000000000E-01      9.018358000000000E+01      1.232185000000000E-01     -1.881445000000000E+01      1.149788000000000E-01      1.073672000000000E+02      2.627716000000000E-01      6.204687000000000E+01
4807000000.000000      8.940125000000000E-01      9.042187000000000E+01      1.214752000000000E-01     -1.723828000000000E+01      1.135139000000000E-01      1.085000000000000E+02      2.661133000000000E-01      6.157421000000000E+01
4808000000.000000      8.941345000000000E-01      9.074999000000000E+01      1.201782000000000E-01     -1.556787000000000E+01      1.124268000000000E-01      1.100937000000000E+02      2.711029000000000E-01      6.129883000000000E+01
4809000000.000000      8.959045000000000E-01      9.116796000000000E+01      1.192780000000000E-01     -1.383496000000000E+01      1.115417000000000E-01      1.116992000000000E+02      2.749939000000000E-01      6.120898000000000E+01
4810000000.000000      8.968811000000000E-01      9.133593000000000E+01      1.183090000000000E-01     -1.192432000000000E+01      1.105957000000000E-01      1.131602000000000E+02      2.761078000000000E-01      6.056835000000000E+01
4811000000.000000      8.999634000000000E-01      9.159374000000000E+01      1.174316000000000E-01     -1.052783000000000E+01      1.101723000000000E-01      1.149922000000000E+02      2.815094000000000E-01      5.992578000000000E+01
4812000000.000000      9.021912000000000E-01      9.208593000000000E+01      1.167603000000000E-01     -8.507813000000000E+00      1.097794000000000E-01      1.163515000000000E+02      2.829742000000000E-01      5.910351000000000E+01
4813000000.000000      9.039001000000000E-01      9.237108000000000E+01      1.163368000000000E-01     -6.795166000000000E+00      1.094017000000000E-01      1.180586000000000E+02      2.877808000000000E-01      5.913671000000000E+01
4814000000.000000      9.022827000000000E-01      9.258204000000000E+01      1.167526000000000E-01     -4.753174000000000E+00      1.091194000000000E-01      1.197578000000000E+02      2.881622000000000E-01      5.874609000000000E+01
4815000000.000000      9.040527000000000E-01      9.284374000000000E+01      1.166382000000000E-01     -3.203979000000000E+00      1.090775000000000E-01      1.213828000000000E+02      2.916412000000000E-01      5.802343000000000E+01
4816000000.000000      9.086304000000000E-01      9.330078000000000E+01      1.169891000000000E-01     -1.318359000000000E+00      1.101494000000000E-01      1.230351000000000E+02      2.946472000000000E-01      5.705468000000000E+01
4817000000.000000      9.057922000000000E-01      9.340624000000000E+01      1.172485000000000E-01      3.323364000000000E-01      1.101189000000000E-01      1.245391000000000E+02      2.960510000000000E-01      5.698828000000000E+01
4818000000.000000      9.094543000000000E-01      9.375780000000000E+01      1.180344000000000E-01      2.084595000000000E+00      1.107254000000000E-01      1.262226000000000E+02      2.975769000000000E-01      5.615624000000000E+01
4819000000.000000      9.090881000000000E-01      9.409374000000000E+01      1.193390000000000E-01      3.462036000000000E+00      1.117897000000000E-01      1.275586000000000E+02      2.987976000000000E-01      5.571289000000000E+01
4820000000.000000      9.057007000000000E-01      9.434765000000000E+01      1.200371000000000E-01      5.473877000000000E+00      1.125870000000000E-01      1.291484000000000E+02      3.015747000000000E-01      5.485742000000000E+01
4821000000.000000      9.084778000000000E-01      9.467188000000000E+01      1.217461000000000E-01      6.819580000000000E+00      1.138840000000000E-01      1.305391000000000E+02      3.020020000000000E-01      5.458789000000000E+01
4822000000.000000      9.094543000000000E-01      9.459375000000000E+01      1.228447000000000E-01      8.103516000000000E+00      1.146927000000000E-01      1.317422000000000E+02      3.057098000000000E-01      5.366405000000000E+01
4823000000.000000      9.104614000000000E-01      9.503515000000000E+01      1.246223000000000E-01      9.829590000000000E+00      1.164360000000000E-01      1.334141000000000E+02      3.055725000000000E-01      5.284180000000000E+01
4824000000.000000      9.076538000000000E-01      9.525782000000000E+01      1.261444000000000E-01      1.089697000000000E+01      1.180038000000000E-01      1.345000000000000E+02      3.059845000000000E-01      5.252734000000000E+01
4825000000.000000      9.067383000000000E-01      9.558985000000000E+01      1.282578000000000E-01      1.245117000000000E+01      1.199684000000000E-01      1.357500000000000E+02      3.077545000000000E-01      5.174609000000000E+01
4826000000.000000      9.081421000000000E-01      9.587109000000000E+01      1.307220000000000E-01      1.362988000000000E+01      1.215096000000000E-01      1.370469000000000E+02      3.097839000000000E-01      5.133203000000000E+01
4827000000.000000      9.064331000000000E-01      9.628515000000000E+01      1.321335000000000E-01      1.472266000000000E+01      1.233864000000000E-01      1.380391000000000E+02      3.096008000000000E-01      5.072460000000000E+01
4828000000.000000      9.071655000000000E-01      9.625389000000000E+01      1.350479000000000E-01      1.585156000000000E+01      1.253586000000000E-01      1.391406000000000E+02      3.115082000000000E-01      4.962500000000000E+01
4829000000.000000      9.025879000000000E-01      9.698828000000000E+01      1.372147000000000E-01      1.710351000000000E+01      1.282425000000000E-01      1.399688000000000E+02      3.122864000000000E-01      4.935156000000000E+01
4830000000.000000      9.021301000000000E-01      9.691795000000000E+01      1.397247000000000E-01      1.781934000000000E+01      1.301880000000000E-01      1.411562000000000E+02      3.117523000000000E-01      4.887500000000000E+01
4831000000.000000      8.992004000000000E-01      9.727343000000000E+01      1.420517000000000E-01      1.880078000000000E+01      1.324844000000000E-01      1.420547000000000E+02      3.119354000000000E-01      4.797852000000000E+01
4832000000.000000      9.001160000000000E-01      9.763672000000000E+01      1.446991000000000E-01      1.966504000000000E+01      1.343613000000000E-01      1.429375000000000E+02      3.129883000000000E-01      4.780859000000000E+01
4833000000.000000      8.954163000000000E-01      9.754295000000000E+01      1.474533000000000E-01      2.048730000000000E+01      1.369858000000000E-01      1.436641000000000E+02      3.134155000000000E-01      4.685937000000000E+01
4834000000.000000      8.936768000000000E-01      9.776562000000000E+01      1.505661000000000E-01      2.125488000000000E+01      1.393814000000000E-01      1.445313000000000E+02      3.130035000000000E-01      4.606641000000000E+01
4835000000.000000      8.929443000000000E-01      9.808983000000000E+01      1.533127000000000E-01      2.187012000000000E+01      1.422195000000000E-01      1.451641000000000E+02      3.134766000000000E-01      4.543750000000000E+01
4836000000.000000      8.908691000000000E-01      9.849998000000000E+01      1.556702000000000E-01      2.242676000000000E+01      1.446381000000000E-01      1.459687000000000E+02      3.125458000000000E-01      4.495117000000000E+01
4837000000.000000      8.861389000000000E-01      9.881639000000000E+01      1.585770000000000E-01      2.286621000000000E+01      1.472015000000000E-01      1.464531000000000E+02      3.126221000000000E-01      4.430469000000000E+01
4838000000.000000      8.847351000000000E-01      9.876562000000000E+01      1.620255000000000E-01      2.383008000000000E+01      1.497955000000000E-01      1.470703000000000E+02      3.127594000000000E-01      4.364453000000000E+01
4839000000.000000      8.818359000000000E-01      9.914843000000000E+01      1.653671000000000E-01      2.429004000000000E+01      1.529694000000000E-01      1.474297000000000E+02      3.135529000000000E-01      4.314649000000000E+01
4840000000.000000      8.777161000000000E-01      9.939453000000000E+01      1.684341000000000E-01      2.469238000000000E+01      1.553955000000000E-01      1.481016000000000E+02      3.110352000000000E-01      4.251953000000000E+01
4841000000.000000      8.752441000000000E-01      9.957031000000000E+01      1.715393000000000E-01      2.510644000000000E+01      1.585083000000000E-01      1.485859000000000E+02      3.133392000000000E-01      4.200195000000000E+01
4842000000.000000      8.719177000000000E-01      9.968750000000000E+01      1.746140000000000E-01      2.536426000000000E+01      1.610031000000000E-01      1.491484000000000E+02      3.130646000000000E-01      4.173828000000000E+01
4843000000.000000      8.681946000000000E-01      9.988670000000000E+01      1.781235000000000E-01      2.568262000000000E+01      1.641464000000000E-01      1.495234000000000E+02      3.124084000000000E-01      4.084765000000000E+01
4844000000.000000      8.652344000000000E-01      9.989843000000000E+01      1.812592000000000E-01      2.599902000000000E+01      1.666031000000000E-01      1.500000000000000E+02      3.114471000000000E-01      4.025781000000000E+01
4845000000.000000      8.604126000000000E-01      1.003203000000000E+02      1.842728000000000E-01      2.643164000000000E+01      1.697388000000000E-01      1.502031000000000E+02      3.097382000000000E-01      3.982031000000000E+01
4846000000.000000      8.582458000000000E-01      1.004062000000000E+02      1.874161000000000E-01      2.655371000000000E+01      1.733170000000000E-01      1.505859000000000E+02      3.107605000000000E-01      3.923437000000000E+01
4847000000.000000      8.562927000000000E-01      1.006562000000000E+02      1.912460000000000E-01      2.680371000000000E+01      1.761780000000000E-01      1.508984000000000E+02      3.096008000000000E-01      3.875977000000000E+01
4848000000.000000      8.504944000000000E-01      1.006914000000000E+02      1.942825000000000E-01      2.699609000000000E+01      1.790085000000000E-01      1.511406000000000E+02      3.090820000000000E-01      3.830273000000000E+01
4849000000.000000      8.464966000000000E-01      1.007656000000000E+02      1.974869000000000E-01      2.699316000000000E+01      1.818542000000000E-01      1.515234000000000E+02      3.076782000000000E-01      3.780859000000000E+01
4850000000.000000      8.428955000000000E-01      1.010000000000000E+02      2.007980000000000E-01      2.713672000000000E+01      1.848221000000000E-01      1.517500000000000E+02      3.079834000000000E-01      3.738476000000000E+01
4851000000.000000      8.395691000000000E-01      1.013125000000000E+02      2.047272000000000E-01      2.731836000000000E+01      1.881409000000000E-01      1.520547000000000E+02      3.088074000000000E-01      3.684765000000000E+01
4852000000.000000      8.334961000000000E-01      1.012226000000000E+02      2.076874000000000E-01      2.737500000000000E+01      1.912155000000000E-01      1.522109000000000E+02      3.075104000000000E-01      3.648046000000000E+01
4853000000.000000      8.305054000000000E-01      1.014414000000000E+02      2.105408000000000E-01      2.752050000000000E+01      1.945038000000000E-01      1.525000000000000E+02      3.074188000000000E-01      3.574804000000000E+01
4854000000.000000      8.251343000000000E-01      1.014453000000000E+02      2.141724000000000E-01      2.733203000000000E+01      1.976929000000000E-01      1.526016000000000E+02      3.079681000000000E-01      3.552734000000000E+01
4855000000.000000      8.197632000000000E-01      1.015820000000000E+02      2.180710000000000E-01      2.743945000000000E+01      2.006302000000000E-01      1.527266000000000E+02      3.045044000000000E-01      3.497461000000000E+01
4856000000.000000      8.161926000000000E-01      1.016602000000000E+02      2.216034000000000E-01      2.748437000000000E+01      2.038956000000000E-01      1.528750000000000E+02      3.046875000000000E-01      3.456640000000000E+01
4857000000.000000      8.092957000000000E-01      1.016758000000000E+02      2.250824000000000E-01      2.749316000000000E+01      2.069244000000000E-01      1.530391000000000E+02      3.047485000000000E-01      3.408984000000000E+01
4858000000.000000      8.047485000000000E-01      1.016953000000000E+02      2.283707000000000E-01      2.739551000000000E+01      2.103882000000000E-01      1.531875000000000E+02      3.059082000000000E-01      3.356054000000000E+01
4859000000.000000      8.008423000000000E-01      1.016797000000000E+02      2.320023000000000E-01      2.746289000000000E+01      2.131805000000000E-01      1.533125000000000E+02      3.046570000000000E-01      3.341015000000000E+01
4860000000.000000      7.972717000000000E-01      1.017695000000000E+02      2.355576000000000E-01      2.739258000000000E+01      2.164307000000000E-01      1.533516000000000E+02      3.046722000000000E-01      3.283008000000000E+01
4861000000.000000      7.908325000000000E-01      1.017812000000000E+02      2.387466000000000E-01      2.726758000000000E+01      2.200775000000000E-01      1.533906000000000E+02      3.037415000000000E-01      3.265234000000000E+01
4862000000.000000      7.850037000000000E-01      1.018516000000000E+02      2.425766000000000E-01      2.725293000000000E+01      2.234192000000000E-01      1.535078000000000E+02      3.044739000000000E-01      3.232226000000000E+01
4863000000.000000      7.791748000000000E-01      1.018398000000000E+02      2.456284000000000E-01      2.701465000000000E+01      2.272568000000000E-01      1.536172000000000E+02      3.040924000000000E-01      3.206836000000000E+01
4864000000.000000      7.761536000000000E-01      1.016562000000000E+02      2.497559000000000E-01      2.705175000000000E+01      2.299576000000000E-01      1.536016000000000E+02      3.038177000000000E-01      3.164746000000000E+01
4865000000.000000      7.700806000000000E-01      1.017461000000000E+02      2.528992000000000E-01      2.689648000000000E+01      2.334290000000000E-01      1.535781000000000E+02      3.047333000000000E-01      3.132031000000000E+01
4866000000.000000      7.661133000000000E-01      1.016445000000000E+02      2.566986000000000E-01      2.667285000000000E+01      2.365189000000000E-01      1.533906000000000E+02      3.045349000000000E-01      3.048535000000000E+01
4867000000.000000      7.596130000000000E-01      1.016211000000000E+02      2.597961000000000E-01      2.629492000000000E+01      2.395172000000000E-01      1.534844000000000E+02      3.044739000000000E-01      3.040527000000000E+01
4868000000.000000      7.560425000000000E-01      1.014180000000000E+02      2.636414000000000E-01      2.619629000000000E+01      2.432327000000000E-01      1.535312000000000E+02      3.047333000000000E-01      3.013184000000000E+01
4869000000.000000      7.522278000000000E-01      1.013672000000000E+02      2.671661000000000E-01      2.616992000000000E+01      2.467041000000000E-01      1.533984000000000E+02      3.034515000000000E-01      3.006640000000000E+01
4870000000.000000      7.451782000000000E-01      1.012539000000000E+02      2.705536000000000E-01      2.612402000000000E+01      2.504730000000000E-01      1.533828000000000E+02      3.054810000000000E-01      2.983007000000000E+01
4871000000.000000      7.398071000000000E-01      1.010156000000000E+02      2.743988000000000E-01      2.578027000000000E+01      2.529602000000000E-01      1.533594000000000E+02      3.043823000000000E-01      2.915820000000000E+01
4872000000.000000      7.361755000000000E-01      1.009844000000000E+02      2.778931000000000E-01      2.567773000000000E+01      2.568054000000000E-01      1.530313000000000E+02      3.064423000000000E-01      2.906347000000000E+01
4873000000.000000      7.302246000000000E-01      1.009414000000000E+02      2.815857000000000E-01      2.518750000000000E+01      2.595825000000000E-01      1.531250000000000E+02      3.059845000000000E-01      2.855469000000000E+01
4874000000.000000      7.264099000000000E-01      1.008008000000000E+02      2.848358000000000E-01      2.508301000000000E+01      2.639008000000000E-01      1.529922000000000E+02      3.063049000000000E-01      2.805859000000000E+01
4875000000.000000      7.228394000000000E-01      1.005469000000000E+02      2.885132000000000E-01      2.483398000000000E+01      2.668915000000000E-01      1.529219000000000E+02      3.074341000000000E-01      2.836230000000000E+01
4876000000.000000      7.163086000000000E-01      1.002891000000000E+02      2.927094000000000E-01      2.462500000000000E+01      2.704468000000000E-01      1.526953000000000E+02      3.093567000000000E-01      2.783203000000000E+01
4877000000.000000      7.129517000000000E-01      9.997656000000000E+01      2.965393000000000E-01      2.430664000000000E+01      2.735443000000000E-01      1.524765000000000E+02      3.086395000000000E-01      2.768652000000000E+01
4878000000.000000      7.059937000000000E-01      9.987890000000000E+01      2.999268000000000E-01      2.400976000000000E+01      2.766113000000000E-01      1.524531000000000E+02      3.095093000000000E-01      2.695605000000000E+01
4879000000.000000      7.040710000000000E-01      9.950781000000000E+01      3.028259000000000E-01      2.373828000000000E+01      2.808990000000000E-01      1.521172000000000E+02      3.097992000000000E-01      2.680664000000000E+01
4880000000.000000      6.972961000000000E-01      9.912498000000000E+01      3.070984000000000E-01      2.356543000000000E+01      2.835846000000000E-01      1.520781000000000E+02      3.111267000000000E-01      2.656738000000000E+01
4881000000.000000      6.936646000000000E-01      9.879295000000000E+01      3.115845000000000E-01      2.327246000000000E+01      2.875824000000000E-01      1.517891000000000E+02      3.135223000000000E-01      2.638867000000000E+01
4882000000.000000      6.907043000000000E-01      9.862108000000000E+01      3.152466000000000E-01      2.288965000000000E+01      2.906799000000000E-01      1.516328000000000E+02      3.135834000000000E-01      2.599707000000000E+01
