! Network Analyzer HP8722D
! Hewlett-Packard
! Data name: Linha & Wilkinson
! Saver's name: Rodrigo Anjos
! Comments: Teste da utilização de aquisição
continua pelo VNA HP8722D
! Time and date: 8/5/2025 13:21
!              Frequency                     S11                                                   S21                                                   S12                                                   S22
# HZ  S  MA R 50
4800000000.000000      9.028320000000000E-01      1.155976000000000E+02      3.222351000000000E-01     -1.708516000000000E+02      2.581940000000000E-01     -8.627344000000000E+01      9.808655000000000E-01     -4.784961000000000E+01
4801000000.000000      8.996887000000000E-01      1.157461000000000E+02      3.223114000000000E-01     -1.707969000000000E+02      2.579651000000000E-01     -8.625391000000000E+01      9.767151000000000E-01     -4.787305000000000E+01
4802000000.000000      8.953857000000000E-01      1.159922000000000E+02      3.219757000000000E-01     -1.706250000000000E+02      2.588654000000000E-01     -8.598436000000000E+01      9.713745000000000E-01     -4.773828000000000E+01
4803000000.000000      8.930969000000000E-01      1.160781000000000E+02      3.230743000000000E-01     -1.706250000000000E+02      2.583313000000000E-01     -8.579687000000000E+01      9.664307000000000E-01     -4.808398000000000E+01
4804000000.000000      8.945618000000000E-01      1.164766000000000E+02      3.231659000000000E-01     -1.704922000000000E+02      2.584839000000000E-01     -8.579296000000000E+01      9.599304000000000E-01     -4.805859000000000E+01
4805000000.000000      8.925781000000000E-01      1.166719000000000E+02      3.231201000000000E-01     -1.705703000000000E+02      2.578278000000000E-01     -8.545313000000000E+01      9.556274000000000E-01     -4.809375000000000E+01
4806000000.000000      8.898926000000000E-01      1.168867000000000E+02      3.240509000000000E-01     -1.705312000000000E+02      2.571716000000000E-01     -8.526562000000000E+01      9.486694000000000E-01     -4.835351000000000E+01
4807000000.000000      8.885498000000000E-01      1.171094000000000E+02      3.245392000000000E-01     -1.706250000000000E+02      2.580109000000000E-01     -8.519531000000000E+01      9.424744000000000E-01     -4.823047000000000E+01
4808000000.000000      8.861084000000000E-01      1.173594000000000E+02      3.253326000000000E-01     -1.704141000000000E+02      2.580109000000000E-01     -8.491405000000000E+01      9.372864000000000E-01     -4.837109000000000E+01
4809000000.000000      8.826599000000000E-01      1.176250000000000E+02      3.254547000000000E-01     -1.706797000000000E+02      2.581329000000000E-01     -8.462891000000000E+01      9.319458000000000E-01     -4.830664000000000E+01
4810000000.000000      8.810120000000000E-01      1.179648000000000E+02      3.259888000000000E-01     -1.703906000000000E+02      2.579651000000000E-01     -8.443359000000000E+01      9.275818000000000E-01     -4.852148000000000E+01
4811000000.000000      8.800049000000000E-01      1.181914000000000E+02      3.269806000000000E-01     -1.706797000000000E+02      2.588959000000000E-01     -8.405468000000000E+01      9.222717000000000E-01     -4.843359000000000E+01
4812000000.000000      8.779297000000000E-01      1.185234000000000E+02      3.270416000000000E-01     -1.704766000000000E+02      2.582855000000000E-01     -8.391016000000000E+01      9.157104000000000E-01     -4.858203000000000E+01
4813000000.000000      8.730164000000000E-01      1.186914000000000E+02      3.275604000000000E-01     -1.704609000000000E+02      2.583466000000000E-01     -8.363281000000000E+01      9.124451000000000E-01     -4.851563000000000E+01
4814000000.000000      8.703918000000000E-01      1.188398000000000E+02      3.279724000000000E-01     -1.706094000000000E+02      2.582703000000000E-01     -8.341797000000000E+01      9.064026000000000E-01     -4.868945000000000E+01
4815000000.000000      8.673706000000000E-01      1.190977000000000E+02      3.285370000000000E-01     -1.706016000000000E+02      2.583771000000000E-01     -8.310156000000000E+01      9.011230000000000E-01     -4.865039000000000E+01
4816000000.000000      8.679810000000000E-01      1.194687000000000E+02      3.303375000000000E-01     -1.706563000000000E+02      2.590637000000000E-01     -8.291016000000000E+01      8.946533000000000E-01     -4.882226000000000E+01
4817000000.000000      8.613281000000000E-01      1.195586000000000E+02      3.305664000000000E-01     -1.707734000000000E+02      2.585297000000000E-01     -8.262499000000000E+01      8.898926000000000E-01     -4.879883000000000E+01
4818000000.000000      8.587952000000000E-01      1.197070000000000E+02      3.307037000000000E-01     -1.707187000000000E+02      2.584381000000000E-01     -8.219530000000000E+01      8.832397000000000E-01     -4.887304000000000E+01
4819000000.000000      8.585510000000000E-01      1.199219000000000E+02      3.310394000000000E-01     -1.708359000000000E+02      2.575226000000000E-01     -8.211329000000000E+01      8.782349000000000E-01     -4.910351000000000E+01
4820000000.000000      8.500061000000000E-01      1.203047000000000E+02      3.317566000000000E-01     -1.708594000000000E+02      2.584686000000000E-01     -8.163280000000000E+01      8.740234000000000E-01     -4.905273000000000E+01
4821000000.000000      8.490601000000000E-01      1.203516000000000E+02      3.335876000000000E-01     -1.709844000000000E+02      2.584686000000000E-01     -8.157421000000000E+01      8.674316000000000E-01     -4.907617000000000E+01
4822000000.000000      8.462830000000000E-01      1.204805000000000E+02      3.333588000000000E-01     -1.712344000000000E+02      2.574310000000000E-01     -8.123438000000000E+01      8.635254000000000E-01     -4.914453000000000E+01
4823000000.000000      8.430176000000000E-01      1.207578000000000E+02      3.341980000000000E-01     -1.712500000000000E+02      2.577667000000000E-01     -8.067968000000000E+01      8.585815000000000E-01     -4.922852000000000E+01
4824000000.000000      8.388062000000000E-01      1.208203000000000E+02      3.349152000000000E-01     -1.716016000000000E+02      2.578125000000000E-01     -8.046484000000000E+01      8.519897000000000E-01     -4.924805000000000E+01
4825000000.000000      8.350525000000000E-01      1.211211000000000E+02      3.348236000000000E-01     -1.716406000000000E+02      2.583618000000000E-01     -8.023046000000000E+01      8.491211000000000E-01     -4.935351000000000E+01
4826000000.000000      8.323364000000000E-01      1.211758000000000E+02      3.364410000000000E-01     -1.716719000000000E+02      2.579346000000000E-01     -7.994531000000000E+01      8.441162000000000E-01     -4.950390000000000E+01
4827000000.000000      8.279419000000000E-01      1.212930000000000E+02      3.366394000000000E-01     -1.717813000000000E+02      2.576904000000000E-01     -7.961328000000000E+01      8.387756000000000E-01     -4.951172000000000E+01
4828000000.000000      8.258057000000000E-01      1.214258000000000E+02      3.376923000000000E-01     -1.719766000000000E+02      2.574310000000000E-01     -7.931250000000000E+01      8.345947000000000E-01     -4.966210000000000E+01
4829000000.000000      8.183899000000000E-01      1.217969000000000E+02      3.372498000000000E-01     -1.722109000000000E+02      2.585754000000000E-01     -7.896093000000000E+01      8.316650000000000E-01     -4.964062000000000E+01
4830000000.000000      8.152771000000000E-01      1.217656000000000E+02      3.379059000000000E-01     -1.724297000000000E+02      2.578735000000000E-01     -7.850390000000000E+01      8.248596000000000E-01     -4.967773000000000E+01
4831000000.000000      8.113403000000000E-01      1.217930000000000E+02      3.384552000000000E-01     -1.725547000000000E+02      2.581177000000000E-01     -7.816015000000000E+01      8.211060000000000E-01     -4.977344000000000E+01
4832000000.000000      8.063965000000000E-01      1.219648000000000E+02      3.389130000000000E-01     -1.728828000000000E+02      2.583008000000000E-01     -7.782812000000000E+01      8.167114000000000E-01     -4.975586000000000E+01
4833000000.000000      8.017273000000000E-01      1.219570000000000E+02      3.392944000000000E-01     -1.729922000000000E+02      2.581177000000000E-01     -7.752734000000000E+01      8.117981000000000E-01     -4.997460000000000E+01
4834000000.000000      7.978210000000000E-01      1.221055000000000E+02      3.397675000000000E-01     -1.731406000000000E+02      2.583008000000000E-01     -7.723827000000000E+01      8.074341000000000E-01     -4.995898000000000E+01
4835000000.000000      7.927551000000000E-01      1.221992000000000E+02      3.396759000000000E-01     -1.734297000000000E+02      2.589111000000000E-01     -7.683203000000000E+01      8.034058000000000E-01     -5.004296000000000E+01
4836000000.000000      7.870789000000000E-01      1.221914000000000E+02      3.395996000000000E-01     -1.736172000000000E+02      2.587433000000000E-01     -7.651172000000000E+01      8.000488000000000E-01     -5.011719000000000E+01
4837000000.000000      7.828369000000000E-01      1.224648000000000E+02      3.394318000000000E-01     -1.741641000000000E+02      2.590790000000000E-01     -7.620312000000000E+01      7.958679000000000E-01     -5.003320000000000E+01
4838000000.000000      7.776489000000000E-01      1.223398000000000E+02      3.403625000000000E-01     -1.740625000000000E+02      2.589569000000000E-01     -7.573047000000000E+01      7.926025000000000E-01     -5.022851000000000E+01
4839000000.000000      7.751465000000000E-01      1.223594000000000E+02      3.396454000000000E-01     -1.742266000000000E+02      2.592316000000000E-01     -7.558984000000000E+01      7.891541000000000E-01     -5.027344000000000E+01
4840000000.000000      7.688904000000000E-01      1.223320000000000E+02      3.401947000000000E-01     -1.744844000000000E+02      2.595520000000000E-01     -7.522265000000000E+01      7.848206000000000E-01     -5.031836000000000E+01
4841000000.000000      7.622681000000000E-01      1.223008000000000E+02      3.394623000000000E-01     -1.749531000000000E+02      2.597351000000000E-01     -7.483203000000000E+01      7.820129000000000E-01     -5.036133000000000E+01
4842000000.000000      7.559814000000000E-01      1.224453000000000E+02      3.396759000000000E-01     -1.750000000000000E+02      2.599487000000000E-01     -7.455859000000000E+01      7.791748000000000E-01     -5.049218000000000E+01
4843000000.000000      7.509766000000000E-01      1.222305000000000E+02      3.394775000000000E-01     -1.754531000000000E+02      2.600708000000000E-01     -7.420312000000000E+01      7.746887000000000E-01     -5.049414000000000E+01
4844000000.000000      7.463379000000000E-01      1.222266000000000E+02      3.394470000000000E-01     -1.755391000000000E+02      2.603455000000000E-01     -7.387109000000000E+01      7.708740000000000E-01     -5.059765000000000E+01
4845000000.000000      7.396240000000000E-01      1.222539000000000E+02      3.388977000000000E-01     -1.757813000000000E+02      2.607117000000000E-01     -7.355078000000000E+01      7.677307000000000E-01     -5.060547000000000E+01
4846000000.000000      7.355347000000000E-01      1.221680000000000E+02      3.382568000000000E-01     -1.758672000000000E+02      2.614594000000000E-01     -7.316406000000000E+01      7.643738000000000E-01     -5.068945000000000E+01
4847000000.000000      7.290649000000000E-01      1.220664000000000E+02      3.381042000000000E-01     -1.761953000000000E+02      2.617188000000000E-01     -7.293750000000000E+01      7.613831000000000E-01     -5.083984000000000E+01
4848000000.000000      7.227783000000000E-01      1.220156000000000E+02      3.374634000000000E-01     -1.765859000000000E+02      2.615356000000000E-01     -7.250781000000000E+01      7.577515000000000E-01     -5.087500000000000E+01
4849000000.000000      7.171631000000000E-01      1.218672000000000E+02      3.375397000000000E-01     -1.768828000000000E+02      2.618713000000000E-01     -7.217968000000000E+01      7.546997000000000E-01     -5.081055000000000E+01
4850000000.000000      7.106934000000000E-01      1.217773000000000E+02      3.367462000000000E-01     -1.770469000000000E+02      2.621002000000000E-01     -7.193359000000000E+01      7.507019000000000E-01     -5.097265000000000E+01
4851000000.000000      7.054443000000000E-01      1.216719000000000E+02      3.365936000000000E-01     -1.773906000000000E+02      2.625427000000000E-01     -7.173046000000000E+01      7.512207000000000E-01     -5.099609000000000E+01
4852000000.000000      6.991882000000000E-01      1.214375000000000E+02      3.350983000000000E-01     -1.775547000000000E+02      2.633362000000000E-01     -7.133984000000000E+01      7.466431000000000E-01     -5.101757000000000E+01
4853000000.000000      6.943054000000000E-01      1.212344000000000E+02      3.336945000000000E-01     -1.777891000000000E+02      2.637024000000000E-01     -7.105469000000000E+01      7.443542000000000E-01     -5.121288000000000E+01
4854000000.000000      6.852112000000000E-01      1.210547000000000E+02      3.333893000000000E-01     -1.781875000000000E+02      2.637482000000000E-01     -7.082031000000000E+01      7.423096000000000E-01     -5.122265000000000E+01
4855000000.000000      6.809692000000000E-01      1.209141000000000E+02      3.327332000000000E-01     -1.783516000000000E+02      2.640076000000000E-01     -7.047265000000000E+01      7.373352000000000E-01     -5.120703000000000E+01
4856000000.000000      6.747742000000000E-01      1.207500000000000E+02      3.318787000000000E-01     -1.784844000000000E+02      2.642670000000000E-01     -7.031250000000000E+01      7.356567000000000E-01     -5.133594000000000E+01
4857000000.000000      6.679993000000000E-01      1.205156000000000E+02      3.315277000000000E-01     -1.787109000000000E+02      2.648621000000000E-01     -6.993750000000000E+01      7.319336000000000E-01     -5.135156000000000E+01
4858000000.000000      6.590881000000000E-01      1.200703000000000E+02      3.301697000000000E-01     -1.789687000000000E+02      2.649841000000000E-01     -6.970703000000000E+01      7.302246000000000E-01     -5.147461000000000E+01
4859000000.000000      6.549683000000000E-01      1.200234000000000E+02      3.296509000000000E-01     -1.792109000000000E+02      2.652435000000000E-01     -6.945703000000000E+01      7.296143000000000E-01     -5.162890000000000E+01
4860000000.000000      6.491089000000000E-01      1.196914000000000E+02      3.287201000000000E-01     -1.794453000000000E+02      2.652283000000000E-01     -6.919531000000000E+01      7.253113000000000E-01     -5.146289000000000E+01
4861000000.000000      6.425171000000000E-01      1.193828000000000E+02      3.273010000000000E-01     -1.796953000000000E+02      2.660217000000000E-01     -6.900000000000000E+01      7.227173000000000E-01     -5.164648000000000E+01
4862000000.000000      6.376343000000000E-01      1.191367000000000E+02      3.264160000000000E-01     -1.799531000000000E+02      2.665863000000000E-01     -6.875781000000000E+01      7.213745000000000E-01     -5.170898000000000E+01
4863000000.000000      6.283875000000000E-01      1.188047000000000E+02      3.244171000000000E-01      1.797812000000000E+02      2.673798000000000E-01     -6.848827000000000E+01      7.191772000000000E-01     -5.162890000000000E+01
4864000000.000000      6.253357000000000E-01      1.183828000000000E+02      3.240509000000000E-01      1.798125000000000E+02      2.669525000000000E-01     -6.829296000000000E+01      7.164001000000000E-01     -5.173437000000000E+01
4865000000.000000      6.177979000000000E-01      1.180391000000000E+02      3.224487000000000E-01      1.796797000000000E+02      2.671051000000000E-01     -6.826562000000000E+01      7.151794000000000E-01     -5.168554000000000E+01
4866000000.000000      6.114502000000000E-01      1.176094000000000E+02      3.210907000000000E-01      1.794922000000000E+02      2.673340000000000E-01     -6.804296000000000E+01      7.121582000000000E-01     -5.179101000000000E+01
4867000000.000000      6.041870000000000E-01      1.172617000000000E+02      3.205872000000000E-01      1.790859000000000E+02      2.675629000000000E-01     -6.785156000000000E+01      7.104187000000000E-01     -5.176367000000000E+01
4868000000.000000      6.015320000000000E-01      1.170664000000000E+02      3.187714000000000E-01      1.789687000000000E+02      2.690735000000000E-01     -6.763672000000000E+01      7.072449000000000E-01     -5.173633000000000E+01
4869000000.000000      5.930786000000000E-01      1.165859000000000E+02      3.174896000000000E-01      1.788984000000000E+02      2.687836000000000E-01     -6.754687000000000E+01      7.061768000000000E-01     -5.201562000000000E+01
4870000000.000000      5.874939000000000E-01      1.161992000000000E+02      3.166351000000000E-01      1.789219000000000E+02      2.687378000000000E-01     -6.739062000000000E+01      7.048645000000000E-01     -5.183788000000000E+01
4871000000.000000      5.828857000000000E-01      1.156992000000000E+02      3.155060000000000E-01      1.785547000000000E+02      2.688293000000000E-01     -6.733984000000000E+01      7.012024000000000E-01     -5.193554000000000E+01
4872000000.000000      5.771484000000000E-01      1.152578000000000E+02      3.137970000000000E-01      1.785703000000000E+02      2.691345000000000E-01     -6.738671000000000E+01      6.998901000000000E-01     -5.198632000000000E+01
4873000000.000000      5.718994000000000E-01      1.150312000000000E+02      3.132477000000000E-01      1.784141000000000E+02      2.686920000000000E-01     -6.698047000000000E+01      6.967468000000000E-01     -5.205078000000000E+01
4874000000.000000      5.655212000000000E-01      1.145664000000000E+02      3.108826000000000E-01      1.781797000000000E+02      2.697754000000000E-01     -6.691796000000000E+01      6.947937000000000E-01     -5.193554000000000E+01
4875000000.000000      5.611572000000000E-01      1.140273000000000E+02      3.097076000000000E-01      1.781016000000000E+02      2.692719000000000E-01     -6.695313000000000E+01      6.933899000000000E-01     -5.209765000000000E+01
4876000000.000000      5.555420000000000E-01      1.135430000000000E+02      3.094635000000000E-01      1.779922000000000E+02      2.689819000000000E-01     -6.689453000000000E+01      6.911926000000000E-01     -5.217578000000000E+01
4877000000.000000      5.501099000000000E-01      1.129414000000000E+02      3.081970000000000E-01      1.779375000000000E+02      2.698212000000000E-01     -6.686328000000000E+01      6.891479000000000E-01     -5.207421000000000E+01
4878000000.000000      5.454407000000000E-01      1.123750000000000E+02      3.073578000000000E-01      1.777344000000000E+02      2.698669000000000E-01     -6.654687000000000E+01      6.875000000000000E-01     -5.212695000000000E+01
4879000000.000000      5.416870000000000E-01      1.117734000000000E+02      3.050995000000000E-01      1.776875000000000E+02      2.688904000000000E-01     -6.664453000000000E+01      6.849365000000000E-01     -5.197266000000000E+01
4880000000.000000      5.379028000000000E-01      1.114297000000000E+02      3.043671000000000E-01      1.774922000000000E+02      2.695313000000000E-01     -6.662890000000000E+01      6.830750000000000E-01     -5.203906000000000E+01
4881000000.000000      5.310059000000000E-01      1.107969000000000E+02      3.036652000000000E-01      1.775938000000000E+02      2.699432000000000E-01     -6.663671000000000E+01      6.807861000000000E-01     -5.202538000000000E+01
4882000000.000000      5.285339000000000E-01      1.104062000000000E+02      3.022156000000000E-01      1.773672000000000E+02      2.698975000000000E-01     -6.648046000000000E+01      6.778564000000000E-01     -5.192968000000000E+01
