! Network Analyzer HP8722D
! Hewlett-Packard
! Data name: Linha & Wilkinson
! Saver's name: Rodrigo Anjos
! Comments: Teste da utilização de aquisição
continua pelo VNA HP8722D
! Time and date: 8/5/2025 16:47
!              Frequency                     S11                                                   S21                                                   S12                                                   S22
# HZ  S  MA R 50
4800000000.000000      4.934998000000000E-01     -1.673281000000000E+02      2.636566000000000E-01     -2.092773000000000E+01      2.592316000000000E-01     -1.418906000000000E+02      6.512146000000000E-01     -8.013281000000000E+01
4801000000.000000      4.948273000000000E-01     -1.673828000000000E+02      2.671661000000000E-01     -2.106250000000000E+01      2.623901000000000E-01     -1.421094000000000E+02      6.509399000000000E-01     -7.989452000000000E+01
4802000000.000000      4.964752000000000E-01     -1.675000000000000E+02      2.705841000000000E-01     -2.122168000000000E+01      2.669830000000000E-01     -1.420156000000000E+02      6.503296000000000E-01     -7.967187000000000E+01
4803000000.000000      4.979553000000000E-01     -1.675469000000000E+02      2.757263000000000E-01     -2.157910000000000E+01      2.702942000000000E-01     -1.421875000000000E+02      6.495667000000000E-01     -7.945313000000000E+01
4804000000.000000      5.009155000000000E-01     -1.675469000000000E+02      2.788086000000000E-01     -2.182031000000000E+01      2.741852000000000E-01     -1.424531000000000E+02      6.492004000000000E-01     -7.925390000000000E+01
4805000000.000000      5.035400000000000E-01     -1.675937000000000E+02      2.830963000000000E-01     -2.219824000000000E+01      2.772827000000000E-01     -1.424219000000000E+02      6.485291000000000E-01     -7.912890000000000E+01
4806000000.000000      5.052490000000000E-01     -1.675625000000000E+02      2.870026000000000E-01     -2.241699000000000E+01      2.802277000000000E-01     -1.424687000000000E+02      6.501160000000000E-01     -7.894921000000000E+01
4807000000.000000      5.086975000000000E-01     -1.676094000000000E+02      2.912598000000000E-01     -2.293945000000000E+01      2.839661000000000E-01     -1.428125000000000E+02      6.502380000000000E-01     -7.871875000000000E+01
4808000000.000000      5.105286000000000E-01     -1.675390000000000E+02      2.954254000000000E-01     -2.317383000000000E+01      2.871552000000000E-01     -1.429141000000000E+02      6.490479000000000E-01     -7.848827000000000E+01
4809000000.000000      5.137024000000000E-01     -1.675937000000000E+02      2.987976000000000E-01     -2.376074000000000E+01      2.911987000000000E-01     -1.431172000000000E+02      6.504822000000000E-01     -7.833593000000000E+01
4810000000.000000      5.169067000000000E-01     -1.675937000000000E+02      3.027191000000000E-01     -2.404394000000000E+01      2.944183000000000E-01     -1.431953000000000E+02      6.513367000000000E-01     -7.821875000000000E+01
4811000000.000000      5.202942000000000E-01     -1.675390000000000E+02      3.062134000000000E-01     -2.446680000000000E+01      2.983398000000000E-01     -1.432188000000000E+02      6.514893000000000E-01     -7.792578000000000E+01
4812000000.000000      5.244141000000000E-01     -1.675781000000000E+02      3.101501000000000E-01     -2.484570000000000E+01      3.012543000000000E-01     -1.434297000000000E+02      6.534729000000000E-01     -7.773828000000000E+01
4813000000.000000      5.271301000000000E-01     -1.675078000000000E+02      3.132629000000000E-01     -2.522265000000000E+01      3.034515000000000E-01     -1.435625000000000E+02      6.531677000000000E-01     -7.748047000000000E+01
4814000000.000000      5.302734000000000E-01     -1.675625000000000E+02      3.172760000000000E-01     -2.569921000000000E+01      3.067474000000000E-01     -1.439219000000000E+02      6.556091000000000E-01     -7.739843000000000E+01
4815000000.000000      5.341187000000000E-01     -1.673906000000000E+02      3.199921000000000E-01     -2.612305000000000E+01      3.100433000000000E-01     -1.439844000000000E+02      6.548462000000000E-01     -7.714844000000000E+01
4816000000.000000      5.386658000000000E-01     -1.672969000000000E+02      3.242035000000000E-01     -2.645312000000000E+01      3.136139000000000E-01     -1.441484000000000E+02      6.567078000000000E-01     -7.705468000000000E+01
4817000000.000000      5.432129000000000E-01     -1.672578000000000E+02      3.274384000000000E-01     -2.703418000000000E+01      3.159027000000000E-01     -1.443281000000000E+02      6.569519000000000E-01     -7.692968000000000E+01
4818000000.000000      5.472107000000000E-01     -1.672891000000000E+02      3.306732000000000E-01     -2.749902000000000E+01      3.190155000000000E-01     -1.444922000000000E+02      6.594238000000000E-01     -7.678515000000000E+01
4819000000.000000      5.527039000000000E-01     -1.672344000000000E+02      3.333588000000000E-01     -2.777539000000000E+01      3.213654000000000E-01     -1.447031000000000E+02      6.618652000000000E-01     -7.671484000000000E+01
4820000000.000000      5.550842000000000E-01     -1.671406000000000E+02      3.373413000000000E-01     -2.832617000000000E+01      3.255768000000000E-01     -1.448437000000000E+02      6.635437000000000E-01     -7.647655000000000E+01
4821000000.000000      5.614929000000000E-01     -1.670938000000000E+02      3.401947000000000E-01     -2.880371000000000E+01      3.276520000000000E-01     -1.452422000000000E+02      6.657715000000000E-01     -7.644921000000000E+01
4822000000.000000      5.680542000000000E-01     -1.670078000000000E+02      3.431396000000000E-01     -2.928320000000000E+01      3.298492000000000E-01     -1.454141000000000E+02      6.681213000000000E-01     -7.626562000000000E+01
4823000000.000000      5.714722000000000E-01     -1.669375000000000E+02      3.457184000000000E-01     -2.986719000000000E+01      3.324127000000000E-01     -1.454609000000000E+02      6.692200000000000E-01     -7.621094000000000E+01
4824000000.000000      5.792542000000000E-01     -1.668906000000000E+02      3.493805000000000E-01     -3.044238000000000E+01      3.358612000000000E-01     -1.457344000000000E+02      6.738892000000000E-01     -7.604687000000000E+01
4825000000.000000      5.832214000000000E-01     -1.668359000000000E+02      3.513184000000000E-01     -3.086230000000000E+01      3.385925000000000E-01     -1.458594000000000E+02      6.753235000000000E-01     -7.597265000000000E+01
4826000000.000000      5.899658000000000E-01     -1.667500000000000E+02      3.549347000000000E-01     -3.144433000000000E+01      3.401337000000000E-01     -1.460391000000000E+02      6.777344000000000E-01     -7.584374000000000E+01
4827000000.000000      5.950623000000000E-01     -1.665781000000000E+02      3.577271000000000E-01     -3.179394000000000E+01      3.422089000000000E-01     -1.462344000000000E+02      6.812134000000000E-01     -7.577343000000000E+01
4828000000.000000      6.024475000000000E-01     -1.666016000000000E+02      3.608704000000000E-01     -3.242773000000000E+01      3.451385000000000E-01     -1.464688000000000E+02      6.846313000000000E-01     -7.574219000000000E+01
4829000000.000000      6.055298000000000E-01     -1.664844000000000E+02      3.618164000000000E-01     -3.297461000000000E+01      3.474579000000000E-01     -1.467266000000000E+02      6.881104000000000E-01     -7.557422000000000E+01
4830000000.000000      6.136780000000000E-01     -1.664375000000000E+02      3.650970000000000E-01     -3.351367000000000E+01      3.492432000000000E-01     -1.467969000000000E+02      6.895142000000000E-01     -7.553515000000000E+01
4831000000.000000      6.188965000000000E-01     -1.663437000000000E+02      3.669891000000000E-01     -3.419922000000000E+01      3.516083000000000E-01     -1.469609000000000E+02      6.932678000000000E-01     -7.543359000000000E+01
4832000000.000000      6.275024000000000E-01     -1.663281000000000E+02      3.704681000000000E-01     -3.447266000000000E+01      3.537292000000000E-01     -1.472734000000000E+02      6.967773000000000E-01     -7.542578000000000E+01
4833000000.000000      6.336060000000000E-01     -1.663359000000000E+02      3.725128000000000E-01     -3.523633000000000E+01      3.562164000000000E-01     -1.474609000000000E+02      7.004395000000000E-01     -7.529297000000000E+01
4834000000.000000      6.402588000000000E-01     -1.662188000000000E+02      3.737183000000000E-01     -3.562891000000000E+01      3.578644000000000E-01     -1.476328000000000E+02      7.024536000000000E-01     -7.538671000000000E+01
4835000000.000000      6.466064000000000E-01     -1.661562000000000E+02      3.760986000000000E-01     -3.616015000000000E+01      3.606262000000000E-01     -1.478516000000000E+02      7.072144000000000E-01     -7.541016000000000E+01
4836000000.000000      6.548767000000000E-01     -1.660469000000000E+02      3.772736000000000E-01     -3.671875000000000E+01      3.616180000000000E-01     -1.480313000000000E+02      7.103271000000000E-01     -7.528906000000000E+01
4837000000.000000      6.606140000000000E-01     -1.660078000000000E+02      3.784943000000000E-01     -3.744922000000000E+01      3.640442000000000E-01     -1.483047000000000E+02      7.140503000000000E-01     -7.526953000000000E+01
4838000000.000000      6.683960000000000E-01     -1.660781000000000E+02      3.819275000000000E-01     -3.788086000000000E+01      3.665619000000000E-01     -1.483281000000000E+02      7.181091000000000E-01     -7.516406000000000E+01
4839000000.000000      6.759338000000000E-01     -1.659219000000000E+02      3.822632000000000E-01     -3.833008000000000E+01      3.678741000000000E-01     -1.486953000000000E+02      7.220154000000000E-01     -7.508594000000000E+01
4840000000.000000      6.814575000000000E-01     -1.659453000000000E+02      3.833466000000000E-01     -3.892187000000000E+01      3.695984000000000E-01     -1.487031000000000E+02      7.249451000000000E-01     -7.517578000000000E+01
4841000000.000000      6.897583000000000E-01     -1.660312000000000E+02      3.844757000000000E-01     -3.955664000000000E+01      3.713074000000000E-01     -1.489531000000000E+02      7.304077000000000E-01     -7.517187000000000E+01
4842000000.000000      6.967468000000000E-01     -1.658750000000000E+02      3.854675000000000E-01     -3.996484000000000E+01      3.724213000000000E-01     -1.491406000000000E+02      7.350769000000000E-01     -7.514843000000000E+01
4843000000.000000      7.029419000000000E-01     -1.659531000000000E+02      3.871307000000000E-01     -4.072656000000000E+01      3.742981000000000E-01     -1.493672000000000E+02      7.379150000000000E-01     -7.507030000000000E+01
4844000000.000000      7.099304000000000E-01     -1.659062000000000E+02      3.879852000000000E-01     -4.125977000000000E+01      3.762512000000000E-01     -1.494609000000000E+02      7.431335000000000E-01     -7.519921000000000E+01
4845000000.000000      7.174072000000000E-01     -1.657969000000000E+02      3.884583000000000E-01     -4.172852000000000E+01      3.778839000000000E-01     -1.497578000000000E+02      7.464600000000000E-01     -7.511719000000000E+01
4846000000.000000      7.248230000000000E-01     -1.657891000000000E+02      3.890076000000000E-01     -4.210742000000000E+01      3.800507000000000E-01     -1.497422000000000E+02      7.519226000000000E-01     -7.514453000000000E+01
4847000000.000000      7.328491000000000E-01     -1.657969000000000E+02      3.900299000000000E-01     -4.268359000000000E+01      3.817749000000000E-01     -1.500234000000000E+02      7.568359000000000E-01     -7.527344000000000E+01
4848000000.000000      7.403259000000000E-01     -1.657656000000000E+02      3.908386000000000E-01     -4.322070000000000E+01      3.826447000000000E-01     -1.501797000000000E+02      7.598572000000000E-01     -7.517968000000000E+01
4849000000.000000      7.458496000000000E-01     -1.659844000000000E+02      3.915710000000000E-01     -4.400781000000000E+01      3.841705000000000E-01     -1.503672000000000E+02      7.641296000000000E-01     -7.516015000000000E+01
4850000000.000000      7.533569000000000E-01     -1.658437000000000E+02      3.923492000000000E-01     -4.426562000000000E+01      3.862000000000000E-01     -1.504297000000000E+02      7.697144000000000E-01     -7.524219000000000E+01
4851000000.000000      7.610474000000000E-01     -1.658516000000000E+02      3.925171000000000E-01     -4.496875000000000E+01      3.866119000000000E-01     -1.507031000000000E+02      7.744446000000000E-01     -7.521874000000000E+01
4852000000.000000      7.669678000000000E-01     -1.658906000000000E+02      3.921204000000000E-01     -4.549609000000000E+01      3.887329000000000E-01     -1.508203000000000E+02      7.783508000000000E-01     -7.530078000000000E+01
4853000000.000000      7.743530000000000E-01     -1.658828000000000E+02      3.909912000000000E-01     -4.583398000000000E+01      3.900299000000000E-01     -1.510078000000000E+02      7.830811000000000E-01     -7.538671000000000E+01
4854000000.000000      7.801514000000000E-01     -1.659375000000000E+02      3.910217000000000E-01     -4.648633000000000E+01      3.907471000000000E-01     -1.511641000000000E+02      7.877502000000000E-01     -7.538280000000000E+01
4855000000.000000      7.845459000000000E-01     -1.658437000000000E+02      3.909912000000000E-01     -4.687109000000000E+01      3.915100000000000E-01     -1.512500000000000E+02      7.914124000000000E-01     -7.540625000000000E+01
4856000000.000000      7.940369000000000E-01     -1.659062000000000E+02      3.908539000000000E-01     -4.732617000000000E+01      3.933258000000000E-01     -1.513906000000000E+02      7.969666000000000E-01     -7.549218000000000E+01
4857000000.000000      7.995605000000000E-01     -1.660000000000000E+02      3.908539000000000E-01     -4.779297000000000E+01      3.942413000000000E-01     -1.515234000000000E+02      8.014221000000000E-01     -7.549609000000000E+01
4858000000.000000      8.028870000000000E-01     -1.659844000000000E+02      3.910522000000000E-01     -4.830468000000000E+01      3.950195000000000E-01     -1.517656000000000E+02      8.052979000000000E-01     -7.561718000000000E+01
4859000000.000000      8.111572000000000E-01     -1.660312000000000E+02      3.899231000000000E-01     -4.868554000000000E+01      3.964386000000000E-01     -1.519297000000000E+02      8.126526000000000E-01     -7.583202000000000E+01
4860000000.000000      8.190918000000000E-01     -1.661562000000000E+02      3.896179000000000E-01     -4.912304000000000E+01      3.972931000000000E-01     -1.520313000000000E+02      8.154907000000000E-01     -7.564062000000000E+01
4861000000.000000      8.219604000000000E-01     -1.659141000000000E+02      3.890533000000000E-01     -4.972851000000000E+01      3.987885000000000E-01     -1.521953000000000E+02      8.196411000000000E-01     -7.582421000000000E+01
4862000000.000000      8.276672000000000E-01     -1.661094000000000E+02      3.888550000000000E-01     -4.999804000000000E+01      3.997955000000000E-01     -1.522891000000000E+02      8.262024000000000E-01     -7.584374000000000E+01
4863000000.000000      8.316345000000000E-01     -1.660938000000000E+02      3.865051000000000E-01     -5.058203000000000E+01      4.010010000000000E-01     -1.524531000000000E+02      8.311768000000000E-01     -7.590625000000000E+01
4864000000.000000      8.375549000000000E-01     -1.660781000000000E+02      3.864288000000000E-01     -5.088476000000000E+01      4.004364000000000E-01     -1.525312000000000E+02      8.344727000000000E-01     -7.608593000000000E+01
4865000000.000000      8.431702000000000E-01     -1.661172000000000E+02      3.849487000000000E-01     -5.116211000000000E+01      4.019165000000000E-01     -1.528672000000000E+02      8.395996000000000E-01     -7.603516000000000E+01
4866000000.000000      8.468323000000000E-01     -1.659922000000000E+02      3.829498000000000E-01     -5.166016000000000E+01      4.021606000000000E-01     -1.529531000000000E+02      8.453674000000000E-01     -7.613281000000000E+01
4867000000.000000      8.514709000000000E-01     -1.659765000000000E+02      3.836365000000000E-01     -5.200781000000000E+01      4.030762000000000E-01     -1.531328000000000E+02      8.499756000000000E-01     -7.629296000000000E+01
4868000000.000000      8.569031000000000E-01     -1.661484000000000E+02      3.806763000000000E-01     -5.242773000000000E+01      4.046326000000000E-01     -1.532578000000000E+02      8.532410000000000E-01     -7.635937000000000E+01
4869000000.000000      8.609314000000000E-01     -1.660234000000000E+02      3.802643000000000E-01     -5.278710000000000E+01      4.045258000000000E-01     -1.534922000000000E+02      8.582764000000000E-01     -7.657421000000000E+01
4870000000.000000      8.646851000000000E-01     -1.660938000000000E+02      3.794250000000000E-01     -5.302539000000000E+01      4.049530000000000E-01     -1.536562000000000E+02      8.630981000000000E-01     -7.650781000000000E+01
4871000000.000000      8.697205000000000E-01     -1.660625000000000E+02      3.781128000000000E-01     -5.328906000000000E+01      4.048157000000000E-01     -1.538281000000000E+02      8.669739000000000E-01     -7.666406000000000E+01
4872000000.000000      8.719788000000000E-01     -1.660938000000000E+02      3.760986000000000E-01     -5.354101000000000E+01      4.062805000000000E-01     -1.540703000000000E+02      8.731384000000000E-01     -7.673437000000000E+01
4873000000.000000      8.731384000000000E-01     -1.659688000000000E+02      3.747253000000000E-01     -5.396093000000000E+01      4.058075000000000E-01     -1.540625000000000E+02      8.763733000000000E-01     -7.694140000000000E+01
4874000000.000000      8.767700000000000E-01     -1.658750000000000E+02      3.742218000000000E-01     -5.430273000000000E+01      4.072418000000000E-01     -1.541797000000000E+02      8.793335000000000E-01     -7.687890000000000E+01
4875000000.000000      8.818359000000000E-01     -1.659375000000000E+02      3.717194000000000E-01     -5.434960000000000E+01      4.071350000000000E-01     -1.545000000000000E+02      8.843384000000000E-01     -7.706249000000000E+01
4876000000.000000      8.822327000000000E-01     -1.659688000000000E+02      3.705902000000000E-01     -5.489258000000000E+01      4.064026000000000E-01     -1.545469000000000E+02      8.885193000000000E-01     -7.729297000000000E+01
4877000000.000000      8.852844000000000E-01     -1.659297000000000E+02      3.690033000000000E-01     -5.485156000000000E+01      4.078064000000000E-01     -1.547969000000000E+02      8.927307000000000E-01     -7.739452000000000E+01
4878000000.000000      8.898621000000000E-01     -1.657734000000000E+02      3.673401000000000E-01     -5.512695000000000E+01      4.075928000000000E-01     -1.547656000000000E+02      8.976440000000000E-01     -7.753906000000000E+01
4879000000.000000      8.928223000000000E-01     -1.656250000000000E+02      3.653412000000000E-01     -5.530663000000000E+01      4.072876000000000E-01     -1.549844000000000E+02      8.987427000000000E-01     -7.751562000000000E+01
4880000000.000000      8.924561000000000E-01     -1.657109000000000E+02      3.648834000000000E-01     -5.557031000000000E+01      4.081268000000000E-01     -1.550390000000000E+02      9.035034000000000E-01     -7.757030000000000E+01
4881000000.000000      8.970337000000000E-01     -1.655000000000000E+02      3.641357000000000E-01     -5.563477000000000E+01      4.083405000000000E-01     -1.553203000000000E+02      9.081421000000000E-01     -7.774219000000000E+01
4882000000.000000      8.952942000000000E-01     -1.653750000000000E+02      3.616791000000000E-01     -5.594531000000000E+01      4.080200000000000E-01     -1.553516000000000E+02      9.106140000000000E-01     -7.791797000000000E+01
