! Network Analyzer HP8722D
! Hewlett-Packard
! Data name: Linha & Wilkinson
! Saver's name: Rodrigo Anjos
! Comments: Teste da utilização de aquisição
continua pelo VNA HP8722D
! Time and date: 8/5/2025 12:46
!              Frequency                     S11                                                   S21                                                   S12                                                   S22
# HZ  S  MA R 50
4800000000.000000      6.376648000000000E-01      1.037500000000000E+01      4.731750000000000E-01     -9.522264000000000E+01      4.453583000000000E-01     -8.137890000000000E+01      1.917114000000000E-01     -1.452656000000000E+02
4801000000.000000      6.357117000000000E-01      1.032813000000000E+01      4.738007000000000E-01     -9.607031000000000E+01      4.482269000000000E-01     -8.238672000000000E+01      1.821289000000000E-01     -1.463594000000000E+02
4802000000.000000      6.336060000000000E-01      1.034619000000000E+01      4.757080000000000E-01     -9.673828000000000E+01      4.501801000000000E-01     -8.324999000000000E+01      1.741867000000000E-01     -1.478125000000000E+02
4803000000.000000      6.318970000000000E-01      1.030371000000000E+01      4.798431000000000E-01     -9.730469000000000E+01      4.523773000000000E-01     -8.400391000000000E+01      1.667709000000000E-01     -1.486641000000000E+02
4804000000.000000      6.293640000000000E-01      1.046973000000000E+01      4.804077000000000E-01     -9.812889000000000E+01      4.562225000000000E-01     -8.509766000000000E+01      1.598206000000000E-01     -1.495547000000000E+02
4805000000.000000      6.299744000000000E-01      1.044482000000000E+01      4.815369000000000E-01     -9.889061000000000E+01      4.601288000000000E-01     -8.586329000000000E+01      1.526413000000000E-01     -1.508437000000000E+02
4806000000.000000      6.283569000000000E-01      1.032568000000000E+01      4.845276000000000E-01     -9.964453000000000E+01      4.615936000000000E-01     -8.657812000000000E+01      1.440048000000000E-01     -1.522578000000000E+02
4807000000.000000      6.240845000000000E-01      1.037500000000000E+01      4.830475000000000E-01     -1.004766000000000E+02      4.636078000000000E-01     -8.781250000000000E+01      1.366730000000000E-01     -1.537188000000000E+02
4808000000.000000      6.243591000000000E-01      1.046436000000000E+01      4.861603000000000E-01     -1.013008000000000E+02      4.658356000000000E-01     -8.870703000000000E+01      1.284103000000000E-01     -1.541094000000000E+02
4809000000.000000      6.226501000000000E-01      1.048096000000000E+01      4.873352000000000E-01     -1.020547000000000E+02      4.693146000000000E-01     -8.960938000000000E+01      1.194153000000000E-01     -1.554453000000000E+02
4810000000.000000      6.210938000000000E-01      1.047363000000000E+01      4.891357000000000E-01     -1.027773000000000E+02      4.711761000000000E-01     -9.060938000000000E+01      1.105576000000000E-01     -1.560703000000000E+02
4811000000.000000      6.213379000000000E-01      1.074707000000000E+01      4.903412000000000E-01     -1.035390000000000E+02      4.742126000000000E-01     -9.154688000000000E+01      1.015015000000000E-01     -1.578438000000000E+02
4812000000.000000      6.200867000000000E-01      1.086670000000000E+01      4.911194000000000E-01     -1.041914000000000E+02      4.759216000000000E-01     -9.237108000000000E+01      9.352493000000000E-02     -1.581719000000000E+02
4813000000.000000      6.176453000000000E-01      1.069238000000000E+01      4.924774000000000E-01     -1.051914000000000E+02      4.771881000000000E-01     -9.331249000000000E+01      8.351898000000000E-02     -1.603437000000000E+02
4814000000.000000      6.157227000000000E-01      1.090771000000000E+01      4.943237000000000E-01     -1.057265000000000E+02      4.795837000000000E-01     -9.435156000000000E+01      7.486725000000000E-02     -1.607812000000000E+02
4815000000.000000      6.137085000000000E-01      1.093115000000000E+01      4.930420000000000E-01     -1.064414000000000E+02      4.803314000000000E-01     -9.555859000000000E+01      6.476974000000000E-02     -1.623047000000000E+02
4816000000.000000      6.151123000000000E-01      1.098193000000000E+01      4.954681000000000E-01     -1.072695000000000E+02      4.823914000000000E-01     -9.630077000000000E+01      5.634499000000000E-02     -1.638594000000000E+02
4817000000.000000      6.126099000000000E-01      1.117285000000000E+01      4.959259000000000E-01     -1.079258000000000E+02      4.826660000000000E-01     -9.746874000000000E+01      4.740334000000000E-02     -1.627031000000000E+02
4818000000.000000      6.105652000000000E-01      1.117578000000000E+01      4.962311000000000E-01     -1.089063000000000E+02      4.854279000000000E-01     -9.831640000000000E+01      3.831291000000000E-02     -1.642578000000000E+02
4819000000.000000      6.103210000000000E-01      1.130859000000000E+01      4.965515000000000E-01     -1.095859000000000E+02      4.868774000000000E-01     -9.933203000000000E+01      3.199768000000000E-02     -1.621719000000000E+02
4820000000.000000      6.078491000000000E-01      1.128418000000000E+01      4.981689000000000E-01     -1.102734000000000E+02      4.875946000000000E-01     -1.002851000000000E+02      2.099514000000000E-02     -1.632344000000000E+02
4821000000.000000      6.098328000000000E-01      1.139648000000000E+01      4.988403000000000E-01     -1.109766000000000E+02      4.861450000000000E-01     -1.013515000000000E+02      1.301861000000000E-02     -1.549453000000000E+02
4822000000.000000      6.069336000000000E-01      1.153271000000000E+01      4.970398000000000E-01     -1.117656000000000E+02      4.870453000000000E-01     -1.022734000000000E+02      5.304813000000000E-03     -1.165469000000000E+02
4823000000.000000      6.070557000000000E-01      1.158203000000000E+01      4.993439000000000E-01     -1.126406000000000E+02      4.897461000000000E-01     -1.031836000000000E+02      7.625341000000000E-03     -3.506250000000000E+01
4824000000.000000      6.047668000000000E-01      1.172900000000000E+01      4.991302000000000E-01     -1.134492000000000E+02      4.882813000000000E-01     -1.044648000000000E+02      1.670456000000000E-02     -1.416309000000000E+01
4825000000.000000      6.064453000000000E-01      1.189111000000000E+01      4.985657000000000E-01     -1.141484000000000E+02      4.878998000000000E-01     -1.054102000000000E+02      2.610493000000000E-02     -1.179688000000000E+01
4826000000.000000      6.042480000000000E-01      1.178662000000000E+01      4.997101000000000E-01     -1.149297000000000E+02      4.868774000000000E-01     -1.063164000000000E+02      3.428459000000000E-02     -7.344482000000000E+00
4827000000.000000      6.043396000000000E-01      1.206396000000000E+01      4.997253000000000E-01     -1.155469000000000E+02      4.861603000000000E-01     -1.072344000000000E+02      4.371262000000000E-02     -7.356934000000000E+00
4828000000.000000      6.047363000000000E-01      1.230469000000000E+01      5.004272000000000E-01     -1.163164000000000E+02      4.868774000000000E-01     -1.082851000000000E+02      5.221367000000000E-02     -8.357910000000000E+00
4829000000.000000      6.029968000000000E-01      1.252295000000000E+01      5.017395000000000E-01     -1.170703000000000E+02      4.856873000000000E-01     -1.091484000000000E+02      6.285095000000000E-02     -6.981934000000000E+00
4830000000.000000      6.039429000000000E-01      1.244727000000000E+01      4.996796000000000E-01     -1.178750000000000E+02      4.857941000000000E-01     -1.102383000000000E+02      6.898117000000000E-02     -8.619141000000000E+00
4831000000.000000      6.031494000000000E-01      1.247070000000000E+01      5.012817000000000E-01     -1.187617000000000E+02      4.835815000000000E-01     -1.112930000000000E+02      7.846832000000000E-02     -1.093457000000000E+01
4832000000.000000      6.037903000000000E-01      1.266992000000000E+01      5.010681000000000E-01     -1.195351000000000E+02      4.818878000000000E-01     -1.123555000000000E+02      8.613205000000000E-02     -1.075586000000000E+01
4833000000.000000      6.020203000000000E-01      1.251465000000000E+01      4.993744000000000E-01     -1.201172000000000E+02      4.807129000000000E-01     -1.132969000000000E+02      9.545135000000000E-02     -1.262646000000000E+01
4834000000.000000      6.036987000000000E-01      1.278809000000000E+01      5.000610000000000E-01     -1.209414000000000E+02      4.804688000000000E-01     -1.142070000000000E+02      1.041031000000000E-01     -1.301514000000000E+01
4835000000.000000      6.037903000000000E-01      1.308594000000000E+01      5.007629000000000E-01     -1.218125000000000E+02      4.793396000000000E-01     -1.151211000000000E+02      1.124306000000000E-01     -1.447217000000000E+01
4836000000.000000      6.036987000000000E-01      1.301025000000000E+01      4.996490000000000E-01     -1.224336000000000E+02      4.757843000000000E-01     -1.161328000000000E+02      1.207314000000000E-01     -1.563379000000000E+01
4837000000.000000      6.035156000000000E-01      1.315723000000000E+01      4.986877000000000E-01     -1.234219000000000E+02      4.728088000000000E-01     -1.170820000000000E+02      1.284409000000000E-01     -1.626269000000000E+01
4838000000.000000      6.031799000000000E-01      1.320410000000000E+01      4.984283000000000E-01     -1.239336000000000E+02      4.717407000000000E-01     -1.181094000000000E+02      1.368942000000000E-01     -1.781445000000000E+01
4839000000.000000      6.056213000000000E-01      1.353076000000000E+01      4.983673000000000E-01     -1.248008000000000E+02      4.702759000000000E-01     -1.188633000000000E+02      1.456451000000000E-01     -1.925293000000000E+01
4840000000.000000      6.065674000000000E-01      1.337402000000000E+01      4.995117000000000E-01     -1.257031000000000E+02      4.698181000000000E-01     -1.197969000000000E+02      1.526184000000000E-01     -2.055176000000000E+01
4841000000.000000      6.068726000000000E-01      1.363379000000000E+01      4.978027000000000E-01     -1.266055000000000E+02      4.653778000000000E-01     -1.208203000000000E+02      1.602631000000000E-01     -2.147754000000000E+01
4842000000.000000      6.066589000000000E-01      1.366260000000000E+01      4.972534000000000E-01     -1.271719000000000E+02      4.632263000000000E-01     -1.216992000000000E+02      1.676788000000000E-01     -2.259961000000000E+01
4843000000.000000      6.088562000000000E-01      1.354443000000000E+01      4.967194000000000E-01     -1.282031000000000E+02      4.608612000000000E-01     -1.225781000000000E+02      1.740189000000000E-01     -2.379004000000000E+01
4844000000.000000      6.082458000000000E-01      1.365283000000000E+01      4.959259000000000E-01     -1.290469000000000E+02      4.592896000000000E-01     -1.235430000000000E+02      1.807022000000000E-01     -2.516308000000000E+01
4845000000.000000      6.091003000000000E-01      1.394971000000000E+01      4.937744000000000E-01     -1.297734000000000E+02      4.557343000000000E-01     -1.242305000000000E+02      1.879425000000000E-01     -2.619629000000000E+01
4846000000.000000      6.096191000000000E-01      1.388525000000000E+01      4.934540000000000E-01     -1.306953000000000E+02      4.532318000000000E-01     -1.249922000000000E+02      1.945343000000000E-01     -2.747168000000000E+01
4847000000.000000      6.125793000000000E-01      1.409912000000000E+01      4.922943000000000E-01     -1.314219000000000E+02      4.510193000000000E-01     -1.257969000000000E+02      2.009125000000000E-01     -2.889453000000000E+01
4848000000.000000      6.109619000000000E-01      1.416113000000000E+01      4.887695000000000E-01     -1.323516000000000E+02      4.469452000000000E-01     -1.269023000000000E+02      2.070694000000000E-01     -2.981348000000000E+01
4849000000.000000      6.124878000000000E-01      1.416943000000000E+01      4.885864000000000E-01     -1.331328000000000E+02      4.443359000000000E-01     -1.276563000000000E+02      2.132111000000000E-01     -3.097949000000000E+01
4850000000.000000      6.151428000000000E-01      1.421191000000000E+01      4.864044000000000E-01     -1.339219000000000E+02      4.402618000000000E-01     -1.283906000000000E+02      2.190475000000000E-01     -3.192383000000000E+01
4851000000.000000      6.150818000000000E-01      1.435889000000000E+01      4.854736000000000E-01     -1.349062000000000E+02      4.368439000000000E-01     -1.292187000000000E+02      2.258682000000000E-01     -3.328320000000000E+01
4852000000.000000      6.149292000000000E-01      1.435059000000000E+01      4.821167000000000E-01     -1.359062000000000E+02      4.347534000000000E-01     -1.299141000000000E+02      2.308807000000000E-01     -3.438867000000000E+01
4853000000.000000      6.180115000000000E-01      1.437793000000000E+01      4.793549000000000E-01     -1.366641000000000E+02      4.322357000000000E-01     -1.307266000000000E+02      2.366104000000000E-01     -3.566601000000000E+01
4854000000.000000      6.190491000000000E-01      1.437256000000000E+01      4.774628000000000E-01     -1.375469000000000E+02      4.288635000000000E-01     -1.315547000000000E+02      2.421112000000000E-01     -3.653125000000000E+01
4855000000.000000      6.180725000000000E-01      1.455664000000000E+01      4.761810000000000E-01     -1.383906000000000E+02      4.243317000000000E-01     -1.323281000000000E+02      2.461548000000000E-01     -3.780273000000000E+01
4856000000.000000      6.210022000000000E-01      1.437695000000000E+01      4.726868000000000E-01     -1.392266000000000E+02      4.216156000000000E-01     -1.329766000000000E+02      2.520294000000000E-01     -3.889453000000000E+01
4857000000.000000      6.226196000000000E-01      1.466943000000000E+01      4.718781000000000E-01     -1.400234000000000E+02      4.170227000000000E-01     -1.337500000000000E+02      2.563019000000000E-01     -4.013476000000000E+01
4858000000.000000      6.209717000000000E-01      1.454297000000000E+01      4.679871000000000E-01     -1.408672000000000E+02      4.151611000000000E-01     -1.344375000000000E+02      2.608795000000000E-01     -4.126758000000000E+01
4859000000.000000      6.233521000000000E-01      1.449756000000000E+01      4.661865000000000E-01     -1.419062000000000E+02      4.111786000000000E-01     -1.351016000000000E+02      2.662201000000000E-01     -4.237305000000000E+01
4860000000.000000      6.251831000000000E-01      1.463916000000000E+01      4.614105000000000E-01     -1.425156000000000E+02      4.069977000000000E-01     -1.357578000000000E+02      2.698669000000000E-01     -4.328906000000000E+01
4861000000.000000      6.252747000000000E-01      1.462549000000000E+01      4.584503000000000E-01     -1.433750000000000E+02      4.045715000000000E-01     -1.365000000000000E+02      2.740479000000000E-01     -4.454492000000000E+01
4862000000.000000      6.269531000000000E-01      1.460059000000000E+01      4.557037000000000E-01     -1.441328000000000E+02      4.005432000000000E-01     -1.372187000000000E+02      2.787781000000000E-01     -4.559766000000000E+01
4863000000.000000      6.310425000000000E-01      1.444385000000000E+01      4.511414000000000E-01     -1.450547000000000E+02      3.974457000000000E-01     -1.377734000000000E+02      2.829132000000000E-01     -4.660546000000000E+01
4864000000.000000      6.303711000000000E-01      1.450439000000000E+01      4.507294000000000E-01     -1.457891000000000E+02      3.933411000000000E-01     -1.384219000000000E+02      2.864380000000000E-01     -4.772851000000000E+01
4865000000.000000      6.304321000000000E-01      1.450977000000000E+01      4.443665000000000E-01     -1.464922000000000E+02      3.897552000000000E-01     -1.392734000000000E+02      2.900848000000000E-01     -4.866796000000000E+01
4866000000.000000      6.330261000000000E-01      1.441504000000000E+01      4.413910000000000E-01     -1.474375000000000E+02      3.867035000000000E-01     -1.397344000000000E+02      2.937469000000000E-01     -4.973827000000000E+01
4867000000.000000      6.320190000000000E-01      1.452246000000000E+01      4.375153000000000E-01     -1.483203000000000E+02      3.813324000000000E-01     -1.403047000000000E+02      2.972260000000000E-01     -5.075195000000000E+01
4868000000.000000      6.359253000000000E-01      1.447021000000000E+01      4.325867000000000E-01     -1.489531000000000E+02      3.791656000000000E-01     -1.410000000000000E+02      2.997284000000000E-01     -5.180078000000000E+01
4869000000.000000      6.362610000000000E-01      1.447852000000000E+01      4.288025000000000E-01     -1.498672000000000E+02      3.755188000000000E-01     -1.415547000000000E+02      3.029938000000000E-01     -5.310547000000000E+01
4870000000.000000      6.377869000000000E-01      1.434814000000000E+01      4.247894000000000E-01     -1.502344000000000E+02      3.720093000000000E-01     -1.422266000000000E+02      3.063049000000000E-01     -5.388672000000000E+01
4871000000.000000      6.395874000000000E-01      1.426025000000000E+01      4.213409000000000E-01     -1.512969000000000E+02      3.681793000000000E-01     -1.426094000000000E+02      3.086548000000000E-01     -5.501953000000000E+01
4872000000.000000      6.407166000000000E-01      1.444531000000000E+01      4.172211000000000E-01     -1.517969000000000E+02      3.647003000000000E-01     -1.434141000000000E+02      3.117371000000000E-01     -5.593750000000000E+01
4873000000.000000      6.415710000000000E-01      1.443164000000000E+01      4.119110000000000E-01     -1.525156000000000E+02      3.605652000000000E-01     -1.438594000000000E+02      3.137970000000000E-01     -5.716406000000000E+01
4874000000.000000      6.421814000000000E-01      1.424902000000000E+01      4.083862000000000E-01     -1.535078000000000E+02      3.577271000000000E-01     -1.446016000000000E+02      3.163757000000000E-01     -5.797656000000000E+01
4875000000.000000      6.422729000000000E-01      1.425879000000000E+01      4.024658000000000E-01     -1.536797000000000E+02      3.539886000000000E-01     -1.449531000000000E+02      3.191376000000000E-01     -5.907031000000000E+01
4876000000.000000      6.450195000000000E-01      1.423242000000000E+01      3.997345000000000E-01     -1.545469000000000E+02      3.507233000000000E-01     -1.454141000000000E+02      3.218689000000000E-01     -6.031250000000000E+01
4877000000.000000      6.479492000000000E-01      1.388916000000000E+01      3.937225000000000E-01     -1.554609000000000E+02      3.477631000000000E-01     -1.461094000000000E+02      3.232117000000000E-01     -6.121875000000000E+01
4878000000.000000      6.479797000000000E-01      1.415820000000000E+01      3.899078000000000E-01     -1.559766000000000E+02      3.436737000000000E-01     -1.465312000000000E+02      3.254395000000000E-01     -6.223827000000000E+01
4879000000.000000      6.495972000000000E-01      1.421631000000000E+01      3.843231000000000E-01     -1.564297000000000E+02      3.400726000000000E-01     -1.471172000000000E+02      3.271637000000000E-01     -6.320313000000000E+01
4880000000.000000      6.522522000000000E-01      1.398926000000000E+01      3.816071000000000E-01     -1.568281000000000E+02      3.371582000000000E-01     -1.475937000000000E+02      3.289032000000000E-01     -6.422656000000000E+01
4881000000.000000      6.529541000000000E-01      1.382764000000000E+01      3.768616000000000E-01     -1.576015000000000E+02      3.335571000000000E-01     -1.480391000000000E+02      3.302460000000000E-01     -6.523438000000000E+01
4882000000.000000      6.548767000000000E-01      1.387158000000000E+01      3.722687000000000E-01     -1.582187000000000E+02      3.293762000000000E-01     -1.484609000000000E+02      3.316040000000000E-01     -6.623047000000000E+01
