! Network Analyzer HP8722D
! Hewlett-Packard
! Data name: Linha & Wilkinson
! Saver's name: Rodrigo Anjos
! Comments: Teste da utilização de aquisição
continua pelo VNA HP8722D
! Time and date: 8/5/2025 13:53
!              Frequency                     S11                                                   S21                                                   S12                                                   S22
# HZ  S  MA R 50
4800000000.000000      5.344543000000000E-01     -2.540234000000000E+01      3.655090000000000E-01     -1.491562000000000E+02      3.835297000000000E-01      1.038867000000000E+01      5.018311000000000E-01      1.366394000000000E+00
4801000000.000000      5.313416000000000E-01     -2.503125000000000E+01      3.692474000000000E-01     -1.493594000000000E+02      3.866577000000000E-01      1.003711000000000E+01      4.979706000000000E-01      1.337585000000000E+00
4802000000.000000      5.322266000000000E-01     -2.462109000000000E+01      3.731384000000000E-01     -1.497813000000000E+02      3.898926000000000E-01      9.928711000000000E+00      4.934692000000000E-01      1.719360000000000E+00
4803000000.000000      5.296326000000000E-01     -2.463769000000000E+01      3.782501000000000E-01     -1.502109000000000E+02      3.955078000000000E-01      9.934082000000000E+00      4.877930000000000E-01      1.569641000000000E+00
4804000000.000000      5.290833000000000E-01     -2.408691000000000E+01      3.817291000000000E-01     -1.505469000000000E+02      3.984375000000000E-01      9.641602000000000E+00      4.801636000000000E-01      1.766052000000000E+00
4805000000.000000      5.286255000000000E-01     -2.415234000000000E+01      3.853607000000000E-01     -1.510547000000000E+02      4.008636000000000E-01      9.596191000000000E+00      4.722137000000000E-01      1.702881000000000E+00
4806000000.000000      5.278625000000000E-01     -2.365039000000000E+01      3.891296000000000E-01     -1.514219000000000E+02      4.065094000000000E-01      9.549805000000000E+00      4.662170000000000E-01      1.582031000000000E+00
4807000000.000000      5.237427000000000E-01     -2.367578000000000E+01      3.921356000000000E-01     -1.519063000000000E+02      4.108276000000000E-01      9.283203000000000E+00      4.588318000000000E-01      2.015991000000000E+00
4808000000.000000      5.223389000000000E-01     -2.325000000000000E+01      3.969269000000000E-01     -1.521641000000000E+02      4.127960000000000E-01      9.063477000000000E+00      4.523621000000000E-01      2.227417000000000E+00
4809000000.000000      5.239868000000000E-01     -2.310059000000000E+01      4.009705000000000E-01     -1.527891000000000E+02      4.175720000000000E-01      8.777832000000000E+00      4.450531000000000E-01      2.499390000000000E+00
4810000000.000000      5.222778000000000E-01     -2.283301000000000E+01      4.049683000000000E-01     -1.530625000000000E+02      4.210815000000000E-01      8.830078000000000E+00      4.378357000000000E-01      2.427979000000000E+00
4811000000.000000      5.226135000000000E-01     -2.276269000000000E+01      4.089661000000000E-01     -1.535000000000000E+02      4.253082000000000E-01      8.761230000000000E+00      4.306641000000000E-01      2.804199000000000E+00
4812000000.000000      5.205078000000000E-01     -2.234277000000000E+01      4.120941000000000E-01     -1.539844000000000E+02      4.289246000000000E-01      8.468750000000000E+00      4.226379000000000E-01      2.752075000000000E+00
4813000000.000000      5.174255000000000E-01     -2.241699000000000E+01      4.156342000000000E-01     -1.544375000000000E+02      4.326324000000000E-01      8.280762000000000E+00      4.155273000000000E-01      3.190063000000000E+00
4814000000.000000      5.171204000000000E-01     -2.196094000000000E+01      4.189148000000000E-01     -1.548984000000000E+02      4.361115000000000E-01      8.108887000000000E+00      4.070740000000000E-01      3.235474000000000E+00
4815000000.000000      5.160828000000000E-01     -2.178906000000000E+01      4.222565000000000E-01     -1.553437000000000E+02      4.391632000000000E-01      8.100586000000000E+00      3.996124000000000E-01      3.603516000000000E+00
4816000000.000000      5.133972000000000E-01     -2.163965000000000E+01      4.257050000000000E-01     -1.557188000000000E+02      4.428864000000000E-01      7.985596000000000E+00      3.917999000000000E-01      3.824585000000000E+00
4817000000.000000      5.137634000000000E-01     -2.127832000000000E+01      4.283447000000000E-01     -1.561641000000000E+02      4.469299000000000E-01      7.793213000000000E+00      3.818207000000000E-01      4.255615000000000E+00
4818000000.000000      5.122986000000000E-01     -2.135937000000000E+01      4.311218000000000E-01     -1.566406000000000E+02      4.499207000000000E-01      7.823486000000000E+00      3.723602000000000E-01      4.478271000000000E+00
4819000000.000000      5.100403000000000E-01     -2.108203000000000E+01      4.345703000000000E-01     -1.571640000000000E+02      4.536133000000000E-01      7.595459000000000E+00      3.634186000000000E-01      4.572998000000000E+00
4820000000.000000      5.087280000000000E-01     -2.062207000000000E+01      4.378662000000000E-01     -1.574531000000000E+02      4.568634000000000E-01      7.425293000000000E+00      3.555298000000000E-01      5.130615000000000E+00
4821000000.000000      5.075073000000000E-01     -2.072363000000000E+01      4.407196000000000E-01     -1.580703000000000E+02      4.599152000000000E-01      7.207031000000000E+00      3.459015000000000E-01      5.627686000000000E+00
4822000000.000000      5.052795000000000E-01     -2.056152000000000E+01      4.424286000000000E-01     -1.584609000000000E+02      4.627533000000000E-01      7.109375000000000E+00      3.378448000000000E-01      5.795166000000000E+00
4823000000.000000      5.032043000000000E-01     -2.074512000000000E+01      4.458923000000000E-01     -1.589609000000000E+02      4.656982000000000E-01      6.913086000000000E+00      3.285065000000000E-01      6.260742000000000E+00
4824000000.000000      5.004578000000000E-01     -2.037500000000000E+01      4.483185000000000E-01     -1.594453000000000E+02      4.685211000000000E-01      6.701660000000000E+00      3.178864000000000E-01      6.713867000000000E+00
4825000000.000000      5.008545000000000E-01     -2.032813000000000E+01      4.508514000000000E-01     -1.599453000000000E+02      4.726410000000000E-01      6.535400000000000E+00      3.106689000000000E-01      7.341553000000000E+00
4826000000.000000      4.992065000000000E-01     -2.028711000000000E+01      4.537659000000000E-01     -1.604375000000000E+02      4.754486000000000E-01      6.685059000000000E+00      3.005371000000000E-01      7.884033000000000E+00
4827000000.000000      4.993896000000000E-01     -1.988281000000000E+01      4.555969000000000E-01     -1.608125000000000E+02      4.772034000000000E-01      6.240234000000000E+00      2.919312000000000E-01      8.520996000000000E+00
4828000000.000000      4.979553000000000E-01     -1.980859000000000E+01      4.588623000000000E-01     -1.613047000000000E+02      4.811249000000000E-01      6.222168000000000E+00      2.819824000000000E-01      9.081543000000000E+00
4829000000.000000      4.947052000000000E-01     -1.945996000000000E+01      4.605713000000000E-01     -1.617031000000000E+02      4.851532000000000E-01      6.101318000000000E+00      2.741394000000000E-01      1.021582000000000E+01
4830000000.000000      4.943237000000000E-01     -1.965918000000000E+01      4.630280000000000E-01     -1.622734000000000E+02      4.882507000000000E-01      5.878906000000000E+00      2.629547000000000E-01      1.107422000000000E+01
4831000000.000000      4.919739000000000E-01     -1.931543000000000E+01      4.652252000000000E-01     -1.627891000000000E+02      4.902344000000000E-01      5.898193000000000E+00      2.543182000000000E-01      1.180859000000000E+01
4832000000.000000      4.902039000000000E-01     -1.907031000000000E+01      4.666901000000000E-01     -1.630391000000000E+02      4.923706000000000E-01      5.648193000000000E+00      2.432785000000000E-01      1.317773000000000E+01
4833000000.000000      4.881287000000000E-01     -1.906445000000000E+01      4.683075000000000E-01     -1.635469000000000E+02      4.961700000000000E-01      5.152588000000000E+00      2.346191000000000E-01      1.419141000000000E+01
4834000000.000000      4.846802000000000E-01     -1.893555000000000E+01      4.704285000000000E-01     -1.640000000000000E+02      4.996643000000000E-01      5.228027000000000E+00      2.260590000000000E-01      1.562354000000000E+01
4835000000.000000      4.853516000000000E-01     -1.881640000000000E+01      4.724731000000000E-01     -1.644844000000000E+02      5.030823000000000E-01      4.993164000000000E+00      2.171021000000000E-01      1.677441000000000E+01
4836000000.000000      4.837646000000000E-01     -1.833105000000000E+01      4.728546000000000E-01     -1.649375000000000E+02      5.041504000000000E-01      5.140137000000000E+00      2.079620000000000E-01      1.862988000000000E+01
4837000000.000000      4.826202000000000E-01     -1.826074000000000E+01      4.746094000000000E-01     -1.655156000000000E+02      5.063171000000000E-01      4.868164000000000E+00      1.996994000000000E-01      2.046289000000000E+01
4838000000.000000      4.755402000000000E-01     -1.835840000000000E+01      4.772491000000000E-01     -1.656406000000000E+02      5.091858000000000E-01      4.760986000000000E+00      1.908112000000000E-01      2.223828000000000E+01
4839000000.000000      4.806671000000000E-01     -1.798340000000000E+01      4.781647000000000E-01     -1.662422000000000E+02      5.130310000000000E-01      4.551025000000000E+00      1.834412000000000E-01      2.405371000000000E+01
4840000000.000000      4.779663000000000E-01     -1.795898000000000E+01      4.803925000000000E-01     -1.666328000000000E+02      5.149536000000000E-01      4.384766000000000E+00      1.755371000000000E-01      2.640332000000000E+01
4841000000.000000      4.748993000000000E-01     -1.776367000000000E+01      4.821167000000000E-01     -1.671172000000000E+02      5.171509000000000E-01      4.206299000000000E+00      1.678467000000000E-01      2.916797000000000E+01
4842000000.000000      4.748840000000000E-01     -1.765820000000000E+01      4.830017000000000E-01     -1.674375000000000E+02      5.182495000000000E-01      4.034668000000000E+00      1.612167000000000E-01      3.228125000000000E+01
4843000000.000000      4.739532000000000E-01     -1.740234000000000E+01      4.851532000000000E-01     -1.681015000000000E+02      5.232849000000000E-01      3.841064000000000E+00      1.549225000000000E-01      3.535156000000000E+01
4844000000.000000      4.719391000000000E-01     -1.742480000000000E+01      4.853058000000000E-01     -1.684375000000000E+02      5.232544000000000E-01      3.738037000000000E+00      1.477661000000000E-01      3.856054000000000E+01
4845000000.000000      4.683685000000000E-01     -1.687500000000000E+01      4.864502000000000E-01     -1.687500000000000E+02      5.274048000000000E-01      3.519653000000000E+00      1.437988000000000E-01      4.215820000000000E+01
4846000000.000000      4.682312000000000E-01     -1.681055000000000E+01      4.881134000000000E-01     -1.690312000000000E+02      5.285645000000000E-01      3.415283000000000E+00      1.385574000000000E-01      4.621094000000000E+01
4847000000.000000      4.675293000000000E-01     -1.649902000000000E+01      4.891052000000000E-01     -1.694687000000000E+02      5.308533000000000E-01      3.249146000000000E+00      1.343918000000000E-01      5.029101000000000E+01
4848000000.000000      4.664154000000000E-01     -1.620898000000000E+01      4.891815000000000E-01     -1.698828000000000E+02      5.320129000000000E-01      2.892090000000000E+00      1.319504000000000E-01      5.464453000000000E+01
4849000000.000000      4.633026000000000E-01     -1.602148000000000E+01      4.908142000000000E-01     -1.702734000000000E+02      5.350647000000000E-01      2.640747000000000E+00      1.301422000000000E-01      5.916797000000000E+01
4850000000.000000      4.625397000000000E-01     -1.576709000000000E+01      4.916840000000000E-01     -1.707031000000000E+02      5.360107000000000E-01      2.620239000000000E+00      1.300659000000000E-01      6.367382000000000E+01
4851000000.000000      4.641876000000000E-01     -1.552930000000000E+01      4.930267000000000E-01     -1.710312000000000E+02      5.372314000000000E-01      2.463623000000000E+00      1.301498000000000E-01      6.796875000000000E+01
4852000000.000000      4.627380000000000E-01     -1.493359000000000E+01      4.934082000000000E-01     -1.713906000000000E+02      5.390320000000000E-01      2.500732000000000E+00      1.306686000000000E-01      7.224999000000000E+01
4853000000.000000      4.609375000000000E-01     -1.504883000000000E+01      4.934540000000000E-01     -1.718203000000000E+02      5.416260000000000E-01      2.165649000000000E+00      1.321869000000000E-01      7.636719000000000E+01
4854000000.000000      4.617157000000000E-01     -1.452539000000000E+01      4.949493000000000E-01     -1.722969000000000E+02      5.432434000000000E-01      2.069458000000000E+00      1.357880000000000E-01      8.039063000000000E+01
4855000000.000000      4.588165000000000E-01     -1.447998000000000E+01      4.960480000000000E-01     -1.725937000000000E+02      5.440674000000000E-01      1.803101000000000E+00      1.378632000000000E-01      8.487108000000000E+01
4856000000.000000      4.598236000000000E-01     -1.409717000000000E+01      4.963989000000000E-01     -1.728125000000000E+02      5.449524000000000E-01      1.652039000000000E+00      1.427917000000000E-01      8.866405000000000E+01
4857000000.000000      4.606018000000000E-01     -1.397754000000000E+01      4.989777000000000E-01     -1.731484000000000E+02      5.465393000000000E-01      1.521606000000000E+00      1.461411000000000E-01      9.194530000000000E+01
4858000000.000000      4.586334000000000E-01     -1.350391000000000E+01      4.990540000000000E-01     -1.736562000000000E+02      5.472717000000000E-01      1.322449000000000E+00      1.506729000000000E-01      9.505859000000000E+01
4859000000.000000      4.596405000000000E-01     -1.313184000000000E+01      5.001221000000000E-01     -1.740547000000000E+02      5.487671000000000E-01      1.274414000000000E+00      1.564178000000000E-01      9.775000000000000E+01
4860000000.000000      4.590454000000000E-01     -1.296973000000000E+01      4.991302000000000E-01     -1.741641000000000E+02      5.479431000000000E-01      1.036804000000000E+00      1.626816000000000E-01      9.987890000000000E+01
4861000000.000000      4.601288000000000E-01     -1.273486000000000E+01      5.007935000000000E-01     -1.746172000000000E+02      5.509644000000000E-01      9.173584000000000E-01      1.680527000000000E-01      1.027148000000000E+02
4862000000.000000      4.603424000000000E-01     -1.254541000000000E+01      5.021057000000000E-01     -1.746797000000000E+02      5.509338000000000E-01      8.569336000000000E-01      1.767120000000000E-01      1.038984000000000E+02
4863000000.000000      4.615326000000000E-01     -1.214307000000000E+01      5.019836000000000E-01     -1.754531000000000E+02      5.504150000000000E-01      6.385803000000000E-01      1.800766000000000E-01      1.056133000000000E+02
4864000000.000000      4.639740000000000E-01     -1.180078000000000E+01      5.010376000000000E-01     -1.756016000000000E+02      5.507813000000000E-01      4.985046000000000E-01      1.875992000000000E-01      1.083945000000000E+02
4865000000.000000      4.630127000000000E-01     -1.162354000000000E+01      5.043945000000000E-01     -1.758750000000000E+02      5.531311000000000E-01      4.202271000000000E-01      1.931915000000000E-01      1.097969000000000E+02
4866000000.000000      4.661407000000000E-01     -1.129150000000000E+01      5.039368000000000E-01     -1.763594000000000E+02      5.518494000000000E-01      2.252197000000000E-01      2.008133000000000E-01      1.104336000000000E+02
4867000000.000000      4.637146000000000E-01     -1.115430000000000E+01      5.056458000000000E-01     -1.766484000000000E+02      5.523071000000000E-01      2.636719000000000E-01      2.059174000000000E-01      1.117773000000000E+02
4868000000.000000      4.667206000000000E-01     -1.068311000000000E+01      5.058289000000000E-01     -1.771641000000000E+02      5.532227000000000E-01      5.355835000000000E-02      2.129059000000000E-01      1.128984000000000E+02
4869000000.000000      4.683228000000000E-01     -1.060205000000000E+01      5.062561000000000E-01     -1.774062000000000E+02      5.530701000000000E-01     -9.201050000000000E-02      2.187424000000000E-01      1.141758000000000E+02
4870000000.000000      4.698944000000000E-01     -1.026709000000000E+01      5.069885000000000E-01     -1.774922000000000E+02      5.539551000000000E-01     -1.675415000000000E-01      2.248611000000000E-01      1.154531000000000E+02
4871000000.000000      4.726105000000000E-01     -1.016650000000000E+01      5.077820000000000E-01     -1.780547000000000E+02      5.536804000000000E-01     -2.183533000000000E-01      2.313461000000000E-01      1.158906000000000E+02
4872000000.000000      4.759216000000000E-01     -9.880859000000000E+00      5.096436000000000E-01     -1.783594000000000E+02      5.523682000000000E-01     -5.094910000000000E-01      2.377625000000000E-01      1.163672000000000E+02
4873000000.000000      4.765930000000000E-01     -9.486816000000000E+00      5.092468000000000E-01     -1.787031000000000E+02      5.519104000000000E-01     -4.943848000000000E-01      2.436676000000000E-01      1.170039000000000E+02
4874000000.000000      4.796906000000000E-01     -9.416992000000000E+00      5.103149000000000E-01     -1.791406000000000E+02      5.529785000000000E-01     -6.550598000000000E-01      2.476959000000000E-01      1.175000000000000E+02
4875000000.000000      4.798279000000000E-01     -9.270020000000000E+00      5.123291000000000E-01     -1.794844000000000E+02      5.529785000000000E-01     -5.218506000000000E-01      2.536774000000000E-01      1.179531000000000E+02
4876000000.000000      4.840698000000000E-01     -8.744141000000000E+00      5.129395000000000E-01     -1.798828000000000E+02      5.527954000000000E-01     -8.157349000000000E-01      2.592773000000000E-01      1.186367000000000E+02
4877000000.000000      4.862061000000000E-01     -8.819336000000000E+00      5.140991000000000E-01      1.795469000000000E+02      5.532532000000000E-01     -6.536865000000000E-01      2.641907000000000E-01      1.193320000000000E+02
4878000000.000000      4.892731000000000E-01     -8.627441000000000E+00      5.154114000000000E-01      1.793672000000000E+02      5.517883000000000E-01     -8.555603000000000E-01      2.697296000000000E-01      1.192656000000000E+02
4879000000.000000      4.936829000000000E-01     -8.521484000000000E+00      5.135803000000000E-01      1.791016000000000E+02      5.526123000000000E-01     -9.022522000000000E-01      2.741547000000000E-01      1.193789000000000E+02
4880000000.000000      4.961700000000000E-01     -8.182129000000000E+00      5.165405000000000E-01      1.785703000000000E+02      5.511780000000000E-01     -1.031372000000000E+00      2.788849000000000E-01      1.201328000000000E+02
4881000000.000000      4.986267000000000E-01     -8.193359000000000E+00      5.154114000000000E-01      1.781719000000000E+02      5.510864000000000E-01     -9.297180000000000E-01      2.843475000000000E-01      1.198476000000000E+02
4882000000.000000      5.014954000000000E-01     -7.801758000000000E+00      5.168762000000000E-01      1.777422000000000E+02      5.509338000000000E-01     -1.120605000000000E+00      2.876434000000000E-01      1.204766000000000E+02
