! Network Analyzer HP8722D
! Hewlett-Packard
! Data name: Linha & Wilkinson
! Saver's name: Rodrigo Anjos
! Comments: Teste da utilização de aquisição
continua pelo VNA HP8722D
! Time and date: 8/5/2025 16:04
!              Frequency                     S11                                                   S21                                                   S12                                                   S22
# HZ  S  MA R 50
4800000000.000000      8.992310000000000E-01      1.157734000000000E+02      3.227386000000000E-01     -1.706094000000000E+02      2.588043000000000E-01     -8.621874000000000E+01      9.814758000000000E-01     -4.793945000000000E+01
4801000000.000000      8.984375000000000E-01      1.159219000000000E+02      3.224945000000000E-01     -1.706484000000000E+02      2.587280000000000E-01     -8.619141000000000E+01      9.761658000000000E-01     -4.796875000000000E+01
4802000000.000000      8.958130000000000E-01      1.162500000000000E+02      3.222046000000000E-01     -1.703906000000000E+02      2.593231000000000E-01     -8.596874000000000E+01      9.721375000000000E-01     -4.796679000000000E+01
4803000000.000000      8.936462000000000E-01      1.163711000000000E+02      3.234253000000000E-01     -1.704375000000000E+02      2.586365000000000E-01     -8.583984000000000E+01      9.660950000000000E-01     -4.812109000000000E+01
4804000000.000000      8.922119000000000E-01      1.167578000000000E+02      3.232880000000000E-01     -1.703672000000000E+02      2.592773000000000E-01     -8.578125000000000E+01      9.607849000000000E-01     -4.821094000000000E+01
4805000000.000000      8.931274000000000E-01      1.168984000000000E+02      3.233490000000000E-01     -1.704687000000000E+02      2.587280000000000E-01     -8.541796000000000E+01      9.572754000000000E-01     -4.812109000000000E+01
4806000000.000000      8.926086000000000E-01      1.172617000000000E+02      3.243713000000000E-01     -1.703281000000000E+02      2.574921000000000E-01     -8.524609000000000E+01      9.502258000000000E-01     -4.832421000000000E+01
4807000000.000000      8.892517000000000E-01      1.173750000000000E+02      3.246918000000000E-01     -1.704453000000000E+02      2.585907000000000E-01     -8.505077000000000E+01      9.440308000000000E-01     -4.826172000000000E+01
4808000000.000000      8.838806000000000E-01      1.175820000000000E+02      3.256531000000000E-01     -1.703828000000000E+02      2.586212000000000E-01     -8.478125000000000E+01      9.384460000000000E-01     -4.838281000000000E+01
4809000000.000000      8.841553000000000E-01      1.179922000000000E+02      3.257446000000000E-01     -1.705391000000000E+02      2.591248000000000E-01     -8.468359000000000E+01      9.332886000000000E-01     -4.845117000000000E+01
4810000000.000000      8.805237000000000E-01      1.181367000000000E+02      3.266449000000000E-01     -1.703516000000000E+02      2.586975000000000E-01     -8.439844000000000E+01      9.284973000000000E-01     -4.858593000000000E+01
4811000000.000000      8.776550000000000E-01      1.183867000000000E+02      3.269196000000000E-01     -1.703828000000000E+02      2.594910000000000E-01     -8.410547000000000E+01      9.223633000000000E-01     -4.851367000000000E+01
4812000000.000000      8.778381000000000E-01      1.187148000000000E+02      3.269501000000000E-01     -1.704531000000000E+02      2.589417000000000E-01     -8.384766000000000E+01      9.170837000000000E-01     -4.866015000000000E+01
4813000000.000000      8.717957000000000E-01      1.190391000000000E+02      3.277283000000000E-01     -1.704219000000000E+02      2.589264000000000E-01     -8.366014000000000E+01      9.115906000000000E-01     -4.870898000000000E+01
4814000000.000000      8.692017000000000E-01      1.191406000000000E+02      3.283844000000000E-01     -1.704375000000000E+02      2.587891000000000E-01     -8.337109000000000E+01      9.064331000000000E-01     -4.882813000000000E+01
4815000000.000000      8.667908000000000E-01      1.194414000000000E+02      3.287354000000000E-01     -1.704922000000000E+02      2.590485000000000E-01     -8.309765000000000E+01      9.018860000000000E-01     -4.868359000000000E+01
4816000000.000000      8.675232000000000E-01      1.196719000000000E+02      3.306122000000000E-01     -1.705000000000000E+02      2.595367000000000E-01     -8.286718000000000E+01      8.963318000000000E-01     -4.885937000000000E+01
4817000000.000000      8.596802000000000E-01      1.198516000000000E+02      3.303375000000000E-01     -1.705937000000000E+02      2.587433000000000E-01     -8.253906000000000E+01      8.909912000000000E-01     -4.889843000000000E+01
4818000000.000000      8.583374000000000E-01      1.200898000000000E+02      3.312683000000000E-01     -1.706563000000000E+02      2.593079000000000E-01     -8.222656000000000E+01      8.841553000000000E-01     -4.887500000000000E+01
4819000000.000000      8.577271000000000E-01      1.204219000000000E+02      3.317871000000000E-01     -1.706953000000000E+02      2.582550000000000E-01     -8.197657000000000E+01      8.786316000000000E-01     -4.914844000000000E+01
4820000000.000000      8.509521000000000E-01      1.205586000000000E+02      3.320160000000000E-01     -1.707813000000000E+02      2.589569000000000E-01     -8.164454000000000E+01      8.748169000000000E-01     -4.908008000000000E+01
4821000000.000000      8.514404000000000E-01      1.206367000000000E+02      3.333893000000000E-01     -1.708750000000000E+02      2.589722000000000E-01     -8.146093000000000E+01      8.701782000000000E-01     -4.912890000000000E+01
4822000000.000000      8.466187000000000E-01      1.207344000000000E+02      3.335724000000000E-01     -1.711719000000000E+02      2.581482000000000E-01     -8.121874000000000E+01      8.645020000000000E-01     -4.926367000000000E+01
4823000000.000000      8.405762000000000E-01      1.210469000000000E+02      3.347778000000000E-01     -1.711641000000000E+02      2.587128000000000E-01     -8.065233000000000E+01      8.591309000000000E-01     -4.923437000000000E+01
4824000000.000000      8.406067000000000E-01      1.212617000000000E+02      3.348694000000000E-01     -1.713359000000000E+02      2.585907000000000E-01     -8.042187000000000E+01      8.542480000000000E-01     -4.934375000000000E+01
4825000000.000000      8.348389000000000E-01      1.212070000000000E+02      3.356476000000000E-01     -1.714609000000000E+02      2.591553000000000E-01     -8.018749000000000E+01      8.498535000000000E-01     -4.944530000000000E+01
4826000000.000000      8.309326000000000E-01      1.214375000000000E+02      3.368073000000000E-01     -1.717031000000000E+02      2.584991000000000E-01     -7.992188000000000E+01      8.444519000000000E-01     -4.954883000000000E+01
4827000000.000000      8.276672000000000E-01      1.216602000000000E+02      3.365479000000000E-01     -1.716172000000000E+02      2.583160000000000E-01     -7.951562000000000E+01      8.401184000000000E-01     -4.957421000000000E+01
4828000000.000000      8.244324000000000E-01      1.216719000000000E+02      3.381348000000000E-01     -1.719297000000000E+02      2.578278000000000E-01     -7.928515000000000E+01      8.354797000000000E-01     -4.976367000000000E+01
4829000000.000000      8.178406000000000E-01      1.221172000000000E+02      3.375244000000000E-01     -1.719844000000000E+02      2.589569000000000E-01     -7.889453000000000E+01      8.324890000000000E-01     -4.960938000000000E+01
4830000000.000000      8.157349000000000E-01      1.220586000000000E+02      3.383942000000000E-01     -1.722109000000000E+02      2.585144000000000E-01     -7.846874000000000E+01      8.258972000000000E-01     -4.976367000000000E+01
4831000000.000000      8.095093000000000E-01      1.220703000000000E+02      3.390961000000000E-01     -1.724375000000000E+02      2.589569000000000E-01     -7.812890000000000E+01      8.217773000000000E-01     -4.980078000000000E+01
4832000000.000000      8.068237000000000E-01      1.221680000000000E+02      3.392029000000000E-01     -1.726641000000000E+02      2.581787000000000E-01     -7.774219000000000E+01      8.171387000000000E-01     -4.986328000000000E+01
4833000000.000000      8.014526000000000E-01      1.221797000000000E+02      3.398743000000000E-01     -1.727500000000000E+02      2.584991000000000E-01     -7.746484000000000E+01      8.123169000000000E-01     -5.002930000000000E+01
4834000000.000000      7.977600000000000E-01      1.223242000000000E+02      3.399811000000000E-01     -1.730625000000000E+02      2.590027000000000E-01     -7.714844000000000E+01      8.085938000000000E-01     -4.997851000000000E+01
4835000000.000000      7.926636000000000E-01      1.223828000000000E+02      3.402252000000000E-01     -1.733438000000000E+02      2.592926000000000E-01     -7.679688000000000E+01      8.039856000000000E-01     -5.018164000000000E+01
4836000000.000000      7.877808000000000E-01      1.223945000000000E+02      3.399353000000000E-01     -1.735234000000000E+02      2.595825000000000E-01     -7.643359000000000E+01      8.007813000000000E-01     -5.014453000000000E+01
4837000000.000000      7.828674000000000E-01      1.225547000000000E+02      3.400726000000000E-01     -1.739609000000000E+02      2.596436000000000E-01     -7.614843000000000E+01      7.979126000000000E-01     -5.016015000000000E+01
4838000000.000000      7.760925000000000E-01      1.224531000000000E+02      3.402557000000000E-01     -1.739453000000000E+02      2.594452000000000E-01     -7.567968000000000E+01      7.933350000000000E-01     -5.026562000000000E+01
4839000000.000000      7.749023000000000E-01      1.225742000000000E+02      3.401947000000000E-01     -1.741641000000000E+02      2.595215000000000E-01     -7.562500000000000E+01      7.893677000000000E-01     -5.038086000000000E+01
4840000000.000000      7.666321000000000E-01      1.226641000000000E+02      3.405151000000000E-01     -1.742578000000000E+02      2.599335000000000E-01     -7.505468000000000E+01      7.855530000000000E-01     -5.041406000000000E+01
4841000000.000000      7.616882000000000E-01      1.225430000000000E+02      3.403931000000000E-01     -1.747344000000000E+02      2.603455000000000E-01     -7.480859000000000E+01      7.823486000000000E-01     -5.048242000000000E+01
4842000000.000000      7.563477000000000E-01      1.226367000000000E+02      3.400269000000000E-01     -1.749063000000000E+02      2.603760000000000E-01     -7.451172000000000E+01      7.798767000000000E-01     -5.048633000000000E+01
4843000000.000000      7.513123000000000E-01      1.225195000000000E+02      3.404083000000000E-01     -1.751406000000000E+02      2.605743000000000E-01     -7.423046000000000E+01      7.756042000000000E-01     -5.052929000000000E+01
4844000000.000000      7.433472000000000E-01      1.226094000000000E+02      3.391571000000000E-01     -1.753515000000000E+02      2.602539000000000E-01     -7.373047000000000E+01      7.721558000000000E-01     -5.067773000000000E+01
4845000000.000000      7.391357000000000E-01      1.224062000000000E+02      3.388367000000000E-01     -1.756953000000000E+02      2.613220000000000E-01     -7.345703000000000E+01      7.683411000000000E-01     -5.064062000000000E+01
4846000000.000000      7.333984000000000E-01      1.224570000000000E+02      3.387604000000000E-01     -1.758437000000000E+02      2.617188000000000E-01     -7.314843000000000E+01      7.658081000000000E-01     -5.074804000000000E+01
4847000000.000000      7.263489000000000E-01      1.223516000000000E+02      3.381042000000000E-01     -1.761016000000000E+02      2.619019000000000E-01     -7.280859000000000E+01      7.624207000000000E-01     -5.087109000000000E+01
4848000000.000000      7.212830000000000E-01      1.221836000000000E+02      3.376465000000000E-01     -1.764453000000000E+02      2.620850000000000E-01     -7.251953000000000E+01      7.580872000000000E-01     -5.095898000000000E+01
4849000000.000000      7.148438000000000E-01      1.220820000000000E+02      3.371887000000000E-01     -1.765781000000000E+02      2.626648000000000E-01     -7.213672000000000E+01      7.556152000000000E-01     -5.085155000000000E+01
4850000000.000000      7.106323000000000E-01      1.218516000000000E+02      3.367920000000000E-01     -1.770078000000000E+02      2.628174000000000E-01     -7.186328000000000E+01      7.525635000000000E-01     -5.099414000000000E+01
4851000000.000000      7.059631000000000E-01      1.219297000000000E+02      3.368988000000000E-01     -1.772344000000000E+02      2.631989000000000E-01     -7.165234000000000E+01      7.512207000000000E-01     -5.102929000000000E+01
4852000000.000000      6.983948000000000E-01      1.216602000000000E+02      3.353119000000000E-01     -1.775000000000000E+02      2.638245000000000E-01     -7.124609000000000E+01      7.480774000000000E-01     -5.109570000000000E+01
4853000000.000000      6.923218000000000E-01      1.216797000000000E+02      3.337555000000000E-01     -1.776953000000000E+02      2.642212000000000E-01     -7.108203000000000E+01      7.450562000000000E-01     -5.126171000000000E+01
4854000000.000000      6.871948000000000E-01      1.212734000000000E+02      3.340454000000000E-01     -1.778750000000000E+02      2.640991000000000E-01     -7.085155000000000E+01      7.434692000000000E-01     -5.124609000000000E+01
4855000000.000000      6.799011000000000E-01      1.211328000000000E+02      3.332062000000000E-01     -1.782187000000000E+02      2.646027000000000E-01     -7.042969000000000E+01      7.382202000000000E-01     -5.129687000000000E+01
4856000000.000000      6.737061000000000E-01      1.209336000000000E+02      3.319855000000000E-01     -1.783828000000000E+02      2.649689000000000E-01     -7.018359000000000E+01      7.359009000000000E-01     -5.136913000000000E+01
4857000000.000000      6.681213000000000E-01      1.208047000000000E+02      3.318329000000000E-01     -1.786250000000000E+02      2.649536000000000E-01     -6.991015000000000E+01      7.328491000000000E-01     -5.144921000000000E+01
4858000000.000000      6.593323000000000E-01      1.204883000000000E+02      3.302307000000000E-01     -1.788203000000000E+02      2.655334000000000E-01     -6.967187000000000E+01      7.301025000000000E-01     -5.152929000000000E+01
4859000000.000000      6.555481000000000E-01      1.201563000000000E+02      3.295898000000000E-01     -1.790859000000000E+02      2.660522000000000E-01     -6.953125000000000E+01      7.304688000000000E-01     -5.164844000000000E+01
4860000000.000000      6.495361000000000E-01      1.198125000000000E+02      3.283081000000000E-01     -1.792812000000000E+02      2.660217000000000E-01     -6.921875000000000E+01      7.257690000000000E-01     -5.146874000000000E+01
4861000000.000000      6.436462000000000E-01      1.195859000000000E+02      3.276825000000000E-01     -1.796250000000000E+02      2.664948000000000E-01     -6.898828000000000E+01      7.229309000000000E-01     -5.164453000000000E+01
4862000000.000000      6.362915000000000E-01      1.193594000000000E+02      3.269958000000000E-01     -1.796875000000000E+02      2.672577000000000E-01     -6.882813000000000E+01      7.223206000000000E-01     -5.178515000000000E+01
4863000000.000000      6.299438000000000E-01      1.190664000000000E+02      3.246765000000000E-01     -1.799844000000000E+02      2.676239000000000E-01     -6.845703000000000E+01      7.206116000000000E-01     -5.170703000000000E+01
4864000000.000000      6.251221000000000E-01      1.187148000000000E+02      3.240051000000000E-01     -1.799844000000000E+02      2.674103000000000E-01     -6.831640000000000E+01      7.166443000000000E-01     -5.178320000000000E+01
4865000000.000000      6.182556000000000E-01      1.184219000000000E+02      3.223419000000000E-01      1.796641000000000E+02      2.681122000000000E-01     -6.820313000000000E+01      7.154541000000000E-01     -5.172656000000000E+01
4866000000.000000      6.115417000000000E-01      1.179375000000000E+02      3.213501000000000E-01      1.796094000000000E+02      2.682037000000000E-01     -6.810156000000000E+01      7.125854000000000E-01     -5.182617000000000E+01
4867000000.000000      6.062012000000000E-01      1.176797000000000E+02      3.210449000000000E-01      1.792578000000000E+02      2.684479000000000E-01     -6.787109000000000E+01      7.118225000000000E-01     -5.187500000000000E+01
4868000000.000000      6.000671000000000E-01      1.172969000000000E+02      3.196259000000000E-01      1.792109000000000E+02      2.692719000000000E-01     -6.766406000000000E+01      7.078552000000000E-01     -5.183984000000000E+01
4869000000.000000      5.933228000000000E-01      1.169727000000000E+02      3.178558000000000E-01      1.789844000000000E+02      2.688904000000000E-01     -6.754687000000000E+01      7.060242000000000E-01     -5.203906000000000E+01
4870000000.000000      5.875549000000000E-01      1.162930000000000E+02      3.169098000000000E-01      1.790547000000000E+02      2.690735000000000E-01     -6.746875000000000E+01      7.050781000000000E-01     -5.200000000000000E+01
4871000000.000000      5.827332000000000E-01      1.159453000000000E+02      3.154144000000000E-01      1.786250000000000E+02      2.691650000000000E-01     -6.723827000000000E+01      7.019348000000000E-01     -5.213476000000000E+01
4872000000.000000      5.783386000000000E-01      1.156719000000000E+02      3.145447000000000E-01      1.786797000000000E+02      2.694092000000000E-01     -6.739452000000000E+01      7.015686000000000E-01     -5.201366000000000E+01
4873000000.000000      5.718994000000000E-01      1.151758000000000E+02      3.132324000000000E-01      1.784453000000000E+02      2.693329000000000E-01     -6.702343000000000E+01      6.990967000000000E-01     -5.206836000000000E+01
4874000000.000000      5.646973000000000E-01      1.146172000000000E+02      3.120117000000000E-01      1.783203000000000E+02      2.702026000000000E-01     -6.709765000000000E+01      6.956787000000000E-01     -5.197656000000000E+01
4875000000.000000      5.610352000000000E-01      1.142539000000000E+02      3.103790000000000E-01      1.782656000000000E+02      2.707062000000000E-01     -6.695313000000000E+01      6.940002000000000E-01     -5.206055000000000E+01
4876000000.000000      5.557556000000000E-01      1.136601000000000E+02      3.097229000000000E-01      1.780703000000000E+02      2.699585000000000E-01     -6.691406000000000E+01      6.924744000000000E-01     -5.223827000000000E+01
4877000000.000000      5.500793000000000E-01      1.131211000000000E+02      3.082428000000000E-01      1.779609000000000E+02      2.706757000000000E-01     -6.679296000000000E+01      6.904907000000000E-01     -5.212109000000000E+01
4878000000.000000      5.443726000000000E-01      1.126680000000000E+02      3.073425000000000E-01      1.779219000000000E+02      2.702179000000000E-01     -6.647655000000000E+01      6.885376000000000E-01     -5.217578000000000E+01
4879000000.000000      5.410156000000000E-01      1.121094000000000E+02      3.050232000000000E-01      1.778984000000000E+02      2.700500000000000E-01     -6.668750000000000E+01      6.853943000000000E-01     -5.194336000000000E+01
4880000000.000000      5.350342000000000E-01      1.117148000000000E+02      3.047485000000000E-01      1.776250000000000E+02      2.703400000000000E-01     -6.647655000000000E+01      6.833496000000000E-01     -5.205273000000000E+01
4881000000.000000      5.322266000000000E-01      1.110039000000000E+02      3.047943000000000E-01      1.777656000000000E+02      2.707825000000000E-01     -6.667578000000000E+01      6.803589000000000E-01     -5.212500000000000E+01
4882000000.000000      5.272827000000000E-01      1.105117000000000E+02      3.029785000000000E-01      1.774844000000000E+02      2.704926000000000E-01     -6.665625000000000E+01      6.791992000000000E-01     -5.200195000000000E+01
