! Network Analyzer HP8722D
! Hewlett-Packard
! Data name: Linha & Wilkinson
! Saver's name: Rodrigo Anjos
! Comments: Teste da utilização de aquisição
continua pelo VNA HP8722D
! Time and date: 8/5/2025 14:24
!              Frequency                     S11                                                   S21                                                   S12                                                   S22
# HZ  S  MA R 50
4800000000.000000      5.344238000000000E-01     -2.529199000000000E+01      3.677521000000000E-01     -1.495391000000000E+02      3.852539000000000E-01      9.843750000000000E+00      5.003662000000000E-01      1.244202000000000E+00
4801000000.000000      5.315857000000000E-01     -2.477636000000000E+01      3.715363000000000E-01     -1.498828000000000E+02      3.890686000000000E-01      9.578613000000000E+00      4.966125000000000E-01      1.270264000000000E+00
4802000000.000000      5.312195000000000E-01     -2.458691000000000E+01      3.752747000000000E-01     -1.502109000000000E+02      3.911591000000000E-01      9.439941000000000E+00      4.924927000000000E-01      1.601257000000000E+00
4803000000.000000      5.304871000000000E-01     -2.429101000000000E+01      3.809204000000000E-01     -1.504141000000000E+02      3.957367000000000E-01      9.542969000000000E+00      4.860229000000000E-01      1.500977000000000E+00
4804000000.000000      5.278625000000000E-01     -2.428808000000000E+01      3.840027000000000E-01     -1.509140000000000E+02      4.006042000000000E-01      9.354492000000000E+00      4.766388000000000E-01      1.709717000000000E+00
4805000000.000000      5.277100000000000E-01     -2.406641000000000E+01      3.873749000000000E-01     -1.514062000000000E+02      4.048004000000000E-01      9.001465000000000E+00      4.737701000000000E-01      1.686401000000000E+00
4806000000.000000      5.236816000000000E-01     -2.365429000000000E+01      3.914032000000000E-01     -1.519453000000000E+02      4.087677000000000E-01      8.942871000000000E+00      4.633636000000000E-01      1.679504000000000E+00
4807000000.000000      5.246582000000000E-01     -2.358789000000000E+01      3.950806000000000E-01     -1.522891000000000E+02      4.114227000000000E-01      8.693848000000000E+00      4.572449000000000E-01      2.014526000000000E+00
4808000000.000000      5.228882000000000E-01     -2.300683000000000E+01      3.995819000000000E-01     -1.525625000000000E+02      4.165192000000000E-01      8.710449000000000E+00      4.512329000000000E-01      2.135376000000000E+00
4809000000.000000      5.207214000000000E-01     -2.268164000000000E+01      4.031830000000000E-01     -1.531094000000000E+02      4.195709000000000E-01      8.655762000000000E+00      4.438477000000000E-01      2.407349000000000E+00
4810000000.000000      5.232544000000000E-01     -2.269726000000000E+01      4.072113000000000E-01     -1.535312000000000E+02      4.238586000000000E-01      8.295898000000000E+00      4.366150000000000E-01      2.337280000000000E+00
4811000000.000000      5.208435000000000E-01     -2.254590000000000E+01      4.108734000000000E-01     -1.540313000000000E+02      4.275818000000000E-01      8.136719000000000E+00      4.286804000000000E-01      2.828979000000000E+00
4812000000.000000      5.219116000000000E-01     -2.233887000000000E+01      4.139404000000000E-01     -1.543516000000000E+02      4.314117000000000E-01      8.113281000000000E+00      4.211578000000000E-01      2.605103000000000E+00
4813000000.000000      5.187378000000000E-01     -2.214062000000000E+01      4.173584000000000E-01     -1.548984000000000E+02      4.354706000000000E-01      8.056641000000000E+00      4.140320000000000E-01      3.280762000000000E+00
4814000000.000000      5.154724000000000E-01     -2.191504000000000E+01      4.211578000000000E-01     -1.552578000000000E+02      4.376984000000000E-01      7.882568000000000E+00      4.050446000000000E-01      3.319214000000000E+00
4815000000.000000      5.145569000000000E-01     -2.158886000000000E+01      4.238281000000000E-01     -1.557266000000000E+02      4.411774000000000E-01      7.683350000000000E+00      3.972473000000000E-01      3.626831000000000E+00
4816000000.000000      5.135803000000000E-01     -2.154590000000000E+01      4.275818000000000E-01     -1.561016000000000E+02      4.458008000000000E-01      7.623047000000000E+00      3.903961000000000E-01      3.850708000000000E+00
4817000000.000000      5.131226000000000E-01     -2.130176000000000E+01      4.302979000000000E-01     -1.566484000000000E+02      4.473724000000000E-01      7.612061000000000E+00      3.794098000000000E-01      4.292725000000000E+00
4818000000.000000      5.098877000000000E-01     -2.137402000000000E+01      4.333344000000000E-01     -1.571094000000000E+02      4.520721000000000E-01      7.110840000000000E+00      3.707886000000000E-01      4.534424000000000E+00
4819000000.000000      5.101624000000000E-01     -2.107129000000000E+01      4.364777000000000E-01     -1.575078000000000E+02      4.546509000000000E-01      7.075195000000000E+00      3.613129000000000E-01      4.652588000000000E+00
4820000000.000000      5.081177000000000E-01     -2.083496000000000E+01      4.400177000000000E-01     -1.579766000000000E+02      4.582672000000000E-01      6.987305000000000E+00      3.537903000000000E-01      5.274658000000000E+00
4821000000.000000      5.069275000000000E-01     -2.066406000000000E+01      4.425507000000000E-01     -1.585469000000000E+02      4.613953000000000E-01      6.775635000000000E+00      3.443146000000000E-01      5.740234000000000E+00
4822000000.000000      5.057373000000000E-01     -2.062598000000000E+01      4.441071000000000E-01     -1.588516000000000E+02      4.662170000000000E-01      6.660400000000000E+00      3.358765000000000E-01      5.997070000000000E+00
4823000000.000000      5.043335000000000E-01     -2.042383000000000E+01      4.477081000000000E-01     -1.594687000000000E+02      4.672241000000000E-01      6.649414000000000E+00      3.264923000000000E-01      6.466797000000000E+00
4824000000.000000      5.006714000000000E-01     -2.019922000000000E+01      4.505005000000000E-01     -1.598750000000000E+02      4.708099000000000E-01      6.416016000000000E+00      3.166809000000000E-01      6.911621000000000E+00
4825000000.000000      5.003052000000000E-01     -2.020117000000000E+01      4.521484000000000E-01     -1.602813000000000E+02      4.759979000000000E-01      6.119385000000000E+00      3.092651000000000E-01      7.557129000000000E+00
4826000000.000000      4.994354000000000E-01     -2.006738000000000E+01      4.548798000000000E-01     -1.608672000000000E+02      4.768219000000000E-01      6.006592000000000E+00      2.983704000000000E-01      8.173828000000000E+00
4827000000.000000      4.976959000000000E-01     -1.974805000000000E+01      4.573212000000000E-01     -1.611641000000000E+02      4.805603000000000E-01      5.900879000000000E+00      2.904205000000000E-01      8.827148000000000E+00
4828000000.000000      4.969025000000000E-01     -1.943555000000000E+01      4.606018000000000E-01     -1.616953000000000E+02      4.856720000000000E-01      5.784180000000000E+00      2.806091000000000E-01      9.418945000000000E+00
4829000000.000000      4.933624000000000E-01     -1.959180000000000E+01      4.632721000000000E-01     -1.621406000000000E+02      4.866028000000000E-01      5.682617000000000E+00      2.725525000000000E-01      1.049854000000000E+01
4830000000.000000      4.942932000000000E-01     -1.927832000000000E+01      4.649048000000000E-01     -1.626641000000000E+02      4.903870000000000E-01      5.534180000000000E+00      2.615967000000000E-01      1.145166000000000E+01
4831000000.000000      4.923096000000000E-01     -1.940918000000000E+01      4.667358000000000E-01     -1.632109000000000E+02      4.920197000000000E-01      5.434082000000000E+00      2.519226000000000E-01      1.226758000000000E+01
4832000000.000000      4.891968000000000E-01     -1.904785000000000E+01      4.677429000000000E-01     -1.634531000000000E+02      4.956818000000000E-01      5.239014000000000E+00      2.423706000000000E-01      1.379883000000000E+01
4833000000.000000      4.865112000000000E-01     -1.904785000000000E+01      4.701538000000000E-01     -1.638984000000000E+02      4.985657000000000E-01      5.038574000000000E+00      2.329788000000000E-01      1.477100000000000E+01
4834000000.000000      4.863434000000000E-01     -1.887793000000000E+01      4.718933000000000E-01     -1.644297000000000E+02      5.018005000000000E-01      4.771973000000000E+00      2.250900000000000E-01      1.612793000000000E+01
4835000000.000000      4.842987000000000E-01     -1.865137000000000E+01      4.739227000000000E-01     -1.649062000000000E+02      5.052490000000000E-01      4.804932000000000E+00      2.154694000000000E-01      1.752441000000000E+01
4836000000.000000      4.814911000000000E-01     -1.825976000000000E+01      4.753418000000000E-01     -1.652969000000000E+02      5.060730000000000E-01      4.673096000000000E+00      2.068558000000000E-01      1.937793000000000E+01
4837000000.000000      4.799652000000000E-01     -1.840430000000000E+01      4.761658000000000E-01     -1.659297000000000E+02      5.078125000000000E-01      4.428711000000000E+00      1.986542000000000E-01      2.121289000000000E+01
4838000000.000000      4.786835000000000E-01     -1.805957000000000E+01      4.791260000000000E-01     -1.660312000000000E+02      5.117798000000000E-01      4.045654000000000E+00      1.903000000000000E-01      2.320313000000000E+01
4839000000.000000      4.797821000000000E-01     -1.781054000000000E+01      4.805908000000000E-01     -1.665234000000000E+02      5.132751000000000E-01      4.090820000000000E+00      1.832581000000000E-01      2.501660000000000E+01
4840000000.000000      4.757843000000000E-01     -1.792285000000000E+01      4.819489000000000E-01     -1.669765000000000E+02      5.173035000000000E-01      3.876709000000000E+00      1.742477000000000E-01      2.745800000000000E+01
4841000000.000000      4.739990000000000E-01     -1.749023000000000E+01      4.834747000000000E-01     -1.675156000000000E+02      5.179443000000000E-01      3.749023000000000E+00      1.683502000000000E-01      3.034961000000000E+01
4842000000.000000      4.726715000000000E-01     -1.748828000000000E+01      4.841919000000000E-01     -1.678359000000000E+02      5.198364000000000E-01      3.658447000000000E+00      1.615906000000000E-01      3.338672000000000E+01
4843000000.000000      4.721527000000000E-01     -1.716406000000000E+01      4.860229000000000E-01     -1.684609000000000E+02      5.252686000000000E-01      3.479858000000000E+00      1.550827000000000E-01      3.629297000000000E+01
4844000000.000000      4.699097000000000E-01     -1.693848000000000E+01      4.863739000000000E-01     -1.687578000000000E+02      5.254517000000000E-01      3.326050000000000E+00      1.479340000000000E-01      4.020898000000000E+01
4845000000.000000      4.681854000000000E-01     -1.678515000000000E+01      4.880066000000000E-01     -1.690312000000000E+02      5.278625000000000E-01      3.088501000000000E+00      1.444016000000000E-01      4.345703000000000E+01
4846000000.000000      4.682465000000000E-01     -1.646777000000000E+01      4.888763000000000E-01     -1.695781000000000E+02      5.316162000000000E-01      2.947021000000000E+00      1.403198000000000E-01      4.768164000000000E+01
4847000000.000000      4.654999000000000E-01     -1.636719000000000E+01      4.904633000000000E-01     -1.698047000000000E+02      5.329590000000000E-01      2.786377000000000E+00      1.360626000000000E-01      5.174414000000000E+01
4848000000.000000      4.646301000000000E-01     -1.609179000000000E+01      4.901581000000000E-01     -1.702656000000000E+02      5.333862000000000E-01      2.481445000000000E+00      1.346359000000000E-01      5.586914000000000E+01
4849000000.000000      4.631348000000000E-01     -1.585645000000000E+01      4.923096000000000E-01     -1.707031000000000E+02      5.366821000000000E-01      2.362061000000000E+00      1.322403000000000E-01      6.025781000000000E+01
4850000000.000000      4.635620000000000E-01     -1.570264000000000E+01      4.923553000000000E-01     -1.709531000000000E+02      5.379333000000000E-01      2.183472000000000E+00      1.330185000000000E-01      6.503124000000000E+01
4851000000.000000      4.622955000000000E-01     -1.532617000000000E+01      4.937439000000000E-01     -1.714297000000000E+02      5.379639000000000E-01      2.199951000000000E+00      1.331100000000000E-01      6.904297000000000E+01
4852000000.000000      4.611359000000000E-01     -1.502148000000000E+01      4.944458000000000E-01     -1.718203000000000E+02      5.403442000000000E-01      1.941833000000000E+00      1.336441000000000E-01      7.328515000000000E+01
4853000000.000000      4.613495000000000E-01     -1.495557000000000E+01      4.941559000000000E-01     -1.720703000000000E+02      5.428467000000000E-01      1.778381000000000E+00      1.353378000000000E-01      7.748437000000000E+01
4854000000.000000      4.598846000000000E-01     -1.472070000000000E+01      4.959106000000000E-01     -1.725781000000000E+02      5.437012000000000E-01      1.610840000000000E+00      1.394653000000000E-01      8.117968000000000E+01
4855000000.000000      4.584503000000000E-01     -1.430029000000000E+01      4.971466000000000E-01     -1.730000000000000E+02      5.447388000000000E-01      1.251038000000000E+00      1.417465000000000E-01      8.553905000000000E+01
4856000000.000000      4.584808000000000E-01     -1.420264000000000E+01      4.967957000000000E-01     -1.731875000000000E+02      5.461121000000000E-01      1.126099000000000E+00      1.470871000000000E-01      8.841797000000000E+01
4857000000.000000      4.604797000000000E-01     -1.366699000000000E+01      4.997864000000000E-01     -1.734766000000000E+02      5.464783000000000E-01      1.161804000000000E+00      1.502533000000000E-01      9.174608000000000E+01
4858000000.000000      4.589539000000000E-01     -1.339648000000000E+01      5.006714000000000E-01     -1.739922000000000E+02      5.494690000000000E-01      9.516907000000000E-01      1.556015000000000E-01      9.470703000000000E+01
4859000000.000000      4.603271000000000E-01     -1.331543000000000E+01      4.998779000000000E-01     -1.741484000000000E+02      5.486145000000000E-01      7.786560000000000E-01      1.605606000000000E-01      9.746874000000000E+01
4860000000.000000      4.589996000000000E-01     -1.274561000000000E+01      5.019531000000000E-01     -1.745156000000000E+02      5.496826000000000E-01      6.138611000000000E-01      1.666870000000000E-01      9.992188000000000E+01
4861000000.000000      4.604950000000000E-01     -1.247266000000000E+01      5.019226000000000E-01     -1.750391000000000E+02      5.509033000000000E-01      4.133606000000000E-01      1.721802000000000E-01      1.022070000000000E+02
4862000000.000000      4.599457000000000E-01     -1.221143000000000E+01      5.032654000000000E-01     -1.753125000000000E+02      5.533142000000000E-01      3.282166000000000E-01      1.782761000000000E-01      1.046211000000000E+02
4863000000.000000      4.621277000000000E-01     -1.207422000000000E+01      5.028992000000000E-01     -1.758281000000000E+02      5.527954000000000E-01      2.622986000000000E-01      1.851196000000000E-01      1.055820000000000E+02
4864000000.000000      4.625702000000000E-01     -1.193945000000000E+01      5.038452000000000E-01     -1.759453000000000E+02      5.528564000000000E-01      1.799011000000000E-01      1.912689000000000E-01      1.073320000000000E+02
4865000000.000000      4.639893000000000E-01     -1.154541000000000E+01      5.047302000000000E-01     -1.762812000000000E+02      5.533447000000000E-01      1.043701000000000E-01      1.969910000000000E-01      1.089258000000000E+02
4866000000.000000      4.646454000000000E-01     -1.129834000000000E+01      5.046997000000000E-01     -1.768047000000000E+02      5.537109000000000E-01     -3.158569000000000E-01      2.036362000000000E-01      1.099805000000000E+02
4867000000.000000      4.653320000000000E-01     -1.080664000000000E+01      5.061646000000000E-01     -1.769766000000000E+02      5.537109000000000E-01     -2.471924000000000E-01      2.111359000000000E-01      1.114219000000000E+02
4868000000.000000      4.684753000000000E-01     -1.066113000000000E+01      5.077820000000000E-01     -1.774922000000000E+02      5.534058000000000E-01     -3.639221000000000E-01      2.153854000000000E-01      1.121914000000000E+02
4869000000.000000      4.690552000000000E-01     -1.029980000000000E+01      5.076294000000000E-01     -1.778047000000000E+02      5.552063000000000E-01     -5.795288000000000E-01      2.221832000000000E-01      1.132305000000000E+02
4870000000.000000      4.703674000000000E-01     -1.031934000000000E+01      5.086060000000000E-01     -1.778750000000000E+02      5.524292000000000E-01     -6.330872000000000E-01      2.289810000000000E-01      1.141992000000000E+02
4871000000.000000      4.718018000000000E-01     -9.908691000000000E+00      5.100403000000000E-01     -1.785625000000000E+02      5.541992000000000E-01     -6.948853000000000E-01      2.342911000000000E-01      1.146914000000000E+02
4872000000.000000      4.746094000000000E-01     -9.732910000000000E+00      5.097046000000000E-01     -1.785469000000000E+02      5.529175000000000E-01     -9.008789000000000E-01      2.407837000000000E-01      1.153789000000000E+02
4873000000.000000      4.737701000000000E-01     -9.224609000000000E+00      5.104675000000000E-01     -1.792031000000000E+02      5.538025000000000E-01     -8.528137000000000E-01      2.462463000000000E-01      1.160312000000000E+02
4874000000.000000      4.795685000000000E-01     -9.183594000000000E+00      5.111389000000000E-01     -1.796406000000000E+02      5.552673000000000E-01     -1.089050000000000E+00      2.513428000000000E-01      1.168359000000000E+02
4875000000.000000      4.815369000000000E-01     -8.969238000000000E+00      5.128479000000000E-01     -1.799453000000000E+02      5.527649000000000E-01     -9.654236000000000E-01      2.562103000000000E-01      1.175781000000000E+02
4876000000.000000      4.835358000000000E-01     -8.834473000000000E+00      5.130920000000000E-01      1.797031000000000E+02      5.546570000000000E-01     -1.122009000000000E+00      2.626648000000000E-01      1.181328000000000E+02
4877000000.000000      4.873962000000000E-01     -8.866211000000000E+00      5.125732000000000E-01      1.793437000000000E+02      5.519104000000000E-01     -1.289551000000000E+00      2.679749000000000E-01      1.183125000000000E+02
4878000000.000000      4.888153000000000E-01     -8.705566000000000E+00      5.141907000000000E-01      1.789531000000000E+02      5.528259000000000E-01     -1.138489000000000E+00      2.736664000000000E-01      1.184727000000000E+02
4879000000.000000      4.931641000000000E-01     -8.378906000000000E+00      5.142212000000000E-01      1.786797000000000E+02      5.534668000000000E-01     -1.212646000000000E+00      2.797546000000000E-01      1.187383000000000E+02
4880000000.000000      4.941254000000000E-01     -8.311523000000000E+00      5.159607000000000E-01      1.782031000000000E+02      5.512695000000000E-01     -1.332092000000000E+00      2.822723000000000E-01      1.188906000000000E+02
4881000000.000000      5.000000000000000E-01     -8.112305000000000E+00      5.173340000000000E-01      1.778125000000000E+02      5.513916000000000E-01     -1.237366000000000E+00      2.886658000000000E-01      1.193320000000000E+02
4882000000.000000      5.016174000000000E-01     -7.855225000000000E+00      5.182495000000000E-01      1.772891000000000E+02      5.521851000000000E-01     -1.433716000000000E+00      2.908020000000000E-01      1.193945000000000E+02
