! Network Analyzer HP8722D
! Hewlett-Packard
! Data name: Linha & Wilkinson
! Saver's name: Rodrigo Anjos
! Comments: Teste da utilização de aquisição
continua pelo VNA HP8722D
! Time and date: 8/5/2025 15:35
!              Frequency                     S11                                                   S21                                                   S12                                                   S22
# HZ  S  MA R 50
4800000000.000000      8.748779000000000E-01      8.857813000000000E+01      1.370239000000000E-01     -2.708008000000000E+01      1.278458000000000E-01      1.003047000000000E+02      2.379456000000000E-01      6.433594000000000E+01
4801000000.000000      8.752136000000000E-01      8.880468000000000E+01      1.340256000000000E-01     -2.598437000000000E+01      1.250610000000000E-01      1.012344000000000E+02      2.417831000000000E-01      6.380859000000000E+01
4802000000.000000      8.783264000000000E-01      8.908594000000000E+01      1.314774000000000E-01     -2.454297000000000E+01      1.233025000000000E-01      1.021250000000000E+02      2.487488000000000E-01      6.387695000000000E+01
4803000000.000000      8.801880000000000E-01      8.955469000000000E+01      1.293488000000000E-01     -2.314844000000000E+01      1.205826000000000E-01      1.035625000000000E+02      2.533569000000000E-01      6.339453000000000E+01
4804000000.000000      8.845825000000000E-01      8.978516000000000E+01      1.269150000000000E-01     -2.175195000000000E+01      1.186523000000000E-01      1.045391000000000E+02      2.543945000000000E-01      6.296679000000000E+01
4805000000.000000      8.894653000000000E-01      8.991405000000000E+01      1.250229000000000E-01     -2.042383000000000E+01      1.169205000000000E-01      1.058476000000000E+02      2.598877000000000E-01      6.305859000000000E+01
4806000000.000000      8.901367000000000E-01      9.023046000000000E+01      1.231842000000000E-01     -1.863086000000000E+01      1.148949000000000E-01      1.072773000000000E+02      2.642059000000000E-01      6.220312000000000E+01
4807000000.000000      8.926086000000000E-01      9.049219000000000E+01      1.217155000000000E-01     -1.735059000000000E+01      1.136818000000000E-01      1.086211000000000E+02      2.660522000000000E-01      6.164257000000000E+01
4808000000.000000      8.934021000000000E-01      9.066406000000000E+01      1.205826000000000E-01     -1.539600000000000E+01      1.123085000000000E-01      1.102187000000000E+02      2.703552000000000E-01      6.129101000000000E+01
4809000000.000000      8.951416000000000E-01      9.098827000000000E+01      1.189384000000000E-01     -1.398975000000000E+01      1.116600000000000E-01      1.116406000000000E+02      2.740631000000000E-01      6.116211000000000E+01
4810000000.000000      8.984985000000000E-01      9.141405000000000E+01      1.182060000000000E-01     -1.194238000000000E+01      1.103973000000000E-01      1.132617000000000E+02      2.761841000000000E-01      6.024219000000000E+01
4811000000.000000      8.990784000000000E-01      9.171875000000000E+01      1.175613000000000E-01     -1.037842000000000E+01      1.103020000000000E-01      1.148984000000000E+02      2.805939000000000E-01      6.037499000000000E+01
4812000000.000000      9.022522000000000E-01      9.195313000000000E+01      1.167374000000000E-01     -8.448730000000000E+00      1.097221000000000E-01      1.163594000000000E+02      2.832947000000000E-01      5.917187000000000E+01
4813000000.000000      9.020691000000000E-01      9.225000000000000E+01      1.166039000000000E-01     -6.744385000000000E+00      1.094055000000000E-01      1.180859000000000E+02      2.867126000000000E-01      5.921288000000000E+01
4814000000.000000      9.030457000000000E-01      9.250391000000000E+01      1.162834000000000E-01     -4.857422000000000E+00      1.093788000000000E-01      1.198476000000000E+02      2.882843000000000E-01      5.821094000000000E+01
4815000000.000000      9.042358000000000E-01      9.283594000000000E+01      1.164627000000000E-01     -3.217651000000000E+00      1.090546000000000E-01      1.212852000000000E+02      2.903290000000000E-01      5.764843000000000E+01
4816000000.000000      9.071350000000000E-01      9.316797000000000E+01      1.170044000000000E-01     -1.414490000000000E+00      1.099968000000000E-01      1.229453000000000E+02      2.933960000000000E-01      5.735156000000000E+01
4817000000.000000      9.065857000000000E-01      9.344921000000000E+01      1.175690000000000E-01      2.444458000000000E-01      1.102409000000000E-01      1.246094000000000E+02      2.944336000000000E-01      5.681250000000000E+01
4818000000.000000      9.086609000000000E-01      9.375391000000000E+01      1.178856000000000E-01      2.157349000000000E+00      1.111031000000000E-01      1.261172000000000E+02      2.989349000000000E-01      5.612499000000000E+01
4819000000.000000      9.094849000000000E-01      9.389843000000000E+01      1.191635000000000E-01      3.526611000000000E+00      1.116371000000000E-01      1.276445000000000E+02      3.001709000000000E-01      5.584374000000000E+01
4820000000.000000      9.057312000000000E-01      9.435938000000000E+01      1.201897000000000E-01      5.398193000000000E+00      1.129074000000000E-01      1.291250000000000E+02      3.024597000000000E-01      5.494531000000000E+01
4821000000.000000      9.094543000000000E-01      9.469921000000000E+01      1.215706000000000E-01      6.796387000000000E+00      1.138687000000000E-01      1.305859000000000E+02      3.030090000000000E-01      5.443554000000000E+01
4822000000.000000      9.071655000000000E-01      9.473047000000000E+01      1.228905000000000E-01      8.251953000000000E+00      1.150017000000000E-01      1.318984000000000E+02      3.044586000000000E-01      5.382030000000000E+01
4823000000.000000      9.086609000000000E-01      9.514843000000000E+01      1.247177000000000E-01      9.771973000000000E+00      1.165657000000000E-01      1.333203000000000E+02      3.059540000000000E-01      5.316796000000000E+01
4824000000.000000      9.101563000000000E-01      9.547655000000000E+01      1.264954000000000E-01      1.099707000000000E+01      1.180267000000000E-01      1.344766000000000E+02      3.073578000000000E-01      5.249609000000000E+01
4825000000.000000      9.063721000000000E-01      9.550781000000000E+01      1.282501000000000E-01      1.231250000000000E+01      1.202507000000000E-01      1.358828000000000E+02      3.089447000000000E-01      5.187304000000000E+01
4826000000.000000      9.071045000000000E-01      9.592577000000000E+01      1.305161000000000E-01      1.364502000000000E+01      1.216736000000000E-01      1.369766000000000E+02      3.082275000000000E-01      5.139257000000000E+01
4827000000.000000      9.062195000000000E-01      9.613281000000000E+01      1.326294000000000E-01      1.508936000000000E+01      1.235809000000000E-01      1.380625000000000E+02      3.087616000000000E-01      5.045312000000000E+01
4828000000.000000      9.067078000000000E-01      9.637499000000000E+01      1.350098000000000E-01      1.587500000000000E+01      1.254883000000000E-01      1.391094000000000E+02      3.103027000000000E-01      4.943749000000000E+01
4829000000.000000      9.041138000000000E-01      9.682812000000000E+01      1.370087000000000E-01      1.712012000000000E+01      1.279602000000000E-01      1.403047000000000E+02      3.120880000000000E-01      4.917578000000000E+01
4830000000.000000      9.028625000000000E-01      9.704687000000000E+01      1.398392000000000E-01      1.784375000000000E+01      1.300735000000000E-01      1.410469000000000E+02      3.123779000000000E-01      4.873241000000000E+01
4831000000.000000      9.003296000000000E-01      9.730078000000000E+01      1.421356000000000E-01      1.878613000000000E+01      1.325378000000000E-01      1.422109000000000E+02      3.120728000000000E-01      4.785352000000000E+01
4832000000.000000      8.998718000000000E-01      9.761328000000000E+01      1.448593000000000E-01      1.979980000000000E+01      1.345444000000000E-01      1.429609000000000E+02      3.121185000000000E-01      4.729882000000000E+01
4833000000.000000      8.968201000000000E-01      9.770311000000000E+01      1.472168000000000E-01      2.050293000000000E+01      1.370010000000000E-01      1.435937000000000E+02      3.124542000000000E-01      4.688281000000000E+01
4834000000.000000      8.947754000000000E-01      9.788671000000000E+01      1.505280000000000E-01      2.126660000000000E+01      1.395187000000000E-01      1.444297000000000E+02      3.144379000000000E-01      4.618164000000000E+01
4835000000.000000      8.915405000000000E-01      9.814062000000000E+01      1.532288000000000E-01      2.183105000000000E+01      1.423340000000000E-01      1.452500000000000E+02      3.125458000000000E-01      4.554492000000000E+01
4836000000.000000      8.908691000000000E-01      9.839453000000000E+01      1.560974000000000E-01      2.248437000000000E+01      1.445236000000000E-01      1.460156000000000E+02      3.128967000000000E-01      4.501758000000000E+01
4837000000.000000      8.852539000000000E-01      9.876953000000000E+01      1.588364000000000E-01      2.287402000000000E+01      1.473007000000000E-01      1.464453000000000E+02      3.134003000000000E-01      4.458593000000000E+01
4838000000.000000      8.833008000000000E-01      9.879686000000000E+01      1.621094000000000E-01      2.377832000000000E+01      1.498337000000000E-01      1.470781000000000E+02      3.120270000000000E-01      4.386328000000000E+01
4839000000.000000      8.850708000000000E-01      9.922264000000000E+01      1.655807000000000E-01      2.413476000000000E+01      1.525803000000000E-01      1.474531000000000E+02      3.127899000000000E-01      4.305664000000000E+01
4840000000.000000      8.786621000000000E-01      9.942577000000000E+01      1.683426000000000E-01      2.452343000000000E+01      1.555405000000000E-01      1.481484000000000E+02      3.124084000000000E-01      4.218750000000000E+01
4841000000.000000      8.767395000000000E-01      9.951952000000000E+01      1.715927000000000E-01      2.507129000000000E+01      1.586380000000000E-01      1.485312000000000E+02      3.119659000000000E-01      4.210351000000000E+01
4842000000.000000      8.730774000000000E-01      9.972265000000000E+01      1.745071000000000E-01      2.544434000000000E+01      1.611023000000000E-01      1.491016000000000E+02      3.128204000000000E-01      4.149219000000000E+01
4843000000.000000      8.691711000000000E-01      9.988281000000000E+01      1.778793000000000E-01      2.577734000000000E+01      1.642075000000000E-01      1.494062000000000E+02      3.132172000000000E-01      4.120117000000000E+01
4844000000.000000      8.641663000000000E-01      9.992577000000000E+01      1.812286000000000E-01      2.601367000000000E+01      1.666794000000000E-01      1.499766000000000E+02      3.104553000000000E-01      4.040820000000000E+01
4845000000.000000      8.623047000000000E-01      1.005000000000000E+02      1.845398000000000E-01      2.637890000000000E+01      1.699142000000000E-01      1.502031000000000E+02      3.112030000000000E-01      3.961914000000000E+01
4846000000.000000      8.578491000000000E-01      1.004922000000000E+02      1.878891000000000E-01      2.655371000000000E+01      1.735687000000000E-01      1.506094000000000E+02      3.103790000000000E-01      3.929688000000000E+01
4847000000.000000      8.549805000000000E-01      1.005937000000000E+02      1.912460000000000E-01      2.678125000000000E+01      1.763840000000000E-01      1.508906000000000E+02      3.087158000000000E-01      3.867578000000000E+01
4848000000.000000      8.505249000000000E-01      1.007031000000000E+02      1.940384000000000E-01      2.699707000000000E+01      1.788940000000000E-01      1.512656000000000E+02      3.103333000000000E-01      3.832226000000000E+01
4849000000.000000      8.443909000000000E-01      1.007539000000000E+02      1.979294000000000E-01      2.693848000000000E+01      1.820068000000000E-01      1.515312000000000E+02      3.085785000000000E-01      3.789453000000000E+01
4850000000.000000      8.430176000000000E-01      1.009648000000000E+02      2.010880000000000E-01      2.714355000000000E+01      1.852341000000000E-01      1.517344000000000E+02      3.089600000000000E-01      3.726758000000000E+01
4851000000.000000      8.368835000000000E-01      1.012539000000000E+02      2.044449000000000E-01      2.739355000000000E+01      1.879730000000000E-01      1.520547000000000E+02      3.091431000000000E-01      3.690625000000000E+01
4852000000.000000      8.328552000000000E-01      1.013398000000000E+02      2.075958000000000E-01      2.745996000000000E+01      1.912537000000000E-01      1.522578000000000E+02      3.083496000000000E-01      3.635742000000000E+01
4853000000.000000      8.303528000000000E-01      1.013047000000000E+02      2.106857000000000E-01      2.742578000000000E+01      1.943893000000000E-01      1.523906000000000E+02      3.069305000000000E-01      3.557422000000000E+01
4854000000.000000      8.243408000000000E-01      1.013359000000000E+02      2.144470000000000E-01      2.735937000000000E+01      1.977463000000000E-01      1.526250000000000E+02      3.075562000000000E-01      3.562304000000000E+01
4855000000.000000      8.213806000000000E-01      1.015742000000000E+02      2.179642000000000E-01      2.753418000000000E+01      2.009506000000000E-01      1.527109000000000E+02      3.051300000000000E-01      3.493359000000000E+01
4856000000.000000      8.161011000000000E-01      1.015742000000000E+02      2.217102000000000E-01      2.741699000000000E+01      2.040863000000000E-01      1.529063000000000E+02      3.067780000000000E-01      3.479687000000000E+01
4857000000.000000      8.109741000000000E-01      1.017578000000000E+02      2.252426000000000E-01      2.760644000000000E+01      2.070847000000000E-01      1.530391000000000E+02      3.040466000000000E-01      3.423047000000000E+01
4858000000.000000      8.047485000000000E-01      1.016211000000000E+02      2.283401000000000E-01      2.746387000000000E+01      2.103348000000000E-01      1.531563000000000E+02      3.048248000000000E-01      3.406641000000000E+01
4859000000.000000      8.001099000000000E-01      1.017031000000000E+02      2.318268000000000E-01      2.733203000000000E+01      2.137909000000000E-01      1.532891000000000E+02      3.050842000000000E-01      3.325781000000000E+01
4860000000.000000      7.964478000000000E-01      1.018047000000000E+02      2.355576000000000E-01      2.735937000000000E+01      2.164841000000000E-01      1.533984000000000E+02      3.037109000000000E-01      3.284375000000000E+01
4861000000.000000      7.922363000000000E-01      1.018164000000000E+02      2.391434000000000E-01      2.722754000000000E+01      2.202148000000000E-01      1.534141000000000E+02      3.044891000000000E-01      3.266211000000000E+01
4862000000.000000      7.859497000000000E-01      1.018281000000000E+02      2.425690000000000E-01      2.723633000000000E+01      2.234573000000000E-01      1.534609000000000E+02      3.033142000000000E-01      3.243555000000000E+01
4863000000.000000      7.802429000000000E-01      1.017344000000000E+02      2.453995000000000E-01      2.690234000000000E+01      2.271729000000000E-01      1.536016000000000E+02      3.043213000000000E-01      3.189258000000000E+01
4864000000.000000      7.769775000000000E-01      1.016953000000000E+02      2.501068000000000E-01      2.704102000000000E+01      2.298737000000000E-01      1.536406000000000E+02      3.055573000000000E-01      3.168262000000000E+01
4865000000.000000      7.691345000000000E-01      1.017500000000000E+02      2.530060000000000E-01      2.679688000000000E+01      2.333984000000000E-01      1.535547000000000E+02      3.053284000000000E-01      3.133398000000000E+01
4866000000.000000      7.663879000000000E-01      1.015898000000000E+02      2.562866000000000E-01      2.664453000000000E+01      2.369308000000000E-01      1.533828000000000E+02      3.045654000000000E-01      3.091601000000000E+01
4867000000.000000      7.597961000000000E-01      1.015937000000000E+02      2.601166000000000E-01      2.638281000000000E+01      2.397079000000000E-01      1.534922000000000E+02      3.039856000000000E-01      3.061328000000000E+01
4868000000.000000      7.581482000000000E-01      1.014258000000000E+02      2.636414000000000E-01      2.624902000000000E+01      2.433014000000000E-01      1.535547000000000E+02      3.049927000000000E-01      3.045215000000000E+01
4869000000.000000      7.509766000000000E-01      1.015508000000000E+02      2.673645000000000E-01      2.614551000000000E+01      2.469635000000000E-01      1.535156000000000E+02      3.032990000000000E-01      2.986425000000000E+01
4870000000.000000      7.456665000000000E-01      1.012617000000000E+02      2.711029000000000E-01      2.605469000000000E+01      2.503662000000000E-01      1.533672000000000E+02      3.046722000000000E-01      2.955664000000000E+01
4871000000.000000      7.417908000000000E-01      1.011133000000000E+02      2.747040000000000E-01      2.573535000000000E+01      2.530212000000000E-01      1.533906000000000E+02      3.044434000000000E-01      2.920801000000000E+01
4872000000.000000      7.379761000000000E-01      1.010117000000000E+02      2.780762000000000E-01      2.564844000000000E+01      2.564087000000000E-01      1.530625000000000E+02      3.060303000000000E-01      2.887598000000000E+01
4873000000.000000      7.319336000000000E-01      1.008125000000000E+02      2.816315000000000E-01      2.529785000000000E+01      2.596436000000000E-01      1.530703000000000E+02      3.053131000000000E-01      2.850879000000000E+01
4874000000.000000      7.267761000000000E-01      1.006406000000000E+02      2.852173000000000E-01      2.505664000000000E+01      2.641449000000000E-01      1.528828000000000E+02      3.064728000000000E-01      2.824902000000000E+01
4875000000.000000      7.202148000000000E-01      1.003320000000000E+02      2.889252000000000E-01      2.479980000000000E+01      2.666779000000000E-01      1.529140000000000E+02      3.065948000000000E-01      2.800781000000000E+01
4876000000.000000      7.177734000000000E-01      1.002500000000000E+02      2.926331000000000E-01      2.466211000000000E+01      2.706604000000000E-01      1.526250000000000E+02      3.080139000000000E-01      2.756152000000000E+01
4877000000.000000      7.124634000000000E-01      9.986328000000000E+01      2.960815000000000E-01      2.429688000000000E+01      2.733002000000000E-01      1.524609000000000E+02      3.085480000000000E-01      2.728027000000000E+01
4878000000.000000      7.077637000000000E-01      9.965624000000000E+01      3.006134000000000E-01      2.402246000000000E+01      2.766266000000000E-01      1.524453000000000E+02      3.090668000000000E-01      2.700293000000000E+01
4879000000.000000      7.042236000000000E-01      9.949608000000000E+01      3.026886000000000E-01      2.378808000000000E+01      2.805176000000000E-01      1.520859000000000E+02      3.097992000000000E-01      2.684277000000000E+01
4880000000.000000      6.969299000000000E-01      9.913671000000000E+01      3.070679000000000E-01      2.343750000000000E+01      2.836609000000000E-01      1.521172000000000E+02      3.107758000000000E-01      2.654492000000000E+01
4881000000.000000      6.953125000000000E-01      9.879295000000000E+01      3.118439000000000E-01      2.321875000000000E+01      2.870026000000000E-01      1.517734000000000E+02      3.119812000000000E-01      2.631836000000000E+01
4882000000.000000      6.906738000000000E-01      9.860546000000000E+01      3.153076000000000E-01      2.279101000000000E+01      2.903748000000000E-01      1.516484000000000E+02      3.139343000000000E-01      2.612500000000000E+01
