! Network Analyzer HP8722D
! Hewlett-Packard
! Data name: Linha & Wilkinson
! Saver's name: Rodrigo Anjos
! Comments: Teste da utilização de aquisição
continua pelo VNA HP8722D
! Time and date: 8/5/2025 14:19
!              Frequency                     S11                                                   S21                                                   S12                                                   S22
# HZ  S  MA R 50
4800000000.000000      5.258179000000000E-01     -2.509277000000000E+01      3.774109000000000E-01     -1.511953000000000E+02      3.956757000000000E-01      7.966309000000000E+00      4.951935000000000E-01      4.971313000000000E-01
4801000000.000000      5.264893000000000E-01     -2.474316000000000E+01      3.808594000000000E-01     -1.516875000000000E+02      3.993225000000000E-01      7.838623000000000E+00      4.911804000000000E-01      7.113647000000000E-01
4802000000.000000      5.245667000000000E-01     -2.456055000000000E+01      3.845062000000000E-01     -1.518516000000000E+02      4.022675000000000E-01      7.675293000000000E+00      4.859924000000000E-01      9.750366000000000E-01
4803000000.000000      5.241089000000000E-01     -2.440430000000000E+01      3.882751000000000E-01     -1.521875000000000E+02      4.051514000000000E-01      7.643555000000000E+00      4.793854000000000E-01      1.231812000000000E+00
4804000000.000000      5.230713000000000E-01     -2.385449000000000E+01      3.941040000000000E-01     -1.529531000000000E+02      4.116058000000000E-01      7.375732000000000E+00      4.717102000000000E-01      1.326599000000000E+00
4805000000.000000      5.225525000000000E-01     -2.376953000000000E+01      3.964081000000000E-01     -1.531719000000000E+02      4.149170000000000E-01      7.389648000000000E+00      4.660950000000000E-01      1.358154000000000E+00
4806000000.000000      5.204773000000000E-01     -2.361816000000000E+01      3.998260000000000E-01     -1.535547000000000E+02      4.178162000000000E-01      7.237061000000000E+00      4.575043000000000E-01      1.447449000000000E+00
4807000000.000000      5.189819000000000E-01     -2.335840000000000E+01      4.052734000000000E-01     -1.541250000000000E+02      4.219971000000000E-01      6.838867000000000E+00      4.503174000000000E-01      1.778381000000000E+00
4808000000.000000      5.167542000000000E-01     -2.290039000000000E+01      4.076233000000000E-01     -1.544609000000000E+02      4.254303000000000E-01      6.886963000000000E+00      4.440613000000000E-01      1.929443000000000E+00
4809000000.000000      5.165100000000000E-01     -2.257422000000000E+01      4.109802000000000E-01     -1.549609000000000E+02      4.294281000000000E-01      6.687744000000000E+00      4.365387000000000E-01      2.263184000000000E+00
4810000000.000000      5.151672000000000E-01     -2.267578000000000E+01      4.164581000000000E-01     -1.551641000000000E+02      4.323120000000000E-01      6.544922000000000E+00      4.290314000000000E-01      2.132690000000000E+00
4811000000.000000      5.151062000000000E-01     -2.230273000000000E+01      4.187164000000000E-01     -1.557344000000000E+02      4.377594000000000E-01      6.664551000000000E+00      4.213257000000000E-01      2.703979000000000E+00
4812000000.000000      5.170288000000000E-01     -2.196484000000000E+01      4.222565000000000E-01     -1.562187000000000E+02      4.393311000000000E-01      6.273193000000000E+00      4.136658000000000E-01      2.661377000000000E+00
4813000000.000000      5.107422000000000E-01     -2.195019000000000E+01      4.253235000000000E-01     -1.566172000000000E+02      4.427032000000000E-01      6.006592000000000E+00      4.066467000000000E-01      3.250488000000000E+00
4814000000.000000      5.108032000000000E-01     -2.176172000000000E+01      4.300842000000000E-01     -1.572031000000000E+02      4.478149000000000E-01      6.003906000000000E+00      3.968658000000000E-01      3.387817000000000E+00
4815000000.000000      5.103149000000000E-01     -2.166308000000000E+01      4.314270000000000E-01     -1.576641000000000E+02      4.496765000000000E-01      5.905029000000000E+00      3.899994000000000E-01      3.729858000000000E+00
4816000000.000000      5.102844000000000E-01     -2.135352000000000E+01      4.356995000000000E-01     -1.580234000000000E+02      4.536438000000000E-01      5.697754000000000E+00      3.825989000000000E-01      4.045654000000000E+00
4817000000.000000      5.064087000000000E-01     -2.110938000000000E+01      4.370422000000000E-01     -1.584844000000000E+02      4.573669000000000E-01      5.467041000000000E+00      3.718414000000000E-01      4.608643000000000E+00
4818000000.000000      5.062561000000000E-01     -2.126758000000000E+01      4.407349000000000E-01     -1.589297000000000E+02      4.606781000000000E-01      5.324219000000000E+00      3.626404000000000E-01      4.925781000000000E+00
4819000000.000000      5.044861000000000E-01     -2.074512000000000E+01      4.436493000000000E-01     -1.595391000000000E+02      4.654846000000000E-01      5.292480000000000E+00      3.534546000000000E-01      5.089355000000000E+00
4820000000.000000      5.037842000000000E-01     -2.061914000000000E+01      4.471893000000000E-01     -1.597891000000000E+02      4.691925000000000E-01      4.972656000000000E+00      3.457336000000000E-01      5.685303000000000E+00
4821000000.000000      5.022583000000000E-01     -2.040918000000000E+01      4.503021000000000E-01     -1.604531000000000E+02      4.717102000000000E-01      4.979492000000000E+00      3.356323000000000E-01      6.396729000000000E+00
4822000000.000000      4.988251000000000E-01     -2.047168000000000E+01      4.510651000000000E-01     -1.606484000000000E+02      4.738770000000000E-01      4.760986000000000E+00      3.289185000000000E-01      6.720703000000000E+00
4823000000.000000      4.994965000000000E-01     -2.029101000000000E+01      4.544983000000000E-01     -1.612187000000000E+02      4.768219000000000E-01      4.713135000000000E+00      3.187408000000000E-01      7.263184000000000E+00
4824000000.000000      4.973297000000000E-01     -2.004687000000000E+01      4.566345000000000E-01     -1.617891000000000E+02      4.803619000000000E-01      4.266602000000000E+00      3.089905000000000E-01      7.901855000000000E+00
4825000000.000000      4.970551000000000E-01     -2.008203000000000E+01      4.585114000000000E-01     -1.619844000000000E+02      4.847412000000000E-01      4.285889000000000E+00      3.010254000000000E-01      8.655762000000000E+00
4826000000.000000      4.957886000000000E-01     -1.994922000000000E+01      4.622803000000000E-01     -1.627422000000000E+02      4.867706000000000E-01      4.104736000000000E+00      2.912598000000000E-01      9.399902000000000E+00
4827000000.000000      4.944611000000000E-01     -1.972754000000000E+01      4.641876000000000E-01     -1.630938000000000E+02      4.890289000000000E-01      4.093750000000000E+00      2.828979000000000E-01      1.018555000000000E+01
4828000000.000000      4.925232000000000E-01     -1.967969000000000E+01      4.673920000000000E-01     -1.635078000000000E+02      4.928741000000000E-01      3.816284000000000E+00      2.733917000000000E-01      1.095313000000000E+01
4829000000.000000      4.909363000000000E-01     -1.943652000000000E+01      4.697418000000000E-01     -1.641016000000000E+02      4.941559000000000E-01      3.802612000000000E+00      2.658844000000000E-01      1.217139000000000E+01
4830000000.000000      4.877167000000000E-01     -1.902148000000000E+01      4.718018000000000E-01     -1.644219000000000E+02      4.987488000000000E-01      3.549927000000000E+00      2.551117000000000E-01      1.338232000000000E+01
4831000000.000000      4.854736000000000E-01     -1.938184000000000E+01      4.730988000000000E-01     -1.649844000000000E+02      5.019531000000000E-01      3.474365000000000E+00      2.458420000000000E-01      1.439453000000000E+01
4832000000.000000      4.857635000000000E-01     -1.890527000000000E+01      4.732208000000000E-01     -1.652812000000000E+02      5.030823000000000E-01      3.293091000000000E+00      2.367783000000000E-01      1.616211000000000E+01
4833000000.000000      4.833832000000000E-01     -1.886230000000000E+01      4.752350000000000E-01     -1.658906000000000E+02      5.075989000000000E-01      3.018433000000000E+00      2.281189000000000E-01      1.723145000000000E+01
4834000000.000000      4.819489000000000E-01     -1.885254000000000E+01      4.769745000000000E-01     -1.664063000000000E+02      5.108948000000000E-01      2.789063000000000E+00      2.194748000000000E-01      1.904980000000000E+01
4835000000.000000      4.794464000000000E-01     -1.841211000000000E+01      4.797058000000000E-01     -1.667891000000000E+02      5.132141000000000E-01      2.736938000000000E+00      2.118912000000000E-01      2.062500000000000E+01
4836000000.000000      4.793396000000000E-01     -1.842090000000000E+01      4.808044000000000E-01     -1.671406000000000E+02      5.148926000000000E-01      2.727295000000000E+00      2.037735000000000E-01      2.261230000000000E+01
4837000000.000000      4.757690000000000E-01     -1.820215000000000E+01      4.821167000000000E-01     -1.676094000000000E+02      5.184326000000000E-01      2.459473000000000E+00      1.953812000000000E-01      2.468066000000000E+01
4838000000.000000      4.738464000000000E-01     -1.819336000000000E+01      4.847565000000000E-01     -1.676328000000000E+02      5.196533000000000E-01      2.298828000000000E+00      1.881256000000000E-01      2.698437000000000E+01
4839000000.000000      4.750061000000000E-01     -1.775683000000000E+01      4.853058000000000E-01     -1.683984000000000E+02      5.229187000000000E-01      2.301636000000000E+00      1.821213000000000E-01      2.911718000000000E+01
4840000000.000000      4.720612000000000E-01     -1.774023000000000E+01      4.871979000000000E-01     -1.688828000000000E+02      5.251160000000000E-01      2.183472000000000E+00      1.751633000000000E-01      3.172266000000000E+01
4841000000.000000      4.688263000000000E-01     -1.756250000000000E+01      4.887848000000000E-01     -1.692422000000000E+02      5.282898000000000E-01      1.704224000000000E+00      1.688461000000000E-01      3.494726000000000E+01
4842000000.000000      4.688721000000000E-01     -1.709277000000000E+01      4.888000000000000E-01     -1.696640000000000E+02      5.295410000000000E-01      1.779785000000000E+00      1.642151000000000E-01      3.828906000000000E+01
4843000000.000000      4.676514000000000E-01     -1.721582000000000E+01      4.903412000000000E-01     -1.700547000000000E+02      5.334167000000000E-01      1.472168000000000E+00      1.577606000000000E-01      4.171875000000000E+01
4844000000.000000      4.671173000000000E-01     -1.689746000000000E+01      4.909210000000000E-01     -1.705234000000000E+02      5.339355000000000E-01      1.286743000000000E+00      1.528015000000000E-01      4.529492000000000E+01
4845000000.000000      4.654236000000000E-01     -1.652148000000000E+01      4.914856000000000E-01     -1.708203000000000E+02      5.359802000000000E-01      1.017578000000000E+00      1.506424000000000E-01      4.872656000000000E+01
4846000000.000000      4.674988000000000E-01     -1.640332000000000E+01      4.941864000000000E-01     -1.712891000000000E+02      5.386353000000000E-01      9.159851000000000E-01      1.485825000000000E-01      5.257617000000000E+01
4847000000.000000      4.636688000000000E-01     -1.619433000000000E+01      4.944305000000000E-01     -1.714687000000000E+02      5.401001000000000E-01      6.344604000000000E-01      1.451340000000000E-01      5.670312000000000E+01
4848000000.000000      4.615479000000000E-01     -1.590967000000000E+01      4.932098000000000E-01     -1.719453000000000E+02      5.418396000000000E-01      5.039978000000000E-01      1.451492000000000E-01      6.057812000000000E+01
4849000000.000000      4.590759000000000E-01     -1.595654000000000E+01      4.968262000000000E-01     -1.723750000000000E+02      5.438843000000000E-01      3.570557000000000E-01      1.446686000000000E-01      6.488281000000000E+01
4850000000.000000      4.600677000000000E-01     -1.566406000000000E+01      4.963837000000000E-01     -1.726563000000000E+02      5.451660000000000E-01      2.183533000000000E-01      1.454010000000000E-01      6.889453000000000E+01
4851000000.000000      4.598846000000000E-01     -1.508740000000000E+01      5.000610000000000E-01     -1.732265000000000E+02      5.459595000000000E-01      8.239746000000000E-02      1.473770000000000E-01      7.222656000000000E+01
4852000000.000000      4.593353000000000E-01     -1.499268000000000E+01      4.993439000000000E-01     -1.737031000000000E+02      5.478821000000000E-01      6.042480000000000E-02      1.485519000000000E-01      7.637109000000000E+01
4853000000.000000      4.588013000000000E-01     -1.484570000000000E+01      4.993439000000000E-01     -1.738672000000000E+02      5.488586000000000E-01     -2.705383000000000E-01      1.510010000000000E-01      7.973046000000000E+01
4854000000.000000      4.586487000000000E-01     -1.449658000000000E+01      4.985352000000000E-01     -1.744766000000000E+02      5.513000000000000E-01     -2.471924000000000E-01      1.557693000000000E-01      8.276953000000000E+01
4855000000.000000      4.571838000000000E-01     -1.419580000000000E+01      5.006409000000000E-01     -1.744844000000000E+02      5.519104000000000E-01     -6.564331000000000E-01      1.590958000000000E-01      8.644531000000000E+01
4856000000.000000      4.577332000000000E-01     -1.375928000000000E+01      5.014343000000000E-01     -1.749375000000000E+02      5.513916000000000E-01     -8.981323000000000E-01      1.639557000000000E-01      8.961718000000000E+01
4857000000.000000      4.570618000000000E-01     -1.345703000000000E+01      5.023804000000000E-01     -1.753047000000000E+02      5.529480000000000E-01     -8.349609000000000E-01      1.688080000000000E-01      9.196093000000000E+01
4858000000.000000      4.565735000000000E-01     -1.319189000000000E+01      5.035400000000000E-01     -1.755547000000000E+02      5.539856000000000E-01     -1.116516000000000E+00      1.737442000000000E-01      9.435547000000000E+01
4859000000.000000      4.575195000000000E-01     -1.305078000000000E+01      5.050049000000000E-01     -1.760469000000000E+02      5.544434000000000E-01     -1.116516000000000E+00      1.794739000000000E-01      9.636719000000000E+01
4860000000.000000      4.565887000000000E-01     -1.270605000000000E+01      5.045776000000000E-01     -1.762109000000000E+02      5.561218000000000E-01     -1.436462000000000E+00      1.866074000000000E-01      9.808594000000000E+01
4861000000.000000      4.597015000000000E-01     -1.244092000000000E+01      5.049744000000000E-01     -1.768203000000000E+02      5.575562000000000E-01     -1.473572000000000E+00      1.914444000000000E-01      1.008164000000000E+02
4862000000.000000      4.595795000000000E-01     -1.215381000000000E+01      5.074463000000000E-01     -1.769844000000000E+02      5.576477000000000E-01     -1.733093000000000E+00      1.976166000000000E-01      1.018867000000000E+02
4863000000.000000      4.609222000000000E-01     -1.174854000000000E+01      5.073853000000000E-01     -1.774375000000000E+02      5.587769000000000E-01     -1.764709000000000E+00      2.044449000000000E-01      1.037969000000000E+02
4864000000.000000      4.606628000000000E-01     -1.162939000000000E+01      5.069275000000000E-01     -1.775625000000000E+02      5.570984000000000E-01     -1.904785000000000E+00      2.111588000000000E-01      1.049726000000000E+02
4865000000.000000      4.615936000000000E-01     -1.136426000000000E+01      5.090332000000000E-01     -1.778906000000000E+02      5.583801000000000E-01     -2.059937000000000E+00      2.163773000000000E-01      1.064414000000000E+02
4866000000.000000      4.635010000000000E-01     -1.115674000000000E+01      5.094604000000000E-01     -1.784531000000000E+02      5.577087000000000E-01     -2.314087000000000E+00      2.219543000000000E-01      1.074141000000000E+02
4867000000.000000      4.645233000000000E-01     -1.091260000000000E+01      5.091858000000000E-01     -1.787578000000000E+02      5.578308000000000E-01     -2.231689000000000E+00      2.269592000000000E-01      1.088555000000000E+02
4868000000.000000      4.675903000000000E-01     -1.080518000000000E+01      5.103455000000000E-01     -1.790703000000000E+02      5.588074000000000E-01     -2.449951000000000E+00      2.337112000000000E-01      1.095508000000000E+02
4869000000.000000      4.677429000000000E-01     -1.048926000000000E+01      5.126343000000000E-01     -1.795859000000000E+02      5.585938000000000E-01     -2.507690000000000E+00      2.399979000000000E-01      1.103164000000000E+02
4870000000.000000      4.699097000000000E-01     -9.948242000000000E+00      5.129700000000000E-01     -1.795781000000000E+02      5.578918000000000E-01     -2.441772000000000E+00      2.448883000000000E-01      1.113398000000000E+02
4871000000.000000      4.730835000000000E-01     -9.853516000000000E+00      5.132446000000000E-01      1.796797000000000E+02      5.592346000000000E-01     -2.610718000000000E+00      2.512817000000000E-01      1.113555000000000E+02
4872000000.000000      4.770813000000000E-01     -9.672363000000000E+00      5.149536000000000E-01      1.796094000000000E+02      5.566711000000000E-01     -2.922363000000000E+00      2.581482000000000E-01      1.119180000000000E+02
4873000000.000000      4.757843000000000E-01     -9.486816000000000E+00      5.136414000000000E-01      1.789844000000000E+02      5.574341000000000E-01     -2.952637000000000E+00      2.631989000000000E-01      1.129688000000000E+02
4874000000.000000      4.808502000000000E-01     -9.322266000000000E+00      5.141296000000000E-01      1.786641000000000E+02      5.571899000000000E-01     -2.915527000000000E+00      2.663269000000000E-01      1.133437000000000E+02
4875000000.000000      4.817505000000000E-01     -9.367676000000000E+00      5.162354000000000E-01      1.785156000000000E+02      5.551758000000000E-01     -3.011719000000000E+00      2.723389000000000E-01      1.137773000000000E+02
4876000000.000000      4.849091000000000E-01     -8.749512000000000E+00      5.169678000000000E-01      1.779531000000000E+02      5.566406000000000E-01     -3.085815000000000E+00      2.778778000000000E-01      1.144805000000000E+02
4877000000.000000      4.867554000000000E-01     -8.871582000000000E+00      5.171204000000000E-01      1.776641000000000E+02      5.565796000000000E-01     -3.256104000000000E+00      2.815094000000000E-01      1.144336000000000E+02
4878000000.000000      4.906921000000000E-01     -8.636719000000000E+00      5.160522000000000E-01      1.774062000000000E+02      5.547791000000000E-01     -3.257446000000000E+00      2.870941000000000E-01      1.150117000000000E+02
4879000000.000000      4.927673000000000E-01     -8.565430000000000E+00      5.156860000000000E-01      1.770781000000000E+02      5.552368000000000E-01     -3.203979000000000E+00      2.920990000000000E-01      1.154648000000000E+02
4880000000.000000      4.954987000000000E-01     -8.521484000000000E+00      5.183411000000000E-01      1.766875000000000E+02      5.542297000000000E-01     -3.396240000000000E+00      2.954865000000000E-01      1.154062000000000E+02
4881000000.000000      4.990540000000000E-01     -8.378906000000000E+00      5.187073000000000E-01      1.762422000000000E+02      5.538940000000000E-01     -3.316528000000000E+00      3.001404000000000E-01      1.159453000000000E+02
4882000000.000000      5.022583000000000E-01     -8.154785000000000E+00      5.202026000000000E-01      1.757109000000000E+02      5.525818000000000E-01     -3.257446000000000E+00      3.045959000000000E-01      1.158398000000000E+02
