! Network Analyzer HP8722D
! Hewlett-Packard
! Data name: Linha & Wilkinson
! Saver's name: Rodrigo Anjos
! Comments: Teste da utilização de aquisição
continua pelo VNA HP8722D
! Time and date: 8/5/2025 12:53
!              Frequency                     S11                                                   S21                                                   S12                                                   S22
# HZ  S  MA R 50
4800000000.000000      6.123047000000000E-01     -4.786718000000000E+01      4.165649000000000E-01     -2.195703000000000E+01      4.854431000000000E-01     -1.757734000000000E+02      4.913940000000000E-01     -1.799922000000000E+02
4801000000.000000      6.123352000000000E-01     -4.803515000000000E+01      4.174042000000000E-01     -2.245215000000000E+01      4.868622000000000E-01     -1.759453000000000E+02      4.928284000000000E-01      1.797578000000000E+02
4802000000.000000      6.142578000000000E-01     -4.884960000000000E+01      4.180756000000000E-01     -2.273633000000000E+01      4.910126000000000E-01     -1.761484000000000E+02      4.942169000000000E-01      1.791875000000000E+02
4803000000.000000      6.171265000000000E-01     -4.936328000000000E+01      4.201202000000000E-01     -2.323828000000000E+01      4.929047000000000E-01     -1.763515000000000E+02      4.958496000000000E-01      1.788359000000000E+02
4804000000.000000      6.217346000000000E-01     -5.007617000000000E+01      4.201965000000000E-01     -2.378320000000000E+01      4.960938000000000E-01     -1.767422000000000E+02      4.973297000000000E-01      1.787812000000000E+02
4805000000.000000      6.225281000000000E-01     -5.061132000000000E+01      4.199982000000000E-01     -2.415918000000000E+01      5.007935000000000E-01     -1.772422000000000E+02      4.996185000000000E-01      1.778437000000000E+02
4806000000.000000      6.226501000000000E-01     -5.112499000000000E+01      4.211578000000000E-01     -2.489648000000000E+01      5.012512000000000E-01     -1.771797000000000E+02      5.028687000000000E-01      1.778594000000000E+02
4807000000.000000      6.262512000000000E-01     -5.189648000000000E+01      4.218750000000000E-01     -2.544629000000000E+01      5.036926000000000E-01     -1.777578000000000E+02      5.036011000000000E-01      1.772812000000000E+02
4808000000.000000      6.272278000000000E-01     -5.229101000000000E+01      4.222870000000000E-01     -2.572754000000000E+01      5.062561000000000E-01     -1.778125000000000E+02      5.039978000000000E-01      1.772266000000000E+02
4809000000.000000      6.298218000000000E-01     -5.272461000000000E+01      4.230042000000000E-01     -2.647168000000000E+01      5.107422000000000E-01     -1.782969000000000E+02      5.106506000000000E-01      1.768672000000000E+02
4810000000.000000      6.313477000000000E-01     -5.343359000000000E+01      4.241333000000000E-01     -2.664941000000000E+01      5.134888000000000E-01     -1.786953000000000E+02      5.113525000000000E-01      1.762500000000000E+02
4811000000.000000      6.356506000000000E-01     -5.395898000000000E+01      4.248810000000000E-01     -2.746191000000000E+01      5.174561000000000E-01     -1.789063000000000E+02      5.125732000000000E-01      1.760000000000000E+02
4812000000.000000      6.389465000000000E-01     -5.430664000000000E+01      4.240265000000000E-01     -2.798925000000000E+01      5.210571000000000E-01     -1.791484000000000E+02      5.153503000000000E-01      1.753828000000000E+02
4813000000.000000      6.404419000000000E-01     -5.495898000000000E+01      4.253540000000000E-01     -2.843457000000000E+01      5.221252000000000E-01     -1.794062000000000E+02      5.178833000000000E-01      1.751484000000000E+02
4814000000.000000      6.385803000000000E-01     -5.537109000000000E+01      4.257355000000000E-01     -2.883691000000000E+01      5.256042000000000E-01     -1.799219000000000E+02      5.196228000000000E-01      1.747031000000000E+02
4815000000.000000      6.424561000000000E-01     -5.583984000000000E+01      4.233856000000000E-01     -2.948633000000000E+01      5.263672000000000E-01      1.794453000000000E+02      5.204468000000000E-01      1.741641000000000E+02
4816000000.000000      6.438904000000000E-01     -5.631249000000000E+01      4.243622000000000E-01     -3.001660000000000E+01      5.329285000000000E-01      1.793594000000000E+02      5.222168000000000E-01      1.739219000000000E+02
4817000000.000000      6.451721000000000E-01     -5.666016000000000E+01      4.261780000000000E-01     -3.054785000000000E+01      5.316772000000000E-01      1.788281000000000E+02      5.243835000000000E-01      1.734766000000000E+02
4818000000.000000      6.487122000000000E-01     -5.722656000000000E+01      4.249725000000000E-01     -3.104687000000000E+01      5.360107000000000E-01      1.782266000000000E+02      5.266724000000000E-01      1.727734000000000E+02
4819000000.000000      6.486511000000000E-01     -5.759960000000000E+01      4.254150000000000E-01     -3.142383000000000E+01      5.398560000000000E-01      1.779453000000000E+02      5.285034000000000E-01      1.729687000000000E+02
4820000000.000000      6.484070000000000E-01     -5.798633000000000E+01      4.251251000000000E-01     -3.214062000000000E+01      5.413513000000000E-01      1.771875000000000E+02      5.271912000000000E-01      1.720625000000000E+02
4821000000.000000      6.492615000000000E-01     -5.862109000000000E+01      4.239044000000000E-01     -3.249804000000000E+01      5.425415000000000E-01      1.766953000000000E+02      5.295105000000000E-01      1.715937000000000E+02
4822000000.000000      6.533203000000000E-01     -5.883203000000000E+01      4.219971000000000E-01     -3.305664000000000E+01      5.468750000000000E-01      1.763515000000000E+02      5.315247000000000E-01      1.711797000000000E+02
4823000000.000000      6.548462000000000E-01     -5.919335000000000E+01      4.219513000000000E-01     -3.357422000000000E+01      5.484009000000000E-01      1.758984000000000E+02      5.307007000000000E-01      1.703359000000000E+02
4824000000.000000      6.545105000000000E-01     -5.949413000000000E+01      4.192505000000000E-01     -3.409765000000000E+01      5.508118000000000E-01      1.751172000000000E+02      5.310669000000000E-01      1.702109000000000E+02
4825000000.000000      6.555786000000000E-01     -5.976563000000000E+01      4.204865000000000E-01     -3.451953000000000E+01      5.532532000000000E-01      1.749219000000000E+02      5.313416000000000E-01      1.695859000000000E+02
4826000000.000000      6.555786000000000E-01     -6.003515000000000E+01      4.192047000000000E-01     -3.513476000000000E+01      5.527344000000000E-01      1.742500000000000E+02      5.313416000000000E-01      1.691484000000000E+02
4827000000.000000      6.567383000000000E-01     -6.041406000000000E+01      4.195557000000000E-01     -3.558398000000000E+01      5.571594000000000E-01      1.737109000000000E+02      5.303040000000000E-01      1.685000000000000E+02
4828000000.000000      6.596375000000000E-01     -6.065820000000000E+01      4.174500000000000E-01     -3.606836000000000E+01      5.592346000000000E-01      1.733203000000000E+02      5.338745000000000E-01      1.682422000000000E+02
4829000000.000000      6.571045000000000E-01     -6.086523000000000E+01      4.160767000000000E-01     -3.664258000000000E+01      5.595093000000000E-01      1.727187000000000E+02      5.287781000000000E-01      1.676328000000000E+02
4830000000.000000      6.577759000000000E-01     -6.098242000000000E+01      4.153442000000000E-01     -3.713672000000000E+01      5.611267000000000E-01      1.718203000000000E+02      5.277405000000000E-01      1.667891000000000E+02
4831000000.000000      6.598206000000000E-01     -6.121875000000000E+01      4.136963000000000E-01     -3.776953000000000E+01      5.621033000000000E-01      1.714922000000000E+02      5.270386000000000E-01      1.667031000000000E+02
4832000000.000000      6.619568000000000E-01     -6.126758000000000E+01      4.125519000000000E-01     -3.791016000000000E+01      5.626831000000000E-01      1.708281000000000E+02      5.230408000000000E-01      1.661172000000000E+02
4833000000.000000      6.583862000000000E-01     -6.158008000000000E+01      4.134369000000000E-01     -3.835546000000000E+01      5.637817000000000E-01      1.700938000000000E+02      5.209351000000000E-01      1.653594000000000E+02
4834000000.000000      6.583252000000000E-01     -6.158984000000000E+01      4.114838000000000E-01     -3.890429000000000E+01      5.630188000000000E-01      1.695937000000000E+02      5.187988000000000E-01      1.648750000000000E+02
4835000000.000000      6.610107000000000E-01     -6.169335000000000E+01      4.102631000000000E-01     -3.953125000000000E+01      5.646362000000000E-01      1.688672000000000E+02      5.137634000000000E-01      1.642969000000000E+02
4836000000.000000      6.619263000000000E-01     -6.153710000000000E+01      4.082489000000000E-01     -3.978711000000000E+01      5.618896000000000E-01      1.682891000000000E+02      5.084839000000000E-01      1.641406000000000E+02
4837000000.000000      6.615601000000000E-01     -6.169531000000000E+01      4.068298000000000E-01     -4.046094000000000E+01      5.624390000000000E-01      1.675547000000000E+02      5.054626000000000E-01      1.634844000000000E+02
4838000000.000000      6.619873000000000E-01     -6.174999000000000E+01      4.060669000000000E-01     -4.069726000000000E+01      5.603638000000000E-01      1.668906000000000E+02      5.015869000000000E-01      1.631484000000000E+02
4839000000.000000      6.646118000000000E-01     -6.146289000000000E+01      4.058075000000000E-01     -4.114843000000000E+01      5.609741000000000E-01      1.664609000000000E+02      4.947357000000000E-01      1.628828000000000E+02
4840000000.000000      6.617432000000000E-01     -6.183398000000000E+01      4.049072000000000E-01     -4.164258000000000E+01      5.601501000000000E-01      1.656328000000000E+02      4.909668000000000E-01      1.620625000000000E+02
4841000000.000000      6.623840000000000E-01     -6.148242000000000E+01      4.043579000000000E-01     -4.206836000000000E+01      5.578613000000000E-01      1.648438000000000E+02      4.844208000000000E-01      1.619375000000000E+02
4842000000.000000      6.638184000000000E-01     -6.143555000000000E+01      4.022064000000000E-01     -4.252343000000000E+01      5.543213000000000E-01      1.643906000000000E+02      4.791107000000000E-01      1.612813000000000E+02
4843000000.000000      6.663513000000000E-01     -6.154297000000000E+01      4.020386000000000E-01     -4.304883000000000E+01      5.527344000000000E-01      1.636406000000000E+02      4.737244000000000E-01      1.611328000000000E+02
4844000000.000000      6.625366000000000E-01     -6.127930000000000E+01      4.000092000000000E-01     -4.351171000000000E+01      5.513611000000000E-01      1.628515000000000E+02      4.672852000000000E-01      1.605703000000000E+02
4845000000.000000      6.650696000000000E-01     -6.102734000000000E+01      3.995056000000000E-01     -4.390429000000000E+01      5.495300000000000E-01      1.623359000000000E+02      4.574890000000000E-01      1.604219000000000E+02
4846000000.000000      6.635437000000000E-01     -6.086132000000000E+01      3.975220000000000E-01     -4.416992000000000E+01      5.484924000000000E-01      1.616094000000000E+02      4.522095000000000E-01      1.602109000000000E+02
4847000000.000000      6.652832000000000E-01     -6.052929000000000E+01      3.957214000000000E-01     -4.451562000000000E+01      5.440674000000000E-01      1.610859000000000E+02      4.448242000000000E-01      1.599531000000000E+02
4848000000.000000      6.641235000000000E-01     -6.042187000000000E+01      3.954926000000000E-01     -4.499609000000000E+01      5.409241000000000E-01      1.605078000000000E+02      4.340820000000000E-01      1.593359000000000E+02
4849000000.000000      6.651611000000000E-01     -6.046484000000000E+01      3.928986000000000E-01     -4.556836000000000E+01      5.378418000000000E-01      1.596719000000000E+02      4.261627000000000E-01      1.593906000000000E+02
4850000000.000000      6.656494000000000E-01     -6.010351000000000E+01      3.925629000000000E-01     -4.570703000000000E+01      5.331421000000000E-01      1.590312000000000E+02      4.198608000000000E-01      1.593437000000000E+02
4851000000.000000      6.669312000000000E-01     -5.986328000000000E+01      3.920135000000000E-01     -4.625390000000000E+01      5.309143000000000E-01      1.587734000000000E+02      4.113007000000000E-01      1.591328000000000E+02
4852000000.000000      6.672974000000000E-01     -5.952538000000000E+01      3.902130000000000E-01     -4.691211000000000E+01      5.280151000000000E-01      1.580547000000000E+02      4.008331000000000E-01      1.591797000000000E+02
4853000000.000000      6.681213000000000E-01     -5.924023000000000E+01      3.894348000000000E-01     -4.713281000000000E+01      5.239868000000000E-01      1.574609000000000E+02      3.937531000000000E-01      1.590859000000000E+02
4854000000.000000      6.694641000000000E-01     -5.897070000000000E+01      3.876343000000000E-01     -4.777148000000000E+01      5.187683000000000E-01      1.570937000000000E+02      3.844910000000000E-01      1.592344000000000E+02
4855000000.000000      6.673279000000000E-01     -5.875195000000000E+01      3.864136000000000E-01     -4.809960000000000E+01      5.146484000000000E-01      1.564297000000000E+02      3.768463000000000E-01      1.594922000000000E+02
4856000000.000000      6.691284000000000E-01     -5.846484000000000E+01      3.869934000000000E-01     -4.844727000000000E+01      5.119629000000000E-01      1.557500000000000E+02      3.674011000000000E-01      1.596641000000000E+02
4857000000.000000      6.716003000000000E-01     -5.833984000000000E+01      3.851471000000000E-01     -4.900781000000000E+01      5.064697000000000E-01      1.554531000000000E+02      3.566284000000000E-01      1.600937000000000E+02
4858000000.000000      6.705627000000000E-01     -5.775000000000000E+01      3.838654000000000E-01     -4.929101000000000E+01      5.003052000000000E-01      1.547188000000000E+02      3.495483000000000E-01      1.602813000000000E+02
4859000000.000000      6.710510000000000E-01     -5.759179000000000E+01      3.826752000000000E-01     -5.002148000000000E+01      4.975281000000000E-01      1.543828000000000E+02      3.405457000000000E-01      1.605547000000000E+02
4860000000.000000      6.727295000000000E-01     -5.717578000000000E+01      3.795471000000000E-01     -5.046679000000000E+01      4.906158000000000E-01      1.537578000000000E+02      3.316803000000000E-01      1.613516000000000E+02
4861000000.000000      6.741638000000000E-01     -5.680859000000000E+01      3.794861000000000E-01     -5.099414000000000E+01      4.886475000000000E-01      1.534141000000000E+02      3.233795000000000E-01      1.618047000000000E+02
4862000000.000000      6.730957000000000E-01     -5.661133000000000E+01      3.775940000000000E-01     -5.121484000000000E+01      4.835358000000000E-01      1.528906000000000E+02      3.145142000000000E-01      1.625625000000000E+02
4863000000.000000      6.766357000000000E-01     -5.622851000000000E+01      3.751373000000000E-01     -5.200195000000000E+01      4.795990000000000E-01      1.523672000000000E+02      3.056335000000000E-01      1.629844000000000E+02
4864000000.000000      6.761169000000000E-01     -5.602344000000000E+01      3.749084000000000E-01     -5.219336000000000E+01      4.736786000000000E-01      1.521328000000000E+02      2.986603000000000E-01      1.641797000000000E+02
4865000000.000000      6.776428000000000E-01     -5.559960000000000E+01      3.726807000000000E-01     -5.279101000000000E+01      4.693298000000000E-01      1.517031000000000E+02      2.885437000000000E-01      1.650391000000000E+02
4866000000.000000      6.773071000000000E-01     -5.525391000000000E+01      3.706818000000000E-01     -5.337304000000000E+01      4.650421000000000E-01      1.512422000000000E+02      2.811890000000000E-01      1.657031000000000E+02
4867000000.000000      6.773682000000000E-01     -5.472265000000000E+01      3.689880000000000E-01     -5.380859000000000E+01      4.587555000000000E-01      1.507031000000000E+02      2.737579000000000E-01      1.671094000000000E+02
4868000000.000000      6.780701000000000E-01     -5.460546000000000E+01      3.690643000000000E-01     -5.439648000000000E+01      4.560089000000000E-01      1.505234000000000E+02      2.671967000000000E-01      1.683594000000000E+02
4869000000.000000      6.808472000000000E-01     -5.420312000000000E+01      3.671875000000000E-01     -5.479297000000000E+01      4.504242000000000E-01      1.500781000000000E+02      2.609253000000000E-01      1.693516000000000E+02
4870000000.000000      6.790161000000000E-01     -5.383789000000000E+01      3.646240000000000E-01     -5.492382000000000E+01      4.455872000000000E-01      1.497031000000000E+02      2.540436000000000E-01      1.707656000000000E+02
4871000000.000000      6.790161000000000E-01     -5.356250000000000E+01      3.642120000000000E-01     -5.591406000000000E+01      4.422913000000000E-01      1.491875000000000E+02      2.460022000000000E-01      1.724844000000000E+02
4872000000.000000      6.824036000000000E-01     -5.341015000000000E+01      3.610229000000000E-01     -5.603906000000000E+01      4.362183000000000E-01      1.489297000000000E+02      2.407608000000000E-01      1.739453000000000E+02
4873000000.000000      6.805725000000000E-01     -5.280078000000000E+01      3.578339000000000E-01     -5.700390000000000E+01      4.312439000000000E-01      1.484922000000000E+02      2.363663000000000E-01      1.758281000000000E+02
4874000000.000000      6.839294000000000E-01     -5.257617000000000E+01      3.563690000000000E-01     -5.750977000000000E+01      4.286499000000000E-01      1.481250000000000E+02      2.305222000000000E-01      1.777031000000000E+02
4875000000.000000      6.832886000000000E-01     -5.226953000000000E+01      3.563232000000000E-01     -5.790039000000000E+01      4.228973000000000E-01      1.479375000000000E+02      2.265472000000000E-01      1.794531000000000E+02
4876000000.000000      6.829529000000000E-01     -5.175390000000000E+01      3.538818000000000E-01     -5.867578000000000E+01      4.187317000000000E-01      1.476641000000000E+02      2.233353000000000E-01     -1.786953000000000E+02
4877000000.000000      6.828003000000000E-01     -5.157421000000000E+01      3.508453000000000E-01     -5.912304000000000E+01      4.144745000000000E-01      1.471250000000000E+02      2.175751000000000E-01     -1.767812000000000E+02
4878000000.000000      6.837463000000000E-01     -5.108203000000000E+01      3.500214000000000E-01     -5.968359000000000E+01      4.088287000000000E-01      1.469844000000000E+02      2.142868000000000E-01     -1.748125000000000E+02
4879000000.000000      6.847229000000000E-01     -5.077148000000000E+01      3.451996000000000E-01     -6.021093000000000E+01      4.056091000000000E-01      1.464531000000000E+02      2.130051000000000E-01     -1.723438000000000E+02
4880000000.000000      6.850891000000000E-01     -5.058788000000000E+01      3.443298000000000E-01     -6.058984000000000E+01      4.009247000000000E-01      1.461328000000000E+02      2.102127000000000E-01     -1.704062000000000E+02
4881000000.000000      6.835632000000000E-01     -5.018945000000000E+01      3.414154000000000E-01     -6.105469000000000E+01      3.962860000000000E-01      1.459922000000000E+02      2.086411000000000E-01     -1.685234000000000E+02
4882000000.000000      6.833801000000000E-01     -4.968163000000000E+01      3.405304000000000E-01     -6.172265000000000E+01      3.934479000000000E-01      1.455469000000000E+02      2.070923000000000E-01     -1.662109000000000E+02
