! Network Analyzer HP8722D
! Hewlett-Packard
! Data name: Linha & Wilkinson
! Saver's name: Rodrigo Anjos
! Comments: Teste da utilização de aquisição
continua pelo VNA HP8722D
! Time and date: 8/5/2025 13:56
!              Frequency                     S11                                                   S21                                                   S12                                                   S22
# HZ  S  MA R 50
4800000000.000000      5.355835000000000E-01     -2.539160000000000E+01      3.628387000000000E-01     -1.487266000000000E+02      3.813019000000000E-01      1.064697000000000E+01      5.036621000000000E-01      1.304626000000000E+00
4801000000.000000      5.343323000000000E-01     -2.498242000000000E+01      3.670807000000000E-01     -1.489844000000000E+02      3.844452000000000E-01      1.059863000000000E+01      4.994659000000000E-01      1.514709000000000E+00
4802000000.000000      5.341797000000000E-01     -2.491992000000000E+01      3.706207000000000E-01     -1.494062000000000E+02      3.878632000000000E-01      1.039014000000000E+01      4.946899000000000E-01      1.844299000000000E+00
4803000000.000000      5.316162000000000E-01     -2.470215000000000E+01      3.755798000000000E-01     -1.497500000000000E+02      3.920898000000000E-01      1.028174000000000E+01      4.867554000000000E-01      1.756409000000000E+00
4804000000.000000      5.310974000000000E-01     -2.429394000000000E+01      3.795013000000000E-01     -1.501328000000000E+02      3.977966000000000E-01      1.009229000000000E+01      4.822235000000000E-01      1.684998000000000E+00
4805000000.000000      5.306396000000000E-01     -2.437109000000000E+01      3.833923000000000E-01     -1.506094000000000E+02      4.010162000000000E-01      1.001221000000000E+01      4.754486000000000E-01      1.801758000000000E+00
4806000000.000000      5.288086000000000E-01     -2.381348000000000E+01      3.868561000000000E-01     -1.509453000000000E+02      4.035950000000000E-01      9.956055000000000E+00      4.660950000000000E-01      1.728943000000000E+00
4807000000.000000      5.270386000000000E-01     -2.365429000000000E+01      3.905792000000000E-01     -1.514609000000000E+02      4.050446000000000E-01      9.371094000000000E+00      4.601288000000000E-01      2.161499000000000E+00
4808000000.000000      5.273743000000000E-01     -2.327929000000000E+01      3.951111000000000E-01     -1.517969000000000E+02      4.121246000000000E-01      9.538574000000000E+00      4.534302000000000E-01      2.263184000000000E+00
4809000000.000000      5.258789000000000E-01     -2.295508000000000E+01      3.990631000000000E-01     -1.522656000000000E+02      4.158173000000000E-01      9.184570000000000E+00      4.465942000000000E-01      2.474609000000000E+00
4810000000.000000      5.236816000000000E-01     -2.289551000000000E+01      4.030304000000000E-01     -1.526875000000000E+02      4.179077000000000E-01      9.117188000000000E+00      4.399414000000000E-01      2.355103000000000E+00
4811000000.000000      5.224609000000000E-01     -2.258008000000000E+01      4.067078000000000E-01     -1.531484000000000E+02      4.237518000000000E-01      9.181641000000000E+00      4.323425000000000E-01      2.811035000000000E+00
4812000000.000000      5.234375000000000E-01     -2.244922000000000E+01      4.103699000000000E-01     -1.535469000000000E+02      4.269104000000000E-01      8.781738000000000E+00      4.241791000000000E-01      2.749268000000000E+00
4813000000.000000      5.196533000000000E-01     -2.214160000000000E+01      4.136353000000000E-01     -1.540390000000000E+02      4.297943000000000E-01      8.743652000000000E+00      4.172974000000000E-01      3.258789000000000E+00
4814000000.000000      5.173645000000000E-01     -2.204297000000000E+01      4.173279000000000E-01     -1.544609000000000E+02      4.349976000000000E-01      8.715820000000000E+00      4.088745000000000E-01      3.224487000000000E+00
4815000000.000000      5.169983000000000E-01     -2.183008000000000E+01      4.196472000000000E-01     -1.548437000000000E+02      4.349670000000000E-01      8.496094000000000E+00      4.006042000000000E-01      3.667969000000000E+00
4816000000.000000      5.165405000000000E-01     -2.182715000000000E+01      4.236755000000000E-01     -1.552344000000000E+02      4.411469000000000E-01      8.577148000000000E+00      3.934021000000000E-01      3.727051000000000E+00
4817000000.000000      5.140076000000000E-01     -2.135547000000000E+01      4.265289000000000E-01     -1.558359000000000E+02      4.428406000000000E-01      8.172363000000000E+00      3.827515000000000E-01      4.158203000000000E+00
4818000000.000000      5.122375000000000E-01     -2.119727000000000E+01      4.294434000000000E-01     -1.562344000000000E+02      4.472961000000000E-01      8.213379000000000E+00      3.745422000000000E-01      4.344971000000000E+00
4819000000.000000      5.119629000000000E-01     -2.115039000000000E+01      4.323273000000000E-01     -1.566719000000000E+02      4.509583000000000E-01      7.818115000000000E+00      3.652954000000000E-01      4.524902000000000E+00
4820000000.000000      5.101013000000000E-01     -2.096777000000000E+01      4.356232000000000E-01     -1.570547000000000E+02      4.542389000000000E-01      7.639404000000000E+00      3.567200000000000E-01      5.101563000000000E+00
4821000000.000000      5.112915000000000E-01     -2.078613000000000E+01      4.393005000000000E-01     -1.576875000000000E+02      4.569092000000000E-01      7.529541000000000E+00      3.474884000000000E-01      5.556152000000000E+00
4822000000.000000      5.086670000000000E-01     -2.086035000000000E+01      4.405975000000000E-01     -1.580703000000000E+02      4.597778000000000E-01      7.401855000000000E+00      3.400726000000000E-01      5.677002000000000E+00
4823000000.000000      5.057068000000000E-01     -2.043652000000000E+01      4.446564000000000E-01     -1.586250000000000E+02      4.648438000000000E-01      7.467773000000000E+00      3.301239000000000E-01      6.083496000000000E+00
4824000000.000000      5.037842000000000E-01     -2.023633000000000E+01      4.468536000000000E-01     -1.591250000000000E+02      4.657288000000000E-01      7.163086000000000E+00      3.200836000000000E-01      6.529785000000000E+00
4825000000.000000      5.015869000000000E-01     -2.030273000000000E+01      4.484100000000000E-01     -1.594453000000000E+02      4.709473000000000E-01      7.213867000000000E+00      3.126831000000000E-01      7.164307000000000E+00
4826000000.000000      5.008850000000000E-01     -2.018359000000000E+01      4.522095000000000E-01     -1.600625000000000E+02      4.728394000000000E-01      6.815430000000000E+00      3.017426000000000E-01      7.712402000000000E+00
4827000000.000000      4.997253000000000E-01     -1.991699000000000E+01      4.540558000000000E-01     -1.602890000000000E+02      4.760284000000000E-01      6.803223000000000E+00      2.932129000000000E-01      8.284668000000000E+00
4828000000.000000      4.971161000000000E-01     -1.979199000000000E+01      4.566956000000000E-01     -1.607578000000000E+02      4.795074000000000E-01      6.587646000000000E+00      2.835693000000000E-01      8.783203000000000E+00
4829000000.000000      4.933777000000000E-01     -1.946973000000000E+01      4.595184000000000E-01     -1.613516000000000E+02      4.816437000000000E-01      6.505127000000000E+00      2.759247000000000E-01      9.859863000000000E+00
4830000000.000000      4.959412000000000E-01     -1.974316000000000E+01      4.607849000000000E-01     -1.619297000000000E+02      4.855804000000000E-01      6.233154000000000E+00      2.649841000000000E-01      1.066895000000000E+01
4831000000.000000      4.931641000000000E-01     -1.951758000000000E+01      4.635773000000000E-01     -1.624063000000000E+02      4.886475000000000E-01      6.216797000000000E+00      2.553101000000000E-01      1.144775000000000E+01
4832000000.000000      4.914551000000000E-01     -1.915234000000000E+01      4.648590000000000E-01     -1.626094000000000E+02      4.914093000000000E-01      5.955811000000000E+00      2.447815000000000E-01      1.280273000000000E+01
4833000000.000000      4.886932000000000E-01     -1.903711000000000E+01      4.672852000000000E-01     -1.630859000000000E+02      4.947662000000000E-01      5.858398000000000E+00      2.366180000000000E-01      1.370361000000000E+01
4834000000.000000      4.865265000000000E-01     -1.900293000000000E+01      4.689789000000000E-01     -1.636328000000000E+02      4.970245000000000E-01      5.700439000000000E+00      2.271271000000000E-01      1.510889000000000E+01
4835000000.000000      4.865570000000000E-01     -1.871973000000000E+01      4.710693000000000E-01     -1.640547000000000E+02      5.010986000000000E-01      5.476563000000000E+00      2.175827000000000E-01      1.630566000000000E+01
4836000000.000000      4.854584000000000E-01     -1.850390000000000E+01      4.720612000000000E-01     -1.644297000000000E+02      5.021667000000000E-01      5.537109000000000E+00      2.090454000000000E-01      1.806250000000000E+01
4837000000.000000      4.833679000000000E-01     -1.831347000000000E+01      4.736023000000000E-01     -1.651641000000000E+02      5.040588000000000E-01      5.021973000000000E+00      1.995926000000000E-01      1.981934000000000E+01
4838000000.000000      4.814911000000000E-01     -1.825195000000000E+01      4.763641000000000E-01     -1.653047000000000E+02      5.083008000000000E-01      5.104492000000000E+00      1.916885000000000E-01      2.159570000000000E+01
4839000000.000000      4.809418000000000E-01     -1.805273000000000E+01      4.773865000000000E-01     -1.657266000000000E+02      5.095520000000000E-01      4.885986000000000E+00      1.841202000000000E-01      2.330469000000000E+01
4840000000.000000      4.782715000000000E-01     -1.809180000000000E+01      4.792480000000000E-01     -1.662500000000000E+02      5.129089000000000E-01      4.862793000000000E+00      1.754074000000000E-01      2.554590000000000E+01
4841000000.000000      4.751740000000000E-01     -1.759473000000000E+01      4.804993000000000E-01     -1.667344000000000E+02      5.159607000000000E-01      4.432861000000000E+00      1.684723000000000E-01      2.840429000000000E+01
4842000000.000000      4.743958000000000E-01     -1.762988000000000E+01      4.815826000000000E-01     -1.671016000000000E+02      5.169983000000000E-01      4.533203000000000E+00      1.621780000000000E-01      3.116406000000000E+01
4843000000.000000      4.761810000000000E-01     -1.740234000000000E+01      4.838715000000000E-01     -1.675703000000000E+02      5.200195000000000E-01      4.375244000000000E+00      1.545639000000000E-01      3.422070000000000E+01
4844000000.000000      4.721222000000000E-01     -1.711035000000000E+01      4.838715000000000E-01     -1.679453000000000E+02      5.217590000000000E-01      4.127930000000000E+00      1.469498000000000E-01      3.776562000000000E+01
4845000000.000000      4.694824000000000E-01     -1.682226000000000E+01      4.852905000000000E-01     -1.682969000000000E+02      5.238647000000000E-01      3.941284000000000E+00      1.435852000000000E-01      4.106054000000000E+01
4846000000.000000      4.690552000000000E-01     -1.672461000000000E+01      4.871979000000000E-01     -1.687891000000000E+02      5.276184000000000E-01      3.743530000000000E+00      1.380463000000000E-01      4.507226000000000E+01
4847000000.000000      4.663544000000000E-01     -1.652246000000000E+01      4.881287000000000E-01     -1.689844000000000E+02      5.299377000000000E-01      3.707886000000000E+00      1.335526000000000E-01      4.908593000000000E+01
4848000000.000000      4.659882000000000E-01     -1.631250000000000E+01      4.874420000000000E-01     -1.694375000000000E+02      5.313416000000000E-01      3.367310000000000E+00      1.309280000000000E-01      5.359375000000000E+01
4849000000.000000      4.666901000000000E-01     -1.615332000000000E+01      4.899445000000000E-01     -1.698672000000000E+02      5.337830000000000E-01      3.214844000000000E+00      1.283493000000000E-01      5.821679000000000E+01
4850000000.000000      4.637451000000000E-01     -1.584521000000000E+01      4.900360000000000E-01     -1.703047000000000E+02      5.345764000000000E-01      3.065186000000000E+00      1.278687000000000E-01      6.266796000000000E+01
4851000000.000000      4.654236000000000E-01     -1.521094000000000E+01      4.928284000000000E-01     -1.706797000000000E+02      5.346069000000000E-01      3.045898000000000E+00      1.270294000000000E-01      6.692968000000000E+01
4852000000.000000      4.626617000000000E-01     -1.538379000000000E+01      4.926300000000000E-01     -1.709609000000000E+02      5.370178000000000E-01      2.830322000000000E+00      1.281128000000000E-01      7.138672000000000E+01
4853000000.000000      4.633942000000000E-01     -1.513672000000000E+01      4.927063000000000E-01     -1.713125000000000E+02      5.406189000000000E-01      2.749268000000000E+00      1.294174000000000E-01      7.620703000000000E+01
4854000000.000000      4.622040000000000E-01     -1.461328000000000E+01      4.942932000000000E-01     -1.718906000000000E+02      5.414124000000000E-01      2.557007000000000E+00      1.323395000000000E-01      7.997265000000000E+01
4855000000.000000      4.614716000000000E-01     -1.463281000000000E+01      4.950256000000000E-01     -1.721484000000000E+02      5.422363000000000E-01      2.241211000000000E+00      1.345367000000000E-01      8.435156000000000E+01
4856000000.000000      4.603119000000000E-01     -1.427539000000000E+01      4.953766000000000E-01     -1.724766000000000E+02      5.440674000000000E-01      2.102417000000000E+00      1.391220000000000E-01      8.848827000000000E+01
4857000000.000000      4.627838000000000E-01     -1.393359000000000E+01      4.979401000000000E-01     -1.729453000000000E+02      5.462646000000000E-01      2.051636000000000E+00      1.425171000000000E-01      9.162109000000000E+01
4858000000.000000      4.610596000000000E-01     -1.371826000000000E+01      4.974518000000000E-01     -1.731797000000000E+02      5.458374000000000E-01      1.723450000000000E+00      1.476440000000000E-01      9.493750000000000E+01
4859000000.000000      4.611359000000000E-01     -1.364111000000000E+01      4.988861000000000E-01     -1.736719000000000E+02      5.462646000000000E-01      1.693237000000000E+00      1.529617000000000E-01      9.732031000000000E+01
4860000000.000000      4.617310000000000E-01     -1.316455000000000E+01      4.990387000000000E-01     -1.738359000000000E+02      5.472412000000000E-01      1.536682000000000E+00      1.591339000000000E-01      1.001601000000000E+02
4861000000.000000      4.620667000000000E-01     -1.270020000000000E+01      5.009460000000000E-01     -1.745469000000000E+02      5.489807000000000E-01      1.289490000000000E+00      1.641235000000000E-01      1.029531000000000E+02
4862000000.000000      4.608154000000000E-01     -1.255615000000000E+01      5.006714000000000E-01     -1.744844000000000E+02      5.493774000000000E-01      1.186523000000000E+00      1.705017000000000E-01      1.049844000000000E+02
4863000000.000000      4.634552000000000E-01     -1.210693000000000E+01      5.017090000000000E-01     -1.750156000000000E+02      5.497131000000000E-01      1.109619000000000E+00      1.782913000000000E-01      1.063906000000000E+02
4864000000.000000      4.639893000000000E-01     -1.181592000000000E+01      5.027466000000000E-01     -1.752266000000000E+02      5.489807000000000E-01      1.040955000000000E+00      1.839142000000000E-01      1.081680000000000E+02
4865000000.000000      4.631653000000000E-01     -1.173926000000000E+01      5.019226000000000E-01     -1.755938000000000E+02      5.507202000000000E-01      7.690430000000000E-01      1.902695000000000E-01      1.098164000000000E+02
4866000000.000000      4.647064000000000E-01     -1.112646000000000E+01      5.039978000000000E-01     -1.761172000000000E+02      5.512085000000000E-01      5.589294000000000E-01      1.965408000000000E-01      1.112891000000000E+02
4867000000.000000      4.666138000000000E-01     -1.104004000000000E+01      5.043945000000000E-01     -1.765234000000000E+02      5.507202000000000E-01      5.369568000000000E-01      2.016296000000000E-01      1.121523000000000E+02
4868000000.000000      4.691162000000000E-01     -1.101563000000000E+01      5.057068000000000E-01     -1.767344000000000E+02      5.508118000000000E-01      4.133606000000000E-01      2.091599000000000E-01      1.136445000000000E+02
4869000000.000000      4.691925000000000E-01     -1.080127000000000E+01      5.065308000000000E-01     -1.771016000000000E+02      5.526733000000000E-01      3.323364000000000E-01      2.165222000000000E-01      1.146094000000000E+02
4870000000.000000      4.726868000000000E-01     -1.032031000000000E+01      5.090332000000000E-01     -1.773906000000000E+02      5.523987000000000E-01      6.317139000000000E-02      2.216797000000000E-01      1.154883000000000E+02
4871000000.000000      4.727783000000000E-01     -9.934570000000000E+00      5.071716000000000E-01     -1.776484000000000E+02      5.519104000000000E-01      1.524353000000000E-01      2.286835000000000E-01      1.161055000000000E+02
4872000000.000000      4.774017000000000E-01     -9.797363000000000E+00      5.086975000000000E-01     -1.780469000000000E+02      5.496216000000000E-01     -1.593018000000000E-01      2.326126000000000E-01      1.168164000000000E+02
4873000000.000000      4.783325000000000E-01     -9.500488000000000E+00      5.108948000000000E-01     -1.786328000000000E+02      5.531921000000000E-01     -7.553101000000000E-02      2.396622000000000E-01      1.173086000000000E+02
4874000000.000000      4.793396000000000E-01     -9.221680000000000E+00      5.092468000000000E-01     -1.788672000000000E+02      5.517883000000000E-01     -2.087402000000000E-01      2.449951000000000E-01      1.178828000000000E+02
4875000000.000000      4.818268000000000E-01     -9.239746000000000E+00      5.114746000000000E-01     -1.792187000000000E+02      5.505066000000000E-01     -2.444458000000000E-01      2.502289000000000E-01      1.188437000000000E+02
4876000000.000000      4.851532000000000E-01     -8.724609000000000E+00      5.120239000000000E-01     -1.796094000000000E+02      5.534668000000000E-01     -2.334595000000000E-01      2.577209000000000E-01      1.192383000000000E+02
4877000000.000000      4.895172000000000E-01     -8.794922000000000E+00      5.132751000000000E-01      1.798203000000000E+02      5.514526000000000E-01     -2.980042000000000E-01      2.628326000000000E-01      1.198945000000000E+02
4878000000.000000      4.894562000000000E-01     -8.532715000000000E+00      5.138550000000000E-01      1.795859000000000E+02      5.523071000000000E-01     -3.735352000000000E-01      2.666321000000000E-01      1.196211000000000E+02
4879000000.000000      4.938202000000000E-01     -8.489746000000000E+00      5.126343000000000E-01      1.792500000000000E+02      5.511169000000000E-01     -5.960083000000000E-01      2.733154000000000E-01      1.205234000000000E+02
4880000000.000000      4.970703000000000E-01     -8.269043000000000E+00      5.141296000000000E-01      1.786797000000000E+02      5.520935000000000E-01     -7.511902000000000E-01      2.765808000000000E-01      1.207070000000000E+02
4881000000.000000      4.988098000000000E-01     -8.212402000000000E+00      5.155029000000000E-01      1.786094000000000E+02      5.512085000000000E-01     -6.440735000000000E-01      2.826843000000000E-01      1.211250000000000E+02
4882000000.000000      5.028076000000000E-01     -7.947266000000000E+00      5.160217000000000E-01      1.780078000000000E+02      5.526428000000000E-01     -6.481934000000000E-01      2.872162000000000E-01      1.206562000000000E+02
