! Network Analyzer HP8722D
! Hewlett-Packard
! Data name: Linha & Wilkinson
! Saver's name: Rodrigo Anjos
! Comments: Teste da utilização de aquisição
continua pelo VNA HP8722D
! Time and date: 8/5/2025 14:30
!              Frequency                     S11                                                   S21                                                   S12                                                   S22
# HZ  S  MA R 50
4800000000.000000      5.361633000000000E-01     -2.539355000000000E+01      3.639069000000000E-01     -1.488359000000000E+02      3.815460000000000E-01      1.053711000000000E+01      5.018005000000000E-01      1.348572000000000E+00
4801000000.000000      5.353394000000000E-01     -2.479492000000000E+01      3.673553000000000E-01     -1.490781000000000E+02      3.857117000000000E-01      1.037793000000000E+01      4.982300000000000E-01      1.403503000000000E+00
4802000000.000000      5.337219000000000E-01     -2.470898000000000E+01      3.714447000000000E-01     -1.494688000000000E+02      3.895416000000000E-01      1.022656000000000E+01      4.944763000000000E-01      1.814087000000000E+00
4803000000.000000      5.329590000000000E-01     -2.441895000000000E+01      3.767090000000000E-01     -1.498750000000000E+02      3.921814000000000E-01      1.026123000000000E+01      4.882202000000000E-01      1.704224000000000E+00
4804000000.000000      5.293884000000000E-01     -2.433008000000000E+01      3.800659000000000E-01     -1.502266000000000E+02      3.967133000000000E-01      9.800781000000000E+00      4.816284000000000E-01      1.745422000000000E+00
4805000000.000000      5.304565000000000E-01     -2.414258000000000E+01      3.843079000000000E-01     -1.506953000000000E+02      3.994446000000000E-01      9.984863000000000E+00      4.743500000000000E-01      1.820984000000000E+00
4806000000.000000      5.288086000000000E-01     -2.367285000000000E+01      3.877869000000000E-01     -1.511719000000000E+02      4.038544000000000E-01      9.810547000000000E+00      4.672852000000000E-01      1.889648000000000E+00
4807000000.000000      5.275879000000000E-01     -2.362402000000000E+01      3.911591000000000E-01     -1.515859000000000E+02      4.084473000000000E-01      9.382324000000000E+00      4.616394000000000E-01      2.007690000000000E+00
4808000000.000000      5.243835000000000E-01     -2.323340000000000E+01      3.960114000000000E-01     -1.518203000000000E+02      4.121704000000000E-01      9.450684000000000E+00      4.534149000000000E-01      2.213745000000000E+00
4809000000.000000      5.245056000000000E-01     -2.297266000000000E+01      3.998566000000000E-01     -1.524141000000000E+02      4.166107000000000E-01      9.225586000000000E+00      4.463196000000000E-01      2.437500000000000E+00
4810000000.000000      5.251465000000000E-01     -2.259570000000000E+01      4.042358000000000E-01     -1.527344000000000E+02      4.188995000000000E-01      9.176270000000000E+00      4.389038000000000E-01      2.356567000000000E+00
4811000000.000000      5.232544000000000E-01     -2.265723000000000E+01      4.080048000000000E-01     -1.532500000000000E+02      4.246979000000000E-01      9.062012000000000E+00      4.317474000000000E-01      2.754761000000000E+00
4812000000.000000      5.242615000000000E-01     -2.225879000000000E+01      4.107971000000000E-01     -1.536562000000000E+02      4.277191000000000E-01      8.898926000000000E+00      4.241943000000000E-01      2.653198000000000E+00
4813000000.000000      5.210876000000000E-01     -2.206347000000000E+01      4.138947000000000E-01     -1.541484000000000E+02      4.314880000000000E-01      8.767090000000000E+00      4.163055000000000E-01      3.164063000000000E+00
4814000000.000000      5.173340000000000E-01     -2.210351000000000E+01      4.179840000000000E-01     -1.544765000000000E+02      4.345551000000000E-01      8.517090000000000E+00      4.080658000000000E-01      3.286255000000000E+00
4815000000.000000      5.184326000000000E-01     -2.177441000000000E+01      4.206238000000000E-01     -1.549531000000000E+02      4.368439000000000E-01      8.378418000000000E+00      4.000244000000000E-01      3.537598000000000E+00
4816000000.000000      5.165100000000000E-01     -2.144433000000000E+01      4.246368000000000E-01     -1.554062000000000E+02      4.432983000000000E-01      8.515625000000000E+00      3.932495000000000E-01      3.776489000000000E+00
4817000000.000000      5.151367000000000E-01     -2.140918000000000E+01      4.272308000000000E-01     -1.558984000000000E+02      4.451904000000000E-01      8.196777000000000E+00      3.819122000000000E-01      4.219971000000000E+00
4818000000.000000      5.133667000000000E-01     -2.122851000000000E+01      4.302673000000000E-01     -1.563672000000000E+02      4.476318000000000E-01      7.856445000000000E+00      3.737640000000000E-01      4.460449000000000E+00
4819000000.000000      5.117188000000000E-01     -2.108496000000000E+01      4.330902000000000E-01     -1.568281000000000E+02      4.515228000000000E-01      7.796143000000000E+00      3.647766000000000E-01      4.496094000000000E+00
4820000000.000000      5.103149000000000E-01     -2.085254000000000E+01      4.364166000000000E-01     -1.571484000000000E+02      4.557648000000000E-01      7.706787000000000E+00      3.564148000000000E-01      5.101563000000000E+00
4821000000.000000      5.072021000000000E-01     -2.074512000000000E+01      4.398499000000000E-01     -1.577891000000000E+02      4.579773000000000E-01      7.460938000000000E+00      3.477783000000000E-01      5.553467000000000E+00
4822000000.000000      5.072327000000000E-01     -2.066016000000000E+01      4.409332000000000E-01     -1.581016000000000E+02      4.617004000000000E-01      7.412842000000000E+00      3.380890000000000E-01      5.763672000000000E+00
4823000000.000000      5.057373000000000E-01     -2.053711000000000E+01      4.447632000000000E-01     -1.587422000000000E+02      4.654083000000000E-01      7.231689000000000E+00      3.294373000000000E-01      6.192139000000000E+00
4824000000.000000      5.037537000000000E-01     -2.026465000000000E+01      4.476013000000000E-01     -1.591094000000000E+02      4.678192000000000E-01      6.889648000000000E+00      3.193359000000000E-01      6.623291000000000E+00
4825000000.000000      5.034790000000000E-01     -2.014258000000000E+01      4.497833000000000E-01     -1.596562000000000E+02      4.717255000000000E-01      6.955566000000000E+00      3.111572000000000E-01      7.231689000000000E+00
4826000000.000000      5.018311000000000E-01     -2.014258000000000E+01      4.526825000000000E-01     -1.600859000000000E+02      4.741364000000000E-01      6.752441000000000E+00      3.019104000000000E-01      7.812500000000000E+00
4827000000.000000      4.994965000000000E-01     -1.988672000000000E+01      4.544678000000000E-01     -1.604453000000000E+02      4.768982000000000E-01      6.727539000000000E+00      2.925262000000000E-01      8.407227000000000E+00
4828000000.000000      4.987488000000000E-01     -1.977344000000000E+01      4.582367000000000E-01     -1.608906000000000E+02      4.797516000000000E-01      6.485840000000000E+00      2.829895000000000E-01      8.939941000000000E+00
4829000000.000000      4.965210000000000E-01     -1.916016000000000E+01      4.602051000000000E-01     -1.614922000000000E+02      4.833679000000000E-01      6.586182000000000E+00      2.746582000000000E-01      1.002197000000000E+01
4830000000.000000      4.943542000000000E-01     -1.925781000000000E+01      4.615631000000000E-01     -1.619219000000000E+02      4.863129000000000E-01      6.196289000000000E+00      2.639771000000000E-01      1.087744000000000E+01
4831000000.000000      4.918365000000000E-01     -1.928418000000000E+01      4.638824000000000E-01     -1.624766000000000E+02      4.903107000000000E-01      6.187988000000000E+00      2.541199000000000E-01      1.167676000000000E+01
4832000000.000000      4.927216000000000E-01     -1.916211000000000E+01      4.662476000000000E-01     -1.627344000000000E+02      4.917908000000000E-01      5.896729000000000E+00      2.447510000000000E-01      1.295117000000000E+01
4833000000.000000      4.889069000000000E-01     -1.895312000000000E+01      4.679108000000000E-01     -1.630703000000000E+02      4.945221000000000E-01      5.534180000000000E+00      2.346039000000000E-01      1.401270000000000E+01
4834000000.000000      4.873199000000000E-01     -1.904394000000000E+01      4.698181000000000E-01     -1.636406000000000E+02      4.980164000000000E-01      5.679932000000000E+00      2.264099000000000E-01      1.529004000000000E+01
4835000000.000000      4.869232000000000E-01     -1.872266000000000E+01      4.715424000000000E-01     -1.642734000000000E+02      5.020752000000000E-01      5.409180000000000E+00      2.173233000000000E-01      1.653125000000000E+01
4836000000.000000      4.850922000000000E-01     -1.848047000000000E+01      4.725800000000000E-01     -1.645625000000000E+02      5.021667000000000E-01      5.443604000000000E+00      2.085495000000000E-01      1.831543000000000E+01
4837000000.000000      4.817200000000000E-01     -1.829590000000000E+01      4.734497000000000E-01     -1.652266000000000E+02      5.051270000000000E-01      5.140137000000000E+00      1.996078000000000E-01      2.008105000000000E+01
4838000000.000000      4.790039000000000E-01     -1.833105000000000E+01      4.767303000000000E-01     -1.651797000000000E+02      5.085754000000000E-01      5.063232000000000E+00      1.909027000000000E-01      2.190234000000000E+01
4839000000.000000      4.800415000000000E-01     -1.799609000000000E+01      4.779510000000000E-01     -1.657969000000000E+02      5.108948000000000E-01      4.909424000000000E+00      1.838455000000000E-01      2.379297000000000E+01
4840000000.000000      4.794159000000000E-01     -1.807129000000000E+01      4.796143000000000E-01     -1.663750000000000E+02      5.135803000000000E-01      4.733643000000000E+00      1.752319000000000E-01      2.586230000000000E+01
4841000000.000000      4.749908000000000E-01     -1.746973000000000E+01      4.818115000000000E-01     -1.667734000000000E+02      5.160828000000000E-01      4.409424000000000E+00      1.680832000000000E-01      2.886230000000000E+01
4842000000.000000      4.747772000000000E-01     -1.755078000000000E+01      4.822388000000000E-01     -1.671797000000000E+02      5.161743000000000E-01      4.346436000000000E+00      1.619797000000000E-01      3.172949000000000E+01
4843000000.000000      4.738617000000000E-01     -1.727051000000000E+01      4.840851000000000E-01     -1.676094000000000E+02      5.200806000000000E-01      4.114258000000000E+00      1.541367000000000E-01      3.488281000000000E+01
4844000000.000000      4.723663000000000E-01     -1.702539000000000E+01      4.847107000000000E-01     -1.681172000000000E+02      5.210571000000000E-01      3.999023000000000E+00      1.475296000000000E-01      3.814453000000000E+01
4845000000.000000      4.696960000000000E-01     -1.687793000000000E+01      4.855652000000000E-01     -1.685156000000000E+02      5.260315000000000E-01      3.857544000000000E+00      1.428528000000000E-01      4.166797000000000E+01
4846000000.000000      4.711456000000000E-01     -1.651465000000000E+01      4.871368000000000E-01     -1.688047000000000E+02      5.274658000000000E-01      3.585571000000000E+00      1.385803000000000E-01      4.561913000000000E+01
4847000000.000000      4.681549000000000E-01     -1.636719000000000E+01      4.887848000000000E-01     -1.691328000000000E+02      5.307312000000000E-01      3.560913000000000E+00      1.333313000000000E-01      4.986914000000000E+01
4848000000.000000      4.663391000000000E-01     -1.646191000000000E+01      4.881592000000000E-01     -1.695313000000000E+02      5.316467000000000E-01      3.250488000000000E+00      1.317062000000000E-01      5.415234000000000E+01
4849000000.000000      4.660034000000000E-01     -1.610547000000000E+01      4.902649000000000E-01     -1.699922000000000E+02      5.332031000000000E-01      3.099487000000000E+00      1.289063000000000E-01      5.886719000000000E+01
4850000000.000000      4.637451000000000E-01     -1.576709000000000E+01      4.905853000000000E-01     -1.703281000000000E+02      5.352783000000000E-01      2.904419000000000E+00      1.281662000000000E-01      6.328320000000000E+01
4851000000.000000      4.641571000000000E-01     -1.530957000000000E+01      4.932404000000000E-01     -1.707422000000000E+02      5.364380000000000E-01      2.842651000000000E+00      1.286697000000000E-01      6.736718000000000E+01
4852000000.000000      4.620667000000000E-01     -1.512305000000000E+01      4.936066000000000E-01     -1.710859000000000E+02      5.388489000000000E-01      2.778076000000000E+00      1.291428000000000E-01      7.198437000000000E+01
4853000000.000000      4.629059000000000E-01     -1.507324000000000E+01      4.927063000000000E-01     -1.715312000000000E+02      5.406799000000000E-01      2.548828000000000E+00      1.305161000000000E-01      7.615234000000000E+01
4854000000.000000      4.617767000000000E-01     -1.465723000000000E+01      4.944000000000000E-01     -1.719219000000000E+02      5.409546000000000E-01      2.363403000000000E+00      1.340485000000000E-01      8.061327000000000E+01
4855000000.000000      4.595184000000000E-01     -1.416016000000000E+01      4.949036000000000E-01     -1.723125000000000E+02      5.433044000000000E-01      2.113403000000000E+00      1.361923000000000E-01      8.501171000000000E+01
4856000000.000000      4.606323000000000E-01     -1.430029000000000E+01      4.957428000000000E-01     -1.725937000000000E+02      5.441284000000000E-01      1.959656000000000E+00      1.410446000000000E-01      8.841797000000000E+01
4857000000.000000      4.588623000000000E-01     -1.395703000000000E+01      4.977570000000000E-01     -1.728672000000000E+02      5.453186000000000E-01      1.807251000000000E+00      1.445847000000000E-01      9.174608000000000E+01
4858000000.000000      4.597778000000000E-01     -1.365771000000000E+01      4.982452000000000E-01     -1.733984000000000E+02      5.479126000000000E-01      1.700134000000000E+00      1.491089000000000E-01      9.497265000000000E+01
4859000000.000000      4.584808000000000E-01     -1.335547000000000E+01      4.994507000000000E-01     -1.737266000000000E+02      5.469971000000000E-01      1.713867000000000E+00      1.548767000000000E-01      9.751953000000000E+01
4860000000.000000      4.589996000000000E-01     -1.287598000000000E+01      4.998322000000000E-01     -1.738750000000000E+02      5.476379000000000E-01      1.436462000000000E+00      1.612701000000000E-01      1.000547000000000E+02
4861000000.000000      4.602051000000000E-01     -1.253564000000000E+01      4.995880000000000E-01     -1.743125000000000E+02      5.504150000000000E-01      1.369141000000000E+00      1.658020000000000E-01      1.028164000000000E+02
4862000000.000000      4.615936000000000E-01     -1.239404000000000E+01      5.005493000000000E-01     -1.745781000000000E+02      5.504150000000000E-01      1.086243000000000E+00      1.723022000000000E-01      1.043555000000000E+02
4863000000.000000      4.613495000000000E-01     -1.199854000000000E+01      5.010376000000000E-01     -1.752109000000000E+02      5.495300000000000E-01      1.053284000000000E+00      1.796188000000000E-01      1.066640000000000E+02
4864000000.000000      4.620056000000000E-01     -1.175684000000000E+01      5.028076000000000E-01     -1.753125000000000E+02      5.500488000000000E-01      7.882690000000000E-01      1.869049000000000E-01      1.079102000000000E+02
4865000000.000000      4.640808000000000E-01     -1.155664000000000E+01      5.043030000000000E-01     -1.757578000000000E+02      5.513611000000000E-01      8.280945000000000E-01      1.926880000000000E-01      1.094765000000000E+02
4866000000.000000      4.628601000000000E-01     -1.143701000000000E+01      5.025940000000000E-01     -1.761016000000000E+02      5.527649000000000E-01      5.891418000000000E-01      1.977692000000000E-01      1.109023000000000E+02
4867000000.000000      4.661407000000000E-01     -1.071191000000000E+01      5.031738000000000E-01     -1.766016000000000E+02      5.524902000000000E-01      5.603027000000000E-01      2.033691000000000E-01      1.123320000000000E+02
4868000000.000000      4.671021000000000E-01     -1.075977000000000E+01      5.058899000000000E-01     -1.769375000000000E+02      5.522766000000000E-01      1.936340000000000E-01      2.115326000000000E-01      1.136992000000000E+02
4869000000.000000      4.701233000000000E-01     -1.047559000000000E+01      5.078735000000000E-01     -1.772344000000000E+02      5.521240000000000E-01      2.156067000000000E-01      2.182999000000000E-01      1.145859000000000E+02
4870000000.000000      4.714355000000000E-01     -1.029736000000000E+01      5.068054000000000E-01     -1.773516000000000E+02      5.516663000000000E-01      8.926392000000000E-02      2.231827000000000E-01      1.149726000000000E+02
4871000000.000000      4.713287000000000E-01     -1.009521000000000E+01      5.081787000000000E-01     -1.779375000000000E+02      5.523071000000000E-01      9.750366000000000E-02      2.293015000000000E-01      1.162305000000000E+02
4872000000.000000      4.746552000000000E-01     -9.695801000000000E+00      5.095215000000000E-01     -1.781641000000000E+02      5.511169000000000E-01     -8.514404000000000E-02      2.364197000000000E-01      1.163828000000000E+02
4873000000.000000      4.770508000000000E-01     -9.581543000000000E+00      5.091248000000000E-01     -1.786562000000000E+02      5.503845000000000E-01     -3.268433000000000E-01      2.421188000000000E-01      1.174687000000000E+02
4874000000.000000      4.788361000000000E-01     -9.352539000000000E+00      5.105286000000000E-01     -1.790313000000000E+02      5.532837000000000E-01     -2.842712000000000E-01      2.468033000000000E-01      1.177891000000000E+02
4875000000.000000      4.805450000000000E-01     -9.246582000000000E+00      5.117188000000000E-01     -1.792031000000000E+02      5.530090000000000E-01     -2.499390000000000E-01      2.518158000000000E-01      1.184609000000000E+02
4876000000.000000      4.842377000000000E-01     -8.737305000000000E+00      5.137939000000000E-01     -1.797500000000000E+02      5.546570000000000E-01     -2.966309000000000E-01      2.584229000000000E-01      1.193242000000000E+02
4877000000.000000      4.875336000000000E-01     -8.708496000000000E+00      5.135498000000000E-01      1.798906000000000E+02      5.510254000000000E-01     -5.328369000000000E-01      2.651672000000000E-01      1.192383000000000E+02
4878000000.000000      4.891510000000000E-01     -8.454102000000000E+00      5.140381000000000E-01      1.795703000000000E+02      5.509338000000000E-01     -5.012512000000000E-01      2.688293000000000E-01      1.194297000000000E+02
4879000000.000000      4.926147000000000E-01     -8.183594000000000E+00      5.148315000000000E-01      1.791328000000000E+02      5.509949000000000E-01     -6.028748000000000E-01      2.749329000000000E-01      1.202266000000000E+02
4880000000.000000      4.970245000000000E-01     -8.310059000000000E+00      5.148010000000000E-01      1.787656000000000E+02      5.514526000000000E-01     -5.960083000000000E-01      2.792206000000000E-01      1.202969000000000E+02
4881000000.000000      4.987640000000000E-01     -8.207031000000000E+00      5.156250000000000E-01      1.785703000000000E+02      5.506592000000000E-01     -7.305908000000000E-01      2.838898000000000E-01      1.207148000000000E+02
4882000000.000000      5.030518000000000E-01     -7.739990000000000E+00      5.188599000000000E-01      1.781406000000000E+02      5.506592000000000E-01     -7.498169000000000E-01      2.878418000000000E-01      1.207344000000000E+02
