! Network Analyzer HP8722D
! Hewlett-Packard
! Data name: Linha & Wilkinson
! Saver's name: Rodrigo Anjos
! Comments: Teste da utilização de aquisição
continua pelo VNA HP8722D
! Time and date: 8/5/2025 16:02
!              Frequency                     S11                                                   S21                                                   S12                                                   S22
# HZ  S  MA R 50
4800000000.000000      8.998718000000000E-01      1.157539000000000E+02      3.224945000000000E-01     -1.708125000000000E+02      2.588043000000000E-01     -8.619532000000000E+01      9.815063000000000E-01     -4.795703000000000E+01
4801000000.000000      8.977661000000000E-01      1.159648000000000E+02      3.222046000000000E-01     -1.706875000000000E+02      2.583313000000000E-01     -8.626562000000000E+01      9.775085000000000E-01     -4.806054000000000E+01
4802000000.000000      8.942566000000000E-01      1.162539000000000E+02      3.223114000000000E-01     -1.705781000000000E+02      2.593231000000000E-01     -8.599218000000000E+01      9.729614000000000E-01     -4.802539000000000E+01
4803000000.000000      8.938904000000000E-01      1.164180000000000E+02      3.233337000000000E-01     -1.704141000000000E+02      2.584534000000000E-01     -8.582811000000000E+01      9.674072000000000E-01     -4.816406000000000E+01
4804000000.000000      8.945313000000000E-01      1.167383000000000E+02      3.229675000000000E-01     -1.705625000000000E+02      2.592163000000000E-01     -8.576563000000000E+01      9.608765000000000E-01     -4.811913000000000E+01
4805000000.000000      8.917542000000000E-01      1.169219000000000E+02      3.234711000000000E-01     -1.704297000000000E+02      2.585602000000000E-01     -8.545313000000000E+01      9.551392000000000E-01     -4.817383000000000E+01
4806000000.000000      8.880310000000000E-01      1.171914000000000E+02      3.243561000000000E-01     -1.704375000000000E+02      2.579193000000000E-01     -8.512110000000000E+01      9.501038000000000E-01     -4.843750000000000E+01
4807000000.000000      8.899231000000000E-01      1.173203000000000E+02      3.250885000000000E-01     -1.705469000000000E+02      2.587585000000000E-01     -8.508593000000000E+01      9.443665000000000E-01     -4.834961000000000E+01
4808000000.000000      8.876648000000000E-01      1.177031000000000E+02      3.260345000000000E-01     -1.703672000000000E+02      2.583923000000000E-01     -8.489843000000000E+01      9.385376000000000E-01     -4.838281000000000E+01
4809000000.000000      8.822937000000000E-01      1.178437000000000E+02      3.255920000000000E-01     -1.705391000000000E+02      2.592163000000000E-01     -8.473047000000000E+01      9.334106000000000E-01     -4.845703000000000E+01
4810000000.000000      8.808899000000000E-01      1.181758000000000E+02      3.267670000000000E-01     -1.703750000000000E+02      2.588043000000000E-01     -8.441406000000000E+01      9.295349000000000E-01     -4.860156000000000E+01
4811000000.000000      8.783569000000000E-01      1.184961000000000E+02      3.269958000000000E-01     -1.705625000000000E+02      2.597504000000000E-01     -8.406250000000000E+01      9.237671000000000E-01     -4.838672000000000E+01
4812000000.000000      8.762207000000000E-01      1.186680000000000E+02      3.270264000000000E-01     -1.704609000000000E+02      2.588654000000000E-01     -8.392969000000000E+01      9.164124000000000E-01     -4.869726000000000E+01
4813000000.000000      8.725281000000000E-01      1.190000000000000E+02      3.286133000000000E-01     -1.704922000000000E+02      2.586975000000000E-01     -8.363672000000000E+01      9.128418000000000E-01     -4.870507000000000E+01
4814000000.000000      8.686218000000000E-01      1.190977000000000E+02      3.286591000000000E-01     -1.705312000000000E+02      2.588654000000000E-01     -8.335938000000000E+01      9.065857000000000E-01     -4.880859000000000E+01
4815000000.000000      8.651733000000000E-01      1.193789000000000E+02      3.288422000000000E-01     -1.704766000000000E+02      2.589722000000000E-01     -8.310547000000000E+01      9.012451000000000E-01     -4.868750000000000E+01
4816000000.000000      8.668823000000000E-01      1.196055000000000E+02      3.305511000000000E-01     -1.705000000000000E+02      2.596741000000000E-01     -8.287500000000000E+01      8.965454000000000E-01     -4.893749000000000E+01
4817000000.000000      8.598328000000000E-01      1.198750000000000E+02      3.306732000000000E-01     -1.706640000000000E+02      2.592621000000000E-01     -8.253906000000000E+01      8.893127000000000E-01     -4.888672000000000E+01
4818000000.000000      8.572693000000000E-01      1.200273000000000E+02      3.309021000000000E-01     -1.705547000000000E+02      2.588654000000000E-01     -8.222265000000000E+01      8.844604000000000E-01     -4.891406000000000E+01
4819000000.000000      8.571777000000000E-01      1.202461000000000E+02      3.318787000000000E-01     -1.708281000000000E+02      2.581024000000000E-01     -8.201172000000000E+01      8.788452000000000E-01     -4.920898000000000E+01
4820000000.000000      8.507080000000000E-01      1.204414000000000E+02      3.320770000000000E-01     -1.706875000000000E+02      2.589417000000000E-01     -8.156250000000000E+01      8.743286000000000E-01     -4.913086000000000E+01
4821000000.000000      8.507385000000000E-01      1.206172000000000E+02      3.335724000000000E-01     -1.709375000000000E+02      2.590332000000000E-01     -8.145702000000000E+01      8.686523000000000E-01     -4.913867000000000E+01
4822000000.000000      8.474731000000000E-01      1.207773000000000E+02      3.335724000000000E-01     -1.711797000000000E+02      2.582092000000000E-01     -8.120703000000000E+01      8.645630000000000E-01     -4.929688000000000E+01
4823000000.000000      8.422241000000000E-01      1.210390000000000E+02      3.350220000000000E-01     -1.710625000000000E+02      2.584229000000000E-01     -8.069139000000000E+01      8.584290000000000E-01     -4.930078000000000E+01
4824000000.000000      8.394165000000000E-01      1.211992000000000E+02      3.353882000000000E-01     -1.715078000000000E+02      2.586517000000000E-01     -8.050390000000000E+01      8.532715000000000E-01     -4.936523000000000E+01
4825000000.000000      8.340149000000000E-01      1.211484000000000E+02      3.353729000000000E-01     -1.715312000000000E+02      2.591400000000000E-01     -8.012110000000000E+01      8.498840000000000E-01     -4.938086000000000E+01
4826000000.000000      8.323669000000000E-01      1.213281000000000E+02      3.372650000000000E-01     -1.716797000000000E+02      2.584839000000000E-01     -7.986328000000000E+01      8.453979000000000E-01     -4.965234000000000E+01
4827000000.000000      8.279419000000000E-01      1.215742000000000E+02      3.373718000000000E-01     -1.716250000000000E+02      2.580872000000000E-01     -7.948047000000000E+01      8.395996000000000E-01     -4.958398000000000E+01
4828000000.000000      8.241882000000000E-01      1.216602000000000E+02      3.378448000000000E-01     -1.719297000000000E+02      2.578735000000000E-01     -7.924218000000000E+01      8.345032000000000E-01     -4.981835000000000E+01
4829000000.000000      8.191528000000000E-01      1.218711000000000E+02      3.376312000000000E-01     -1.720000000000000E+02      2.593842000000000E-01     -7.900781000000000E+01      8.320923000000000E-01     -4.969140000000000E+01
4830000000.000000      8.170471000000000E-01      1.219727000000000E+02      3.387604000000000E-01     -1.722891000000000E+02      2.585144000000000E-01     -7.846874000000000E+01      8.250732000000000E-01     -4.976757000000000E+01
4831000000.000000      8.094482000000000E-01      1.220586000000000E+02      3.385315000000000E-01     -1.724531000000000E+02      2.587891000000000E-01     -7.807031000000000E+01      8.217468000000000E-01     -4.983398000000000E+01
4832000000.000000      8.044739000000000E-01      1.221601000000000E+02      3.390961000000000E-01     -1.726797000000000E+02      2.585602000000000E-01     -7.782031000000000E+01      8.179932000000000E-01     -4.985352000000000E+01
4833000000.000000      8.017273000000000E-01      1.221016000000000E+02      3.396606000000000E-01     -1.728750000000000E+02      2.586823000000000E-01     -7.751562000000000E+01      8.123779000000000E-01     -5.000000000000000E+01
4834000000.000000      7.969666000000000E-01      1.222617000000000E+02      3.401031000000000E-01     -1.731094000000000E+02      2.590179000000000E-01     -7.717968000000000E+01      8.080750000000000E-01     -5.007617000000000E+01
4835000000.000000      7.921448000000000E-01      1.222109000000000E+02      3.403320000000000E-01     -1.733281000000000E+02      2.593384000000000E-01     -7.685156000000000E+01      8.059387000000000E-01     -5.010351000000000E+01
4836000000.000000      7.884827000000000E-01      1.223906000000000E+02      3.398438000000000E-01     -1.736953000000000E+02      2.595520000000000E-01     -7.644140000000000E+01      8.000183000000000E-01     -5.010742000000000E+01
4837000000.000000      7.824402000000000E-01      1.226289000000000E+02      3.398438000000000E-01     -1.739687000000000E+02      2.595825000000000E-01     -7.617188000000000E+01      7.966919000000000E-01     -5.013085000000000E+01
4838000000.000000      7.770996000000000E-01      1.224844000000000E+02      3.401642000000000E-01     -1.739531000000000E+02      2.596436000000000E-01     -7.571094000000000E+01      7.924805000000000E-01     -5.026562000000000E+01
4839000000.000000      7.749634000000000E-01      1.227266000000000E+02      3.400879000000000E-01     -1.741562000000000E+02      2.598114000000000E-01     -7.552734000000000E+01      7.888489000000000E-01     -5.034374000000000E+01
4840000000.000000      7.682190000000000E-01      1.226172000000000E+02      3.403625000000000E-01     -1.743906000000000E+02      2.605743000000000E-01     -7.515234000000000E+01      7.852478000000000E-01     -5.042187000000000E+01
4841000000.000000      7.634888000000000E-01      1.224414000000000E+02      3.407135000000000E-01     -1.748203000000000E+02      2.605438000000000E-01     -7.479687000000000E+01      7.819824000000000E-01     -5.044140000000000E+01
4842000000.000000      7.555237000000000E-01      1.225430000000000E+02      3.405609000000000E-01     -1.748906000000000E+02      2.606506000000000E-01     -7.448437000000000E+01      7.796631000000000E-01     -5.057812000000000E+01
4843000000.000000      7.518005000000000E-01      1.225273000000000E+02      3.401337000000000E-01     -1.752656000000000E+02      2.606354000000000E-01     -7.417578000000000E+01      7.757874000000000E-01     -5.056250000000000E+01
4844000000.000000      7.453918000000000E-01      1.224648000000000E+02      3.402863000000000E-01     -1.754766000000000E+02      2.607422000000000E-01     -7.386328000000000E+01      7.715454000000000E-01     -5.064843000000000E+01
4845000000.000000      7.398376000000000E-01      1.224766000000000E+02      3.394318000000000E-01     -1.756484000000000E+02      2.613068000000000E-01     -7.346484000000000E+01      7.673340000000000E-01     -5.070313000000000E+01
4846000000.000000      7.336121000000000E-01      1.223711000000000E+02      3.391113000000000E-01     -1.758984000000000E+02      2.620087000000000E-01     -7.323437000000000E+01      7.648926000000000E-01     -5.077538000000000E+01
4847000000.000000      7.279663000000000E-01      1.223555000000000E+02      3.391113000000000E-01     -1.761719000000000E+02      2.624207000000000E-01     -7.294140000000000E+01      7.619934000000000E-01     -5.092187000000000E+01
4848000000.000000      7.234802000000000E-01      1.220742000000000E+02      3.375244000000000E-01     -1.764453000000000E+02      2.617035000000000E-01     -7.248828000000000E+01      7.582397000000000E-01     -5.093163000000000E+01
4849000000.000000      7.153015000000000E-01      1.220742000000000E+02      3.376160000000000E-01     -1.767812000000000E+02      2.625275000000000E-01     -7.216406000000000E+01      7.551270000000000E-01     -5.092187000000000E+01
4850000000.000000      7.103882000000000E-01      1.219062000000000E+02      3.369141000000000E-01     -1.771563000000000E+02      2.627563000000000E-01     -7.182422000000000E+01      7.525940000000000E-01     -5.100586000000000E+01
4851000000.000000      7.037354000000000E-01      1.218906000000000E+02      3.368835000000000E-01     -1.772266000000000E+02      2.631683000000000E-01     -7.165625000000000E+01      7.507324000000000E-01     -5.106640000000000E+01
4852000000.000000      6.979065000000000E-01      1.216445000000000E+02      3.358307000000000E-01     -1.774297000000000E+02      2.638092000000000E-01     -7.131249000000000E+01      7.474060000000000E-01     -5.111328000000000E+01
4853000000.000000      6.922913000000000E-01      1.214297000000000E+02      3.340607000000000E-01     -1.777031000000000E+02      2.645721000000000E-01     -7.102734000000000E+01      7.444153000000000E-01     -5.131054000000000E+01
4854000000.000000      6.865845000000000E-01      1.212422000000000E+02      3.345490000000000E-01     -1.781094000000000E+02      2.644348000000000E-01     -7.093750000000000E+01      7.421570000000000E-01     -5.128711000000000E+01
4855000000.000000      6.803284000000000E-01      1.210976000000000E+02      3.331604000000000E-01     -1.781875000000000E+02      2.649231000000000E-01     -7.043359000000000E+01      7.376099000000000E-01     -5.129687000000000E+01
4856000000.000000      6.742859000000000E-01      1.208359000000000E+02      3.321533000000000E-01     -1.784765000000000E+02      2.652893000000000E-01     -7.025000000000000E+01      7.367859000000000E-01     -5.132226000000000E+01
4857000000.000000      6.677246000000000E-01      1.206602000000000E+02      3.323364000000000E-01     -1.786562000000000E+02      2.653503000000000E-01     -6.989062000000000E+01      7.329102000000000E-01     -5.143749000000000E+01
4858000000.000000      6.606445000000000E-01      1.202461000000000E+02      3.311310000000000E-01     -1.788750000000000E+02      2.656555000000000E-01     -6.980469000000000E+01      7.304077000000000E-01     -5.161914000000000E+01
4859000000.000000      6.549072000000000E-01      1.202851000000000E+02      3.298492000000000E-01     -1.791875000000000E+02      2.659607000000000E-01     -6.961719000000000E+01      7.293701000000000E-01     -5.157031000000000E+01
4860000000.000000      6.488342000000000E-01      1.198906000000000E+02      3.287659000000000E-01     -1.793203000000000E+02      2.664032000000000E-01     -6.925390000000000E+01      7.255249000000000E-01     -5.154297000000000E+01
4861000000.000000      6.412964000000000E-01      1.197109000000000E+02      3.274536000000000E-01     -1.796875000000000E+02      2.671509000000000E-01     -6.892968000000000E+01      7.231750000000000E-01     -5.169922000000000E+01
4862000000.000000      6.351318000000000E-01      1.194219000000000E+02      3.269196000000000E-01     -1.797812000000000E+02      2.677002000000000E-01     -6.887890000000000E+01      7.218018000000000E-01     -5.165820000000000E+01
4863000000.000000      6.286621000000000E-01      1.189883000000000E+02      3.247375000000000E-01      1.799141000000000E+02      2.682648000000000E-01     -6.858203000000000E+01      7.191467000000000E-01     -5.171875000000000E+01
4864000000.000000      6.243896000000000E-01      1.187109000000000E+02      3.245850000000000E-01      1.799141000000000E+02      2.675171000000000E-01     -6.838281000000000E+01      7.158508000000000E-01     -5.188477000000000E+01
4865000000.000000      6.163635000000000E-01      1.183281000000000E+02      3.228455000000000E-01      1.797422000000000E+02      2.682953000000000E-01     -6.829687000000000E+01      7.161255000000000E-01     -5.183788000000000E+01
4866000000.000000      6.110229000000000E-01      1.180234000000000E+02      3.213196000000000E-01      1.794844000000000E+02      2.684784000000000E-01     -6.820703000000000E+01      7.134705000000000E-01     -5.179882000000000E+01
4867000000.000000      6.053467000000000E-01      1.175820000000000E+02      3.207855000000000E-01      1.790078000000000E+02      2.687988000000000E-01     -6.779297000000000E+01      7.118225000000000E-01     -5.186913000000000E+01
4868000000.000000      5.994568000000000E-01      1.172109000000000E+02      3.202362000000000E-01      1.790703000000000E+02      2.692108000000000E-01     -6.770702000000000E+01      7.085266000000000E-01     -5.191211000000000E+01
4869000000.000000      5.930176000000000E-01      1.167070000000000E+02      3.182526000000000E-01      1.789219000000000E+02      2.698059000000000E-01     -6.762500000000000E+01      7.060852000000000E-01     -5.199023000000000E+01
4870000000.000000      5.855713000000000E-01      1.163008000000000E+02      3.172150000000000E-01      1.789453000000000E+02      2.695007000000000E-01     -6.744922000000000E+01      7.047424000000000E-01     -5.192577000000000E+01
4871000000.000000      5.808411000000000E-01      1.159258000000000E+02      3.158264000000000E-01      1.786641000000000E+02      2.694397000000000E-01     -6.736328000000000E+01      7.015991000000000E-01     -5.215234000000000E+01
4872000000.000000      5.786133000000000E-01      1.155898000000000E+02      3.145447000000000E-01      1.785938000000000E+02      2.695923000000000E-01     -6.737109000000000E+01      7.009583000000000E-01     -5.202148000000000E+01
4873000000.000000      5.707092000000000E-01      1.150586000000000E+02      3.136749000000000E-01      1.784297000000000E+02      2.693939000000000E-01     -6.708593000000000E+01      6.969910000000000E-01     -5.211328000000000E+01
4874000000.000000      5.647888000000000E-01      1.145430000000000E+02      3.121033000000000E-01      1.781953000000000E+02      2.699432000000000E-01     -6.696875000000000E+01      6.952209000000000E-01     -5.197266000000000E+01
4875000000.000000      5.607910000000000E-01      1.140898000000000E+02      3.106079000000000E-01      1.781797000000000E+02      2.706909000000000E-01     -6.696875000000000E+01      6.930847000000000E-01     -5.208398000000000E+01
4876000000.000000      5.544128000000000E-01      1.137891000000000E+02      3.092499000000000E-01      1.778984000000000E+02      2.698822000000000E-01     -6.696094000000000E+01      6.926880000000000E-01     -5.219336000000000E+01
4877000000.000000      5.488281000000000E-01      1.130156000000000E+02      3.084259000000000E-01      1.778437000000000E+02      2.706146000000000E-01     -6.680859000000000E+01      6.903076000000000E-01     -5.209765000000000E+01
4878000000.000000      5.439148000000000E-01      1.126914000000000E+02      3.074188000000000E-01      1.777187000000000E+02      2.703247000000000E-01     -6.668359000000000E+01      6.870728000000000E-01     -5.211523000000000E+01
4879000000.000000      5.404968000000000E-01      1.121055000000000E+02      3.057404000000000E-01      1.778672000000000E+02      2.702484000000000E-01     -6.676562000000000E+01      6.849976000000000E-01     -5.200976000000000E+01
4880000000.000000      5.359497000000000E-01      1.116680000000000E+02      3.044281000000000E-01      1.775938000000000E+02      2.704010000000000E-01     -6.661718000000000E+01      6.823730000000000E-01     -5.204102000000000E+01
4881000000.000000      5.297546000000000E-01      1.110703000000000E+02      3.038330000000000E-01      1.775234000000000E+02      2.704163000000000E-01     -6.671484000000000E+01      6.811829000000000E-01     -5.208202000000000E+01
4882000000.000000      5.252991000000000E-01      1.105391000000000E+02      3.033905000000000E-01      1.774688000000000E+02      2.704010000000000E-01     -6.668359000000000E+01      6.782837000000000E-01     -5.209374000000000E+01
