! Network Analyzer HP8722D
! Hewlett-Packard
! Data name: Linha & Wilkinson
! Saver's name: Rodrigo Anjos
! Comments: Teste da utilização de aquisição
continua pelo VNA HP8722D
! Time and date: 8/5/2025 16:03
!              Frequency                     S11                                                   S21                                                   S12                                                   S22
# HZ  S  MA R 50
4800000000.000000      9.008179000000000E-01      1.158086000000000E+02      3.226776000000000E-01     -1.706484000000000E+02      2.590027000000000E-01     -8.619921000000000E+01      9.815979000000000E-01     -4.791211000000000E+01
4801000000.000000      8.983459000000000E-01      1.160000000000000E+02      3.227692000000000E-01     -1.706406000000000E+02      2.580719000000000E-01     -8.619141000000000E+01      9.772644000000000E-01     -4.800195000000000E+01
4802000000.000000      8.938599000000000E-01      1.163477000000000E+02      3.221588000000000E-01     -1.705391000000000E+02      2.594757000000000E-01     -8.595312000000000E+01      9.724426000000000E-01     -4.794726000000000E+01
4803000000.000000      8.953552000000000E-01      1.163750000000000E+02      3.233337000000000E-01     -1.703750000000000E+02      2.587280000000000E-01     -8.581249000000000E+01      9.668884000000000E-01     -4.814062000000000E+01
4804000000.000000      8.936157000000000E-01      1.166211000000000E+02      3.228760000000000E-01     -1.703984000000000E+02      2.592316000000000E-01     -8.580078000000000E+01      9.618225000000000E-01     -4.812890000000000E+01
4805000000.000000      8.926392000000000E-01      1.168164000000000E+02      3.237762000000000E-01     -1.703984000000000E+02      2.584839000000000E-01     -8.544531000000000E+01      9.550171000000000E-01     -4.823047000000000E+01
4806000000.000000      8.891296000000000E-01      1.170859000000000E+02      3.240662000000000E-01     -1.703750000000000E+02      2.573853000000000E-01     -8.521875000000000E+01      9.495239000000000E-01     -4.837891000000000E+01
4807000000.000000      8.890686000000000E-01      1.173008000000000E+02      3.256378000000000E-01     -1.705937000000000E+02      2.584991000000000E-01     -8.507813000000000E+01      9.436035000000000E-01     -4.828906000000000E+01
4808000000.000000      8.865967000000000E-01      1.176055000000000E+02      3.258514000000000E-01     -1.703281000000000E+02      2.588348000000000E-01     -8.488672000000000E+01      9.392700000000000E-01     -4.829883000000000E+01
4809000000.000000      8.821106000000000E-01      1.180078000000000E+02      3.251801000000000E-01     -1.704453000000000E+02      2.593231000000000E-01     -8.463282000000000E+01      9.337769000000000E-01     -4.843945000000000E+01
4810000000.000000      8.801270000000000E-01      1.181992000000000E+02      3.267059000000000E-01     -1.703438000000000E+02      2.583618000000000E-01     -8.439844000000000E+01      9.278259000000000E-01     -4.862695000000000E+01
4811000000.000000      8.790894000000000E-01      1.183555000000000E+02      3.273315000000000E-01     -1.704453000000000E+02      2.597198000000000E-01     -8.415234000000000E+01      9.229431000000000E-01     -4.854882000000000E+01
4812000000.000000      8.758850000000000E-01      1.186601000000000E+02      3.269958000000000E-01     -1.704062000000000E+02      2.585754000000000E-01     -8.386328000000000E+01      9.165649000000000E-01     -4.866992000000000E+01
4813000000.000000      8.725586000000000E-01      1.190586000000000E+02      3.283997000000000E-01     -1.704219000000000E+02      2.589722000000000E-01     -8.361719000000000E+01      9.123840000000000E-01     -4.860352000000000E+01
4814000000.000000      8.673096000000000E-01      1.191797000000000E+02      3.285217000000000E-01     -1.704297000000000E+02      2.586823000000000E-01     -8.339062000000000E+01      9.068604000000000E-01     -4.877343000000000E+01
4815000000.000000      8.667908000000000E-01      1.193828000000000E+02      3.289642000000000E-01     -1.705078000000000E+02      2.587280000000000E-01     -8.311327000000000E+01      9.010620000000000E-01     -4.878124000000000E+01
4816000000.000000      8.667297000000000E-01      1.197695000000000E+02      3.305054000000000E-01     -1.704141000000000E+02      2.593994000000000E-01     -8.283594000000000E+01      8.962708000000000E-01     -4.885156000000000E+01
4817000000.000000      8.623047000000000E-01      1.199141000000000E+02      3.308563000000000E-01     -1.706640000000000E+02      2.590942000000000E-01     -8.250000000000000E+01      8.906860000000000E-01     -4.887500000000000E+01
4818000000.000000      8.570862000000000E-01      1.200195000000000E+02      3.309937000000000E-01     -1.706797000000000E+02      2.593079000000000E-01     -8.218359000000000E+01      8.835754000000000E-01     -4.891992000000000E+01
4819000000.000000      8.554077000000000E-01      1.201758000000000E+02      3.316803000000000E-01     -1.707187000000000E+02      2.582245000000000E-01     -8.194530000000000E+01      8.801270000000000E-01     -4.918750000000000E+01
4820000000.000000      8.493042000000000E-01      1.205312000000000E+02      3.325500000000000E-01     -1.707422000000000E+02      2.591705000000000E-01     -8.165234000000000E+01      8.754578000000000E-01     -4.904882000000000E+01
4821000000.000000      8.493652000000000E-01      1.206875000000000E+02      3.337097000000000E-01     -1.709297000000000E+02      2.587891000000000E-01     -8.144140000000000E+01      8.691406000000000E-01     -4.914844000000000E+01
4822000000.000000      8.438721000000000E-01      1.207148000000000E+02      3.336182000000000E-01     -1.711172000000000E+02      2.582550000000000E-01     -8.116796000000000E+01      8.636169000000000E-01     -4.930859000000000E+01
4823000000.000000      8.445435000000000E-01      1.210039000000000E+02      3.346405000000000E-01     -1.711094000000000E+02      2.581024000000000E-01     -8.067577000000000E+01      8.592529000000000E-01     -4.923633000000000E+01
4824000000.000000      8.395996000000000E-01      1.209922000000000E+02      3.351898000000000E-01     -1.714609000000000E+02      2.585449000000000E-01     -8.041796000000000E+01      8.536682000000000E-01     -4.934375000000000E+01
4825000000.000000      8.331604000000000E-01      1.213320000000000E+02      3.357544000000000E-01     -1.714062000000000E+02      2.590179000000000E-01     -8.022264000000000E+01      8.489685000000000E-01     -4.942773000000000E+01
4826000000.000000      8.327026000000000E-01      1.215117000000000E+02      3.366394000000000E-01     -1.716406000000000E+02      2.583313000000000E-01     -7.994141000000000E+01      8.450623000000000E-01     -4.952929000000000E+01
4827000000.000000      8.267212000000000E-01      1.215742000000000E+02      3.370209000000000E-01     -1.716797000000000E+02      2.583923000000000E-01     -7.954296000000000E+01      8.404541000000000E-01     -4.958593000000000E+01
4828000000.000000      8.251953000000000E-01      1.216836000000000E+02      3.379517000000000E-01     -1.719609000000000E+02      2.579498000000000E-01     -7.926562000000000E+01      8.353271000000000E-01     -4.977929000000000E+01
4829000000.000000      8.186951000000000E-01      1.218672000000000E+02      3.379974000000000E-01     -1.719687000000000E+02      2.591858000000000E-01     -7.891015000000000E+01      8.324280000000000E-01     -4.974218000000000E+01
4830000000.000000      8.127441000000000E-01      1.219844000000000E+02      3.382874000000000E-01     -1.722656000000000E+02      2.584991000000000E-01     -7.846484000000000E+01      8.261414000000000E-01     -4.976563000000000E+01
4831000000.000000      8.079834000000000E-01      1.221328000000000E+02      3.386688000000000E-01     -1.724375000000000E+02      2.588196000000000E-01     -7.811718000000000E+01      8.223877000000000E-01     -4.984570000000000E+01
4832000000.000000      8.065796000000000E-01      1.221680000000000E+02      3.390045000000000E-01     -1.727109000000000E+02      2.587280000000000E-01     -7.779687000000000E+01      8.174438000000000E-01     -4.982226000000000E+01
4833000000.000000      8.015137000000000E-01      1.222461000000000E+02      3.394623000000000E-01     -1.728750000000000E+02      2.585297000000000E-01     -7.748437000000000E+01      8.125305000000000E-01     -4.996679000000000E+01
4834000000.000000      7.980042000000000E-01      1.223516000000000E+02      3.401337000000000E-01     -1.731094000000000E+02      2.591095000000000E-01     -7.710938000000000E+01      8.079834000000000E-01     -5.009179000000000E+01
4835000000.000000      7.923584000000000E-01      1.224570000000000E+02      3.404846000000000E-01     -1.732031000000000E+02      2.591705000000000E-01     -7.676562000000000E+01      8.055115000000000E-01     -5.019140000000000E+01
4836000000.000000      7.864990000000000E-01      1.224375000000000E+02      3.395538000000000E-01     -1.736250000000000E+02      2.592773000000000E-01     -7.646093000000000E+01      8.012390000000000E-01     -5.011719000000000E+01
4837000000.000000      7.820129000000000E-01      1.226289000000000E+02      3.399200000000000E-01     -1.739609000000000E+02      2.595825000000000E-01     -7.622656000000000E+01      7.967224000000000E-01     -5.011523000000000E+01
4838000000.000000      7.765198000000000E-01      1.224375000000000E+02      3.404388000000000E-01     -1.739141000000000E+02      2.595978000000000E-01     -7.571875000000000E+01      7.928162000000000E-01     -5.020898000000000E+01
4839000000.000000      7.743530000000000E-01      1.226367000000000E+02      3.402405000000000E-01     -1.741094000000000E+02      2.597504000000000E-01     -7.554296000000000E+01      7.898254000000000E-01     -5.041992000000000E+01
4840000000.000000      7.664795000000000E-01      1.225664000000000E+02      3.399658000000000E-01     -1.741875000000000E+02      2.604065000000000E-01     -7.514843000000000E+01      7.851868000000000E-01     -5.040820000000000E+01
4841000000.000000      7.624512000000000E-01      1.226055000000000E+02      3.400726000000000E-01     -1.747656000000000E+02      2.606964000000000E-01     -7.476171000000000E+01      7.830200000000000E-01     -5.047461000000000E+01
4842000000.000000      7.546692000000000E-01      1.225469000000000E+02      3.404083000000000E-01     -1.750000000000000E+02      2.603607000000000E-01     -7.444140000000000E+01      7.799072000000000E-01     -5.045116000000000E+01
4843000000.000000      7.491760000000000E-01      1.225117000000000E+02      3.402100000000000E-01     -1.750937000000000E+02      2.606506000000000E-01     -7.414844000000000E+01      7.758179000000000E-01     -5.052343000000000E+01
4844000000.000000      7.457275000000000E-01      1.223750000000000E+02      3.398285000000000E-01     -1.753828000000000E+02      2.606506000000000E-01     -7.385547000000000E+01      7.727356000000000E-01     -5.063867000000000E+01
4845000000.000000      7.404785000000000E-01      1.224453000000000E+02      3.388519000000000E-01     -1.756172000000000E+02      2.618103000000000E-01     -7.355859000000000E+01      7.681885000000000E-01     -5.065430000000000E+01
4846000000.000000      7.325745000000000E-01      1.225039000000000E+02      3.390503000000000E-01     -1.758047000000000E+02      2.624207000000000E-01     -7.316796000000000E+01      7.644348000000000E-01     -5.078906000000000E+01
4847000000.000000      7.279358000000000E-01      1.223633000000000E+02      3.382568000000000E-01     -1.761875000000000E+02      2.626495000000000E-01     -7.289844000000000E+01      7.630920000000000E-01     -5.093750000000000E+01
4848000000.000000      7.231750000000000E-01      1.221406000000000E+02      3.376312000000000E-01     -1.764141000000000E+02      2.622986000000000E-01     -7.252343000000000E+01      7.581177000000000E-01     -5.090625000000000E+01
4849000000.000000      7.164917000000000E-01      1.220859000000000E+02      3.374939000000000E-01     -1.767109000000000E+02      2.627106000000000E-01     -7.218359000000000E+01      7.544861000000000E-01     -5.089648000000000E+01
4850000000.000000      7.095032000000000E-01      1.219219000000000E+02      3.368378000000000E-01     -1.771563000000000E+02      2.629242000000000E-01     -7.184375000000000E+01      7.527161000000000E-01     -5.095312000000000E+01
4851000000.000000      7.042847000000000E-01      1.218750000000000E+02      3.369446000000000E-01     -1.771406000000000E+02      2.631531000000000E-01     -7.166797000000000E+01      7.508240000000000E-01     -5.101367000000000E+01
4852000000.000000      6.977539000000000E-01      1.217188000000000E+02      3.360138000000000E-01     -1.774297000000000E+02      2.633209000000000E-01     -7.124609000000000E+01      7.470093000000000E-01     -5.116992000000000E+01
4853000000.000000      6.923523000000000E-01      1.215820000000000E+02      3.339081000000000E-01     -1.776328000000000E+02      2.643890000000000E-01     -7.099999000000000E+01      7.447510000000000E-01     -5.131249000000000E+01
4854000000.000000      6.856079000000000E-01      1.213008000000000E+02      3.338623000000000E-01     -1.781016000000000E+02      2.638397000000000E-01     -7.077343000000000E+01      7.423401000000000E-01     -5.132813000000000E+01
4855000000.000000      6.794128000000000E-01      1.210976000000000E+02      3.330231000000000E-01     -1.781719000000000E+02      2.644196000000000E-01     -7.048046000000000E+01      7.382507000000000E-01     -5.130468000000000E+01
4856000000.000000      6.753845000000000E-01      1.209883000000000E+02      3.318329000000000E-01     -1.783906000000000E+02      2.649078000000000E-01     -7.016406000000000E+01      7.367859000000000E-01     -5.137890000000000E+01
4857000000.000000      6.683044000000000E-01      1.207187000000000E+02      3.317871000000000E-01     -1.785391000000000E+02      2.653961000000000E-01     -6.991015000000000E+01      7.331238000000000E-01     -5.143359000000000E+01
4858000000.000000      6.591187000000000E-01      1.204140000000000E+02      3.304443000000000E-01     -1.788984000000000E+02      2.653656000000000E-01     -6.981640000000000E+01      7.302551000000000E-01     -5.151367000000000E+01
4859000000.000000      6.568604000000000E-01      1.201055000000000E+02      3.300934000000000E-01     -1.791563000000000E+02      2.658844000000000E-01     -6.954687000000000E+01      7.297363000000000E-01     -5.159765000000000E+01
4860000000.000000      6.484680000000000E-01      1.199258000000000E+02      3.284760000000000E-01     -1.792266000000000E+02      2.660065000000000E-01     -6.919531000000000E+01      7.258911000000000E-01     -5.156445000000000E+01
4861000000.000000      6.428833000000000E-01      1.198008000000000E+02      3.273315000000000E-01     -1.796250000000000E+02      2.670898000000000E-01     -6.896093000000000E+01      7.227173000000000E-01     -5.161133000000000E+01
4862000000.000000      6.360474000000000E-01      1.194336000000000E+02      3.271332000000000E-01     -1.796641000000000E+02      2.670898000000000E-01     -6.860156000000000E+01      7.220459000000000E-01     -5.173242000000000E+01
4863000000.000000      6.312866000000000E-01      1.191328000000000E+02      3.245544000000000E-01      1.799844000000000E+02      2.675323000000000E-01     -6.855078000000000E+01      7.202759000000000E-01     -5.175976000000000E+01
4864000000.000000      6.235046000000000E-01      1.187656000000000E+02      3.247681000000000E-01      1.799062000000000E+02      2.675018000000000E-01     -6.831640000000000E+01      7.169800000000000E-01     -5.181641000000000E+01
4865000000.000000      6.164551000000000E-01      1.183047000000000E+02      3.230133000000000E-01      1.797344000000000E+02      2.679291000000000E-01     -6.819140000000000E+01      7.161560000000000E-01     -5.172656000000000E+01
4866000000.000000      6.108704000000000E-01      1.179805000000000E+02      3.215637000000000E-01      1.795469000000000E+02      2.684021000000000E-01     -6.811328000000000E+01      7.129822000000000E-01     -5.182422000000000E+01
4867000000.000000      6.056519000000000E-01      1.175547000000000E+02      3.204651000000000E-01      1.793359000000000E+02      2.682648000000000E-01     -6.779687000000000E+01      7.115479000000000E-01     -5.185937000000000E+01
4868000000.000000      5.996704000000000E-01      1.172734000000000E+02      3.197021000000000E-01      1.790859000000000E+02      2.690582000000000E-01     -6.765625000000000E+01      7.083435000000000E-01     -5.186328000000000E+01
4869000000.000000      5.932922000000000E-01      1.168203000000000E+02      3.178711000000000E-01      1.789375000000000E+02      2.688904000000000E-01     -6.751562000000000E+01      7.062378000000000E-01     -5.203515000000000E+01
4870000000.000000      5.883789000000000E-01      1.164297000000000E+02      3.173676000000000E-01      1.789766000000000E+02      2.695313000000000E-01     -6.744922000000000E+01      7.059937000000000E-01     -5.194336000000000E+01
4871000000.000000      5.825195000000000E-01      1.159336000000000E+02      3.147278000000000E-01      1.786953000000000E+02      2.690582000000000E-01     -6.728906000000000E+01      7.022095000000000E-01     -5.209765000000000E+01
4872000000.000000      5.777893000000000E-01      1.155937000000000E+02      3.153687000000000E-01      1.786719000000000E+02      2.696991000000000E-01     -6.725390000000000E+01      7.011108000000000E-01     -5.209961000000000E+01
4873000000.000000      5.708618000000000E-01      1.150469000000000E+02      3.131409000000000E-01      1.786328000000000E+02      2.693634000000000E-01     -6.703906000000000E+01      6.966248000000000E-01     -5.212304000000000E+01
4874000000.000000      5.657043000000000E-01      1.146289000000000E+02      3.117981000000000E-01      1.782187000000000E+02      2.697601000000000E-01     -6.706640000000000E+01      6.956177000000000E-01     -5.190430000000000E+01
4875000000.000000      5.615845000000000E-01      1.142266000000000E+02      3.103485000000000E-01      1.781953000000000E+02      2.704926000000000E-01     -6.697266000000000E+01      6.944275000000000E-01     -5.216210000000000E+01
4876000000.000000      5.552368000000000E-01      1.136094000000000E+02      3.094177000000000E-01      1.780391000000000E+02      2.701263000000000E-01     -6.687109000000000E+01      6.921997000000000E-01     -5.225976000000000E+01
4877000000.000000      5.495911000000000E-01      1.130430000000000E+02      3.085175000000000E-01      1.779531000000000E+02      2.704163000000000E-01     -6.689843000000000E+01      6.900940000000000E-01     -5.211523000000000E+01
4878000000.000000      5.452576000000000E-01      1.126055000000000E+02      3.067017000000000E-01      1.778828000000000E+02      2.705994000000000E-01     -6.671484000000000E+01      6.882629000000000E-01     -5.213867000000000E+01
4879000000.000000      5.409241000000000E-01      1.120586000000000E+02      3.057251000000000E-01      1.777500000000000E+02      2.696991000000000E-01     -6.664844000000000E+01      6.855164000000000E-01     -5.216210000000000E+01
4880000000.000000      5.348816000000000E-01      1.115664000000000E+02      3.043518000000000E-01      1.776875000000000E+02      2.700043000000000E-01     -6.655078000000000E+01      6.846313000000000E-01     -5.213085000000000E+01
4881000000.000000      5.321960000000000E-01      1.110703000000000E+02      3.040619000000000E-01      1.775781000000000E+02      2.704773000000000E-01     -6.664844000000000E+01      6.825562000000000E-01     -5.204296000000000E+01
4882000000.000000      5.269470000000000E-01      1.105859000000000E+02      3.029327000000000E-01      1.775859000000000E+02      2.700500000000000E-01     -6.651953000000000E+01      6.790466000000000E-01     -5.215625000000000E+01
