! Network Analyzer HP8722D
! Hewlett-Packard
! Data name: Linha & Wilkinson
! Saver's name: Rodrigo Anjos
! Comments: Teste da utilização de aquisição
continua pelo VNA HP8722D
! Time and date: 8/5/2025 15:26
!              Frequency                     S11                                                   S21                                                   S12                                                   S22
# HZ  S  MA R 50
4800000000.000000      8.717041000000000E-01      8.838282000000000E+01      1.352615000000000E-01     -2.641308000000000E+01      1.262054000000000E-01      1.011719000000000E+02      2.408600000000000E-01      6.365429000000000E+01
4801000000.000000      8.763733000000000E-01      8.872265000000000E+01      1.324387000000000E-01     -2.487793000000000E+01      1.237984000000000E-01      1.019375000000000E+02      2.457962000000000E-01      6.322851000000000E+01
4802000000.000000      8.765259000000000E-01      8.895702000000000E+01      1.300049000000000E-01     -2.347558000000000E+01      1.218262000000000E-01      1.033047000000000E+02      2.524109000000000E-01      6.266992000000000E+01
4803000000.000000      8.810120000000000E-01      8.919922000000000E+01      1.285706000000000E-01     -2.201270000000000E+01      1.194496000000000E-01      1.046133000000000E+02      2.556915000000000E-01      6.242578000000000E+01
4804000000.000000      8.847351000000000E-01      8.948046000000000E+01      1.262741000000000E-01     -2.045801000000000E+01      1.179199000000000E-01      1.055625000000000E+02      2.575378000000000E-01      6.257813000000000E+01
4805000000.000000      8.880005000000000E-01      8.970312000000000E+01      1.240616000000000E-01     -1.934180000000000E+01      1.161308000000000E-01      1.069531000000000E+02      2.630615000000000E-01      6.182617000000000E+01
4806000000.000000      8.900146000000000E-01      9.003515000000000E+01      1.229744000000000E-01     -1.732715000000000E+01      1.144066000000000E-01      1.086406000000000E+02      2.660675000000000E-01      6.152344000000000E+01
4807000000.000000      8.925476000000000E-01      9.018749000000000E+01      1.212578000000000E-01     -1.606543000000000E+01      1.132088000000000E-01      1.098476000000000E+02      2.686768000000000E-01      6.135937000000000E+01
4808000000.000000      8.931885000000000E-01      9.059765000000000E+01      1.205711000000000E-01     -1.420020000000000E+01      1.121063000000000E-01      1.114101000000000E+02      2.720795000000000E-01      6.079492000000000E+01
4809000000.000000      8.959045000000000E-01      9.094530000000000E+01      1.190491000000000E-01     -1.264941000000000E+01      1.117783000000000E-01      1.128477000000000E+02      2.775574000000000E-01      6.081445000000000E+01
4810000000.000000      8.986206000000000E-01      9.112890000000000E+01      1.183357000000000E-01     -1.075195000000000E+01      1.106415000000000E-01      1.144336000000000E+02      2.782135000000000E-01      5.970508000000000E+01
4811000000.000000      8.983154000000000E-01      9.146875000000000E+01      1.175880000000000E-01     -9.026855000000000E+00      1.105347000000000E-01      1.159531000000000E+02      2.821503000000000E-01      5.950000000000000E+01
4812000000.000000      9.015198000000000E-01      9.192577000000000E+01      1.174622000000000E-01     -7.337646000000000E+00      1.101303000000000E-01      1.175820000000000E+02      2.851257000000000E-01      5.870312000000000E+01
4813000000.000000      9.041443000000000E-01      9.210155000000000E+01      1.173248000000000E-01     -5.571533000000000E+00      1.098900000000000E-01      1.192344000000000E+02      2.877045000000000E-01      5.876562000000000E+01
4814000000.000000      9.022522000000000E-01      9.238672000000000E+01      1.173096000000000E-01     -3.551392000000000E+00      1.098442000000000E-01      1.209141000000000E+02      2.901154000000000E-01      5.782421000000000E+01
4815000000.000000      9.032898000000000E-01      9.272655000000000E+01      1.171608000000000E-01     -2.066895000000000E+00      1.101570000000000E-01      1.225000000000000E+02      2.944031000000000E-01      5.729492000000000E+01
4816000000.000000      9.060364000000000E-01      9.289454000000000E+01      1.181450000000000E-01     -1.098633000000000E-01      1.108971000000000E-01      1.242500000000000E+02      2.949524000000000E-01      5.676758000000000E+01
4817000000.000000      9.076538000000000E-01      9.328516000000000E+01      1.188087000000000E-01      1.121948000000000E+00      1.112938000000000E-01      1.257187000000000E+02      2.951660000000000E-01      5.650000000000000E+01
4818000000.000000      9.063721000000000E-01      9.348436000000000E+01      1.197662000000000E-01      3.063721000000000E+00      1.122589000000000E-01      1.273203000000000E+02      2.984467000000000E-01      5.588867000000000E+01
4819000000.000000      9.096375000000000E-01      9.394922000000000E+01      1.207619000000000E-01      4.688232000000000E+00      1.130409000000000E-01      1.286094000000000E+02      3.003235000000000E-01      5.504492000000000E+01
4820000000.000000      9.054260000000000E-01      9.417969000000000E+01      1.216278000000000E-01      6.330811000000000E+00      1.144180000000000E-01      1.302344000000000E+02      3.025208000000000E-01      5.446289000000000E+01
4821000000.000000      9.089966000000000E-01      9.434374000000000E+01      1.238213000000000E-01      7.712402000000000E+00      1.154594000000000E-01      1.315703000000000E+02      3.044434000000000E-01      5.388672000000000E+01
4822000000.000000      9.069824000000000E-01      9.464062000000000E+01      1.245384000000000E-01      9.082520000000000E+00      1.168022000000000E-01      1.327734000000000E+02      3.054199000000000E-01      5.309765000000000E+01
4823000000.000000      9.086304000000000E-01      9.494141000000000E+01      1.268921000000000E-01      1.052051000000000E+01      1.186447000000000E-01      1.342109000000000E+02      3.046875000000000E-01      5.236328000000000E+01
4824000000.000000      9.080200000000000E-01      9.519922000000000E+01      1.284714000000000E-01      1.180713000000000E+01      1.199074000000000E-01      1.354531000000000E+02      3.063354000000000E-01      5.182031000000000E+01
4825000000.000000      9.061279000000000E-01      9.546093000000000E+01      1.309586000000000E-01      1.305273000000000E+01      1.221771000000000E-01      1.364844000000000E+02      3.083801000000000E-01      5.158593000000000E+01
4826000000.000000      9.051819000000000E-01      9.585155000000000E+01      1.327209000000000E-01      1.434668000000000E+01      1.239395000000000E-01      1.376484000000000E+02      3.113098000000000E-01      5.067968000000000E+01
4827000000.000000      9.047241000000000E-01      9.590624000000000E+01      1.349640000000000E-01      1.536572000000000E+01      1.257019000000000E-01      1.385547000000000E+02      3.117523000000000E-01      4.995898000000000E+01
4828000000.000000      9.057922000000000E-01      9.621874000000000E+01      1.378403000000000E-01      1.642090000000000E+01      1.274796000000000E-01      1.396719000000000E+02      3.108215000000000E-01      4.910742000000000E+01
4829000000.000000      9.002686000000000E-01      9.675781000000000E+01      1.396942000000000E-01      1.742090000000000E+01      1.303329000000000E-01      1.406719000000000E+02      3.125458000000000E-01      4.862499000000000E+01
4830000000.000000      8.992310000000000E-01      9.690233000000000E+01      1.423416000000000E-01      1.829980000000000E+01      1.324921000000000E-01      1.415313000000000E+02      3.121033000000000E-01      4.828711000000000E+01
4831000000.000000      8.977966000000000E-01      9.707420000000000E+01      1.448288000000000E-01      1.916016000000000E+01      1.347504000000000E-01      1.425781000000000E+02      3.120422000000000E-01      4.746289000000000E+01
4832000000.000000      8.968506000000000E-01      9.732811000000000E+01      1.474228000000000E-01      1.997559000000000E+01      1.369781000000000E-01      1.432969000000000E+02      3.124695000000000E-01      4.707031000000000E+01
4833000000.000000      8.930969000000000E-01      9.746483000000000E+01      1.504364000000000E-01      2.074707000000000E+01      1.398239000000000E-01      1.439922000000000E+02      3.127747000000000E-01      4.625781000000000E+01
4834000000.000000      8.928223000000000E-01      9.773827000000000E+01      1.534958000000000E-01      2.142871000000000E+01      1.421051000000000E-01      1.447109000000000E+02      3.124390000000000E-01      4.576562000000000E+01
4835000000.000000      8.903503000000000E-01      9.797264000000000E+01      1.563492000000000E-01      2.203223000000000E+01      1.449661000000000E-01      1.453359000000000E+02      3.129883000000000E-01      4.527148000000000E+01
4836000000.000000      8.881836000000000E-01      9.816406000000000E+01      1.589661000000000E-01      2.274414000000000E+01      1.472931000000000E-01      1.460547000000000E+02      3.132324000000000E-01      4.459765000000000E+01
4837000000.000000      8.847351000000000E-01      9.843750000000000E+01      1.617279000000000E-01      2.306152000000000E+01      1.500397000000000E-01      1.464766000000000E+02      3.130493000000000E-01      4.403710000000000E+01
4838000000.000000      8.817139000000000E-01      9.857031000000000E+01      1.653290000000000E-01      2.385937000000000E+01      1.528549000000000E-01      1.472656000000000E+02      3.128357000000000E-01      4.313086000000000E+01
4839000000.000000      8.797913000000000E-01      9.896873000000000E+01      1.683197000000000E-01      2.436718000000000E+01      1.554337000000000E-01      1.475781000000000E+02      3.125458000000000E-01      4.267187000000000E+01
4840000000.000000      8.767395000000000E-01      9.912109000000000E+01      1.711960000000000E-01      2.489355000000000E+01      1.581268000000000E-01      1.481875000000000E+02      3.118134000000000E-01      4.207617000000000E+01
4841000000.000000      8.734131000000000E-01      9.922655000000000E+01      1.746140000000000E-01      2.486035000000000E+01      1.609573000000000E-01      1.486328000000000E+02      3.119202000000000E-01      4.143164000000000E+01
4842000000.000000      8.706055000000000E-01      9.946093000000000E+01      1.775589000000000E-01      2.547656000000000E+01      1.636047000000000E-01      1.490937000000000E+02      3.130493000000000E-01      4.104297000000000E+01
4843000000.000000      8.697205000000000E-01      9.969530000000000E+01      1.810303000000000E-01      2.554296000000000E+01      1.668167000000000E-01      1.493515000000000E+02      3.117523000000000E-01      4.072461000000000E+01
4844000000.000000      8.643188000000000E-01      9.976171000000000E+01      1.841888000000000E-01      2.597851000000000E+01      1.694107000000000E-01      1.498750000000000E+02      3.103638000000000E-01      3.980078000000000E+01
4845000000.000000      8.575134000000000E-01      1.001797000000000E+02      1.872330000000000E-01      2.629395000000000E+01      1.730270000000000E-01      1.502891000000000E+02      3.112030000000000E-01      3.947656000000000E+01
4846000000.000000      8.559875000000000E-01      1.003477000000000E+02      1.910324000000000E-01      2.637890000000000E+01      1.762848000000000E-01      1.505000000000000E+02      3.105469000000000E-01      3.916406000000000E+01
4847000000.000000      8.526611000000000E-01      1.005039000000000E+02      1.943283000000000E-01      2.669629000000000E+01      1.789551000000000E-01      1.507187000000000E+02      3.101349000000000E-01      3.836523000000000E+01
4848000000.000000      8.482971000000000E-01      1.004961000000000E+02      1.975479000000000E-01      2.679101000000000E+01      1.817398000000000E-01      1.511250000000000E+02      3.098297000000000E-01      3.784375000000000E+01
4849000000.000000      8.442993000000000E-01      1.005234000000000E+02      2.008514000000000E-01      2.685156000000000E+01      1.850357000000000E-01      1.513047000000000E+02      3.084259000000000E-01      3.750000000000000E+01
4850000000.000000      8.405151000000000E-01      1.007070000000000E+02      2.040558000000000E-01      2.693945000000000E+01      1.880417000000000E-01      1.516250000000000E+02      3.077545000000000E-01      3.695898000000000E+01
4851000000.000000      8.341064000000000E-01      1.009375000000000E+02      2.078476000000000E-01      2.696972000000000E+01      1.912689000000000E-01      1.518281000000000E+02      3.090210000000000E-01      3.646289000000000E+01
4852000000.000000      8.291016000000000E-01      1.009101000000000E+02      2.111053000000000E-01      2.696582000000000E+01      1.942291000000000E-01      1.521328000000000E+02      3.082886000000000E-01      3.609961000000000E+01
4853000000.000000      8.263245000000000E-01      1.011328000000000E+02      2.142410000000000E-01      2.715234000000000E+01      1.972809000000000E-01      1.521875000000000E+02      3.062134000000000E-01      3.559961000000000E+01
4854000000.000000      8.213196000000000E-01      1.011914000000000E+02      2.175522000000000E-01      2.710254000000000E+01      2.007675000000000E-01      1.523906000000000E+02      3.088379000000000E-01      3.496875000000000E+01
4855000000.000000      8.172607000000000E-01      1.012422000000000E+02      2.217560000000000E-01      2.723437000000000E+01      2.038803000000000E-01      1.525312000000000E+02      3.057861000000000E-01      3.462891000000000E+01
4856000000.000000      8.136902000000000E-01      1.013906000000000E+02      2.251511000000000E-01      2.705175000000000E+01      2.069550000000000E-01      1.527422000000000E+02      3.066254000000000E-01      3.441015000000000E+01
4857000000.000000      8.084106000000000E-01      1.016016000000000E+02      2.287292000000000E-01      2.724609000000000E+01      2.101517000000000E-01      1.528047000000000E+02      3.048859000000000E-01      3.386133000000000E+01
4858000000.000000      8.031006000000000E-01      1.013867000000000E+02      2.319870000000000E-01      2.706055000000000E+01      2.135391000000000E-01      1.529219000000000E+02      3.057251000000000E-01      3.334375000000000E+01
4859000000.000000      7.993164000000000E-01      1.015391000000000E+02      2.359924000000000E-01      2.705078000000000E+01      2.166672000000000E-01      1.529297000000000E+02      3.057556000000000E-01      3.313867000000000E+01
4860000000.000000      7.928162000000000E-01      1.015937000000000E+02      2.392349000000000E-01      2.695703000000000E+01      2.196350000000000E-01      1.530156000000000E+02      3.036194000000000E-01      3.244726000000000E+01
4861000000.000000      7.883911000000000E-01      1.016211000000000E+02      2.425079000000000E-01      2.676270000000000E+01      2.232285000000000E-01      1.530859000000000E+02      3.046875000000000E-01      3.249414000000000E+01
4862000000.000000      7.817993000000000E-01      1.016094000000000E+02      2.462692000000000E-01      2.680664000000000E+01      2.266312000000000E-01      1.531641000000000E+02      3.036041000000000E-01      3.183203000000000E+01
4863000000.000000      7.770996000000000E-01      1.016133000000000E+02      2.492599000000000E-01      2.659082000000000E+01      2.298889000000000E-01      1.531641000000000E+02      3.047943000000000E-01      3.141211000000000E+01
4864000000.000000      7.726135000000000E-01      1.014297000000000E+02      2.531281000000000E-01      2.651953000000000E+01      2.329178000000000E-01      1.531719000000000E+02      3.048096000000000E-01      3.091894000000000E+01
4865000000.000000      7.666931000000000E-01      1.015195000000000E+02      2.561798000000000E-01      2.650586000000000E+01      2.363205000000000E-01      1.532187000000000E+02      3.055420000000000E-01      3.097656000000000E+01
4866000000.000000      7.597961000000000E-01      1.013594000000000E+02      2.596283000000000E-01      2.626074000000000E+01      2.398682000000000E-01      1.531406000000000E+02      3.064270000000000E-01      3.047656000000000E+01
4867000000.000000      7.563171000000000E-01      1.013008000000000E+02      2.632904000000000E-01      2.587597000000000E+01      2.427597000000000E-01      1.531797000000000E+02      3.045349000000000E-01      3.009375000000000E+01
4868000000.000000      7.537231000000000E-01      1.011250000000000E+02      2.673645000000000E-01      2.577929000000000E+01      2.465363000000000E-01      1.531172000000000E+02      3.029785000000000E-01      3.003222000000000E+01
4869000000.000000      7.462769000000000E-01      1.012383000000000E+02      2.705078000000000E-01      2.574414000000000E+01      2.499695000000000E-01      1.530625000000000E+02      3.049164000000000E-01      2.927148000000000E+01
4870000000.000000      7.428894000000000E-01      1.010781000000000E+02      2.743378000000000E-01      2.565527000000000E+01      2.535095000000000E-01      1.530234000000000E+02      3.053284000000000E-01      2.937988000000000E+01
4871000000.000000      7.376709000000000E-01      1.009375000000000E+02      2.779999000000000E-01      2.530371000000000E+01      2.564545000000000E-01      1.528906000000000E+02      3.056183000000000E-01      2.869336000000000E+01
4872000000.000000      7.348022000000000E-01      1.007578000000000E+02      2.816010000000000E-01      2.528027000000000E+01      2.597046000000000E-01      1.525312000000000E+02      3.060608000000000E-01      2.866113000000000E+01
4873000000.000000      7.287903000000000E-01      1.006055000000000E+02      2.853394000000000E-01      2.478711000000000E+01      2.626953000000000E-01      1.527109000000000E+02      3.059540000000000E-01      2.803515000000000E+01
4874000000.000000      7.238770000000000E-01      1.004023000000000E+02      2.882385000000000E-01      2.452148000000000E+01      2.670135000000000E-01      1.524453000000000E+02      3.075867000000000E-01      2.767969000000000E+01
4875000000.000000      7.184143000000000E-01      1.000781000000000E+02      2.919464000000000E-01      2.429883000000000E+01      2.699127000000000E-01      1.525469000000000E+02      3.077698000000000E-01      2.749023000000000E+01
4876000000.000000      7.139587000000000E-01      1.000820000000000E+02      2.962341000000000E-01      2.406347000000000E+01      2.735443000000000E-01      1.521875000000000E+02      3.087463000000000E-01      2.718750000000000E+01
4877000000.000000      7.096252000000000E-01      9.962500000000000E+01      2.998352000000000E-01      2.378320000000000E+01      2.763367000000000E-01      1.521328000000000E+02      3.097534000000000E-01      2.707031000000000E+01
4878000000.000000      7.043152000000000E-01      9.939453000000000E+01      3.044434000000000E-01      2.340625000000000E+01      2.799683000000000E-01      1.520000000000000E+02      3.096619000000000E-01      2.675293000000000E+01
4879000000.000000      7.023621000000000E-01      9.916405000000000E+01      3.064880000000000E-01      2.332226000000000E+01      2.836151000000000E-01      1.517266000000000E+02      3.111877000000000E-01      2.635156000000000E+01
4880000000.000000      6.958618000000000E-01      9.878124000000000E+01      3.105011000000000E-01      2.294336000000000E+01      2.864685000000000E-01      1.516016000000000E+02      3.103027000000000E-01      2.622363000000000E+01
4881000000.000000      6.912537000000000E-01      9.849998000000000E+01      3.149414000000000E-01      2.272461000000000E+01      2.901306000000000E-01      1.513828000000000E+02      3.128204000000000E-01      2.589258000000000E+01
4882000000.000000      6.881714000000000E-01      9.841406000000000E+01      3.189087000000000E-01      2.224414000000000E+01      2.937469000000000E-01      1.511641000000000E+02      3.139038000000000E-01      2.554590000000000E+01
