! Network Analyzer HP8722D
! Hewlett-Packard
! Data name: Linha & Wilkinson
! Saver's name: Rodrigo Anjos
! Comments: Teste da utilização de aquisição
continua pelo VNA HP8722D
! Time and date: 8/5/2025 12:52
!              Frequency                     S11                                                   S21                                                   S12                                                   S22
# HZ  S  MA R 50
4800000000.000000      6.101990000000000E-01     -4.777344000000000E+01      4.161682000000000E-01     -2.222461000000000E+01      4.859314000000000E-01     -1.756172000000000E+02      4.895325000000000E-01     -1.796328000000000E+02
4801000000.000000      6.120300000000000E-01     -4.811913000000000E+01      4.166107000000000E-01     -2.215039000000000E+01      4.874420000000000E-01     -1.759063000000000E+02      4.893799000000000E-01      1.797109000000000E+02
4802000000.000000      6.138306000000000E-01     -4.881836000000000E+01      4.171295000000000E-01     -2.293750000000000E+01      4.895782000000000E-01     -1.761797000000000E+02      4.942169000000000E-01      1.790078000000000E+02
4803000000.000000      6.184692000000000E-01     -4.943554000000000E+01      4.196014000000000E-01     -2.325976000000000E+01      4.920654000000000E-01     -1.763281000000000E+02      4.931335000000000E-01      1.788984000000000E+02
4804000000.000000      6.187744000000000E-01     -5.004296000000000E+01      4.193268000000000E-01     -2.369922000000000E+01      4.938812000000000E-01     -1.766484000000000E+02      4.981384000000000E-01      1.786719000000000E+02
4805000000.000000      6.240845000000000E-01     -5.075585000000000E+01      4.210358000000000E-01     -2.431445000000000E+01      5.007935000000000E-01     -1.770156000000000E+02      5.006714000000000E-01      1.779531000000000E+02
4806000000.000000      6.240540000000000E-01     -5.106445000000000E+01      4.205627000000000E-01     -2.463183000000000E+01      5.005493000000000E-01     -1.770859000000000E+02      5.032959000000000E-01      1.778125000000000E+02
4807000000.000000      6.244202000000000E-01     -5.162890000000000E+01      4.208679000000000E-01     -2.523633000000000E+01      5.029602000000000E-01     -1.776328000000000E+02      5.022888000000000E-01      1.771563000000000E+02
4808000000.000000      6.278381000000000E-01     -5.214453000000000E+01      4.221649000000000E-01     -2.576855000000000E+01      5.046692000000000E-01     -1.779531000000000E+02      5.042114000000000E-01      1.770391000000000E+02
4809000000.000000      6.302795000000000E-01     -5.275000000000000E+01      4.243164000000000E-01     -2.639257000000000E+01      5.102234000000000E-01     -1.783906000000000E+02      5.101624000000000E-01      1.765078000000000E+02
4810000000.000000      6.316833000000000E-01     -5.335742000000000E+01      4.237366000000000E-01     -2.670801000000000E+01      5.126343000000000E-01     -1.784765000000000E+02      5.106812000000000E-01      1.763125000000000E+02
4811000000.000000      6.347656000000000E-01     -5.394726000000000E+01      4.248962000000000E-01     -2.733301000000000E+01      5.157471000000000E-01     -1.788437000000000E+02      5.110779000000000E-01      1.757969000000000E+02
4812000000.000000      6.372681000000000E-01     -5.425195000000000E+01      4.246674000000000E-01     -2.790527000000000E+01      5.194092000000000E-01     -1.793203000000000E+02      5.133362000000000E-01      1.752422000000000E+02
4813000000.000000      6.371765000000000E-01     -5.482616000000000E+01      4.245300000000000E-01     -2.845215000000000E+01      5.211487000000000E-01     -1.795156000000000E+02      5.165100000000000E-01      1.751094000000000E+02
4814000000.000000      6.407166000000000E-01     -5.554688000000000E+01      4.237518000000000E-01     -2.884375000000000E+01      5.238647000000000E-01      1.799609000000000E+02      5.187378000000000E-01      1.749141000000000E+02
4815000000.000000      6.418762000000000E-01     -5.591601000000000E+01      4.247131000000000E-01     -2.958398000000000E+01      5.255432000000000E-01      1.795078000000000E+02      5.166321000000000E-01      1.741562000000000E+02
4816000000.000000      6.449280000000000E-01     -5.614452000000000E+01      4.240875000000000E-01     -2.998340000000000E+01      5.308228000000000E-01      1.793125000000000E+02      5.195313000000000E-01      1.737734000000000E+02
4817000000.000000      6.467896000000000E-01     -5.665039000000000E+01      4.239807000000000E-01     -3.045898000000000E+01      5.322571000000000E-01      1.788047000000000E+02      5.218811000000000E-01      1.732734000000000E+02
4818000000.000000      6.454773000000000E-01     -5.714453000000000E+01      4.230957000000000E-01     -3.096094000000000E+01      5.358887000000000E-01      1.783359000000000E+02      5.254517000000000E-01      1.728203000000000E+02
4819000000.000000      6.479187000000000E-01     -5.769140000000000E+01      4.239044000000000E-01     -3.161621000000000E+01      5.393066000000000E-01      1.778906000000000E+02      5.284119000000000E-01      1.727734000000000E+02
4820000000.000000      6.484375000000000E-01     -5.806445000000000E+01      4.240875000000000E-01     -3.216015000000000E+01      5.424805000000000E-01      1.772500000000000E+02      5.284729000000000E-01      1.719453000000000E+02
4821000000.000000      6.493530000000000E-01     -5.836914000000000E+01      4.216309000000000E-01     -3.249804000000000E+01      5.429993000000000E-01      1.768594000000000E+02      5.276184000000000E-01      1.716640000000000E+02
4822000000.000000      6.517639000000000E-01     -5.876758000000000E+01      4.223785000000000E-01     -3.302343000000000E+01      5.456848000000000E-01      1.763359000000000E+02      5.301819000000000E-01      1.710234000000000E+02
4823000000.000000      6.512756000000000E-01     -5.925781000000000E+01      4.219513000000000E-01     -3.374023000000000E+01      5.476074000000000E-01      1.759063000000000E+02      5.305786000000000E-01      1.703516000000000E+02
4824000000.000000      6.550903000000000E-01     -5.951172000000000E+01      4.207764000000000E-01     -3.406836000000000E+01      5.502930000000000E-01      1.752891000000000E+02      5.310364000000000E-01      1.699453000000000E+02
4825000000.000000      6.522522000000000E-01     -5.983007000000000E+01      4.201202000000000E-01     -3.480469000000000E+01      5.551147000000000E-01      1.748594000000000E+02      5.318298000000000E-01      1.696016000000000E+02
4826000000.000000      6.566772000000000E-01     -6.022655000000000E+01      4.195404000000000E-01     -3.542187000000000E+01      5.530090000000000E-01      1.740625000000000E+02      5.304565000000000E-01      1.691250000000000E+02
4827000000.000000      6.563110000000000E-01     -6.036133000000000E+01      4.161224000000000E-01     -3.544140000000000E+01      5.559082000000000E-01      1.738516000000000E+02      5.310669000000000E-01      1.682812000000000E+02
4828000000.000000      6.578369000000000E-01     -6.056641000000000E+01      4.174500000000000E-01     -3.625195000000000E+01      5.591125000000000E-01      1.733281000000000E+02      5.308838000000000E-01      1.684141000000000E+02
4829000000.000000      6.582336000000000E-01     -6.073047000000000E+01      4.159393000000000E-01     -3.672070000000000E+01      5.592041000000000E-01      1.727422000000000E+02      5.270691000000000E-01      1.678047000000000E+02
4830000000.000000      6.604614000000000E-01     -6.103906000000000E+01      4.155731000000000E-01     -3.724023000000000E+01      5.611267000000000E-01      1.721875000000000E+02      5.286255000000000E-01      1.669375000000000E+02
4831000000.000000      6.586609000000000E-01     -6.111718000000000E+01      4.149933000000000E-01     -3.776562000000000E+01      5.631104000000000E-01      1.714609000000000E+02      5.242004000000000E-01      1.664141000000000E+02
4832000000.000000      6.598816000000000E-01     -6.125977000000000E+01      4.127350000000000E-01     -3.794922000000000E+01      5.621338000000000E-01      1.707891000000000E+02      5.223389000000000E-01      1.659922000000000E+02
4833000000.000000      6.611633000000000E-01     -6.138085000000000E+01      4.120483000000000E-01     -3.846094000000000E+01      5.638733000000000E-01      1.701094000000000E+02      5.202026000000000E-01      1.655937000000000E+02
4834000000.000000      6.588135000000000E-01     -6.152344000000000E+01      4.106903000000000E-01     -3.888281000000000E+01      5.627136000000000E-01      1.694141000000000E+02      5.180664000000000E-01      1.648828000000000E+02
4835000000.000000      6.593323000000000E-01     -6.153710000000000E+01      4.102020000000000E-01     -3.943359000000000E+01      5.653381000000000E-01      1.687344000000000E+02      5.129700000000000E-01      1.642422000000000E+02
4836000000.000000      6.619568000000000E-01     -6.150976000000000E+01      4.095001000000000E-01     -3.997070000000000E+01      5.628357000000000E-01      1.683906000000000E+02      5.085144000000000E-01      1.642109000000000E+02
4837000000.000000      6.614075000000000E-01     -6.147851000000000E+01      4.067078000000000E-01     -4.030663000000000E+01      5.603638000000000E-01      1.674453000000000E+02      5.051880000000000E-01      1.635703000000000E+02
4838000000.000000      6.614685000000000E-01     -6.159374000000000E+01      4.060516000000000E-01     -4.062304000000000E+01      5.606079000000000E-01      1.668437000000000E+02      5.017700000000000E-01      1.630078000000000E+02
4839000000.000000      6.642456000000000E-01     -6.161133000000000E+01      4.048309000000000E-01     -4.115820000000000E+01      5.596008000000000E-01      1.664453000000000E+02      4.952393000000000E-01      1.626250000000000E+02
4840000000.000000      6.618042000000000E-01     -6.176952000000000E+01      4.042816000000000E-01     -4.176367000000000E+01      5.578308000000000E-01      1.657031000000000E+02      4.882202000000000E-01      1.620234000000000E+02
4841000000.000000      6.615295000000000E-01     -6.169922000000000E+01      4.030457000000000E-01     -4.214648000000000E+01      5.582886000000000E-01      1.648672000000000E+02      4.835968000000000E-01      1.614687000000000E+02
4842000000.000000      6.638184000000000E-01     -6.135742000000000E+01      4.020844000000000E-01     -4.247851000000000E+01      5.531921000000000E-01      1.646328000000000E+02      4.778748000000000E-01      1.611953000000000E+02
4843000000.000000      6.640625000000000E-01     -6.145702000000000E+01      4.007111000000000E-01     -4.284765000000000E+01      5.526428000000000E-01      1.637266000000000E+02      4.741058000000000E-01      1.610078000000000E+02
4844000000.000000      6.620178000000000E-01     -6.123828000000000E+01      3.997650000000000E-01     -4.333984000000000E+01      5.513306000000000E-01      1.629688000000000E+02      4.647064000000000E-01      1.607734000000000E+02
4845000000.000000      6.630554000000000E-01     -6.103710000000000E+01      3.990021000000000E-01     -4.387500000000000E+01      5.496826000000000E-01      1.623984000000000E+02      4.586487000000000E-01      1.605703000000000E+02
4846000000.000000      6.631165000000000E-01     -6.087109000000000E+01      3.968506000000000E-01     -4.425195000000000E+01      5.459290000000000E-01      1.618359000000000E+02      4.505615000000000E-01      1.601328000000000E+02
4847000000.000000      6.647644000000000E-01     -6.077148000000000E+01      3.963470000000000E-01     -4.467773000000000E+01      5.435791000000000E-01      1.611016000000000E+02      4.425659000000000E-01      1.599688000000000E+02
4848000000.000000      6.634216000000000E-01     -6.044922000000000E+01      3.938904000000000E-01     -4.474414000000000E+01      5.404053000000000E-01      1.604141000000000E+02      4.356689000000000E-01      1.594687000000000E+02
4849000000.000000      6.652832000000000E-01     -6.037695000000000E+01      3.937378000000000E-01     -4.541992000000000E+01      5.369873000000000E-01      1.597422000000000E+02      4.284515000000000E-01      1.593516000000000E+02
4850000000.000000      6.659241000000000E-01     -5.993554000000000E+01      3.919678000000000E-01     -4.592773000000000E+01      5.339661000000000E-01      1.592266000000000E+02      4.195557000000000E-01      1.593437000000000E+02
4851000000.000000      6.676025000000000E-01     -5.985937000000000E+01      3.918915000000000E-01     -4.642383000000000E+01      5.292358000000000E-01      1.588516000000000E+02      4.109497000000000E-01      1.591250000000000E+02
4852000000.000000      6.659851000000000E-01     -5.959374000000000E+01      3.914185000000000E-01     -4.666992000000000E+01      5.247192000000000E-01      1.580625000000000E+02      4.009399000000000E-01      1.590859000000000E+02
4853000000.000000      6.662292000000000E-01     -5.941601000000000E+01      3.872833000000000E-01     -4.709180000000000E+01      5.215454000000000E-01      1.576015000000000E+02      3.921967000000000E-01      1.590859000000000E+02
4854000000.000000      6.698608000000000E-01     -5.895702000000000E+01      3.870239000000000E-01     -4.766015000000000E+01      5.173645000000000E-01      1.569375000000000E+02      3.846283000000000E-01      1.593516000000000E+02
4855000000.000000      6.678772000000000E-01     -5.883007000000000E+01      3.863373000000000E-01     -4.817383000000000E+01      5.148621000000000E-01      1.562891000000000E+02      3.756561000000000E-01      1.593125000000000E+02
4856000000.000000      6.714478000000000E-01     -5.847070000000000E+01      3.847504000000000E-01     -4.866796000000000E+01      5.082703000000000E-01      1.558516000000000E+02      3.674011000000000E-01      1.595156000000000E+02
4857000000.000000      6.708984000000000E-01     -5.817968000000000E+01      3.854523000000000E-01     -4.905859000000000E+01      5.047913000000000E-01      1.553203000000000E+02      3.565369000000000E-01      1.598984000000000E+02
4858000000.000000      6.693726000000000E-01     -5.787499000000000E+01      3.835907000000000E-01     -4.940820000000000E+01      4.998627000000000E-01      1.548437000000000E+02      3.478699000000000E-01      1.602500000000000E+02
4859000000.000000      6.716614000000000E-01     -5.757421000000000E+01      3.823700000000000E-01     -5.004883000000000E+01      4.956970000000000E-01      1.543672000000000E+02      3.393402000000000E-01      1.607265000000000E+02
4860000000.000000      6.717529000000000E-01     -5.709179000000000E+01      3.811646000000000E-01     -5.041016000000000E+01      4.908600000000000E-01      1.539453000000000E+02      3.300934000000000E-01      1.610859000000000E+02
4861000000.000000      6.731873000000000E-01     -5.688477000000000E+01      3.784637000000000E-01     -5.092187000000000E+01      4.891052000000000E-01      1.534609000000000E+02      3.238983000000000E-01      1.617500000000000E+02
4862000000.000000      6.730957000000000E-01     -5.650000000000000E+01      3.785095000000000E-01     -5.141992000000000E+01      4.826965000000000E-01      1.529531000000000E+02      3.134460000000000E-01      1.626484000000000E+02
4863000000.000000      6.741943000000000E-01     -5.601563000000000E+01      3.746338000000000E-01     -5.193554000000000E+01      4.786377000000000E-01      1.525547000000000E+02      3.055115000000000E-01      1.628750000000000E+02
4864000000.000000      6.767578000000000E-01     -5.590625000000000E+01      3.747253000000000E-01     -5.227344000000000E+01      4.733887000000000E-01      1.520937000000000E+02      2.971497000000000E-01      1.640781000000000E+02
4865000000.000000      6.756287000000000E-01     -5.561328000000000E+01      3.734283000000000E-01     -5.270312000000000E+01      4.683533000000000E-01      1.517422000000000E+02      2.906647000000000E-01      1.652500000000000E+02
4866000000.000000      6.778259000000000E-01     -5.526172000000000E+01      3.712158000000000E-01     -5.349804000000000E+01      4.642944000000000E-01      1.512891000000000E+02      2.815399000000000E-01      1.660234000000000E+02
4867000000.000000      6.767578000000000E-01     -5.494922000000000E+01      3.704224000000000E-01     -5.412890000000000E+01      4.592896000000000E-01      1.508125000000000E+02      2.730560000000000E-01      1.668906000000000E+02
4868000000.000000      6.782227000000000E-01     -5.466601000000000E+01      3.672943000000000E-01     -5.443359000000000E+01      4.556580000000000E-01      1.503515000000000E+02      2.660370000000000E-01      1.679609000000000E+02
4869000000.000000      6.782227000000000E-01     -5.417773000000000E+01      3.667297000000000E-01     -5.526172000000000E+01      4.516449000000000E-01      1.500937000000000E+02      2.594910000000000E-01      1.695469000000000E+02
4870000000.000000      6.783447000000000E-01     -5.390038000000000E+01      3.652039000000000E-01     -5.528906000000000E+01      4.475555000000000E-01      1.497422000000000E+02      2.532349000000000E-01      1.709531000000000E+02
4871000000.000000      6.798401000000000E-01     -5.358203000000000E+01      3.624725000000000E-01     -5.595703000000000E+01      4.413452000000000E-01      1.495469000000000E+02      2.465820000000000E-01      1.727187000000000E+02
4872000000.000000      6.817932000000000E-01     -5.318554000000000E+01      3.610229000000000E-01     -5.636132000000000E+01      4.365845000000000E-01      1.489063000000000E+02      2.413712000000000E-01      1.737187000000000E+02
4873000000.000000      6.817017000000000E-01     -5.289844000000000E+01      3.594360000000000E-01     -5.687890000000000E+01      4.313812000000000E-01      1.487344000000000E+02      2.363815000000000E-01      1.756328000000000E+02
4874000000.000000      6.807251000000000E-01     -5.242969000000000E+01      3.574524000000000E-01     -5.760351000000000E+01      4.279938000000000E-01      1.481953000000000E+02      2.296143000000000E-01      1.776719000000000E+02
4875000000.000000      6.814270000000000E-01     -5.216210000000000E+01      3.559570000000000E-01     -5.800195000000000E+01      4.225616000000000E-01      1.479453000000000E+02      2.262497000000000E-01      1.798437000000000E+02
4876000000.000000      6.830750000000000E-01     -5.178320000000000E+01      3.522339000000000E-01     -5.875586000000000E+01      4.180298000000000E-01      1.476172000000000E+02      2.236633000000000E-01     -1.786094000000000E+02
4877000000.000000      6.827393000000000E-01     -5.169531000000000E+01      3.516693000000000E-01     -5.916992000000000E+01      4.131775000000000E-01      1.470703000000000E+02      2.176819000000000E-01     -1.765234000000000E+02
4878000000.000000      6.836853000000000E-01     -5.143164000000000E+01      3.483734000000000E-01     -5.974999000000000E+01      4.098969000000000E-01      1.468984000000000E+02      2.160645000000000E-01     -1.748047000000000E+02
4879000000.000000      6.828003000000000E-01     -5.088476000000000E+01      3.460693000000000E-01     -5.996679000000000E+01      4.044952000000000E-01      1.464922000000000E+02      2.136154000000000E-01     -1.726563000000000E+02
4880000000.000000      6.819153000000000E-01     -5.045312000000000E+01      3.443756000000000E-01     -6.077538000000000E+01      4.026184000000000E-01      1.460469000000000E+02      2.111664000000000E-01     -1.704609000000000E+02
4881000000.000000      6.840210000000000E-01     -5.012695000000000E+01      3.408051000000000E-01     -6.102734000000000E+01      3.952484000000000E-01      1.457656000000000E+02      2.093964000000000E-01     -1.682188000000000E+02
4882000000.000000      6.828308000000000E-01     -4.990234000000000E+01      3.401337000000000E-01     -6.181445000000000E+01      3.917084000000000E-01      1.456484000000000E+02      2.088470000000000E-01     -1.663594000000000E+02
