! Network Analyzer HP8722D
! Hewlett-Packard
! Data name: Linha & Wilkinson
! Saver's name: Rodrigo Anjos
! Comments: Teste da utilização de aquisição
continua pelo VNA HP8722D
! Time and date: 8/5/2025 13:06
!              Frequency                     S11                                                   S21                                                   S12                                                   S22
# HZ  S  MA R 50
4800000000.000000      6.132507000000000E-01     -4.774219000000000E+01      4.182892000000000E-01     -2.200781000000000E+01      4.879761000000000E-01     -1.758516000000000E+02      4.942627000000000E-01     -1.799609000000000E+02
4801000000.000000      6.155396000000000E-01     -4.815039000000000E+01      4.173889000000000E-01     -2.243164000000000E+01      4.888611000000000E-01     -1.761562000000000E+02      4.942780000000000E-01      1.794219000000000E+02
4802000000.000000      6.166687000000000E-01     -4.882617000000000E+01      4.177399000000000E-01     -2.276953000000000E+01      4.902191000000000E-01     -1.763672000000000E+02      4.952240000000000E-01      1.789922000000000E+02
4803000000.000000      6.203918000000000E-01     -4.949023000000000E+01      4.218140000000000E-01     -2.314453000000000E+01      4.925079000000000E-01     -1.764609000000000E+02      4.967957000000000E-01      1.788125000000000E+02
4804000000.000000      6.213074000000000E-01     -5.011523000000000E+01      4.203491000000000E-01     -2.367480000000000E+01      4.981689000000000E-01     -1.770234000000000E+02      4.982452000000000E-01      1.786328000000000E+02
4805000000.000000      6.248779000000000E-01     -5.069530000000000E+01      4.205475000000000E-01     -2.450976000000000E+01      5.001221000000000E-01     -1.772891000000000E+02      5.015564000000000E-01      1.776406000000000E+02
4806000000.000000      6.283875000000000E-01     -5.124609000000000E+01      4.218597000000000E-01     -2.465918000000000E+01      5.044861000000000E-01     -1.772734000000000E+02      5.048218000000000E-01      1.777969000000000E+02
4807000000.000000      6.254272000000000E-01     -5.183788000000000E+01      4.226227000000000E-01     -2.536133000000000E+01      5.055237000000000E-01     -1.780391000000000E+02      5.062256000000000E-01      1.770313000000000E+02
4808000000.000000      6.293030000000000E-01     -5.222656000000000E+01      4.233856000000000E-01     -2.573339000000000E+01      5.077515000000000E-01     -1.781328000000000E+02      5.079651000000000E-01      1.767812000000000E+02
4809000000.000000      6.328735000000000E-01     -5.292773000000000E+01      4.253235000000000E-01     -2.632519000000000E+01      5.129700000000000E-01     -1.785156000000000E+02      5.131531000000000E-01      1.764375000000000E+02
4810000000.000000      6.335754000000000E-01     -5.343750000000000E+01      4.254761000000000E-01     -2.653223000000000E+01      5.154419000000000E-01     -1.787578000000000E+02      5.115967000000000E-01      1.759531000000000E+02
4811000000.000000      6.374512000000000E-01     -5.406250000000000E+01      4.262390000000000E-01     -2.722558000000000E+01      5.186157000000000E-01     -1.791641000000000E+02      5.122681000000000E-01      1.756562000000000E+02
4812000000.000000      6.410522000000000E-01     -5.441015000000000E+01      4.272156000000000E-01     -2.765625000000000E+01      5.235291000000000E-01     -1.795391000000000E+02      5.183411000000000E-01      1.752109000000000E+02
4813000000.000000      6.419678000000000E-01     -5.485546000000000E+01      4.256439000000000E-01     -2.848828000000000E+01      5.226135000000000E-01     -1.795547000000000E+02      5.209656000000000E-01      1.748828000000000E+02
4814000000.000000      6.420288000000000E-01     -5.554882000000000E+01      4.259949000000000E-01     -2.894922000000000E+01      5.274048000000000E-01      1.798437000000000E+02      5.220032000000000E-01      1.747656000000000E+02
4815000000.000000      6.435852000000000E-01     -5.581640000000000E+01      4.272766000000000E-01     -2.924902000000000E+01      5.279541000000000E-01      1.794844000000000E+02      5.209656000000000E-01      1.740234000000000E+02
4816000000.000000      6.473389000000000E-01     -5.654687000000000E+01      4.264832000000000E-01     -2.986035000000000E+01      5.334778000000000E-01      1.792031000000000E+02      5.239258000000000E-01      1.737656000000000E+02
4817000000.000000      6.491089000000000E-01     -5.688867000000000E+01      4.260254000000000E-01     -3.052734000000000E+01      5.344238000000000E-01      1.784453000000000E+02      5.253296000000000E-01      1.730625000000000E+02
4818000000.000000      6.503296000000000E-01     -5.739258000000000E+01      4.255371000000000E-01     -3.099023000000000E+01      5.397339000000000E-01      1.779922000000000E+02      5.295105000000000E-01      1.728125000000000E+02
4819000000.000000      6.498413000000000E-01     -5.774414000000000E+01      4.262238000000000E-01     -3.145801000000000E+01      5.432739000000000E-01      1.776953000000000E+02      5.327148000000000E-01      1.725547000000000E+02
4820000000.000000      6.507568000000000E-01     -5.819336000000000E+01      4.247894000000000E-01     -3.190625000000000E+01      5.455627000000000E-01      1.771094000000000E+02      5.312805000000000E-01      1.716563000000000E+02
4821000000.000000      6.526184000000000E-01     -5.851953000000000E+01      4.239960000000000E-01     -3.260156000000000E+01      5.453186000000000E-01      1.766641000000000E+02      5.305176000000000E-01      1.713125000000000E+02
4822000000.000000      6.520081000000000E-01     -5.900195000000000E+01      4.226990000000000E-01     -3.290039000000000E+01      5.494080000000000E-01      1.761562000000000E+02      5.325928000000000E-01      1.709922000000000E+02
4823000000.000000      6.550598000000000E-01     -5.917969000000000E+01      4.229126000000000E-01     -3.357812000000000E+01      5.507813000000000E-01      1.756250000000000E+02      5.325623000000000E-01      1.702344000000000E+02
4824000000.000000      6.569519000000000E-01     -5.942577000000000E+01      4.216003000000000E-01     -3.407812000000000E+01      5.544434000000000E-01      1.750703000000000E+02      5.357666000000000E-01      1.698437000000000E+02
4825000000.000000      6.577759000000000E-01     -5.978516000000000E+01      4.222107000000000E-01     -3.463281000000000E+01      5.567017000000000E-01      1.746641000000000E+02      5.341492000000000E-01      1.695625000000000E+02
4826000000.000000      6.559143000000000E-01     -6.032227000000000E+01      4.202423000000000E-01     -3.537890000000000E+01      5.590210000000000E-01      1.740625000000000E+02      5.345154000000000E-01      1.691015000000000E+02
4827000000.000000      6.592407000000000E-01     -6.033008000000000E+01      4.201660000000000E-01     -3.550000000000000E+01      5.590820000000000E-01      1.736875000000000E+02      5.336304000000000E-01      1.685156000000000E+02
4828000000.000000      6.608276000000000E-01     -6.071094000000000E+01      4.202728000000000E-01     -3.613867000000000E+01      5.631104000000000E-01      1.728281000000000E+02      5.319519000000000E-01      1.681953000000000E+02
4829000000.000000      6.574097000000000E-01     -6.112305000000000E+01      4.175110000000000E-01     -3.643359000000000E+01      5.617371000000000E-01      1.724922000000000E+02      5.307922000000000E-01      1.676719000000000E+02
4830000000.000000      6.619873000000000E-01     -6.119531000000000E+01      4.171143000000000E-01     -3.700781000000000E+01      5.621643000000000E-01      1.718047000000000E+02      5.292664000000000E-01      1.672500000000000E+02
4831000000.000000      6.596069000000000E-01     -6.134960000000000E+01      4.157562000000000E-01     -3.777929000000000E+01      5.646362000000000E-01      1.712734000000000E+02      5.261230000000000E-01      1.663281000000000E+02
4832000000.000000      6.615906000000000E-01     -6.124609000000000E+01      4.150543000000000E-01     -3.793554000000000E+01      5.639038000000000E-01      1.705469000000000E+02      5.271301000000000E-01      1.658437000000000E+02
4833000000.000000      6.613770000000000E-01     -6.155468000000000E+01      4.138489000000000E-01     -3.846875000000000E+01      5.646057000000000E-01      1.699531000000000E+02      5.228882000000000E-01      1.654844000000000E+02
4834000000.000000      6.618347000000000E-01     -6.180859000000000E+01      4.119263000000000E-01     -3.900195000000000E+01      5.658875000000000E-01      1.692891000000000E+02      5.182800000000000E-01      1.648047000000000E+02
4835000000.000000      6.627502000000000E-01     -6.148046000000000E+01      4.118347000000000E-01     -3.956055000000000E+01      5.662842000000000E-01      1.685313000000000E+02      5.168762000000000E-01      1.643203000000000E+02
4836000000.000000      6.632080000000000E-01     -6.164063000000000E+01      4.105377000000000E-01     -3.961133000000000E+01      5.647278000000000E-01      1.681172000000000E+02      5.115356000000000E-01      1.639219000000000E+02
4837000000.000000      6.647339000000000E-01     -6.164844000000000E+01      4.084930000000000E-01     -4.045312000000000E+01      5.638123000000000E-01      1.674062000000000E+02      5.091248000000000E-01      1.633828000000000E+02
4838000000.000000      6.632996000000000E-01     -6.188477000000000E+01      4.083710000000000E-01     -4.048047000000000E+01      5.631409000000000E-01      1.666563000000000E+02      5.022888000000000E-01      1.628438000000000E+02
4839000000.000000      6.666565000000000E-01     -6.161718000000000E+01      4.048615000000000E-01     -4.101171000000000E+01      5.653992000000000E-01      1.660781000000000E+02      4.992218000000000E-01      1.623906000000000E+02
4840000000.000000      6.640930000000000E-01     -6.184375000000000E+01      4.042816000000000E-01     -4.170507000000000E+01      5.625305000000000E-01      1.654219000000000E+02      4.918518000000000E-01      1.619062000000000E+02
4841000000.000000      6.650085000000000E-01     -6.162695000000000E+01      4.042358000000000E-01     -4.205274000000000E+01      5.581665000000000E-01      1.646719000000000E+02      4.862823000000000E-01      1.613906000000000E+02
4842000000.000000      6.659241000000000E-01     -6.163086000000000E+01      4.035645000000000E-01     -4.230469000000000E+01      5.570374000000000E-01      1.641797000000000E+02      4.804077000000000E-01      1.611719000000000E+02
4843000000.000000      6.677246000000000E-01     -6.143555000000000E+01      4.028168000000000E-01     -4.276367000000000E+01      5.568542000000000E-01      1.635781000000000E+02      4.768829000000000E-01      1.608438000000000E+02
4844000000.000000      6.642151000000000E-01     -6.139257000000000E+01      4.001923000000000E-01     -4.338867000000000E+01      5.538940000000000E-01      1.627109000000000E+02      4.696808000000000E-01      1.602344000000000E+02
4845000000.000000      6.670532000000000E-01     -6.134766000000000E+01      3.989716000000000E-01     -4.374609000000000E+01      5.501099000000000E-01      1.620703000000000E+02      4.607544000000000E-01      1.600703000000000E+02
4846000000.000000      6.650696000000000E-01     -6.099414000000000E+01      3.970184000000000E-01     -4.416992000000000E+01      5.482483000000000E-01      1.614609000000000E+02      4.555817000000000E-01      1.600625000000000E+02
4847000000.000000      6.667786000000000E-01     -6.080468000000000E+01      3.983154000000000E-01     -4.450391000000000E+01      5.453186000000000E-01      1.607265000000000E+02      4.475555000000000E-01      1.596641000000000E+02
4848000000.000000      6.658325000000000E-01     -6.055469000000000E+01      3.955536000000000E-01     -4.477344000000000E+01      5.429382000000000E-01      1.603281000000000E+02      4.377136000000000E-01      1.593750000000000E+02
4849000000.000000      6.673584000000000E-01     -6.046679000000000E+01      3.954163000000000E-01     -4.540820000000000E+01      5.387878000000000E-01      1.595156000000000E+02      4.295044000000000E-01      1.591719000000000E+02
4850000000.000000      6.671143000000000E-01     -6.015820000000000E+01      3.952026000000000E-01     -4.571289000000000E+01      5.357361000000000E-01      1.589297000000000E+02      4.210358000000000E-01      1.590625000000000E+02
4851000000.000000      6.676636000000000E-01     -5.983788000000000E+01      3.922882000000000E-01     -4.647656000000000E+01      5.328979000000000E-01      1.585859000000000E+02      4.133759000000000E-01      1.589844000000000E+02
4852000000.000000      6.700439000000000E-01     -5.980273000000000E+01      3.921051000000000E-01     -4.661328000000000E+01      5.282898000000000E-01      1.579219000000000E+02      4.028778000000000E-01      1.589766000000000E+02
4853000000.000000      6.696472000000000E-01     -5.929101000000000E+01      3.895416000000000E-01     -4.692578000000000E+01      5.255737000000000E-01      1.572891000000000E+02      3.934326000000000E-01      1.588594000000000E+02
4854000000.000000      6.709900000000000E-01     -5.910351000000000E+01      3.885956000000000E-01     -4.753515000000000E+01      5.202332000000000E-01      1.567734000000000E+02      3.864594000000000E-01      1.588203000000000E+02
4855000000.000000      6.697083000000000E-01     -5.899414000000000E+01      3.875427000000000E-01     -4.817773000000000E+01      5.148926000000000E-01      1.560937000000000E+02      3.758392000000000E-01      1.592656000000000E+02
4856000000.000000      6.698914000000000E-01     -5.846484000000000E+01      3.853607000000000E-01     -4.844727000000000E+01      5.119324000000000E-01      1.557188000000000E+02      3.689270000000000E-01      1.590156000000000E+02
4857000000.000000      6.732483000000000E-01     -5.808203000000000E+01      3.857422000000000E-01     -4.873828000000000E+01      5.077820000000000E-01      1.552578000000000E+02      3.585052000000000E-01      1.595703000000000E+02
4858000000.000000      6.727600000000000E-01     -5.778710000000000E+01      3.845520000000000E-01     -4.934375000000000E+01      5.036316000000000E-01      1.545469000000000E+02      3.507385000000000E-01      1.600937000000000E+02
4859000000.000000      6.745605000000000E-01     -5.761523000000000E+01      3.824158000000000E-01     -4.971484000000000E+01      4.981537000000000E-01      1.541094000000000E+02      3.419342000000000E-01      1.605234000000000E+02
4860000000.000000      6.729736000000000E-01     -5.729492000000000E+01      3.811646000000000E-01     -5.017968000000000E+01      4.946899000000000E-01      1.536797000000000E+02      3.317719000000000E-01      1.607031000000000E+02
4861000000.000000      6.748352000000000E-01     -5.692577000000000E+01      3.800049000000000E-01     -5.085546000000000E+01      4.898224000000000E-01      1.530156000000000E+02      3.248291000000000E-01      1.612500000000000E+02
4862000000.000000      6.778870000000000E-01     -5.664453000000000E+01      3.796234000000000E-01     -5.128320000000000E+01      4.865265000000000E-01      1.529453000000000E+02      3.172150000000000E-01      1.621250000000000E+02
4863000000.000000      6.771545000000000E-01     -5.622656000000000E+01      3.780365000000000E-01     -5.177734000000000E+01      4.818420000000000E-01      1.523906000000000E+02      3.076172000000000E-01      1.624219000000000E+02
4864000000.000000      6.779785000000000E-01     -5.603710000000000E+01      3.763580000000000E-01     -5.206445000000000E+01      4.755859000000000E-01      1.518125000000000E+02      2.984161000000000E-01      1.634140000000000E+02
4865000000.000000      6.768799000000000E-01     -5.552929000000000E+01      3.746033000000000E-01     -5.282812000000000E+01      4.711456000000000E-01      1.516641000000000E+02      2.904510000000000E-01      1.644531000000000E+02
4866000000.000000      6.798401000000000E-01     -5.542187000000000E+01      3.723755000000000E-01     -5.356835000000000E+01      4.678802000000000E-01      1.511641000000000E+02      2.827911000000000E-01      1.656328000000000E+02
4867000000.000000      6.802368000000000E-01     -5.475390000000000E+01      3.698120000000000E-01     -5.384375000000000E+01      4.616852000000000E-01      1.506875000000000E+02      2.754211000000000E-01      1.667734000000000E+02
4868000000.000000      6.812439000000000E-01     -5.473242000000000E+01      3.696594000000000E-01     -5.433984000000000E+01      4.572296000000000E-01      1.501641000000000E+02      2.676697000000000E-01      1.676719000000000E+02
4869000000.000000      6.806946000000000E-01     -5.421288000000000E+01      3.669281000000000E-01     -5.487499000000000E+01      4.538116000000000E-01      1.499687000000000E+02      2.605438000000000E-01      1.691250000000000E+02
4870000000.000000      6.809998000000000E-01     -5.397851000000000E+01      3.670654000000000E-01     -5.514648000000000E+01      4.469452000000000E-01      1.497266000000000E+02      2.548370000000000E-01      1.706953000000000E+02
4871000000.000000      6.830750000000000E-01     -5.359179000000000E+01      3.638000000000000E-01     -5.566796000000000E+01      4.432373000000000E-01      1.490156000000000E+02      2.474060000000000E-01      1.716640000000000E+02
4872000000.000000      6.825256000000000E-01     -5.325000000000000E+01      3.619843000000000E-01     -5.633984000000000E+01      4.391174000000000E-01      1.485547000000000E+02      2.428436000000000E-01      1.736484000000000E+02
4873000000.000000      6.827393000000000E-01     -5.286718000000000E+01      3.616486000000000E-01     -5.672656000000000E+01      4.335632000000000E-01      1.483438000000000E+02      2.372284000000000E-01      1.750625000000000E+02
4874000000.000000      6.841125000000000E-01     -5.252930000000000E+01      3.582306000000000E-01     -5.754296000000000E+01      4.295959000000000E-01      1.479687000000000E+02      2.319565000000000E-01      1.768750000000000E+02
4875000000.000000      6.835938000000000E-01     -5.237890000000000E+01      3.565521000000000E-01     -5.776757000000000E+01      4.245300000000000E-01      1.476250000000000E+02      2.271576000000000E-01      1.789141000000000E+02
4876000000.000000      6.854248000000000E-01     -5.180078000000000E+01      3.547668000000000E-01     -5.843945000000000E+01      4.208221000000000E-01      1.475000000000000E+02      2.231064000000000E-01     -1.793047000000000E+02
4877000000.000000      6.860046000000000E-01     -5.176171000000000E+01      3.508759000000000E-01     -5.907617000000000E+01      4.165344000000000E-01      1.469219000000000E+02      2.181625000000000E-01     -1.773672000000000E+02
4878000000.000000      6.837158000000000E-01     -5.125586000000000E+01      3.521423000000000E-01     -5.954492000000000E+01      4.129944000000000E-01      1.466172000000000E+02      2.165222000000000E-01     -1.755391000000000E+02
4879000000.000000      6.860046000000000E-01     -5.088085000000000E+01      3.461456000000000E-01     -6.011913000000000E+01      4.081268000000000E-01      1.463984000000000E+02      2.140503000000000E-01     -1.730234000000000E+02
4880000000.000000      6.855164000000000E-01     -5.045703000000000E+01      3.460846000000000E-01     -6.047461000000000E+01      4.016113000000000E-01      1.458594000000000E+02      2.109680000000000E-01     -1.708516000000000E+02
4881000000.000000      6.848755000000000E-01     -5.029687000000000E+01      3.435211000000000E-01     -6.097461000000000E+01      3.985138000000000E-01      1.456953000000000E+02      2.097397000000000E-01     -1.687422000000000E+02
4882000000.000000      6.858826000000000E-01     -4.986328000000000E+01      3.412781000000000E-01     -6.183398000000000E+01      3.943024000000000E-01      1.455625000000000E+02      2.079926000000000E-01     -1.669297000000000E+02
