! Network Analyzer HP8722D
! Hewlett-Packard
! Data name: Linha & Wilkinson
! Saver's name: Rodrigo Anjos
! Comments: Teste da utilização de aquisição
continua pelo VNA HP8722D
! Time and date: 8/5/2025 14:37
!              Frequency                     S11                                                   S21                                                   S12                                                   S22
# HZ  S  MA R 50
4800000000.000000      5.350647000000000E-01     -2.524121000000000E+01      3.685455000000000E-01     -1.498750000000000E+02      3.866119000000000E-01      9.372559000000000E+00      4.987946000000000E-01      8.377075000000000E-01
4801000000.000000      5.354004000000000E-01     -2.498730000000000E+01      3.726959000000000E-01     -1.501328000000000E+02      3.915405000000000E-01      9.015625000000000E+00      4.945068000000000E-01      9.407043000000000E-01
4802000000.000000      5.320740000000000E-01     -2.469629000000000E+01      3.762360000000000E-01     -1.504609000000000E+02      3.946838000000000E-01      9.007324000000000E+00      4.893494000000000E-01      1.282654000000000E+00
4803000000.000000      5.334778000000000E-01     -2.438867000000000E+01      3.817139000000000E-01     -1.508516000000000E+02      4.003296000000000E-01      8.931641000000000E+00      4.818115000000000E-01      1.480408000000000E+00
4804000000.000000      5.301819000000000E-01     -2.412109000000000E+01      3.853302000000000E-01     -1.512969000000000E+02      4.011078000000000E-01      8.714844000000000E+00      4.756927000000000E-01      1.249695000000000E+00
4805000000.000000      5.299683000000000E-01     -2.392090000000000E+01      3.888855000000000E-01     -1.516641000000000E+02      4.057465000000000E-01      8.681641000000000E+00      4.676361000000000E-01      1.525696000000000E+00
4806000000.000000      5.312195000000000E-01     -2.356348000000000E+01      3.924408000000000E-01     -1.520937000000000E+02      4.097290000000000E-01      8.532227000000000E+00      4.610138000000000E-01      1.494141000000000E+00
4807000000.000000      5.242004000000000E-01     -2.344433000000000E+01      3.960876000000000E-01     -1.526016000000000E+02      4.140320000000000E-01      8.270996000000000E+00      4.536896000000000E-01      1.745422000000000E+00
4808000000.000000      5.255432000000000E-01     -2.305371000000000E+01      3.998718000000000E-01     -1.528594000000000E+02      4.193726000000000E-01      8.220215000000000E+00      4.478455000000000E-01      1.948669000000000E+00
4809000000.000000      5.245667000000000E-01     -2.295117000000000E+01      4.047241000000000E-01     -1.534688000000000E+02      4.230804000000000E-01      8.030762000000000E+00      4.397278000000000E-01      2.290649000000000E+00
4810000000.000000      5.236816000000000E-01     -2.285449000000000E+01      4.082336000000000E-01     -1.536719000000000E+02      4.261932000000000E-01      7.989746000000000E+00      4.322815000000000E-01      2.118896000000000E+00
4811000000.000000      5.230713000000000E-01     -2.258399000000000E+01      4.113312000000000E-01     -1.543672000000000E+02      4.300842000000000E-01      7.616211000000000E+00      4.249420000000000E-01      2.660034000000000E+00
4812000000.000000      5.227966000000000E-01     -2.225488000000000E+01      4.147949000000000E-01     -1.546875000000000E+02      4.329834000000000E-01      7.760254000000000E+00      4.170685000000000E-01      2.572144000000000E+00
4813000000.000000      5.206299000000000E-01     -2.212695000000000E+01      4.186554000000000E-01     -1.550781000000000E+02      4.369965000000000E-01      7.511719000000000E+00      4.095764000000000E-01      3.169556000000000E+00
4814000000.000000      5.189819000000000E-01     -2.187012000000000E+01      4.220886000000000E-01     -1.555625000000000E+02      4.397736000000000E-01      7.415771000000000E+00      4.011688000000000E-01      3.228516000000000E+00
4815000000.000000      5.187378000000000E-01     -2.155468000000000E+01      4.246063000000000E-01     -1.560078000000000E+02      4.431458000000000E-01      7.226074000000000E+00      3.934326000000000E-01      3.603516000000000E+00
4816000000.000000      5.161133000000000E-01     -2.140918000000000E+01      4.281464000000000E-01     -1.564219000000000E+02      4.479065000000000E-01      7.220703000000000E+00      3.857727000000000E-01      3.872681000000000E+00
4817000000.000000      5.138855000000000E-01     -2.120508000000000E+01      4.310455000000000E-01     -1.569141000000000E+02      4.499817000000000E-01      6.913086000000000E+00      3.755951000000000E-01      4.270752000000000E+00
4818000000.000000      5.132446000000000E-01     -2.117383000000000E+01      4.337463000000000E-01     -1.573984000000000E+02      4.544983000000000E-01      6.821045000000000E+00      3.663940000000000E-01      4.638916000000000E+00
4819000000.000000      5.095825000000000E-01     -2.095508000000000E+01      4.368591000000000E-01     -1.578750000000000E+02      4.584808000000000E-01      6.645264000000000E+00      3.570709000000000E-01      4.796875000000000E+00
4820000000.000000      5.094604000000000E-01     -2.058496000000000E+01      4.403534000000000E-01     -1.582578000000000E+02      4.619598000000000E-01      6.492920000000000E+00      3.488007000000000E-01      5.376221000000000E+00
4821000000.000000      5.081177000000000E-01     -2.074512000000000E+01      4.431305000000000E-01     -1.588594000000000E+02      4.626465000000000E-01      6.229248000000000E+00      3.398132000000000E-01      5.997070000000000E+00
4822000000.000000      5.073547000000000E-01     -2.064648000000000E+01      4.449005000000000E-01     -1.591640000000000E+02      4.656677000000000E-01      6.010742000000000E+00      3.314667000000000E-01      6.144043000000000E+00
4823000000.000000      5.045471000000000E-01     -2.027148000000000E+01      4.483337000000000E-01     -1.597812000000000E+02      4.710236000000000E-01      6.226318000000000E+00      3.215790000000000E-01      6.683594000000000E+00
4824000000.000000      5.033569000000000E-01     -2.023340000000000E+01      4.505615000000000E-01     -1.601797000000000E+02      4.739380000000000E-01      5.830811000000000E+00      3.116913000000000E-01      7.209717000000000E+00
4825000000.000000      5.024109000000000E-01     -1.997266000000000E+01      4.531708000000000E-01     -1.606641000000000E+02      4.780273000000000E-01      5.626221000000000E+00      3.040771000000000E-01      8.007324000000000E+00
4826000000.000000      5.012512000000000E-01     -2.013281000000000E+01      4.559937000000000E-01     -1.611562000000000E+02      4.787903000000000E-01      5.497070000000000E+00      2.945709000000000E-01      8.705078000000000E+00
4827000000.000000      4.997711000000000E-01     -1.978418000000000E+01      4.578705000000000E-01     -1.614531000000000E+02      4.829407000000000E-01      5.446289000000000E+00      2.856293000000000E-01      9.246094000000000E+00
4828000000.000000      4.992065000000000E-01     -1.971387000000000E+01      4.610901000000000E-01     -1.620156000000000E+02      4.849701000000000E-01      5.343262000000000E+00      2.760925000000000E-01      1.003418000000000E+01
4829000000.000000      4.954834000000000E-01     -1.955176000000000E+01      4.632568000000000E-01     -1.624844000000000E+02      4.885254000000000E-01      5.125000000000000E+00      2.680511000000000E-01      1.117139000000000E+01
4830000000.000000      4.947205000000000E-01     -1.921679000000000E+01      4.646912000000000E-01     -1.629844000000000E+02      4.923859000000000E-01      5.054932000000000E+00      2.569885000000000E-01      1.221240000000000E+01
4831000000.000000      4.921875000000000E-01     -1.939648000000000E+01      4.668579000000000E-01     -1.634922000000000E+02      4.936523000000000E-01      4.907959000000000E+00      2.481995000000000E-01      1.322314000000000E+01
4832000000.000000      4.897003000000000E-01     -1.896191000000000E+01      4.688568000000000E-01     -1.637422000000000E+02      4.966736000000000E-01      4.711670000000000E+00      2.384109000000000E-01      1.468848000000000E+01
4833000000.000000      4.869537000000000E-01     -1.917285000000000E+01      4.701233000000000E-01     -1.642031000000000E+02      4.995728000000000E-01      4.365479000000000E+00      2.292938000000000E-01      1.590381000000000E+01
4834000000.000000      4.874725000000000E-01     -1.880664000000000E+01      4.719543000000000E-01     -1.647187000000000E+02      5.028687000000000E-01      4.441162000000000E+00      2.205887000000000E-01      1.737597000000000E+01
4835000000.000000      4.848785000000000E-01     -1.872559000000000E+01      4.743195000000000E-01     -1.652734000000000E+02      5.073547000000000E-01      4.290039000000000E+00      2.123337000000000E-01      1.893164000000000E+01
4836000000.000000      4.830933000000000E-01     -1.830664000000000E+01      4.743805000000000E-01     -1.655234000000000E+02      5.071411000000000E-01      4.119873000000000E+00      2.033691000000000E-01      2.078027000000000E+01
4837000000.000000      4.829712000000000E-01     -1.832129000000000E+01      4.765320000000000E-01     -1.661953000000000E+02      5.107117000000000E-01      3.819092000000000E+00      1.958160000000000E-01      2.291992000000000E+01
4838000000.000000      4.805145000000000E-01     -1.805664000000000E+01      4.792328000000000E-01     -1.664141000000000E+02      5.130615000000000E-01      3.669434000000000E+00      1.878357000000000E-01      2.494433000000000E+01
4839000000.000000      4.819946000000000E-01     -1.788476000000000E+01      4.805908000000000E-01     -1.669609000000000E+02      5.161438000000000E-01      3.589722000000000E+00      1.810760000000000E-01      2.702734000000000E+01
4840000000.000000      4.782562000000000E-01     -1.775586000000000E+01      4.811707000000000E-01     -1.672969000000000E+02      5.185852000000000E-01      3.529297000000000E+00      1.729965000000000E-01      2.951269000000000E+01
4841000000.000000      4.760284000000000E-01     -1.777637000000000E+01      4.838409000000000E-01     -1.677734000000000E+02      5.218506000000000E-01      3.136597000000000E+00      1.678162000000000E-01      3.264257000000000E+01
4842000000.000000      4.756622000000000E-01     -1.735059000000000E+01      4.840240000000000E-01     -1.681875000000000E+02      5.216675000000000E-01      3.214844000000000E+00      1.607361000000000E-01      3.593945000000000E+01
4843000000.000000      4.742889000000000E-01     -1.731738000000000E+01      4.865265000000000E-01     -1.687109000000000E+02      5.241394000000000E-01      2.915405000000000E+00      1.551132000000000E-01      3.915430000000000E+01
4844000000.000000      4.718323000000000E-01     -1.700976000000000E+01      4.864807000000000E-01     -1.690156000000000E+02      5.282898000000000E-01      2.731445000000000E+00      1.483765000000000E-01      4.299024000000000E+01
4845000000.000000      4.698639000000000E-01     -1.680664000000000E+01      4.878693000000000E-01     -1.694219000000000E+02      5.293579000000000E-01      2.453979000000000E+00      1.460342000000000E-01      4.623828000000000E+01
4846000000.000000      4.688873000000000E-01     -1.673926000000000E+01      4.889526000000000E-01     -1.698672000000000E+02      5.337524000000000E-01      2.329102000000000E+00      1.426010000000000E-01      5.059179000000000E+01
4847000000.000000      4.691467000000000E-01     -1.623437000000000E+01      4.908295000000000E-01     -1.701875000000000E+02      5.348206000000000E-01      2.252197000000000E+00      1.390152000000000E-01      5.463672000000000E+01
4848000000.000000      4.666595000000000E-01     -1.594141000000000E+01      4.898529000000000E-01     -1.704766000000000E+02      5.357971000000000E-01      1.932190000000000E+00      1.384888000000000E-01      5.899414000000000E+01
4849000000.000000      4.669342000000000E-01     -1.577783000000000E+01      4.920654000000000E-01     -1.710078000000000E+02      5.391846000000000E-01      1.601257000000000E+00      1.371460000000000E-01      6.329883000000000E+01
4850000000.000000      4.641113000000000E-01     -1.577539000000000E+01      4.921570000000000E-01     -1.713594000000000E+02      5.403137000000000E-01      1.620483000000000E+00      1.378632000000000E-01      6.732812000000000E+01
4851000000.000000      4.647675000000000E-01     -1.529883000000000E+01      4.945679000000000E-01     -1.717109000000000E+02      5.411377000000000E-01      1.605347000000000E+00      1.390915000000000E-01      7.152734000000000E+01
4852000000.000000      4.625854000000000E-01     -1.483447000000000E+01      4.944000000000000E-01     -1.721094000000000E+02      5.416565000000000E-01      1.314209000000000E+00      1.399536000000000E-01      7.548828000000000E+01
4853000000.000000      4.621582000000000E-01     -1.480957000000000E+01      4.937134000000000E-01     -1.724844000000000E+02      5.453491000000000E-01      1.362305000000000E+00      1.428528000000000E-01      7.925781000000000E+01
4854000000.000000      4.618378000000000E-01     -1.463525000000000E+01      4.957886000000000E-01     -1.728906000000000E+02      5.457153000000000E-01      1.172791000000000E+00      1.472092000000000E-01      8.272655000000000E+01
4855000000.000000      4.591064000000000E-01     -1.442383000000000E+01      4.964905000000000E-01     -1.733047000000000E+02      5.466003000000000E-01      7.717896000000000E-01      1.502380000000000E-01      8.674219000000000E+01
4856000000.000000      4.613647000000000E-01     -1.411377000000000E+01      4.968109000000000E-01     -1.734766000000000E+02      5.478821000000000E-01      5.740356000000000E-01      1.555252000000000E-01      8.995703000000000E+01
4857000000.000000      4.603882000000000E-01     -1.386914000000000E+01      4.992218000000000E-01     -1.738437000000000E+02      5.487061000000000E-01      4.875183000000000E-01      1.595383000000000E-01      9.270702000000000E+01
4858000000.000000      4.605713000000000E-01     -1.352295000000000E+01      4.990997000000000E-01     -1.743047000000000E+02      5.511169000000000E-01      3.076172000000000E-01      1.645432000000000E-01      9.541016000000000E+01
4859000000.000000      4.622040000000000E-01     -1.331543000000000E+01      5.000610000000000E-01     -1.746719000000000E+02      5.511169000000000E-01      1.579285000000000E-01      1.700516000000000E-01      9.779686000000000E+01
4860000000.000000      4.618378000000000E-01     -1.291064000000000E+01      5.003357000000000E-01     -1.747813000000000E+02      5.517883000000000E-01     -7.003784000000000E-02      1.768799000000000E-01      9.977734000000000E+01
4861000000.000000      4.614868000000000E-01     -1.270752000000000E+01      5.026550000000000E-01     -1.752578000000000E+02      5.542908000000000E-01     -1.483154000000000E-01      1.808929000000000E-01      1.024883000000000E+02
4862000000.000000      4.618835000000000E-01     -1.243652000000000E+01      5.025635000000000E-01     -1.755312000000000E+02      5.546875000000000E-01     -3.721619000000000E-01      1.872101000000000E-01      1.035039000000000E+02
4863000000.000000      4.614410000000000E-01     -1.214990000000000E+01      5.036316000000000E-01     -1.759297000000000E+02      5.523682000000000E-01     -3.927612000000000E-01      1.950226000000000E-01      1.050898000000000E+02
4864000000.000000      4.647980000000000E-01     -1.164453000000000E+01      5.033569000000000E-01     -1.760469000000000E+02      5.534973000000000E-01     -5.369568000000000E-01      2.006607000000000E-01      1.066367000000000E+02
4865000000.000000      4.651489000000000E-01     -1.145752000000000E+01      5.036926000000000E-01     -1.766797000000000E+02      5.536804000000000E-01     -6.069946000000000E-01      2.072067000000000E-01      1.080312000000000E+02
4866000000.000000      4.672699000000000E-01     -1.127783000000000E+01      5.046387000000000E-01     -1.769844000000000E+02      5.554810000000000E-01     -8.239746000000000E-01      2.141113000000000E-01      1.088945000000000E+02
4867000000.000000      4.655762000000000E-01     -1.082178000000000E+01      5.054626000000000E-01     -1.775312000000000E+02      5.533142000000000E-01     -7.937622000000000E-01      2.186356000000000E-01      1.102930000000000E+02
4868000000.000000      4.699249000000000E-01     -1.061865000000000E+01      5.072937000000000E-01     -1.776875000000000E+02      5.546265000000000E-01     -1.061584000000000E+00      2.267456000000000E-01      1.113477000000000E+02
4869000000.000000      4.711304000000000E-01     -1.046631000000000E+01      5.070190000000000E-01     -1.781719000000000E+02      5.550842000000000E-01     -1.112366000000000E+00      2.320862000000000E-01      1.123476000000000E+02
4870000000.000000      4.727631000000000E-01     -1.026025000000000E+01      5.079651000000000E-01     -1.781563000000000E+02      5.549316000000000E-01     -1.122009000000000E+00      2.387085000000000E-01      1.131133000000000E+02
4871000000.000000      4.744110000000000E-01     -9.956543000000000E+00      5.091553000000000E-01     -1.788672000000000E+02      5.546570000000000E-01     -1.226379000000000E+00      2.436981000000000E-01      1.136953000000000E+02
4872000000.000000      4.760132000000000E-01     -9.801270000000000E+00      5.100098000000000E-01     -1.788828000000000E+02      5.532227000000000E-01     -1.608154000000000E+00      2.494888000000000E-01      1.140117000000000E+02
4873000000.000000      4.792938000000000E-01     -9.414063000000000E+00      5.108948000000000E-01     -1.794375000000000E+02      5.539856000000000E-01     -1.558716000000000E+00      2.556000000000000E-01      1.149180000000000E+02
4874000000.000000      4.822388000000000E-01     -9.195801000000000E+00      5.099792000000000E-01     -1.799609000000000E+02      5.540771000000000E-01     -1.719360000000000E+00      2.614899000000000E-01      1.152266000000000E+02
4875000000.000000      4.817657000000000E-01     -9.243652000000000E+00      5.113525000000000E-01      1.798594000000000E+02      5.527649000000000E-01     -1.591675000000000E+00      2.656250000000000E-01      1.156367000000000E+02
4876000000.000000      4.855347000000000E-01     -8.984375000000000E+00      5.124207000000000E-01      1.794844000000000E+02      5.543518000000000E-01     -1.608154000000000E+00      2.723236000000000E-01      1.164844000000000E+02
4877000000.000000      4.886475000000000E-01     -8.944336000000000E+00      5.131531000000000E-01      1.789297000000000E+02      5.525818000000000E-01     -1.790771000000000E+00      2.757874000000000E-01      1.166055000000000E+02
4878000000.000000      4.895325000000000E-01     -8.595703000000000E+00      5.140381000000000E-01      1.787344000000000E+02      5.520325000000000E-01     -1.859436000000000E+00      2.798920000000000E-01      1.168320000000000E+02
4879000000.000000      4.938965000000000E-01     -8.553223000000000E+00      5.125427000000000E-01      1.782266000000000E+02      5.518799000000000E-01     -1.913025000000000E+00      2.862091000000000E-01      1.173125000000000E+02
4880000000.000000      4.989319000000000E-01     -8.161621000000000E+00      5.159912000000000E-01      1.778516000000000E+02      5.519409000000000E-01     -2.000977000000000E+00      2.914581000000000E-01      1.173633000000000E+02
4881000000.000000      5.005493000000000E-01     -8.106934000000000E+00      5.166626000000000E-01      1.776875000000000E+02      5.516357000000000E-01     -1.996765000000000E+00      2.964478000000000E-01      1.175391000000000E+02
4882000000.000000      5.040588000000000E-01     -7.928223000000000E+00      5.180359000000000E-01      1.770781000000000E+02      5.510559000000000E-01     -2.157471000000000E+00      2.998657000000000E-01      1.180156000000000E+02
