! Network Analyzer HP8722D
! Hewlett-Packard
! Data name: Linha & Wilkinson
! Saver's name: Rodrigo Anjos
! Comments: Teste da utilização de aquisição
continua pelo VNA HP8722D
! Time and date: 8/5/2025 15:08
!              Frequency                     S11                                                   S21                                                   S12                                                   S22
# HZ  S  MA R 50
4800000000.000000      5.284729000000000E-01     -2.497949000000000E+01      3.797455000000000E-01     -1.517734000000000E+02      3.964996000000000E-01      7.767334000000000E+00      4.926300000000000E-01      5.218506000000000E-01
4801000000.000000      5.252075000000000E-01     -2.455078000000000E+01      3.831635000000000E-01     -1.518281000000000E+02      4.001617000000000E-01      7.585938000000000E+00      4.882050000000000E-01      4.806519000000000E-01
4802000000.000000      5.242004000000000E-01     -2.441797000000000E+01      3.867645000000000E-01     -1.522734000000000E+02      4.045868000000000E-01      7.362061000000000E+00      4.836731000000000E-01      9.722900000000000E-01
4803000000.000000      5.250244000000000E-01     -2.425293000000000E+01      3.910217000000000E-01     -1.526953000000000E+02      4.087067000000000E-01      7.331787000000000E+00      4.776764000000000E-01      9.187317000000000E-01
4804000000.000000      5.247498000000000E-01     -2.403809000000000E+01      3.949585000000000E-01     -1.529922000000000E+02      4.135284000000000E-01      6.998291000000000E+00      4.694214000000000E-01      1.224976000000000E+00
4805000000.000000      5.248718000000000E-01     -2.362207000000000E+01      3.980408000000000E-01     -1.535703000000000E+02      4.162598000000000E-01      7.044922000000000E+00      4.624481000000000E-01      1.285400000000000E+00
4806000000.000000      5.204468000000000E-01     -2.348340000000000E+01      4.030304000000000E-01     -1.540156000000000E+02      4.181976000000000E-01      6.843018000000000E+00      4.553375000000000E-01      1.347168000000000E+00
4807000000.000000      5.198364000000000E-01     -2.321582000000000E+01      4.053345000000000E-01     -1.542812000000000E+02      4.228210000000000E-01      6.518799000000000E+00      4.481201000000000E-01      1.587524000000000E+00
4808000000.000000      5.183716000000000E-01     -2.291211000000000E+01      4.089203000000000E-01     -1.546406000000000E+02      4.276733000000000E-01      6.472168000000000E+00      4.407959000000000E-01      1.808594000000000E+00
4809000000.000000      5.179443000000000E-01     -2.271484000000000E+01      4.134064000000000E-01     -1.553828000000000E+02      4.324188000000000E-01      6.222168000000000E+00      4.334259000000000E-01      2.156006000000000E+00
4810000000.000000      5.173950000000000E-01     -2.249316000000000E+01      4.172668000000000E-01     -1.556094000000000E+02      4.349670000000000E-01      6.347168000000000E+00      4.264069000000000E-01      2.162842000000000E+00
4811000000.000000      5.169983000000000E-01     -2.224219000000000E+01      4.215240000000000E-01     -1.561406000000000E+02      4.383545000000000E-01      6.057373000000000E+00      4.185333000000000E-01      2.644897000000000E+00
4812000000.000000      5.164185000000000E-01     -2.187988000000000E+01      4.244080000000000E-01     -1.565547000000000E+02      4.424591000000000E-01      5.965576000000000E+00      4.104309000000000E-01      2.584473000000000E+00
4813000000.000000      5.154114000000000E-01     -2.179297000000000E+01      4.272919000000000E-01     -1.571016000000000E+02      4.458771000000000E-01      5.844727000000000E+00      4.034882000000000E-01      3.192871000000000E+00
4814000000.000000      5.154724000000000E-01     -2.181250000000000E+01      4.306335000000000E-01     -1.573750000000000E+02      4.487457000000000E-01      5.737549000000000E+00      3.938599000000000E-01      3.486694000000000E+00
4815000000.000000      5.115662000000000E-01     -2.149805000000000E+01      4.342804000000000E-01     -1.579219000000000E+02      4.512787000000000E-01      5.362549000000000E+00      3.867035000000000E-01      3.755859000000000E+00
4816000000.000000      5.108337000000000E-01     -2.116406000000000E+01      4.376678000000000E-01     -1.582422000000000E+02      4.561462000000000E-01      5.324219000000000E+00      3.788605000000000E-01      4.136230000000000E+00
4817000000.000000      5.105591000000000E-01     -2.102441000000000E+01      4.394531000000000E-01     -1.588281000000000E+02      4.588776000000000E-01      5.284424000000000E+00      3.683014000000000E-01      4.669189000000000E+00
4818000000.000000      5.088501000000000E-01     -2.079492000000000E+01      4.426880000000000E-01     -1.592422000000000E+02      4.644012000000000E-01      5.039795000000000E+00      3.594971000000000E-01      4.994629000000000E+00
4819000000.000000      5.083313000000000E-01     -2.080176000000000E+01      4.458313000000000E-01     -1.597500000000000E+02      4.671326000000000E-01      4.998779000000000E+00      3.504028000000000E-01      5.245850000000000E+00
4820000000.000000      5.054626000000000E-01     -2.059473000000000E+01      4.476166000000000E-01     -1.601172000000000E+02      4.689026000000000E-01      4.774902000000000E+00      3.423309000000000E-01      6.034180000000000E+00
4821000000.000000      5.045471000000000E-01     -2.034277000000000E+01      4.507294000000000E-01     -1.606250000000000E+02      4.730072000000000E-01      4.596191000000000E+00      3.328247000000000E-01      6.641113000000000E+00
4822000000.000000      5.018616000000000E-01     -2.064746000000000E+01      4.522400000000000E-01     -1.610781000000000E+02      4.769135000000000E-01      4.391602000000000E+00      3.244476000000000E-01      6.908936000000000E+00
4823000000.000000      5.015259000000000E-01     -2.029590000000000E+01      4.566040000000000E-01     -1.616406000000000E+02      4.782257000000000E-01      4.339600000000000E+00      3.152161000000000E-01      7.562500000000000E+00
4824000000.000000      4.993134000000000E-01     -1.993066000000000E+01      4.593658000000000E-01     -1.619453000000000E+02      4.820557000000000E-01      3.894653000000000E+00      3.055267000000000E-01      8.100586000000000E+00
4825000000.000000      4.981079000000000E-01     -1.974316000000000E+01      4.602203000000000E-01     -1.624609000000000E+02      4.872131000000000E-01      4.075928000000000E+00      2.977448000000000E-01      9.027832000000000E+00
4826000000.000000      4.947357000000000E-01     -1.986914000000000E+01      4.627380000000000E-01     -1.630703000000000E+02      4.898987000000000E-01      3.831421000000000E+00      2.877960000000000E-01      9.887695000000000E+00
4827000000.000000      4.951324000000000E-01     -1.956445000000000E+01      4.652252000000000E-01     -1.634297000000000E+02      4.929810000000000E-01      3.722900000000000E+00      2.798920000000000E-01      1.075146000000000E+01
4828000000.000000      4.934692000000000E-01     -1.956347000000000E+01      4.674835000000000E-01     -1.638438000000000E+02      4.955139000000000E-01      3.672119000000000E+00      2.701874000000000E-01      1.138721000000000E+01
4829000000.000000      4.912415000000000E-01     -1.929492000000000E+01      4.695892000000000E-01     -1.642500000000000E+02      4.974670000000000E-01      3.468872000000000E+00      2.630463000000000E-01      1.277002000000000E+01
4830000000.000000      4.894257000000000E-01     -1.914551000000000E+01      4.718475000000000E-01     -1.648047000000000E+02      5.001831000000000E-01      3.240967000000000E+00      2.520752000000000E-01      1.405127000000000E+01
4831000000.000000      4.887238000000000E-01     -1.892676000000000E+01      4.730988000000000E-01     -1.653984000000000E+02      5.044250000000000E-01      3.148926000000000E+00      2.429123000000000E-01      1.515820000000000E+01
4832000000.000000      4.854279000000000E-01     -1.892285000000000E+01      4.753876000000000E-01     -1.655391000000000E+02      5.062256000000000E-01      2.919556000000000E+00      2.336426000000000E-01      1.680273000000000E+01
4833000000.000000      4.826965000000000E-01     -1.880078000000000E+01      4.765778000000000E-01     -1.660312000000000E+02      5.115662000000000E-01      2.734131000000000E+00      2.250671000000000E-01      1.807617000000000E+01
4834000000.000000      4.825745000000000E-01     -1.868262000000000E+01      4.782715000000000E-01     -1.666719000000000E+02      5.134583000000000E-01      2.489746000000000E+00      2.172699000000000E-01      1.992480000000000E+01
4835000000.000000      4.809570000000000E-01     -1.856836000000000E+01      4.819183000000000E-01     -1.670391000000000E+02      5.152283000000000E-01      2.406006000000000E+00      2.095490000000000E-01      2.183496000000000E+01
4836000000.000000      4.789734000000000E-01     -1.816113000000000E+01      4.808960000000000E-01     -1.673750000000000E+02      5.162964000000000E-01      2.554321000000000E+00      2.006912000000000E-01      2.377148000000000E+01
4837000000.000000      4.782562000000000E-01     -1.812793000000000E+01      4.820862000000000E-01     -1.681562000000000E+02      5.196533000000000E-01      1.974792000000000E+00      1.943741000000000E-01      2.614746000000000E+01
4838000000.000000      4.758301000000000E-01     -1.799316000000000E+01      4.857483000000000E-01     -1.681484000000000E+02      5.214233000000000E-01      1.823730000000000E+00      1.867905000000000E-01      2.852930000000000E+01
4839000000.000000      4.763184000000000E-01     -1.774219000000000E+01      4.871979000000000E-01     -1.687031000000000E+02      5.256958000000000E-01      1.826477000000000E+00      1.802216000000000E-01      3.073242000000000E+01
4840000000.000000      4.718933000000000E-01     -1.769238000000000E+01      4.866180000000000E-01     -1.692734000000000E+02      5.278625000000000E-01      1.407593000000000E+00      1.741180000000000E-01      3.349609000000000E+01
4841000000.000000      4.729309000000000E-01     -1.734961000000000E+01      4.887543000000000E-01     -1.693828000000000E+02      5.287476000000000E-01      1.359558000000000E+00      1.687241000000000E-01      3.669140000000000E+01
4842000000.000000      4.716949000000000E-01     -1.730566000000000E+01      4.899139000000000E-01     -1.699922000000000E+02      5.308228000000000E-01      1.344421000000000E+00      1.638412000000000E-01      4.012695000000000E+01
4843000000.000000      4.692383000000000E-01     -1.697070000000000E+01      4.926147000000000E-01     -1.704609000000000E+02      5.333557000000000E-01      1.042297000000000E+00      1.593246000000000E-01      4.352344000000000E+01
4844000000.000000      4.668274000000000E-01     -1.675097000000000E+01      4.928284000000000E-01     -1.707734000000000E+02      5.360718000000000E-01      8.610535000000000E-01      1.547699000000000E-01      4.710938000000000E+01
4845000000.000000      4.673157000000000E-01     -1.657227000000000E+01      4.925232000000000E-01     -1.711250000000000E+02      5.382080000000000E-01      6.207275000000000E-01      1.523666000000000E-01      5.054492000000000E+01
4846000000.000000      4.652863000000000E-01     -1.636719000000000E+01      4.926453000000000E-01     -1.716016000000000E+02      5.406799000000000E-01      5.424500000000000E-01      1.504288000000000E-01      5.484179000000000E+01
4847000000.000000      4.658203000000000E-01     -1.607519000000000E+01      4.955750000000000E-01     -1.718516000000000E+02      5.427551000000000E-01      3.543091000000000E-01      1.482697000000000E-01      5.880077000000000E+01
4848000000.000000      4.628296000000000E-01     -1.591406000000000E+01      4.950256000000000E-01     -1.722578000000000E+02      5.443726000000000E-01      1.126099000000000E-01      1.484070000000000E-01      6.248047000000000E+01
4849000000.000000      4.621124000000000E-01     -1.565869000000000E+01      4.975891000000000E-01     -1.725703000000000E+02      5.452271000000000E-01     -1.002502000000000E-01      1.482010000000000E-01      6.683203000000000E+01
4850000000.000000      4.613495000000000E-01     -1.540430000000000E+01      4.962616000000000E-01     -1.729297000000000E+02      5.469666000000000E-01     -1.181030000000000E-01      1.496811000000000E-01      7.066796000000000E+01
4851000000.000000      4.613800000000000E-01     -1.530713000000000E+01      4.987335000000000E-01     -1.735391000000000E+02      5.478210000000000E-01     -3.131104000000000E-01      1.513596000000000E-01      7.405078000000000E+01
4852000000.000000      4.595795000000000E-01     -1.467529000000000E+01      4.998474000000000E-01     -1.737578000000000E+02      5.493469000000000E-01     -5.191040000000000E-01      1.540833000000000E-01      7.749609000000000E+01
4853000000.000000      4.600372000000000E-01     -1.455566000000000E+01      4.995422000000000E-01     -1.741797000000000E+02      5.517578000000000E-01     -7.511902000000000E-01      1.572876000000000E-01      8.094141000000000E+01
4854000000.000000      4.599915000000000E-01     -1.439795000000000E+01      5.005188000000000E-01     -1.745156000000000E+02      5.531311000000000E-01     -8.761597000000000E-01      1.621552000000000E-01      8.403906000000000E+01
4855000000.000000      4.587860000000000E-01     -1.407080000000000E+01      5.011292000000000E-01     -1.748750000000000E+02      5.532837000000000E-01     -1.054688000000000E+00      1.649399000000000E-01      8.740625000000000E+01
4856000000.000000      4.588470000000000E-01     -1.395703000000000E+01      5.008240000000000E-01     -1.752969000000000E+02      5.541077000000000E-01     -1.312866000000000E+00      1.708527000000000E-01      9.015625000000000E+01
4857000000.000000      4.591370000000000E-01     -1.357666000000000E+01      5.022583000000000E-01     -1.753906000000000E+02      5.563660000000000E-01     -1.402161000000000E+00      1.755905000000000E-01      9.243750000000000E+01
4858000000.000000      4.590759000000000E-01     -1.327441000000000E+01      5.045776000000000E-01     -1.758906000000000E+02      5.560913000000000E-01     -1.505127000000000E+00      1.805115000000000E-01      9.480469000000000E+01
4859000000.000000      4.592896000000000E-01     -1.292822000000000E+01      5.049133000000000E-01     -1.763047000000000E+02      5.571899000000000E-01     -1.641113000000000E+00      1.872940000000000E-01      9.648827000000000E+01
4860000000.000000      4.574585000000000E-01     -1.275000000000000E+01      5.047913000000000E-01     -1.765078000000000E+02      5.560608000000000E-01     -1.867676000000000E+00      1.926041000000000E-01      9.878515000000000E+01
4861000000.000000      4.596100000000000E-01     -1.236963000000000E+01      5.060120000000000E-01     -1.769453000000000E+02      5.583191000000000E-01     -1.951477000000000E+00      1.975632000000000E-01      1.009531000000000E+02
4862000000.000000      4.601440000000000E-01     -1.230762000000000E+01      5.079956000000000E-01     -1.773203000000000E+02      5.598145000000000E-01     -2.195923000000000E+00      2.047348000000000E-01      1.020039000000000E+02
4863000000.000000      4.615173000000000E-01     -1.170898000000000E+01      5.066528000000000E-01     -1.778047000000000E+02      5.586548000000000E-01     -2.425293000000000E+00      2.108154000000000E-01      1.036406000000000E+02
4864000000.000000      4.647522000000000E-01     -1.160156000000000E+01      5.075989000000000E-01     -1.778125000000000E+02      5.596924000000000E-01     -2.465088000000000E+00      2.165222000000000E-01      1.048594000000000E+02
4865000000.000000      4.635162000000000E-01     -1.135742000000000E+01      5.072937000000000E-01     -1.783281000000000E+02      5.595093000000000E-01     -2.418457000000000E+00      2.232513000000000E-01      1.062109000000000E+02
4866000000.000000      4.670410000000000E-01     -1.112109000000000E+01      5.087891000000000E-01     -1.785859000000000E+02      5.585938000000000E-01     -2.849609000000000E+00      2.284622000000000E-01      1.069765000000000E+02
4867000000.000000      4.664307000000000E-01     -1.088770000000000E+01      5.084534000000000E-01     -1.790234000000000E+02      5.586853000000000E-01     -2.720581000000000E+00      2.340469000000000E-01      1.079140000000000E+02
4868000000.000000      4.680634000000000E-01     -1.049219000000000E+01      5.113525000000000E-01     -1.795469000000000E+02      5.595093000000000E-01     -3.025391000000000E+00      2.398148000000000E-01      1.090039000000000E+02
4869000000.000000      4.675903000000000E-01     -1.016406000000000E+01      5.110474000000000E-01     -1.797656000000000E+02      5.589600000000000E-01     -2.915527000000000E+00      2.461700000000000E-01      1.092734000000000E+02
4870000000.000000      4.723816000000000E-01     -1.000586000000000E+01      5.119934000000000E-01      1.798594000000000E+02      5.567627000000000E-01     -3.047363000000000E+00      2.512817000000000E-01      1.103594000000000E+02
4871000000.000000      4.738464000000000E-01     -9.966309000000000E+00      5.119324000000000E-01      1.795859000000000E+02      5.592957000000000E-01     -3.111938000000000E+00      2.577362000000000E-01      1.113711000000000E+02
4872000000.000000      4.747925000000000E-01     -9.460938000000000E+00      5.132141000000000E-01      1.792031000000000E+02      5.562439000000000E-01     -3.452515000000000E+00      2.648773000000000E-01      1.116211000000000E+02
4873000000.000000      4.788055000000000E-01     -9.172363000000000E+00      5.136719000000000E-01      1.789063000000000E+02      5.571289000000000E-01     -3.419556000000000E+00      2.695923000000000E-01      1.118789000000000E+02
4874000000.000000      4.805145000000000E-01     -9.232910000000000E+00      5.144348000000000E-01      1.785781000000000E+02      5.591736000000000E-01     -3.648926000000000E+00      2.725372000000000E-01      1.125937000000000E+02
4875000000.000000      4.839783000000000E-01     -9.085938000000000E+00      5.139465000000000E-01      1.781328000000000E+02      5.578918000000000E-01     -3.379761000000000E+00      2.783813000000000E-01      1.133398000000000E+02
4876000000.000000      4.854584000000000E-01     -8.933594000000000E+00      5.178833000000000E-01      1.776484000000000E+02      5.569458000000000E-01     -3.304199000000000E+00      2.842255000000000E-01      1.138398000000000E+02
4877000000.000000      4.913788000000000E-01     -8.789063000000000E+00      5.159912000000000E-01      1.773359000000000E+02      5.552979000000000E-01     -3.629639000000000E+00      2.879333000000000E-01      1.137578000000000E+02
4878000000.000000      4.911499000000000E-01     -8.671387000000000E+00      5.177612000000000E-01      1.771094000000000E+02      5.550232000000000E-01     -3.543091000000000E+00      2.923279000000000E-01      1.138711000000000E+02
4879000000.000000      4.953613000000000E-01     -8.455566000000000E+00      5.167236000000000E-01      1.766562000000000E+02      5.547485000000000E-01     -3.721680000000000E+00      2.970123000000000E-01      1.143594000000000E+02
4880000000.000000      4.999695000000000E-01     -8.283691000000000E+00      5.185852000000000E-01      1.762812000000000E+02      5.540771000000000E-01     -3.701050000000000E+00      3.005676000000000E-01      1.148789000000000E+02
4881000000.000000      4.988251000000000E-01     -8.319824000000000E+00      5.181580000000000E-01      1.759687000000000E+02      5.538635000000000E-01     -3.746338000000000E+00      3.060608000000000E-01      1.148633000000000E+02
4882000000.000000      5.037842000000000E-01     -8.028320000000000E+00      5.207825000000000E-01      1.755703000000000E+02      5.549927000000000E-01     -3.720337000000000E+00      3.101196000000000E-01      1.150078000000000E+02
