! Network Analyzer HP8722D
! Hewlett-Packard
! Data name: Linha & Wilkinson
! Saver's name: Rodrigo Anjos
! Comments: Teste da utilização de aquisição
continua pelo VNA HP8722D
! Time and date: 8/5/2025 16:49
!              Frequency                     S11                                                   S21                                                   S12                                                   S22
# HZ  S  MA R 50
4800000000.000000      4.935760000000000E-01     -1.672891000000000E+02      2.635651000000000E-01     -2.087012000000000E+01      2.600708000000000E-01     -1.420156000000000E+02      6.526489000000000E-01     -8.013281000000000E+01
4801000000.000000      4.950409000000000E-01     -1.673906000000000E+02      2.670898000000000E-01     -2.112305000000000E+01      2.635040000000000E-01     -1.421328000000000E+02      6.515198000000000E-01     -7.994531000000000E+01
4802000000.000000      4.960022000000000E-01     -1.675156000000000E+02      2.711487000000000E-01     -2.127148000000000E+01      2.671204000000000E-01     -1.421250000000000E+02      6.498718000000000E-01     -7.957031000000000E+01
4803000000.000000      4.980621000000000E-01     -1.675390000000000E+02      2.762451000000000E-01     -2.158301000000000E+01      2.703247000000000E-01     -1.422734000000000E+02      6.498718000000000E-01     -7.958593000000000E+01
4804000000.000000      5.006104000000000E-01     -1.675781000000000E+02      2.792664000000000E-01     -2.184375000000000E+01      2.743225000000000E-01     -1.424297000000000E+02      6.505127000000000E-01     -7.924218000000000E+01
4805000000.000000      5.035706000000000E-01     -1.676016000000000E+02      2.835999000000000E-01     -2.237305000000000E+01      2.780304000000000E-01     -1.424922000000000E+02      6.506958000000000E-01     -7.903125000000000E+01
4806000000.000000      5.049133000000000E-01     -1.675390000000000E+02      2.868958000000000E-01     -2.261719000000000E+01      2.802582000000000E-01     -1.425156000000000E+02      6.510010000000000E-01     -7.888281000000000E+01
4807000000.000000      5.082397000000000E-01     -1.675937000000000E+02      2.915649000000000E-01     -2.300586000000000E+01      2.840729000000000E-01     -1.428203000000000E+02      6.493530000000000E-01     -7.866405000000000E+01
4808000000.000000      5.110474000000000E-01     -1.675156000000000E+02      2.955933000000000E-01     -2.312988000000000E+01      2.876740000000000E-01     -1.429375000000000E+02      6.500244000000000E-01     -7.848046000000000E+01
4809000000.000000      5.136414000000000E-01     -1.675703000000000E+02      2.991180000000000E-01     -2.379395000000000E+01      2.909851000000000E-01     -1.431641000000000E+02      6.499939000000000E-01     -7.826172000000000E+01
4810000000.000000      5.167542000000000E-01     -1.676250000000000E+02      3.028412000000000E-01     -2.406836000000000E+01      2.946472000000000E-01     -1.432031000000000E+02      6.521301000000000E-01     -7.808594000000000E+01
4811000000.000000      5.204468000000000E-01     -1.675390000000000E+02      3.071136000000000E-01     -2.465527000000000E+01      2.985382000000000E-01     -1.433516000000000E+02      6.517334000000000E-01     -7.788671000000000E+01
4812000000.000000      5.244446000000000E-01     -1.674844000000000E+02      3.104858000000000E-01     -2.501367000000000E+01      3.012543000000000E-01     -1.435625000000000E+02      6.522827000000000E-01     -7.779687000000000E+01
4813000000.000000      5.278931000000000E-01     -1.674766000000000E+02      3.138580000000000E-01     -2.534765000000000E+01      3.042908000000000E-01     -1.435391000000000E+02      6.533813000000000E-01     -7.748437000000000E+01
4814000000.000000      5.299683000000000E-01     -1.675234000000000E+02      3.170624000000000E-01     -2.572363000000000E+01      3.073425000000000E-01     -1.437969000000000E+02      6.547852000000000E-01     -7.741405000000000E+01
4815000000.000000      5.342102000000000E-01     -1.673906000000000E+02      3.206177000000000E-01     -2.627539000000000E+01      3.104553000000000E-01     -1.439531000000000E+02      6.544800000000000E-01     -7.728516000000000E+01
4816000000.000000      5.392151000000000E-01     -1.672812000000000E+02      3.246918000000000E-01     -2.651172000000000E+01      3.146667000000000E-01     -1.440938000000000E+02      6.565552000000000E-01     -7.708984000000000E+01
4817000000.000000      5.437012000000000E-01     -1.672500000000000E+02      3.279266000000000E-01     -2.701757000000000E+01      3.166199000000000E-01     -1.443750000000000E+02      6.580505000000000E-01     -7.689453000000000E+01
4818000000.000000      5.474854000000000E-01     -1.672656000000000E+02      3.308411000000000E-01     -2.761035000000000E+01      3.192139000000000E-01     -1.445703000000000E+02      6.601868000000000E-01     -7.684765000000000E+01
4819000000.000000      5.527039000000000E-01     -1.671875000000000E+02      3.333435000000000E-01     -2.798828000000000E+01      3.215027000000000E-01     -1.448281000000000E+02      6.617737000000000E-01     -7.670703000000000E+01
4820000000.000000      5.554199000000000E-01     -1.671562000000000E+02      3.370056000000000E-01     -2.839062000000000E+01      3.251801000000000E-01     -1.450156000000000E+02      6.645203000000000E-01     -7.650000000000000E+01
4821000000.000000      5.616455000000000E-01     -1.670547000000000E+02      3.406830000000000E-01     -2.886523000000000E+01      3.278198000000000E-01     -1.453281000000000E+02      6.654968000000000E-01     -7.639843000000000E+01
4822000000.000000      5.681763000000000E-01     -1.670156000000000E+02      3.434448000000000E-01     -2.938183000000000E+01      3.301544000000000E-01     -1.453984000000000E+02      6.684875000000000E-01     -7.626171000000000E+01
4823000000.000000      5.717468000000000E-01     -1.668906000000000E+02      3.464661000000000E-01     -2.984375000000000E+01      3.328247000000000E-01     -1.453828000000000E+02      6.709900000000000E-01     -7.618359000000000E+01
4824000000.000000      5.793762000000000E-01     -1.669297000000000E+02      3.496552000000000E-01     -3.047266000000000E+01      3.358459000000000E-01     -1.458203000000000E+02      6.730957000000000E-01     -7.602734000000000E+01
4825000000.000000      5.829468000000000E-01     -1.667812000000000E+02      3.516998000000000E-01     -3.085449000000000E+01      3.385010000000000E-01     -1.459766000000000E+02      6.753845000000000E-01     -7.590234000000000E+01
4826000000.000000      5.899658000000000E-01     -1.667187000000000E+02      3.550415000000000E-01     -3.131250000000000E+01      3.403931000000000E-01     -1.462500000000000E+02      6.792297000000000E-01     -7.587500000000000E+01
4827000000.000000      5.957947000000000E-01     -1.665859000000000E+02      3.575592000000000E-01     -3.188867000000000E+01      3.431244000000000E-01     -1.462812000000000E+02      6.819153000000000E-01     -7.571875000000000E+01
4828000000.000000      6.026611000000000E-01     -1.666328000000000E+02      3.610229000000000E-01     -3.246094000000000E+01      3.453522000000000E-01     -1.465937000000000E+02      6.855774000000000E-01     -7.575390000000000E+01
4829000000.000000      6.056519000000000E-01     -1.665234000000000E+02      3.619995000000000E-01     -3.305664000000000E+01      3.478546000000000E-01     -1.467187000000000E+02      6.878662000000000E-01     -7.555078000000000E+01
4830000000.000000      6.145020000000000E-01     -1.664141000000000E+02      3.650513000000000E-01     -3.352344000000000E+01      3.493958000000000E-01     -1.467734000000000E+02      6.899414000000000E-01     -7.557031000000000E+01
4831000000.000000      6.189575000000000E-01     -1.663125000000000E+02      3.672333000000000E-01     -3.419140000000000E+01      3.521729000000000E-01     -1.470156000000000E+02      6.939697000000000E-01     -7.547656000000000E+01
4832000000.000000      6.277466000000000E-01     -1.663047000000000E+02      3.693695000000000E-01     -3.449414000000000E+01      3.538818000000000E-01     -1.473828000000000E+02      6.962280000000000E-01     -7.548046000000000E+01
4833000000.000000      6.339722000000000E-01     -1.663359000000000E+02      3.719330000000000E-01     -3.513281000000000E+01      3.561859000000000E-01     -1.475000000000000E+02      6.997375000000000E-01     -7.535937000000000E+01
4834000000.000000      6.398010000000000E-01     -1.662188000000000E+02      3.734589000000000E-01     -3.558594000000000E+01      3.577881000000000E-01     -1.477578000000000E+02      7.026978000000000E-01     -7.540625000000000E+01
4835000000.000000      6.466064000000000E-01     -1.661641000000000E+02      3.756409000000000E-01     -3.639648000000000E+01      3.605804000000000E-01     -1.479844000000000E+02      7.069397000000000E-01     -7.533984000000000E+01
4836000000.000000      6.549072000000000E-01     -1.661016000000000E+02      3.775787000000000E-01     -3.677539000000000E+01      3.620758000000000E-01     -1.479844000000000E+02      7.100220000000000E-01     -7.528125000000000E+01
4837000000.000000      6.616211000000000E-01     -1.659297000000000E+02      3.794403000000000E-01     -3.763086000000000E+01      3.642273000000000E-01     -1.483047000000000E+02      7.139282000000000E-01     -7.521874000000000E+01
4838000000.000000      6.685791000000000E-01     -1.660547000000000E+02      3.809357000000000E-01     -3.792383000000000E+01      3.662567000000000E-01     -1.484453000000000E+02      7.192383000000000E-01     -7.520312000000000E+01
4839000000.000000      6.758118000000000E-01     -1.659062000000000E+02      3.816833000000000E-01     -3.838672000000000E+01      3.682404000000000E-01     -1.486797000000000E+02      7.210999000000000E-01     -7.508203000000000E+01
4840000000.000000      6.813354000000000E-01     -1.659453000000000E+02      3.830872000000000E-01     -3.885547000000000E+01      3.696136000000000E-01     -1.487969000000000E+02      7.261047000000000E-01     -7.516406000000000E+01
4841000000.000000      6.895752000000000E-01     -1.660312000000000E+02      3.847046000000000E-01     -3.967187000000000E+01      3.714294000000000E-01     -1.489687000000000E+02      7.300415000000000E-01     -7.514062000000000E+01
4842000000.000000      6.971130000000000E-01     -1.658828000000000E+02      3.863373000000000E-01     -4.019531000000000E+01      3.730774000000000E-01     -1.492266000000000E+02      7.348938000000000E-01     -7.514062000000000E+01
4843000000.000000      7.028503000000000E-01     -1.660234000000000E+02      3.868256000000000E-01     -4.075585000000000E+01      3.745270000000000E-01     -1.494141000000000E+02      7.384338000000000E-01     -7.516796000000000E+01
4844000000.000000      7.104797000000000E-01     -1.658984000000000E+02      3.880157000000000E-01     -4.116211000000000E+01      3.760529000000000E-01     -1.494141000000000E+02      7.434387000000000E-01     -7.518359000000000E+01
4845000000.000000      7.169495000000000E-01     -1.658281000000000E+02      3.887482000000000E-01     -4.175977000000000E+01      3.773804000000000E-01     -1.497500000000000E+02      7.461548000000000E-01     -7.517968000000000E+01
4846000000.000000      7.245178000000000E-01     -1.657109000000000E+02      3.897858000000000E-01     -4.234179000000000E+01      3.804779000000000E-01     -1.498828000000000E+02      7.515259000000000E-01     -7.512109000000000E+01
4847000000.000000      7.324829000000000E-01     -1.658281000000000E+02      3.907471000000000E-01     -4.273633000000000E+01      3.816376000000000E-01     -1.501641000000000E+02      7.565613000000000E-01     -7.529687000000000E+01
4848000000.000000      7.399292000000000E-01     -1.657891000000000E+02      3.903961000000000E-01     -4.331640000000000E+01      3.824463000000000E-01     -1.502344000000000E+02      7.593079000000000E-01     -7.522265000000000E+01
4849000000.000000      7.458191000000000E-01     -1.660625000000000E+02      3.911438000000000E-01     -4.408593000000000E+01      3.839569000000000E-01     -1.504219000000000E+02      7.652588000000000E-01     -7.518359000000000E+01
4850000000.000000      7.537842000000000E-01     -1.658203000000000E+02      3.916168000000000E-01     -4.445703000000000E+01      3.857880000000000E-01     -1.506250000000000E+02      7.684021000000000E-01     -7.517968000000000E+01
4851000000.000000      7.605286000000000E-01     -1.658672000000000E+02      3.931274000000000E-01     -4.486133000000000E+01      3.866577000000000E-01     -1.506797000000000E+02      7.754211000000000E-01     -7.524219000000000E+01
4852000000.000000      7.679138000000000E-01     -1.659453000000000E+02      3.920898000000000E-01     -4.548828000000000E+01      3.886108000000000E-01     -1.507891000000000E+02      7.794495000000000E-01     -7.544531000000000E+01
4853000000.000000      7.739563000000000E-01     -1.658516000000000E+02      3.907471000000000E-01     -4.588867000000000E+01      3.900299000000000E-01     -1.511250000000000E+02      7.834167000000000E-01     -7.550781000000000E+01
4854000000.000000      7.810364000000000E-01     -1.659062000000000E+02      3.918762000000000E-01     -4.667578000000000E+01      3.910980000000000E-01     -1.512266000000000E+02      7.882996000000000E-01     -7.544140000000000E+01
4855000000.000000      7.851257000000000E-01     -1.659688000000000E+02      3.909607000000000E-01     -4.680469000000000E+01      3.921661000000000E-01     -1.512500000000000E+02      7.915039000000000E-01     -7.544531000000000E+01
4856000000.000000      7.946777000000000E-01     -1.659062000000000E+02      3.912201000000000E-01     -4.733788000000000E+01      3.931885000000000E-01     -1.515078000000000E+02      7.980652000000000E-01     -7.553124000000000E+01
4857000000.000000      8.003540000000000E-01     -1.660312000000000E+02      3.914948000000000E-01     -4.786914000000000E+01      3.944702000000000E-01     -1.515781000000000E+02      8.020325000000000E-01     -7.554688000000000E+01
4858000000.000000      8.043823000000000E-01     -1.660234000000000E+02      3.903809000000000E-01     -4.830468000000000E+01      3.953247000000000E-01     -1.518437000000000E+02      8.055115000000000E-01     -7.570703000000000E+01
4859000000.000000      8.102722000000000E-01     -1.659609000000000E+02      3.903046000000000E-01     -4.886719000000000E+01      3.961945000000000E-01     -1.520859000000000E+02      8.122253000000000E-01     -7.582812000000000E+01
4860000000.000000      8.186340000000000E-01     -1.659609000000000E+02      3.896790000000000E-01     -4.913476000000000E+01      3.971252000000000E-01     -1.520937000000000E+02      8.155518000000000E-01     -7.579687000000000E+01
4861000000.000000      8.199768000000000E-01     -1.659375000000000E+02      3.887024000000000E-01     -4.974609000000000E+01      3.985596000000000E-01     -1.522422000000000E+02      8.207397000000000E-01     -7.589453000000000E+01
4862000000.000000      8.290100000000000E-01     -1.659141000000000E+02      3.886414000000000E-01     -5.007030000000000E+01      3.997803000000000E-01     -1.523047000000000E+02      8.264465000000000E-01     -7.590625000000000E+01
4863000000.000000      8.323059000000000E-01     -1.660625000000000E+02      3.864136000000000E-01     -5.058594000000000E+01      4.004669000000000E-01     -1.524688000000000E+02      8.305664000000000E-01     -7.589062000000000E+01
4864000000.000000      8.376770000000000E-01     -1.661016000000000E+02      3.860626000000000E-01     -5.085938000000000E+01      4.009705000000000E-01     -1.526250000000000E+02      8.345337000000000E-01     -7.608593000000000E+01
4865000000.000000      8.431702000000000E-01     -1.659688000000000E+02      3.843384000000000E-01     -5.127148000000000E+01      4.017792000000000E-01     -1.528750000000000E+02      8.400879000000000E-01     -7.608593000000000E+01
4866000000.000000      8.456116000000000E-01     -1.660078000000000E+02      3.834686000000000E-01     -5.170312000000000E+01      4.026947000000000E-01     -1.529844000000000E+02      8.442688000000000E-01     -7.614843000000000E+01
4867000000.000000      8.502808000000000E-01     -1.659765000000000E+02      3.829346000000000E-01     -5.210546000000000E+01      4.031677000000000E-01     -1.531328000000000E+02      8.507690000000000E-01     -7.631249000000000E+01
4868000000.000000      8.557129000000000E-01     -1.661484000000000E+02      3.817902000000000E-01     -5.246094000000000E+01      4.044952000000000E-01     -1.532969000000000E+02      8.538513000000000E-01     -7.628515000000000E+01
4869000000.000000      8.583984000000000E-01     -1.661016000000000E+02      3.804474000000000E-01     -5.278710000000000E+01      4.050598000000000E-01     -1.534765000000000E+02      8.584900000000000E-01     -7.656640000000000E+01
4870000000.000000      8.632507000000000E-01     -1.660312000000000E+02      3.796082000000000E-01     -5.297461000000000E+01      4.053192000000000E-01     -1.537109000000000E+02      8.636780000000000E-01     -7.657812000000000E+01
4871000000.000000      8.671570000000000E-01     -1.660781000000000E+02      3.787384000000000E-01     -5.353516000000000E+01      4.054413000000000E-01     -1.538672000000000E+02      8.658752000000000E-01     -7.676171000000000E+01
4872000000.000000      8.709412000000000E-01     -1.660156000000000E+02      3.755951000000000E-01     -5.351953000000000E+01      4.059143000000000E-01     -1.541094000000000E+02      8.729248000000000E-01     -7.673828000000000E+01
4873000000.000000      8.748779000000000E-01     -1.659297000000000E+02      3.742523000000000E-01     -5.400391000000000E+01      4.060974000000000E-01     -1.541094000000000E+02      8.768616000000000E-01     -7.703125000000000E+01
4874000000.000000      8.764343000000000E-01     -1.660859000000000E+02      3.735809000000000E-01     -5.429492000000000E+01      4.069519000000000E-01     -1.542266000000000E+02      8.801880000000000E-01     -7.686328000000000E+01
4875000000.000000      8.825073000000000E-01     -1.659688000000000E+02      3.727264000000000E-01     -5.441211000000000E+01      4.073486000000000E-01     -1.545703000000000E+02      8.839417000000000E-01     -7.715234000000000E+01
4876000000.000000      8.820801000000000E-01     -1.659219000000000E+02      3.696594000000000E-01     -5.484179000000000E+01      4.072266000000000E-01     -1.545625000000000E+02      8.884277000000000E-01     -7.726953000000000E+01
4877000000.000000      8.863525000000000E-01     -1.658281000000000E+02      3.691101000000000E-01     -5.499804000000000E+01      4.079132000000000E-01     -1.548125000000000E+02      8.931274000000000E-01     -7.739843000000000E+01
4878000000.000000      8.890686000000000E-01     -1.658281000000000E+02      3.682251000000000E-01     -5.512890000000000E+01      4.079437000000000E-01     -1.547812000000000E+02      8.970337000000000E-01     -7.757030000000000E+01
4879000000.000000      8.925171000000000E-01     -1.658125000000000E+02      3.657227000000000E-01     -5.533593000000000E+01      4.073334000000000E-01     -1.550234000000000E+02      8.995972000000000E-01     -7.748437000000000E+01
4880000000.000000      8.916321000000000E-01     -1.658125000000000E+02      3.642883000000000E-01     -5.553320000000000E+01      4.080658000000000E-01     -1.550625000000000E+02      9.046631000000000E-01     -7.768359000000000E+01
4881000000.000000      8.949280000000000E-01     -1.656484000000000E+02      3.640594000000000E-01     -5.569530000000000E+01      4.081268000000000E-01     -1.552422000000000E+02      9.074402000000000E-01     -7.781250000000000E+01
4882000000.000000      8.962402000000000E-01     -1.655625000000000E+02      3.621826000000000E-01     -5.591797000000000E+01      4.076691000000000E-01     -1.553516000000000E+02      9.107056000000000E-01     -7.792187000000000E+01
