! Network Analyzer HP8722D
! Hewlett-Packard
! Data name: Linha & Wilkinson
! Saver's name: Rodrigo Anjos
! Comments: Teste da utilização de aquisição
continua pelo VNA HP8722D
! Time and date: 8/5/2025 16:15
!              Frequency                     S11                                                   S21                                                   S12                                                   S22
# HZ  S  MA R 50
4800000000.000000      8.965454000000000E-01      1.153242000000000E+02      3.234406000000000E-01     -1.712031000000000E+02      2.590332000000000E-01     -8.642187000000000E+01      9.756775000000000E-01     -4.839257000000000E+01
4801000000.000000      8.953247000000000E-01      1.156211000000000E+02      3.233185000000000E-01     -1.712344000000000E+02      2.588043000000000E-01     -8.650391000000000E+01      9.707947000000000E-01     -4.851171000000000E+01
4802000000.000000      8.908081000000000E-01      1.158828000000000E+02      3.231964000000000E-01     -1.709609000000000E+02      2.598114000000000E-01     -8.623047000000000E+01      9.659424000000000E-01     -4.857812000000000E+01
4803000000.000000      8.903198000000000E-01      1.160469000000000E+02      3.246307000000000E-01     -1.709297000000000E+02      2.589569000000000E-01     -8.605860000000000E+01      9.610291000000000E-01     -4.862499000000000E+01
4804000000.000000      8.870239000000000E-01      1.163398000000000E+02      3.246155000000000E-01     -1.709141000000000E+02      2.591858000000000E-01     -8.603516000000000E+01      9.555664000000000E-01     -4.855859000000000E+01
4805000000.000000      8.871155000000000E-01      1.165195000000000E+02      3.248291000000000E-01     -1.710312000000000E+02      2.589722000000000E-01     -8.564453000000000E+01      9.494934000000000E-01     -4.871094000000000E+01
4806000000.000000      8.854065000000000E-01      1.168476000000000E+02      3.253479000000000E-01     -1.710000000000000E+02      2.582855000000000E-01     -8.539843000000000E+01      9.432983000000000E-01     -4.889062000000000E+01
4807000000.000000      8.834534000000000E-01      1.168672000000000E+02      3.259125000000000E-01     -1.711250000000000E+02      2.591400000000000E-01     -8.533983000000000E+01      9.368896000000000E-01     -4.879492000000000E+01
4808000000.000000      8.797913000000000E-01      1.171680000000000E+02      3.270874000000000E-01     -1.708281000000000E+02      2.590179000000000E-01     -8.512499000000000E+01      9.324951000000000E-01     -4.888085000000000E+01
4809000000.000000      8.778992000000000E-01      1.176601000000000E+02      3.268585000000000E-01     -1.711172000000000E+02      2.596436000000000E-01     -8.492579000000000E+01      9.278259000000000E-01     -4.893359000000000E+01
4810000000.000000      8.748474000000000E-01      1.177383000000000E+02      3.277435000000000E-01     -1.708594000000000E+02      2.591095000000000E-01     -8.472265000000000E+01      9.213562000000000E-01     -4.905859000000000E+01
4811000000.000000      8.740845000000000E-01      1.180508000000000E+02      3.287811000000000E-01     -1.710938000000000E+02      2.604370000000000E-01     -8.442577000000000E+01      9.160767000000000E-01     -4.893945000000000E+01
4812000000.000000      8.703003000000000E-01      1.182422000000000E+02      3.283691000000000E-01     -1.710469000000000E+02      2.596283000000000E-01     -8.419140000000000E+01      9.101563000000000E-01     -4.910742000000000E+01
4813000000.000000      8.694763000000000E-01      1.185390000000000E+02      3.292694000000000E-01     -1.710312000000000E+02      2.596130000000000E-01     -8.389452000000000E+01      9.066162000000000E-01     -4.911133000000000E+01
4814000000.000000      8.641663000000000E-01      1.185664000000000E+02      3.301392000000000E-01     -1.710469000000000E+02      2.597046000000000E-01     -8.370312000000000E+01      9.000244000000000E-01     -4.919922000000000E+01
4815000000.000000      8.617859000000000E-01      1.189805000000000E+02      3.303986000000000E-01     -1.710312000000000E+02      2.597351000000000E-01     -8.337500000000000E+01      8.939514000000000E-01     -4.919922000000000E+01
4816000000.000000      8.603516000000000E-01      1.191758000000000E+02      3.321228000000000E-01     -1.710078000000000E+02      2.602692000000000E-01     -8.318359000000000E+01      8.909912000000000E-01     -4.942383000000000E+01
4817000000.000000      8.566284000000000E-01      1.194492000000000E+02      3.321381000000000E-01     -1.712188000000000E+02      2.598114000000000E-01     -8.286327000000000E+01      8.841858000000000E-01     -4.935351000000000E+01
4818000000.000000      8.531189000000000E-01      1.196953000000000E+02      3.323212000000000E-01     -1.711953000000000E+02      2.598877000000000E-01     -8.248438000000000E+01      8.781128000000000E-01     -4.943359000000000E+01
4819000000.000000      8.504333000000000E-01      1.198125000000000E+02      3.332825000000000E-01     -1.713281000000000E+02      2.593994000000000E-01     -8.235937000000000E+01      8.731689000000000E-01     -4.961132000000000E+01
4820000000.000000      8.454285000000000E-01      1.200000000000000E+02      3.332520000000000E-01     -1.714219000000000E+02      2.598724000000000E-01     -8.196093000000000E+01      8.682251000000000E-01     -4.948242000000000E+01
4821000000.000000      8.433838000000000E-01      1.203125000000000E+02      3.349304000000000E-01     -1.715078000000000E+02      2.600098000000000E-01     -8.177734000000000E+01      8.632507000000000E-01     -4.962109000000000E+01
4822000000.000000      8.416138000000000E-01      1.201641000000000E+02      3.354645000000000E-01     -1.717578000000000E+02      2.589111000000000E-01     -8.151953000000000E+01      8.576355000000000E-01     -4.974999000000000E+01
4823000000.000000      8.370667000000000E-01      1.204844000000000E+02      3.361511000000000E-01     -1.717500000000000E+02      2.590485000000000E-01     -8.092188000000000E+01      8.529053000000000E-01     -4.984375000000000E+01
4824000000.000000      8.321838000000000E-01      1.206680000000000E+02      3.364563000000000E-01     -1.719297000000000E+02      2.595978000000000E-01     -8.075781000000000E+01      8.467712000000000E-01     -4.975780000000000E+01
4825000000.000000      8.275452000000000E-01      1.207930000000000E+02      3.369751000000000E-01     -1.720547000000000E+02      2.603760000000000E-01     -8.052734000000000E+01      8.445740000000000E-01     -4.990429000000000E+01
4826000000.000000      8.259583000000000E-01      1.210234000000000E+02      3.382416000000000E-01     -1.722500000000000E+02      2.592926000000000E-01     -8.019531000000000E+01      8.395081000000000E-01     -4.997070000000000E+01
4827000000.000000      8.232727000000000E-01      1.210312000000000E+02      3.386078000000000E-01     -1.723516000000000E+02      2.595215000000000E-01     -7.989452000000000E+01      8.334045000000000E-01     -5.004687000000000E+01
4828000000.000000      8.171387000000000E-01      1.213125000000000E+02      3.394012000000000E-01     -1.725547000000000E+02      2.590179000000000E-01     -7.967968000000000E+01      8.293152000000000E-01     -5.018749000000000E+01
4829000000.000000      8.112793000000000E-01      1.215703000000000E+02      3.393707000000000E-01     -1.726406000000000E+02      2.603302000000000E-01     -7.929688000000000E+01      8.267517000000000E-01     -5.013866000000000E+01
4830000000.000000      8.091431000000000E-01      1.214687000000000E+02      3.394623000000000E-01     -1.729375000000000E+02      2.597656000000000E-01     -7.888672000000000E+01      8.190308000000000E-01     -5.027538000000000E+01
4831000000.000000      8.030396000000000E-01      1.217773000000000E+02      3.403931000000000E-01     -1.731641000000000E+02      2.602234000000000E-01     -7.848437000000000E+01      8.165894000000000E-01     -5.036133000000000E+01
4832000000.000000      8.007202000000000E-01      1.218047000000000E+02      3.406525000000000E-01     -1.732265000000000E+02      2.599030000000000E-01     -7.817968000000000E+01      8.099670000000000E-01     -5.026757000000000E+01
4833000000.000000      7.952881000000000E-01      1.217578000000000E+02      3.410339000000000E-01     -1.734922000000000E+02      2.598724000000000E-01     -7.787499000000000E+01      8.067322000000000E-01     -5.047070000000000E+01
4834000000.000000      7.909546000000000E-01      1.217656000000000E+02      3.413086000000000E-01     -1.737422000000000E+02      2.602844000000000E-01     -7.748437000000000E+01      8.023682000000000E-01     -5.053124000000000E+01
4835000000.000000      7.873230000000000E-01      1.218008000000000E+02      3.416443000000000E-01     -1.739297000000000E+02      2.603912000000000E-01     -7.714844000000000E+01      7.974854000000000E-01     -5.065624000000000E+01
4836000000.000000      7.812500000000000E-01      1.220859000000000E+02      3.416595000000000E-01     -1.742812000000000E+02      2.607269000000000E-01     -7.685547000000000E+01      7.944641000000000E-01     -5.064062000000000E+01
4837000000.000000      7.752991000000000E-01      1.220742000000000E+02      3.411255000000000E-01     -1.747187000000000E+02      2.608337000000000E-01     -7.659374000000000E+01      7.900085000000000E-01     -5.062109000000000E+01
4838000000.000000      7.680969000000000E-01      1.220234000000000E+02      3.420105000000000E-01     -1.746719000000000E+02      2.609406000000000E-01     -7.614062000000000E+01      7.866821000000000E-01     -5.065234000000000E+01
4839000000.000000      7.666321000000000E-01      1.222344000000000E+02      3.419342000000000E-01     -1.748828000000000E+02      2.610931000000000E-01     -7.597265000000000E+01      7.830811000000000E-01     -5.084570000000000E+01
4840000000.000000      7.579651000000000E-01      1.221172000000000E+02      3.420105000000000E-01     -1.749844000000000E+02      2.615662000000000E-01     -7.557031000000000E+01      7.799377000000000E-01     -5.087891000000000E+01
4841000000.000000      7.558289000000000E-01      1.220625000000000E+02      3.419800000000000E-01     -1.754609000000000E+02      2.619476000000000E-01     -7.523046000000000E+01      7.770081000000000E-01     -5.093359000000000E+01
4842000000.000000      7.484131000000000E-01      1.220273000000000E+02      3.412476000000000E-01     -1.756172000000000E+02      2.621307000000000E-01     -7.486328000000000E+01      7.739258000000000E-01     -5.097656000000000E+01
4843000000.000000      7.420654000000000E-01      1.219805000000000E+02      3.411560000000000E-01     -1.758594000000000E+02      2.618408000000000E-01     -7.459765000000000E+01      7.698669000000000E-01     -5.104297000000000E+01
4844000000.000000      7.381287000000000E-01      1.220313000000000E+02      3.408661000000000E-01     -1.761797000000000E+02      2.620239000000000E-01     -7.422265000000000E+01      7.661438000000000E-01     -5.109375000000000E+01
4845000000.000000      7.315674000000000E-01      1.218750000000000E+02      3.405609000000000E-01     -1.763594000000000E+02      2.626343000000000E-01     -7.400781000000000E+01      7.616272000000000E-01     -5.109179000000000E+01
4846000000.000000      7.267151000000000E-01      1.219297000000000E+02      3.405914000000000E-01     -1.765938000000000E+02      2.632141000000000E-01     -7.368359000000000E+01      7.592468000000000E-01     -5.126562000000000E+01
4847000000.000000      7.215576000000000E-01      1.218711000000000E+02      3.399506000000000E-01     -1.767812000000000E+02      2.633514000000000E-01     -7.337109000000000E+01      7.560120000000000E-01     -5.135742000000000E+01
4848000000.000000      7.166443000000000E-01      1.216250000000000E+02      3.388672000000000E-01     -1.771797000000000E+02      2.639160000000000E-01     -7.308594000000000E+01      7.521667000000000E-01     -5.140234000000000E+01
4849000000.000000      7.079773000000000E-01      1.213867000000000E+02      3.381805000000000E-01     -1.775781000000000E+02      2.643433000000000E-01     -7.272655000000000E+01      7.496643000000000E-01     -5.130859000000000E+01
4850000000.000000      7.023315000000000E-01      1.213281000000000E+02      3.380432000000000E-01     -1.777812000000000E+02      2.645569000000000E-01     -7.241796000000000E+01      7.470093000000000E-01     -5.143945000000000E+01
4851000000.000000      6.955872000000000E-01      1.215195000000000E+02      3.385620000000000E-01     -1.779375000000000E+02      2.649078000000000E-01     -7.207421000000000E+01      7.448425000000000E-01     -5.144531000000000E+01
4852000000.000000      6.893005000000000E-01      1.209961000000000E+02      3.364868000000000E-01     -1.782109000000000E+02      2.648926000000000E-01     -7.177343000000000E+01      7.408142000000000E-01     -5.155859000000000E+01
4853000000.000000      6.846619000000000E-01      1.211133000000000E+02      3.354034000000000E-01     -1.784453000000000E+02      2.657623000000000E-01     -7.155078000000000E+01      7.389221000000000E-01     -5.170312000000000E+01
4854000000.000000      6.763916000000000E-01      1.207617000000000E+02      3.352814000000000E-01     -1.788203000000000E+02      2.663422000000000E-01     -7.137500000000000E+01      7.364502000000000E-01     -5.172656000000000E+01
4855000000.000000      6.726990000000000E-01      1.207383000000000E+02      3.344269000000000E-01     -1.789531000000000E+02      2.661743000000000E-01     -7.093359000000000E+01      7.316589000000000E-01     -5.177148000000000E+01
4856000000.000000      6.656494000000000E-01      1.203633000000000E+02      3.336792000000000E-01     -1.792266000000000E+02      2.666473000000000E-01     -7.083202000000000E+01      7.304382000000000E-01     -5.183788000000000E+01
4857000000.000000      6.604614000000000E-01      1.201367000000000E+02      3.333130000000000E-01     -1.793672000000000E+02      2.666779000000000E-01     -7.039844000000000E+01      7.270508000000000E-01     -5.187890000000000E+01
4858000000.000000      6.520996000000000E-01      1.198438000000000E+02      3.315430000000000E-01     -1.796953000000000E+02      2.664948000000000E-01     -7.022265000000000E+01      7.247314000000000E-01     -5.204687000000000E+01
4859000000.000000      6.469116000000000E-01      1.196016000000000E+02      3.309937000000000E-01     -1.798594000000000E+02      2.679138000000000E-01     -7.006640000000000E+01      7.239990000000000E-01     -5.207812000000000E+01
4860000000.000000      6.410828000000000E-01      1.194414000000000E+02      3.299408000000000E-01      1.798750000000000E+02      2.676544000000000E-01     -6.977734000000000E+01      7.197266000000000E-01     -5.199023000000000E+01
4861000000.000000      6.337280000000000E-01      1.193047000000000E+02      3.290558000000000E-01      1.796562000000000E+02      2.675934000000000E-01     -6.946875000000000E+01      7.167969000000000E-01     -5.215625000000000E+01
4862000000.000000      6.270752000000000E-01      1.189297000000000E+02      3.277893000000000E-01      1.794765000000000E+02      2.680969000000000E-01     -6.923046000000000E+01      7.158508000000000E-01     -5.215820000000000E+01
4863000000.000000      6.196594000000000E-01      1.184375000000000E+02      3.256683000000000E-01      1.790859000000000E+02      2.692719000000000E-01     -6.909374000000000E+01      7.127686000000000E-01     -5.212109000000000E+01
4864000000.000000      6.163940000000000E-01      1.180078000000000E+02      3.251190000000000E-01      1.791875000000000E+02      2.694550000000000E-01     -6.887500000000000E+01      7.110596000000000E-01     -5.223633000000000E+01
4865000000.000000      6.082458000000000E-01      1.177578000000000E+02      3.238983000000000E-01      1.789844000000000E+02      2.694550000000000E-01     -6.886328000000000E+01      7.099609000000000E-01     -5.216406000000000E+01
4866000000.000000      6.007996000000000E-01      1.173359000000000E+02      3.227997000000000E-01      1.786797000000000E+02      2.692108000000000E-01     -6.860156000000000E+01      7.064209000000000E-01     -5.231835000000000E+01
4867000000.000000      5.968018000000000E-01      1.170313000000000E+02      3.216400000000000E-01      1.783359000000000E+02      2.700500000000000E-01     -6.849999000000000E+01      7.052002000000000E-01     -5.230273000000000E+01
4868000000.000000      5.896912000000000E-01      1.165625000000000E+02      3.202972000000000E-01      1.783516000000000E+02      2.704773000000000E-01     -6.830859000000000E+01      7.019043000000000E-01     -5.228125000000000E+01
4869000000.000000      5.833435000000000E-01      1.161953000000000E+02      3.188171000000000E-01      1.781953000000000E+02      2.707672000000000E-01     -6.819530000000000E+01      7.000122000000000E-01     -5.244922000000000E+01
4870000000.000000      5.788879000000000E-01      1.156719000000000E+02      3.176880000000000E-01      1.781406000000000E+02      2.715912000000000E-01     -6.812890000000000E+01      6.979980000000000E-01     -5.234765000000000E+01
4871000000.000000      5.712280000000000E-01      1.154453000000000E+02      3.168640000000000E-01      1.777891000000000E+02      2.704010000000000E-01     -6.796484000000000E+01      6.952820000000000E-01     -5.242578000000000E+01
4872000000.000000      5.677185000000000E-01      1.149492000000000E+02      3.152313000000000E-01      1.778750000000000E+02      2.704620000000000E-01     -6.797656000000000E+01      6.952820000000000E-01     -5.239843000000000E+01
4873000000.000000      5.618591000000000E-01      1.143398000000000E+02      3.139496000000000E-01      1.776094000000000E+02      2.706909000000000E-01     -6.775391000000000E+01      6.907959000000000E-01     -5.250000000000000E+01
4874000000.000000      5.556335000000000E-01      1.140469000000000E+02      3.124237000000000E-01      1.774375000000000E+02      2.715759000000000E-01     -6.775391000000000E+01      6.889954000000000E-01     -5.238867000000000E+01
4875000000.000000      5.505371000000000E-01      1.135586000000000E+02      3.112030000000000E-01      1.773672000000000E+02      2.714996000000000E-01     -6.761719000000000E+01      6.868591000000000E-01     -5.257030000000000E+01
4876000000.000000      5.452881000000000E-01      1.131133000000000E+02      3.102112000000000E-01      1.771250000000000E+02      2.716827000000000E-01     -6.766796000000000E+01      6.863403000000000E-01     -5.265625000000000E+01
4877000000.000000      5.401611000000000E-01      1.125430000000000E+02      3.096771000000000E-01      1.771406000000000E+02      2.710876000000000E-01     -6.761328000000000E+01      6.829529000000000E-01     -5.258789000000000E+01
4878000000.000000      5.340576000000000E-01      1.120820000000000E+02      3.083038000000000E-01      1.768594000000000E+02      2.717590000000000E-01     -6.734375000000000E+01      6.802673000000000E-01     -5.258007000000000E+01
4879000000.000000      5.307922000000000E-01      1.115312000000000E+02      3.055420000000000E-01      1.769766000000000E+02      2.707062000000000E-01     -6.752343000000000E+01      6.785889000000000E-01     -5.251953000000000E+01
4880000000.000000      5.243225000000000E-01      1.110273000000000E+02      3.054810000000000E-01      1.765781000000000E+02      2.712250000000000E-01     -6.717968000000000E+01      6.752319000000000E-01     -5.242188000000000E+01
4881000000.000000      5.220947000000000E-01      1.106641000000000E+02      3.045044000000000E-01      1.768594000000000E+02      2.715912000000000E-01     -6.743750000000000E+01      6.735535000000000E-01     -5.239062000000000E+01
4882000000.000000      5.162659000000000E-01      1.099414000000000E+02      3.036499000000000E-01      1.765156000000000E+02      2.717896000000000E-01     -6.726171000000000E+01      6.716614000000000E-01     -5.238867000000000E+01
