! Network Analyzer HP8722D
! Hewlett-Packard
! Data name: Linha & Wilkinson
! Saver's name: Rodrigo Anjos
! Comments: Teste da utilização de aquisição
continua pelo VNA HP8722D
! Time and date: 8/5/2025 16:42
!              Frequency                     S11                                                   S21                                                   S12                                                   S22
# HZ  S  MA R 50
4800000000.000000      4.936981000000000E-01     -1.673828000000000E+02      2.621002000000000E-01     -2.070410000000000E+01      2.584076000000000E-01     -1.417344000000000E+02      6.529236000000000E-01     -8.019922000000000E+01
4801000000.000000      4.950867000000000E-01     -1.674922000000000E+02      2.659454000000000E-01     -2.097070000000000E+01      2.618866000000000E-01     -1.419531000000000E+02      6.510620000000000E-01     -7.994141000000000E+01
4802000000.000000      4.961243000000000E-01     -1.675390000000000E+02      2.697906000000000E-01     -2.109570000000000E+01      2.658234000000000E-01     -1.419219000000000E+02      6.498413000000000E-01     -7.967968000000000E+01
4803000000.000000      4.981232000000000E-01     -1.676719000000000E+02      2.744293000000000E-01     -2.138574000000000E+01      2.691956000000000E-01     -1.420469000000000E+02      6.485291000000000E-01     -7.952343000000000E+01
4804000000.000000      5.007324000000000E-01     -1.676094000000000E+02      2.780762000000000E-01     -2.164746000000000E+01      2.723846000000000E-01     -1.423203000000000E+02      6.489258000000000E-01     -7.927343000000000E+01
4805000000.000000      5.039673000000000E-01     -1.676641000000000E+02      2.821045000000000E-01     -2.197266000000000E+01      2.761688000000000E-01     -1.422969000000000E+02      6.488342000000000E-01     -7.921484000000000E+01
4806000000.000000      5.049744000000000E-01     -1.676406000000000E+02      2.858429000000000E-01     -2.226269000000000E+01      2.788086000000000E-01     -1.423359000000000E+02      6.490784000000000E-01     -7.896484000000000E+01
4807000000.000000      5.079651000000000E-01     -1.676797000000000E+02      2.898254000000000E-01     -2.281348000000000E+01      2.830505000000000E-01     -1.426094000000000E+02      6.485291000000000E-01     -7.873437000000000E+01
4808000000.000000      5.108337000000000E-01     -1.676250000000000E+02      2.942810000000000E-01     -2.300976000000000E+01      2.861328000000000E-01     -1.428125000000000E+02      6.481018000000000E-01     -7.848046000000000E+01
4809000000.000000      5.132446000000000E-01     -1.676563000000000E+02      2.975922000000000E-01     -2.360058000000000E+01      2.902985000000000E-01     -1.428906000000000E+02      6.494141000000000E-01     -7.835938000000000E+01
4810000000.000000      5.168457000000000E-01     -1.676953000000000E+02      3.018494000000000E-01     -2.374902000000000E+01      2.926941000000000E-01     -1.429844000000000E+02      6.499939000000000E-01     -7.813281000000000E+01
4811000000.000000      5.201721000000000E-01     -1.675937000000000E+02      3.053436000000000E-01     -2.435351000000000E+01      2.974854000000000E-01     -1.431484000000000E+02      6.504211000000000E-01     -7.788280000000000E+01
4812000000.000000      5.242004000000000E-01     -1.675937000000000E+02      3.089294000000000E-01     -2.468554000000000E+01      3.002777000000000E-01     -1.432891000000000E+02      6.510620000000000E-01     -7.767187000000000E+01
4813000000.000000      5.270081000000000E-01     -1.675547000000000E+02      3.126373000000000E-01     -2.508398000000000E+01      3.027039000000000E-01     -1.433047000000000E+02      6.526489000000000E-01     -7.756640000000000E+01
4814000000.000000      5.299988000000000E-01     -1.676328000000000E+02      3.160248000000000E-01     -2.535645000000000E+01      3.063354000000000E-01     -1.436484000000000E+02      6.531677000000000E-01     -7.736718000000000E+01
4815000000.000000      5.337219000000000E-01     -1.674375000000000E+02      3.190002000000000E-01     -2.589160000000000E+01      3.088989000000000E-01     -1.437891000000000E+02      6.542358000000000E-01     -7.715234000000000E+01
4816000000.000000      5.387878000000000E-01     -1.673750000000000E+02      3.234253000000000E-01     -2.626172000000000E+01      3.130035000000000E-01     -1.439297000000000E+02      6.558228000000000E-01     -7.699219000000000E+01
4817000000.000000      5.432434000000000E-01     -1.672969000000000E+02      3.260803000000000E-01     -2.670507000000000E+01      3.150330000000000E-01     -1.442734000000000E+02      6.572266000000000E-01     -7.696094000000000E+01
4818000000.000000      5.469360000000000E-01     -1.673359000000000E+02      3.290710000000000E-01     -2.729883000000000E+01      3.181458000000000E-01     -1.443203000000000E+02      6.585693000000000E-01     -7.683594000000000E+01
4819000000.000000      5.522766000000000E-01     -1.672578000000000E+02      3.328247000000000E-01     -2.767187000000000E+01      3.201904000000000E-01     -1.445156000000000E+02      6.619263000000000E-01     -7.672656000000000E+01
4820000000.000000      5.548096000000000E-01     -1.672344000000000E+02      3.359375000000000E-01     -2.809082000000000E+01      3.238068000000000E-01     -1.447109000000000E+02      6.628113000000000E-01     -7.655078000000000E+01
4821000000.000000      5.612183000000000E-01     -1.671250000000000E+02      3.397675000000000E-01     -2.868457000000000E+01      3.267670000000000E-01     -1.449922000000000E+02      6.645203000000000E-01     -7.641406000000000E+01
4822000000.000000      5.680237000000000E-01     -1.670547000000000E+02      3.425903000000000E-01     -2.908691000000000E+01      3.285980000000000E-01     -1.452266000000000E+02      6.671753000000000E-01     -7.623828000000000E+01
4823000000.000000      5.709229000000000E-01     -1.669844000000000E+02      3.455811000000000E-01     -2.952734000000000E+01      3.317261000000000E-01     -1.452031000000000E+02      6.697388000000000E-01     -7.617578000000000E+01
4824000000.000000      5.781860000000000E-01     -1.669453000000000E+02      3.491211000000000E-01     -3.019238000000000E+01      3.345642000000000E-01     -1.455391000000000E+02      6.720886000000000E-01     -7.596484000000000E+01
4825000000.000000      5.822144000000000E-01     -1.668516000000000E+02      3.509216000000000E-01     -3.069629000000000E+01      3.379364000000000E-01     -1.456640000000000E+02      6.742249000000000E-01     -7.584374000000000E+01
4826000000.000000      5.887756000000000E-01     -1.668047000000000E+02      3.542328000000000E-01     -3.111816000000000E+01      3.394012000000000E-01     -1.459609000000000E+02      6.772461000000000E-01     -7.585155000000000E+01
4827000000.000000      5.946655000000000E-01     -1.666406000000000E+02      3.562775000000000E-01     -3.166308000000000E+01      3.421631000000000E-01     -1.460000000000000E+02      6.798401000000000E-01     -7.572656000000000E+01
4828000000.000000      6.018372000000000E-01     -1.666172000000000E+02      3.603210000000000E-01     -3.214648000000000E+01      3.441162000000000E-01     -1.463906000000000E+02      6.836548000000000E-01     -7.566796000000000E+01
4829000000.000000      6.050720000000000E-01     -1.665000000000000E+02      3.613281000000000E-01     -3.265429000000000E+01      3.469543000000000E-01     -1.464375000000000E+02      6.865540000000000E-01     -7.552734000000000E+01
4830000000.000000      6.128235000000000E-01     -1.664453000000000E+02      3.641357000000000E-01     -3.327929000000000E+01      3.487549000000000E-01     -1.466328000000000E+02      6.891174000000000E-01     -7.549609000000000E+01
4831000000.000000      6.180725000000000E-01     -1.663984000000000E+02      3.657074000000000E-01     -3.385351000000000E+01      3.515930000000000E-01     -1.467109000000000E+02      6.926575000000000E-01     -7.540234000000000E+01
4832000000.000000      6.270142000000000E-01     -1.663437000000000E+02      3.687286000000000E-01     -3.439453000000000E+01      3.531799000000000E-01     -1.470469000000000E+02      6.958923000000000E-01     -7.535937000000000E+01
4833000000.000000      6.333923000000000E-01     -1.663359000000000E+02      3.710785000000000E-01     -3.483593000000000E+01      3.554688000000000E-01     -1.473047000000000E+02      6.989746000000000E-01     -7.532812000000000E+01
4834000000.000000      6.391907000000000E-01     -1.662422000000000E+02      3.726044000000000E-01     -3.536914000000000E+01      3.573608000000000E-01     -1.474297000000000E+02      7.018433000000000E-01     -7.526953000000000E+01
4835000000.000000      6.457214000000000E-01     -1.662188000000000E+02      3.748169000000000E-01     -3.589062000000000E+01      3.601227000000000E-01     -1.477187000000000E+02      7.061157000000000E-01     -7.530078000000000E+01
4836000000.000000      6.541748000000000E-01     -1.660781000000000E+02      3.774261000000000E-01     -3.640234000000000E+01      3.615265000000000E-01     -1.478281000000000E+02      7.095337000000000E-01     -7.516015000000000E+01
4837000000.000000      6.605835000000000E-01     -1.660078000000000E+02      3.784332000000000E-01     -3.732617000000000E+01      3.636780000000000E-01     -1.480937000000000E+02      7.140808000000000E-01     -7.516406000000000E+01
4838000000.000000      6.675110000000000E-01     -1.660703000000000E+02      3.805695000000000E-01     -3.755468000000000E+01      3.661499000000000E-01     -1.480781000000000E+02      7.172241000000000E-01     -7.503906000000000E+01
4839000000.000000      6.746521000000000E-01     -1.658750000000000E+02      3.817444000000000E-01     -3.822656000000000E+01      3.675537000000000E-01     -1.482734000000000E+02      7.211914000000000E-01     -7.509375000000000E+01
4840000000.000000      6.799316000000000E-01     -1.658828000000000E+02      3.831787000000000E-01     -3.861328000000000E+01      3.689728000000000E-01     -1.486094000000000E+02      7.249756000000000E-01     -7.510937000000000E+01
4841000000.000000      6.890259000000000E-01     -1.659844000000000E+02      3.837738000000000E-01     -3.940820000000000E+01      3.717194000000000E-01     -1.487187000000000E+02      7.293701000000000E-01     -7.502343000000000E+01
4842000000.000000      6.958313000000000E-01     -1.658984000000000E+02      3.862000000000000E-01     -3.995898000000000E+01      3.723297000000000E-01     -1.489453000000000E+02      7.336121000000000E-01     -7.508203000000000E+01
4843000000.000000      7.029724000000000E-01     -1.659375000000000E+02      3.871918000000000E-01     -4.048242000000000E+01      3.744354000000000E-01     -1.491562000000000E+02      7.377014000000000E-01     -7.501171000000000E+01
4844000000.000000      7.098389000000000E-01     -1.658906000000000E+02      3.876648000000000E-01     -4.079102000000000E+01      3.751526000000000E-01     -1.493125000000000E+02      7.420959000000000E-01     -7.516796000000000E+01
4845000000.000000      7.161865000000000E-01     -1.658516000000000E+02      3.886871000000000E-01     -4.139062000000000E+01      3.777924000000000E-01     -1.494609000000000E+02      7.456360000000000E-01     -7.495703000000000E+01
4846000000.000000      7.236328000000000E-01     -1.657422000000000E+02      3.892975000000000E-01     -4.199023000000000E+01      3.796692000000000E-01     -1.496719000000000E+02      7.499390000000000E-01     -7.504687000000000E+01
4847000000.000000      7.320862000000000E-01     -1.658125000000000E+02      3.896484000000000E-01     -4.253515000000000E+01      3.813324000000000E-01     -1.498516000000000E+02      7.555847000000000E-01     -7.510156000000000E+01
4848000000.000000      7.388916000000000E-01     -1.657500000000000E+02      3.896790000000000E-01     -4.302539000000000E+01      3.820190000000000E-01     -1.500234000000000E+02      7.595520000000000E-01     -7.513672000000000E+01
4849000000.000000      7.452087000000000E-01     -1.660234000000000E+02      3.922577000000000E-01     -4.370117000000000E+01      3.842926000000000E-01     -1.501406000000000E+02      7.640381000000000E-01     -7.506249000000000E+01
4850000000.000000      7.529602000000000E-01     -1.658281000000000E+02      3.916779000000000E-01     -4.411523000000000E+01      3.854828000000000E-01     -1.503203000000000E+02      7.678528000000000E-01     -7.512500000000000E+01
4851000000.000000      7.598572000000000E-01     -1.658359000000000E+02      3.921814000000000E-01     -4.472070000000000E+01      3.868713000000000E-01     -1.505234000000000E+02      7.734680000000000E-01     -7.516406000000000E+01
4852000000.000000      7.670593000000000E-01     -1.658828000000000E+02      3.916626000000000E-01     -4.517383000000000E+01      3.881989000000000E-01     -1.506406000000000E+02      7.769165000000000E-01     -7.515234000000000E+01
4853000000.000000      7.739563000000000E-01     -1.658359000000000E+02      3.911896000000000E-01     -4.578711000000000E+01      3.900299000000000E-01     -1.508594000000000E+02      7.833862000000000E-01     -7.536718000000000E+01
4854000000.000000      7.796936000000000E-01     -1.658750000000000E+02      3.912354000000000E-01     -4.641602000000000E+01      3.908081000000000E-01     -1.509687000000000E+02      7.875977000000000E-01     -7.526953000000000E+01
4855000000.000000      7.839050000000000E-01     -1.658906000000000E+02      3.911133000000000E-01     -4.678711000000000E+01      3.920135000000000E-01     -1.510859000000000E+02      7.899170000000000E-01     -7.531250000000000E+01
4856000000.000000      7.934265000000000E-01     -1.658125000000000E+02      3.905792000000000E-01     -4.703711000000000E+01      3.931732000000000E-01     -1.513125000000000E+02      7.964172000000000E-01     -7.544922000000000E+01
4857000000.000000      7.984009000000000E-01     -1.659922000000000E+02      3.915405000000000E-01     -4.758203000000000E+01      3.944702000000000E-01     -1.513750000000000E+02      8.008118000000000E-01     -7.547656000000000E+01
4858000000.000000      8.023682000000000E-01     -1.659531000000000E+02      3.907623000000000E-01     -4.808398000000000E+01      3.948975000000000E-01     -1.515625000000000E+02      8.055115000000000E-01     -7.553124000000000E+01
4859000000.000000      8.094788000000000E-01     -1.660078000000000E+02      3.904114000000000E-01     -4.852734000000000E+01      3.966675000000000E-01     -1.518203000000000E+02      8.108826000000000E-01     -7.565234000000000E+01
4860000000.000000      8.167419000000000E-01     -1.658906000000000E+02      3.898621000000000E-01     -4.900195000000000E+01      3.975525000000000E-01     -1.518984000000000E+02      8.153076000000000E-01     -7.558203000000000E+01
4861000000.000000      8.217163000000000E-01     -1.658516000000000E+02      3.889923000000000E-01     -4.955468000000000E+01      3.986969000000000E-01     -1.520937000000000E+02      8.202515000000000E-01     -7.574219000000000E+01
4862000000.000000      8.261414000000000E-01     -1.659765000000000E+02      3.881836000000000E-01     -4.989062000000000E+01      3.998260000000000E-01     -1.521719000000000E+02      8.259277000000000E-01     -7.564843000000000E+01
4863000000.000000      8.320923000000000E-01     -1.660391000000000E+02      3.862762000000000E-01     -5.043359000000000E+01      4.007416000000000E-01     -1.523594000000000E+02      8.305969000000000E-01     -7.583202000000000E+01
4864000000.000000      8.378906000000000E-01     -1.660547000000000E+02      3.859406000000000E-01     -5.061523000000000E+01      4.003601000000000E-01     -1.525000000000000E+02      8.337097000000000E-01     -7.596874000000000E+01
4865000000.000000      8.421021000000000E-01     -1.661484000000000E+02      3.850250000000000E-01     -5.103516000000000E+01      4.016724000000000E-01     -1.526953000000000E+02      8.395386000000000E-01     -7.592187000000000E+01
4866000000.000000      8.455200000000000E-01     -1.660000000000000E+02      3.836670000000000E-01     -5.148046000000000E+01      4.027100000000000E-01     -1.528047000000000E+02      8.436279000000000E-01     -7.600390000000000E+01
4867000000.000000      8.519897000000000E-01     -1.660625000000000E+02      3.838043000000000E-01     -5.197656000000000E+01      4.034119000000000E-01     -1.529844000000000E+02      8.486938000000000E-01     -7.605469000000000E+01
4868000000.000000      8.546448000000000E-01     -1.661094000000000E+02      3.816528000000000E-01     -5.227734000000000E+01      4.044189000000000E-01     -1.531406000000000E+02      8.523254000000000E-01     -7.611718000000000E+01
4869000000.000000      8.590698000000000E-01     -1.659375000000000E+02      3.789215000000000E-01     -5.267578000000000E+01      4.050751000000000E-01     -1.532891000000000E+02      8.589478000000000E-01     -7.644140000000000E+01
4870000000.000000      8.613586000000000E-01     -1.660703000000000E+02      3.800201000000000E-01     -5.267578000000000E+01      4.052582000000000E-01     -1.535234000000000E+02      8.626099000000000E-01     -7.650781000000000E+01
4871000000.000000      8.683167000000000E-01     -1.660547000000000E+02      3.779449000000000E-01     -5.323047000000000E+01      4.051971000000000E-01     -1.536719000000000E+02      8.666077000000000E-01     -7.660546000000000E+01
4872000000.000000      8.720398000000000E-01     -1.659453000000000E+02      3.761292000000000E-01     -5.350195000000000E+01      4.063721000000000E-01     -1.539297000000000E+02      8.723755000000000E-01     -7.660546000000000E+01
4873000000.000000      8.732605000000000E-01     -1.658750000000000E+02      3.746796000000000E-01     -5.385156000000000E+01      4.055786000000000E-01     -1.539531000000000E+02      8.757935000000000E-01     -7.673046000000000E+01
4874000000.000000      8.762512000000000E-01     -1.658672000000000E+02      3.737793000000000E-01     -5.410156000000000E+01      4.076385000000000E-01     -1.540234000000000E+02      8.799133000000000E-01     -7.680469000000000E+01
4875000000.000000      8.817444000000000E-01     -1.659922000000000E+02      3.719482000000000E-01     -5.428905000000000E+01      4.077454000000000E-01     -1.543281000000000E+02      8.837891000000000E-01     -7.696484000000000E+01
4876000000.000000      8.821106000000000E-01     -1.659141000000000E+02      3.696289000000000E-01     -5.462109000000000E+01      4.068298000000000E-01     -1.544609000000000E+02      8.865356000000000E-01     -7.711719000000000E+01
4877000000.000000      8.861694000000000E-01     -1.658906000000000E+02      3.696136000000000E-01     -5.472265000000000E+01      4.080353000000000E-01     -1.546406000000000E+02      8.920898000000000E-01     -7.723827000000000E+01
4878000000.000000      8.863525000000000E-01     -1.657344000000000E+02      3.687744000000000E-01     -5.512304000000000E+01      4.078369000000000E-01     -1.545938000000000E+02      8.969727000000000E-01     -7.744922000000000E+01
4879000000.000000      8.914185000000000E-01     -1.657891000000000E+02      3.663177000000000E-01     -5.519140000000000E+01      4.079742000000000E-01     -1.548828000000000E+02      8.994446000000000E-01     -7.736718000000000E+01
4880000000.000000      8.920898000000000E-01     -1.655547000000000E+02      3.653870000000000E-01     -5.544922000000000E+01      4.085083000000000E-01     -1.549219000000000E+02      9.035645000000000E-01     -7.749609000000000E+01
4881000000.000000      8.962097000000000E-01     -1.655547000000000E+02      3.644257000000000E-01     -5.543359000000000E+01      4.088440000000000E-01     -1.551563000000000E+02      9.074402000000000E-01     -7.766796000000000E+01
4882000000.000000      8.951111000000000E-01     -1.653672000000000E+02      3.627472000000000E-01     -5.584374000000000E+01      4.084778000000000E-01     -1.552500000000000E+02      9.098511000000000E-01     -7.778906000000000E+01
