! Network Analyzer HP8722D
! Hewlett-Packard
! Data name: Linha & Wilkinson
! Saver's name: Rodrigo Anjos
! Comments: Teste da utilização de aquisição
continua pelo VNA HP8722D
! Time and date: 8/5/2025 13:45
!              Frequency                     S11                                                   S21                                                   S12                                                   S22
# HZ  S  MA R 50
4800000000.000000      5.306396000000000E-01     -2.544434000000000E+01      3.705902000000000E-01     -1.501406000000000E+02      3.886566000000000E-01      9.357422000000000E+00      4.980927000000000E-01      1.035461000000000E+00
4801000000.000000      5.303345000000000E-01     -2.501953000000000E+01      3.739471000000000E-01     -1.504688000000000E+02      3.927307000000000E-01      8.953613000000000E+00      4.960480000000000E-01      1.047791000000000E+00
4802000000.000000      5.290222000000000E-01     -2.470215000000000E+01      3.769379000000000E-01     -1.506250000000000E+02      3.954163000000000E-01      8.901367000000000E+00      4.897156000000000E-01      1.452942000000000E+00
4803000000.000000      5.278625000000000E-01     -2.458887000000000E+01      3.834991000000000E-01     -1.513750000000000E+02      4.003601000000000E-01      8.583984000000000E+00      4.817047000000000E-01      1.382874000000000E+00
4804000000.000000      5.268250000000000E-01     -2.412109000000000E+01      3.866425000000000E-01     -1.516250000000000E+02      4.062653000000000E-01      8.481445000000000E+00      4.762421000000000E-01      1.549072000000000E+00
4805000000.000000      5.270691000000000E-01     -2.387109000000000E+01      3.897400000000000E-01     -1.518516000000000E+02      4.083862000000000E-01      8.686035000000000E+00      4.696808000000000E-01      1.562805000000000E+00
4806000000.000000      5.245361000000000E-01     -2.384472000000000E+01      3.932037000000000E-01     -1.524141000000000E+02      4.108582000000000E-01      8.569336000000000E+00      4.619904000000000E-01      1.479004000000000E+00
4807000000.000000      5.230713000000000E-01     -2.352637000000000E+01      3.986969000000000E-01     -1.529140000000000E+02      4.143829000000000E-01      8.020996000000000E+00      4.546356000000000E-01      1.871765000000000E+00
4808000000.000000      5.209351000000000E-01     -2.312695000000000E+01      4.021149000000000E-01     -1.531172000000000E+02      4.177094000000000E-01      8.096680000000000E+00      4.486084000000000E-01      2.041992000000000E+00
4809000000.000000      5.206299000000000E-01     -2.291894000000000E+01      4.064941000000000E-01     -1.539453000000000E+02      4.247894000000000E-01      7.686279000000000E+00      4.405518000000000E-01      2.407349000000000E+00
4810000000.000000      5.210876000000000E-01     -2.279980000000000E+01      4.094391000000000E-01     -1.538437000000000E+02      4.274902000000000E-01      7.761719000000000E+00      4.337769000000000E-01      2.305664000000000E+00
4811000000.000000      5.184021000000000E-01     -2.243457000000000E+01      4.142761000000000E-01     -1.546953000000000E+02      4.306030000000000E-01      7.668457000000000E+00      4.265137000000000E-01      2.649048000000000E+00
4812000000.000000      5.201416000000000E-01     -2.231934000000000E+01      4.160004000000000E-01     -1.549297000000000E+02      4.337769000000000E-01      7.456787000000000E+00      4.179230000000000E-01      2.662720000000000E+00
4813000000.000000      5.158997000000000E-01     -2.200781000000000E+01      4.192505000000000E-01     -1.554922000000000E+02      4.373322000000000E-01      7.158936000000000E+00      4.112091000000000E-01      3.181885000000000E+00
4814000000.000000      5.146790000000000E-01     -2.203125000000000E+01      4.246216000000000E-01     -1.558984000000000E+02      4.418030000000000E-01      7.169922000000000E+00      4.016266000000000E-01      3.306885000000000E+00
4815000000.000000      5.141296000000000E-01     -2.173438000000000E+01      4.261627000000000E-01     -1.563437000000000E+02      4.440308000000000E-01      7.174072000000000E+00      3.944550000000000E-01      3.648804000000000E+00
4816000000.000000      5.124817000000000E-01     -2.163965000000000E+01      4.303741000000000E-01     -1.566562000000000E+02      4.480133000000000E-01      7.149170000000000E+00      3.873138000000000E-01      3.915161000000000E+00
4817000000.000000      5.109863000000000E-01     -2.126465000000000E+01      4.324341000000000E-01     -1.572969000000000E+02      4.497375000000000E-01      6.759277000000000E+00      3.769073000000000E-01      4.420410000000000E+00
4818000000.000000      5.103760000000000E-01     -2.122363000000000E+01      4.348450000000000E-01     -1.577109000000000E+02      4.559784000000000E-01      6.718018000000000E+00      3.676910000000000E-01      4.610107000000000E+00
4819000000.000000      5.070801000000000E-01     -2.118457000000000E+01      4.389343000000000E-01     -1.581875000000000E+02      4.584656000000000E-01      6.661621000000000E+00      3.589630000000000E-01      4.873779000000000E+00
4820000000.000000      5.080261000000000E-01     -2.079492000000000E+01      4.422302000000000E-01     -1.584687000000000E+02      4.629669000000000E-01      6.304688000000000E+00      3.507385000000000E-01      5.409180000000000E+00
4821000000.000000      5.064697000000000E-01     -2.083594000000000E+01      4.448853000000000E-01     -1.592969000000000E+02      4.633331000000000E-01      6.200195000000000E+00      3.413239000000000E-01      5.932617000000000E+00
4822000000.000000      5.041809000000000E-01     -2.068359000000000E+01      4.458466000000000E-01     -1.594063000000000E+02      4.654236000000000E-01      5.911865000000000E+00      3.327026000000000E-01      6.237305000000000E+00
4823000000.000000      5.039978000000000E-01     -2.045410000000000E+01      4.497681000000000E-01     -1.601719000000000E+02      4.703522000000000E-01      5.987549000000000E+00      3.233948000000000E-01      6.691895000000000E+00
4824000000.000000      5.014038000000000E-01     -2.022656000000000E+01      4.517975000000000E-01     -1.603594000000000E+02      4.751129000000000E-01      5.657959000000000E+00      3.134308000000000E-01      7.226074000000000E+00
4825000000.000000      4.988556000000000E-01     -2.018261000000000E+01      4.555511000000000E-01     -1.608438000000000E+02      4.781036000000000E-01      5.683838000000000E+00      3.061371000000000E-01      7.930664000000000E+00
4826000000.000000      4.981689000000000E-01     -2.024316000000000E+01      4.573212000000000E-01     -1.614766000000000E+02      4.796600000000000E-01      5.359863000000000E+00      2.962036000000000E-01      8.555176000000000E+00
4827000000.000000      4.944305000000000E-01     -1.967187000000000E+01      4.587097000000000E-01     -1.619141000000000E+02      4.837189000000000E-01      5.142822000000000E+00      2.872925000000000E-01      9.205078000000000E+00
4828000000.000000      4.962769000000000E-01     -1.997363000000000E+01      4.620361000000000E-01     -1.625469000000000E+02      4.876251000000000E-01      5.192383000000000E+00      2.776031000000000E-01      9.854492000000000E+00
4829000000.000000      4.932098000000000E-01     -1.952051000000000E+01      4.652405000000000E-01     -1.629062000000000E+02      4.897156000000000E-01      5.072754000000000E+00      2.698822000000000E-01      1.100928000000000E+01
4830000000.000000      4.924622000000000E-01     -1.941015000000000E+01      4.650421000000000E-01     -1.632422000000000E+02      4.931030000000000E-01      4.913574000000000E+00      2.588654000000000E-01      1.209180000000000E+01
4831000000.000000      4.901123000000000E-01     -1.944336000000000E+01      4.671936000000000E-01     -1.639062000000000E+02      4.971313000000000E-01      4.721191000000000E+00      2.497330000000000E-01      1.292773000000000E+01
4832000000.000000      4.884949000000000E-01     -1.923340000000000E+01      4.703827000000000E-01     -1.641484000000000E+02      4.982758000000000E-01      4.524902000000000E+00      2.401123000000000E-01      1.445801000000000E+01
4833000000.000000      4.866333000000000E-01     -1.908496000000000E+01      4.719391000000000E-01     -1.646719000000000E+02      5.010071000000000E-01      4.296875000000000E+00      2.311707000000000E-01      1.557129000000000E+01
4834000000.000000      4.832764000000000E-01     -1.887500000000000E+01      4.732056000000000E-01     -1.650391000000000E+02      5.040588000000000E-01      4.166504000000000E+00      2.227707000000000E-01      1.705762000000000E+01
4835000000.000000      4.827271000000000E-01     -1.876269000000000E+01      4.758606000000000E-01     -1.655078000000000E+02      5.069885000000000E-01      4.100586000000000E+00      2.143250000000000E-01      1.861621000000000E+01
4836000000.000000      4.812622000000000E-01     -1.845605000000000E+01      4.760132000000000E-01     -1.658984000000000E+02      5.079651000000000E-01      4.105957000000000E+00      2.045670000000000E-01      2.042480000000000E+01
4837000000.000000      4.800873000000000E-01     -1.852246000000000E+01      4.778748000000000E-01     -1.665547000000000E+02      5.106201000000000E-01      3.641968000000000E+00      1.967087000000000E-01      2.228125000000000E+01
4838000000.000000      4.782867000000000E-01     -1.833691000000000E+01      4.803162000000000E-01     -1.668281000000000E+02      5.146790000000000E-01      3.558105000000000E+00      1.888657000000000E-01      2.432226000000000E+01
4839000000.000000      4.789429000000000E-01     -1.794238000000000E+01      4.821167000000000E-01     -1.672422000000000E+02      5.182495000000000E-01      3.408447000000000E+00      1.826096000000000E-01      2.635449000000000E+01
4840000000.000000      4.746552000000000E-01     -1.814551000000000E+01      4.825897000000000E-01     -1.676328000000000E+02      5.192871000000000E-01      3.391968000000000E+00      1.740112000000000E-01      2.878808000000000E+01
4841000000.000000      4.743195000000000E-01     -1.776367000000000E+01      4.850464000000000E-01     -1.680391000000000E+02      5.217590000000000E-01      3.043213000000000E+00      1.682358000000000E-01      3.189941000000000E+01
4842000000.000000      4.714813000000000E-01     -1.739160000000000E+01      4.870605000000000E-01     -1.683906000000000E+02      5.231628000000000E-01      3.083008000000000E+00      1.623535000000000E-01      3.489648000000000E+01
4843000000.000000      4.703827000000000E-01     -1.736621000000000E+01      4.871216000000000E-01     -1.690391000000000E+02      5.269470000000000E-01      2.850952000000000E+00      1.556778000000000E-01      3.841211000000000E+01
4844000000.000000      4.702911000000000E-01     -1.702344000000000E+01      4.876862000000000E-01     -1.691015000000000E+02      5.274048000000000E-01      2.492432000000000E+00      1.492386000000000E-01      4.190039000000000E+01
4845000000.000000      4.693146000000000E-01     -1.698144000000000E+01      4.886017000000000E-01     -1.697031000000000E+02      5.305481000000000E-01      2.333130000000000E+00      1.465149000000000E-01      4.549024000000000E+01
4846000000.000000      4.674225000000000E-01     -1.646777000000000E+01      4.906769000000000E-01     -1.700781000000000E+02      5.333862000000000E-01      2.242554000000000E+00      1.426315000000000E-01      4.943554000000000E+01
4847000000.000000      4.661407000000000E-01     -1.638476000000000E+01      4.921112000000000E-01     -1.704297000000000E+02      5.347595000000000E-01      2.105225000000000E+00      1.388245000000000E-01      5.353516000000000E+01
4848000000.000000      4.646912000000000E-01     -1.608301000000000E+01      4.924622000000000E-01     -1.708281000000000E+02      5.368347000000000E-01      1.800354000000000E+00      1.385574000000000E-01      5.761719000000000E+01
4849000000.000000      4.634705000000000E-01     -1.610352000000000E+01      4.939575000000000E-01     -1.714219000000000E+02      5.384827000000000E-01      1.658936000000000E+00      1.362610000000000E-01      6.197851000000000E+01
4850000000.000000      4.633636000000000E-01     -1.569141000000000E+01      4.931793000000000E-01     -1.715781000000000E+02      5.404358000000000E-01      1.543579000000000E+00      1.369781000000000E-01      6.629687000000000E+01
4851000000.000000      4.594269000000000E-01     -1.540576000000000E+01      4.965820000000000E-01     -1.719375000000000E+02      5.411682000000000E-01      1.382874000000000E+00      1.374207000000000E-01      7.050390000000000E+01
4852000000.000000      4.613190000000000E-01     -1.522314000000000E+01      4.952850000000000E-01     -1.724297000000000E+02      5.434570000000000E-01      1.264771000000000E+00      1.386490000000000E-01      7.453125000000000E+01
4853000000.000000      4.602966000000000E-01     -1.495264000000000E+01      4.946136000000000E-01     -1.728672000000000E+02      5.455322000000000E-01      1.071167000000000E+00      1.408386000000000E-01      7.850780000000000E+01
4854000000.000000      4.607239000000000E-01     -1.459570000000000E+01      4.971008000000000E-01     -1.731875000000000E+02      5.471497000000000E-01      9.654236000000000E-01      1.444702000000000E-01      8.201172000000000E+01
4855000000.000000      4.597015000000000E-01     -1.433203000000000E+01      4.986725000000000E-01     -1.735547000000000E+02      5.456238000000000E-01      7.566833000000000E-01      1.475449000000000E-01      8.577343000000000E+01
4856000000.000000      4.588623000000000E-01     -1.436914000000000E+01      4.986572000000000E-01     -1.739766000000000E+02      5.483704000000000E-01      4.586792000000000E-01      1.524200000000000E-01      8.911718000000000E+01
4857000000.000000      4.575653000000000E-01     -1.373291000000000E+01      5.000305000000000E-01     -1.740703000000000E+02      5.492859000000000E-01      3.240967000000000E-01      1.556549000000000E-01      9.215235000000000E+01
4858000000.000000      4.575348000000000E-01     -1.359863000000000E+01      5.018311000000000E-01     -1.743828000000000E+02      5.494995000000000E-01      2.389526000000000E-01      1.612396000000000E-01      9.491796000000000E+01
4859000000.000000      4.587860000000000E-01     -1.348730000000000E+01      5.014954000000000E-01     -1.749219000000000E+02      5.510254000000000E-01      2.883911000000000E-01      1.670532000000000E-01      9.734764000000000E+01
4860000000.000000      4.593964000000000E-01     -1.296289000000000E+01      5.023193000000000E-01     -1.750078000000000E+02      5.510559000000000E-01     -1.620483000000000E-01      1.737366000000000E-01      9.962891000000000E+01
4861000000.000000      4.589996000000000E-01     -1.280225000000000E+01      5.036926000000000E-01     -1.756250000000000E+02      5.539551000000000E-01     -2.746582000000000E-01      1.782532000000000E-01      1.018242000000000E+02
4862000000.000000      4.619751000000000E-01     -1.243555000000000E+01      5.041199000000000E-01     -1.759766000000000E+02      5.542908000000000E-01     -3.213501000000000E-01      1.843643000000000E-01      1.031172000000000E+02
4863000000.000000      4.612885000000000E-01     -1.192432000000000E+01      5.039368000000000E-01     -1.763828000000000E+02      5.534363000000000E-01     -5.850220000000000E-01      1.930695000000000E-01      1.048633000000000E+02
4864000000.000000      4.598846000000000E-01     -1.177197000000000E+01      5.074158000000000E-01     -1.766016000000000E+02      5.538330000000000E-01     -4.353333000000000E-01      1.980743000000000E-01      1.070078000000000E+02
4865000000.000000      4.621582000000000E-01     -1.154980000000000E+01      5.053101000000000E-01     -1.767969000000000E+02      5.546265000000000E-01     -7.662964000000000E-01      2.032089000000000E-01      1.077266000000000E+02
4866000000.000000      4.642639000000000E-01     -1.139014000000000E+01      5.068970000000000E-01     -1.771797000000000E+02      5.545349000000000E-01     -9.461975000000000E-01      2.095108000000000E-01      1.091445000000000E+02
4867000000.000000      4.646759000000000E-01     -1.097559000000000E+01      5.055847000000000E-01     -1.777578000000000E+02      5.543213000000000E-01     -8.679199000000000E-01      2.154770000000000E-01      1.100937000000000E+02
4868000000.000000      4.670410000000000E-01     -1.100293000000000E+01      5.079041000000000E-01     -1.781406000000000E+02      5.551453000000000E-01     -1.196167000000000E+00      2.228317000000000E-01      1.112461000000000E+02
4869000000.000000      4.701385000000000E-01     -1.058691000000000E+01      5.090637000000000E-01     -1.783906000000000E+02      5.545654000000000E-01     -1.248352000000000E+00      2.276840000000000E-01      1.120937000000000E+02
4870000000.000000      4.701080000000000E-01     -1.025195000000000E+01      5.094910000000000E-01     -1.786484000000000E+02      5.546265000000000E-01     -1.267578000000000E+00      2.332764000000000E-01      1.133125000000000E+02
4871000000.000000      4.730530000000000E-01     -1.002686000000000E+01      5.094604000000000E-01     -1.792500000000000E+02      5.550842000000000E-01     -1.366455000000000E+00      2.406082000000000E-01      1.139726000000000E+02
4872000000.000000      4.744873000000000E-01     -9.743652000000000E+00      5.100403000000000E-01     -1.793516000000000E+02      5.523987000000000E-01     -1.506531000000000E+00      2.468491000000000E-01      1.143750000000000E+02
4873000000.000000      4.779510000000000E-01     -9.554199000000000E+00      5.125427000000000E-01     -1.797812000000000E+02      5.547485000000000E-01     -1.698792000000000E+00      2.509613000000000E-01      1.150742000000000E+02
4874000000.000000      4.796600000000000E-01     -9.324707000000000E+00      5.113220000000000E-01      1.798281000000000E+02      5.566406000000000E-01     -1.617737000000000E+00      2.569733000000000E-01      1.153828000000000E+02
4875000000.000000      4.829712000000000E-01     -9.238281000000000E+00      5.121155000000000E-01      1.795625000000000E+02      5.545654000000000E-01     -1.544983000000000E+00      2.617950000000000E-01      1.160664000000000E+02
4876000000.000000      4.852600000000000E-01     -9.043457000000000E+00      5.140381000000000E-01      1.789453000000000E+02      5.555725000000000E-01     -1.756470000000000E+00      2.685547000000000E-01      1.163867000000000E+02
4877000000.000000      4.888000000000000E-01     -8.907227000000000E+00      5.143433000000000E-01      1.787266000000000E+02      5.543518000000000E-01     -1.897888000000000E+00      2.735596000000000E-01      1.167891000000000E+02
4878000000.000000      4.888458000000000E-01     -8.810059000000000E+00      5.154724000000000E-01      1.784062000000000E+02      5.522766000000000E-01     -1.908875000000000E+00      2.774506000000000E-01      1.171484000000000E+02
4879000000.000000      4.940948000000000E-01     -8.598633000000000E+00      5.144043000000000E-01      1.781250000000000E+02      5.538025000000000E-01     -1.884155000000000E+00      2.834625000000000E-01      1.174805000000000E+02
4880000000.000000      4.970398000000000E-01     -8.687500000000000E+00      5.168762000000000E-01      1.774531000000000E+02      5.519714000000000E-01     -1.985779000000000E+00      2.865906000000000E-01      1.179531000000000E+02
4881000000.000000      4.985657000000000E-01     -8.163086000000000E+00      5.174255000000000E-01      1.773047000000000E+02      5.527954000000000E-01     -2.068237000000000E+00      2.925262000000000E-01      1.181094000000000E+02
4882000000.000000      5.025330000000000E-01     -8.304688000000000E+00      5.189209000000000E-01      1.768359000000000E+02      5.529785000000000E-01     -2.036621000000000E+00      2.969818000000000E-01      1.182109000000000E+02
