! Network Analyzer HP8722D
! Hewlett-Packard
! Data name: Linha & Wilkinson
! Saver's name: Rodrigo Anjos
! Comments: Teste da utilização de aquisição
continua pelo VNA HP8722D
! Time and date: 8/5/2025 13:49
!              Frequency                     S11                                                   S21                                                   S12                                                   S22
# HZ  S  MA R 50
4800000000.000000      5.301819000000000E-01     -2.535937000000000E+01      3.705444000000000E-01     -1.501797000000000E+02      3.902893000000000E-01      9.080078000000000E+00      4.985962000000000E-01      9.846497000000000E-01
4801000000.000000      5.296326000000000E-01     -2.488770000000000E+01      3.761444000000000E-01     -1.504609000000000E+02      3.927765000000000E-01      9.020996000000000E+00      4.933167000000000E-01      1.112366000000000E+00
4802000000.000000      5.285645000000000E-01     -2.483496000000000E+01      3.794250000000000E-01     -1.508047000000000E+02      3.978882000000000E-01      8.746094000000000E+00      4.886169000000000E-01      1.341675000000000E+00
4803000000.000000      5.263367000000000E-01     -2.443945000000000E+01      3.855438000000000E-01     -1.513438000000000E+02      4.007568000000000E-01      8.799805000000000E+00      4.827881000000000E-01      1.376038000000000E+00
4804000000.000000      5.267334000000000E-01     -2.412109000000000E+01      3.879852000000000E-01     -1.517812000000000E+02      4.054871000000000E-01      8.386230000000000E+00      4.748535000000000E-01      1.524353000000000E+00
4805000000.000000      5.261841000000000E-01     -2.388184000000000E+01      3.912048000000000E-01     -1.521797000000000E+02      4.084167000000000E-01      8.167969000000000E+00      4.690094000000000E-01      1.726196000000000E+00
4806000000.000000      5.248413000000000E-01     -2.366797000000000E+01      3.957367000000000E-01     -1.525938000000000E+02      4.126129000000000E-01      8.360352000000000E+00      4.607697000000000E-01      1.620483000000000E+00
4807000000.000000      5.217896000000000E-01     -2.346972000000000E+01      3.983154000000000E-01     -1.532109000000000E+02      4.160004000000000E-01      7.871582000000000E+00      4.537201000000000E-01      1.890991000000000E+00
4808000000.000000      5.207214000000000E-01     -2.324609000000000E+01      4.018097000000000E-01     -1.532578000000000E+02      4.195099000000000E-01      7.754883000000000E+00      4.473267000000000E-01      2.055786000000000E+00
4809000000.000000      5.210571000000000E-01     -2.292480000000000E+01      4.068909000000000E-01     -1.538359000000000E+02      4.249268000000000E-01      7.535156000000000E+00      4.400482000000000E-01      2.386719000000000E+00
4810000000.000000      5.203857000000000E-01     -2.281738000000000E+01      4.102173000000000E-01     -1.543281000000000E+02      4.279480000000000E-01      7.592773000000000E+00      4.329224000000000E-01      2.231567000000000E+00
4811000000.000000      5.196228000000000E-01     -2.254297000000000E+01      4.135284000000000E-01     -1.547656000000000E+02      4.311523000000000E-01      7.568115000000000E+00      4.253387000000000E-01      2.650391000000000E+00
4812000000.000000      5.197449000000000E-01     -2.234766000000000E+01      4.201508000000000E-01     -1.550859000000000E+02      4.350281000000000E-01      7.362061000000000E+00      4.176788000000000E-01      2.654541000000000E+00
4813000000.000000      5.171814000000000E-01     -2.213965000000000E+01      4.206696000000000E-01     -1.555625000000000E+02      4.393463000000000E-01      7.270020000000000E+00      4.099884000000000E-01      3.316406000000000E+00
4814000000.000000      5.143127000000000E-01     -2.187012000000000E+01      4.237366000000000E-01     -1.559297000000000E+02      4.429474000000000E-01      7.087402000000000E+00      4.014740000000000E-01      3.250488000000000E+00
4815000000.000000      5.140381000000000E-01     -2.163281000000000E+01      4.271393000000000E-01     -1.565938000000000E+02      4.447021000000000E-01      6.917236000000000E+00      3.940430000000000E-01      3.720215000000000E+00
4816000000.000000      5.109863000000000E-01     -2.150488000000000E+01      4.308624000000000E-01     -1.568750000000000E+02      4.490967000000000E-01      6.789551000000000E+00      3.859863000000000E-01      3.909668000000000E+00
4817000000.000000      5.099487000000000E-01     -2.123145000000000E+01      4.342194000000000E-01     -1.574687000000000E+02      4.518738000000000E-01      6.739990000000000E+00      3.751373000000000E-01      4.430176000000000E+00
4818000000.000000      5.090942000000000E-01     -2.131543000000000E+01      4.356232000000000E-01     -1.577891000000000E+02      4.563293000000000E-01      6.511963000000000E+00      3.670959000000000E-01      4.648438000000000E+00
4819000000.000000      5.072632000000000E-01     -2.087695000000000E+01      4.396820000000000E-01     -1.584453000000000E+02      4.602814000000000E-01      6.291016000000000E+00      3.575134000000000E-01      4.810547000000000E+00
4820000000.000000      5.062256000000000E-01     -2.084473000000000E+01      4.425049000000000E-01     -1.588281000000000E+02      4.624176000000000E-01      6.247070000000000E+00      3.498840000000000E-01      5.484863000000000E+00
4821000000.000000      5.045166000000000E-01     -2.049511000000000E+01      4.456940000000000E-01     -1.593828000000000E+02      4.646759000000000E-01      5.962646000000000E+00      3.399048000000000E-01      6.023193000000000E+00
4822000000.000000      5.054932000000000E-01     -2.062207000000000E+01      4.465790000000000E-01     -1.597734000000000E+02      4.680328000000000E-01      5.727783000000000E+00      3.317413000000000E-01      6.273193000000000E+00
4823000000.000000      5.019531000000000E-01     -2.031836000000000E+01      4.505005000000000E-01     -1.601016000000000E+02      4.727631000000000E-01      5.744385000000000E+00      3.222351000000000E-01      6.847168000000000E+00
4824000000.000000      5.005493000000000E-01     -2.026172000000000E+01      4.531250000000000E-01     -1.606953000000000E+02      4.749603000000000E-01      5.519043000000000E+00      3.124390000000000E-01      7.302979000000000E+00
4825000000.000000      5.006104000000000E-01     -2.015918000000000E+01      4.552155000000000E-01     -1.610781000000000E+02      4.792786000000000E-01      5.494385000000000E+00      3.046112000000000E-01      7.968994000000000E+00
4826000000.000000      4.963837000000000E-01     -2.009570000000000E+01      4.582977000000000E-01     -1.617109000000000E+02      4.808807000000000E-01      5.276123000000000E+00      2.951050000000000E-01      8.576172000000000E+00
4827000000.000000      4.961853000000000E-01     -1.981543000000000E+01      4.597321000000000E-01     -1.618515000000000E+02      4.835968000000000E-01      5.155273000000000E+00      2.861786000000000E-01      9.411133000000000E+00
4828000000.000000      4.946289000000000E-01     -1.969727000000000E+01      4.637909000000000E-01     -1.623750000000000E+02      4.887238000000000E-01      4.817383000000000E+00      2.769012000000000E-01      1.003320000000000E+01
4829000000.000000      4.917603000000000E-01     -1.935840000000000E+01      4.649506000000000E-01     -1.629766000000000E+02      4.898834000000000E-01      4.859863000000000E+00      2.686462000000000E-01      1.131982000000000E+01
4830000000.000000      4.927673000000000E-01     -1.936426000000000E+01      4.676666000000000E-01     -1.634844000000000E+02      4.931335000000000E-01      4.654053000000000E+00      2.574158000000000E-01      1.217529000000000E+01
4831000000.000000      4.911041000000000E-01     -1.940820000000000E+01      4.683685000000000E-01     -1.640703000000000E+02      4.965668000000000E-01      4.564697000000000E+00      2.491837000000000E-01      1.309424000000000E+01
4832000000.000000      4.890442000000000E-01     -1.905078000000000E+01      4.703522000000000E-01     -1.643906000000000E+02      4.991455000000000E-01      4.406738000000000E+00      2.386093000000000E-01      1.462939000000000E+01
4833000000.000000      4.860535000000000E-01     -1.895703000000000E+01      4.719849000000000E-01     -1.646563000000000E+02      5.029297000000000E-01      4.104736000000000E+00      2.301102000000000E-01      1.573486000000000E+01
4834000000.000000      4.833679000000000E-01     -1.895703000000000E+01      4.738312000000000E-01     -1.652500000000000E+02      5.068359000000000E-01      4.042969000000000E+00      2.214355000000000E-01      1.729492000000000E+01
4835000000.000000      4.827576000000000E-01     -1.853027000000000E+01      4.762573000000000E-01     -1.658359000000000E+02      5.097046000000000E-01      3.933105000000000E+00      2.128601000000000E-01      1.882617000000000E+01
4836000000.000000      4.799347000000000E-01     -1.832812000000000E+01      4.766846000000000E-01     -1.661641000000000E+02      5.087891000000000E-01      3.688599000000000E+00      2.045670000000000E-01      2.084863000000000E+01
4837000000.000000      4.787903000000000E-01     -1.804688000000000E+01      4.776154000000000E-01     -1.666875000000000E+02      5.115662000000000E-01      3.422241000000000E+00      1.970062000000000E-01      2.278223000000000E+01
4838000000.000000      4.765015000000000E-01     -1.806055000000000E+01      4.827881000000000E-01     -1.667656000000000E+02      5.147705000000000E-01      3.544434000000000E+00      1.884613000000000E-01      2.460058000000000E+01
4839000000.000000      4.785156000000000E-01     -1.791504000000000E+01      4.814606000000000E-01     -1.674219000000000E+02      5.170898000000000E-01      3.227173000000000E+00      1.813278000000000E-01      2.665918000000000E+01
4840000000.000000      4.759064000000000E-01     -1.803906000000000E+01      4.838715000000000E-01     -1.677891000000000E+02      5.195618000000000E-01      3.040405000000000E+00      1.736603000000000E-01      2.923730000000000E+01
4841000000.000000      4.738464000000000E-01     -1.767871000000000E+01      4.855957000000000E-01     -1.682891000000000E+02      5.216675000000000E-01      2.853638000000000E+00      1.677551000000000E-01      3.265039000000000E+01
4842000000.000000      4.723358000000000E-01     -1.741504000000000E+01      4.856262000000000E-01     -1.686094000000000E+02      5.231934000000000E-01      2.787720000000000E+00      1.617126000000000E-01      3.558203000000000E+01
4843000000.000000      4.710541000000000E-01     -1.733789000000000E+01      4.884186000000000E-01     -1.690859000000000E+02      5.267334000000000E-01      2.599609000000000E+00      1.559372000000000E-01      3.895312000000000E+01
4844000000.000000      4.685059000000000E-01     -1.708594000000000E+01      4.889679000000000E-01     -1.695156000000000E+02      5.288391000000000E-01      2.318115000000000E+00      1.493378000000000E-01      4.239453000000000E+01
4845000000.000000      4.696808000000000E-01     -1.686816000000000E+01      4.897614000000000E-01     -1.698437000000000E+02      5.310974000000000E-01      2.219238000000000E+00      1.475677000000000E-01      4.596484000000000E+01
4846000000.000000      4.686584000000000E-01     -1.674609000000000E+01      4.896851000000000E-01     -1.702500000000000E+02      5.334778000000000E-01      2.054443000000000E+00      1.430664000000000E-01      5.017187000000000E+01
4847000000.000000      4.664917000000000E-01     -1.630664000000000E+01      4.918060000000000E-01     -1.706172000000000E+02      5.353699000000000E-01      1.809998000000000E+00      1.395874000000000E-01      5.397265000000000E+01
4848000000.000000      4.658203000000000E-01     -1.615039000000000E+01      4.913177000000000E-01     -1.708203000000000E+02      5.364380000000000E-01      1.594360000000000E+00      1.385803000000000E-01      5.848633000000000E+01
4849000000.000000      4.632111000000000E-01     -1.610547000000000E+01      4.942017000000000E-01     -1.715000000000000E+02      5.384521000000000E-01      1.321106000000000E+00      1.375046000000000E-01      6.251953000000000E+01
4850000000.000000      4.622040000000000E-01     -1.584131000000000E+01      4.944305000000000E-01     -1.717578000000000E+02      5.415649000000000E-01      1.369141000000000E+00      1.380615000000000E-01      6.685937000000000E+01
4851000000.000000      4.618835000000000E-01     -1.543066000000000E+01      4.984436000000000E-01     -1.722812000000000E+02      5.418091000000000E-01      1.245544000000000E+00      1.390076000000000E-01      7.101171000000000E+01
4852000000.000000      4.603271000000000E-01     -1.518750000000000E+01      4.972992000000000E-01     -1.724922000000000E+02      5.426025000000000E-01      1.009338000000000E+00      1.404419000000000E-01      7.479297000000000E+01
4853000000.000000      4.619751000000000E-01     -1.510938000000000E+01      4.958038000000000E-01     -1.728750000000000E+02      5.468140000000000E-01      8.514404000000000E-01      1.426697000000000E-01      7.864452000000000E+01
4854000000.000000      4.608154000000000E-01     -1.476025000000000E+01      4.983368000000000E-01     -1.733281000000000E+02      5.467834000000000E-01      8.033752000000000E-01      1.468658000000000E-01      8.221094000000000E+01
4855000000.000000      4.590912000000000E-01     -1.432227000000000E+01      4.986420000000000E-01     -1.737266000000000E+02      5.483704000000000E-01      5.108643000000000E-01      1.491852000000000E-01      8.615234000000000E+01
4856000000.000000      4.581757000000000E-01     -1.401855000000000E+01      4.987640000000000E-01     -1.738984000000000E+02      5.487366000000000E-01      2.897644000000000E-01      1.544724000000000E-01      8.907421000000000E+01
4857000000.000000      4.592438000000000E-01     -1.367139000000000E+01      5.007324000000000E-01     -1.742422000000000E+02      5.498657000000000E-01      1.716614000000000E-01      1.584320000000000E-01      9.205469000000000E+01
4858000000.000000      4.597778000000000E-01     -1.353418000000000E+01      5.027466000000000E-01     -1.748281000000000E+02      5.517578000000000E-01      4.394531000000000E-02      1.630325000000000E-01      9.483984000000000E+01
4859000000.000000      4.585876000000000E-01     -1.338135000000000E+01      5.019226000000000E-01     -1.750078000000000E+02      5.514221000000000E-01     -1.235962000000000E-01      1.691132000000000E-01      9.704296000000000E+01
4860000000.000000      4.584961000000000E-01     -1.275830000000000E+01      5.011597000000000E-01     -1.753047000000000E+02      5.525208000000000E-01     -2.664185000000000E-01      1.748734000000000E-01      9.950390000000000E+01
4861000000.000000      4.626007000000000E-01     -1.269629000000000E+01      5.022278000000000E-01     -1.757500000000000E+02      5.541077000000000E-01     -3.886414000000000E-01      1.802521000000000E-01      1.015078000000000E+02
4862000000.000000      4.597473000000000E-01     -1.251367000000000E+01      5.054016000000000E-01     -1.761641000000000E+02      5.558472000000000E-01     -4.559326000000000E-01      1.862640000000000E-01      1.036719000000000E+02
4863000000.000000      4.617767000000000E-01     -1.188867000000000E+01      5.043945000000000E-01     -1.764141000000000E+02      5.530701000000000E-01     -6.632996000000000E-01      1.918640000000000E-01      1.052539000000000E+02
4864000000.000000      4.617767000000000E-01     -1.172803000000000E+01      5.068054000000000E-01     -1.766484000000000E+02      5.551147000000000E-01     -8.129883000000000E-01      1.984024000000000E-01      1.060820000000000E+02
4865000000.000000      4.643250000000000E-01     -1.148389000000000E+01      5.069885000000000E-01     -1.771563000000000E+02      5.553894000000000E-01     -1.023132000000000E+00      2.042542000000000E-01      1.078555000000000E+02
4866000000.000000      4.652252000000000E-01     -1.135742000000000E+01      5.076904000000000E-01     -1.775234000000000E+02      5.574036000000000E-01     -1.113770000000000E+00      2.108231000000000E-01      1.091406000000000E+02
4867000000.000000      4.640503000000000E-01     -1.106494000000000E+01      5.083618000000000E-01     -1.778203000000000E+02      5.547485000000000E-01     -1.160461000000000E+00      2.171936000000000E-01      1.105000000000000E+02
4868000000.000000      4.682007000000000E-01     -1.089307000000000E+01      5.094604000000000E-01     -1.780781000000000E+02      5.561218000000000E-01     -1.311523000000000E+00      2.232285000000000E-01      1.109961000000000E+02
4869000000.000000      4.694061000000000E-01     -1.036572000000000E+01      5.100403000000000E-01     -1.785000000000000E+02      5.559692000000000E-01     -1.340332000000000E+00      2.290649000000000E-01      1.117695000000000E+02
4870000000.000000      4.722595000000000E-01     -1.040820000000000E+01      5.096130000000000E-01     -1.785781000000000E+02      5.555725000000000E-01     -1.352722000000000E+00      2.364120000000000E-01      1.131016000000000E+02
4871000000.000000      4.724274000000000E-01     -1.017334000000000E+01      5.112000000000000E-01     -1.792031000000000E+02      5.554504000000000E-01     -1.630127000000000E+00      2.414246000000000E-01      1.135547000000000E+02
4872000000.000000      4.761963000000000E-01     -9.817871000000000E+00      5.115967000000000E-01     -1.795156000000000E+02      5.538330000000000E-01     -1.691895000000000E+00      2.487869000000000E-01      1.138477000000000E+02
4873000000.000000      4.770966000000000E-01     -9.711914000000000E+00      5.119629000000000E-01      1.799141000000000E+02      5.541382000000000E-01     -1.760559000000000E+00      2.536926000000000E-01      1.147383000000000E+02
4874000000.000000      4.822235000000000E-01     -9.264648000000000E+00      5.121765000000000E-01      1.796641000000000E+02      5.550232000000000E-01     -2.013306000000000E+00      2.575226000000000E-01      1.156094000000000E+02
4875000000.000000      4.841614000000000E-01     -9.164063000000000E+00      5.140991000000000E-01      1.792031000000000E+02      5.538330000000000E-01     -1.803162000000000E+00      2.627716000000000E-01      1.157773000000000E+02
4876000000.000000      4.850616000000000E-01     -8.825195000000000E+00      5.144958000000000E-01      1.789375000000000E+02      5.544128000000000E-01     -1.873169000000000E+00      2.695313000000000E-01      1.165820000000000E+02
4877000000.000000      4.895325000000000E-01     -8.958008000000000E+00      5.136414000000000E-01      1.786797000000000E+02      5.529480000000000E-01     -2.109375000000000E+00      2.730408000000000E-01      1.165234000000000E+02
4878000000.000000      4.905243000000000E-01     -8.607910000000000E+00      5.155640000000000E-01      1.781719000000000E+02      5.528870000000000E-01     -2.022949000000000E+00      2.786865000000000E-01      1.168008000000000E+02
4879000000.000000      4.936981000000000E-01     -8.386719000000000E+00      5.166931000000000E-01      1.778750000000000E+02      5.539551000000000E-01     -2.250854000000000E+00      2.832336000000000E-01      1.172617000000000E+02
4880000000.000000      4.981232000000000E-01     -8.612305000000000E+00      5.178223000000000E-01      1.773203000000000E+02      5.522156000000000E-01     -2.235718000000000E+00      2.873535000000000E-01      1.176055000000000E+02
4881000000.000000      4.984589000000000E-01     -8.441895000000000E+00      5.187378000000000E-01      1.771641000000000E+02      5.527039000000000E-01     -2.239868000000000E+00      2.930450000000000E-01      1.176836000000000E+02
4882000000.000000      5.036926000000000E-01     -8.041016000000000E+00      5.196228000000000E-01      1.764922000000000E+02      5.526733000000000E-01     -2.198730000000000E+00      2.986298000000000E-01      1.176992000000000E+02
