! Network Analyzer HP8722D
! Hewlett-Packard
! Data name: Linha & Wilkinson
! Saver's name: Rodrigo Anjos
! Comments: Teste da utilização de aquisição
continua pelo VNA HP8722D
! Time and date: 8/5/2025 15:33
!              Frequency                     S11                                                   S21                                                   S12                                                   S22
# HZ  S  MA R 50
4800000000.000000      8.735962000000000E-01      8.851954000000000E+01      1.366730000000000E-01     -2.699414000000000E+01      1.272202000000000E-01      1.004805000000000E+02      2.371216000000000E-01      6.451172000000000E+01
4801000000.000000      8.761902000000000E-01      8.885157000000000E+01      1.336975000000000E-01     -2.581152000000000E+01      1.248360000000000E-01      1.013320000000000E+02      2.442856000000000E-01      6.352539000000000E+01
4802000000.000000      8.803711000000000E-01      8.908594000000000E+01      1.311569000000000E-01     -2.431152000000000E+01      1.228867000000000E-01      1.023320000000000E+02      2.479095000000000E-01      6.343359000000000E+01
4803000000.000000      8.801575000000000E-01      8.940624000000000E+01      1.290817000000000E-01     -2.296484000000000E+01      1.202316000000000E-01      1.036680000000000E+02      2.532349000000000E-01      6.308594000000000E+01
4804000000.000000      8.847351000000000E-01      8.965624000000000E+01      1.270676000000000E-01     -2.150097000000000E+01      1.187897000000000E-01      1.046562000000000E+02      2.561188000000000E-01      6.335938000000000E+01
4805000000.000000      8.888855000000000E-01      8.985155000000000E+01      1.249771000000000E-01     -2.003808000000000E+01      1.165237000000000E-01      1.060039000000000E+02      2.599640000000000E-01      6.257617000000000E+01
4806000000.000000      8.900452000000000E-01      9.018749000000000E+01      1.230469000000000E-01     -1.853418000000000E+01      1.149445000000000E-01      1.075625000000000E+02      2.643585000000000E-01      6.184179000000000E+01
4807000000.000000      8.939514000000000E-01      9.041016000000000E+01      1.216011000000000E-01     -1.708594000000000E+01      1.137276000000000E-01      1.088047000000000E+02      2.676086000000000E-01      6.175390000000000E+01
4808000000.000000      8.951111000000000E-01      9.078905000000000E+01      1.202469000000000E-01     -1.528076000000000E+01      1.122055000000000E-01      1.103906000000000E+02      2.694702000000000E-01      6.129492000000000E+01
4809000000.000000      8.963318000000000E-01      9.103907000000000E+01      1.191254000000000E-01     -1.376904000000000E+01      1.116180000000000E-01      1.117773000000000E+02      2.744293000000000E-01      6.123437000000000E+01
4810000000.000000      8.981628000000000E-01      9.139063000000000E+01      1.183929000000000E-01     -1.163770000000000E+01      1.102982000000000E-01      1.133633000000000E+02      2.758789000000000E-01      6.018555000000000E+01
4811000000.000000      8.989563000000000E-01      9.166407000000000E+01      1.174469000000000E-01     -1.017627000000000E+01      1.103706000000000E-01      1.152031000000000E+02      2.791138000000000E-01      5.977539000000000E+01
4812000000.000000      9.029236000000000E-01      9.210546000000000E+01      1.167412000000000E-01     -8.375977000000000E+00      1.097527000000000E-01      1.164766000000000E+02      2.816010000000000E-01      5.934375000000000E+01
4813000000.000000      9.047852000000000E-01      9.233202000000000E+01      1.165733000000000E-01     -6.516357000000000E+00      1.095505000000000E-01      1.183203000000000E+02      2.869568000000000E-01      5.923828000000000E+01
4814000000.000000      9.029541000000000E-01      9.257030000000000E+01      1.167221000000000E-01     -4.666504000000000E+00      1.095963000000000E-01      1.198984000000000E+02      2.880859000000000E-01      5.780859000000000E+01
4815000000.000000      9.056396000000000E-01      9.281250000000000E+01      1.164894000000000E-01     -2.952637000000000E+00      1.092491000000000E-01      1.215039000000000E+02      2.906036000000000E-01      5.768555000000000E+01
4816000000.000000      9.090576000000000E-01      9.316015000000000E+01      1.171532000000000E-01     -1.213989000000000E+00      1.102028000000000E-01      1.231289000000000E+02      2.929840000000000E-01      5.728125000000000E+01
4817000000.000000      9.066772000000000E-01      9.350000000000000E+01      1.175041000000000E-01      4.353333000000000E-01      1.104431000000000E-01      1.246055000000000E+02      2.971497000000000E-01      5.672070000000000E+01
4818000000.000000      9.075012000000000E-01      9.374609000000000E+01      1.184616000000000E-01      2.102417000000000E+00      1.113091000000000E-01      1.263398000000000E+02      2.983551000000000E-01      5.636328000000000E+01
4819000000.000000      9.093933000000000E-01      9.396875000000000E+01      1.194649000000000E-01      3.720215000000000E+00      1.122513000000000E-01      1.278047000000000E+02      2.990417000000000E-01      5.565820000000000E+01
4820000000.000000      9.066772000000000E-01      9.433985000000000E+01      1.199417000000000E-01      5.530029000000000E+00      1.131248000000000E-01      1.294062000000000E+02      3.010559000000000E-01      5.524023000000000E+01
4821000000.000000      9.125977000000000E-01      9.467968000000000E+01      1.223831000000000E-01      6.830566000000000E+00      1.139603000000000E-01      1.306484000000000E+02      3.032379000000000E-01      5.443749000000000E+01
4822000000.000000      9.099426000000000E-01      9.471094000000000E+01      1.228104000000000E-01      8.433105000000000E+00      1.154289000000000E-01      1.320078000000000E+02      3.061218000000000E-01      5.328125000000000E+01
4823000000.000000      9.095764000000000E-01      9.501171000000000E+01      1.249046000000000E-01      9.920410000000000E+00      1.167679000000000E-01      1.333281000000000E+02      3.046722000000000E-01      5.316796000000000E+01
4824000000.000000      9.078979000000000E-01      9.530077000000000E+01      1.267929000000000E-01      1.097803000000000E+01      1.187096000000000E-01      1.346953000000000E+02      3.069611000000000E-01      5.205859000000000E+01
4825000000.000000      9.074707000000000E-01      9.570704000000000E+01      1.282120000000000E-01      1.257227000000000E+01      1.203918000000000E-01      1.360781000000000E+02      3.084412000000000E-01      5.160156000000000E+01
4826000000.000000      9.084778000000000E-01      9.578125000000000E+01      1.309052000000000E-01      1.366943000000000E+01      1.220551000000000E-01      1.371172000000000E+02      3.083038000000000E-01      5.089648000000000E+01
4827000000.000000      9.071045000000000E-01      9.608202000000000E+01      1.329956000000000E-01      1.491113000000000E+01      1.239243000000000E-01      1.381719000000000E+02      3.108368000000000E-01      5.022655000000000E+01
4828000000.000000      9.067078000000000E-01      9.635546000000000E+01      1.352310000000000E-01      1.594629000000000E+01      1.259308000000000E-01      1.391406000000000E+02      3.099518000000000E-01      4.955859000000000E+01
4829000000.000000      9.037781000000000E-01      9.686327000000000E+01      1.372986000000000E-01      1.708203000000000E+01      1.282730000000000E-01      1.402812000000000E+02      3.129425000000000E-01      4.931445000000000E+01
4830000000.000000      9.030457000000000E-01      9.695313000000000E+01      1.402512000000000E-01      1.803906000000000E+01      1.302948000000000E-01      1.412656000000000E+02      3.131866000000000E-01      4.865820000000000E+01
4831000000.000000      9.022827000000000E-01      9.722265000000000E+01      1.426315000000000E-01      1.868555000000000E+01      1.322174000000000E-01      1.420625000000000E+02      3.125305000000000E-01      4.796875000000000E+01
4832000000.000000      8.992920000000000E-01      9.744141000000000E+01      1.453552000000000E-01      1.973926000000000E+01      1.349182000000000E-01      1.430156000000000E+02      3.117981000000000E-01      4.759179000000000E+01
4833000000.000000      8.965454000000000E-01      9.768358000000000E+01      1.477661000000000E-01      2.070703000000000E+01      1.373367000000000E-01      1.437422000000000E+02      3.125000000000000E-01      4.684570000000000E+01
4834000000.000000      8.940430000000000E-01      9.801561000000000E+01      1.509705000000000E-01      2.145312000000000E+01      1.401215000000000E-01      1.444141000000000E+02      3.115540000000000E-01      4.651172000000000E+01
4835000000.000000      8.929443000000000E-01      9.808594000000000E+01      1.535492000000000E-01      2.197656000000000E+01      1.425781000000000E-01      1.452344000000000E+02      3.145294000000000E-01      4.539844000000000E+01
4836000000.000000      8.907166000000000E-01      9.835546000000000E+01      1.563339000000000E-01      2.238183000000000E+01      1.450195000000000E-01      1.460312000000000E+02      3.129272000000000E-01      4.480859000000000E+01
4837000000.000000      8.875427000000000E-01      9.873047000000000E+01      1.592712000000000E-01      2.294140000000000E+01      1.478271000000000E-01      1.463594000000000E+02      3.127747000000000E-01      4.449609000000000E+01
4838000000.000000      8.836975000000000E-01      9.870312000000000E+01      1.623077000000000E-01      2.374414000000000E+01      1.501770000000000E-01      1.470937000000000E+02      3.134460000000000E-01      4.367383000000000E+01
4839000000.000000      8.838501000000000E-01      9.912109000000000E+01      1.654816000000000E-01      2.437793000000000E+01      1.530685000000000E-01      1.474766000000000E+02      3.142548000000000E-01      4.286133000000000E+01
4840000000.000000      8.783264000000000E-01      9.940233000000000E+01      1.688766000000000E-01      2.470215000000000E+01      1.560059000000000E-01      1.481484000000000E+02      3.121948000000000E-01      4.220508000000000E+01
4841000000.000000      8.740845000000000E-01      9.948828000000000E+01      1.717987000000000E-01      2.497461000000000E+01      1.589737000000000E-01      1.485469000000000E+02      3.130798000000000E-01      4.165625000000000E+01
4842000000.000000      8.713684000000000E-01      9.977343000000000E+01      1.749344000000000E-01      2.550293000000000E+01      1.616745000000000E-01      1.491875000000000E+02      3.129578000000000E-01      4.125977000000000E+01
4843000000.000000      8.705444000000000E-01      9.980858000000000E+01      1.784058000000000E-01      2.557324000000000E+01      1.643982000000000E-01      1.495000000000000E+02      3.116455000000000E-01      4.094140000000000E+01
4844000000.000000      8.669128000000000E-01      9.995312000000000E+01      1.816406000000000E-01      2.612793000000000E+01      1.671143000000000E-01      1.499844000000000E+02      3.109131000000000E-01      4.023046000000000E+01
4845000000.000000      8.605347000000000E-01      1.001836000000000E+02      1.845932000000000E-01      2.632129000000000E+01      1.703110000000000E-01      1.502656000000000E+02      3.116302000000000E-01      3.957812000000000E+01
4846000000.000000      8.578186000000000E-01      1.004492000000000E+02      1.883087000000000E-01      2.659863000000000E+01      1.737289000000000E-01      1.505625000000000E+02      3.103790000000000E-01      3.912500000000000E+01
4847000000.000000      8.554382000000000E-01      1.007305000000000E+02      1.917038000000000E-01      2.682031000000000E+01      1.765060000000000E-01      1.508828000000000E+02      3.095398000000000E-01      3.859179000000000E+01
4848000000.000000      8.497925000000000E-01      1.006562000000000E+02      1.944733000000000E-01      2.676074000000000E+01      1.793442000000000E-01      1.511953000000000E+02      3.096313000000000E-01      3.816992000000000E+01
4849000000.000000      8.465271000000000E-01      1.006602000000000E+02      1.981659000000000E-01      2.712207000000000E+01      1.824341000000000E-01      1.515078000000000E+02      3.090515000000000E-01      3.767578000000000E+01
4850000000.000000      8.412170000000000E-01      1.009062000000000E+02      2.013016000000000E-01      2.713867000000000E+01      1.853256000000000E-01      1.517656000000000E+02      3.089752000000000E-01      3.722656000000000E+01
4851000000.000000      8.371887000000000E-01      1.011562000000000E+02      2.051544000000000E-01      2.732519000000000E+01      1.886520000000000E-01      1.519766000000000E+02      3.085785000000000E-01      3.672656000000000E+01
4852000000.000000      8.328247000000000E-01      1.011523000000000E+02      2.081833000000000E-01      2.729101000000000E+01      1.915512000000000E-01      1.522031000000000E+02      3.066406000000000E-01      3.644531000000000E+01
4853000000.000000      8.309631000000000E-01      1.013398000000000E+02      2.109985000000000E-01      2.745117000000000E+01      1.948471000000000E-01      1.523906000000000E+02      3.068390000000000E-01      3.574219000000000E+01
4854000000.000000      8.241272000000000E-01      1.013164000000000E+02      2.146530000000000E-01      2.730762000000000E+01      1.982040000000000E-01      1.526328000000000E+02      3.069763000000000E-01      3.533984000000000E+01
4855000000.000000      8.206482000000000E-01      1.014844000000000E+02      2.185440000000000E-01      2.738281000000000E+01      2.012939000000000E-01      1.527344000000000E+02      3.044739000000000E-01      3.479883000000000E+01
4856000000.000000      8.158875000000000E-01      1.014414000000000E+02      2.221146000000000E-01      2.754101000000000E+01      2.046356000000000E-01      1.529453000000000E+02      3.057098000000000E-01      3.466992000000000E+01
4857000000.000000      8.114014000000000E-01      1.017305000000000E+02      2.258301000000000E-01      2.753222000000000E+01      2.079773000000000E-01      1.529687000000000E+02      3.047485000000000E-01      3.411328000000000E+01
4858000000.000000      8.041992000000000E-01      1.016172000000000E+02      2.290497000000000E-01      2.745800000000000E+01      2.108688000000000E-01      1.531406000000000E+02      3.052368000000000E-01      3.358984000000000E+01
4859000000.000000      8.012695000000000E-01      1.016016000000000E+02      2.327423000000000E-01      2.735547000000000E+01      2.140198000000000E-01      1.532578000000000E+02      3.044891000000000E-01      3.328906000000000E+01
4860000000.000000      7.975159000000000E-01      1.017266000000000E+02      2.361221000000000E-01      2.734179000000000E+01      2.170029000000000E-01      1.532266000000000E+02      3.044586000000000E-01      3.297070000000000E+01
4861000000.000000      7.907715000000000E-01      1.017695000000000E+02      2.391434000000000E-01      2.712500000000000E+01      2.204361000000000E-01      1.534609000000000E+02      3.026428000000000E-01      3.256640000000000E+01
4862000000.000000      7.842102000000000E-01      1.018164000000000E+02      2.433014000000000E-01      2.708496000000000E+01      2.239075000000000E-01      1.534844000000000E+02      3.043060000000000E-01      3.208789000000000E+01
4863000000.000000      7.809143000000000E-01      1.017734000000000E+02      2.461166000000000E-01      2.688183000000000E+01      2.273407000000000E-01      1.535469000000000E+02      3.045959000000000E-01      3.175683000000000E+01
4864000000.000000      7.764587000000000E-01      1.016680000000000E+02      2.504883000000000E-01      2.704687000000000E+01      2.303772000000000E-01      1.536094000000000E+02      3.035736000000000E-01      3.127441000000000E+01
4865000000.000000      7.702942000000000E-01      1.015859000000000E+02      2.534790000000000E-01      2.681152000000000E+01      2.336807000000000E-01      1.535234000000000E+02      3.041687000000000E-01      3.132715000000000E+01
4866000000.000000      7.651062000000000E-01      1.015898000000000E+02      2.570038000000000E-01      2.667480000000000E+01      2.372437000000000E-01      1.533437000000000E+02      3.047791000000000E-01      3.059082000000000E+01
4867000000.000000      7.587891000000000E-01      1.013750000000000E+02      2.605438000000000E-01      2.629297000000000E+01      2.403793000000000E-01      1.535391000000000E+02      3.028717000000000E-01      3.035058000000000E+01
4868000000.000000      7.555542000000000E-01      1.014805000000000E+02      2.643433000000000E-01      2.622754000000000E+01      2.437210000000000E-01      1.534453000000000E+02      3.036804000000000E-01      3.010449000000000E+01
4869000000.000000      7.492981000000000E-01      1.012969000000000E+02      2.675476000000000E-01      2.599218000000000E+01      2.473450000000000E-01      1.533906000000000E+02      3.056030000000000E-01      2.972754000000000E+01
4870000000.000000      7.435913000000000E-01      1.011875000000000E+02      2.714081000000000E-01      2.591113000000000E+01      2.516022000000000E-01      1.533906000000000E+02      3.063660000000000E-01      2.979980000000000E+01
4871000000.000000      7.401123000000000E-01      1.009883000000000E+02      2.743530000000000E-01      2.561523000000000E+01      2.540131000000000E-01      1.533125000000000E+02      3.047791000000000E-01      2.918359000000000E+01
4872000000.000000      7.364502000000000E-01      1.009219000000000E+02      2.784424000000000E-01      2.559863000000000E+01      2.571716000000000E-01      1.530859000000000E+02      3.068542000000000E-01      2.886230000000000E+01
4873000000.000000      7.311707000000000E-01      1.008867000000000E+02      2.824707000000000E-01      2.523242000000000E+01      2.601318000000000E-01      1.530156000000000E+02      3.047638000000000E-01      2.850195000000000E+01
4874000000.000000      7.257080000000000E-01      1.007930000000000E+02      2.848969000000000E-01      2.493750000000000E+01      2.644958000000000E-01      1.529140000000000E+02      3.078461000000000E-01      2.831836000000000E+01
4875000000.000000      7.209167000000000E-01      1.004102000000000E+02      2.888184000000000E-01      2.481934000000000E+01      2.676086000000000E-01      1.528828000000000E+02      3.080902000000000E-01      2.797168000000000E+01
4876000000.000000      7.159119000000000E-01      1.002148000000000E+02      2.929688000000000E-01      2.459765000000000E+01      2.711487000000000E-01      1.526328000000000E+02      3.092804000000000E-01      2.794434000000000E+01
4877000000.000000      7.128296000000000E-01      9.983593000000000E+01      2.969818000000000E-01      2.421875000000000E+01      2.744751000000000E-01      1.524765000000000E+02      3.084717000000000E-01      2.731738000000000E+01
4878000000.000000      7.061462000000000E-01      9.969530000000000E+01      3.002319000000000E-01      2.386621000000000E+01      2.773895000000000E-01      1.524688000000000E+02      3.093872000000000E-01      2.721777000000000E+01
4879000000.000000      7.033997000000000E-01      9.949608000000000E+01      3.036499000000000E-01      2.374512000000000E+01      2.806244000000000E-01      1.521641000000000E+02      3.100281000000000E-01      2.687597000000000E+01
4880000000.000000      6.978455000000000E-01      9.913671000000000E+01      3.074188000000000E-01      2.337109000000000E+01      2.846527000000000E-01      1.519766000000000E+02      3.111725000000000E-01      2.646875000000000E+01
4881000000.000000      6.942444000000000E-01      9.891014000000000E+01      3.117371000000000E-01      2.316308000000000E+01      2.874908000000000E-01      1.517656000000000E+02      3.127136000000000E-01      2.638769000000000E+01
4882000000.000000      6.892395000000000E-01      9.848045000000000E+01      3.159943000000000E-01      2.278418000000000E+01      2.909088000000000E-01      1.516016000000000E+02      3.130341000000000E-01      2.585449000000000E+01
