! Network Analyzer HP8722D
! Hewlett-Packard
! Data name: Linha & Wilkinson
! Saver's name: Rodrigo Anjos
! Comments: Teste da utilização de aquisição
continua pelo VNA HP8722D
! Time and date: 8/5/2025 15:05
!              Frequency                     S11                                                   S21                                                   S12                                                   S22
# HZ  S  MA R 50
4800000000.000000      5.368652000000000E-01     -2.538183000000000E+01      3.635101000000000E-01     -1.487422000000000E+02      3.823853000000000E-01      1.056738000000000E+01      5.013428000000000E-01      1.380127000000000E+00
4801000000.000000      5.337524000000000E-01     -2.481152000000000E+01      3.680267000000000E-01     -1.490313000000000E+02      3.833771000000000E-01      1.035303000000000E+01      4.993896000000000E-01      1.575134000000000E+00
4802000000.000000      5.327454000000000E-01     -2.466601000000000E+01      3.719330000000000E-01     -1.494453000000000E+02      3.881073000000000E-01      1.041602000000000E+01      4.942627000000000E-01      1.919861000000000E+00
4803000000.000000      5.329895000000000E-01     -2.438183000000000E+01      3.771362000000000E-01     -1.497734000000000E+02      3.931732000000000E-01      1.051367000000000E+01      4.870911000000000E-01      1.608093000000000E+00
4804000000.000000      5.331726000000000E-01     -2.431445000000000E+01      3.805237000000000E-01     -1.502578000000000E+02      3.978119000000000E-01      1.002051000000000E+01      4.800873000000000E-01      1.900635000000000E+00
4805000000.000000      5.340576000000000E-01     -2.386230000000000E+01      3.841095000000000E-01     -1.506875000000000E+02      3.994751000000000E-01      9.847656000000000E+00      4.739532000000000E-01      1.818237000000000E+00
4806000000.000000      5.304565000000000E-01     -2.362500000000000E+01      3.875732000000000E-01     -1.510547000000000E+02      4.049835000000000E-01      9.541504000000000E+00      4.677887000000000E-01      1.678162000000000E+00
4807000000.000000      5.283203000000000E-01     -2.356348000000000E+01      3.917389000000000E-01     -1.516172000000000E+02      4.084473000000000E-01      9.511230000000000E+00      4.595795000000000E-01      2.084595000000000E+00
4808000000.000000      5.276794000000000E-01     -2.325684000000000E+01      3.959351000000000E-01     -1.518516000000000E+02      4.126740000000000E-01      9.408203000000000E+00      4.538727000000000E-01      2.302979000000000E+00
4809000000.000000      5.270996000000000E-01     -2.290722000000000E+01      3.999329000000000E-01     -1.523281000000000E+02      4.173431000000000E-01      9.316406000000000E+00      4.453735000000000E-01      2.540527000000000E+00
4810000000.000000      5.236206000000000E-01     -2.267578000000000E+01      4.039154000000000E-01     -1.526562000000000E+02      4.216156000000000E-01      9.401367000000000E+00      4.386292000000000E-01      2.388062000000000E+00
4811000000.000000      5.252075000000000E-01     -2.253027000000000E+01      4.074249000000000E-01     -1.532734000000000E+02      4.235382000000000E-01      9.002930000000000E+00      4.318542000000000E-01      2.815186000000000E+00
4812000000.000000      5.231628000000000E-01     -2.226660000000000E+01      4.110870000000000E-01     -1.536250000000000E+02      4.275665000000000E-01      8.901367000000000E+00      4.240570000000000E-01      2.725952000000000E+00
4813000000.000000      5.202026000000000E-01     -2.218750000000000E+01      4.145355000000000E-01     -1.540547000000000E+02      4.297028000000000E-01      8.688477000000000E+00      4.164581000000000E-01      3.213501000000000E+00
4814000000.000000      5.184326000000000E-01     -2.210644000000000E+01      4.181061000000000E-01     -1.544844000000000E+02      4.346008000000000E-01      8.654297000000000E+00      4.082336000000000E-01      3.240967000000000E+00
4815000000.000000      5.185242000000000E-01     -2.155176000000000E+01      4.205475000000000E-01     -1.549297000000000E+02      4.357147000000000E-01      8.416504000000000E+00      4.002686000000000E-01      3.607544000000000E+00
4816000000.000000      5.170898000000000E-01     -2.144043000000000E+01      4.242554000000000E-01     -1.554062000000000E+02      4.424896000000000E-01      8.407227000000000E+00      3.924103000000000E-01      3.772339000000000E+00
4817000000.000000      5.158081000000000E-01     -2.129883000000000E+01      4.276428000000000E-01     -1.558594000000000E+02      4.436646000000000E-01      8.022461000000000E+00      3.819885000000000E-01      4.225586000000000E+00
4818000000.000000      5.135193000000000E-01     -2.117480000000000E+01      4.300232000000000E-01     -1.563125000000000E+02      4.501495000000000E-01      7.890869000000000E+00      3.733063000000000E-01      4.437012000000000E+00
4819000000.000000      5.121460000000000E-01     -2.097363000000000E+01      4.334259000000000E-01     -1.568203000000000E+02      4.517365000000000E-01      7.826172000000000E+00      3.639984000000000E-01      4.493408000000000E+00
4820000000.000000      5.099182000000000E-01     -2.090723000000000E+01      4.367828000000000E-01     -1.571484000000000E+02      4.557953000000000E-01      7.594238000000000E+00      3.557129000000000E-01      5.133301000000000E+00
4821000000.000000      5.101013000000000E-01     -2.060645000000000E+01      4.401550000000000E-01     -1.577969000000000E+02      4.588928000000000E-01      7.466553000000000E+00      3.464661000000000E-01      5.620850000000000E+00
4822000000.000000      5.080872000000000E-01     -2.053418000000000E+01      4.413147000000000E-01     -1.581328000000000E+02      4.611969000000000E-01      7.348389000000000E+00      3.383789000000000E-01      5.796631000000000E+00
4823000000.000000      5.052490000000000E-01     -2.054785000000000E+01      4.452209000000000E-01     -1.586797000000000E+02      4.653320000000000E-01      7.259033000000000E+00      3.291931000000000E-01      6.334961000000000E+00
4824000000.000000      5.035400000000000E-01     -2.013867000000000E+01      4.473724000000000E-01     -1.590781000000000E+02      4.685059000000000E-01      6.995361000000000E+00      3.192291000000000E-01      6.660400000000000E+00
4825000000.000000      5.036621000000000E-01     -2.006934000000000E+01      4.500580000000000E-01     -1.595234000000000E+02      4.708252000000000E-01      7.006348000000000E+00      3.109894000000000E-01      7.327881000000000E+00
4826000000.000000      5.024109000000000E-01     -2.008203000000000E+01      4.530334000000000E-01     -1.600391000000000E+02      4.737701000000000E-01      6.671387000000000E+00      3.008423000000000E-01      7.815186000000000E+00
4827000000.000000      4.990540000000000E-01     -1.968359000000000E+01      4.552307000000000E-01     -1.604063000000000E+02      4.770660000000000E-01      6.636963000000000E+00      2.922363000000000E-01      8.430176000000000E+00
4828000000.000000      4.974518000000000E-01     -1.972754000000000E+01      4.581909000000000E-01     -1.609062000000000E+02      4.803314000000000E-01      6.389893000000000E+00      2.827454000000000E-01      8.965820000000000E+00
4829000000.000000      4.977417000000000E-01     -1.930762000000000E+01      4.599457000000000E-01     -1.614609000000000E+02      4.846344000000000E-01      6.499756000000000E+00      2.745514000000000E-01      1.005762000000000E+01
4830000000.000000      4.945221000000000E-01     -1.941992000000000E+01      4.619446000000000E-01     -1.618750000000000E+02      4.870453000000000E-01      6.277100000000000E+00      2.636261000000000E-01      1.103711000000000E+01
4831000000.000000      4.936829000000000E-01     -1.897363000000000E+01      4.640350000000000E-01     -1.624687000000000E+02      4.895325000000000E-01      6.083496000000000E+00      2.542877000000000E-01      1.168359000000000E+01
4832000000.000000      4.919128000000000E-01     -1.891504000000000E+01      4.656677000000000E-01     -1.627109000000000E+02      4.912720000000000E-01      5.889893000000000E+00      2.437973000000000E-01      1.313135000000000E+01
4833000000.000000      4.896393000000000E-01     -1.898730000000000E+01      4.681702000000000E-01     -1.630938000000000E+02      4.943085000000000E-01      5.653809000000000E+00      2.343216000000000E-01      1.396045000000000E+01
4834000000.000000      4.868927000000000E-01     -1.892285000000000E+01      4.695282000000000E-01     -1.636172000000000E+02      4.986267000000000E-01      5.714111000000000E+00      2.260284000000000E-01      1.539160000000000E+01
4835000000.000000      4.880524000000000E-01     -1.867578000000000E+01      4.715576000000000E-01     -1.642187000000000E+02      5.033264000000000E-01      5.431152000000000E+00      2.173004000000000E-01      1.668066000000000E+01
4836000000.000000      4.848022000000000E-01     -1.850000000000000E+01      4.728088000000000E-01     -1.645156000000000E+02      5.033569000000000E-01      5.559082000000000E+00      2.079086000000000E-01      1.834668000000000E+01
4837000000.000000      4.826050000000000E-01     -1.824609000000000E+01      4.738922000000000E-01     -1.651797000000000E+02      5.052185000000000E-01      5.156494000000000E+00      1.992950000000000E-01      2.023047000000000E+01
4838000000.000000      4.811707000000000E-01     -1.801953000000000E+01      4.764709000000000E-01     -1.653906000000000E+02      5.089722000000000E-01      4.942383000000000E+00      1.906128000000000E-01      2.208106000000000E+01
4839000000.000000      4.807587000000000E-01     -1.786523000000000E+01      4.788055000000000E-01     -1.657578000000000E+02      5.107117000000000E-01      5.049561000000000E+00      1.839371000000000E-01      2.395703000000000E+01
4840000000.000000      4.797974000000000E-01     -1.796582000000000E+01      4.796600000000000E-01     -1.662500000000000E+02      5.153503000000000E-01      4.636230000000000E+00      1.749649000000000E-01      2.605175000000000E+01
4841000000.000000      4.763489000000000E-01     -1.749023000000000E+01      4.814911000000000E-01     -1.667422000000000E+02      5.157471000000000E-01      4.546875000000000E+00      1.680450000000000E-01      2.893750000000000E+01
4842000000.000000      4.767914000000000E-01     -1.721777000000000E+01      4.823761000000000E-01     -1.671406000000000E+02      5.185547000000000E-01      4.475342000000000E+00      1.612549000000000E-01      3.186426000000000E+01
4843000000.000000      4.752197000000000E-01     -1.720410000000000E+01      4.839325000000000E-01     -1.675937000000000E+02      5.202942000000000E-01      4.318848000000000E+00      1.538467000000000E-01      3.503515000000000E+01
4844000000.000000      4.716949000000000E-01     -1.730957000000000E+01      4.849091000000000E-01     -1.681094000000000E+02      5.228271000000000E-01      4.022217000000000E+00      1.466980000000000E-01      3.855469000000000E+01
4845000000.000000      4.714813000000000E-01     -1.671875000000000E+01      4.856262000000000E-01     -1.683750000000000E+02      5.251465000000000E-01      3.824585000000000E+00      1.432953000000000E-01      4.177539000000000E+01
4846000000.000000      4.710388000000000E-01     -1.671191000000000E+01      4.873199000000000E-01     -1.687734000000000E+02      5.276794000000000E-01      3.663940000000000E+00      1.387024000000000E-01      4.571679000000000E+01
4847000000.000000      4.677734000000000E-01     -1.622559000000000E+01      4.887390000000000E-01     -1.690859000000000E+02      5.307312000000000E-01      3.540283000000000E+00      1.334915000000000E-01      5.015820000000000E+01
4848000000.000000      4.654694000000000E-01     -1.613574000000000E+01      4.881592000000000E-01     -1.695781000000000E+02      5.323792000000000E-01      3.413940000000000E+00      1.314621000000000E-01      5.450585000000000E+01
4849000000.000000      4.652863000000000E-01     -1.616992000000000E+01      4.905548000000000E-01     -1.698984000000000E+02      5.339355000000000E-01      3.213501000000000E+00      1.290741000000000E-01      5.884960000000000E+01
4850000000.000000      4.663696000000000E-01     -1.537549000000000E+01      4.908447000000000E-01     -1.702969000000000E+02      5.354309000000000E-01      2.995117000000000E+00      1.290588000000000E-01      6.338672000000000E+01
4851000000.000000      4.655609000000000E-01     -1.547314000000000E+01      4.924011000000000E-01     -1.707500000000000E+02      5.365295000000000E-01      2.897583000000000E+00      1.289520000000000E-01      6.782812000000000E+01
4852000000.000000      4.643402000000000E-01     -1.512549000000000E+01      4.932251000000000E-01     -1.710625000000000E+02      5.387573000000000E-01      2.746582000000000E+00      1.299133000000000E-01      7.217187000000000E+01
4853000000.000000      4.627686000000000E-01     -1.483154000000000E+01      4.923401000000000E-01     -1.714844000000000E+02      5.410461000000000E-01      2.607788000000000E+00      1.301346000000000E-01      7.655468000000000E+01
4854000000.000000      4.632416000000000E-01     -1.455420000000000E+01      4.939728000000000E-01     -1.718984000000000E+02      5.420227000000000E-01      2.455444000000000E+00      1.340714000000000E-01      8.062500000000000E+01
4855000000.000000      4.624481000000000E-01     -1.448438000000000E+01      4.953918000000000E-01     -1.722891000000000E+02      5.431213000000000E-01      2.011841000000000E+00      1.370926000000000E-01      8.496485000000000E+01
4856000000.000000      4.607697000000000E-01     -1.396533000000000E+01      4.957275000000000E-01     -1.726016000000000E+02      5.449219000000000E-01      2.028320000000000E+00      1.413269000000000E-01      8.856640000000000E+01
4857000000.000000      4.609680000000000E-01     -1.364258000000000E+01      4.981995000000000E-01     -1.729063000000000E+02      5.448608000000000E-01      1.985779000000000E+00      1.451340000000000E-01      9.198828000000000E+01
4858000000.000000      4.602203000000000E-01     -1.337451000000000E+01      4.984131000000000E-01     -1.732578000000000E+02      5.459595000000000E-01      1.652039000000000E+00      1.498489000000000E-01      9.522655000000000E+01
4859000000.000000      4.600677000000000E-01     -1.310303000000000E+01      4.989777000000000E-01     -1.735469000000000E+02      5.484924000000000E-01      1.667175000000000E+00      1.555176000000000E-01      9.781250000000000E+01
4860000000.000000      4.602966000000000E-01     -1.298877000000000E+01      4.994812000000000E-01     -1.738203000000000E+02      5.477905000000000E-01      1.398010000000000E+00      1.620636000000000E-01      9.998436000000000E+01
4861000000.000000      4.624023000000000E-01     -1.263428000000000E+01      4.990997000000000E-01     -1.745234000000000E+02      5.508728000000000E-01      1.171387000000000E+00      1.666412000000000E-01      1.027266000000000E+02
4862000000.000000      4.610901000000000E-01     -1.227881000000000E+01      5.030823000000000E-01     -1.746328000000000E+02      5.505676000000000E-01      1.234558000000000E+00      1.738510000000000E-01      1.045078000000000E+02
4863000000.000000      4.634552000000000E-01     -1.200146000000000E+01      5.036316000000000E-01     -1.751250000000000E+02      5.504150000000000E-01      9.187317000000000E-01      1.791153000000000E-01      1.065078000000000E+02
4864000000.000000      4.624786000000000E-01     -1.176270000000000E+01      5.035095000000000E-01     -1.753203000000000E+02      5.514221000000000E-01      9.352112000000000E-01      1.867599000000000E-01      1.078320000000000E+02
4865000000.000000      4.636536000000000E-01     -1.145752000000000E+01      5.028992000000000E-01     -1.755781000000000E+02      5.520630000000000E-01      7.539368000000000E-01      1.931152000000000E-01      1.097422000000000E+02
4866000000.000000      4.668121000000000E-01     -1.111279000000000E+01      5.040283000000000E-01     -1.761953000000000E+02      5.524902000000000E-01      5.795288000000000E-01      1.985779000000000E-01      1.107773000000000E+02
4867000000.000000      4.663086000000000E-01     -1.084375000000000E+01      5.044861000000000E-01     -1.765391000000000E+02      5.518188000000000E-01      5.891418000000000E-01      2.052231000000000E-01      1.122890000000000E+02
4868000000.000000      4.699707000000000E-01     -1.082178000000000E+01      5.048828000000000E-01     -1.768828000000000E+02      5.524597000000000E-01      3.790283000000000E-01      2.105560000000000E-01      1.133398000000000E+02
4869000000.000000      4.691925000000000E-01     -1.023145000000000E+01      5.066833000000000E-01     -1.772969000000000E+02      5.523071000000000E-01      2.128601000000000E-01      2.175369000000000E-01      1.143164000000000E+02
4870000000.000000      4.691620000000000E-01     -1.010742000000000E+01      5.078125000000000E-01     -1.773906000000000E+02      5.538940000000000E-01      1.551819000000000E-01      2.243347000000000E-01      1.153945000000000E+02
4871000000.000000      4.703674000000000E-01     -9.780762000000000E+00      5.082397000000000E-01     -1.778125000000000E+02      5.530396000000000E-01     -5.493164000000000E-03      2.293167000000000E-01      1.161953000000000E+02
4872000000.000000      4.753418000000000E-01     -9.588379000000000E+00      5.090027000000000E-01     -1.780000000000000E+02      5.519714000000000E-01     -1.483154000000000E-01      2.368469000000000E-01      1.166172000000000E+02
4873000000.000000      4.780731000000000E-01     -9.447266000000000E+00      5.092163000000000E-01     -1.785078000000000E+02      5.509338000000000E-01     -1.551819000000000E-01      2.416153000000000E-01      1.174141000000000E+02
4874000000.000000      4.799042000000000E-01     -9.085938000000000E+00      5.101624000000000E-01     -1.789375000000000E+02      5.532837000000000E-01     -2.581787000000000E-01      2.481155000000000E-01      1.175781000000000E+02
4875000000.000000      4.823456000000000E-01     -9.083008000000000E+00      5.097961000000000E-01     -1.792422000000000E+02      5.521240000000000E-01     -2.444458000000000E-01      2.529297000000000E-01      1.186094000000000E+02
4876000000.000000      4.846344000000000E-01     -8.602539000000000E+00      5.132446000000000E-01     -1.795312000000000E+02      5.536499000000000E-01     -1.744080000000000E-01      2.602997000000000E-01      1.188984000000000E+02
4877000000.000000      4.891815000000000E-01     -8.598633000000000E+00      5.139160000000000E-01     -1.800000000000000E+02      5.523071000000000E-01     -3.858948000000000E-01      2.636108000000000E-01      1.192891000000000E+02
4878000000.000000      4.895020000000000E-01     -8.524414000000000E+00      5.131531000000000E-01      1.794844000000000E+02      5.514832000000000E-01     -4.463196000000000E-01      2.695923000000000E-01      1.192656000000000E+02
4879000000.000000      4.922638000000000E-01     -8.319824000000000E+00      5.139465000000000E-01      1.793359000000000E+02      5.503845000000000E-01     -5.177307000000000E-01      2.752838000000000E-01      1.200469000000000E+02
4880000000.000000      4.969940000000000E-01     -8.071289000000000E+00      5.151062000000000E-01      1.788359000000000E+02      5.514526000000000E-01     -6.440735000000000E-01      2.792969000000000E-01      1.202070000000000E+02
4881000000.000000      4.997253000000000E-01     -8.080566000000000E+00      5.168152000000000E-01      1.786172000000000E+02      5.507813000000000E-01     -6.509399000000000E-01      2.846985000000000E-01      1.202031000000000E+02
4882000000.000000      5.035095000000000E-01     -7.896484000000000E+00      5.172729000000000E-01      1.779844000000000E+02      5.505676000000000E-01     -5.809021000000000E-01      2.891998000000000E-01      1.206484000000000E+02
