! Network Analyzer HP8722D
! Hewlett-Packard
! Data name: Linha & Wilkinson
! Saver's name: Rodrigo Anjos
! Comments: Teste da utilização de aquisição
continua pelo VNA HP8722D
! Time and date: 8/5/2025 16:18
!              Frequency                     S11                                                   S21                                                   S12                                                   S22
# HZ  S  MA R 50
4800000000.000000      4.922180000000000E-01     -1.669765000000000E+02      2.706909000000000E-01     -2.191406000000000E+01      2.670593000000000E-01     -1.431094000000000E+02      6.545715000000000E-01     -8.023438000000000E+01
4801000000.000000      4.933472000000000E-01     -1.670703000000000E+02      2.744904000000000E-01     -2.231640000000000E+01      2.698669000000000E-01     -1.433125000000000E+02      6.542358000000000E-01     -8.003906000000000E+01
4802000000.000000      4.950256000000000E-01     -1.671875000000000E+02      2.779083000000000E-01     -2.249609000000000E+01      2.738647000000000E-01     -1.433203000000000E+02      6.543274000000000E-01     -7.966797000000000E+01
4803000000.000000      4.971924000000000E-01     -1.672422000000000E+02      2.825470000000000E-01     -2.283398000000000E+01      2.769012000000000E-01     -1.434453000000000E+02      6.529846000000000E-01     -7.955468000000000E+01
4804000000.000000      4.994659000000000E-01     -1.672031000000000E+02      2.864075000000000E-01     -2.323340000000000E+01      2.805481000000000E-01     -1.437891000000000E+02      6.536255000000000E-01     -7.929296000000000E+01
4805000000.000000      5.023804000000000E-01     -1.673281000000000E+02      2.899628000000000E-01     -2.356640000000000E+01      2.840118000000000E-01     -1.437109000000000E+02      6.536255000000000E-01     -7.919140000000000E+01
4806000000.000000      5.046082000000000E-01     -1.672188000000000E+02      2.941437000000000E-01     -2.381738000000000E+01      2.866516000000000E-01     -1.437187000000000E+02      6.545410000000000E-01     -7.898828000000000E+01
4807000000.000000      5.075073000000000E-01     -1.673125000000000E+02      2.981873000000000E-01     -2.421972000000000E+01      2.905579000000000E-01     -1.440469000000000E+02      6.532593000000000E-01     -7.878124000000000E+01
4808000000.000000      5.104980000000000E-01     -1.672344000000000E+02      3.025208000000000E-01     -2.448047000000000E+01      2.932434000000000E-01     -1.442500000000000E+02      6.535950000000000E-01     -7.850390000000000E+01
4809000000.000000      5.133667000000000E-01     -1.673281000000000E+02      3.051605000000000E-01     -2.510449000000000E+01      2.971344000000000E-01     -1.444531000000000E+02      6.553650000000000E-01     -7.841797000000000E+01
4810000000.000000      5.165405000000000E-01     -1.673750000000000E+02      3.093414000000000E-01     -2.518945000000000E+01      3.005066000000000E-01     -1.445313000000000E+02      6.564636000000000E-01     -7.821875000000000E+01
4811000000.000000      5.201416000000000E-01     -1.672578000000000E+02      3.126068000000000E-01     -2.589941000000000E+01      3.038940000000000E-01     -1.446563000000000E+02      6.551819000000000E-01     -7.799218000000000E+01
4812000000.000000      5.249939000000000E-01     -1.672422000000000E+02      3.159943000000000E-01     -2.611133000000000E+01      3.074951000000000E-01     -1.447578000000000E+02      6.571045000000000E-01     -7.783203000000000E+01
4813000000.000000      5.271301000000000E-01     -1.672031000000000E+02      3.197632000000000E-01     -2.666308000000000E+01      3.094330000000000E-01     -1.448672000000000E+02      6.581421000000000E-01     -7.758203000000000E+01
4814000000.000000      5.305176000000000E-01     -1.673047000000000E+02      3.228607000000000E-01     -2.708984000000000E+01      3.126068000000000E-01     -1.451953000000000E+02      6.587830000000000E-01     -7.759766000000000E+01
4815000000.000000      5.347290000000000E-01     -1.671641000000000E+02      3.261108000000000E-01     -2.748926000000000E+01      3.156586000000000E-01     -1.452656000000000E+02      6.594543000000000E-01     -7.733593000000000E+01
4816000000.000000      5.393677000000000E-01     -1.670859000000000E+02      3.303833000000000E-01     -2.780176000000000E+01      3.184052000000000E-01     -1.454922000000000E+02      6.621399000000000E-01     -7.719531000000000E+01
4817000000.000000      5.444946000000000E-01     -1.670938000000000E+02      3.333893000000000E-01     -2.846972000000000E+01      3.212891000000000E-01     -1.457500000000000E+02      6.627197000000000E-01     -7.712109000000000E+01
4818000000.000000      5.483398000000000E-01     -1.670391000000000E+02      3.361969000000000E-01     -2.891602000000000E+01      3.237152000000000E-01     -1.458516000000000E+02      6.645203000000000E-01     -7.697266000000000E+01
4819000000.000000      5.532532000000000E-01     -1.669922000000000E+02      3.394775000000000E-01     -2.939746000000000E+01      3.265076000000000E-01     -1.461641000000000E+02      6.678162000000000E-01     -7.696484000000000E+01
4820000000.000000      5.563049000000000E-01     -1.669844000000000E+02      3.424530000000000E-01     -2.974707000000000E+01      3.289795000000000E-01     -1.463203000000000E+02      6.689453000000000E-01     -7.679688000000000E+01
4821000000.000000      5.621338000000000E-01     -1.669297000000000E+02      3.459930000000000E-01     -3.030078000000000E+01      3.321533000000000E-01     -1.466250000000000E+02      6.705933000000000E-01     -7.671093000000000E+01
4822000000.000000      5.694275000000000E-01     -1.668828000000000E+02      3.485260000000000E-01     -3.091992000000000E+01      3.339386000000000E-01     -1.468047000000000E+02      6.733398000000000E-01     -7.655078000000000E+01
4823000000.000000      5.734863000000000E-01     -1.667891000000000E+02      3.509216000000000E-01     -3.134082000000000E+01      3.367462000000000E-01     -1.467031000000000E+02      6.758728000000000E-01     -7.645702000000000E+01
4824000000.000000      5.805359000000000E-01     -1.668516000000000E+02      3.543243000000000E-01     -3.184961000000000E+01      3.398132000000000E-01     -1.471562000000000E+02      6.788330000000000E-01     -7.643359000000000E+01
4825000000.000000      5.848083000000000E-01     -1.667500000000000E+02      3.564758000000000E-01     -3.242578000000000E+01      3.424377000000000E-01     -1.473203000000000E+02      6.811829000000000E-01     -7.628515000000000E+01
4826000000.000000      5.915222000000000E-01     -1.666328000000000E+02      3.598938000000000E-01     -3.280273000000000E+01      3.442688000000000E-01     -1.476484000000000E+02      6.838989000000000E-01     -7.623047000000000E+01
4827000000.000000      5.979614000000000E-01     -1.665000000000000E+02      3.622131000000000E-01     -3.339453000000000E+01      3.463135000000000E-01     -1.476641000000000E+02      6.871948000000000E-01     -7.608984000000000E+01
4828000000.000000      6.046753000000000E-01     -1.665390000000000E+02      3.650818000000000E-01     -3.378320000000000E+01      3.484802000000000E-01     -1.479063000000000E+02      6.896667000000000E-01     -7.608203000000000E+01
4829000000.000000      6.083374000000000E-01     -1.664141000000000E+02      3.662872000000000E-01     -3.441211000000000E+01      3.512115000000000E-01     -1.480625000000000E+02      6.935425000000000E-01     -7.588672000000000E+01
4830000000.000000      6.156921000000000E-01     -1.664531000000000E+02      3.688507000000000E-01     -3.496679000000000E+01      3.529663000000000E-01     -1.481719000000000E+02      6.960144000000000E-01     -7.593750000000000E+01
4831000000.000000      6.213989000000000E-01     -1.663672000000000E+02      3.711395000000000E-01     -3.552734000000000E+01      3.551483000000000E-01     -1.483438000000000E+02      7.000427000000000E-01     -7.592578000000000E+01
4832000000.000000      6.297607000000000E-01     -1.663203000000000E+02      3.733673000000000E-01     -3.616015000000000E+01      3.572235000000000E-01     -1.486172000000000E+02      7.027893000000000E-01     -7.589844000000000E+01
4833000000.000000      6.356812000000000E-01     -1.664141000000000E+02      3.756104000000000E-01     -3.664648000000000E+01      3.587036000000000E-01     -1.488750000000000E+02      7.056885000000000E-01     -7.584374000000000E+01
4834000000.000000      6.427917000000000E-01     -1.662891000000000E+02      3.771973000000000E-01     -3.709961000000000E+01      3.614502000000000E-01     -1.490781000000000E+02      7.086792000000000E-01     -7.576172000000000E+01
4835000000.000000      6.490479000000000E-01     -1.662109000000000E+02      3.794556000000000E-01     -3.771093000000000E+01      3.634186000000000E-01     -1.491562000000000E+02      7.130432000000000E-01     -7.580468000000000E+01
4836000000.000000      6.578064000000000E-01     -1.661562000000000E+02      3.800812000000000E-01     -3.826953000000000E+01      3.646545000000000E-01     -1.493047000000000E+02      7.168884000000000E-01     -7.568749000000000E+01
4837000000.000000      6.644592000000000E-01     -1.660547000000000E+02      3.816071000000000E-01     -3.903906000000000E+01      3.661652000000000E-01     -1.496172000000000E+02      7.204895000000000E-01     -7.575390000000000E+01
4838000000.000000      6.711426000000000E-01     -1.661797000000000E+02      3.837585000000000E-01     -3.940820000000000E+01      3.688507000000000E-01     -1.497344000000000E+02      7.241516000000000E-01     -7.568359000000000E+01
4839000000.000000      6.786804000000000E-01     -1.660234000000000E+02      3.848114000000000E-01     -3.988476000000000E+01      3.703156000000000E-01     -1.498125000000000E+02      7.273254000000000E-01     -7.561328000000000E+01
4840000000.000000      6.847534000000000E-01     -1.661641000000000E+02      3.857880000000000E-01     -4.043554000000000E+01      3.723907000000000E-01     -1.500781000000000E+02      7.309265000000000E-01     -7.569921000000000E+01
4841000000.000000      6.927795000000000E-01     -1.661484000000000E+02      3.874969000000000E-01     -4.109179000000000E+01      3.735352000000000E-01     -1.503125000000000E+02      7.350769000000000E-01     -7.572266000000000E+01
4842000000.000000      7.002563000000000E-01     -1.660391000000000E+02      3.884735000000000E-01     -4.146680000000000E+01      3.748932000000000E-01     -1.504844000000000E+02      7.409363000000000E-01     -7.580468000000000E+01
4843000000.000000      7.063293000000000E-01     -1.661484000000000E+02      3.890991000000000E-01     -4.209374000000000E+01      3.766937000000000E-01     -1.505078000000000E+02      7.436829000000000E-01     -7.571094000000000E+01
4844000000.000000      7.133484000000000E-01     -1.660625000000000E+02      3.901367000000000E-01     -4.259570000000000E+01      3.771973000000000E-01     -1.507813000000000E+02      7.485352000000000E-01     -7.570703000000000E+01
4845000000.000000      7.198181000000000E-01     -1.660547000000000E+02      3.905029000000000E-01     -4.316992000000000E+01      3.794861000000000E-01     -1.509375000000000E+02      7.514038000000000E-01     -7.568359000000000E+01
4846000000.000000      7.277222000000000E-01     -1.660000000000000E+02      3.908844000000000E-01     -4.353516000000000E+01      3.813477000000000E-01     -1.510625000000000E+02      7.560425000000000E-01     -7.573047000000000E+01
4847000000.000000      7.354431000000000E-01     -1.660625000000000E+02      3.923340000000000E-01     -4.420507000000000E+01      3.830872000000000E-01     -1.513203000000000E+02      7.614136000000000E-01     -7.577734000000000E+01
4848000000.000000      7.421875000000000E-01     -1.660312000000000E+02      3.919373000000000E-01     -4.468554000000000E+01      3.840637000000000E-01     -1.514141000000000E+02      7.653503000000000E-01     -7.586719000000000E+01
4849000000.000000      7.492981000000000E-01     -1.663125000000000E+02      3.927460000000000E-01     -4.518945000000000E+01      3.854065000000000E-01     -1.515312000000000E+02      7.691956000000000E-01     -7.588281000000000E+01
4850000000.000000      7.559509000000000E-01     -1.660547000000000E+02      3.927765000000000E-01     -4.560742000000000E+01      3.869324000000000E-01     -1.516328000000000E+02      7.744446000000000E-01     -7.582812000000000E+01
4851000000.000000      7.630310000000000E-01     -1.660703000000000E+02      3.929291000000000E-01     -4.626758000000000E+01      3.878784000000000E-01     -1.518359000000000E+02      7.802124000000000E-01     -7.592968000000000E+01
4852000000.000000      7.703247000000000E-01     -1.661250000000000E+02      3.934479000000000E-01     -4.675000000000000E+01      3.887939000000000E-01     -1.519844000000000E+02      7.836914000000000E-01     -7.594921000000000E+01
4853000000.000000      7.768860000000000E-01     -1.661484000000000E+02      3.923492000000000E-01     -4.721875000000000E+01      3.908081000000000E-01     -1.522109000000000E+02      7.882996000000000E-01     -7.607031000000000E+01
4854000000.000000      7.828369000000000E-01     -1.662031000000000E+02      3.925781000000000E-01     -4.791016000000000E+01      3.914337000000000E-01     -1.523438000000000E+02      7.926025000000000E-01     -7.601171000000000E+01
4855000000.000000      7.879333000000000E-01     -1.662188000000000E+02      3.928833000000000E-01     -4.820507000000000E+01      3.928070000000000E-01     -1.523359000000000E+02      7.955627000000000E-01     -7.604297000000000E+01
4856000000.000000      7.962952000000000E-01     -1.661875000000000E+02      3.914032000000000E-01     -4.862695000000000E+01      3.940125000000000E-01     -1.525469000000000E+02      8.017273000000000E-01     -7.611328000000000E+01
4857000000.000000      8.021851000000000E-01     -1.662969000000000E+02      3.919220000000000E-01     -4.915429000000000E+01      3.951721000000000E-01     -1.526875000000000E+02      8.062744000000000E-01     -7.617578000000000E+01
4858000000.000000      8.038330000000000E-01     -1.662578000000000E+02      3.910980000000000E-01     -4.959961000000000E+01      3.955231000000000E-01     -1.528359000000000E+02      8.111572000000000E-01     -7.641796000000000E+01
4859000000.000000      8.121643000000000E-01     -1.664063000000000E+02      3.899078000000000E-01     -5.005077000000000E+01      3.970184000000000E-01     -1.531016000000000E+02      8.163757000000000E-01     -7.646484000000000E+01
4860000000.000000      8.203125000000000E-01     -1.663906000000000E+02      3.901062000000000E-01     -5.030663000000000E+01      3.978424000000000E-01     -1.531094000000000E+02      8.204651000000000E-01     -7.638281000000000E+01
4861000000.000000      8.255005000000000E-01     -1.663750000000000E+02      3.882446000000000E-01     -5.092773000000000E+01      3.991852000000000E-01     -1.533125000000000E+02      8.249512000000000E-01     -7.654687000000000E+01
4862000000.000000      8.303223000000000E-01     -1.663516000000000E+02      3.884277000000000E-01     -5.136132000000000E+01      3.999939000000000E-01     -1.533984000000000E+02      8.315735000000000E-01     -7.653906000000000E+01
4863000000.000000      8.340454000000000E-01     -1.663828000000000E+02      3.866882000000000E-01     -5.182812000000000E+01      4.014740000000000E-01     -1.535000000000000E+02      8.340149000000000E-01     -7.659374000000000E+01
4864000000.000000      8.411560000000000E-01     -1.663281000000000E+02      3.860931000000000E-01     -5.188477000000000E+01      4.009247000000000E-01     -1.536797000000000E+02      8.382874000000000E-01     -7.680078000000000E+01
4865000000.000000      8.429871000000000E-01     -1.665703000000000E+02      3.840485000000000E-01     -5.239843000000000E+01      4.022522000000000E-01     -1.538750000000000E+02      8.438721000000000E-01     -7.672265000000000E+01
4866000000.000000      8.483887000000000E-01     -1.664844000000000E+02      3.837585000000000E-01     -5.279882000000000E+01      4.025421000000000E-01     -1.540313000000000E+02      8.494873000000000E-01     -7.678124000000000E+01
4867000000.000000      8.528442000000000E-01     -1.663437000000000E+02      3.834229000000000E-01     -5.317187000000000E+01      4.033813000000000E-01     -1.541641000000000E+02      8.538818000000000E-01     -7.693359000000000E+01
4868000000.000000      8.572083000000000E-01     -1.666484000000000E+02      3.815155000000000E-01     -5.347070000000000E+01      4.051361000000000E-01     -1.542422000000000E+02      8.574829000000000E-01     -7.705859000000000E+01
4869000000.000000      8.619690000000000E-01     -1.665313000000000E+02      3.795013000000000E-01     -5.398242000000000E+01      4.052734000000000E-01     -1.545234000000000E+02      8.627625000000000E-01     -7.729687000000000E+01
4870000000.000000      8.647461000000000E-01     -1.664766000000000E+02      3.790283000000000E-01     -5.394726000000000E+01      4.056702000000000E-01     -1.546406000000000E+02      8.663025000000000E-01     -7.725780000000000E+01
4871000000.000000      8.678589000000000E-01     -1.666016000000000E+02      3.778381000000000E-01     -5.452148000000000E+01      4.055634000000000E-01     -1.548047000000000E+02      8.706360000000000E-01     -7.733984000000000E+01
4872000000.000000      8.728638000000000E-01     -1.665703000000000E+02      3.758240000000000E-01     -5.453125000000000E+01      4.062653000000000E-01     -1.550390000000000E+02      8.748779000000000E-01     -7.758203000000000E+01
4873000000.000000      8.756104000000000E-01     -1.664219000000000E+02      3.746338000000000E-01     -5.496679000000000E+01      4.060211000000000E-01     -1.550313000000000E+02      8.789368000000000E-01     -7.763281000000000E+01
4874000000.000000      8.768616000000000E-01     -1.662891000000000E+02      3.730316000000000E-01     -5.526562000000000E+01      4.074860000000000E-01     -1.551094000000000E+02      8.834839000000000E-01     -7.750000000000000E+01
4875000000.000000      8.848572000000000E-01     -1.663516000000000E+02      3.709259000000000E-01     -5.545507000000000E+01      4.072266000000000E-01     -1.554297000000000E+02      8.866272000000000E-01     -7.784374000000000E+01
4876000000.000000      8.835449000000000E-01     -1.663281000000000E+02      3.693390000000000E-01     -5.572070000000000E+01      4.067383000000000E-01     -1.555156000000000E+02      8.910217000000000E-01     -7.791406000000000E+01
4877000000.000000      8.876343000000000E-01     -1.663984000000000E+02      3.687286000000000E-01     -5.583398000000000E+01      4.080963000000000E-01     -1.557031000000000E+02      8.953857000000000E-01     -7.806250000000000E+01
4878000000.000000      8.874512000000000E-01     -1.662500000000000E+02      3.677673000000000E-01     -5.607422000000000E+01      4.077759000000000E-01     -1.557266000000000E+02      9.000549000000000E-01     -7.823828000000000E+01
4879000000.000000      8.911133000000000E-01     -1.662891000000000E+02      3.658447000000000E-01     -5.622070000000000E+01      4.073944000000000E-01     -1.558672000000000E+02      9.015198000000000E-01     -7.821094000000000E+01
4880000000.000000      8.916931000000000E-01     -1.662031000000000E+02      3.642731000000000E-01     -5.649219000000000E+01      4.083710000000000E-01     -1.559453000000000E+02      9.060364000000000E-01     -7.831640000000000E+01
4881000000.000000      8.945313000000000E-01     -1.659844000000000E+02      3.632355000000000E-01     -5.648438000000000E+01      4.082642000000000E-01     -1.562109000000000E+02      9.088745000000000E-01     -7.857031000000000E+01
4882000000.000000      8.949585000000000E-01     -1.660781000000000E+02      3.614502000000000E-01     -5.673828000000000E+01      4.082031000000000E-01     -1.562031000000000E+02      9.123230000000000E-01     -7.864452000000000E+01
