! Network Analyzer HP8722D
! Hewlett-Packard
! Data name: Linha & Wilkinson
! Saver's name: Rodrigo Anjos
! Comments: Teste da utilização de aquisição
continua pelo VNA HP8722D
! Time and date: 8/5/2025 15:56
!              Frequency                     S11                                                   S21                                                   S12                                                   S22
# HZ  S  MA R 50
4800000000.000000      8.958435000000000E-01      1.155547000000000E+02      3.237610000000000E-01     -1.709141000000000E+02      2.591248000000000E-01     -8.637110000000000E+01      9.792175000000000E-01     -4.808398000000000E+01
4801000000.000000      8.955688000000000E-01      1.157227000000000E+02      3.230133000000000E-01     -1.709141000000000E+02      2.585754000000000E-01     -8.635937000000000E+01      9.758301000000000E-01     -4.809570000000000E+01
4802000000.000000      8.940735000000000E-01      1.160156000000000E+02      3.231812000000000E-01     -1.707031000000000E+02      2.596436000000000E-01     -8.608593000000000E+01      9.708862000000000E-01     -4.810937000000000E+01
4803000000.000000      8.903809000000000E-01      1.162266000000000E+02      3.239594000000000E-01     -1.706563000000000E+02      2.589111000000000E-01     -8.592968000000000E+01      9.642944000000000E-01     -4.831249000000000E+01
4804000000.000000      8.906250000000000E-01      1.165547000000000E+02      3.237610000000000E-01     -1.707500000000000E+02      2.595520000000000E-01     -8.593750000000000E+01      9.591675000000000E-01     -4.825976000000000E+01
4805000000.000000      8.899536000000000E-01      1.167266000000000E+02      3.247223000000000E-01     -1.707031000000000E+02      2.589264000000000E-01     -8.556250000000000E+01      9.541626000000000E-01     -4.843945000000000E+01
4806000000.000000      8.868103000000000E-01      1.170547000000000E+02      3.255463000000000E-01     -1.706563000000000E+02      2.583160000000000E-01     -8.531250000000000E+01      9.479370000000000E-01     -4.859961000000000E+01
4807000000.000000      8.836975000000000E-01      1.169531000000000E+02      3.258209000000000E-01     -1.708203000000000E+02      2.590332000000000E-01     -8.516796000000000E+01      9.423523000000000E-01     -4.846093000000000E+01
4808000000.000000      8.828735000000000E-01      1.175156000000000E+02      3.267365000000000E-01     -1.706094000000000E+02      2.588196000000000E-01     -8.503906000000000E+01      9.357300000000000E-01     -4.857616000000000E+01
4809000000.000000      8.794250000000000E-01      1.177148000000000E+02      3.264008000000000E-01     -1.707656000000000E+02      2.595062000000000E-01     -8.482813000000000E+01      9.317322000000000E-01     -4.856250000000000E+01
4810000000.000000      8.782959000000000E-01      1.179531000000000E+02      3.275909000000000E-01     -1.704844000000000E+02      2.588348000000000E-01     -8.456640000000000E+01      9.262085000000000E-01     -4.880273000000000E+01
4811000000.000000      8.748779000000000E-01      1.181875000000000E+02      3.283844000000000E-01     -1.708281000000000E+02      2.600555000000000E-01     -8.423828000000000E+01      9.206543000000000E-01     -4.863086000000000E+01
4812000000.000000      8.710022000000000E-01      1.186094000000000E+02      3.280182000000000E-01     -1.706640000000000E+02      2.593689000000000E-01     -8.402344000000000E+01      9.149170000000000E-01     -4.889453000000000E+01
4813000000.000000      8.719482000000000E-01      1.188008000000000E+02      3.290253000000000E-01     -1.707031000000000E+02      2.593842000000000E-01     -8.382030000000000E+01      9.107666000000000E-01     -4.884179000000000E+01
4814000000.000000      8.648376000000000E-01      1.189258000000000E+02      3.294220000000000E-01     -1.706719000000000E+02      2.593536000000000E-01     -8.350389000000000E+01      9.044189000000000E-01     -4.891211000000000E+01
4815000000.000000      8.633118000000000E-01      1.191406000000000E+02      3.302765000000000E-01     -1.707891000000000E+02      2.593079000000000E-01     -8.323046000000000E+01      8.993835000000000E-01     -4.884375000000000E+01
4816000000.000000      8.641357000000000E-01      1.194219000000000E+02      3.313904000000000E-01     -1.707969000000000E+02      2.600403000000000E-01     -8.298828000000000E+01      8.948975000000000E-01     -4.906640000000000E+01
4817000000.000000      8.594360000000000E-01      1.197383000000000E+02      3.313904000000000E-01     -1.709531000000000E+02      2.596283000000000E-01     -8.271484000000000E+01      8.888245000000000E-01     -4.906836000000000E+01
4818000000.000000      8.549194000000000E-01      1.198008000000000E+02      3.321075000000000E-01     -1.709531000000000E+02      2.595520000000000E-01     -8.235546000000000E+01      8.835449000000000E-01     -4.909570000000000E+01
4819000000.000000      8.540955000000000E-01      1.199219000000000E+02      3.327179000000000E-01     -1.709922000000000E+02      2.586365000000000E-01     -8.217577000000000E+01      8.779602000000000E-01     -4.924609000000000E+01
4820000000.000000      8.474426000000000E-01      1.202500000000000E+02      3.331909000000000E-01     -1.709844000000000E+02      2.595367000000000E-01     -8.176172000000000E+01      8.725281000000000E-01     -4.923437000000000E+01
4821000000.000000      8.467407000000000E-01      1.205430000000000E+02      3.346710000000000E-01     -1.712109000000000E+02      2.598724000000000E-01     -8.160547000000000E+01      8.660278000000000E-01     -4.928515000000000E+01
4822000000.000000      8.435059000000000E-01      1.204414000000000E+02      3.345642000000000E-01     -1.714453000000000E+02      2.589111000000000E-01     -8.144140000000000E+01      8.631592000000000E-01     -4.945507000000000E+01
4823000000.000000      8.408508000000000E-01      1.207773000000000E+02      3.357849000000000E-01     -1.713125000000000E+02      2.590179000000000E-01     -8.080078000000000E+01      8.570862000000000E-01     -4.941601000000000E+01
4824000000.000000      8.372192000000000E-01      1.209766000000000E+02      3.362885000000000E-01     -1.716953000000000E+02      2.593079000000000E-01     -8.062500000000000E+01      8.509521000000000E-01     -4.947070000000000E+01
4825000000.000000      8.308411000000000E-01      1.209570000000000E+02      3.367310000000000E-01     -1.717578000000000E+02      2.596130000000000E-01     -8.030468000000000E+01      8.476868000000000E-01     -4.957226000000000E+01
4826000000.000000      8.297729000000000E-01      1.213047000000000E+02      3.378754000000000E-01     -1.718906000000000E+02      2.590332000000000E-01     -8.013281000000000E+01      8.429260000000000E-01     -4.965820000000000E+01
4827000000.000000      8.260193000000000E-01      1.215664000000000E+02      3.379211000000000E-01     -1.720312000000000E+02      2.589722000000000E-01     -7.975780000000000E+01      8.374939000000000E-01     -4.973437000000000E+01
4828000000.000000      8.241577000000000E-01      1.214375000000000E+02      3.389435000000000E-01     -1.721250000000000E+02      2.584991000000000E-01     -7.940624000000000E+01      8.329773000000000E-01     -4.984961000000000E+01
4829000000.000000      8.144226000000000E-01      1.217930000000000E+02      3.387146000000000E-01     -1.723281000000000E+02      2.601471000000000E-01     -7.904687000000000E+01      8.310852000000000E-01     -4.984961000000000E+01
4830000000.000000      8.115234000000000E-01      1.217734000000000E+02      3.392487000000000E-01     -1.726797000000000E+02      2.590179000000000E-01     -7.865234000000000E+01      8.238525000000000E-01     -4.998828000000000E+01
4831000000.000000      8.042297000000000E-01      1.218828000000000E+02      3.396149000000000E-01     -1.726875000000000E+02      2.598419000000000E-01     -7.817577000000000E+01      8.204346000000000E-01     -4.998241000000000E+01
4832000000.000000      8.029175000000000E-01      1.219727000000000E+02      3.403931000000000E-01     -1.729531000000000E+02      2.593842000000000E-01     -7.793359000000000E+01      8.155518000000000E-01     -5.006054000000000E+01
4833000000.000000      7.987366000000000E-01      1.218008000000000E+02      3.402557000000000E-01     -1.731562000000000E+02      2.592468000000000E-01     -7.764843000000000E+01      8.113708000000000E-01     -5.017187000000000E+01
4834000000.000000      7.923279000000000E-01      1.221016000000000E+02      3.410034000000000E-01     -1.734766000000000E+02      2.599030000000000E-01     -7.738281000000000E+01      8.068848000000000E-01     -5.018555000000000E+01
4835000000.000000      7.902527000000000E-01      1.221250000000000E+02      3.413239000000000E-01     -1.735625000000000E+02      2.597961000000000E-01     -7.692968000000000E+01      8.022156000000000E-01     -5.027929000000000E+01
4836000000.000000      7.837830000000000E-01      1.221680000000000E+02      3.410492000000000E-01     -1.739531000000000E+02      2.600098000000000E-01     -7.664063000000000E+01      7.989502000000000E-01     -5.028710000000000E+01
4837000000.000000      7.782898000000000E-01      1.224648000000000E+02      3.414154000000000E-01     -1.742891000000000E+02      2.603607000000000E-01     -7.633984000000000E+01      7.955322000000000E-01     -5.034765000000000E+01
4838000000.000000      7.728577000000000E-01      1.223047000000000E+02      3.418121000000000E-01     -1.743828000000000E+02      2.605133000000000E-01     -7.592968000000000E+01      7.899780000000000E-01     -5.036914000000000E+01
4839000000.000000      7.689209000000000E-01      1.223906000000000E+02      3.413544000000000E-01     -1.745000000000000E+02      2.599487000000000E-01     -7.570313000000000E+01      7.877197000000000E-01     -5.048633000000000E+01
4840000000.000000      7.637329000000000E-01      1.224570000000000E+02      3.415375000000000E-01     -1.747266000000000E+02      2.608185000000000E-01     -7.526953000000000E+01      7.836304000000000E-01     -5.056445000000000E+01
4841000000.000000      7.587585000000000E-01      1.223203000000000E+02      3.412781000000000E-01     -1.751406000000000E+02      2.615662000000000E-01     -7.497656000000000E+01      7.805176000000000E-01     -5.066015000000000E+01
4842000000.000000      7.522278000000000E-01      1.223438000000000E+02      3.411713000000000E-01     -1.752812000000000E+02      2.613678000000000E-01     -7.467578000000000E+01      7.783508000000000E-01     -5.066211000000000E+01
4843000000.000000      7.469177000000000E-01      1.222969000000000E+02      3.414459000000000E-01     -1.754688000000000E+02      2.614288000000000E-01     -7.437109000000000E+01      7.736206000000000E-01     -5.066796000000000E+01
4844000000.000000      7.420959000000000E-01      1.221367000000000E+02      3.406982000000000E-01     -1.758750000000000E+02      2.611694000000000E-01     -7.402734000000000E+01      7.700806000000000E-01     -5.078906000000000E+01
4845000000.000000      7.348938000000000E-01      1.222266000000000E+02      3.400726000000000E-01     -1.759766000000000E+02      2.621918000000000E-01     -7.365624000000000E+01      7.663574000000000E-01     -5.088281000000000E+01
4846000000.000000      7.293396000000000E-01      1.221719000000000E+02      3.394775000000000E-01     -1.761484000000000E+02      2.631226000000000E-01     -7.333984000000000E+01      7.632751000000000E-01     -5.092968000000000E+01
4847000000.000000      7.251587000000000E-01      1.220430000000000E+02      3.394470000000000E-01     -1.764219000000000E+02      2.630005000000000E-01     -7.313671000000000E+01      7.611694000000000E-01     -5.104882000000000E+01
4848000000.000000      7.166748000000000E-01      1.218984000000000E+02      3.385010000000000E-01     -1.767344000000000E+02      2.628174000000000E-01     -7.279297000000000E+01      7.570801000000000E-01     -5.112499000000000E+01
4849000000.000000      7.113342000000000E-01      1.216758000000000E+02      3.385925000000000E-01     -1.770078000000000E+02      2.632446000000000E-01     -7.237109000000000E+01      7.534790000000000E-01     -5.106640000000000E+01
4850000000.000000      7.048035000000000E-01      1.215742000000000E+02      3.374023000000000E-01     -1.773828000000000E+02      2.638550000000000E-01     -7.207812000000000E+01      7.507019000000000E-01     -5.117773000000000E+01
4851000000.000000      6.997681000000000E-01      1.215977000000000E+02      3.380127000000000E-01     -1.775547000000000E+02      2.641296000000000E-01     -7.188281000000000E+01      7.483215000000000E-01     -5.131445000000000E+01
4852000000.000000      6.958618000000000E-01      1.214844000000000E+02      3.370514000000000E-01     -1.777578000000000E+02      2.645569000000000E-01     -7.154687000000000E+01      7.455750000000000E-01     -5.130273000000000E+01
4853000000.000000      6.885071000000000E-01      1.212812000000000E+02      3.351593000000000E-01     -1.779844000000000E+02      2.649841000000000E-01     -7.114452000000000E+01      7.429810000000000E-01     -5.146874000000000E+01
4854000000.000000      6.819458000000000E-01      1.211250000000000E+02      3.344116000000000E-01     -1.784844000000000E+02      2.656097000000000E-01     -7.100780000000000E+01      7.409058000000000E-01     -5.141796000000000E+01
4855000000.000000      6.763000000000000E-01      1.207539000000000E+02      3.334808000000000E-01     -1.785312000000000E+02      2.657471000000000E-01     -7.066406000000000E+01      7.360229000000000E-01     -5.139257000000000E+01
4856000000.000000      6.688843000000000E-01      1.208242000000000E+02      3.335724000000000E-01     -1.787344000000000E+02      2.658386000000000E-01     -7.046875000000000E+01      7.343445000000000E-01     -5.151953000000000E+01
4857000000.000000      6.624756000000000E-01      1.204922000000000E+02      3.323822000000000E-01     -1.789687000000000E+02      2.661896000000000E-01     -7.014062000000000E+01      7.311096000000000E-01     -5.150976000000000E+01
4858000000.000000      6.561890000000000E-01      1.201719000000000E+02      3.313904000000000E-01     -1.792578000000000E+02      2.661743000000000E-01     -6.995703000000000E+01      7.287598000000000E-01     -5.178515000000000E+01
4859000000.000000      6.509094000000000E-01      1.199453000000000E+02      3.306122000000000E-01     -1.794375000000000E+02      2.666626000000000E-01     -6.972265000000000E+01      7.276611000000000E-01     -5.181445000000000E+01
4860000000.000000      6.449890000000000E-01      1.195391000000000E+02      3.295135000000000E-01     -1.796641000000000E+02      2.669830000000000E-01     -6.941796000000000E+01      7.237549000000000E-01     -5.171679000000000E+01
4861000000.000000      6.373901000000000E-01      1.194258000000000E+02      3.282166000000000E-01     -1.800000000000000E+02      2.673798000000000E-01     -6.921093000000000E+01      7.211609000000000E-01     -5.184179000000000E+01
4862000000.000000      6.319275000000000E-01      1.191211000000000E+02      3.283539000000000E-01      1.798828000000000E+02      2.677765000000000E-01     -6.907031000000000E+01      7.203369000000000E-01     -5.182031000000000E+01
4863000000.000000      6.250000000000000E-01      1.187734000000000E+02      3.260345000000000E-01      1.796562000000000E+02      2.687378000000000E-01     -6.874609000000000E+01      7.179260000000000E-01     -5.187109000000000E+01
4864000000.000000      6.198425000000000E-01      1.184023000000000E+02      3.251038000000000E-01      1.794609000000000E+02      2.679443000000000E-01     -6.861328000000000E+01      7.141113000000000E-01     -5.205273000000000E+01
4865000000.000000      6.124268000000000E-01      1.180937000000000E+02      3.231506000000000E-01      1.794609000000000E+02      2.690582000000000E-01     -6.846874000000000E+01      7.137146000000000E-01     -5.192577000000000E+01
4866000000.000000      6.043701000000000E-01      1.178203000000000E+02      3.223724000000000E-01      1.791563000000000E+02      2.691345000000000E-01     -6.837500000000000E+01      7.105713000000000E-01     -5.198047000000000E+01
4867000000.000000      6.017151000000000E-01      1.173594000000000E+02      3.213959000000000E-01      1.788281000000000E+02      2.688904000000000E-01     -6.816015000000000E+01      7.090454000000000E-01     -5.202343000000000E+01
4868000000.000000      5.945129000000000E-01      1.169023000000000E+02      3.205109000000000E-01      1.787188000000000E+02      2.697144000000000E-01     -6.791797000000000E+01      7.062378000000000E-01     -5.200390000000000E+01
4869000000.000000      5.883484000000000E-01      1.165820000000000E+02      3.188324000000000E-01      1.785234000000000E+02      2.697754000000000E-01     -6.785937000000000E+01      7.040710000000000E-01     -5.215038000000000E+01
4870000000.000000      5.840454000000000E-01      1.162226000000000E+02      3.172150000000000E-01      1.785938000000000E+02      2.699432000000000E-01     -6.766015000000000E+01      7.024231000000000E-01     -5.211914000000000E+01
4871000000.000000      5.790405000000000E-01      1.155508000000000E+02      3.161011000000000E-01      1.783125000000000E+02      2.700958000000000E-01     -6.762500000000000E+01      6.995239000000000E-01     -5.224414000000000E+01
4872000000.000000      5.727844000000000E-01      1.153281000000000E+02      3.150635000000000E-01      1.782500000000000E+02      2.704010000000000E-01     -6.757813000000000E+01      6.988525000000000E-01     -5.215820000000000E+01
4873000000.000000      5.675354000000000E-01      1.148984000000000E+02      3.143005000000000E-01      1.780156000000000E+02      2.699738000000000E-01     -6.746094000000000E+01      6.957703000000000E-01     -5.224023000000000E+01
4874000000.000000      5.614014000000000E-01      1.144531000000000E+02      3.122711000000000E-01      1.780625000000000E+02      2.705383000000000E-01     -6.724609000000000E+01      6.929016000000000E-01     -5.219140000000000E+01
4875000000.000000      5.556641000000000E-01      1.139570000000000E+02      3.109589000000000E-01      1.777734000000000E+02      2.709503000000000E-01     -6.719531000000000E+01      6.907349000000000E-01     -5.224414000000000E+01
4876000000.000000      5.504456000000000E-01      1.134180000000000E+02      3.105164000000000E-01      1.776719000000000E+02      2.703857000000000E-01     -6.714844000000000E+01      6.892090000000000E-01     -5.240039000000000E+01
4877000000.000000      5.470886000000000E-01      1.126875000000000E+02      3.093262000000000E-01      1.775156000000000E+02      2.706909000000000E-01     -6.723827000000000E+01      6.868286000000000E-01     -5.230859000000000E+01
4878000000.000000      5.393066000000000E-01      1.122578000000000E+02      3.077850000000000E-01      1.774844000000000E+02      2.710876000000000E-01     -6.689843000000000E+01      6.855774000000000E-01     -5.228320000000000E+01
4879000000.000000      5.347595000000000E-01      1.117851000000000E+02      3.058777000000000E-01      1.774609000000000E+02      2.706909000000000E-01     -6.703906000000000E+01      6.829529000000000E-01     -5.229687000000000E+01
4880000000.000000      5.293579000000000E-01      1.112969000000000E+02      3.057861000000000E-01      1.772109000000000E+02      2.710876000000000E-01     -6.684375000000000E+01      6.803894000000000E-01     -5.222656000000000E+01
4881000000.000000      5.258179000000000E-01      1.108476000000000E+02      3.047333000000000E-01      1.771953000000000E+02      2.706604000000000E-01     -6.695313000000000E+01      6.800232000000000E-01     -5.224023000000000E+01
4882000000.000000      5.218506000000000E-01      1.102734000000000E+02      3.030548000000000E-01      1.771563000000000E+02      2.711182000000000E-01     -6.674609000000000E+01      6.768494000000000E-01     -5.221680000000000E+01
