! Network Analyzer HP8722D
! Hewlett-Packard
! Data name: Linha & Wilkinson
! Saver's name: Rodrigo Anjos
! Comments: Teste da utilização de aquisição
continua pelo VNA HP8722D
! Time and date: 8/5/2025 12:58
!              Frequency                     S11                                                   S21                                                   S12                                                   S22
# HZ  S  MA R 50
4800000000.000000      6.112366000000000E-01     -4.776172000000000E+01      4.162598000000000E-01     -2.200195000000000E+01      4.861450000000000E-01     -1.755781000000000E+02      4.918213000000000E-01     -1.799844000000000E+02
4801000000.000000      6.135864000000000E-01     -4.815234000000000E+01      4.182434000000000E-01     -2.234668000000000E+01      4.867706000000000E-01     -1.760000000000000E+02      4.940491000000000E-01      1.797109000000000E+02
4802000000.000000      6.154785000000000E-01     -4.892968000000000E+01      4.187927000000000E-01     -2.285058000000000E+01      4.903870000000000E-01     -1.763906000000000E+02      4.933624000000000E-01      1.789141000000000E+02
4803000000.000000      6.199341000000000E-01     -4.946094000000000E+01      4.208069000000000E-01     -2.320313000000000E+01      4.933624000000000E-01     -1.763515000000000E+02      4.972687000000000E-01      1.787422000000000E+02
4804000000.000000      6.206055000000000E-01     -4.997265000000000E+01      4.205780000000000E-01     -2.382813000000000E+01      4.949493000000000E-01     -1.768516000000000E+02      4.988403000000000E-01      1.786719000000000E+02
4805000000.000000      6.246033000000000E-01     -5.062109000000000E+01      4.211884000000000E-01     -2.428808000000000E+01      5.003662000000000E-01     -1.770625000000000E+02      5.007019000000000E-01      1.780391000000000E+02
4806000000.000000      6.272583000000000E-01     -5.115234000000000E+01      4.222717000000000E-01     -2.486230000000000E+01      5.012817000000000E-01     -1.773672000000000E+02      5.043945000000000E-01      1.777969000000000E+02
4807000000.000000      6.267090000000000E-01     -5.171679000000000E+01      4.218903000000000E-01     -2.545019000000000E+01      5.040588000000000E-01     -1.776016000000000E+02      5.057068000000000E-01      1.771641000000000E+02
4808000000.000000      6.289978000000000E-01     -5.231835000000000E+01      4.237671000000000E-01     -2.552539000000000E+01      5.083313000000000E-01     -1.779375000000000E+02      5.043945000000000E-01      1.772031000000000E+02
4809000000.000000      6.292725000000000E-01     -5.272265000000000E+01      4.257660000000000E-01     -2.649023000000000E+01      5.102844000000000E-01     -1.783828000000000E+02      5.111694000000000E-01      1.765234000000000E+02
4810000000.000000      6.340332000000000E-01     -5.346874000000000E+01      4.240417000000000E-01     -2.687207000000000E+01      5.144348000000000E-01     -1.786875000000000E+02      5.121765000000000E-01      1.762031000000000E+02
4811000000.000000      6.368713000000000E-01     -5.390234000000000E+01      4.247589000000000E-01     -2.768066000000000E+01      5.196228000000000E-01     -1.788906000000000E+02      5.127869000000000E-01      1.758359000000000E+02
4812000000.000000      6.382446000000000E-01     -5.423437000000000E+01      4.252472000000000E-01     -2.800488000000000E+01      5.218201000000000E-01     -1.793125000000000E+02      5.142212000000000E-01      1.753906000000000E+02
4813000000.000000      6.409912000000000E-01     -5.496484000000000E+01      4.254150000000000E-01     -2.850000000000000E+01      5.247498000000000E-01     -1.794375000000000E+02      5.180054000000000E-01      1.750156000000000E+02
4814000000.000000      6.434021000000000E-01     -5.540820000000000E+01      4.268951000000000E-01     -2.871973000000000E+01      5.256042000000000E-01     -1.799297000000000E+02      5.171814000000000E-01      1.747578000000000E+02
4815000000.000000      6.415100000000000E-01     -5.599218000000000E+01      4.252319000000000E-01     -2.961523000000000E+01      5.274658000000000E-01      1.794453000000000E+02      5.196533000000000E-01      1.738594000000000E+02
4816000000.000000      6.436157000000000E-01     -5.634766000000000E+01      4.260712000000000E-01     -2.996289000000000E+01      5.309753000000000E-01      1.792656000000000E+02      5.207825000000000E-01      1.736719000000000E+02
4817000000.000000      6.484680000000000E-01     -5.672656000000000E+01      4.254456000000000E-01     -3.053418000000000E+01      5.335999000000000E-01      1.786953000000000E+02      5.240784000000000E-01      1.734844000000000E+02
4818000000.000000      6.492615000000000E-01     -5.737109000000000E+01      4.249878000000000E-01     -3.099316000000000E+01      5.384216000000000E-01      1.781250000000000E+02      5.270691000000000E-01      1.728516000000000E+02
4819000000.000000      6.506653000000000E-01     -5.773046000000000E+01      4.240570000000000E-01     -3.149316000000000E+01      5.406189000000000E-01      1.780391000000000E+02      5.312195000000000E-01      1.728125000000000E+02
4820000000.000000      6.502686000000000E-01     -5.809570000000000E+01      4.241333000000000E-01     -3.211328000000000E+01      5.432129000000000E-01      1.772891000000000E+02      5.299988000000000E-01      1.719297000000000E+02
4821000000.000000      6.524658000000000E-01     -5.854297000000000E+01      4.239044000000000E-01     -3.272851000000000E+01      5.460510000000000E-01      1.767891000000000E+02      5.311890000000000E-01      1.714531000000000E+02
4822000000.000000      6.539612000000000E-01     -5.896093000000000E+01      4.218903000000000E-01     -3.288867000000000E+01      5.494690000000000E-01      1.764062000000000E+02      5.315552000000000E-01      1.708359000000000E+02
4823000000.000000      6.549377000000000E-01     -5.936523000000000E+01      4.222412000000000E-01     -3.362500000000000E+01      5.498657000000000E-01      1.758359000000000E+02      5.291138000000000E-01      1.706094000000000E+02
4824000000.000000      6.565552000000000E-01     -5.959961000000000E+01      4.219666000000000E-01     -3.412890000000000E+01      5.527039000000000E-01      1.749219000000000E+02      5.302734000000000E-01      1.699219000000000E+02
4825000000.000000      6.546326000000000E-01     -5.986328000000000E+01      4.209442000000000E-01     -3.469727000000000E+01      5.553284000000000E-01      1.747890000000000E+02      5.307617000000000E-01      1.694453000000000E+02
4826000000.000000      6.561279000000000E-01     -6.037695000000000E+01      4.195709000000000E-01     -3.508789000000000E+01      5.559082000000000E-01      1.742031000000000E+02      5.310059000000000E-01      1.688984000000000E+02
4827000000.000000      6.583862000000000E-01     -6.039648000000000E+01      4.199524000000000E-01     -3.543750000000000E+01      5.571899000000000E-01      1.735469000000000E+02      5.307617000000000E-01      1.683750000000000E+02
4828000000.000000      6.583252000000000E-01     -6.061328000000000E+01      4.192810000000000E-01     -3.615625000000000E+01      5.601807000000000E-01      1.730391000000000E+02      5.324097000000000E-01      1.680938000000000E+02
4829000000.000000      6.586304000000000E-01     -6.089062000000000E+01      4.167480000000000E-01     -3.658203000000000E+01      5.603638000000000E-01      1.726797000000000E+02      5.305176000000000E-01      1.677500000000000E+02
4830000000.000000      6.607361000000000E-01     -6.101171000000000E+01      4.165802000000000E-01     -3.716601000000000E+01      5.616150000000000E-01      1.718906000000000E+02      5.303955000000000E-01      1.667500000000000E+02
4831000000.000000      6.620178000000000E-01     -6.123437000000000E+01      4.164429000000000E-01     -3.765234000000000E+01      5.640259000000000E-01      1.713438000000000E+02      5.257263000000000E-01      1.662969000000000E+02
4832000000.000000      6.614990000000000E-01     -6.126953000000000E+01      4.140015000000000E-01     -3.805859000000000E+01      5.629578000000000E-01      1.706563000000000E+02      5.259399000000000E-01      1.659375000000000E+02
4833000000.000000      6.612854000000000E-01     -6.157421000000000E+01      4.116211000000000E-01     -3.837305000000000E+01      5.648193000000000E-01      1.701015000000000E+02      5.211792000000000E-01      1.654766000000000E+02
4834000000.000000      6.603394000000000E-01     -6.154687000000000E+01      4.111938000000000E-01     -3.900195000000000E+01      5.639954000000000E-01      1.694141000000000E+02      5.201416000000000E-01      1.649375000000000E+02
4835000000.000000      6.620178000000000E-01     -6.176562000000000E+01      4.106750000000000E-01     -3.950586000000000E+01      5.655823000000000E-01      1.687109000000000E+02      5.137024000000000E-01      1.645625000000000E+02
4836000000.000000      6.619568000000000E-01     -6.137695000000000E+01      4.096985000000000E-01     -3.982422000000000E+01      5.626221000000000E-01      1.682656000000000E+02      5.099182000000000E-01      1.638828000000000E+02
4837000000.000000      6.629944000000000E-01     -6.165625000000000E+01      4.083862000000000E-01     -4.053320000000000E+01      5.620728000000000E-01      1.672266000000000E+02      5.068665000000000E-01      1.634453000000000E+02
4838000000.000000      6.636047000000000E-01     -6.168750000000000E+01      4.074402000000000E-01     -4.073047000000000E+01      5.625610000000000E-01      1.667031000000000E+02      5.038452000000000E-01      1.629219000000000E+02
4839000000.000000      6.643982000000000E-01     -6.149609000000000E+01      4.064789000000000E-01     -4.098437000000000E+01      5.618286000000000E-01      1.663594000000000E+02      4.977875000000000E-01      1.627422000000000E+02
4840000000.000000      6.636963000000000E-01     -6.185937000000000E+01      4.056091000000000E-01     -4.155663000000000E+01      5.597534000000000E-01      1.655000000000000E+02      4.896088000000000E-01      1.621016000000000E+02
4841000000.000000      6.620483000000000E-01     -6.172656000000000E+01      4.039764000000000E-01     -4.204687000000000E+01      5.582581000000000E-01      1.647891000000000E+02      4.858093000000000E-01      1.613984000000000E+02
4842000000.000000      6.646729000000000E-01     -6.145898000000000E+01      4.021454000000000E-01     -4.243945000000000E+01      5.545654000000000E-01      1.643672000000000E+02      4.796143000000000E-01      1.612734000000000E+02
4843000000.000000      6.653748000000000E-01     -6.135351000000000E+01      4.015198000000000E-01     -4.299609000000000E+01      5.545044000000000E-01      1.637187000000000E+02      4.759521000000000E-01      1.608203000000000E+02
4844000000.000000      6.636658000000000E-01     -6.129687000000000E+01      4.004211000000000E-01     -4.334961000000000E+01      5.518799000000000E-01      1.628828000000000E+02      4.670410000000000E-01      1.606875000000000E+02
4845000000.000000      6.671143000000000E-01     -6.109179000000000E+01      3.999634000000000E-01     -4.369531000000000E+01      5.504150000000000E-01      1.622109000000000E+02      4.607239000000000E-01      1.605078000000000E+02
4846000000.000000      6.638794000000000E-01     -6.093359000000000E+01      3.991394000000000E-01     -4.393750000000000E+01      5.479736000000000E-01      1.616094000000000E+02      4.526215000000000E-01      1.599297000000000E+02
4847000000.000000      6.647034000000000E-01     -6.062109000000000E+01      3.969574000000000E-01     -4.445117000000000E+01      5.448303000000000E-01      1.609297000000000E+02      4.440155000000000E-01      1.597969000000000E+02
4848000000.000000      6.649780000000000E-01     -6.049218000000000E+01      3.957977000000000E-01     -4.499023000000000E+01      5.419006000000000E-01      1.604766000000000E+02      4.360199000000000E-01      1.594297000000000E+02
4849000000.000000      6.659241000000000E-01     -6.045703000000000E+01      3.943939000000000E-01     -4.541016000000000E+01      5.384521000000000E-01      1.596953000000000E+02      4.293365000000000E-01      1.589766000000000E+02
4850000000.000000      6.678772000000000E-01     -6.004101000000000E+01      3.930359000000000E-01     -4.578711000000000E+01      5.350037000000000E-01      1.591719000000000E+02      4.201508000000000E-01      1.589453000000000E+02
4851000000.000000      6.674805000000000E-01     -5.973046000000000E+01      3.928070000000000E-01     -4.640429000000000E+01      5.305176000000000E-01      1.585938000000000E+02      4.118347000000000E-01      1.589375000000000E+02
4852000000.000000      6.682129000000000E-01     -5.955664000000000E+01      3.922882000000000E-01     -4.658984000000000E+01      5.269775000000000E-01      1.580391000000000E+02      4.023285000000000E-01      1.590469000000000E+02
4853000000.000000      6.691284000000000E-01     -5.930273000000000E+01      3.887787000000000E-01     -4.725976000000000E+01      5.235291000000000E-01      1.575078000000000E+02      3.927307000000000E-01      1.588438000000000E+02
4854000000.000000      6.715088000000000E-01     -5.905468000000000E+01      3.895569000000000E-01     -4.772656000000000E+01      5.200500000000000E-01      1.570313000000000E+02      3.850250000000000E-01      1.589687000000000E+02
4855000000.000000      6.689148000000000E-01     -5.870898000000000E+01      3.859406000000000E-01     -4.822656000000000E+01      5.155029000000000E-01      1.562187000000000E+02      3.764343000000000E-01      1.593750000000000E+02
4856000000.000000      6.693420000000000E-01     -5.835546000000000E+01      3.856506000000000E-01     -4.859765000000000E+01      5.109558000000000E-01      1.557891000000000E+02      3.667297000000000E-01      1.594531000000000E+02
4857000000.000000      6.730957000000000E-01     -5.816601000000000E+01      3.851471000000000E-01     -4.904882000000000E+01      5.070801000000000E-01      1.552187000000000E+02      3.585358000000000E-01      1.597734000000000E+02
4858000000.000000      6.711121000000000E-01     -5.782421000000000E+01      3.843231000000000E-01     -4.953320000000000E+01      5.021973000000000E-01      1.547734000000000E+02      3.497162000000000E-01      1.599844000000000E+02
4859000000.000000      6.717529000000000E-01     -5.756249000000000E+01      3.818054000000000E-01     -4.997265000000000E+01      4.982758000000000E-01      1.543125000000000E+02      3.407745000000000E-01      1.606172000000000E+02
4860000000.000000      6.738892000000000E-01     -5.736718000000000E+01      3.813019000000000E-01     -5.024804000000000E+01      4.925995000000000E-01      1.536797000000000E+02      3.333588000000000E-01      1.610391000000000E+02
4861000000.000000      6.744995000000000E-01     -5.688477000000000E+01      3.789673000000000E-01     -5.102539000000000E+01      4.888916000000000E-01      1.533125000000000E+02      3.235626000000000E-01      1.616719000000000E+02
4862000000.000000      6.733704000000000E-01     -5.656054000000000E+01      3.781891000000000E-01     -5.131054000000000E+01      4.847107000000000E-01      1.529297000000000E+02      3.148956000000000E-01      1.622266000000000E+02
4863000000.000000      6.764221000000000E-01     -5.605859000000000E+01      3.767853000000000E-01     -5.192187000000000E+01      4.794312000000000E-01      1.525312000000000E+02      3.066254000000000E-01      1.630781000000000E+02
4864000000.000000      6.764526000000000E-01     -5.586328000000000E+01      3.760529000000000E-01     -5.221680000000000E+01      4.749298000000000E-01      1.519844000000000E+02      2.986603000000000E-01      1.636094000000000E+02
4865000000.000000      6.788330000000000E-01     -5.573828000000000E+01      3.743286000000000E-01     -5.266602000000000E+01      4.712524000000000E-01      1.515703000000000E+02      2.900085000000000E-01      1.650703000000000E+02
4866000000.000000      6.774597000000000E-01     -5.518164000000000E+01      3.710175000000000E-01     -5.340625000000000E+01      4.664917000000000E-01      1.510234000000000E+02      2.821960000000000E-01      1.655703000000000E+02
4867000000.000000      6.778259000000000E-01     -5.471093000000000E+01      3.704376000000000E-01     -5.375781000000000E+01      4.601593000000000E-01      1.507031000000000E+02      2.737122000000000E-01      1.669531000000000E+02
4868000000.000000      6.806641000000000E-01     -5.451562000000000E+01      3.692017000000000E-01     -5.444140000000000E+01      4.561920000000000E-01      1.502500000000000E+02      2.666779000000000E-01      1.681015000000000E+02
4869000000.000000      6.791687000000000E-01     -5.424218000000000E+01      3.673859000000000E-01     -5.481640000000000E+01      4.519501000000000E-01      1.500703000000000E+02      2.607727000000000E-01      1.692891000000000E+02
4870000000.000000      6.811523000000000E-01     -5.380468000000000E+01      3.657990000000000E-01     -5.506836000000000E+01      4.480591000000000E-01      1.494297000000000E+02      2.539063000000000E-01      1.708906000000000E+02
4871000000.000000      6.817322000000000E-01     -5.361718000000000E+01      3.627930000000000E-01     -5.587304000000000E+01      4.422913000000000E-01      1.491328000000000E+02      2.476349000000000E-01      1.721172000000000E+02
4872000000.000000      6.846619000000000E-01     -5.314062000000000E+01      3.605194000000000E-01     -5.619141000000000E+01      4.376068000000000E-01      1.488437000000000E+02      2.422028000000000E-01      1.735859000000000E+02
4873000000.000000      6.832275000000000E-01     -5.284180000000000E+01      3.602295000000000E-01     -5.668945000000000E+01      4.330902000000000E-01      1.484141000000000E+02      2.370605000000000E-01      1.752109000000000E+02
4874000000.000000      6.827698000000000E-01     -5.245117000000000E+01      3.575134000000000E-01     -5.745312000000000E+01      4.309387000000000E-01      1.482422000000000E+02      2.307663000000000E-01      1.773438000000000E+02
4875000000.000000      6.845703000000000E-01     -5.214844000000000E+01      3.558197000000000E-01     -5.799218000000000E+01      4.245148000000000E-01      1.478672000000000E+02      2.261124000000000E-01      1.790703000000000E+02
4876000000.000000      6.842346000000000E-01     -5.179296000000000E+01      3.548584000000000E-01     -5.862695000000000E+01      4.204712000000000E-01      1.475469000000000E+02      2.238464000000000E-01     -1.785938000000000E+02
4877000000.000000      6.851196000000000E-01     -5.154491000000000E+01      3.519287000000000E-01     -5.898242000000000E+01      4.152679000000000E-01      1.472109000000000E+02      2.188797000000000E-01     -1.769844000000000E+02
4878000000.000000      6.851807000000000E-01     -5.125000000000000E+01      3.494720000000000E-01     -5.954883000000000E+01      4.101105000000000E-01      1.468125000000000E+02      2.156448000000000E-01     -1.749531000000000E+02
4879000000.000000      6.857910000000000E-01     -5.071875000000000E+01      3.459625000000000E-01     -6.013281000000000E+01      4.061890000000000E-01      1.464922000000000E+02      2.130890000000000E-01     -1.727656000000000E+02
4880000000.000000      6.843872000000000E-01     -5.053711000000000E+01      3.449860000000000E-01     -6.072656000000000E+01      4.017639000000000E-01      1.461094000000000E+02      2.108383000000000E-01     -1.701719000000000E+02
4881000000.000000      6.831665000000000E-01     -5.024609000000000E+01      3.426514000000000E-01     -6.113476000000000E+01      3.976593000000000E-01      1.457578000000000E+02      2.098007000000000E-01     -1.688047000000000E+02
4882000000.000000      6.838989000000000E-01     -4.993945000000000E+01      3.415527000000000E-01     -6.193359000000000E+01      3.937378000000000E-01      1.454062000000000E+02      2.078476000000000E-01     -1.664687000000000E+02
