! Network Analyzer HP8722D
! Hewlett-Packard
! Data name: Linha & Wilkinson
! Saver's name: Rodrigo Anjos
! Comments: Teste da utilização de aquisição
continua pelo VNA HP8722D
! Time and date: 8/5/2025 16:10
!              Frequency                     S11                                                   S21                                                   S12                                                   S22
# HZ  S  MA R 50
4800000000.000000      8.977051000000000E-01      1.153789000000000E+02      3.237000000000000E-01     -1.711172000000000E+02      2.589874000000000E-01     -8.655468000000000E+01      9.764099000000000E-01     -4.842187000000000E+01
4801000000.000000      8.950806000000000E-01      1.155312000000000E+02      3.234253000000000E-01     -1.711094000000000E+02      2.586365000000000E-01     -8.647655000000000E+01      9.711609000000000E-01     -4.845312000000000E+01
4802000000.000000      8.912354000000000E-01      1.157695000000000E+02      3.229370000000000E-01     -1.709766000000000E+02      2.595978000000000E-01     -8.625000000000000E+01      9.671021000000000E-01     -4.834765000000000E+01
4803000000.000000      8.878784000000000E-01      1.161836000000000E+02      3.241272000000000E-01     -1.709922000000000E+02      2.586670000000000E-01     -8.604296000000000E+01      9.606934000000000E-01     -4.859961000000000E+01
4804000000.000000      8.875732000000000E-01      1.163437000000000E+02      3.238068000000000E-01     -1.708984000000000E+02      2.594757000000000E-01     -8.595703000000000E+01      9.569702000000000E-01     -4.850195000000000E+01
4805000000.000000      8.872986000000000E-01      1.165859000000000E+02      3.245392000000000E-01     -1.708984000000000E+02      2.588196000000000E-01     -8.564844000000000E+01      9.507141000000000E-01     -4.869335000000000E+01
4806000000.000000      8.843689000000000E-01      1.167070000000000E+02      3.253021000000000E-01     -1.708750000000000E+02      2.581940000000000E-01     -8.539843000000000E+01      9.434204000000000E-01     -4.882226000000000E+01
4807000000.000000      8.865967000000000E-01      1.171601000000000E+02      3.259735000000000E-01     -1.711016000000000E+02      2.591248000000000E-01     -8.533983000000000E+01      9.377136000000000E-01     -4.879492000000000E+01
4808000000.000000      8.837585000000000E-01      1.172383000000000E+02      3.269958000000000E-01     -1.707891000000000E+02      2.587433000000000E-01     -8.512499000000000E+01      9.343567000000000E-01     -4.885937000000000E+01
4809000000.000000      8.769836000000000E-01      1.175820000000000E+02      3.262787000000000E-01     -1.710000000000000E+02      2.595520000000000E-01     -8.487890000000000E+01      9.277649000000000E-01     -4.892578000000000E+01
4810000000.000000      8.771057000000000E-01      1.177226000000000E+02      3.278351000000000E-01     -1.707969000000000E+02      2.587738000000000E-01     -8.466406000000000E+01      9.222717000000000E-01     -4.900195000000000E+01
4811000000.000000      8.738403000000000E-01      1.181289000000000E+02      3.282623000000000E-01     -1.710234000000000E+02      2.601929000000000E-01     -8.435156000000000E+01      9.168091000000000E-01     -4.893555000000000E+01
4812000000.000000      8.725281000000000E-01      1.183437000000000E+02      3.279114000000000E-01     -1.709531000000000E+02      2.593994000000000E-01     -8.410936000000000E+01      9.106140000000000E-01     -4.913086000000000E+01
4813000000.000000      8.703613000000000E-01      1.187148000000000E+02      3.294525000000000E-01     -1.709141000000000E+02      2.592621000000000E-01     -8.390234000000000E+01      9.063416000000000E-01     -4.906640000000000E+01
4814000000.000000      8.635864000000000E-01      1.187266000000000E+02      3.295135000000000E-01     -1.709375000000000E+02      2.591553000000000E-01     -8.359766000000000E+01      9.004517000000000E-01     -4.918554000000000E+01
4815000000.000000      8.621826000000000E-01      1.189414000000000E+02      3.299408000000000E-01     -1.709766000000000E+02      2.596130000000000E-01     -8.337891000000000E+01      8.951416000000000E-01     -4.912890000000000E+01
4816000000.000000      8.615112000000000E-01      1.192188000000000E+02      3.316345000000000E-01     -1.709687000000000E+02      2.601471000000000E-01     -8.319139000000000E+01      8.913269000000000E-01     -4.935351000000000E+01
4817000000.000000      8.566589000000000E-01      1.195742000000000E+02      3.316650000000000E-01     -1.712265000000000E+02      2.597656000000000E-01     -8.281250000000000E+01      8.844604000000000E-01     -4.925976000000000E+01
4818000000.000000      8.542480000000000E-01      1.197852000000000E+02      3.320007000000000E-01     -1.711641000000000E+02      2.600555000000000E-01     -8.248047000000000E+01      8.788452000000000E-01     -4.935351000000000E+01
4819000000.000000      8.526917000000000E-01      1.199219000000000E+02      3.327332000000000E-01     -1.713125000000000E+02      2.588959000000000E-01     -8.233984000000000E+01      8.732605000000000E-01     -4.952343000000000E+01
4820000000.000000      8.429260000000000E-01      1.200430000000000E+02      3.329620000000000E-01     -1.713359000000000E+02      2.599030000000000E-01     -8.185547000000000E+01      8.683777000000000E-01     -4.958593000000000E+01
4821000000.000000      8.453979000000000E-01      1.202851000000000E+02      3.348999000000000E-01     -1.713984000000000E+02      2.599792000000000E-01     -8.172266000000000E+01      8.631897000000000E-01     -4.956640000000000E+01
4822000000.000000      8.408508000000000E-01      1.201992000000000E+02      3.348999000000000E-01     -1.716875000000000E+02      2.587585000000000E-01     -8.151171000000000E+01      8.587952000000000E-01     -4.970508000000000E+01
4823000000.000000      8.356934000000000E-01      1.206445000000000E+02      3.357391000000000E-01     -1.716563000000000E+02      2.591553000000000E-01     -8.094141000000000E+01      8.524780000000000E-01     -4.964453000000000E+01
4824000000.000000      8.337097000000000E-01      1.206484000000000E+02      3.361969000000000E-01     -1.719844000000000E+02      2.593384000000000E-01     -8.072657000000000E+01      8.468933000000000E-01     -4.980663000000000E+01
4825000000.000000      8.291016000000000E-01      1.208359000000000E+02      3.369293000000000E-01     -1.720000000000000E+02      2.598572000000000E-01     -8.051952000000000E+01      8.441467000000000E-01     -4.983398000000000E+01
4826000000.000000      8.275452000000000E-01      1.210078000000000E+02      3.380585000000000E-01     -1.721719000000000E+02      2.591248000000000E-01     -8.016405000000000E+01      8.390198000000000E-01     -5.004687000000000E+01
4827000000.000000      8.212585000000000E-01      1.212187000000000E+02      3.382568000000000E-01     -1.721875000000000E+02      2.592468000000000E-01     -7.983593000000000E+01      8.347168000000000E-01     -4.997070000000000E+01
4828000000.000000      8.200378000000000E-01      1.212891000000000E+02      3.390503000000000E-01     -1.725312000000000E+02      2.588348000000000E-01     -7.958984000000000E+01      8.296814000000000E-01     -5.014062000000000E+01
4829000000.000000      8.117676000000000E-01      1.215273000000000E+02      3.386078000000000E-01     -1.726016000000000E+02      2.602386000000000E-01     -7.923437000000000E+01      8.267517000000000E-01     -5.011523000000000E+01
4830000000.000000      8.118591000000000E-01      1.217070000000000E+02      3.396149000000000E-01     -1.729297000000000E+02      2.596283000000000E-01     -7.881249000000000E+01      8.200378000000000E-01     -5.017578000000000E+01
4831000000.000000      8.016968000000000E-01      1.217773000000000E+02      3.399506000000000E-01     -1.729687000000000E+02      2.597656000000000E-01     -7.841797000000000E+01      8.171692000000000E-01     -5.025195000000000E+01
4832000000.000000      8.007813000000000E-01      1.217695000000000E+02      3.407288000000000E-01     -1.733047000000000E+02      2.596436000000000E-01     -7.814062000000000E+01      8.114319000000000E-01     -5.026562000000000E+01
4833000000.000000      7.952576000000000E-01      1.216953000000000E+02      3.415222000000000E-01     -1.734453000000000E+02      2.593994000000000E-01     -7.776953000000000E+01      8.072510000000000E-01     -5.041797000000000E+01
4834000000.000000      7.913818000000000E-01      1.220391000000000E+02      3.411255000000000E-01     -1.735937000000000E+02      2.600250000000000E-01     -7.752343000000000E+01      8.030701000000000E-01     -5.050195000000000E+01
4835000000.000000      7.867737000000000E-01      1.219727000000000E+02      3.415985000000000E-01     -1.740000000000000E+02      2.604065000000000E-01     -7.718750000000000E+01      7.995911000000000E-01     -5.053320000000000E+01
4836000000.000000      7.825623000000000E-01      1.218867000000000E+02      3.411255000000000E-01     -1.741172000000000E+02      2.604065000000000E-01     -7.679688000000000E+01      7.955017000000000E-01     -5.054688000000000E+01
4837000000.000000      7.765198000000000E-01      1.221016000000000E+02      3.405457000000000E-01     -1.745859000000000E+02      2.603149000000000E-01     -7.652344000000000E+01      7.918396000000000E-01     -5.065430000000000E+01
4838000000.000000      7.714844000000000E-01      1.221094000000000E+02      3.417206000000000E-01     -1.745625000000000E+02      2.610016000000000E-01     -7.607031000000000E+01      7.879944000000000E-01     -5.060156000000000E+01
4839000000.000000      7.678833000000000E-01      1.222266000000000E+02      3.414001000000000E-01     -1.747109000000000E+02      2.611694000000000E-01     -7.592187000000000E+01      7.844849000000000E-01     -5.075000000000000E+01
4840000000.000000      7.597046000000000E-01      1.220820000000000E+02      3.417206000000000E-01     -1.749609000000000E+02      2.615967000000000E-01     -7.552734000000000E+01      7.811890000000000E-01     -5.091797000000000E+01
4841000000.000000      7.554016000000000E-01      1.221289000000000E+02      3.415375000000000E-01     -1.754297000000000E+02      2.615662000000000E-01     -7.521484000000000E+01      7.772827000000000E-01     -5.090429000000000E+01
4842000000.000000      7.494507000000000E-01      1.220039000000000E+02      3.414917000000000E-01     -1.755703000000000E+02      2.613068000000000E-01     -7.485156000000000E+01      7.746582000000000E-01     -5.093163000000000E+01
4843000000.000000      7.451172000000000E-01      1.220547000000000E+02      3.414764000000000E-01     -1.758437000000000E+02      2.621460000000000E-01     -7.451562000000000E+01      7.699585000000000E-01     -5.097265000000000E+01
4844000000.000000      7.380981000000000E-01      1.220078000000000E+02      3.412781000000000E-01     -1.760313000000000E+02      2.616272000000000E-01     -7.419531000000000E+01      7.663879000000000E-01     -5.105663000000000E+01
4845000000.000000      7.327576000000000E-01      1.220937000000000E+02      3.400879000000000E-01     -1.763672000000000E+02      2.626190000000000E-01     -7.390234000000000E+01      7.626038000000000E-01     -5.111523000000000E+01
4846000000.000000      7.294617000000000E-01      1.220547000000000E+02      3.397217000000000E-01     -1.764219000000000E+02      2.631836000000000E-01     -7.354297000000000E+01      7.604065000000000E-01     -5.119726000000000E+01
4847000000.000000      7.214661000000000E-01      1.219141000000000E+02      3.402405000000000E-01     -1.768359000000000E+02      2.634430000000000E-01     -7.334765000000000E+01      7.562866000000000E-01     -5.135742000000000E+01
4848000000.000000      7.160034000000000E-01      1.216836000000000E+02      3.386230000000000E-01     -1.770313000000000E+02      2.631073000000000E-01     -7.293750000000000E+01      7.531738000000000E-01     -5.131054000000000E+01
4849000000.000000      7.086487000000000E-01      1.214961000000000E+02      3.383484000000000E-01     -1.774219000000000E+02      2.637939000000000E-01     -7.269140000000000E+01      7.492676000000000E-01     -5.129101000000000E+01
4850000000.000000      7.043762000000000E-01      1.215391000000000E+02      3.380585000000000E-01     -1.776562000000000E+02      2.638702000000000E-01     -7.233593000000000E+01      7.466431000000000E-01     -5.144336000000000E+01
4851000000.000000      6.977539000000000E-01      1.213437000000000E+02      3.379211000000000E-01     -1.778516000000000E+02      2.642822000000000E-01     -7.198437000000000E+01      7.445984000000000E-01     -5.146679000000000E+01
4852000000.000000      6.913452000000000E-01      1.212070000000000E+02      3.368073000000000E-01     -1.780781000000000E+02      2.648926000000000E-01     -7.174218000000000E+01      7.418213000000000E-01     -5.151953000000000E+01
4853000000.000000      6.867676000000000E-01      1.210469000000000E+02      3.352661000000000E-01     -1.783672000000000E+02      2.653961000000000E-01     -7.145702000000000E+01      7.394409000000000E-01     -5.170312000000000E+01
4854000000.000000      6.783447000000000E-01      1.207930000000000E+02      3.347778000000000E-01     -1.787188000000000E+02      2.652130000000000E-01     -7.125000000000000E+01      7.369995000000000E-01     -5.168554000000000E+01
4855000000.000000      6.740417000000000E-01      1.206484000000000E+02      3.340149000000000E-01     -1.787578000000000E+02      2.659302000000000E-01     -7.092187000000000E+01      7.316895000000000E-01     -5.169531000000000E+01
4856000000.000000      6.697083000000000E-01      1.204336000000000E+02      3.337860000000000E-01     -1.790937000000000E+02      2.662354000000000E-01     -7.069140000000000E+01      7.305298000000000E-01     -5.183398000000000E+01
4857000000.000000      6.609802000000000E-01      1.202891000000000E+02      3.328400000000000E-01     -1.791563000000000E+02      2.663422000000000E-01     -7.027734000000000E+01      7.279358000000000E-01     -5.185351000000000E+01
4858000000.000000      6.518250000000000E-01      1.199101000000000E+02      3.315735000000000E-01     -1.796328000000000E+02      2.667236000000000E-01     -7.011328000000000E+01      7.247314000000000E-01     -5.189843000000000E+01
4859000000.000000      6.478577000000000E-01      1.196953000000000E+02      3.303833000000000E-01     -1.798047000000000E+02      2.675171000000000E-01     -7.007813000000000E+01      7.236938000000000E-01     -5.204883000000000E+01
4860000000.000000      6.411743000000000E-01      1.193320000000000E+02      3.300781000000000E-01      1.799844000000000E+02      2.670288000000000E-01     -6.976171000000000E+01      7.201233000000000E-01     -5.201172000000000E+01
4861000000.000000      6.353455000000000E-01      1.190703000000000E+02      3.280945000000000E-01      1.796094000000000E+02      2.675323000000000E-01     -6.937109000000000E+01      7.169800000000000E-01     -5.216797000000000E+01
4862000000.000000      6.291809000000000E-01      1.188555000000000E+02      3.279114000000000E-01      1.795391000000000E+02      2.683105000000000E-01     -6.930078000000000E+01      7.171326000000000E-01     -5.217578000000000E+01
4863000000.000000      6.209106000000000E-01      1.184180000000000E+02      3.255920000000000E-01      1.792344000000000E+02      2.688446000000000E-01     -6.898438000000000E+01      7.141418000000000E-01     -5.209570000000000E+01
4864000000.000000      6.175232000000000E-01      1.183516000000000E+02      3.251801000000000E-01      1.792656000000000E+02      2.688293000000000E-01     -6.883594000000000E+01      7.112122000000000E-01     -5.228125000000000E+01
4865000000.000000      6.098328000000000E-01      1.177695000000000E+02      3.230896000000000E-01      1.790234000000000E+02      2.689972000000000E-01     -6.872656000000000E+01      7.100830000000000E-01     -5.213476000000000E+01
4866000000.000000      6.043091000000000E-01      1.173086000000000E+02      3.221130000000000E-01      1.788203000000000E+02      2.694855000000000E-01     -6.864843000000000E+01      7.070313000000000E-01     -5.231835000000000E+01
4867000000.000000      5.956116000000000E-01      1.170351000000000E+02      3.213196000000000E-01      1.785156000000000E+02      2.698975000000000E-01     -6.840625000000000E+01      7.052002000000000E-01     -5.225390000000000E+01
4868000000.000000      5.925598000000000E-01      1.166094000000000E+02      3.202515000000000E-01      1.783984000000000E+02      2.696075000000000E-01     -6.827343000000000E+01      7.023621000000000E-01     -5.227929000000000E+01
4869000000.000000      5.859985000000000E-01      1.164023000000000E+02      3.187408000000000E-01      1.783203000000000E+02      2.702942000000000E-01     -6.816406000000000E+01      7.001343000000000E-01     -5.240234000000000E+01
4870000000.000000      5.795898000000000E-01      1.158789000000000E+02      3.177185000000000E-01      1.782109000000000E+02      2.705078000000000E-01     -6.803905000000000E+01      6.995850000000000E-01     -5.236914000000000E+01
4871000000.000000      5.745544000000000E-01      1.153789000000000E+02      3.161316000000000E-01      1.778437000000000E+02      2.704620000000000E-01     -6.796875000000000E+01      6.952515000000000E-01     -5.240624000000000E+01
4872000000.000000      5.679626000000000E-01      1.151445000000000E+02      3.146362000000000E-01      1.778828000000000E+02      2.707672000000000E-01     -6.791797000000000E+01      6.944580000000000E-01     -5.238867000000000E+01
4873000000.000000      5.641174000000000E-01      1.146445000000000E+02      3.141785000000000E-01      1.777109000000000E+02      2.704010000000000E-01     -6.776172000000000E+01      6.907043000000000E-01     -5.258594000000000E+01
4874000000.000000      5.567017000000000E-01      1.142226000000000E+02      3.123474000000000E-01      1.775156000000000E+02      2.715302000000000E-01     -6.760156000000000E+01      6.890259000000000E-01     -5.241601000000000E+01
4875000000.000000      5.524597000000000E-01      1.136172000000000E+02      3.107758000000000E-01      1.774219000000000E+02      2.714539000000000E-01     -6.759766000000000E+01      6.875610000000000E-01     -5.249804000000000E+01
4876000000.000000      5.464783000000000E-01      1.130898000000000E+02      3.101807000000000E-01      1.772266000000000E+02      2.703552000000000E-01     -6.760547000000000E+01      6.861572000000000E-01     -5.267383000000000E+01
4877000000.000000      5.415344000000000E-01      1.127851000000000E+02      3.092194000000000E-01      1.771875000000000E+02      2.715149000000000E-01     -6.735937000000000E+01      6.841736000000000E-01     -5.244922000000000E+01
4878000000.000000      5.359192000000000E-01      1.120430000000000E+02      3.080139000000000E-01      1.770547000000000E+02      2.710114000000000E-01     -6.726563000000000E+01      6.807251000000000E-01     -5.255077000000000E+01
4879000000.000000      5.317078000000000E-01      1.115664000000000E+02      3.058777000000000E-01      1.770391000000000E+02      2.705078000000000E-01     -6.729297000000000E+01      6.781616000000000E-01     -5.245898000000000E+01
4880000000.000000      5.272827000000000E-01      1.109883000000000E+02      3.050995000000000E-01      1.768984000000000E+02      2.712708000000000E-01     -6.715234000000000E+01      6.770325000000000E-01     -5.240624000000000E+01
4881000000.000000      5.225830000000000E-01      1.106602000000000E+02      3.050995000000000E-01      1.768203000000000E+02      2.718658000000000E-01     -6.730469000000000E+01      6.759338000000000E-01     -5.235352000000000E+01
4882000000.000000      5.173340000000000E-01      1.101680000000000E+02      3.030090000000000E-01      1.766875000000000E+02      2.709656000000000E-01     -6.723437000000000E+01      6.726074000000000E-01     -5.233593000000000E+01
