! Network Analyzer HP8722D
! Hewlett-Packard
! Data name: Linha & Wilkinson
! Saver's name: Rodrigo Anjos
! Comments: Teste da utilização de aquisição
continua pelo VNA HP8722D
! Time and date: 8/5/2025 14:42
!              Frequency                     S11                                                   S21                                                   S12                                                   S22
# HZ  S  MA R 50
4800000000.000000      5.237427000000000E-01     -2.508886000000000E+01      3.789825000000000E-01     -1.518672000000000E+02      3.987732000000000E-01      7.569580000000000E+00      4.929657000000000E-01      5.534363000000000E-01
4801000000.000000      5.239258000000000E-01     -2.467676000000000E+01      3.826599000000000E-01     -1.520937000000000E+02      4.017487000000000E-01      7.337402000000000E+00      4.896851000000000E-01      6.962585000000000E-01
4802000000.000000      5.233459000000000E-01     -2.440234000000000E+01      3.863678000000000E-01     -1.525625000000000E+02      4.053345000000000E-01      7.169922000000000E+00      4.833527000000000E-01      1.248291000000000E+00
4803000000.000000      5.214233000000000E-01     -2.400391000000000E+01      3.923798000000000E-01     -1.527344000000000E+02      4.080658000000000E-01      7.185059000000000E+00      4.771423000000000E-01      1.007996000000000E+00
4804000000.000000      5.206909000000000E-01     -2.377930000000000E+01      3.961334000000000E-01     -1.535078000000000E+02      4.136658000000000E-01      6.996826000000000E+00      4.699860000000000E-01      1.286743000000000E+00
4805000000.000000      5.228577000000000E-01     -2.373340000000000E+01      3.987427000000000E-01     -1.536250000000000E+02      4.175415000000000E-01      6.810059000000000E+00      4.637451000000000E-01      1.296387000000000E+00
4806000000.000000      5.207214000000000E-01     -2.330078000000000E+01      4.020233000000000E-01     -1.540469000000000E+02      4.203339000000000E-01      6.649414000000000E+00      4.568176000000000E-01      1.359558000000000E+00
4807000000.000000      5.178223000000000E-01     -2.319140000000000E+01      4.059601000000000E-01     -1.547734000000000E+02      4.249573000000000E-01      6.270264000000000E+00      4.483032000000000E-01      1.695984000000000E+00
4808000000.000000      5.161438000000000E-01     -2.294238000000000E+01      4.100494000000000E-01     -1.550781000000000E+02      4.270020000000000E-01      6.219482000000000E+00      4.419556000000000E-01      1.842957000000000E+00
4809000000.000000      5.164795000000000E-01     -2.299121000000000E+01      4.146118000000000E-01     -1.554531000000000E+02      4.326782000000000E-01      6.128906000000000E+00      4.347839000000000E-01      2.279663000000000E+00
4810000000.000000      5.150146000000000E-01     -2.250781000000000E+01      4.180298000000000E-01     -1.556406000000000E+02      4.361572000000000E-01      5.802002000000000E+00      4.270782000000000E-01      2.227417000000000E+00
4811000000.000000      5.144043000000000E-01     -2.237793000000000E+01      4.208221000000000E-01     -1.564844000000000E+02      4.393311000000000E-01      5.907715000000000E+00      4.194946000000000E-01      2.698486000000000E+00
4812000000.000000      5.151672000000000E-01     -2.210351000000000E+01      4.245911000000000E-01     -1.566875000000000E+02      4.424286000000000E-01      5.946289000000000E+00      4.117584000000000E-01      2.769897000000000E+00
4813000000.000000      5.131226000000000E-01     -2.196387000000000E+01      4.284973000000000E-01     -1.572813000000000E+02      4.469299000000000E-01      5.693604000000000E+00      4.046936000000000E-01      3.283447000000000E+00
4814000000.000000      5.111389000000000E-01     -2.183398000000000E+01      4.323273000000000E-01     -1.574922000000000E+02      4.493103000000000E-01      5.491699000000000E+00      3.953247000000000E-01      3.500488000000000E+00
4815000000.000000      5.102539000000000E-01     -2.156348000000000E+01      4.329224000000000E-01     -1.580078000000000E+02      4.524078000000000E-01      5.317383000000000E+00      3.874817000000000E-01      3.819092000000000E+00
4816000000.000000      5.077820000000000E-01     -2.126953000000000E+01      4.389801000000000E-01     -1.583203000000000E+02      4.579773000000000E-01      5.340576000000000E+00      3.802948000000000E-01      4.180176000000000E+00
4817000000.000000      5.076599000000000E-01     -2.101855000000000E+01      4.398956000000000E-01     -1.590469000000000E+02      4.586334000000000E-01      5.192383000000000E+00      3.697510000000000E-01      4.660889000000000E+00
4818000000.000000      5.059509000000000E-01     -2.110840000000000E+01      4.429169000000000E-01     -1.593750000000000E+02      4.632111000000000E-01      4.818848000000000E+00      3.610077000000000E-01      5.057617000000000E+00
4819000000.000000      5.031433000000000E-01     -2.069824000000000E+01      4.468689000000000E-01     -1.598438000000000E+02      4.686890000000000E-01      4.899902000000000E+00      3.513031000000000E-01      5.362549000000000E+00
4820000000.000000      5.004578000000000E-01     -2.059277000000000E+01      4.496460000000000E-01     -1.601875000000000E+02      4.696655000000000E-01      4.390381000000000E+00      3.440704000000000E-01      5.937988000000000E+00
4821000000.000000      5.006104000000000E-01     -2.046484000000000E+01      4.499359000000000E-01     -1.608828000000000E+02      4.721680000000000E-01      4.426025000000000E+00      3.338776000000000E-01      6.683594000000000E+00
4822000000.000000      4.987946000000000E-01     -2.029395000000000E+01      4.527588000000000E-01     -1.611562000000000E+02      4.756927000000000E-01      4.340820000000000E+00      3.262024000000000E-01      7.044922000000000E+00
4823000000.000000      4.980164000000000E-01     -2.020703000000000E+01      4.558716000000000E-01     -1.618359000000000E+02      4.791565000000000E-01      4.269531000000000E+00      3.168488000000000E-01      7.656006000000000E+00
4824000000.000000      4.978180000000000E-01     -1.998633000000000E+01      4.598541000000000E-01     -1.621719000000000E+02      4.834747000000000E-01      4.010010000000000E+00      3.070679000000000E-01      8.211914000000000E+00
4825000000.000000      4.946594000000000E-01     -1.979785000000000E+01      4.614105000000000E-01     -1.626406000000000E+02      4.883118000000000E-01      3.852051000000000E+00      2.994232000000000E-01      9.053711000000000E+00
4826000000.000000      4.933777000000000E-01     -1.990234000000000E+01      4.635010000000000E-01     -1.632187000000000E+02      4.887543000000000E-01      3.722900000000000E+00      2.892914000000000E-01      9.840820000000000E+00
4827000000.000000      4.954376000000000E-01     -1.966601000000000E+01      4.652557000000000E-01     -1.635313000000000E+02      4.923706000000000E-01      3.574585000000000E+00      2.812347000000000E-01      1.063330000000000E+01
4828000000.000000      4.934540000000000E-01     -1.964844000000000E+01      4.670563000000000E-01     -1.639844000000000E+02      4.949646000000000E-01      3.328857000000000E+00      2.716370000000000E-01      1.135156000000000E+01
4829000000.000000      4.875488000000000E-01     -1.935742000000000E+01      4.699554000000000E-01     -1.645313000000000E+02      4.984283000000000E-01      3.265625000000000E+00      2.636566000000000E-01      1.277832000000000E+01
4830000000.000000      4.884186000000000E-01     -1.922754000000000E+01      4.715271000000000E-01     -1.650469000000000E+02      5.008545000000000E-01      3.044556000000000E+00      2.532196000000000E-01      1.391553000000000E+01
4831000000.000000      4.871368000000000E-01     -1.912500000000000E+01      4.739227000000000E-01     -1.652891000000000E+02      5.046997000000000E-01      2.938843000000000E+00      2.441711000000000E-01      1.497021000000000E+01
4832000000.000000      4.829865000000000E-01     -1.877637000000000E+01      4.748230000000000E-01     -1.656719000000000E+02      5.063782000000000E-01      2.876953000000000E+00      2.348099000000000E-01      1.672070000000000E+01
4833000000.000000      4.823456000000000E-01     -1.880371000000000E+01      4.762726000000000E-01     -1.662422000000000E+02      5.094299000000000E-01      2.426514000000000E+00      2.265091000000000E-01      1.809082000000000E+01
4834000000.000000      4.798737000000000E-01     -1.867480000000000E+01      4.794159000000000E-01     -1.666953000000000E+02      5.133057000000000E-01      2.493896000000000E+00      2.186508000000000E-01      1.982031000000000E+01
4835000000.000000      4.806671000000000E-01     -1.845019000000000E+01      4.810181000000000E-01     -1.671562000000000E+02      5.162048000000000E-01      2.286499000000000E+00      2.105026000000000E-01      2.156543000000000E+01
4836000000.000000      4.773712000000000E-01     -1.816602000000000E+01      4.809113000000000E-01     -1.674844000000000E+02      5.160217000000000E-01      2.232910000000000E+00      2.024994000000000E-01      2.360254000000000E+01
4837000000.000000      4.752045000000000E-01     -1.812109000000000E+01      4.829102000000000E-01     -1.681328000000000E+02      5.199280000000000E-01      1.752319000000000E+00      1.954346000000000E-01      2.581152000000000E+01
4838000000.000000      4.725037000000000E-01     -1.796484000000000E+01      4.855804000000000E-01     -1.685313000000000E+02      5.222778000000000E-01      1.800354000000000E+00      1.883011000000000E-01      2.816895000000000E+01
4839000000.000000      4.737396000000000E-01     -1.745605000000000E+01      4.866791000000000E-01     -1.686563000000000E+02      5.254517000000000E-01      1.763306000000000E+00      1.822510000000000E-01      3.023144000000000E+01
4840000000.000000      4.712372000000000E-01     -1.772265000000000E+01      4.875946000000000E-01     -1.691641000000000E+02      5.280762000000000E-01      1.485901000000000E+00      1.749115000000000E-01      3.312304000000000E+01
4841000000.000000      4.700012000000000E-01     -1.716504000000000E+01      4.905396000000000E-01     -1.696640000000000E+02      5.291138000000000E-01      1.203003000000000E+00      1.697083000000000E-01      3.627734000000000E+01
4842000000.000000      4.680634000000000E-01     -1.726855000000000E+01      4.917603000000000E-01     -1.698906000000000E+02      5.303040000000000E-01      1.285400000000000E+00      1.655579000000000E-01      3.966015000000000E+01
4843000000.000000      4.690552000000000E-01     -1.720605000000000E+01      4.916229000000000E-01     -1.705703000000000E+02      5.335999000000000E-01      8.843994000000000E-01      1.593399000000000E-01      4.318945000000000E+01
4844000000.000000      4.659119000000000E-01     -1.691015000000000E+01      4.913025000000000E-01     -1.707500000000000E+02      5.355225000000000E-01      6.440735000000000E-01      1.551208000000000E-01      4.676562000000000E+01
4845000000.000000      4.654236000000000E-01     -1.646777000000000E+01      4.935760000000000E-01     -1.712188000000000E+02      5.375671000000000E-01      5.232239000000000E-01      1.533813000000000E-01      5.000781000000000E+01
4846000000.000000      4.646759000000000E-01     -1.637793000000000E+01      4.948883000000000E-01     -1.717813000000000E+02      5.409546000000000E-01      4.202271000000000E-01      1.502457000000000E-01      5.422461000000000E+01
4847000000.000000      4.624329000000000E-01     -1.594678000000000E+01      4.954834000000000E-01     -1.719375000000000E+02      5.430298000000000E-01      1.991272000000000E-01      1.477737000000000E-01      5.824804000000000E+01
4848000000.000000      4.611206000000000E-01     -1.589600000000000E+01      4.956970000000000E-01     -1.723125000000000E+02      5.432434000000000E-01      1.579285000000000E-01      1.488571000000000E-01      6.204492000000000E+01
4849000000.000000      4.609375000000000E-01     -1.574219000000000E+01      4.979553000000000E-01     -1.727656000000000E+02      5.472412000000000E-01     -1.812744000000000E-01      1.482773000000000E-01      6.581249000000000E+01
4850000000.000000      4.594879000000000E-01     -1.553223000000000E+01      4.972992000000000E-01     -1.731172000000000E+02      5.459900000000000E-01     -3.941345000000000E-01      1.495209000000000E-01      7.012109000000000E+01
4851000000.000000      4.601746000000000E-01     -1.521484000000000E+01      4.993439000000000E-01     -1.736406000000000E+02      5.461731000000000E-01     -4.641724000000000E-01      1.515732000000000E-01      7.341406000000000E+01
4852000000.000000      4.584808000000000E-01     -1.488965000000000E+01      4.998322000000000E-01     -1.740391000000000E+02      5.493164000000000E-01     -5.795288000000000E-01      1.542816000000000E-01      7.677343000000000E+01
4853000000.000000      4.579315000000000E-01     -1.466699000000000E+01      4.986877000000000E-01     -1.741641000000000E+02      5.514832000000000E-01     -8.459473000000000E-01      1.564941000000000E-01      8.008984000000000E+01
4854000000.000000      4.595642000000000E-01     -1.439502000000000E+01      5.006409000000000E-01     -1.745469000000000E+02      5.534058000000000E-01     -9.159851000000000E-01      1.609955000000000E-01      8.332031000000000E+01
4855000000.000000      4.569397000000000E-01     -1.404199000000000E+01      5.022583000000000E-01     -1.750547000000000E+02      5.547485000000000E-01     -1.348572000000000E+00      1.641846000000000E-01      8.683985000000000E+01
4856000000.000000      4.565125000000000E-01     -1.377686000000000E+01      5.025024000000000E-01     -1.753750000000000E+02      5.546265000000000E-01     -1.263428000000000E+00      1.699524000000000E-01      8.942186000000000E+01
4857000000.000000      4.571686000000000E-01     -1.344629000000000E+01      5.039368000000000E-01     -1.756094000000000E+02      5.549927000000000E-01     -1.411743000000000E+00      1.733627000000000E-01      9.223047000000000E+01
4858000000.000000      4.577026000000000E-01     -1.328662000000000E+01      5.046082000000000E-01     -1.760313000000000E+02      5.565186000000000E-01     -1.683655000000000E+00      1.797409000000000E-01      9.412500000000000E+01
4859000000.000000      4.596863000000000E-01     -1.310156000000000E+01      5.057678000000000E-01     -1.763828000000000E+02      5.565186000000000E-01     -1.749573000000000E+00      1.832809000000000E-01      9.639452000000000E+01
4860000000.000000      4.567719000000000E-01     -1.261816000000000E+01      5.050659000000000E-01     -1.767344000000000E+02      5.573425000000000E-01     -1.963806000000000E+00      1.912079000000000E-01      9.839062000000000E+01
4861000000.000000      4.582062000000000E-01     -1.242969000000000E+01      5.067749000000000E-01     -1.772969000000000E+02      5.584412000000000E-01     -2.172607000000000E+00      1.956711000000000E-01      1.002969000000000E+02
4862000000.000000      4.587860000000000E-01     -1.203174000000000E+01      5.070190000000000E-01     -1.774297000000000E+02      5.580444000000000E-01     -2.283813000000000E+00      2.027054000000000E-01      1.018359000000000E+02
4863000000.000000      4.608002000000000E-01     -1.193945000000000E+01      5.078430000000000E-01     -1.776797000000000E+02      5.585632000000000E-01     -2.334595000000000E+00      2.081985000000000E-01      1.032344000000000E+02
4864000000.000000      4.618073000000000E-01     -1.162256000000000E+01      5.084229000000000E-01     -1.780469000000000E+02      5.580444000000000E-01     -2.369019000000000E+00      2.142868000000000E-01      1.042734000000000E+02
4865000000.000000      4.618378000000000E-01     -1.125732000000000E+01      5.077209000000000E-01     -1.784062000000000E+02      5.592957000000000E-01     -2.561279000000000E+00      2.218704000000000E-01      1.056875000000000E+02
4866000000.000000      4.640808000000000E-01     -1.130664000000000E+01      5.096741000000000E-01     -1.790390000000000E+02      5.598755000000000E-01     -2.770020000000000E+00      2.261047000000000E-01      1.068750000000000E+02
4867000000.000000      4.647980000000000E-01     -1.093701000000000E+01      5.100403000000000E-01     -1.792422000000000E+02      5.586243000000000E-01     -2.673828000000000E+00      2.323456000000000E-01      1.076836000000000E+02
4868000000.000000      4.649811000000000E-01     -1.066943000000000E+01      5.125427000000000E-01     -1.794844000000000E+02      5.589600000000000E-01     -2.981445000000000E+00      2.385025000000000E-01      1.088008000000000E+02
4869000000.000000      4.696808000000000E-01     -1.040576000000000E+01      5.112915000000000E-01     -1.799062000000000E+02      5.592346000000000E-01     -3.077637000000000E+00      2.422028000000000E-01      1.093906000000000E+02
4870000000.000000      4.704285000000000E-01     -1.015869000000000E+01      5.122986000000000E-01      1.799453000000000E+02      5.581055000000000E-01     -2.872925000000000E+00      2.488098000000000E-01      1.105195000000000E+02
4871000000.000000      4.727173000000000E-01     -1.010742000000000E+01      5.125732000000000E-01      1.795156000000000E+02      5.593262000000000E-01     -3.224487000000000E+00      2.552338000000000E-01      1.106250000000000E+02
4872000000.000000      4.752960000000000E-01     -9.640625000000000E+00      5.138855000000000E-01      1.793516000000000E+02      5.575562000000000E-01     -3.328857000000000E+00      2.624512000000000E-01      1.114375000000000E+02
4873000000.000000      4.776154000000000E-01     -9.397461000000000E+00      5.148315000000000E-01      1.786719000000000E+02      5.570679000000000E-01     -3.429199000000000E+00      2.652893000000000E-01      1.121875000000000E+02
4874000000.000000      4.795380000000000E-01     -9.242676000000000E+00      5.156860000000000E-01      1.782344000000000E+02      5.599670000000000E-01     -3.606323000000000E+00      2.705383000000000E-01      1.124922000000000E+02
4875000000.000000      4.818573000000000E-01     -9.058594000000000E+00      5.153198000000000E-01      1.782891000000000E+02      5.581970000000000E-01     -3.561035000000000E+00      2.745972000000000E-01      1.129453000000000E+02
4876000000.000000      4.845123000000000E-01     -8.803223000000000E+00      5.182800000000000E-01      1.776328000000000E+02      5.579834000000000E-01     -3.474487000000000E+00      2.815552000000000E-01      1.134453000000000E+02
4877000000.000000      4.882965000000000E-01     -8.896484000000000E+00      5.166321000000000E-01      1.773359000000000E+02      5.570679000000000E-01     -3.574707000000000E+00      2.859650000000000E-01      1.134805000000000E+02
4878000000.000000      4.903107000000000E-01     -8.587402000000000E+00      5.188904000000000E-01      1.767422000000000E+02      5.558777000000000E-01     -3.508789000000000E+00      2.915649000000000E-01      1.139336000000000E+02
4879000000.000000      4.936829000000000E-01     -8.532715000000000E+00      5.163269000000000E-01      1.765234000000000E+02      5.565186000000000E-01     -3.646118000000000E+00      2.948608000000000E-01      1.143594000000000E+02
4880000000.000000      4.978790000000000E-01     -8.433594000000000E+00      5.192871000000000E-01      1.761562000000000E+02      5.555420000000000E-01     -3.845215000000000E+00      2.984009000000000E-01      1.145703000000000E+02
4881000000.000000      4.998932000000000E-01     -8.384277000000000E+00      5.190125000000000E-01      1.758750000000000E+02      5.548096000000000E-01     -3.802734000000000E+00      3.023834000000000E-01      1.149492000000000E+02
4882000000.000000      5.022278000000000E-01     -8.223633000000000E+00      5.211487000000000E-01      1.752656000000000E+02      5.540771000000000E-01     -3.740845000000000E+00      3.078461000000000E-01      1.148516000000000E+02
