! Network Analyzer HP8722D
! Hewlett-Packard
! Data name: Linha & Wilkinson
! Saver's name: Rodrigo Anjos
! Comments: Teste da utilização de aquisição
continua pelo VNA HP8722D
! Time and date: 8/5/2025 14:36
!              Frequency                     S11                                                   S21                                                   S12                                                   S22
# HZ  S  MA R 50
4800000000.000000      5.357666000000000E-01     -2.534180000000000E+01      3.621368000000000E-01     -1.485391000000000E+02      3.799591000000000E-01      1.081299000000000E+01      5.028687000000000E-01      1.584778000000000E+00
4801000000.000000      5.356445000000000E-01     -2.518359000000000E+01      3.663940000000000E-01     -1.488906000000000E+02      3.841400000000000E-01      1.064551000000000E+01      5.002136000000000E-01      1.583374000000000E+00
4802000000.000000      5.346375000000000E-01     -2.458496000000000E+01      3.707428000000000E-01     -1.491484000000000E+02      3.881683000000000E-01      1.041602000000000E+01      4.953613000000000E-01      1.827820000000000E+00
4803000000.000000      5.336609000000000E-01     -2.433691000000000E+01      3.754425000000000E-01     -1.495937000000000E+02      3.911591000000000E-01      1.011523000000000E+01      4.896240000000000E-01      1.568298000000000E+00
4804000000.000000      5.318604000000000E-01     -2.404785000000000E+01      3.789673000000000E-01     -1.500156000000000E+02      3.964539000000000E-01      1.019775000000000E+01      4.822540000000000E-01      2.000854000000000E+00
4805000000.000000      5.319214000000000E-01     -2.378418000000000E+01      3.824005000000000E-01     -1.505469000000000E+02      3.982849000000000E-01      1.017334000000000E+01      4.761047000000000E-01      1.746826000000000E+00
4806000000.000000      5.308838000000000E-01     -2.376269000000000E+01      3.861847000000000E-01     -1.509063000000000E+02      4.043732000000000E-01      1.025391000000000E+01      4.683838000000000E-01      1.755066000000000E+00
4807000000.000000      5.289307000000000E-01     -2.342578000000000E+01      3.902435000000000E-01     -1.512812000000000E+02      4.073944000000000E-01      9.667969000000000E+00      4.607849000000000E-01      2.121704000000000E+00
4808000000.000000      5.259094000000000E-01     -2.323633000000000E+01      3.942871000000000E-01     -1.515625000000000E+02      4.117126000000000E-01      9.426270000000000E+00      4.546509000000000E-01      2.221924000000000E+00
4809000000.000000      5.273438000000000E-01     -2.300683000000000E+01      3.981323000000000E-01     -1.521250000000000E+02      4.139252000000000E-01      9.183105000000000E+00      4.471130000000000E-01      2.557007000000000E+00
4810000000.000000      5.247192000000000E-01     -2.269043000000000E+01      4.026031000000000E-01     -1.524765000000000E+02      4.177856000000000E-01      9.361328000000000E+00      4.402008000000000E-01      2.433472000000000E+00
4811000000.000000      5.241089000000000E-01     -2.257422000000000E+01      4.064026000000000E-01     -1.530391000000000E+02      4.216919000000000E-01      9.318848000000000E+00      4.325714000000000E-01      2.812500000000000E+00
4812000000.000000      5.233765000000000E-01     -2.225781000000000E+01      4.097443000000000E-01     -1.534297000000000E+02      4.262543000000000E-01      8.883789000000000E+00      4.251251000000000E-01      2.724609000000000E+00
4813000000.000000      5.200806000000000E-01     -2.210742000000000E+01      4.127808000000000E-01     -1.538281000000000E+02      4.298553000000000E-01      8.742188000000000E+00      4.176025000000000E-01      3.243652000000000E+00
4814000000.000000      5.176392000000000E-01     -2.194434000000000E+01      4.169617000000000E-01     -1.542500000000000E+02      4.338226000000000E-01      8.755859000000000E+00      4.092712000000000E-01      3.277954000000000E+00
4815000000.000000      5.175781000000000E-01     -2.178613000000000E+01      4.196167000000000E-01     -1.547422000000000E+02      4.367218000000000E-01      8.567871000000000E+00      4.015350000000000E-01      3.598022000000000E+00
4816000000.000000      5.176392000000000E-01     -2.163769000000000E+01      4.232483000000000E-01     -1.550625000000000E+02      4.411163000000000E-01      8.533203000000000E+00      3.941345000000000E-01      3.842407000000000E+00
4817000000.000000      5.161438000000000E-01     -2.122168000000000E+01      4.261627000000000E-01     -1.556406000000000E+02      4.420319000000000E-01      8.412598000000000E+00      3.831940000000000E-01      4.137695000000000E+00
4818000000.000000      5.136719000000000E-01     -2.117090000000000E+01      4.292450000000000E-01     -1.561953000000000E+02      4.473572000000000E-01      8.330078000000000E+00      3.749542000000000E-01      4.432861000000000E+00
4819000000.000000      5.133667000000000E-01     -2.095801000000000E+01      4.321289000000000E-01     -1.564609000000000E+02      4.498901000000000E-01      8.110352000000000E+00      3.656311000000000E-01      4.513916000000000E+00
4820000000.000000      5.112915000000000E-01     -2.074512000000000E+01      4.358673000000000E-01     -1.569219000000000E+02      4.546509000000000E-01      7.955322000000000E+00      3.580627000000000E-01      4.998779000000000E+00
4821000000.000000      5.098572000000000E-01     -2.068945000000000E+01      4.385681000000000E-01     -1.576094000000000E+02      4.549255000000000E-01      7.705322000000000E+00      3.481293000000000E-01      5.472412000000000E+00
4822000000.000000      5.104065000000000E-01     -2.063574000000000E+01      4.403381000000000E-01     -1.578828000000000E+02      4.595642000000000E-01      7.688965000000000E+00      3.398743000000000E-01      5.705811000000000E+00
4823000000.000000      5.083313000000000E-01     -2.047754000000000E+01      4.441833000000000E-01     -1.583047000000000E+02      4.622040000000000E-01      7.568115000000000E+00      3.307800000000000E-01      6.084961000000000E+00
4824000000.000000      5.049438000000000E-01     -2.029590000000000E+01      4.464417000000000E-01     -1.588438000000000E+02      4.661713000000000E-01      7.283936000000000E+00      3.204498000000000E-01      6.462646000000000E+00
4825000000.000000      5.025024000000000E-01     -2.028027000000000E+01      4.485168000000000E-01     -1.592969000000000E+02      4.714661000000000E-01      7.298828000000000E+00      3.123169000000000E-01      7.150635000000000E+00
4826000000.000000      5.023193000000000E-01     -2.026172000000000E+01      4.520874000000000E-01     -1.598828000000000E+02      4.722443000000000E-01      7.018799000000000E+00      3.029480000000000E-01      7.742432000000000E+00
4827000000.000000      5.007019000000000E-01     -1.982422000000000E+01      4.537659000000000E-01     -1.601328000000000E+02      4.758453000000000E-01      6.902100000000000E+00      2.940521000000000E-01      8.229980000000000E+00
4828000000.000000      5.002441000000000E-01     -1.968066000000000E+01      4.568024000000000E-01     -1.606875000000000E+02      4.794769000000000E-01      6.779785000000000E+00      2.843475000000000E-01      8.666504000000000E+00
4829000000.000000      4.979095000000000E-01     -1.950781000000000E+01      4.592438000000000E-01     -1.611562000000000E+02      4.831238000000000E-01      6.647949000000000E+00      2.761078000000000E-01      9.843750000000000E+00
4830000000.000000      4.944763000000000E-01     -1.942578000000000E+01      4.605865000000000E-01     -1.616641000000000E+02      4.853210000000000E-01      6.511963000000000E+00      2.645264000000000E-01      1.065381000000000E+01
4831000000.000000      4.943695000000000E-01     -1.933887000000000E+01      4.633942000000000E-01     -1.621797000000000E+02      4.890442000000000E-01      6.405029000000000E+00      2.562408000000000E-01      1.145459000000000E+01
4832000000.000000      4.921875000000000E-01     -1.889160000000000E+01      4.646301000000000E-01     -1.625000000000000E+02      4.908600000000000E-01      6.076660000000000E+00      2.452698000000000E-01      1.271094000000000E+01
4833000000.000000      4.889221000000000E-01     -1.904004000000000E+01      4.669800000000000E-01     -1.630000000000000E+02      4.931488000000000E-01      5.970947000000000E+00      2.358322000000000E-01      1.365576000000000E+01
4834000000.000000      4.879913000000000E-01     -1.902832000000000E+01      4.687195000000000E-01     -1.635078000000000E+02      4.971466000000000E-01      5.777344000000000E+00      2.270584000000000E-01      1.496582000000000E+01
4835000000.000000      4.876099000000000E-01     -1.886719000000000E+01      4.707642000000000E-01     -1.638594000000000E+02      4.996185000000000E-01      5.653809000000000E+00      2.183609000000000E-01      1.632519000000000E+01
4836000000.000000      4.856567000000000E-01     -1.835449000000000E+01      4.719849000000000E-01     -1.643203000000000E+02      5.015869000000000E-01      5.539795000000000E+00      2.086792000000000E-01      1.795410000000000E+01
4837000000.000000      4.834900000000000E-01     -1.841504000000000E+01      4.734344000000000E-01     -1.649141000000000E+02      5.031738000000000E-01      5.390137000000000E+00      1.999359000000000E-01      1.974316000000000E+01
4838000000.000000      4.793854000000000E-01     -1.813379000000000E+01      4.758301000000000E-01     -1.651016000000000E+02      5.068665000000000E-01      5.170410000000000E+00      1.927109000000000E-01      2.139258000000000E+01
4839000000.000000      4.807587000000000E-01     -1.798242000000000E+01      4.773865000000000E-01     -1.656328000000000E+02      5.094604000000000E-01      5.262451000000000E+00      1.847000000000000E-01      2.322852000000000E+01
4840000000.000000      4.798279000000000E-01     -1.809082000000000E+01      4.786224000000000E-01     -1.660312000000000E+02      5.119019000000000E-01      5.027588000000000E+00      1.756744000000000E-01      2.538476000000000E+01
4841000000.000000      4.783325000000000E-01     -1.750000000000000E+01      4.806976000000000E-01     -1.666406000000000E+02      5.139771000000000E-01      4.645752000000000E+00      1.684723000000000E-01      2.825488000000000E+01
4842000000.000000      4.750366000000000E-01     -1.761816000000000E+01      4.814301000000000E-01     -1.669062000000000E+02      5.172729000000000E-01      4.774902000000000E+00      1.611862000000000E-01      3.114551000000000E+01
4843000000.000000      4.755249000000000E-01     -1.746094000000000E+01      4.835968000000000E-01     -1.674375000000000E+02      5.201416000000000E-01      4.485107000000000E+00      1.545258000000000E-01      3.428711000000000E+01
4844000000.000000      4.722748000000000E-01     -1.714844000000000E+01      4.837799000000000E-01     -1.678047000000000E+02      5.216370000000000E-01      4.290039000000000E+00      1.465225000000000E-01      3.743359000000000E+01
4845000000.000000      4.703674000000000E-01     -1.683984000000000E+01      4.851837000000000E-01     -1.681328000000000E+02      5.234375000000000E-01      4.185791000000000E+00      1.430740000000000E-01      4.089844000000000E+01
4846000000.000000      4.714661000000000E-01     -1.662793000000000E+01      4.866333000000000E-01     -1.686016000000000E+02      5.270081000000000E-01      3.854736000000000E+00      1.377411000000000E-01      4.491211000000000E+01
4847000000.000000      4.692841000000000E-01     -1.648438000000000E+01      4.883118000000000E-01     -1.689687000000000E+02      5.290833000000000E-01      3.805298000000000E+00      1.329498000000000E-01      4.903320000000000E+01
4848000000.000000      4.674377000000000E-01     -1.617480000000000E+01      4.878387000000000E-01     -1.693281000000000E+02      5.315552000000000E-01      3.499146000000000E+00      1.309891000000000E-01      5.338476000000000E+01
4849000000.000000      4.667664000000000E-01     -1.595508000000000E+01      4.902191000000000E-01     -1.697031000000000E+02      5.333252000000000E-01      3.227173000000000E+00      1.282578000000000E-01      5.821875000000000E+01
4850000000.000000      4.654083000000000E-01     -1.572461000000000E+01      4.904785000000000E-01     -1.700469000000000E+02      5.341797000000000E-01      3.212036000000000E+00      1.269150000000000E-01      6.268945000000000E+01
4851000000.000000      4.667816000000000E-01     -1.539502000000000E+01      4.924011000000000E-01     -1.705234000000000E+02      5.354004000000000E-01      3.172241000000000E+00      1.266022000000000E-01      6.716015000000000E+01
4852000000.000000      4.649811000000000E-01     -1.494141000000000E+01      4.926300000000000E-01     -1.709141000000000E+02      5.376587000000000E-01      2.911377000000000E+00      1.276093000000000E-01      7.138281000000000E+01
4853000000.000000      4.635620000000000E-01     -1.491553000000000E+01      4.919891000000000E-01     -1.712109000000000E+02      5.397949000000000E-01      2.903076000000000E+00      1.290436000000000E-01      7.585546000000000E+01
4854000000.000000      4.619904000000000E-01     -1.484277000000000E+01      4.933167000000000E-01     -1.717031000000000E+02      5.404968000000000E-01      2.672363000000000E+00      1.319962000000000E-01      8.007030000000000E+01
4855000000.000000      4.601440000000000E-01     -1.426025000000000E+01      4.948578000000000E-01     -1.721406000000000E+02      5.422668000000000E-01      2.451294000000000E+00      1.340561000000000E-01      8.449610000000000E+01
4856000000.000000      4.623566000000000E-01     -1.397754000000000E+01      4.954224000000000E-01     -1.723359000000000E+02      5.435486000000000E-01      2.290649000000000E+00      1.383820000000000E-01      8.839844000000000E+01
4857000000.000000      4.612427000000000E-01     -1.390332000000000E+01      4.967651000000000E-01     -1.726719000000000E+02      5.446777000000000E-01      2.083252000000000E+00      1.418762000000000E-01      9.178514000000000E+01
4858000000.000000      4.609528000000000E-01     -1.346387000000000E+01      4.982910000000000E-01     -1.730469000000000E+02      5.464478000000000E-01      1.961060000000000E+00      1.465759000000000E-01      9.519531000000000E+01
4859000000.000000      4.608307000000000E-01     -1.350098000000000E+01      4.984131000000000E-01     -1.735000000000000E+02      5.474243000000000E-01      1.932190000000000E+00      1.523743000000000E-01      9.779686000000000E+01
4860000000.000000      4.611359000000000E-01     -1.297510000000000E+01      4.995575000000000E-01     -1.737109000000000E+02      5.468445000000000E-01      1.524353000000000E+00      1.586761000000000E-01      1.003398000000000E+02
4861000000.000000      4.611359000000000E-01     -1.272119000000000E+01      4.994812000000000E-01     -1.741484000000000E+02      5.487671000000000E-01      1.494141000000000E+00      1.635361000000000E-01      1.031406000000000E+02
4862000000.000000      4.605865000000000E-01     -1.246973000000000E+01      5.018921000000000E-01     -1.742500000000000E+02      5.510254000000000E-01      1.516113000000000E+00      1.704407000000000E-01      1.048281000000000E+02
4863000000.000000      4.620972000000000E-01     -1.212207000000000E+01      5.016174000000000E-01     -1.749922000000000E+02      5.503540000000000E-01      1.352661000000000E+00      1.773682000000000E-01      1.063555000000000E+02
4864000000.000000      4.627380000000000E-01     -1.192725000000000E+01      5.038757000000000E-01     -1.750547000000000E+02      5.495300000000000E-01      1.183777000000000E+00      1.823807000000000E-01      1.083711000000000E+02
4865000000.000000      4.634247000000000E-01     -1.171436000000000E+01      5.043945000000000E-01     -1.753672000000000E+02      5.520020000000000E-01      1.045044000000000E+00      1.897278000000000E-01      1.097578000000000E+02
4866000000.000000      4.660645000000000E-01     -1.120605000000000E+01      5.037231000000000E-01     -1.757422000000000E+02      5.534058000000000E-01      8.473206000000000E-01      1.966171000000000E-01      1.112305000000000E+02
4867000000.000000      4.659424000000000E-01     -1.118408000000000E+01      5.047913000000000E-01     -1.762734000000000E+02      5.519409000000000E-01      7.662964000000000E-01      2.031479000000000E-01      1.128477000000000E+02
4868000000.000000      4.676971000000000E-01     -1.090576000000000E+01      5.062256000000000E-01     -1.765234000000000E+02      5.528259000000000E-01      5.822754000000000E-01      2.098541000000000E-01      1.138750000000000E+02
4869000000.000000      4.708405000000000E-01     -1.042920000000000E+01      5.081177000000000E-01     -1.770703000000000E+02      5.519409000000000E-01      4.531860000000000E-01      2.146530000000000E-01      1.147539000000000E+02
4870000000.000000      4.717712000000000E-01     -1.028076000000000E+01      5.072327000000000E-01     -1.771797000000000E+02      5.526123000000000E-01      3.543091000000000E-01      2.224884000000000E-01      1.161523000000000E+02
4871000000.000000      4.724731000000000E-01     -9.948242000000000E+00      5.080872000000000E-01     -1.777187000000000E+02      5.531921000000000E-01      4.174805000000000E-01      2.287903000000000E-01      1.166250000000000E+02
4872000000.000000      4.753876000000000E-01     -9.660156000000000E+00      5.085754000000000E-01     -1.778437000000000E+02      5.519714000000000E-01     -5.630493000000000E-02      2.353897000000000E-01      1.168594000000000E+02
4873000000.000000      4.787445000000000E-01     -9.517090000000000E+00      5.093689000000000E-01     -1.784609000000000E+02      5.499878000000000E-01      3.158569000000000E-02      2.393875000000000E-01      1.176601000000000E+02
4874000000.000000      4.798889000000000E-01     -9.382324000000000E+00      5.098572000000000E-01     -1.789297000000000E+02      5.519104000000000E-01     -6.042480000000000E-02      2.463837000000000E-01      1.182891000000000E+02
4875000000.000000      4.812164000000000E-01     -9.102539000000000E+00      5.106201000000000E-01     -1.792187000000000E+02      5.520935000000000E-01     -1.744080000000000E-01      2.505951000000000E-01      1.186133000000000E+02
4876000000.000000      4.839172000000000E-01     -8.864746000000000E+00      5.122681000000000E-01     -1.794375000000000E+02      5.527649000000000E-01     -2.197266000000000E-02      2.573853000000000E-01      1.194102000000000E+02
4877000000.000000      4.875031000000000E-01     -8.826172000000000E+00      5.125122000000000E-01      1.799766000000000E+02      5.517273000000000E-01     -1.675415000000000E-01      2.617493000000000E-01      1.195664000000000E+02
4878000000.000000      4.897766000000000E-01     -8.450195000000000E+00      5.137634000000000E-01      1.798047000000000E+02      5.506287000000000E-01     -2.609253000000000E-01      2.660980000000000E-01      1.197656000000000E+02
4879000000.000000      4.925690000000000E-01     -8.459473000000000E+00      5.130005000000000E-01      1.794688000000000E+02      5.522156000000000E-01     -3.666687000000000E-01      2.718353000000000E-01      1.202617000000000E+02
4880000000.000000      4.955902000000000E-01     -8.159180000000000E+00      5.151978000000000E-01      1.790000000000000E+02      5.497742000000000E-01     -3.337097000000000E-01      2.765045000000000E-01      1.201836000000000E+02
4881000000.000000      4.980011000000000E-01     -8.113770000000000E+00      5.155334000000000E-01      1.788359000000000E+02      5.513916000000000E-01     -3.295898000000000E-01      2.824402000000000E-01      1.208516000000000E+02
4882000000.000000      5.029297000000000E-01     -7.999512000000000E+00      5.169067000000000E-01      1.782578000000000E+02      5.504150000000000E-01     -3.968811000000000E-01      2.864227000000000E-01      1.209531000000000E+02
