! Network Analyzer HP8722D
! Hewlett-Packard
! Data name: Linha & Wilkinson
! Saver's name: Rodrigo Anjos
! Comments: Teste da utilização de aquisição
continua pelo VNA HP8722D
! Time and date: 8/5/2025 13:15
!              Frequency                     S11                                                   S21                                                   S12                                                   S22
# HZ  S  MA R 50
4800000000.000000      9.008484000000000E-01      1.155195000000000E+02      3.217468000000000E-01     -1.708437000000000E+02      2.579346000000000E-01     -8.614843000000000E+01      9.817810000000000E-01     -4.784570000000000E+01
4801000000.000000      8.977356000000000E-01      1.157187000000000E+02      3.218079000000000E-01     -1.707734000000000E+02      2.579041000000000E-01     -8.614061000000000E+01      9.767456000000000E-01     -4.787305000000000E+01
4802000000.000000      8.972778000000000E-01      1.160859000000000E+02      3.217773000000000E-01     -1.704844000000000E+02      2.584839000000000E-01     -8.586718000000000E+01      9.718628000000000E-01     -4.777148000000000E+01
4803000000.000000      8.937683000000000E-01      1.162578000000000E+02      3.224030000000000E-01     -1.705391000000000E+02      2.578125000000000E-01     -8.573828000000000E+01      9.665833000000000E-01     -4.797071000000000E+01
4804000000.000000      8.948059000000000E-01      1.165625000000000E+02      3.227386000000000E-01     -1.705156000000000E+02      2.583923000000000E-01     -8.571875000000000E+01      9.608765000000000E-01     -4.795312000000000E+01
4805000000.000000      8.924561000000000E-01      1.167500000000000E+02      3.229523000000000E-01     -1.704453000000000E+02      2.579651000000000E-01     -8.539454000000000E+01      9.552307000000000E-01     -4.803515000000000E+01
4806000000.000000      8.873596000000000E-01      1.170703000000000E+02      3.235931000000000E-01     -1.704609000000000E+02      2.569427000000000E-01     -8.514063000000000E+01      9.489746000000000E-01     -4.825195000000000E+01
4807000000.000000      8.898926000000000E-01      1.170586000000000E+02      3.242493000000000E-01     -1.705156000000000E+02      2.579041000000000E-01     -8.506639000000000E+01      9.440308000000000E-01     -4.818164000000000E+01
4808000000.000000      8.865051000000000E-01      1.174453000000000E+02      3.250885000000000E-01     -1.705469000000000E+02      2.575989000000000E-01     -8.484766000000000E+01      9.378967000000000E-01     -4.829492000000000E+01
4809000000.000000      8.827515000000000E-01      1.176641000000000E+02      3.249664000000000E-01     -1.705156000000000E+02      2.585602000000000E-01     -8.458593000000000E+01      9.331665000000000E-01     -4.832226000000000E+01
4810000000.000000      8.800354000000000E-01      1.177734000000000E+02      3.261108000000000E-01     -1.704531000000000E+02      2.578125000000000E-01     -8.438280000000000E+01      9.277954000000000E-01     -4.837695000000000E+01
4811000000.000000      8.796387000000000E-01      1.181523000000000E+02      3.264313000000000E-01     -1.705000000000000E+02      2.588654000000000E-01     -8.405077000000000E+01      9.226074000000000E-01     -4.832421000000000E+01
4812000000.000000      8.758850000000000E-01      1.185312000000000E+02      3.265228000000000E-01     -1.705078000000000E+02      2.579803000000000E-01     -8.385937000000000E+01      9.158325000000000E-01     -4.853516000000000E+01
4813000000.000000      8.737793000000000E-01      1.187070000000000E+02      3.265839000000000E-01     -1.704766000000000E+02      2.580872000000000E-01     -8.355860000000000E+01      9.123840000000000E-01     -4.853516000000000E+01
4814000000.000000      8.692627000000000E-01      1.189063000000000E+02      3.277435000000000E-01     -1.704297000000000E+02      2.580872000000000E-01     -8.334375000000000E+01      9.052429000000000E-01     -4.863281000000000E+01
4815000000.000000      8.683777000000000E-01      1.192500000000000E+02      3.280334000000000E-01     -1.705859000000000E+02      2.580566000000000E-01     -8.304296000000000E+01      9.012756000000000E-01     -4.862695000000000E+01
4816000000.000000      8.659058000000000E-01      1.193047000000000E+02      3.295746000000000E-01     -1.704531000000000E+02      2.588959000000000E-01     -8.280468000000000E+01      8.960876000000000E-01     -4.875195000000000E+01
4817000000.000000      8.611755000000000E-01      1.196914000000000E+02      3.299408000000000E-01     -1.707187000000000E+02      2.582550000000000E-01     -8.253906000000000E+01      8.894958000000000E-01     -4.876953000000000E+01
4818000000.000000      8.600464000000000E-01      1.198711000000000E+02      3.305511000000000E-01     -1.707891000000000E+02      2.581024000000000E-01     -8.217577000000000E+01      8.854065000000000E-01     -4.887695000000000E+01
4819000000.000000      8.588562000000000E-01      1.199883000000000E+02      3.308716000000000E-01     -1.707813000000000E+02      2.575226000000000E-01     -8.199999000000000E+01      8.786621000000000E-01     -4.900195000000000E+01
4820000000.000000      8.500671000000000E-01      1.202305000000000E+02      3.314667000000000E-01     -1.708672000000000E+02      2.583923000000000E-01     -8.160936000000000E+01      8.746948000000000E-01     -4.885351000000000E+01
4821000000.000000      8.506165000000000E-01      1.206016000000000E+02      3.331451000000000E-01     -1.710000000000000E+02      2.578430000000000E-01     -8.142969000000000E+01      8.686218000000000E-01     -4.899804000000000E+01
4822000000.000000      8.456421000000000E-01      1.205000000000000E+02      3.330841000000000E-01     -1.712265000000000E+02      2.570953000000000E-01     -8.114843000000000E+01      8.636475000000000E-01     -4.908203000000000E+01
4823000000.000000      8.425598000000000E-01      1.208281000000000E+02      3.340454000000000E-01     -1.711953000000000E+02      2.576141000000000E-01     -8.060547000000000E+01      8.591614000000000E-01     -4.917187000000000E+01
4824000000.000000      8.401184000000000E-01      1.210078000000000E+02      3.344421000000000E-01     -1.715156000000000E+02      2.577362000000000E-01     -8.038671000000000E+01      8.525696000000000E-01     -4.927929000000000E+01
4825000000.000000      8.345947000000000E-01      1.210820000000000E+02      3.345184000000000E-01     -1.714141000000000E+02      2.579803000000000E-01     -8.006250000000000E+01      8.489075000000000E-01     -4.929296000000000E+01
4826000000.000000      8.334656000000000E-01      1.213203000000000E+02      3.361816000000000E-01     -1.715937000000000E+02      2.574463000000000E-01     -7.982422000000000E+01      8.444824000000000E-01     -4.932812000000000E+01
4827000000.000000      8.288269000000000E-01      1.215430000000000E+02      3.364716000000000E-01     -1.716953000000000E+02      2.577057000000000E-01     -7.946875000000000E+01      8.399048000000000E-01     -4.940039000000000E+01
4828000000.000000      8.269043000000000E-01      1.214961000000000E+02      3.372345000000000E-01     -1.718984000000000E+02      2.569427000000000E-01     -7.924218000000000E+01      8.348389000000000E-01     -4.968554000000000E+01
4829000000.000000      8.184204000000000E-01      1.218828000000000E+02      3.367157000000000E-01     -1.721016000000000E+02      2.583008000000000E-01     -7.889062000000000E+01      8.319397000000000E-01     -4.953711000000000E+01
4830000000.000000      8.148499000000000E-01      1.218359000000000E+02      3.374634000000000E-01     -1.722812000000000E+02      2.575073000000000E-01     -7.844531000000000E+01      8.254395000000000E-01     -4.968945000000000E+01
4831000000.000000      8.103943000000000E-01      1.219687000000000E+02      3.379059000000000E-01     -1.725234000000000E+02      2.581940000000000E-01     -7.803905000000000E+01      8.215027000000000E-01     -4.971093000000000E+01
4832000000.000000      8.091736000000000E-01      1.220976000000000E+02      3.384247000000000E-01     -1.726797000000000E+02      2.579041000000000E-01     -7.774609000000000E+01      8.165283000000000E-01     -4.970312000000000E+01
4833000000.000000      8.018799000000000E-01      1.218906000000000E+02      3.385925000000000E-01     -1.728984000000000E+02      2.575378000000000E-01     -7.745703000000000E+01      8.122253000000000E-01     -4.980469000000000E+01
4834000000.000000      7.994690000000000E-01      1.222383000000000E+02      3.389587000000000E-01     -1.731641000000000E+02      2.581635000000000E-01     -7.712109000000000E+01      8.080444000000000E-01     -4.988086000000000E+01
4835000000.000000      7.935486000000000E-01      1.222266000000000E+02      3.394318000000000E-01     -1.733828000000000E+02      2.581177000000000E-01     -7.673437000000000E+01      8.050842000000000E-01     -4.994922000000000E+01
4836000000.000000      7.885437000000000E-01      1.222890000000000E+02      3.387909000000000E-01     -1.735156000000000E+02      2.587280000000000E-01     -7.642968000000000E+01      8.010254000000000E-01     -5.004687000000000E+01
4837000000.000000      7.828064000000000E-01      1.224726000000000E+02      3.389130000000000E-01     -1.740469000000000E+02      2.587433000000000E-01     -7.617188000000000E+01      7.968750000000000E-01     -4.998241000000000E+01
4838000000.000000      7.784424000000000E-01      1.223242000000000E+02      3.396301000000000E-01     -1.740547000000000E+02      2.587585000000000E-01     -7.564453000000000E+01      7.925415000000000E-01     -5.008594000000000E+01
4839000000.000000      7.739563000000000E-01      1.224883000000000E+02      3.395691000000000E-01     -1.741328000000000E+02      2.588043000000000E-01     -7.546875000000000E+01      7.892761000000000E-01     -5.021679000000000E+01
4840000000.000000      7.689514000000000E-01      1.224375000000000E+02      3.394318000000000E-01     -1.743203000000000E+02      2.597198000000000E-01     -7.503906000000000E+01      7.853699000000000E-01     -5.025585000000000E+01
4841000000.000000      7.635193000000000E-01      1.223438000000000E+02      3.399353000000000E-01     -1.748203000000000E+02      2.596436000000000E-01     -7.472656000000000E+01      7.821960000000000E-01     -5.033008000000000E+01
4842000000.000000      7.597961000000000E-01      1.222852000000000E+02      3.393860000000000E-01     -1.749453000000000E+02      2.594910000000000E-01     -7.442187000000000E+01      7.799988000000000E-01     -5.037499000000000E+01
4843000000.000000      7.529602000000000E-01      1.223672000000000E+02      3.394623000000000E-01     -1.752891000000000E+02      2.600098000000000E-01     -7.414844000000000E+01      7.745667000000000E-01     -5.040429000000000E+01
4844000000.000000      7.463989000000000E-01      1.221719000000000E+02      3.392181000000000E-01     -1.754453000000000E+02      2.596130000000000E-01     -7.369531000000000E+01      7.710571000000000E-01     -5.051562000000000E+01
4845000000.000000      7.409058000000000E-01      1.223438000000000E+02      3.383179000000000E-01     -1.757031000000000E+02      2.604523000000000E-01     -7.337891000000000E+01      7.670288000000000E-01     -5.058007000000000E+01
4846000000.000000      7.345276000000000E-01      1.220859000000000E+02      3.384552000000000E-01     -1.758828000000000E+02      2.612457000000000E-01     -7.303905000000000E+01      7.651062000000000E-01     -5.061132000000000E+01
4847000000.000000      7.293091000000000E-01      1.223242000000000E+02      3.378906000000000E-01     -1.761484000000000E+02      2.610931000000000E-01     -7.291016000000000E+01      7.623596000000000E-01     -5.072851000000000E+01
4848000000.000000      7.232056000000000E-01      1.219844000000000E+02      3.376007000000000E-01     -1.764062000000000E+02      2.610016000000000E-01     -7.246094000000000E+01      7.578735000000000E-01     -5.078515000000000E+01
4849000000.000000      7.174988000000000E-01      1.216680000000000E+02      3.366089000000000E-01     -1.767969000000000E+02      2.618866000000000E-01     -7.210155000000000E+01      7.548218000000000E-01     -5.074609000000000E+01
4850000000.000000      7.124329000000000E-01      1.217109000000000E+02      3.356781000000000E-01     -1.769766000000000E+02      2.615814000000000E-01     -7.181641000000000E+01      7.525330000000000E-01     -5.079296000000000E+01
4851000000.000000      7.067871000000000E-01      1.216016000000000E+02      3.360291000000000E-01     -1.773125000000000E+02      2.623749000000000E-01     -7.156640000000000E+01      7.504272000000000E-01     -5.094140000000000E+01
4852000000.000000      6.999817000000000E-01      1.213359000000000E+02      3.353577000000000E-01     -1.775156000000000E+02      2.629700000000000E-01     -7.123047000000000E+01      7.467957000000000E-01     -5.092773000000000E+01
4853000000.000000      6.938171000000000E-01      1.214336000000000E+02      3.339996000000000E-01     -1.777734000000000E+02      2.635193000000000E-01     -7.096093000000000E+01      7.437439000000000E-01     -5.113086000000000E+01
4854000000.000000      6.875916000000000E-01      1.211172000000000E+02      3.326874000000000E-01     -1.781641000000000E+02      2.634583000000000E-01     -7.078515000000000E+01      7.418518000000000E-01     -5.115234000000000E+01
4855000000.000000      6.819153000000000E-01      1.209687000000000E+02      3.329010000000000E-01     -1.782500000000000E+02      2.638092000000000E-01     -7.031250000000000E+01      7.377625000000000E-01     -5.115234000000000E+01
4856000000.000000      6.760864000000000E-01      1.207187000000000E+02      3.312378000000000E-01     -1.783828000000000E+02      2.644348000000000E-01     -7.008594000000000E+01      7.360840000000000E-01     -5.122265000000000E+01
4857000000.000000      6.689148000000000E-01      1.206680000000000E+02      3.308105000000000E-01     -1.786875000000000E+02      2.645569000000000E-01     -6.977344000000000E+01      7.330322000000000E-01     -5.130077000000000E+01
4858000000.000000      6.607666000000000E-01      1.200664000000000E+02      3.303223000000000E-01     -1.788359000000000E+02      2.641907000000000E-01     -6.958593000000000E+01      7.310181000000000E-01     -5.141602000000000E+01
4859000000.000000      6.553955000000000E-01      1.199726000000000E+02      3.288879000000000E-01     -1.791875000000000E+02      2.651978000000000E-01     -6.933594000000000E+01      7.304382000000000E-01     -5.148828000000000E+01
4860000000.000000      6.508789000000000E-01      1.197656000000000E+02      3.277130000000000E-01     -1.792891000000000E+02      2.652283000000000E-01     -6.913671000000000E+01      7.257385000000000E-01     -5.129296000000000E+01
4861000000.000000      6.425781000000000E-01      1.196133000000000E+02      3.264923000000000E-01     -1.796328000000000E+02      2.657623000000000E-01     -6.888672000000000E+01      7.225342000000000E-01     -5.156836000000000E+01
4862000000.000000      6.369019000000000E-01      1.191836000000000E+02      3.258972000000000E-01     -1.796562000000000E+02      2.661438000000000E-01     -6.871875000000000E+01      7.217712000000000E-01     -5.158984000000000E+01
4863000000.000000      6.308289000000000E-01      1.188086000000000E+02      3.242340000000000E-01      1.799922000000000E+02      2.668762000000000E-01     -6.841015000000000E+01      7.194519000000000E-01     -5.151562000000000E+01
4864000000.000000      6.258240000000000E-01      1.186484000000000E+02      3.240814000000000E-01      1.799844000000000E+02      2.664032000000000E-01     -6.823047000000000E+01      7.168579000000000E-01     -5.167187000000000E+01
4865000000.000000      6.183167000000000E-01      1.182461000000000E+02      3.219147000000000E-01      1.797812000000000E+02      2.670441000000000E-01     -6.817187000000000E+01      7.154236000000000E-01     -5.165039000000000E+01
4866000000.000000      6.119385000000000E-01      1.178672000000000E+02      3.211212000000000E-01      1.794609000000000E+02      2.676086000000000E-01     -6.794922000000000E+01      7.127380000000000E-01     -5.168945000000000E+01
4867000000.000000      6.054993000000000E-01      1.174609000000000E+02      3.196259000000000E-01      1.792812000000000E+02      2.676544000000000E-01     -6.784374000000000E+01      7.107544000000000E-01     -5.178711000000000E+01
4868000000.000000      6.018066000000000E-01      1.168125000000000E+02      3.187408000000000E-01      1.791641000000000E+02      2.680206000000000E-01     -6.753124000000000E+01      7.086792000000000E-01     -5.178320000000000E+01
4869000000.000000      5.938721000000000E-01      1.165977000000000E+02      3.172150000000000E-01      1.790234000000000E+02      2.685394000000000E-01     -6.737499000000000E+01      7.066040000000000E-01     -5.188477000000000E+01
4870000000.000000      5.885315000000000E-01      1.161797000000000E+02      3.161774000000000E-01      1.790078000000000E+02      2.685699000000000E-01     -6.731640000000000E+01      7.055054000000000E-01     -5.186132000000000E+01
4871000000.000000      5.821533000000000E-01      1.159336000000000E+02      3.151550000000000E-01      1.786641000000000E+02      2.683716000000000E-01     -6.721484000000000E+01      7.015991000000000E-01     -5.197266000000000E+01
4872000000.000000      5.783386000000000E-01      1.154023000000000E+02      3.137360000000000E-01      1.786406000000000E+02      2.686157000000000E-01     -6.715234000000000E+01      7.001953000000000E-01     -5.191601000000000E+01
4873000000.000000      5.718994000000000E-01      1.150273000000000E+02      3.126831000000000E-01      1.783984000000000E+02      2.684937000000000E-01     -6.693749000000000E+01      6.970825000000000E-01     -5.200000000000000E+01
4874000000.000000      5.674438000000000E-01      1.145976000000000E+02      3.110352000000000E-01      1.782734000000000E+02      2.689667000000000E-01     -6.688281000000000E+01      6.955872000000000E-01     -5.182812000000000E+01
4875000000.000000      5.636597000000000E-01      1.139844000000000E+02      3.097382000000000E-01      1.783047000000000E+02      2.694855000000000E-01     -6.682031000000000E+01      6.931152000000000E-01     -5.187500000000000E+01
4876000000.000000      5.563354000000000E-01      1.137344000000000E+02      3.085938000000000E-01      1.781016000000000E+02      2.686768000000000E-01     -6.681250000000000E+01      6.918335000000000E-01     -5.216601000000000E+01
4877000000.000000      5.516052000000000E-01      1.129453000000000E+02      3.083496000000000E-01      1.779063000000000E+02      2.694855000000000E-01     -6.670703000000000E+01      6.892700000000000E-01     -5.198047000000000E+01
4878000000.000000      5.469055000000000E-01      1.124766000000000E+02      3.067780000000000E-01      1.778672000000000E+02      2.694550000000000E-01     -6.647265000000000E+01      6.877747000000000E-01     -5.190820000000000E+01
4879000000.000000      5.412292000000000E-01      1.121211000000000E+02      3.050842000000000E-01      1.778047000000000E+02      2.693939000000000E-01     -6.652734000000000E+01      6.850586000000000E-01     -5.195117000000000E+01
4880000000.000000      5.379028000000000E-01      1.114063000000000E+02      3.043671000000000E-01      1.776406000000000E+02      2.693787000000000E-01     -6.641406000000000E+01      6.832275000000000E-01     -5.186132000000000E+01
4881000000.000000      5.322571000000000E-01      1.110273000000000E+02      3.036499000000000E-01      1.776484000000000E+02      2.697906000000000E-01     -6.651953000000000E+01      6.813049000000000E-01     -5.187500000000000E+01
4882000000.000000      5.268860000000000E-01      1.103437000000000E+02      3.026581000000000E-01      1.775547000000000E+02      2.694550000000000E-01     -6.638281000000000E+01      6.785889000000000E-01     -5.187109000000000E+01
