! Network Analyzer HP8722D
! Hewlett-Packard
! Data name: Linha & Wilkinson
! Saver's name: Rodrigo Anjos
! Comments: Teste da utilização de aquisição
continua pelo VNA HP8722D
! Time and date: 8/5/2025 15:55
!              Frequency                     S11                                                   S21                                                   S12                                                   S22
# HZ  S  MA R 50
4800000000.000000      8.984070000000000E-01      1.154648000000000E+02      3.235931000000000E-01     -1.709922000000000E+02      2.590485000000000E-01     -8.635937000000000E+01      9.785461000000000E-01     -4.811718000000000E+01
4801000000.000000      8.960571000000000E-01      1.157422000000000E+02      3.233185000000000E-01     -1.708203000000000E+02      2.587433000000000E-01     -8.632813000000000E+01      9.745178000000000E-01     -4.818749000000000E+01
4802000000.000000      8.939209000000000E-01      1.160664000000000E+02      3.233032000000000E-01     -1.708125000000000E+02      2.595825000000000E-01     -8.609766000000000E+01      9.709778000000000E-01     -4.805078000000000E+01
4803000000.000000      8.919067000000000E-01      1.162383000000000E+02      3.242798000000000E-01     -1.706875000000000E+02      2.591400000000000E-01     -8.594921000000000E+01      9.645691000000000E-01     -4.832226000000000E+01
4804000000.000000      8.901978000000000E-01      1.164219000000000E+02      3.238525000000000E-01     -1.705859000000000E+02      2.594757000000000E-01     -8.593359000000000E+01      9.599609000000000E-01     -4.831640000000000E+01
4805000000.000000      8.898926000000000E-01      1.165781000000000E+02      3.247833000000000E-01     -1.706640000000000E+02      2.589569000000000E-01     -8.557032000000000E+01      9.541016000000000E-01     -4.842968000000000E+01
4806000000.000000      8.860168000000000E-01      1.169765000000000E+02      3.252411000000000E-01     -1.705469000000000E+02      2.585907000000000E-01     -8.541016000000000E+01      9.468689000000000E-01     -4.858203000000000E+01
4807000000.000000      8.854980000000000E-01      1.170117000000000E+02      3.258057000000000E-01     -1.708047000000000E+02      2.590332000000000E-01     -8.519922000000000E+01      9.407959000000000E-01     -4.846680000000000E+01
4808000000.000000      8.847351000000000E-01      1.174141000000000E+02      3.267670000000000E-01     -1.706406000000000E+02      2.594299000000000E-01     -8.503515000000000E+01      9.364624000000000E-01     -4.851563000000000E+01
4809000000.000000      8.794556000000000E-01      1.176836000000000E+02      3.267517000000000E-01     -1.708203000000000E+02      2.597046000000000E-01     -8.481640000000000E+01      9.324341000000000E-01     -4.866015000000000E+01
4810000000.000000      8.784790000000000E-01      1.177969000000000E+02      3.276520000000000E-01     -1.705625000000000E+02      2.588654000000000E-01     -8.458202000000000E+01      9.252625000000000E-01     -4.877148000000000E+01
4811000000.000000      8.754883000000000E-01      1.181992000000000E+02      3.283234000000000E-01     -1.707266000000000E+02      2.601013000000000E-01     -8.417969000000000E+01      9.206848000000000E-01     -4.873241000000000E+01
4812000000.000000      8.747559000000000E-01      1.184023000000000E+02      3.279266000000000E-01     -1.707344000000000E+02      2.594452000000000E-01     -8.407812000000000E+01      9.141846000000000E-01     -4.887304000000000E+01
4813000000.000000      8.716736000000000E-01      1.186992000000000E+02      3.291779000000000E-01     -1.707109000000000E+02      2.594910000000000E-01     -8.377344000000000E+01      9.107971000000000E-01     -4.884960000000000E+01
4814000000.000000      8.666077000000000E-01      1.188789000000000E+02      3.294067000000000E-01     -1.706563000000000E+02      2.594452000000000E-01     -8.351171000000000E+01      9.048157000000000E-01     -4.902538000000000E+01
4815000000.000000      8.643799000000000E-01      1.191367000000000E+02      3.302460000000000E-01     -1.707813000000000E+02      2.594299000000000E-01     -8.326952000000000E+01      9.002075000000000E-01     -4.894140000000000E+01
4816000000.000000      8.620911000000000E-01      1.193945000000000E+02      3.316345000000000E-01     -1.706719000000000E+02      2.600250000000000E-01     -8.305859000000000E+01      8.941345000000000E-01     -4.900781000000000E+01
4817000000.000000      8.586426000000000E-01      1.196250000000000E+02      3.317108000000000E-01     -1.710469000000000E+02      2.595673000000000E-01     -8.271484000000000E+01      8.877869000000000E-01     -4.908398000000000E+01
4818000000.000000      8.558350000000000E-01      1.198789000000000E+02      3.324127000000000E-01     -1.709531000000000E+02      2.597961000000000E-01     -8.235546000000000E+01      8.812561000000000E-01     -4.913867000000000E+01
4819000000.000000      8.548279000000000E-01      1.200664000000000E+02      3.325958000000000E-01     -1.710312000000000E+02      2.586670000000000E-01     -8.223047000000000E+01      8.772888000000000E-01     -4.932031000000000E+01
4820000000.000000      8.445740000000000E-01      1.202695000000000E+02      3.327484000000000E-01     -1.710000000000000E+02      2.597809000000000E-01     -8.176172000000000E+01      8.724365000000000E-01     -4.932422000000000E+01
4821000000.000000      8.461609000000000E-01      1.203711000000000E+02      3.343048000000000E-01     -1.711016000000000E+02      2.598114000000000E-01     -8.161327000000000E+01      8.677673000000000E-01     -4.931250000000000E+01
4822000000.000000      8.430786000000000E-01      1.204492000000000E+02      3.346710000000000E-01     -1.714531000000000E+02      2.585602000000000E-01     -8.135937000000000E+01      8.618469000000000E-01     -4.945507000000000E+01
4823000000.000000      8.394470000000000E-01      1.207148000000000E+02      3.358459000000000E-01     -1.715312000000000E+02      2.591553000000000E-01     -8.077734000000000E+01      8.559265000000000E-01     -4.934960000000000E+01
4824000000.000000      8.370667000000000E-01      1.207969000000000E+02      3.362122000000000E-01     -1.717891000000000E+02      2.590332000000000E-01     -8.062891000000000E+01      8.518677000000000E-01     -4.944140000000000E+01
4825000000.000000      8.324585000000000E-01      1.210352000000000E+02      3.364868000000000E-01     -1.717578000000000E+02      2.595673000000000E-01     -8.034765000000000E+01      8.480835000000000E-01     -4.960351000000000E+01
4826000000.000000      8.280640000000000E-01      1.211601000000000E+02      3.382263000000000E-01     -1.719531000000000E+02      2.594452000000000E-01     -8.009766000000000E+01      8.426514000000000E-01     -4.970117000000000E+01
4827000000.000000      8.241882000000000E-01      1.213477000000000E+02      3.382416000000000E-01     -1.720469000000000E+02      2.589874000000000E-01     -7.968359000000000E+01      8.373108000000000E-01     -4.983203000000000E+01
4828000000.000000      8.203125000000000E-01      1.214766000000000E+02      3.390808000000000E-01     -1.722969000000000E+02      2.585144000000000E-01     -7.951953000000000E+01      8.336792000000000E-01     -4.993750000000000E+01
4829000000.000000      8.151245000000000E-01      1.216250000000000E+02      3.383484000000000E-01     -1.723359000000000E+02      2.598114000000000E-01     -7.913280000000000E+01      8.302917000000000E-01     -4.988476000000000E+01
4830000000.000000      8.128662000000000E-01      1.217656000000000E+02      3.395386000000000E-01     -1.726250000000000E+02      2.592773000000000E-01     -7.870312000000000E+01      8.236694000000000E-01     -4.998437000000000E+01
4831000000.000000      8.041992000000000E-01      1.218672000000000E+02      3.402252000000000E-01     -1.727578000000000E+02      2.594757000000000E-01     -7.830859000000000E+01      8.203125000000000E-01     -5.001171000000000E+01
4832000000.000000      8.044128000000000E-01      1.219141000000000E+02      3.398590000000000E-01     -1.731406000000000E+02      2.594604000000000E-01     -7.794922000000000E+01      8.154907000000000E-01     -5.009960000000000E+01
4833000000.000000      7.975464000000000E-01      1.220469000000000E+02      3.405762000000000E-01     -1.730781000000000E+02      2.592316000000000E-01     -7.771874000000000E+01      8.098755000000000E-01     -5.013281000000000E+01
4834000000.000000      7.927856000000000E-01      1.220703000000000E+02      3.410950000000000E-01     -1.734453000000000E+02      2.597656000000000E-01     -7.737890000000000E+01      8.067627000000000E-01     -5.025976000000000E+01
4835000000.000000      7.878723000000000E-01      1.221055000000000E+02      3.409882000000000E-01     -1.735391000000000E+02      2.597961000000000E-01     -7.702734000000000E+01      8.027344000000000E-01     -5.031054000000000E+01
4836000000.000000      7.836609000000000E-01      1.221797000000000E+02      3.410034000000000E-01     -1.739141000000000E+02      2.597961000000000E-01     -7.664844000000000E+01      7.992859000000000E-01     -5.031054000000000E+01
4837000000.000000      7.804871000000000E-01      1.223125000000000E+02      3.415527000000000E-01     -1.744141000000000E+02      2.603149000000000E-01     -7.643359000000000E+01      7.942200000000000E-01     -5.041406000000000E+01
4838000000.000000      7.716675000000000E-01      1.222383000000000E+02      3.415222000000000E-01     -1.743438000000000E+02      2.604523000000000E-01     -7.593359000000000E+01      7.914429000000000E-01     -5.033789000000000E+01
4839000000.000000      7.701111000000000E-01      1.223281000000000E+02      3.414459000000000E-01     -1.745000000000000E+02      2.601929000000000E-01     -7.571094000000000E+01      7.872925000000000E-01     -5.059960000000000E+01
4840000000.000000      7.633972000000000E-01      1.224258000000000E+02      3.410645000000000E-01     -1.746484000000000E+02      2.610931000000000E-01     -7.534374000000000E+01      7.838440000000000E-01     -5.060156000000000E+01
4841000000.000000      7.583923000000000E-01      1.222578000000000E+02      3.409271000000000E-01     -1.750781000000000E+02      2.615051000000000E-01     -7.500781000000000E+01      7.805481000000000E-01     -5.062109000000000E+01
4842000000.000000      7.535095000000000E-01      1.222383000000000E+02      3.415375000000000E-01     -1.752891000000000E+02      2.611389000000000E-01     -7.467187000000000E+01      7.781677000000000E-01     -5.074219000000000E+01
4843000000.000000      7.469482000000000E-01      1.222890000000000E+02      3.415375000000000E-01     -1.756250000000000E+02      2.616119000000000E-01     -7.438281000000000E+01      7.736816000000000E-01     -5.075585000000000E+01
4844000000.000000      7.401123000000000E-01      1.222305000000000E+02      3.408508000000000E-01     -1.757813000000000E+02      2.615967000000000E-01     -7.396874000000000E+01      7.689209000000000E-01     -5.084374000000000E+01
4845000000.000000      7.348328000000000E-01      1.222539000000000E+02      3.405609000000000E-01     -1.760781000000000E+02      2.620392000000000E-01     -7.374218000000000E+01      7.660522000000000E-01     -5.086719000000000E+01
4846000000.000000      7.299500000000000E-01      1.222305000000000E+02      3.397522000000000E-01     -1.762812000000000E+02      2.628479000000000E-01     -7.334765000000000E+01      7.633667000000000E-01     -5.094727000000000E+01
4847000000.000000      7.236023000000000E-01      1.219922000000000E+02      3.395081000000000E-01     -1.764688000000000E+02      2.631836000000000E-01     -7.314843000000000E+01      7.601013000000000E-01     -5.108398000000000E+01
4848000000.000000      7.196350000000000E-01      1.219141000000000E+02      3.383331000000000E-01     -1.768672000000000E+02      2.628326000000000E-01     -7.280859000000000E+01      7.561646000000000E-01     -5.112109000000000E+01
4849000000.000000      7.127686000000000E-01      1.215664000000000E+02      3.383179000000000E-01     -1.771172000000000E+02      2.635040000000000E-01     -7.236328000000000E+01      7.529907000000000E-01     -5.107226000000000E+01
4850000000.000000      7.064819000000000E-01      1.217695000000000E+02      3.378754000000000E-01     -1.773594000000000E+02      2.640381000000000E-01     -7.215234000000000E+01      7.500305000000000E-01     -5.118164000000000E+01
4851000000.000000      7.005310000000000E-01      1.216406000000000E+02      3.382568000000000E-01     -1.776406000000000E+02      2.637177000000000E-01     -7.187890000000000E+01      7.481995000000000E-01     -5.128711000000000E+01
4852000000.000000      6.948242000000000E-01      1.213437000000000E+02      3.367310000000000E-01     -1.777656000000000E+02      2.647095000000000E-01     -7.158984000000000E+01      7.454529000000000E-01     -5.130468000000000E+01
4853000000.000000      6.880188000000000E-01      1.212070000000000E+02      3.353424000000000E-01     -1.781250000000000E+02      2.652283000000000E-01     -7.130859000000000E+01      7.422485000000000E-01     -5.143945000000000E+01
4854000000.000000      6.809998000000000E-01      1.210938000000000E+02      3.348083000000000E-01     -1.784531000000000E+02      2.651672000000000E-01     -7.119141000000000E+01      7.411499000000000E-01     -5.143164000000000E+01
4855000000.000000      6.761780000000000E-01      1.208672000000000E+02      3.334808000000000E-01     -1.786094000000000E+02      2.656403000000000E-01     -7.076172000000000E+01      7.361145000000000E-01     -5.146093000000000E+01
4856000000.000000      6.690369000000000E-01      1.206992000000000E+02      3.334198000000000E-01     -1.787188000000000E+02      2.663879000000000E-01     -7.053124000000000E+01      7.351685000000000E-01     -5.153710000000000E+01
4857000000.000000      6.638489000000000E-01      1.205156000000000E+02      3.321991000000000E-01     -1.790469000000000E+02      2.662354000000000E-01     -7.017187000000000E+01      7.311707000000000E-01     -5.159570000000000E+01
4858000000.000000      6.573181000000000E-01      1.200586000000000E+02      3.315582000000000E-01     -1.792187000000000E+02      2.665863000000000E-01     -6.988281000000000E+01      7.292175000000000E-01     -5.170312000000000E+01
4859000000.000000      6.491089000000000E-01      1.198320000000000E+02      3.307343000000000E-01     -1.795547000000000E+02      2.669678000000000E-01     -6.975780000000000E+01      7.283325000000000E-01     -5.177343000000000E+01
4860000000.000000      6.460266000000000E-01      1.196445000000000E+02      3.293152000000000E-01     -1.796562000000000E+02      2.667694000000000E-01     -6.942968000000000E+01      7.232666000000000E-01     -5.178124000000000E+01
4861000000.000000      6.381836000000000E-01      1.194570000000000E+02      3.286438000000000E-01      1.799844000000000E+02      2.672119000000000E-01     -6.928124000000000E+01      7.210388000000000E-01     -5.183788000000000E+01
4862000000.000000      6.318970000000000E-01      1.189531000000000E+02      3.283081000000000E-01      1.799297000000000E+02      2.684021000000000E-01     -6.902344000000000E+01      7.198486000000000E-01     -5.195703000000000E+01
4863000000.000000      6.235352000000000E-01      1.187226000000000E+02      3.253632000000000E-01      1.796016000000000E+02      2.691040000000000E-01     -6.887109000000000E+01      7.183533000000000E-01     -5.191406000000000E+01
4864000000.000000      6.187744000000000E-01      1.183672000000000E+02      3.253326000000000E-01      1.794531000000000E+02      2.686157000000000E-01     -6.864843000000000E+01      7.142944000000000E-01     -5.199413000000000E+01
4865000000.000000      6.130066000000000E-01      1.178594000000000E+02      3.231964000000000E-01      1.793516000000000E+02      2.692413000000000E-01     -6.844140000000000E+01      7.127991000000000E-01     -5.191796000000000E+01
4866000000.000000      6.067200000000000E-01      1.176289000000000E+02      3.223114000000000E-01      1.791953000000000E+02      2.685547000000000E-01     -6.830468000000000E+01      7.113953000000000E-01     -5.207421000000000E+01
4867000000.000000      6.002197000000000E-01      1.171328000000000E+02      3.216248000000000E-01      1.788516000000000E+02      2.697144000000000E-01     -6.799999000000000E+01      7.097168000000000E-01     -5.200000000000000E+01
4868000000.000000      5.955811000000000E-01      1.168516000000000E+02      3.205566000000000E-01      1.787578000000000E+02      2.702789000000000E-01     -6.799218000000000E+01      7.057800000000000E-01     -5.204102000000000E+01
4869000000.000000      5.873413000000000E-01      1.164531000000000E+02      3.186340000000000E-01      1.786250000000000E+02      2.702637000000000E-01     -6.792969000000000E+01      7.042236000000000E-01     -5.219921000000000E+01
4870000000.000000      5.823364000000000E-01      1.160781000000000E+02      3.181610000000000E-01      1.786016000000000E+02      2.703247000000000E-01     -6.772265000000000E+01      7.028198000000000E-01     -5.212109000000000E+01
4871000000.000000      5.756836000000000E-01      1.154062000000000E+02      3.165588000000000E-01      1.782187000000000E+02      2.700958000000000E-01     -6.756640000000000E+01      6.997070000000000E-01     -5.220508000000000E+01
4872000000.000000      5.717773000000000E-01      1.150039000000000E+02      3.147888000000000E-01      1.783125000000000E+02      2.707214000000000E-01     -6.769531000000000E+01      6.991272000000000E-01     -5.226171000000000E+01
4873000000.000000      5.645752000000000E-01      1.148164000000000E+02      3.140106000000000E-01      1.780078000000000E+02      2.705383000000000E-01     -6.739843000000000E+01      6.957703000000000E-01     -5.225976000000000E+01
4874000000.000000      5.595093000000000E-01      1.143594000000000E+02      3.127899000000000E-01      1.778594000000000E+02      2.712708000000000E-01     -6.734765000000000E+01      6.936340000000000E-01     -5.218945000000000E+01
4875000000.000000      5.545654000000000E-01      1.138437000000000E+02      3.108215000000000E-01      1.778359000000000E+02      2.711639000000000E-01     -6.723827000000000E+01      6.912842000000000E-01     -5.228125000000000E+01
4876000000.000000      5.485229000000000E-01      1.133828000000000E+02      3.104248000000000E-01      1.775547000000000E+02      2.704468000000000E-01     -6.717187000000000E+01      6.903076000000000E-01     -5.241992000000000E+01
4877000000.000000      5.449219000000000E-01      1.127461000000000E+02      3.091888000000000E-01      1.775078000000000E+02      2.713013000000000E-01     -6.719921000000000E+01      6.875610000000000E-01     -5.228710000000000E+01
4878000000.000000      5.385132000000000E-01      1.122070000000000E+02      3.084259000000000E-01      1.774219000000000E+02      2.713928000000000E-01     -6.697266000000000E+01      6.858215000000000E-01     -5.238281000000000E+01
4879000000.000000      5.350952000000000E-01      1.118555000000000E+02      3.064423000000000E-01      1.774922000000000E+02      2.706757000000000E-01     -6.710938000000000E+01      6.823425000000000E-01     -5.222265000000000E+01
4880000000.000000      5.287781000000000E-01      1.112383000000000E+02      3.053589000000000E-01      1.771563000000000E+02      2.712708000000000E-01     -6.687109000000000E+01      6.799011000000000E-01     -5.218945000000000E+01
4881000000.000000      5.255737000000000E-01      1.108555000000000E+02      3.049011000000000E-01      1.772656000000000E+02      2.713623000000000E-01     -6.700390000000000E+01      6.780701000000000E-01     -5.221093000000000E+01
4882000000.000000      5.216675000000000E-01      1.103320000000000E+02      3.034058000000000E-01      1.770391000000000E+02      2.709961000000000E-01     -6.688281000000000E+01      6.759644000000000E-01     -5.216210000000000E+01
