! Network Analyzer HP8722D
! Hewlett-Packard
! Data name: Linha & Wilkinson
! Saver's name: Rodrigo Anjos
! Comments: Teste da utilização de aquisição
continua pelo VNA HP8722D
! Time and date: 8/5/2025 14:05
!              Frequency                     S11                                                   S21                                                   S12                                                   S22
# HZ  S  MA R 50
4800000000.000000      5.375977000000000E-01     -2.543554000000000E+01      3.616791000000000E-01     -1.483438000000000E+02      3.790741000000000E-01      1.101904000000000E+01      5.036621000000000E-01      1.562805000000000E+00
4801000000.000000      5.362549000000000E-01     -2.506738000000000E+01      3.646393000000000E-01     -1.486484000000000E+02      3.822632000000000E-01      1.062891000000000E+01      5.001526000000000E-01      1.656189000000000E+00
4802000000.000000      5.348816000000000E-01     -2.480859000000000E+01      3.689575000000000E-01     -1.490547000000000E+02      3.859100000000000E-01      1.064014000000000E+01      4.964294000000000E-01      1.834717000000000E+00
4803000000.000000      5.330200000000000E-01     -2.454785000000000E+01      3.743744000000000E-01     -1.493281000000000E+02      3.900146000000000E-01      1.052490000000000E+01      4.906311000000000E-01      1.912964000000000E+00
4804000000.000000      5.339661000000000E-01     -2.442968000000000E+01      3.776398000000000E-01     -1.497578000000000E+02      3.951721000000000E-01      1.031738000000000E+01      4.823608000000000E-01      1.967896000000000E+00
4805000000.000000      5.328979000000000E-01     -2.411426000000000E+01      3.813324000000000E-01     -1.503672000000000E+02      3.983765000000000E-01      1.035693000000000E+01      4.777527000000000E-01      1.859436000000000E+00
4806000000.000000      5.306702000000000E-01     -2.376563000000000E+01      3.852386000000000E-01     -1.506094000000000E+02      4.020386000000000E-01      1.015137000000000E+01      4.691925000000000E-01      1.952820000000000E+00
4807000000.000000      5.283508000000000E-01     -2.365723000000000E+01      3.890076000000000E-01     -1.511250000000000E+02      4.058380000000000E-01      9.687012000000000E+00      4.616394000000000E-01      2.204102000000000E+00
4808000000.000000      5.270996000000000E-01     -2.346289000000000E+01      3.929291000000000E-01     -1.513515000000000E+02      4.102783000000000E-01      9.810547000000000E+00      4.555054000000000E-01      2.326294000000000E+00
4809000000.000000      5.263977000000000E-01     -2.309668000000000E+01      3.970642000000000E-01     -1.519922000000000E+02      4.128723000000000E-01      9.700684000000000E+00      4.481659000000000E-01      2.603760000000000E+00
4810000000.000000      5.259705000000000E-01     -2.283984000000000E+01      4.016876000000000E-01     -1.521641000000000E+02      4.172821000000000E-01      9.508301000000000E+00      4.414825000000000E-01      2.432007000000000E+00
4811000000.000000      5.240784000000000E-01     -2.256543000000000E+01      4.046326000000000E-01     -1.528594000000000E+02      4.212189000000000E-01      9.439941000000000E+00      4.337769000000000E-01      2.833008000000000E+00
4812000000.000000      5.242615000000000E-01     -2.237597000000000E+01      4.078674000000000E-01     -1.532266000000000E+02      4.258728000000000E-01      9.093750000000000E+00      4.261627000000000E-01      2.802856000000000E+00
4813000000.000000      5.207214000000000E-01     -2.223242000000000E+01      4.114838000000000E-01     -1.536562000000000E+02      4.269714000000000E-01      9.261230000000000E+00      4.187775000000000E-01      3.250488000000000E+00
4814000000.000000      5.198059000000000E-01     -2.225879000000000E+01      4.157410000000000E-01     -1.540703000000000E+02      4.308319000000000E-01      9.145996000000000E+00      4.101563000000000E-01      3.276611000000000E+00
4815000000.000000      5.200195000000000E-01     -2.172852000000000E+01      4.181519000000000E-01     -1.545312000000000E+02      4.347076000000000E-01      8.725586000000000E+00      4.022064000000000E-01      3.625488000000000E+00
4816000000.000000      5.168457000000000E-01     -2.173047000000000E+01      4.222107000000000E-01     -1.549766000000000E+02      4.401855000000000E-01      8.711914000000000E+00      3.947296000000000E-01      3.711914000000000E+00
4817000000.000000      5.162964000000000E-01     -2.145996000000000E+01      4.250183000000000E-01     -1.554062000000000E+02      4.409180000000000E-01      8.598145000000000E+00      3.849945000000000E-01      4.171875000000000E+00
4818000000.000000      5.137329000000000E-01     -2.128516000000000E+01      4.282532000000000E-01     -1.559375000000000E+02      4.470825000000000E-01      8.379395000000000E+00      3.766632000000000E-01      4.375244000000000E+00
4819000000.000000      5.134888000000000E-01     -2.120117000000000E+01      4.308472000000000E-01     -1.563906000000000E+02      4.503784000000000E-01      8.239746000000000E+00      3.674469000000000E-01      4.416504000000000E+00
4820000000.000000      5.107117000000000E-01     -2.087305000000000E+01      4.343719000000000E-01     -1.566953000000000E+02      4.523926000000000E-01      8.107910000000000E+00      3.583527000000000E-01      4.958740000000000E+00
4821000000.000000      5.097351000000000E-01     -2.089746000000000E+01      4.375153000000000E-01     -1.572813000000000E+02      4.556732000000000E-01      7.910156000000000E+00      3.493652000000000E-01      5.611084000000000E+00
4822000000.000000      5.083923000000000E-01     -2.077539000000000E+01      4.391937000000000E-01     -1.575938000000000E+02      4.590759000000000E-01      7.840088000000000E+00      3.412323000000000E-01      5.575439000000000E+00
4823000000.000000      5.080261000000000E-01     -2.037500000000000E+01      4.430542000000000E-01     -1.582422000000000E+02      4.612732000000000E-01      7.786377000000000E+00      3.315735000000000E-01      6.072510000000000E+00
4824000000.000000      5.056152000000000E-01     -2.040722000000000E+01      4.453735000000000E-01     -1.586797000000000E+02      4.653473000000000E-01      7.581787000000000E+00      3.218231000000000E-01      6.439209000000000E+00
4825000000.000000      5.024109000000000E-01     -2.028906000000000E+01      4.478760000000000E-01     -1.591094000000000E+02      4.691467000000000E-01      7.353760000000000E+00      3.142548000000000E-01      7.142334000000000E+00
4826000000.000000      5.026550000000000E-01     -2.014355000000000E+01      4.502716000000000E-01     -1.597344000000000E+02      4.720917000000000E-01      7.282471000000000E+00      3.038940000000000E-01      7.480225000000000E+00
4827000000.000000      5.005798000000000E-01     -1.978711000000000E+01      4.523926000000000E-01     -1.599844000000000E+02      4.742432000000000E-01      7.025635000000000E+00      2.954559000000000E-01      8.102051000000000E+00
4828000000.000000      5.001221000000000E-01     -1.980371000000000E+01      4.556885000000000E-01     -1.605234000000000E+02      4.782562000000000E-01      6.826416000000000E+00      2.857971000000000E-01      8.577148000000000E+00
4829000000.000000      4.987030000000000E-01     -1.942187000000000E+01      4.579315000000000E-01     -1.610000000000000E+02      4.806824000000000E-01      6.689209000000000E+00      2.772064000000000E-01      9.638672000000000E+00
4830000000.000000      4.957428000000000E-01     -1.944531000000000E+01      4.601746000000000E-01     -1.615156000000000E+02      4.842529000000000E-01      6.734619000000000E+00      2.661743000000000E-01      1.036816000000000E+01
4831000000.000000      4.927063000000000E-01     -1.959277000000000E+01      4.623871000000000E-01     -1.619375000000000E+02      4.855957000000000E-01      6.533936000000000E+00      2.566376000000000E-01      1.121387000000000E+01
4832000000.000000      4.929352000000000E-01     -1.909472000000000E+01      4.641571000000000E-01     -1.622734000000000E+02      4.907684000000000E-01      6.156250000000000E+00      2.465286000000000E-01      1.252539000000000E+01
4833000000.000000      4.895020000000000E-01     -1.912109000000000E+01      4.657288000000000E-01     -1.627187000000000E+02      4.926910000000000E-01      5.983398000000000E+00      2.367096000000000E-01      1.338672000000000E+01
4834000000.000000      4.898682000000000E-01     -1.889160000000000E+01      4.680023000000000E-01     -1.632578000000000E+02      4.960632000000000E-01      5.966797000000000E+00      2.289124000000000E-01      1.471582000000000E+01
4835000000.000000      4.875336000000000E-01     -1.865820000000000E+01      4.704285000000000E-01     -1.637500000000000E+02      4.990387000000000E-01      5.942139000000000E+00      2.191544000000000E-01      1.594629000000000E+01
4836000000.000000      4.840088000000000E-01     -1.841894000000000E+01      4.710541000000000E-01     -1.640859000000000E+02      5.005493000000000E-01      5.863770000000000E+00      2.096329000000000E-01      1.748047000000000E+01
4837000000.000000      4.829712000000000E-01     -1.832715000000000E+01      4.720306000000000E-01     -1.647344000000000E+02      5.029297000000000E-01      5.539795000000000E+00      2.012100000000000E-01      1.920117000000000E+01
4838000000.000000      4.822693000000000E-01     -1.844824000000000E+01      4.754028000000000E-01     -1.648906000000000E+02      5.065613000000000E-01      5.443604000000000E+00      1.922684000000000E-01      2.100976000000000E+01
4839000000.000000      4.824066000000000E-01     -1.792090000000000E+01      4.762573000000000E-01     -1.654140000000000E+02      5.081177000000000E-01      5.465576000000000E+00      1.847458000000000E-01      2.273047000000000E+01
4840000000.000000      4.798889000000000E-01     -1.819824000000000E+01      4.775085000000000E-01     -1.657734000000000E+02      5.115967000000000E-01      5.130615000000000E+00      1.759262000000000E-01      2.471191000000000E+01
4841000000.000000      4.775543000000000E-01     -1.765429000000000E+01      4.795380000000000E-01     -1.663984000000000E+02      5.126648000000000E-01      4.958740000000000E+00      1.689758000000000E-01      2.751367000000000E+01
4842000000.000000      4.744263000000000E-01     -1.750293000000000E+01      4.806671000000000E-01     -1.667422000000000E+02      5.144958000000000E-01      4.865479000000000E+00      1.619415000000000E-01      3.039453000000000E+01
4843000000.000000      4.756622000000000E-01     -1.748633000000000E+01      4.827423000000000E-01     -1.673203000000000E+02      5.180054000000000E-01      4.673096000000000E+00      1.540833000000000E-01      3.346680000000000E+01
4844000000.000000      4.727020000000000E-01     -1.728711000000000E+01      4.830780000000000E-01     -1.675625000000000E+02      5.197449000000000E-01      4.438477000000000E+00      1.467133000000000E-01      3.672656000000000E+01
4845000000.000000      4.718933000000000E-01     -1.693848000000000E+01      4.843292000000000E-01     -1.679688000000000E+02      5.227356000000000E-01      4.184326000000000E+00      1.426010000000000E-01      4.002149000000000E+01
4846000000.000000      4.698944000000000E-01     -1.670117000000000E+01      4.857483000000000E-01     -1.684844000000000E+02      5.276184000000000E-01      4.002930000000000E+00      1.370621000000000E-01      4.405078000000000E+01
4847000000.000000      4.681549000000000E-01     -1.657227000000000E+01      4.868011000000000E-01     -1.688437000000000E+02      5.285339000000000E-01      3.893188000000000E+00      1.324997000000000E-01      4.808398000000000E+01
4848000000.000000      4.678192000000000E-01     -1.635644000000000E+01      4.865265000000000E-01     -1.691328000000000E+02      5.289001000000000E-01      3.667969000000000E+00      1.298904000000000E-01      5.265038000000000E+01
4849000000.000000      4.667511000000000E-01     -1.599072000000000E+01      4.892273000000000E-01     -1.695469000000000E+02      5.301208000000000E-01      3.547119000000000E+00      1.270370000000000E-01      5.691015000000000E+01
4850000000.000000      4.645081000000000E-01     -1.578467000000000E+01      4.892120000000000E-01     -1.698984000000000E+02      5.329895000000000E-01      3.527954000000000E+00      1.256485000000000E-01      6.177148000000000E+01
4851000000.000000      4.638367000000000E-01     -1.549072000000000E+01      4.917908000000000E-01     -1.703750000000000E+02      5.348816000000000E-01      3.394775000000000E+00      1.246758000000000E-01      6.625781000000000E+01
4852000000.000000      4.641418000000000E-01     -1.523975000000000E+01      4.919128000000000E-01     -1.708281000000000E+02      5.359192000000000E-01      3.159912000000000E+00      1.258850000000000E-01      7.051562000000000E+01
4853000000.000000      4.634247000000000E-01     -1.508057000000000E+01      4.915619000000000E-01     -1.710391000000000E+02      5.384216000000000E-01      2.942871000000000E+00      1.266632000000000E-01      7.530468000000000E+01
4854000000.000000      4.620514000000000E-01     -1.475098000000000E+01      4.933167000000000E-01     -1.715312000000000E+02      5.387268000000000E-01      2.758911000000000E+00      1.299667000000000E-01      7.947656000000000E+01
4855000000.000000      4.611664000000000E-01     -1.438965000000000E+01      4.936218000000000E-01     -1.719297000000000E+02      5.411072000000000E-01      2.627075000000000E+00      1.312485000000000E-01      8.428514000000000E+01
4856000000.000000      4.619904000000000E-01     -1.417969000000000E+01      4.945374000000000E-01     -1.721797000000000E+02      5.424500000000000E-01      2.440308000000000E+00      1.362991000000000E-01      8.783203000000000E+01
4857000000.000000      4.614258000000000E-01     -1.391162000000000E+01      4.965973000000000E-01     -1.726016000000000E+02      5.431824000000000E-01      2.131348000000000E+00      1.399078000000000E-01      9.155077000000000E+01
4858000000.000000      4.610443000000000E-01     -1.370410000000000E+01      4.973297000000000E-01     -1.728516000000000E+02      5.448914000000000E-01      2.175293000000000E+00      1.441574000000000E-01      9.472656000000000E+01
4859000000.000000      4.608459000000000E-01     -1.339258000000000E+01      4.977875000000000E-01     -1.733047000000000E+02      5.440979000000000E-01      1.976135000000000E+00      1.495667000000000E-01      9.760937000000000E+01
4860000000.000000      4.604950000000000E-01     -1.285303000000000E+01      4.985657000000000E-01     -1.735547000000000E+02      5.450745000000000E-01      1.896484000000000E+00      1.562042000000000E-01      1.002969000000000E+02
4861000000.000000      4.615326000000000E-01     -1.258496000000000E+01      4.984283000000000E-01     -1.741953000000000E+02      5.473022000000000E-01      1.613586000000000E+00      1.613464000000000E-01      1.028828000000000E+02
4862000000.000000      4.624481000000000E-01     -1.230908000000000E+01      5.009460000000000E-01     -1.742891000000000E+02      5.489197000000000E-01      1.588867000000000E+00      1.665802000000000E-01      1.050469000000000E+02
4863000000.000000      4.617157000000000E-01     -1.213867000000000E+01      5.004883000000000E-01     -1.748437000000000E+02      5.498047000000000E-01      1.443298000000000E+00      1.741257000000000E-01      1.069102000000000E+02
4864000000.000000      4.646149000000000E-01     -1.181201000000000E+01      5.019836000000000E-01     -1.748906000000000E+02      5.499573000000000E-01      1.341675000000000E+00      1.808929000000000E-01      1.084687000000000E+02
4865000000.000000      4.652405000000000E-01     -1.161133000000000E+01      5.015564000000000E-01     -1.750625000000000E+02      5.500793000000000E-01      1.327942000000000E+00      1.883011000000000E-01      1.101992000000000E+02
4866000000.000000      4.668884000000000E-01     -1.127930000000000E+01      5.020142000000000E-01     -1.756797000000000E+02      5.510559000000000E-01      1.084900000000000E+00      1.936493000000000E-01      1.118476000000000E+02
4867000000.000000      4.658966000000000E-01     -1.113330000000000E+01      5.032043000000000E-01     -1.760937000000000E+02      5.493774000000000E-01      9.104919000000000E-01      1.994095000000000E-01      1.132422000000000E+02
4868000000.000000      4.668732000000000E-01     -1.080664000000000E+01      5.031433000000000E-01     -1.765000000000000E+02      5.518188000000000E-01      7.443237000000000E-01      2.062988000000000E-01      1.140820000000000E+02
4869000000.000000      4.692383000000000E-01     -1.048389000000000E+01      5.057373000000000E-01     -1.768359000000000E+02      5.515747000000000E-01      7.896423000000000E-01      2.126694000000000E-01      1.149180000000000E+02
4870000000.000000      4.713745000000000E-01     -1.038379000000000E+01      5.062561000000000E-01     -1.771016000000000E+02      5.513306000000000E-01      6.536865000000000E-01      2.186127000000000E-01      1.163477000000000E+02
4871000000.000000      4.726563000000000E-01     -9.992188000000000E+00      5.077209000000000E-01     -1.775703000000000E+02      5.511169000000000E-01      5.204773000000000E-01      2.253723000000000E-01      1.164219000000000E+02
4872000000.000000      4.766541000000000E-01     -9.848145000000000E+00      5.078125000000000E-01     -1.776094000000000E+02      5.498657000000000E-01      2.760315000000000E-01      2.322693000000000E-01      1.173750000000000E+02
4873000000.000000      4.762421000000000E-01     -9.474609000000000E+00      5.093689000000000E-01     -1.782109000000000E+02      5.504150000000000E-01      2.156067000000000E-01      2.369614000000000E-01      1.181641000000000E+02
4874000000.000000      4.816742000000000E-01     -9.117676000000000E+00      5.089722000000000E-01     -1.784141000000000E+02      5.523682000000000E-01      7.965088000000000E-02      2.429657000000000E-01      1.187930000000000E+02
4875000000.000000      4.827728000000000E-01     -9.265625000000000E+00      5.081482000000000E-01     -1.788516000000000E+02      5.509338000000000E-01      1.551819000000000E-01      2.485275000000000E-01      1.197656000000000E+02
4876000000.000000      4.853821000000000E-01     -8.807129000000000E+00      5.118103000000000E-01     -1.792734000000000E+02      5.514221000000000E-01      9.613037000000000E-03      2.544098000000000E-01      1.197148000000000E+02
4877000000.000000      4.856720000000000E-01     -8.832031000000000E+00      5.109863000000000E-01     -1.798047000000000E+02      5.513306000000000E-01     -5.081177000000000E-02      2.597656000000000E-01      1.203125000000000E+02
4878000000.000000      4.900055000000000E-01     -8.687500000000000E+00      5.136719000000000E-01      1.799375000000000E+02      5.519714000000000E-01     -9.201050000000000E-02      2.633820000000000E-01      1.203047000000000E+02
4879000000.000000      4.950256000000000E-01     -8.256348000000000E+00      5.115662000000000E-01      1.797812000000000E+02      5.498657000000000E-01     -1.647949000000000E-01      2.704773000000000E-01      1.208242000000000E+02
4880000000.000000      4.970856000000000E-01     -8.249512000000000E+00      5.149536000000000E-01      1.792656000000000E+02      5.502625000000000E-01     -1.908875000000000E-01      2.759094000000000E-01      1.210390000000000E+02
4881000000.000000      4.985657000000000E-01     -8.117676000000000E+00      5.146484000000000E-01      1.788828000000000E+02      5.493164000000000E-01     -3.213501000000000E-01      2.806244000000000E-01      1.212383000000000E+02
4882000000.000000      5.016174000000000E-01     -7.755127000000000E+00      5.173035000000000E-01      1.785547000000000E+02      5.495300000000000E-01     -2.636719000000000E-01      2.842712000000000E-01      1.215977000000000E+02
