! Network Analyzer HP8722D
! Hewlett-Packard
! Data name: Linha & Wilkinson
! Saver's name: Rodrigo Anjos
! Comments: Teste da utilização de aquisição
continua pelo VNA HP8722D
! Time and date: 8/5/2025 15:04
!              Frequency                     S11                                                   S21                                                   S12                                                   S22
# HZ  S  MA R 50
4800000000.000000      5.353699000000000E-01     -2.530176000000000E+01      3.646393000000000E-01     -1.489687000000000E+02      3.829651000000000E-01      1.038184000000000E+01      5.023804000000000E-01      1.458435000000000E+00
4801000000.000000      5.362549000000000E-01     -2.489258000000000E+01      3.684387000000000E-01     -1.491172000000000E+02      3.855743000000000E-01      1.034619000000000E+01      4.987335000000000E-01      1.363647000000000E+00
4802000000.000000      5.328064000000000E-01     -2.470703000000000E+01      3.724976000000000E-01     -1.495625000000000E+02      3.892517000000000E-01      1.015918000000000E+01      4.928894000000000E-01      1.819580000000000E+00
4803000000.000000      5.321655000000000E-01     -2.441797000000000E+01      3.772430000000000E-01     -1.498984000000000E+02      3.937683000000000E-01      1.027051000000000E+01      4.862213000000000E-01      1.668518000000000E+00
4804000000.000000      5.316467000000000E-01     -2.427343000000000E+01      3.806610000000000E-01     -1.502031000000000E+02      3.976135000000000E-01      1.006592000000000E+01      4.804230000000000E-01      1.783875000000000E+00
4805000000.000000      5.324707000000000E-01     -2.412402000000000E+01      3.845215000000000E-01     -1.506875000000000E+02      4.009094000000000E-01      9.825684000000000E+00      4.728699000000000E-01      1.789368000000000E+00
4806000000.000000      5.278320000000000E-01     -2.377051000000000E+01      3.880157000000000E-01     -1.510703000000000E+02      4.037476000000000E-01      9.762695000000000E+00      4.668121000000000E-01      1.812744000000000E+00
4807000000.000000      5.281372000000000E-01     -2.338379000000000E+01      3.920593000000000E-01     -1.516641000000000E+02      4.101410000000000E-01      9.273438000000000E+00      4.598236000000000E-01      2.091431000000000E+00
4808000000.000000      5.251770000000000E-01     -2.312402000000000E+01      3.961182000000000E-01     -1.518828000000000E+02      4.134369000000000E-01      9.053711000000000E+00      4.533539000000000E-01      2.183472000000000E+00
4809000000.000000      5.242310000000000E-01     -2.291699000000000E+01      3.998413000000000E-01     -1.525156000000000E+02      4.169769000000000E-01      9.137695000000000E+00      4.457550000000000E-01      2.421021000000000E+00
4810000000.000000      5.231323000000000E-01     -2.275293000000000E+01      4.041595000000000E-01     -1.526953000000000E+02      4.203186000000000E-01      8.993652000000000E+00      4.383240000000000E-01      2.379883000000000E+00
4811000000.000000      5.234070000000000E-01     -2.254199000000000E+01      4.077606000000000E-01     -1.533125000000000E+02      4.242401000000000E-01      9.104492000000000E+00      4.310303000000000E-01      2.780884000000000E+00
4812000000.000000      5.225830000000000E-01     -2.217090000000000E+01      4.108124000000000E-01     -1.537344000000000E+02      4.284210000000000E-01      8.789063000000000E+00      4.239044000000000E-01      2.706665000000000E+00
4813000000.000000      5.200195000000000E-01     -2.204297000000000E+01      4.143372000000000E-01     -1.541406000000000E+02      4.323578000000000E-01      8.715820000000000E+00      4.158173000000000E-01      3.199707000000000E+00
4814000000.000000      5.182495000000000E-01     -2.206055000000000E+01      4.182129000000000E-01     -1.545312000000000E+02      4.344788000000000E-01      8.339844000000000E+00      4.071503000000000E-01      3.247803000000000E+00
4815000000.000000      5.169678000000000E-01     -2.160254000000000E+01      4.209747000000000E-01     -1.551172000000000E+02      4.361115000000000E-01      8.466309000000000E+00      3.998413000000000E-01      3.522461000000000E+00
4816000000.000000      5.175781000000000E-01     -2.149512000000000E+01      4.248657000000000E-01     -1.554297000000000E+02      4.432220000000000E-01      8.400391000000000E+00      3.920441000000000E-01      3.775146000000000E+00
4817000000.000000      5.135193000000000E-01     -2.134961000000000E+01      4.271851000000000E-01     -1.558750000000000E+02      4.450989000000000E-01      8.086914000000000E+00      3.821106000000000E-01      4.147217000000000E+00
4818000000.000000      5.133057000000000E-01     -2.131348000000000E+01      4.300385000000000E-01     -1.564062000000000E+02      4.476929000000000E-01      7.985596000000000E+00      3.734894000000000E-01      4.463135000000000E+00
4819000000.000000      5.136108000000000E-01     -2.110644000000000E+01      4.335938000000000E-01     -1.568359000000000E+02      4.529572000000000E-01      7.759033000000000E+00      3.643036000000000E-01      4.513916000000000E+00
4820000000.000000      5.113831000000000E-01     -2.088183000000000E+01      4.372406000000000E-01     -1.571719000000000E+02      4.545746000000000E-01      7.634033000000000E+00      3.560486000000000E-01      5.120850000000000E+00
4821000000.000000      5.089111000000000E-01     -2.086035000000000E+01      4.403381000000000E-01     -1.577969000000000E+02      4.566498000000000E-01      7.491211000000000E+00      3.462830000000000E-01      5.594727000000000E+00
4822000000.000000      5.075378000000000E-01     -2.063183000000000E+01      4.413910000000000E-01     -1.581719000000000E+02      4.610443000000000E-01      7.346924000000000E+00      3.384399000000000E-01      5.817139000000000E+00
4823000000.000000      5.073853000000000E-01     -2.043945000000000E+01      4.452972000000000E-01     -1.587265000000000E+02      4.644775000000000E-01      7.171143000000000E+00      3.288269000000000E-01      6.212646000000000E+00
4824000000.000000      5.042114000000000E-01     -2.025781000000000E+01      4.479523000000000E-01     -1.591484000000000E+02      4.668427000000000E-01      6.827881000000000E+00      3.185120000000000E-01      6.675537000000000E+00
4825000000.000000      5.032654000000000E-01     -2.003516000000000E+01      4.496765000000000E-01     -1.595703000000000E+02      4.717255000000000E-01      6.928223000000000E+00      3.110046000000000E-01      7.250977000000000E+00
4826000000.000000      5.002441000000000E-01     -2.014551000000000E+01      4.526978000000000E-01     -1.601406000000000E+02      4.745789000000000E-01      6.742676000000000E+00      3.011780000000000E-01      7.873047000000000E+00
4827000000.000000      4.981995000000000E-01     -1.976758000000000E+01      4.550476000000000E-01     -1.603984000000000E+02      4.782562000000000E-01      6.572510000000000E+00      2.922974000000000E-01      8.527832000000000E+00
4828000000.000000      4.993591000000000E-01     -1.982812000000000E+01      4.579468000000000E-01     -1.609844000000000E+02      4.804688000000000E-01      6.476318000000000E+00      2.826538000000000E-01      8.993652000000000E+00
4829000000.000000      4.961243000000000E-01     -1.944336000000000E+01      4.608612000000000E-01     -1.615078000000000E+02      4.838257000000000E-01      6.354004000000000E+00      2.748108000000000E-01      1.001660000000000E+01
4830000000.000000      4.949646000000000E-01     -1.929492000000000E+01      4.624329000000000E-01     -1.619688000000000E+02      4.868469000000000E-01      6.163330000000000E+00      2.633514000000000E-01      1.097510000000000E+01
4831000000.000000      4.916077000000000E-01     -1.905176000000000E+01      4.642029000000000E-01     -1.624141000000000E+02      4.900055000000000E-01      6.152344000000000E+00      2.546539000000000E-01      1.181982000000000E+01
4832000000.000000      4.915314000000000E-01     -1.910058000000000E+01      4.660645000000000E-01     -1.628594000000000E+02      4.925995000000000E-01      5.873535000000000E+00      2.443008000000000E-01      1.303760000000000E+01
4833000000.000000      4.889984000000000E-01     -1.919238000000000E+01      4.679565000000000E-01     -1.632500000000000E+02      4.962006000000000E-01      5.709961000000000E+00      2.346039000000000E-01      1.412842000000000E+01
4834000000.000000      4.860687000000000E-01     -1.888769000000000E+01      4.700165000000000E-01     -1.637500000000000E+02      4.982605000000000E-01      5.454590000000000E+00      2.260208000000000E-01      1.551807000000000E+01
4835000000.000000      4.872437000000000E-01     -1.871289000000000E+01      4.718323000000000E-01     -1.642969000000000E+02      5.030518000000000E-01      5.429932000000000E+00      2.170792000000000E-01      1.672363000000000E+01
4836000000.000000      4.846344000000000E-01     -1.839160000000000E+01      4.724274000000000E-01     -1.645547000000000E+02      5.042114000000000E-01      5.456055000000000E+00      2.075806000000000E-01      1.850098000000000E+01
4837000000.000000      4.817963000000000E-01     -1.840918000000000E+01      4.739227000000000E-01     -1.652109000000000E+02      5.048828000000000E-01      5.204590000000000E+00      1.991119000000000E-01      2.034375000000000E+01
4838000000.000000      4.804840000000000E-01     -1.784375000000000E+01      4.772034000000000E-01     -1.654453000000000E+02      5.092163000000000E-01      4.847656000000000E+00      1.914063000000000E-01      2.220605000000000E+01
4839000000.000000      4.809570000000000E-01     -1.772558000000000E+01      4.782562000000000E-01     -1.659219000000000E+02      5.115051000000000E-01      4.739014000000000E+00      1.838837000000000E-01      2.392480000000000E+01
4840000000.000000      4.795227000000000E-01     -1.789063000000000E+01      4.801941000000000E-01     -1.663750000000000E+02      5.133667000000000E-01      4.534424000000000E+00      1.746902000000000E-01      2.611523000000000E+01
4841000000.000000      4.753265000000000E-01     -1.752539000000000E+01      4.815063000000000E-01     -1.668984000000000E+02      5.159302000000000E-01      4.461670000000000E+00      1.687088000000000E-01      2.913671000000000E+01
4842000000.000000      4.755249000000000E-01     -1.733789000000000E+01      4.821625000000000E-01     -1.671328000000000E+02      5.181274000000000E-01      4.498779000000000E+00      1.615448000000000E-01      3.198925000000000E+01
4843000000.000000      4.754791000000000E-01     -1.745508000000000E+01      4.847565000000000E-01     -1.677344000000000E+02      5.212402000000000E-01      4.335449000000000E+00      1.545563000000000E-01      3.500781000000000E+01
4844000000.000000      4.722443000000000E-01     -1.722852000000000E+01      4.844971000000000E-01     -1.681328000000000E+02      5.225830000000000E-01      3.911133000000000E+00      1.470108000000000E-01      3.875195000000000E+01
4845000000.000000      4.704742000000000E-01     -1.679883000000000E+01      4.856567000000000E-01     -1.684141000000000E+02      5.253906000000000E-01      3.729858000000000E+00      1.429596000000000E-01      4.191602000000000E+01
4846000000.000000      4.692841000000000E-01     -1.659082000000000E+01      4.874573000000000E-01     -1.689141000000000E+02      5.282593000000000E-01      3.683105000000000E+00      1.388779000000000E-01      4.613281000000000E+01
4847000000.000000      4.678802000000000E-01     -1.640332000000000E+01      4.886932000000000E-01     -1.691250000000000E+02      5.320740000000000E-01      3.532104000000000E+00      1.343460000000000E-01      5.018164000000000E+01
4848000000.000000      4.669342000000000E-01     -1.606250000000000E+01      4.879456000000000E-01     -1.695313000000000E+02      5.316162000000000E-01      3.264282000000000E+00      1.319275000000000E-01      5.452734000000000E+01
4849000000.000000      4.640503000000000E-01     -1.584375000000000E+01      4.900513000000000E-01     -1.700234000000000E+02      5.330505000000000E-01      3.025269000000000E+00      1.297913000000000E-01      5.895117000000000E+01
4850000000.000000      4.648285000000000E-01     -1.557617000000000E+01      4.906158000000000E-01     -1.703750000000000E+02      5.352783000000000E-01      2.966309000000000E+00      1.290359000000000E-01      6.383007000000000E+01
4851000000.000000      4.631500000000000E-01     -1.544678000000000E+01      4.926453000000000E-01     -1.708359000000000E+02      5.373230000000000E-01      2.791870000000000E+00      1.290512000000000E-01      6.797656000000000E+01
4852000000.000000      4.634552000000000E-01     -1.509814000000000E+01      4.937134000000000E-01     -1.711719000000000E+02      5.401306000000000E-01      2.644897000000000E+00      1.301727000000000E-01      7.235156000000000E+01
4853000000.000000      4.622650000000000E-01     -1.498828000000000E+01      4.929810000000000E-01     -1.714375000000000E+02      5.410767000000000E-01      2.566650000000000E+00      1.310806000000000E-01      7.672656000000000E+01
4854000000.000000      4.625397000000000E-01     -1.459131000000000E+01      4.941559000000000E-01     -1.719063000000000E+02      5.418701000000000E-01      2.397705000000000E+00      1.349640000000000E-01      8.070704000000000E+01
4855000000.000000      4.606628000000000E-01     -1.437305000000000E+01      4.957733000000000E-01     -1.723750000000000E+02      5.429077000000000E-01      2.035156000000000E+00      1.374283000000000E-01      8.487890000000000E+01
4856000000.000000      4.595795000000000E-01     -1.393213000000000E+01      4.963684000000000E-01     -1.727187000000000E+02      5.450134000000000E-01      1.969299000000000E+00      1.420135000000000E-01      8.866405000000000E+01
4857000000.000000      4.608154000000000E-01     -1.382666000000000E+01      4.979095000000000E-01     -1.729844000000000E+02      5.465698000000000E-01      1.862183000000000E+00      1.457520000000000E-01      9.193359000000000E+01
4858000000.000000      4.611053000000000E-01     -1.327881000000000E+01      4.985657000000000E-01     -1.733203000000000E+02      5.467224000000000E-01      1.649292000000000E+00      1.507416000000000E-01      9.467577000000000E+01
4859000000.000000      4.617920000000000E-01     -1.330859000000000E+01      4.999695000000000E-01     -1.737969000000000E+02      5.484314000000000E-01      1.558655000000000E+00      1.555786000000000E-01      9.771093000000000E+01
4860000000.000000      4.606476000000000E-01     -1.295020000000000E+01      5.002441000000000E-01     -1.738906000000000E+02      5.485535000000000E-01      1.358154000000000E+00      1.625061000000000E-01      1.005547000000000E+02
4861000000.000000      4.595642000000000E-01     -1.264941000000000E+01      5.005798000000000E-01     -1.744844000000000E+02      5.494995000000000E-01      1.113708000000000E+00      1.670685000000000E-01      1.030469000000000E+02
4862000000.000000      4.608612000000000E-01     -1.230225000000000E+01      5.018311000000000E-01     -1.746797000000000E+02      5.505676000000000E-01      1.112366000000000E+00      1.729126000000000E-01      1.047109000000000E+02
4863000000.000000      4.618988000000000E-01     -1.190527000000000E+01      5.024109000000000E-01     -1.751797000000000E+02      5.517578000000000E-01      1.054688000000000E+00      1.818161000000000E-01      1.062070000000000E+02
4864000000.000000      4.635010000000000E-01     -1.181348000000000E+01      5.035400000000000E-01     -1.754141000000000E+02      5.507813000000000E-01      8.953857000000000E-01      1.870575000000000E-01      1.078398000000000E+02
4865000000.000000      4.646912000000000E-01     -1.173633000000000E+01      5.028076000000000E-01     -1.756641000000000E+02      5.530701000000000E-01      7.937622000000000E-01      1.930923000000000E-01      1.097031000000000E+02
4866000000.000000      4.660797000000000E-01     -1.115820000000000E+01      5.032349000000000E-01     -1.761719000000000E+02      5.521851000000000E-01      4.998779000000000E-01      1.998596000000000E-01      1.111133000000000E+02
4867000000.000000      4.647369000000000E-01     -1.077637000000000E+01      5.036011000000000E-01     -1.764062000000000E+02      5.519104000000000E-01      3.831482000000000E-01      2.054749000000000E-01      1.120273000000000E+02
4868000000.000000      4.682770000000000E-01     -1.068604000000000E+01      5.073547000000000E-01     -1.767187000000000E+02      5.529785000000000E-01      2.622986000000000E-01      2.132492000000000E-01      1.129102000000000E+02
4869000000.000000      4.690094000000000E-01     -1.045801000000000E+01      5.077209000000000E-01     -1.773047000000000E+02      5.527649000000000E-01      1.647949000000000E-01      2.179871000000000E-01      1.146719000000000E+02
4870000000.000000      4.701538000000000E-01     -1.005273000000000E+01      5.086670000000000E-01     -1.772891000000000E+02      5.527039000000000E-01      4.119873000000000E-02      2.255325000000000E-01      1.149180000000000E+02
4871000000.000000      4.721985000000000E-01     -1.008447000000000E+01      5.071716000000000E-01     -1.779922000000000E+02      5.528870000000000E-01      8.239746000000000E-02      2.309265000000000E-01      1.157265000000000E+02
4872000000.000000      4.755707000000000E-01     -9.589844000000000E+00      5.096741000000000E-01     -1.780078000000000E+02      5.528564000000000E-01     -2.664185000000000E-01      2.376022000000000E-01      1.166680000000000E+02
4873000000.000000      4.762573000000000E-01     -9.464844000000000E+00      5.083923000000000E-01     -1.785078000000000E+02      5.526123000000000E-01     -2.114868000000000E-01      2.436218000000000E-01      1.172266000000000E+02
4874000000.000000      4.802704000000000E-01     -9.172363000000000E+00      5.086975000000000E-01     -1.791094000000000E+02      5.540771000000000E-01     -3.433228000000000E-01      2.473373000000000E-01      1.176914000000000E+02
4875000000.000000      4.809113000000000E-01     -8.955566000000000E+00      5.111389000000000E-01     -1.792500000000000E+02      5.516968000000000E-01     -2.691650000000000E-01      2.531586000000000E-01      1.183906000000000E+02
4876000000.000000      4.841309000000000E-01     -8.634277000000000E+00      5.122681000000000E-01     -1.796719000000000E+02      5.526733000000000E-01     -4.463196000000000E-01      2.609253000000000E-01      1.190234000000000E+02
4877000000.000000      4.885559000000000E-01     -8.532715000000000E+00      5.133667000000000E-01      1.798516000000000E+02      5.517273000000000E-01     -6.784058000000000E-01      2.650909000000000E-01      1.190664000000000E+02
4878000000.000000      4.904022000000000E-01     -8.423828000000000E+00      5.137024000000000E-01      1.795156000000000E+02      5.508118000000000E-01     -5.520630000000000E-01      2.718353000000000E-01      1.191445000000000E+02
4879000000.000000      4.923096000000000E-01     -8.259277000000000E+00      5.140686000000000E-01      1.792422000000000E+02      5.513611000000000E-01     -7.388306000000000E-01      2.751923000000000E-01      1.199219000000000E+02
4880000000.000000      4.966278000000000E-01     -8.197266000000000E+00      5.154419000000000E-01      1.788359000000000E+02      5.516663000000000E-01     -6.784058000000000E-01      2.793579000000000E-01      1.198555000000000E+02
4881000000.000000      4.995270000000000E-01     -7.969238000000000E+00      5.157471000000000E-01      1.784062000000000E+02      5.505371000000000E-01     -6.317139000000000E-01      2.844696000000000E-01      1.202031000000000E+02
4882000000.000000      5.013123000000000E-01     -7.924072000000000E+00      5.173035000000000E-01      1.781797000000000E+02      5.511475000000000E-01     -5.960083000000000E-01      2.889404000000000E-01      1.204531000000000E+02
