! Network Analyzer HP8722D
! Hewlett-Packard
! Data name: Linha & Wilkinson
! Saver's name: Rodrigo Anjos
! Comments: Teste da utilização de aquisição
continua pelo VNA HP8722D
! Time and date: 8/5/2025 14:55
!              Frequency                     S11                                                   S21                                                   S12                                                   S22
# HZ  S  MA R 50
4800000000.000000      5.323486000000000E-01     -2.511914000000000E+01      3.684540000000000E-01     -1.496250000000000E+02      3.885345000000000E-01      9.707520000000000E+00      5.000610000000000E-01      1.293640000000000E+00
4801000000.000000      5.317993000000000E-01     -2.472656000000000E+01      3.728333000000000E-01     -1.499766000000000E+02      3.901672000000000E-01      9.474121000000000E+00      4.959106000000000E-01      1.110962000000000E+00
4802000000.000000      5.308228000000000E-01     -2.454980000000000E+01      3.761292000000000E-01     -1.503281000000000E+02      3.929749000000000E-01      9.440918000000000E+00      4.909210000000000E-01      1.539429000000000E+00
4803000000.000000      5.294800000000000E-01     -2.443554000000000E+01      3.815613000000000E-01     -1.506797000000000E+02      3.975525000000000E-01      9.235352000000000E+00      4.853516000000000E-01      1.516113000000000E+00
4804000000.000000      5.276489000000000E-01     -2.404004000000000E+01      3.851166000000000E-01     -1.510156000000000E+02      4.023743000000000E-01      9.302246000000000E+00      4.783783000000000E-01      1.720703000000000E+00
4805000000.000000      5.288086000000000E-01     -2.392188000000000E+01      3.890228000000000E-01     -1.515469000000000E+02      4.055939000000000E-01      8.912598000000000E+00      4.715576000000000E-01      1.483154000000000E+00
4806000000.000000      5.252075000000000E-01     -2.361719000000000E+01      3.924713000000000E-01     -1.518594000000000E+02      4.085541000000000E-01      9.029297000000000E+00      4.639130000000000E-01      1.672668000000000E+00
4807000000.000000      5.234985000000000E-01     -2.306347000000000E+01      3.963776000000000E-01     -1.524375000000000E+02      4.129333000000000E-01      8.576172000000000E+00      4.570770000000000E-01      1.934937000000000E+00
4808000000.000000      5.213318000000000E-01     -2.310742000000000E+01      3.993530000000000E-01     -1.527109000000000E+02      4.166412000000000E-01      8.461914000000000E+00      4.509583000000000E-01      2.105225000000000E+00
4809000000.000000      5.234375000000000E-01     -2.267090000000000E+01      4.039764000000000E-01     -1.532812000000000E+02      4.213104000000000E-01      8.333008000000000E+00      4.426575000000000E-01      2.384033000000000E+00
4810000000.000000      5.197754000000000E-01     -2.266699000000000E+01      4.078979000000000E-01     -1.535781000000000E+02      4.237823000000000E-01      8.139160000000000E+00      4.359741000000000E-01      2.349609000000000E+00
4811000000.000000      5.196533000000000E-01     -2.252246000000000E+01      4.116211000000000E-01     -1.541172000000000E+02      4.287567000000000E-01      8.311035000000000E+00      4.280548000000000E-01      2.779541000000000E+00
4812000000.000000      5.187378000000000E-01     -2.207715000000000E+01      4.146118000000000E-01     -1.545391000000000E+02      4.317017000000000E-01      7.903076000000000E+00      4.201355000000000E-01      2.765747000000000E+00
4813000000.000000      5.193176000000000E-01     -2.174219000000000E+01      4.184723000000000E-01     -1.549609000000000E+02      4.355927000000000E-01      8.020996000000000E+00      4.133453000000000E-01      3.154419000000000E+00
4814000000.000000      5.153198000000000E-01     -2.181152000000000E+01      4.219360000000000E-01     -1.553828000000000E+02      4.398651000000000E-01      7.782227000000000E+00      4.040833000000000E-01      3.331543000000000E+00
4815000000.000000      5.134583000000000E-01     -2.165039000000000E+01      4.245148000000000E-01     -1.558203000000000E+02      4.407349000000000E-01      7.606445000000000E+00      3.968811000000000E-01      3.618530000000000E+00
4816000000.000000      5.149536000000000E-01     -2.134180000000000E+01      4.286804000000000E-01     -1.562500000000000E+02      4.481659000000000E-01      7.535156000000000E+00      3.894043000000000E-01      3.845215000000000E+00
4817000000.000000      5.126038000000000E-01     -2.114356000000000E+01      4.311829000000000E-01     -1.566719000000000E+02      4.489288000000000E-01      7.125977000000000E+00      3.785706000000000E-01      4.306641000000000E+00
4818000000.000000      5.097656000000000E-01     -2.092383000000000E+01      4.342194000000000E-01     -1.572578000000000E+02      4.533081000000000E-01      7.174072000000000E+00      3.703766000000000E-01      4.551025000000000E+00
4819000000.000000      5.087585000000000E-01     -2.084863000000000E+01      4.372406000000000E-01     -1.576719000000000E+02      4.566650000000000E-01      7.109375000000000E+00      3.610229000000000E-01      4.746094000000000E+00
4820000000.000000      5.082092000000000E-01     -2.069726000000000E+01      4.402313000000000E-01     -1.580391000000000E+02      4.603882000000000E-01      6.713867000000000E+00      3.528290000000000E-01      5.289795000000000E+00
4821000000.000000      5.062866000000000E-01     -2.053223000000000E+01      4.436493000000000E-01     -1.586797000000000E+02      4.629669000000000E-01      6.859375000000000E+00      3.433380000000000E-01      5.825439000000000E+00
4822000000.000000      5.025635000000000E-01     -2.046777000000000E+01      4.448395000000000E-01     -1.590312000000000E+02      4.655304000000000E-01      6.514893000000000E+00      3.352814000000000E-01      6.049316000000000E+00
4823000000.000000      5.037842000000000E-01     -2.041406000000000E+01      4.483185000000000E-01     -1.595078000000000E+02      4.693146000000000E-01      6.424072000000000E+00      3.252411000000000E-01      6.587646000000000E+00
4824000000.000000      5.010376000000000E-01     -2.004687000000000E+01      4.505920000000000E-01     -1.600156000000000E+02      4.717560000000000E-01      6.280029000000000E+00      3.156891000000000E-01      7.028320000000000E+00
4825000000.000000      5.001526000000000E-01     -1.984570000000000E+01      4.529724000000000E-01     -1.603984000000000E+02      4.755096000000000E-01      6.122070000000000E+00      3.079681000000000E-01      7.601074000000000E+00
4826000000.000000      4.967499000000000E-01     -1.998828000000000E+01      4.563904000000000E-01     -1.610469000000000E+02      4.783783000000000E-01      5.821289000000000E+00      2.979431000000000E-01      8.284668000000000E+00
4827000000.000000      4.963379000000000E-01     -1.981934000000000E+01      4.580841000000000E-01     -1.612813000000000E+02      4.798889000000000E-01      5.836426000000000E+00      2.897949000000000E-01      9.002930000000000E+00
4828000000.000000      4.940186000000000E-01     -1.953320000000000E+01      4.611969000000000E-01     -1.617812000000000E+02      4.849396000000000E-01      5.484863000000000E+00      2.799225000000000E-01      9.542969000000000E+00
4829000000.000000      4.932556000000000E-01     -1.936133000000000E+01      4.631805000000000E-01     -1.622031000000000E+02      4.885406000000000E-01      5.534180000000000E+00      2.719269000000000E-01      1.068652000000000E+01
4830000000.000000      4.922028000000000E-01     -1.929492000000000E+01      4.649963000000000E-01     -1.627656000000000E+02      4.899902000000000E-01      5.277344000000000E+00      2.608795000000000E-01      1.160254000000000E+01
4831000000.000000      4.916229000000000E-01     -1.918945000000000E+01      4.667511000000000E-01     -1.632734000000000E+02      4.935760000000000E-01      5.157959000000000E+00      2.517700000000000E-01      1.250928000000000E+01
4832000000.000000      4.882050000000000E-01     -1.886133000000000E+01      4.688721000000000E-01     -1.636016000000000E+02      4.960785000000000E-01      5.152588000000000E+00      2.413177000000000E-01      1.400732000000000E+01
4833000000.000000      4.860992000000000E-01     -1.882324000000000E+01      4.707947000000000E-01     -1.640078000000000E+02      4.999084000000000E-01      4.758301000000000E+00      2.320938000000000E-01      1.501660000000000E+01
4834000000.000000      4.841003000000000E-01     -1.881055000000000E+01      4.724579000000000E-01     -1.646172000000000E+02      5.036926000000000E-01      4.695068000000000E+00      2.240524000000000E-01      1.646387000000000E+01
4835000000.000000      4.830322000000000E-01     -1.860352000000000E+01      4.752808000000000E-01     -1.650703000000000E+02      5.043945000000000E-01      4.522217000000000E+00      2.154007000000000E-01      1.787402000000000E+01
4836000000.000000      4.833832000000000E-01     -1.818945000000000E+01      4.756927000000000E-01     -1.653750000000000E+02      5.072632000000000E-01      4.574219000000000E+00      2.058105000000000E-01      1.967187000000000E+01
4837000000.000000      4.795532000000000E-01     -1.809668000000000E+01      4.769440000000000E-01     -1.661016000000000E+02      5.093689000000000E-01      4.302490000000000E+00      1.982117000000000E-01      2.161231000000000E+01
4838000000.000000      4.789276000000000E-01     -1.809766000000000E+01      4.798889000000000E-01     -1.661797000000000E+02      5.127563000000000E-01      4.147217000000000E+00      1.899490000000000E-01      2.352441000000000E+01
4839000000.000000      4.800568000000000E-01     -1.752734000000000E+01      4.810181000000000E-01     -1.666016000000000E+02      5.139465000000000E-01      4.094971000000000E+00      1.832809000000000E-01      2.554296000000000E+01
4840000000.000000      4.776917000000000E-01     -1.783105000000000E+01      4.832458000000000E-01     -1.671641000000000E+02      5.183411000000000E-01      3.753174000000000E+00      1.745377000000000E-01      2.784961000000000E+01
4841000000.000000      4.714203000000000E-01     -1.737695000000000E+01      4.846191000000000E-01     -1.676250000000000E+02      5.205688000000000E-01      3.596558000000000E+00      1.685181000000000E-01      3.079980000000000E+01
4842000000.000000      4.744568000000000E-01     -1.730273000000000E+01      4.846802000000000E-01     -1.679609000000000E+02      5.216980000000000E-01      3.554077000000000E+00      1.625366000000000E-01      3.384180000000000E+01
4843000000.000000      4.724579000000000E-01     -1.710254000000000E+01      4.863434000000000E-01     -1.685390000000000E+02      5.246582000000000E-01      3.304077000000000E+00      1.555405000000000E-01      3.721875000000000E+01
4844000000.000000      4.683380000000000E-01     -1.719434000000000E+01      4.866638000000000E-01     -1.688984000000000E+02      5.254822000000000E-01      3.158569000000000E+00      1.488037000000000E-01      4.049414000000000E+01
4845000000.000000      4.678345000000000E-01     -1.662012000000000E+01      4.882660000000000E-01     -1.692422000000000E+02      5.283203000000000E-01      2.893433000000000E+00      1.446609000000000E-01      4.410156000000000E+01
4846000000.000000      4.677429000000000E-01     -1.646582000000000E+01      4.896393000000000E-01     -1.696406000000000E+02      5.313721000000000E-01      2.785034000000000E+00      1.409683000000000E-01      4.811132000000000E+01
4847000000.000000      4.651642000000000E-01     -1.606348000000000E+01      4.908447000000000E-01     -1.699687000000000E+02      5.330505000000000E-01      2.673706000000000E+00      1.364059000000000E-01      5.229882000000000E+01
4848000000.000000      4.641113000000000E-01     -1.609277000000000E+01      4.902954000000000E-01     -1.702969000000000E+02      5.370789000000000E-01      2.337280000000000E+00      1.349716000000000E-01      5.687890000000000E+01
4849000000.000000      4.645691000000000E-01     -1.579053000000000E+01      4.933929000000000E-01     -1.707891000000000E+02      5.375977000000000E-01      2.260376000000000E+00      1.331558000000000E-01      6.092382000000000E+01
4850000000.000000      4.611969000000000E-01     -1.562988000000000E+01      4.927216000000000E-01     -1.710938000000000E+02      5.383606000000000E-01      2.101074000000000E+00      1.343765000000000E-01      6.530078000000000E+01
4851000000.000000      4.622650000000000E-01     -1.511865000000000E+01      4.950256000000000E-01     -1.716016000000000E+02      5.405579000000000E-01      2.057129000000000E+00      1.341934000000000E-01      6.987109000000000E+01
4852000000.000000      4.604797000000000E-01     -1.494287000000000E+01      4.951477000000000E-01     -1.718984000000000E+02      5.422363000000000E-01      1.827820000000000E+00      1.356049000000000E-01      7.335155000000000E+01
4853000000.000000      4.604340000000000E-01     -1.484424000000000E+01      4.945526000000000E-01     -1.721875000000000E+02      5.430603000000000E-01      1.597107000000000E+00      1.372528000000000E-01      7.777734000000000E+01
4854000000.000000      4.594727000000000E-01     -1.436084000000000E+01      4.959564000000000E-01     -1.726797000000000E+02      5.448303000000000E-01      1.511963000000000E+00      1.406174000000000E-01      8.156250000000000E+01
4855000000.000000      4.584961000000000E-01     -1.425635000000000E+01      4.968262000000000E-01     -1.730625000000000E+02      5.465698000000000E-01      1.157654000000000E+00      1.440353000000000E-01      8.548828000000000E+01
4856000000.000000      4.586334000000000E-01     -1.398584000000000E+01      4.977264000000000E-01     -1.733672000000000E+02      5.483093000000000E-01      1.201599000000000E+00      1.493149000000000E-01      8.876953000000000E+01
4857000000.000000      4.600983000000000E-01     -1.353955000000000E+01      5.001831000000000E-01     -1.736406000000000E+02      5.488892000000000E-01      9.461975000000000E-01      1.525803000000000E-01      9.219921000000000E+01
4858000000.000000      4.591370000000000E-01     -1.354492000000000E+01      5.000916000000000E-01     -1.740625000000000E+02      5.509338000000000E-01      7.498169000000000E-01      1.575394000000000E-01      9.489061000000000E+01
4859000000.000000      4.580383000000000E-01     -1.326074000000000E+01      5.012207000000000E-01     -1.744688000000000E+02      5.491638000000000E-01      7.072449000000000E-01      1.628952000000000E-01      9.736717000000000E+01
4860000000.000000      4.582520000000000E-01     -1.277441000000000E+01      5.012817000000000E-01     -1.746094000000000E+02      5.500183000000000E-01      4.490662000000000E-01      1.692047000000000E-01      9.979687000000000E+01
4861000000.000000      4.598083000000000E-01     -1.256738000000000E+01      5.012512000000000E-01     -1.751953000000000E+02      5.524292000000000E-01      2.856445000000000E-01      1.752777000000000E-01      1.024180000000000E+02
4862000000.000000      4.589691000000000E-01     -1.230615000000000E+01      5.033264000000000E-01     -1.754609000000000E+02      5.539856000000000E-01      1.414490000000000E-01      1.793518000000000E-01      1.038515000000000E+02
4863000000.000000      4.602203000000000E-01     -1.201660000000000E+01      5.040894000000000E-01     -1.758125000000000E+02      5.527954000000000E-01      5.355835000000000E-02      1.858444000000000E-01      1.053398000000000E+02
4864000000.000000      4.624329000000000E-01     -1.184912000000000E+01      5.048828000000000E-01     -1.761406000000000E+02      5.536499000000000E-01      2.197266000000000E-02      1.937256000000000E-01      1.072266000000000E+02
4865000000.000000      4.621582000000000E-01     -1.178320000000000E+01      5.051880000000000E-01     -1.763828000000000E+02      5.545349000000000E-01     -1.455688000000000E-01      1.995316000000000E-01      1.086367000000000E+02
4866000000.000000      4.635773000000000E-01     -1.101270000000000E+01      5.052795000000000E-01     -1.766953000000000E+02      5.556641000000000E-01     -3.941345000000000E-01      2.057190000000000E-01      1.099570000000000E+02
4867000000.000000      4.657898000000000E-01     -1.114160000000000E+01      5.069580000000000E-01     -1.772266000000000E+02      5.541382000000000E-01     -3.350830000000000E-01      2.124176000000000E-01      1.107656000000000E+02
4868000000.000000      4.677887000000000E-01     -1.057178000000000E+01      5.072937000000000E-01     -1.775469000000000E+02      5.543213000000000E-01     -5.012512000000000E-01      2.176666000000000E-01      1.123438000000000E+02
4869000000.000000      4.685516000000000E-01     -1.047168000000000E+01      5.074768000000000E-01     -1.780547000000000E+02      5.553589000000000E-01     -4.820251000000000E-01      2.254715000000000E-01      1.128555000000000E+02
4870000000.000000      4.708710000000000E-01     -1.025732000000000E+01      5.095825000000000E-01     -1.779766000000000E+02      5.551453000000000E-01     -6.550598000000000E-01      2.313080000000000E-01      1.142305000000000E+02
4871000000.000000      4.710999000000000E-01     -9.852051000000000E+00      5.098267000000000E-01     -1.786797000000000E+02      5.547791000000000E-01     -8.514404000000000E-01      2.381744000000000E-01      1.144648000000000E+02
4872000000.000000      4.755402000000000E-01     -9.576172000000000E+00      5.115662000000000E-01     -1.789297000000000E+02      5.534973000000000E-01     -1.093140000000000E+00      2.437363000000000E-01      1.151953000000000E+02
4873000000.000000      4.749908000000000E-01     -9.385254000000000E+00      5.113220000000000E-01     -1.793594000000000E+02      5.533752000000000E-01     -1.003906000000000E+00      2.481689000000000E-01      1.159258000000000E+02
4874000000.000000      4.790497000000000E-01     -9.192871000000000E+00      5.120239000000000E-01     -1.795312000000000E+02      5.556641000000000E-01     -1.252441000000000E+00      2.541046000000000E-01      1.161601000000000E+02
4875000000.000000      4.806519000000000E-01     -9.092773000000000E+00      5.136719000000000E-01     -1.800000000000000E+02      5.541382000000000E-01     -1.211243000000000E+00      2.580719000000000E-01      1.169883000000000E+02
4876000000.000000      4.844971000000000E-01     -8.785156000000000E+00      5.149536000000000E-01      1.795547000000000E+02      5.556641000000000E-01     -1.189270000000000E+00      2.648315000000000E-01      1.173008000000000E+02
4877000000.000000      4.852905000000000E-01     -8.851074000000000E+00      5.139465000000000E-01      1.791719000000000E+02      5.540466000000000E-01     -1.366455000000000E+00      2.691193000000000E-01      1.177226000000000E+02
4878000000.000000      4.875641000000000E-01     -8.465332000000000E+00      5.151672000000000E-01      1.790313000000000E+02      5.533752000000000E-01     -1.430969000000000E+00      2.751160000000000E-01      1.179140000000000E+02
4879000000.000000      4.933014000000000E-01     -8.281250000000000E+00      5.143433000000000E-01      1.787578000000000E+02      5.542603000000000E-01     -1.311523000000000E+00      2.796631000000000E-01      1.185547000000000E+02
4880000000.000000      4.961243000000000E-01     -8.147949000000000E+00      5.159912000000000E-01      1.778984000000000E+02      5.533447000000000E-01     -1.503784000000000E+00      2.834320000000000E-01      1.184961000000000E+02
4881000000.000000      4.976654000000000E-01     -8.191895000000000E+00      5.172424000000000E-01      1.778672000000000E+02      5.512695000000000E-01     -1.521606000000000E+00      2.895355000000000E-01      1.188203000000000E+02
4882000000.000000      5.021362000000000E-01     -7.935059000000000E+00      5.187988000000000E-01      1.771719000000000E+02      5.523682000000000E-01     -1.521606000000000E+00      2.936554000000000E-01      1.193164000000000E+02
