! Network Analyzer HP8722D
! Hewlett-Packard
! Data name: Linha & Wilkinson
! Saver's name: Rodrigo Anjos
! Comments: Teste da utilização de aquisição
continua pelo VNA HP8722D
! Time and date: 8/5/2025 15:25
!              Frequency                     S11                                                   S21                                                   S12                                                   S22
# HZ  S  MA R 50
4800000000.000000      8.719177000000000E-01      8.841797000000000E+01      1.354446000000000E-01     -2.621777000000000E+01      1.258698000000000E-01      1.012344000000000E+02      2.404175000000000E-01      6.354101000000000E+01
4801000000.000000      8.745422000000000E-01      8.864843000000000E+01      1.330872000000000E-01     -2.474414000000000E+01      1.237640000000000E-01      1.021875000000000E+02      2.458878000000000E-01      6.305273000000000E+01
4802000000.000000      8.777771000000000E-01      8.903124000000000E+01      1.302032000000000E-01     -2.346582000000000E+01      1.217880000000000E-01      1.033164000000000E+02      2.519379000000000E-01      6.291992000000000E+01
4803000000.000000      8.804932000000000E-01      8.920702000000000E+01      1.285858000000000E-01     -2.202148000000000E+01      1.195259000000000E-01      1.046133000000000E+02      2.552185000000000E-01      6.235546000000000E+01
4804000000.000000      8.819275000000000E-01      8.958984000000000E+01      1.261444000000000E-01     -2.051758000000000E+01      1.177940000000000E-01      1.058008000000000E+02      2.581482000000000E-01      6.235156000000000E+01
4805000000.000000      8.864441000000000E-01      8.963282000000000E+01      1.244812000000000E-01     -1.895605000000000E+01      1.159782000000000E-01      1.072383000000000E+02      2.629547000000000E-01      6.196875000000000E+01
4806000000.000000      8.883057000000000E-01      9.003906000000000E+01      1.227379000000000E-01     -1.761328000000000E+01      1.142960000000000E-01      1.086758000000000E+02      2.648163000000000E-01      6.161718000000000E+01
4807000000.000000      8.932190000000000E-01      9.018358000000000E+01      1.214676000000000E-01     -1.570801000000000E+01      1.133041000000000E-01      1.099961000000000E+02      2.696991000000000E-01      6.115234000000000E+01
4808000000.000000      8.930054000000000E-01      9.058203000000000E+01      1.202888000000000E-01     -1.397070000000000E+01      1.120529000000000E-01      1.116016000000000E+02      2.721252000000000E-01      6.037109000000000E+01
4809000000.000000      8.950500000000000E-01      9.104687000000000E+01      1.187477000000000E-01     -1.275146000000000E+01      1.116104000000000E-01      1.129180000000000E+02      2.763824000000000E-01      6.047656000000000E+01
4810000000.000000      8.981323000000000E-01      9.112499000000000E+01      1.182365000000000E-01     -1.066113000000000E+01      1.105003000000000E-01      1.146211000000000E+02      2.789612000000000E-01      5.965234000000000E+01
4811000000.000000      8.986511000000000E-01      9.151953000000000E+01      1.179314000000000E-01     -8.871582000000000E+00      1.105194000000000E-01      1.161992000000000E+02      2.825470000000000E-01      5.929101000000000E+01
4812000000.000000      9.013367000000000E-01      9.182812000000000E+01      1.174965000000000E-01     -7.198975000000000E+00      1.101990000000000E-01      1.177617000000000E+02      2.838745000000000E-01      5.860352000000000E+01
4813000000.000000      9.027100000000000E-01      9.215235000000000E+01      1.172180000000000E-01     -5.285889000000000E+00      1.100578000000000E-01      1.193476000000000E+02      2.901306000000000E-01      5.819140000000000E+01
4814000000.000000      9.035034000000000E-01      9.253906000000000E+01      1.171532000000000E-01     -3.434692000000000E+00      1.100006000000000E-01      1.210976000000000E+02      2.897339000000000E-01      5.802539000000000E+01
4815000000.000000      9.040527000000000E-01      9.271093000000000E+01      1.175804000000000E-01     -1.977539000000000E+00      1.105423000000000E-01      1.226563000000000E+02      2.929230000000000E-01      5.693359000000000E+01
4816000000.000000      9.070435000000000E-01      9.298828000000000E+01      1.183891000000000E-01     -1.222229000000000E-01      1.111794000000000E-01      1.242617000000000E+02      2.968292000000000E-01      5.672070000000000E+01
4817000000.000000      9.074097000000000E-01      9.338282000000000E+01      1.190948000000000E-01      1.654785000000000E+00      1.115417000000000E-01      1.257187000000000E+02      2.960663000000000E-01      5.631445000000000E+01
4818000000.000000      9.082947000000000E-01      9.354296000000000E+01      1.196861000000000E-01      3.104980000000000E+00      1.122704000000000E-01      1.272578000000000E+02      2.989502000000000E-01      5.556445000000000E+01
4819000000.000000      9.077759000000000E-01      9.386719000000000E+01      1.210899000000000E-01      4.676025000000000E+00      1.130753000000000E-01      1.288516000000000E+02      3.003387000000000E-01      5.507030000000000E+01
4820000000.000000      9.027405000000000E-01      9.428514000000000E+01      1.220131000000000E-01      6.489990000000000E+00      1.145973000000000E-01      1.302656000000000E+02      3.024139000000000E-01      5.445507000000000E+01
4821000000.000000      9.080505000000000E-01      9.447657000000000E+01      1.237907000000000E-01      7.896240000000000E+00      1.158867000000000E-01      1.315859000000000E+02      3.052368000000000E-01      5.394921000000000E+01
4822000000.000000      9.071045000000000E-01      9.455469000000000E+01      1.250916000000000E-01      9.126465000000000E+00      1.170731000000000E-01      1.327500000000000E+02      3.058777000000000E-01      5.304101000000000E+01
4823000000.000000      9.075623000000000E-01      9.486719000000000E+01      1.271210000000000E-01      1.053564000000000E+01      1.184196000000000E-01      1.342500000000000E+02      3.070221000000000E-01      5.255859000000000E+01
4824000000.000000      9.070435000000000E-01      9.517969000000000E+01      1.292572000000000E-01      1.190088000000000E+01      1.201935000000000E-01      1.353906000000000E+02      3.076324000000000E-01      5.180273000000000E+01
4825000000.000000      9.066162000000000E-01      9.533203000000000E+01      1.310501000000000E-01      1.311328000000000E+01      1.227188000000000E-01      1.365625000000000E+02      3.087769000000000E-01      5.111133000000000E+01
4826000000.000000      9.057007000000000E-01      9.570313000000000E+01      1.331329000000000E-01      1.425732000000000E+01      1.240349000000000E-01      1.376562000000000E+02      3.096313000000000E-01      5.070313000000000E+01
4827000000.000000      9.051514000000000E-01      9.601952000000000E+01      1.351547000000000E-01      1.531055000000000E+01      1.259918000000000E-01      1.387734000000000E+02      3.107452000000000E-01      4.998828000000000E+01
4828000000.000000      9.042969000000000E-01      9.617188000000000E+01      1.376190000000000E-01      1.647070000000000E+01      1.280518000000000E-01      1.396719000000000E+02      3.122864000000000E-01      4.908789000000000E+01
4829000000.000000      9.012146000000000E-01      9.653906000000000E+01      1.402283000000000E-01      1.756836000000000E+01      1.308670000000000E-01      1.407578000000000E+02      3.124084000000000E-01      4.868554000000000E+01
4830000000.000000      9.012146000000000E-01      9.677734000000000E+01      1.428452000000000E-01      1.839160000000000E+01      1.328735000000000E-01      1.416953000000000E+02      3.122711000000000E-01      4.829687000000000E+01
4831000000.000000      8.960266000000000E-01      9.708984000000000E+01      1.450500000000000E-01      1.906934000000000E+01      1.351776000000000E-01      1.426328000000000E+02      3.126984000000000E-01      4.730273000000000E+01
4832000000.000000      8.955994000000000E-01      9.732031000000000E+01      1.483078000000000E-01      2.006836000000000E+01      1.370697000000000E-01      1.433906000000000E+02      3.127747000000000E-01      4.696094000000000E+01
4833000000.000000      8.948669000000000E-01      9.739452000000000E+01      1.506729000000000E-01      2.080371000000000E+01      1.399689000000000E-01      1.440156000000000E+02      3.130188000000000E-01      4.647070000000000E+01
4834000000.000000      8.941345000000000E-01      9.773438000000000E+01      1.534958000000000E-01      2.151465000000000E+01      1.424637000000000E-01      1.446640000000000E+02      3.136902000000000E-01      4.563867000000000E+01
4835000000.000000      8.903503000000000E-01      9.786718000000000E+01      1.565704000000000E-01      2.205176000000000E+01      1.450729000000000E-01      1.454297000000000E+02      3.128204000000000E-01      4.510938000000000E+01
4836000000.000000      8.881531000000000E-01      9.819530000000000E+01      1.596985000000000E-01      2.256250000000000E+01      1.473618000000000E-01      1.462188000000000E+02      3.133545000000000E-01      4.459765000000000E+01
4837000000.000000      8.838806000000000E-01      9.853125000000000E+01      1.621323000000000E-01      2.299023000000000E+01      1.503830000000000E-01      1.466719000000000E+02      3.146667000000000E-01      4.384961000000000E+01
4838000000.000000      8.808594000000000E-01      9.867577000000000E+01      1.655273000000000E-01      2.368164000000000E+01      1.527634000000000E-01      1.471641000000000E+02      3.110962000000000E-01      4.336328000000000E+01
4839000000.000000      8.819275000000000E-01      9.892187000000000E+01      1.685944000000000E-01      2.427637000000000E+01      1.561203000000000E-01      1.476016000000000E+02      3.135681000000000E-01      4.220117000000000E+01
4840000000.000000      8.783569000000000E-01      9.901562000000000E+01      1.722794000000000E-01      2.466699000000000E+01      1.586761000000000E-01      1.480625000000000E+02      3.128357000000000E-01      4.168164000000000E+01
4841000000.000000      8.730774000000000E-01      9.925781000000000E+01      1.752777000000000E-01      2.491504000000000E+01      1.616135000000000E-01      1.485859000000000E+02      3.128815000000000E-01      4.140821000000000E+01
4842000000.000000      8.707275000000000E-01      9.951172000000000E+01      1.779785000000000E-01      2.546972000000000E+01      1.642761000000000E-01      1.491094000000000E+02      3.132782000000000E-01      4.100781000000000E+01
4843000000.000000      8.674316000000000E-01      9.981249000000000E+01      1.817551000000000E-01      2.558789000000000E+01      1.670761000000000E-01      1.494609000000000E+02      3.121643000000000E-01      4.058789000000000E+01
4844000000.000000      8.637390000000000E-01      9.982422000000000E+01      1.850662000000000E-01      2.583398000000000E+01      1.699905000000000E-01      1.499297000000000E+02      3.099060000000000E-01      3.983789000000000E+01
4845000000.000000      8.606262000000000E-01      1.000859000000000E+02      1.879196000000000E-01      2.628808000000000E+01      1.729050000000000E-01      1.500859000000000E+02      3.118134000000000E-01      3.931836000000000E+01
4846000000.000000      8.568726000000000E-01      1.002461000000000E+02      1.913605000000000E-01      2.627441000000000E+01      1.764069000000000E-01      1.504531000000000E+02      3.103180000000000E-01      3.894336000000000E+01
4847000000.000000      8.519287000000000E-01      1.003516000000000E+02      1.944733000000000E-01      2.672070000000000E+01      1.793976000000000E-01      1.507578000000000E+02      3.091431000000000E-01      3.827343000000000E+01
4848000000.000000      8.485718000000000E-01      1.004648000000000E+02      1.974869000000000E-01      2.681445000000000E+01      1.822357000000000E-01      1.510937000000000E+02      3.096008000000000E-01      3.752539000000000E+01
4849000000.000000      8.428040000000000E-01      1.005820000000000E+02      2.013550000000000E-01      2.680469000000000E+01      1.851273000000000E-01      1.514062000000000E+02      3.071442000000000E-01      3.734961000000000E+01
4850000000.000000      8.393250000000000E-01      1.006836000000000E+02      2.043839000000000E-01      2.683496000000000E+01      1.883774000000000E-01      1.515625000000000E+02      3.086090000000000E-01      3.682031000000000E+01
4851000000.000000      8.350220000000000E-01      1.008555000000000E+02      2.082672000000000E-01      2.688281000000000E+01      1.914291000000000E-01      1.517891000000000E+02      3.084564000000000E-01      3.648828000000000E+01
4852000000.000000      8.316040000000000E-01      1.010273000000000E+02      2.113495000000000E-01      2.702343000000000E+01      1.943207000000000E-01      1.520391000000000E+02      3.083191000000000E-01      3.591992000000000E+01
4853000000.000000      8.268738000000000E-01      1.011641000000000E+02      2.143707000000000E-01      2.715918000000000E+01      1.976624000000000E-01      1.522109000000000E+02      3.066864000000000E-01      3.520703000000000E+01
4854000000.000000      8.194885000000000E-01      1.012461000000000E+02      2.180252000000000E-01      2.700293000000000E+01      2.010880000000000E-01      1.523125000000000E+02      3.075409000000000E-01      3.508203000000000E+01
4855000000.000000      8.166504000000000E-01      1.013828000000000E+02      2.218246000000000E-01      2.715332000000000E+01      2.041016000000000E-01      1.525391000000000E+02      3.042908000000000E-01      3.455469000000000E+01
4856000000.000000      8.123169000000000E-01      1.013086000000000E+02      2.254257000000000E-01      2.709277000000000E+01      2.072144000000000E-01      1.526562000000000E+02      3.059540000000000E-01      3.438281000000000E+01
4857000000.000000      8.067322000000000E-01      1.014141000000000E+02      2.288589000000000E-01      2.719922000000000E+01      2.104034000000000E-01      1.527812000000000E+02      3.061523000000000E-01      3.368164000000000E+01
4858000000.000000      8.013000000000000E-01      1.014336000000000E+02      2.323914000000000E-01      2.706445000000000E+01      2.135239000000000E-01      1.528828000000000E+02      3.059540000000000E-01      3.319726000000000E+01
4859000000.000000      7.992554000000000E-01      1.015156000000000E+02      2.363052000000000E-01      2.706152000000000E+01      2.167969000000000E-01      1.529609000000000E+02      3.057404000000000E-01      3.291406000000000E+01
4860000000.000000      7.926636000000000E-01      1.014805000000000E+02      2.391891000000000E-01      2.688867000000000E+01      2.196884000000000E-01      1.530000000000000E+02      3.052216000000000E-01      3.272851000000000E+01
4861000000.000000      7.883911000000000E-01      1.016250000000000E+02      2.429199000000000E-01      2.676953000000000E+01      2.234421000000000E-01      1.530937000000000E+02      3.043518000000000E-01      3.212109000000000E+01
4862000000.000000      7.817383000000000E-01      1.015469000000000E+02      2.470474000000000E-01      2.676465000000000E+01      2.271957000000000E-01      1.531406000000000E+02      3.040466000000000E-01      3.185547000000000E+01
4863000000.000000      7.764893000000000E-01      1.014883000000000E+02      2.492523000000000E-01      2.656543000000000E+01      2.305374000000000E-01      1.532266000000000E+02      3.051453000000000E-01      3.151758000000000E+01
4864000000.000000      7.708740000000000E-01      1.015234000000000E+02      2.535553000000000E-01      2.642285000000000E+01      2.331924000000000E-01      1.532500000000000E+02      3.036957000000000E-01      3.107617000000000E+01
4865000000.000000      7.646484000000000E-01      1.014492000000000E+02      2.566681000000000E-01      2.637793000000000E+01      2.369156000000000E-01      1.531953000000000E+02      3.048859000000000E-01      3.075879000000000E+01
4866000000.000000      7.624817000000000E-01      1.014531000000000E+02      2.604065000000000E-01      2.611914000000000E+01      2.401352000000000E-01      1.530000000000000E+02      3.059235000000000E-01      3.035351000000000E+01
4867000000.000000      7.565613000000000E-01      1.012656000000000E+02      2.638092000000000E-01      2.589160000000000E+01      2.433701000000000E-01      1.530547000000000E+02      3.057861000000000E-01      3.022558000000000E+01
4868000000.000000      7.524719000000000E-01      1.011445000000000E+02      2.679749000000000E-01      2.572656000000000E+01      2.470627000000000E-01      1.531094000000000E+02      3.042755000000000E-01      2.967090000000000E+01
4869000000.000000      7.457886000000000E-01      1.012226000000000E+02      2.713470000000000E-01      2.551270000000000E+01      2.506104000000000E-01      1.529687000000000E+02      3.046417000000000E-01      2.937597000000000E+01
4870000000.000000      7.420349000000000E-01      1.009727000000000E+02      2.747650000000000E-01      2.554101000000000E+01      2.537689000000000E-01      1.529297000000000E+02      3.052979000000000E-01      2.923047000000000E+01
4871000000.000000      7.376404000000000E-01      1.008906000000000E+02      2.785034000000000E-01      2.514160000000000E+01      2.571259000000000E-01      1.529140000000000E+02      3.059845000000000E-01      2.900488000000000E+01
4872000000.000000      7.340088000000000E-01      1.008164000000000E+02      2.818298000000000E-01      2.508789000000000E+01      2.600098000000000E-01      1.525625000000000E+02      3.067780000000000E-01      2.867480000000000E+01
4873000000.000000      7.267456000000000E-01      1.005312000000000E+02      2.853546000000000E-01      2.472851000000000E+01      2.633057000000000E-01      1.526641000000000E+02      3.079224000000000E-01      2.808789000000000E+01
4874000000.000000      7.219238000000000E-01      1.004140000000000E+02      2.888184000000000E-01      2.457324000000000E+01      2.673492000000000E-01      1.523203000000000E+02      3.075562000000000E-01      2.763574000000000E+01
4875000000.000000      7.170715000000000E-01      1.001172000000000E+02      2.927094000000000E-01      2.439355000000000E+01      2.699585000000000E-01      1.524375000000000E+02      3.088379000000000E-01      2.773438000000000E+01
4876000000.000000      7.130127000000000E-01      1.001133000000000E+02      2.963867000000000E-01      2.395020000000000E+01      2.736816000000000E-01      1.521719000000000E+02      3.092957000000000E-01      2.719727000000000E+01
4877000000.000000      7.105713000000000E-01      9.967968000000000E+01      3.004608000000000E-01      2.368457000000000E+01      2.771759000000000E-01      1.520156000000000E+02      3.090210000000000E-01      2.679883000000000E+01
4878000000.000000      7.038269000000000E-01      9.949999000000000E+01      3.049011000000000E-01      2.348047000000000E+01      2.803802000000000E-01      1.519609000000000E+02      3.112946000000000E-01      2.652441000000000E+01
4879000000.000000      6.997681000000000E-01      9.919922000000000E+01      3.069153000000000E-01      2.323144000000000E+01      2.837219000000000E-01      1.516406000000000E+02      3.111115000000000E-01      2.613965000000000E+01
4880000000.000000      6.937561000000000E-01      9.889452000000000E+01      3.110657000000000E-01      2.279199000000000E+01      2.869720000000000E-01      1.514922000000000E+02      3.117218000000000E-01      2.613281000000000E+01
4881000000.000000      6.906738000000000E-01      9.858593000000000E+01      3.154755000000000E-01      2.261230000000000E+01      2.904510000000000E-01      1.513047000000000E+02      3.135986000000000E-01      2.594141000000000E+01
4882000000.000000      6.868591000000000E-01      9.824219000000000E+01      3.197937000000000E-01      2.227832000000000E+01      2.945557000000000E-01      1.511094000000000E+02      3.148346000000000E-01      2.537207000000000E+01
