! Network Analyzer HP8722D
! Hewlett-Packard
! Data name: Linha & Wilkinson
! Saver's name: Rodrigo Anjos
! Comments: Teste da utilização de aquisição
continua pelo VNA HP8722D
! Time and date: 8/5/2025 14:49
!              Frequency                     S11                                                   S21                                                   S12                                                   S22
# HZ  S  MA R 50
4800000000.000000      5.232239000000000E-01     -2.483789000000000E+01      3.810577000000000E-01     -1.521484000000000E+02      3.998108000000000E-01      7.245361000000000E+00      4.934235000000000E-01      5.781555000000000E-01
4801000000.000000      5.236511000000000E-01     -2.463183000000000E+01      3.840485000000000E-01     -1.523203000000000E+02      4.018860000000000E-01      7.003662000000000E+00      4.893341000000000E-01      5.218506000000000E-01
4802000000.000000      5.223389000000000E-01     -2.427929000000000E+01      3.869324000000000E-01     -1.527969000000000E+02      4.070892000000000E-01      6.981689000000000E+00      4.833374000000000E-01      1.013489000000000E+00
4803000000.000000      5.224304000000000E-01     -2.408203000000000E+01      3.940735000000000E-01     -1.530078000000000E+02      4.089050000000000E-01      6.772949000000000E+00      4.764404000000000E-01      9.915161000000000E-01
4804000000.000000      5.192566000000000E-01     -2.392285000000000E+01      3.971558000000000E-01     -1.534375000000000E+02      4.147949000000000E-01      6.669922000000000E+00      4.682922000000000E-01      1.186523000000000E+00
4805000000.000000      5.206909000000000E-01     -2.366406000000000E+01      3.991852000000000E-01     -1.538984000000000E+02      4.183350000000000E-01      6.724854000000000E+00      4.628754000000000E-01      1.294983000000000E+00
4806000000.000000      5.172729000000000E-01     -2.349512000000000E+01      4.032288000000000E-01     -1.542812000000000E+02      4.200134000000000E-01      6.565674000000000E+00      4.546509000000000E-01      1.395264000000000E+00
4807000000.000000      5.161133000000000E-01     -2.316797000000000E+01      4.066772000000000E-01     -1.547266000000000E+02      4.248962000000000E-01      6.280029000000000E+00      4.476624000000000E-01      1.706970000000000E+00
4808000000.000000      5.163269000000000E-01     -2.288672000000000E+01      4.104156000000000E-01     -1.552109000000000E+02      4.285431000000000E-01      6.332031000000000E+00      4.407654000000000E-01      1.881409000000000E+00
4809000000.000000      5.128174000000000E-01     -2.266797000000000E+01      4.164886000000000E-01     -1.556875000000000E+02      4.333954000000000E-01      5.953125000000000E+00      4.330292000000000E-01      2.208252000000000E+00
4810000000.000000      5.155945000000000E-01     -2.253222000000000E+01      4.200745000000000E-01     -1.560781000000000E+02      4.363861000000000E-01      5.911865000000000E+00      4.260712000000000E-01      2.180786000000000E+00
4811000000.000000      5.128784000000000E-01     -2.223242000000000E+01      4.215546000000000E-01     -1.565469000000000E+02      4.402618000000000E-01      5.719727000000000E+00      4.186096000000000E-01      2.665527000000000E+00
4812000000.000000      5.146484000000000E-01     -2.179590000000000E+01      4.264526000000000E-01     -1.569062000000000E+02      4.439850000000000E-01      5.612549000000000E+00      4.103241000000000E-01      2.765747000000000E+00
4813000000.000000      5.106812000000000E-01     -2.172461000000000E+01      4.283295000000000E-01     -1.575469000000000E+02      4.474030000000000E-01      5.639893000000000E+00      4.032593000000000E-01      3.348022000000000E+00
4814000000.000000      5.103149000000000E-01     -2.174414000000000E+01      4.326935000000000E-01     -1.577109000000000E+02      4.506531000000000E-01      5.295410000000000E+00      3.944550000000000E-01      3.456543000000000E+00
4815000000.000000      5.077209000000000E-01     -2.149707000000000E+01      4.357147000000000E-01     -1.581640000000000E+02      4.532013000000000E-01      5.230713000000000E+00      3.867188000000000E-01      3.854736000000000E+00
4816000000.000000      5.090942000000000E-01     -2.107324000000000E+01      4.377441000000000E-01     -1.586875000000000E+02      4.577332000000000E-01      5.056396000000000E+00      3.793488000000000E-01      4.171875000000000E+00
4817000000.000000      5.065918000000000E-01     -2.111035000000000E+01      4.398956000000000E-01     -1.590937000000000E+02      4.611969000000000E-01      4.888916000000000E+00      3.686523000000000E-01      4.729492000000000E+00
4818000000.000000      5.047913000000000E-01     -2.081250000000000E+01      4.428406000000000E-01     -1.595703000000000E+02      4.645691000000000E-01      4.656738000000000E+00      3.601837000000000E-01      5.186768000000000E+00
4819000000.000000      5.028076000000000E-01     -2.055274000000000E+01      4.460602000000000E-01     -1.601953000000000E+02      4.685211000000000E-01      4.610107000000000E+00      3.505096000000000E-01      5.407959000000000E+00
4820000000.000000      5.028992000000000E-01     -2.046777000000000E+01      4.500427000000000E-01     -1.604141000000000E+02      4.713440000000000E-01      4.351807000000000E+00      3.428802000000000E-01      6.003906000000000E+00
4821000000.000000      5.023193000000000E-01     -2.034472000000000E+01      4.535522000000000E-01     -1.612656000000000E+02      4.735870000000000E-01      4.067627000000000E+00      3.333740000000000E-01      6.718018000000000E+00
4822000000.000000      4.981537000000000E-01     -2.018359000000000E+01      4.539032000000000E-01     -1.615000000000000E+02      4.775543000000000E-01      4.033203000000000E+00      3.249969000000000E-01      7.082031000000000E+00
4823000000.000000      4.966278000000000E-01     -2.007813000000000E+01      4.577026000000000E-01     -1.618515000000000E+02      4.806519000000000E-01      4.110107000000000E+00      3.153687000000000E-01      7.716309000000000E+00
4824000000.000000      4.955444000000000E-01     -1.974414000000000E+01      4.593506000000000E-01     -1.623672000000000E+02      4.837799000000000E-01      3.706421000000000E+00      3.057251000000000E-01      8.374023000000000E+00
4825000000.000000      4.934082000000000E-01     -1.984766000000000E+01      4.623871000000000E-01     -1.628828000000000E+02      4.885559000000000E-01      3.699585000000000E+00      2.985229000000000E-01      9.158203000000000E+00
4826000000.000000      4.925079000000000E-01     -1.978808000000000E+01      4.640198000000000E-01     -1.633750000000000E+02      4.901733000000000E-01      3.433228000000000E+00      2.885284000000000E-01      9.969727000000000E+00
4827000000.000000      4.913025000000000E-01     -1.948437000000000E+01      4.660797000000000E-01     -1.637109000000000E+02      4.922028000000000E-01      3.405762000000000E+00      2.804565000000000E-01      1.089014000000000E+01
4828000000.000000      4.915009000000000E-01     -1.942383000000000E+01      4.697113000000000E-01     -1.642266000000000E+02      4.972229000000000E-01      3.309570000000000E+00      2.711792000000000E-01      1.162354000000000E+01
4829000000.000000      4.892120000000000E-01     -1.910742000000000E+01      4.721222000000000E-01     -1.647734000000000E+02      4.982300000000000E-01      3.154419000000000E+00      2.634735000000000E-01      1.291992000000000E+01
4830000000.000000      4.887238000000000E-01     -1.920019000000000E+01      4.725647000000000E-01     -1.652266000000000E+02      5.033569000000000E-01      2.782227000000000E+00      2.528076000000000E-01      1.409521000000000E+01
4831000000.000000      4.857178000000000E-01     -1.895020000000000E+01      4.749756000000000E-01     -1.655547000000000E+02      5.058289000000000E-01      2.859131000000000E+00      2.437973000000000E-01      1.526514000000000E+01
4832000000.000000      4.840698000000000E-01     -1.874414000000000E+01      4.747620000000000E-01     -1.659688000000000E+02      5.078430000000000E-01      2.699829000000000E+00      2.353210000000000E-01      1.686230000000000E+01
4833000000.000000      4.815521000000000E-01     -1.869531000000000E+01      4.775848000000000E-01     -1.664141000000000E+02      5.110779000000000E-01      2.370239000000000E+00      2.262955000000000E-01      1.833301000000000E+01
4834000000.000000      4.802551000000000E-01     -1.862597000000000E+01      4.794159000000000E-01     -1.669297000000000E+02      5.136108000000000E-01      2.232910000000000E+00      2.187958000000000E-01      2.003906000000000E+01
4835000000.000000      4.784698000000000E-01     -1.835547000000000E+01      4.819946000000000E-01     -1.675547000000000E+02      5.171204000000000E-01      2.021484000000000E+00      2.099686000000000E-01      2.185156000000000E+01
4836000000.000000      4.786377000000000E-01     -1.817578000000000E+01      4.817963000000000E-01     -1.677813000000000E+02      5.192261000000000E-01      1.936340000000000E+00      2.026596000000000E-01      2.385449000000000E+01
4837000000.000000      4.739990000000000E-01     -1.815918000000000E+01      4.835205000000000E-01     -1.682969000000000E+02      5.209656000000000E-01      1.469421000000000E+00      1.947632000000000E-01      2.636719000000000E+01
4838000000.000000      4.747467000000000E-01     -1.805078000000000E+01      4.866333000000000E-01     -1.686094000000000E+02      5.234680000000000E-01      1.560059000000000E+00      1.879959000000000E-01      2.856250000000000E+01
4839000000.000000      4.757690000000000E-01     -1.766504000000000E+01      4.882660000000000E-01     -1.690312000000000E+02      5.263367000000000E-01      1.411743000000000E+00      1.819458000000000E-01      3.091894000000000E+01
4840000000.000000      4.719543000000000E-01     -1.788867000000000E+01      4.906311000000000E-01     -1.694844000000000E+02      5.290833000000000E-01      1.337585000000000E+00      1.749725000000000E-01      3.355859000000000E+01
4841000000.000000      4.678650000000000E-01     -1.739355000000000E+01      4.901123000000000E-01     -1.700078000000000E+02      5.302429000000000E-01      9.695435000000000E-01      1.701660000000000E-01      3.677929000000000E+01
4842000000.000000      4.687042000000000E-01     -1.725488000000000E+01      4.898682000000000E-01     -1.702266000000000E+02      5.325928000000000E-01      9.750366000000000E-01      1.657715000000000E-01      4.022070000000000E+01
4843000000.000000      4.676819000000000E-01     -1.690430000000000E+01      4.918671000000000E-01     -1.707500000000000E+02      5.349426000000000E-01      7.127380000000000E-01      1.605301000000000E-01      4.379883000000000E+01
4844000000.000000      4.655151000000000E-01     -1.665137000000000E+01      4.920044000000000E-01     -1.711953000000000E+02      5.363464000000000E-01      6.166077000000000E-01      1.558151000000000E-01      4.718750000000000E+01
4845000000.000000      4.645844000000000E-01     -1.652930000000000E+01      4.946899000000000E-01     -1.715234000000000E+02      5.388184000000000E-01      3.337097000000000E-01      1.539001000000000E-01      5.061523000000000E+01
4846000000.000000      4.636230000000000E-01     -1.626758000000000E+01      4.957733000000000E-01     -1.720312000000000E+02      5.419922000000000E-01      2.252197000000000E-01      1.517868000000000E-01      5.464257000000000E+01
4847000000.000000      4.633331000000000E-01     -1.605273000000000E+01      4.976654000000000E-01     -1.722188000000000E+02      5.432434000000000E-01      1.373291000000000E-02      1.492844000000000E-01      5.859375000000000E+01
4848000000.000000      4.613342000000000E-01     -1.599756000000000E+01      4.958038000000000E-01     -1.727031000000000E+02      5.451355000000000E-01     -2.691650000000000E-01      1.504135000000000E-01      6.239648000000000E+01
4849000000.000000      4.599609000000000E-01     -1.546191000000000E+01      4.985657000000000E-01     -1.731406000000000E+02      5.464478000000000E-01     -3.584290000000000E-01      1.493759000000000E-01      6.648828000000000E+01
4850000000.000000      4.578247000000000E-01     -1.538916000000000E+01      4.989014000000000E-01     -1.733203000000000E+02      5.484314000000000E-01     -6.056213000000000E-01      1.513443000000000E-01      7.001953000000000E+01
4851000000.000000      4.580231000000000E-01     -1.511621000000000E+01      4.994354000000000E-01     -1.738359000000000E+02      5.487061000000000E-01     -6.372070000000000E-01      1.532059000000000E-01      7.374218000000000E+01
4852000000.000000      4.588928000000000E-01     -1.476855000000000E+01      5.006714000000000E-01     -1.740703000000000E+02      5.500793000000000E-01     -8.047485000000000E-01      1.556549000000000E-01      7.696094000000000E+01
4853000000.000000      4.591064000000000E-01     -1.458887000000000E+01      4.991760000000000E-01     -1.745391000000000E+02      5.525208000000000E-01     -1.101379000000000E+00      1.584625000000000E-01      8.048437000000000E+01
4854000000.000000      4.578705000000000E-01     -1.438428000000000E+01      4.996338000000000E-01     -1.750156000000000E+02      5.535889000000000E-01     -1.042358000000000E+00      1.634979000000000E-01      8.349218000000000E+01
4855000000.000000      4.548492000000000E-01     -1.391162000000000E+01      5.007629000000000E-01     -1.751484000000000E+02      5.543213000000000E-01     -1.469421000000000E+00      1.671066000000000E-01      8.665625000000000E+01
4856000000.000000      4.557037000000000E-01     -1.376758000000000E+01      5.010376000000000E-01     -1.755781000000000E+02      5.546570000000000E-01     -1.510620000000000E+00      1.720047000000000E-01      8.965624000000000E+01
4857000000.000000      4.570770000000000E-01     -1.349854000000000E+01      5.050354000000000E-01     -1.759687000000000E+02      5.567932000000000E-01     -1.767456000000000E+00      1.761551000000000E-01      9.193750000000000E+01
4858000000.000000      4.554138000000000E-01     -1.317285000000000E+01      5.061035000000000E-01     -1.762344000000000E+02      5.579224000000000E-01     -1.980286000000000E+00      1.811905000000000E-01      9.388281000000000E+01
4859000000.000000      4.577942000000000E-01     -1.309863000000000E+01      5.065613000000000E-01     -1.766797000000000E+02      5.582275000000000E-01     -1.961060000000000E+00      1.865692000000000E-01      9.585155000000000E+01
4860000000.000000      4.559021000000000E-01     -1.270459000000000E+01      5.054016000000000E-01     -1.769297000000000E+02      5.589905000000000E-01     -2.239868000000000E+00      1.937637000000000E-01      9.826952000000000E+01
4861000000.000000      4.579163000000000E-01     -1.242432000000000E+01      5.060120000000000E-01     -1.773516000000000E+02      5.591125000000000E-01     -2.282471000000000E+00      1.976318000000000E-01      9.963280000000000E+01
4862000000.000000      4.563293000000000E-01     -1.225293000000000E+01      5.078735000000000E-01     -1.775469000000000E+02      5.601807000000000E-01     -2.535156000000000E+00      2.044067000000000E-01      1.018203000000000E+02
4863000000.000000      4.600830000000000E-01     -1.171436000000000E+01      5.094299000000000E-01     -1.780313000000000E+02      5.591125000000000E-01     -2.624390000000000E+00      2.103424000000000E-01      1.030469000000000E+02
4864000000.000000      4.623871000000000E-01     -1.168945000000000E+01      5.103455000000000E-01     -1.783047000000000E+02      5.598145000000000E-01     -2.583252000000000E+00      2.173233000000000E-01      1.038437000000000E+02
4865000000.000000      4.625702000000000E-01     -1.123242000000000E+01      5.103149000000000E-01     -1.784922000000000E+02      5.600891000000000E-01     -2.853760000000000E+00      2.225723000000000E-01      1.053008000000000E+02
4866000000.000000      4.635925000000000E-01     -1.100732000000000E+01      5.099487000000000E-01     -1.789844000000000E+02      5.610352000000000E-01     -2.908691000000000E+00      2.284775000000000E-01      1.064805000000000E+02
4867000000.000000      4.650421000000000E-01     -1.062109000000000E+01      5.115662000000000E-01     -1.794375000000000E+02      5.603027000000000E-01     -3.074829000000000E+00      2.326965000000000E-01      1.076055000000000E+02
4868000000.000000      4.662933000000000E-01     -1.037109000000000E+01      5.122986000000000E-01     -1.797031000000000E+02      5.597839000000000E-01     -3.175049000000000E+00      2.409515000000000E-01      1.081523000000000E+02
4869000000.000000      4.677429000000000E-01     -1.032617000000000E+01      5.132446000000000E-01      1.798984000000000E+02      5.591125000000000E-01     -3.348145000000000E+00      2.466049000000000E-01      1.095625000000000E+02
4870000000.000000      4.700165000000000E-01     -1.000879000000000E+01      5.142822000000000E-01      1.797812000000000E+02      5.620728000000000E-01     -3.386597000000000E+00      2.521057000000000E-01      1.102422000000000E+02
4871000000.000000      4.701691000000000E-01     -9.873047000000000E+00      5.131531000000000E-01      1.792812000000000E+02      5.588684000000000E-01     -3.508789000000000E+00      2.571869000000000E-01      1.106211000000000E+02
4872000000.000000      4.774170000000000E-01     -9.583008000000000E+00      5.144653000000000E-01      1.789922000000000E+02      5.592651000000000E-01     -3.674927000000000E+00      2.630615000000000E-01      1.111289000000000E+02
4873000000.000000      4.769287000000000E-01     -9.271484000000000E+00      5.152283000000000E-01      1.784531000000000E+02      5.578613000000000E-01     -3.596680000000000E+00      2.679443000000000E-01      1.118164000000000E+02
4874000000.000000      4.792786000000000E-01     -9.190430000000000E+00      5.173340000000000E-01      1.780937000000000E+02      5.595703000000000E-01     -3.658447000000000E+00      2.715302000000000E-01      1.122148000000000E+02
4875000000.000000      4.830627000000000E-01     -9.008789000000000E+00      5.156250000000000E-01      1.777891000000000E+02      5.577698000000000E-01     -3.685913000000000E+00      2.771606000000000E-01      1.125898000000000E+02
4876000000.000000      4.844513000000000E-01     -8.625977000000000E+00      5.181580000000000E-01      1.775469000000000E+02      5.590515000000000E-01     -3.758789000000000E+00      2.828522000000000E-01      1.135390000000000E+02
4877000000.000000      4.875946000000000E-01     -8.739746000000000E+00      5.180359000000000E-01      1.769922000000000E+02      5.568542000000000E-01     -3.867188000000000E+00      2.880402000000000E-01      1.133476000000000E+02
4878000000.000000      4.885712000000000E-01     -8.649414000000000E+00      5.189819000000000E-01      1.764766000000000E+02      5.568237000000000E-01     -3.834229000000000E+00      2.919159000000000E-01      1.136914000000000E+02
4879000000.000000      4.931946000000000E-01     -8.414551000000000E+00      5.184326000000000E-01      1.763203000000000E+02      5.566101000000000E-01     -3.935913000000000E+00      2.964172000000000E-01      1.139453000000000E+02
4880000000.000000      4.972839000000000E-01     -8.450195000000000E+00      5.207214000000000E-01      1.759531000000000E+02      5.533142000000000E-01     -3.962036000000000E+00      3.003998000000000E-01      1.139726000000000E+02
4881000000.000000      5.002441000000000E-01     -8.310059000000000E+00      5.206909000000000E-01      1.757266000000000E+02      5.549927000000000E-01     -3.905640000000000E+00      3.047180000000000E-01      1.144844000000000E+02
4882000000.000000      5.034790000000000E-01     -8.194824000000000E+00      5.216064000000000E-01      1.750000000000000E+02      5.563354000000000E-01     -4.026611000000000E+00      3.092499000000000E-01      1.145117000000000E+02
