! Network Analyzer HP8722D
! Hewlett-Packard
! Data name: Linha & Wilkinson
! Saver's name: Rodrigo Anjos
! Comments: Teste da utilização de aquisição
continua pelo VNA HP8722D
! Time and date: 8/5/2025 15:23
!              Frequency                     S11                                                   S21                                                   S12                                                   S22
# HZ  S  MA R 50
4800000000.000000      5.276794000000000E-01     -2.498340000000000E+01      3.753357000000000E-01     -1.508047000000000E+02      3.924866000000000E-01      8.490723000000000E+00      4.969788000000000E-01      9.750366000000000E-01
4801000000.000000      5.260620000000000E-01     -2.461133000000000E+01      3.801117000000000E-01     -1.512734000000000E+02      3.960876000000000E-01      8.357422000000000E+00      4.927368000000000E-01      9.516907000000000E-01
4802000000.000000      5.251770000000000E-01     -2.448633000000000E+01      3.830566000000000E-01     -1.513828000000000E+02      4.008484000000000E-01      8.158691000000000E+00      4.864044000000000E-01      1.240051000000000E+00
4803000000.000000      5.236206000000000E-01     -2.408203000000000E+01      3.880157000000000E-01     -1.520000000000000E+02      4.046478000000000E-01      8.117188000000000E+00      4.808807000000000E-01      1.235962000000000E+00
4804000000.000000      5.227966000000000E-01     -2.375195000000000E+01      3.918610000000000E-01     -1.522422000000000E+02      4.087830000000000E-01      7.918213000000000E+00      4.745178000000000E-01      1.506470000000000E+00
4805000000.000000      5.231628000000000E-01     -2.358398000000000E+01      3.954620000000000E-01     -1.528516000000000E+02      4.103699000000000E-01      7.716309000000000E+00      4.673004000000000E-01      1.555908000000000E+00
4806000000.000000      5.220032000000000E-01     -2.325195000000000E+01      3.988342000000000E-01     -1.532266000000000E+02      4.160461000000000E-01      7.824951000000000E+00      4.599609000000000E-01      1.539429000000000E+00
4807000000.000000      5.189514000000000E-01     -2.317481000000000E+01      4.025879000000000E-01     -1.537109000000000E+02      4.199219000000000E-01      7.452637000000000E+00      4.519196000000000E-01      1.848450000000000E+00
4808000000.000000      5.184021000000000E-01     -2.291211000000000E+01      4.068756000000000E-01     -1.541250000000000E+02      4.232330000000000E-01      7.451416000000000E+00      4.460144000000000E-01      2.058472000000000E+00
4809000000.000000      5.167542000000000E-01     -2.241504000000000E+01      4.100342000000000E-01     -1.544609000000000E+02      4.283905000000000E-01      7.234375000000000E+00      4.384003000000000E-01      2.301636000000000E+00
4810000000.000000      5.155334000000000E-01     -2.249218000000000E+01      4.151306000000000E-01     -1.548672000000000E+02      4.306030000000000E-01      7.267334000000000E+00      4.309082000000000E-01      2.210938000000000E+00
4811000000.000000      5.144348000000000E-01     -2.215137000000000E+01      4.171753000000000E-01     -1.551406000000000E+02      4.355164000000000E-01      7.058594000000000E+00      4.231567000000000E-01      2.752075000000000E+00
4812000000.000000      5.154114000000000E-01     -2.188672000000000E+01      4.216614000000000E-01     -1.558594000000000E+02      4.376221000000000E-01      6.847168000000000E+00      4.157867000000000E-01      2.697144000000000E+00
4813000000.000000      5.127563000000000E-01     -2.173535000000000E+01      4.232941000000000E-01     -1.563437000000000E+02      4.423828000000000E-01      6.869141000000000E+00      4.082642000000000E-01      3.244995000000000E+00
4814000000.000000      5.112610000000000E-01     -2.163086000000000E+01      4.277649000000000E-01     -1.565000000000000E+02      4.466095000000000E-01      6.457031000000000E+00      3.996277000000000E-01      3.435913000000000E+00
4815000000.000000      5.101013000000000E-01     -2.133008000000000E+01      4.310608000000000E-01     -1.568594000000000E+02      4.477386000000000E-01      6.518799000000000E+00      3.919220000000000E-01      3.743530000000000E+00
4816000000.000000      5.095520000000000E-01     -2.143457000000000E+01      4.336243000000000E-01     -1.575078000000000E+02      4.535675000000000E-01      6.350098000000000E+00      3.843536000000000E-01      4.030518000000000E+00
4817000000.000000      5.079346000000000E-01     -2.100879000000000E+01      4.369659000000000E-01     -1.578906000000000E+02      4.546051000000000E-01      6.079346000000000E+00      3.744049000000000E-01      4.468506000000000E+00
4818000000.000000      5.065002000000000E-01     -2.091601000000000E+01      4.391479000000000E-01     -1.584609000000000E+02      4.593201000000000E-01      5.998535000000000E+00      3.645630000000000E-01      4.902588000000000E+00
4819000000.000000      5.036621000000000E-01     -2.068945000000000E+01      4.420013000000000E-01     -1.590234000000000E+02      4.635468000000000E-01      5.758057000000000E+00      3.556213000000000E-01      4.986328000000000E+00
4820000000.000000      5.028381000000000E-01     -2.054199000000000E+01      4.461517000000000E-01     -1.592187000000000E+02      4.672089000000000E-01      5.806152000000000E+00      3.478088000000000E-01      5.614014000000000E+00
4821000000.000000      5.020752000000000E-01     -2.027539000000000E+01      4.498444000000000E-01     -1.598828000000000E+02      4.685059000000000E-01      5.396973000000000E+00      3.383942000000000E-01      6.256592000000000E+00
4822000000.000000      5.004883000000000E-01     -2.032519000000000E+01      4.506226000000000E-01     -1.601328000000000E+02      4.721680000000000E-01      5.391357000000000E+00      3.303375000000000E-01      6.481934000000000E+00
4823000000.000000      4.980469000000000E-01     -2.005566000000000E+01      4.539337000000000E-01     -1.607969000000000E+02      4.760132000000000E-01      5.293945000000000E+00      3.206329000000000E-01      7.106689000000000E+00
4824000000.000000      4.964294000000000E-01     -2.004395000000000E+01      4.551849000000000E-01     -1.612656000000000E+02      4.785461000000000E-01      4.824219000000000E+00      3.109436000000000E-01      7.618896000000000E+00
4825000000.000000      4.943390000000000E-01     -1.984863000000000E+01      4.582520000000000E-01     -1.615937000000000E+02      4.824066000000000E-01      4.946533000000000E+00      3.034058000000000E-01      8.360352000000000E+00
4826000000.000000      4.950562000000000E-01     -1.991015000000000E+01      4.609070000000000E-01     -1.621875000000000E+02      4.857635000000000E-01      4.854492000000000E+00      2.931519000000000E-01      9.058105000000000E+00
4827000000.000000      4.931030000000000E-01     -1.962891000000000E+01      4.622803000000000E-01     -1.624766000000000E+02      4.875336000000000E-01      4.563232000000000E+00      2.841339000000000E-01      9.857422000000000E+00
4828000000.000000      4.925385000000000E-01     -1.958887000000000E+01      4.662323000000000E-01     -1.629531000000000E+02      4.913177000000000E-01      4.399902000000000E+00      2.752075000000000E-01      1.039551000000000E+01
4829000000.000000      4.894104000000000E-01     -1.900391000000000E+01      4.682922000000000E-01     -1.637422000000000E+02      4.944153000000000E-01      4.468506000000000E+00      2.666779000000000E-01      1.181299000000000E+01
4830000000.000000      4.894409000000000E-01     -1.914453000000000E+01      4.702759000000000E-01     -1.642266000000000E+02      4.965363000000000E-01      4.204834000000000E+00      2.561188000000000E-01      1.283057000000000E+01
4831000000.000000      4.875336000000000E-01     -1.899023000000000E+01      4.720001000000000E-01     -1.644453000000000E+02      5.010071000000000E-01      4.085449000000000E+00      2.476425000000000E-01      1.367090000000000E+01
4832000000.000000      4.851990000000000E-01     -1.867676000000000E+01      4.740601000000000E-01     -1.647969000000000E+02      5.020752000000000E-01      3.850708000000000E+00      2.377472000000000E-01      1.542334000000000E+01
4833000000.000000      4.819183000000000E-01     -1.890527000000000E+01      4.751282000000000E-01     -1.651719000000000E+02      5.064087000000000E-01      3.571899000000000E+00      2.287521000000000E-01      1.664648000000000E+01
4834000000.000000      4.798889000000000E-01     -1.857031000000000E+01      4.771729000000000E-01     -1.657031000000000E+02      5.083313000000000E-01      3.371338000000000E+00      2.209625000000000E-01      1.816113000000000E+01
4835000000.000000      4.798431000000000E-01     -1.820313000000000E+01      4.790802000000000E-01     -1.661641000000000E+02      5.110168000000000E-01      3.330200000000000E+00      2.121201000000000E-01      1.973828000000000E+01
4836000000.000000      4.803314000000000E-01     -1.815918000000000E+01      4.795074000000000E-01     -1.666172000000000E+02      5.137024000000000E-01      3.247803000000000E+00      2.036362000000000E-01      2.170996000000000E+01
4837000000.000000      4.772491000000000E-01     -1.792578000000000E+01      4.807739000000000E-01     -1.673047000000000E+02      5.160828000000000E-01      2.948364000000000E+00      1.960144000000000E-01      2.380859000000000E+01
4838000000.000000      4.744110000000000E-01     -1.796875000000000E+01      4.828339000000000E-01     -1.673281000000000E+02      5.190125000000000E-01      2.890747000000000E+00      1.889267000000000E-01      2.588086000000000E+01
4839000000.000000      4.754181000000000E-01     -1.754590000000000E+01      4.845581000000000E-01     -1.678359000000000E+02      5.209961000000000E-01      2.979980000000000E+00      1.822357000000000E-01      2.791016000000000E+01
4840000000.000000      4.727173000000000E-01     -1.765234000000000E+01      4.860382000000000E-01     -1.682969000000000E+02      5.249634000000000E-01      2.537842000000000E+00      1.740723000000000E-01      3.057129000000000E+01
4841000000.000000      4.705048000000000E-01     -1.714648000000000E+01      4.881134000000000E-01     -1.687656000000000E+02      5.247803000000000E-01      2.406006000000000E+00      1.686249000000000E-01      3.369336000000000E+01
4842000000.000000      4.696655000000000E-01     -1.722168000000000E+01      4.877319000000000E-01     -1.690938000000000E+02      5.267944000000000E-01      2.403198000000000E+00      1.631012000000000E-01      3.670898000000000E+01
4843000000.000000      4.675140000000000E-01     -1.696289000000000E+01      4.908905000000000E-01     -1.696328000000000E+02      5.303650000000000E-01      2.205444000000000E+00      1.571884000000000E-01      4.036328000000000E+01
4844000000.000000      4.655457000000000E-01     -1.663672000000000E+01      4.904022000000000E-01     -1.699062000000000E+02      5.319824000000000E-01      1.915710000000000E+00      1.514664000000000E-01      4.375000000000000E+01
4845000000.000000      4.666443000000000E-01     -1.638672000000000E+01      4.911652000000000E-01     -1.703984000000000E+02      5.345154000000000E-01      1.479004000000000E+00      1.481094000000000E-01      4.720508000000000E+01
4846000000.000000      4.658051000000000E-01     -1.613770000000000E+01      4.929504000000000E-01     -1.707813000000000E+02      5.373230000000000E-01      1.470764000000000E+00      1.458740000000000E-01      5.137304000000000E+01
4847000000.000000      4.629974000000000E-01     -1.600098000000000E+01      4.940033000000000E-01     -1.711797000000000E+02      5.394287000000000E-01      1.363647000000000E+00      1.418762000000000E-01      5.532617000000000E+01
4848000000.000000      4.615173000000000E-01     -1.582178000000000E+01      4.945068000000000E-01     -1.715937000000000E+02      5.401917000000000E-01      1.171387000000000E+00      1.421661000000000E-01      5.958984000000000E+01
4849000000.000000      4.619293000000000E-01     -1.589209000000000E+01      4.949493000000000E-01     -1.719297000000000E+02      5.412292000000000E-01      9.146118000000000E-01      1.410675000000000E-01      6.352929000000000E+01
4850000000.000000      4.572906000000000E-01     -1.541016000000000E+01      4.963837000000000E-01     -1.722812000000000E+02      5.435791000000000E-01      7.402039000000000E-01      1.416931000000000E-01      6.751953000000000E+01
4851000000.000000      4.593048000000000E-01     -1.508984000000000E+01      4.975433000000000E-01     -1.727344000000000E+02      5.445862000000000E-01      7.772827000000000E-01      1.432953000000000E-01      7.183984000000000E+01
4852000000.000000      4.589691000000000E-01     -1.469043000000000E+01      4.976501000000000E-01     -1.728437000000000E+02      5.472107000000000E-01      5.699158000000000E-01      1.447144000000000E-01      7.559765000000000E+01
4853000000.000000      4.579620000000000E-01     -1.460107000000000E+01      4.982758000000000E-01     -1.734219000000000E+02      5.487061000000000E-01      4.106140000000000E-01      1.473541000000000E-01      7.888672000000000E+01
4854000000.000000      4.594421000000000E-01     -1.426855000000000E+01      4.989929000000000E-01     -1.737578000000000E+02      5.490417000000000E-01      1.084900000000000E-01      1.508865000000000E-01      8.258593000000000E+01
4855000000.000000      4.566956000000000E-01     -1.406836000000000E+01      5.001221000000000E-01     -1.741797000000000E+02      5.505371000000000E-01     -4.394531000000000E-02      1.538086000000000E-01      8.655077000000000E+01
4856000000.000000      4.559174000000000E-01     -1.374268000000000E+01      5.003357000000000E-01     -1.745391000000000E+02      5.513000000000000E-01     -2.375793000000000E-01      1.596985000000000E-01      8.925390000000000E+01
4857000000.000000      4.564514000000000E-01     -1.320459000000000E+01      5.033264000000000E-01     -1.747422000000000E+02      5.520325000000000E-01     -4.270935000000000E-01      1.638260000000000E-01      9.204687000000000E+01
4858000000.000000      4.561157000000000E-01     -1.302979000000000E+01      5.020447000000000E-01     -1.752734000000000E+02      5.538330000000000E-01     -5.465698000000000E-01      1.679916000000000E-01      9.451952000000000E+01
4859000000.000000      4.558105000000000E-01     -1.306152000000000E+01      5.049438000000000E-01     -1.755703000000000E+02      5.537720000000000E-01     -6.413269000000000E-01      1.735687000000000E-01      9.697655000000000E+01
4860000000.000000      4.569244000000000E-01     -1.251660000000000E+01      5.049438000000000E-01     -1.758047000000000E+02      5.541077000000000E-01     -9.475708000000000E-01      1.805191000000000E-01      9.880468000000000E+01
4861000000.000000      4.580994000000000E-01     -1.229102000000000E+01      5.049744000000000E-01     -1.763125000000000E+02      5.568848000000000E-01     -9.928894000000000E-01      1.861267000000000E-01      1.009297000000000E+02
4862000000.000000      4.568787000000000E-01     -1.224170000000000E+01      5.063782000000000E-01     -1.763828000000000E+02      5.574951000000000E-01     -1.109619000000000E+00      1.920547000000000E-01      1.027461000000000E+02
4863000000.000000      4.584961000000000E-01     -1.164453000000000E+01      5.060120000000000E-01     -1.769063000000000E+02      5.578308000000000E-01     -1.138489000000000E+00      1.976700000000000E-01      1.044141000000000E+02
4864000000.000000      4.595795000000000E-01     -1.146436000000000E+01      5.067139000000000E-01     -1.771328000000000E+02      5.567627000000000E-01     -1.259338000000000E+00      2.036591000000000E-01      1.059492000000000E+02
4865000000.000000      4.608307000000000E-01     -1.126416000000000E+01      5.096436000000000E-01     -1.773359000000000E+02      5.577698000000000E-01     -1.451599000000000E+00      2.117462000000000E-01      1.068789000000000E+02
4866000000.000000      4.630280000000000E-01     -1.113086000000000E+01      5.078125000000000E-01     -1.780156000000000E+02      5.591736000000000E-01     -1.628723000000000E+00      2.154617000000000E-01      1.082813000000000E+02
4867000000.000000      4.633484000000000E-01     -1.063916000000000E+01      5.094910000000000E-01     -1.782656000000000E+02      5.577087000000000E-01     -1.859436000000000E+00      2.236710000000000E-01      1.092734000000000E+02
4868000000.000000      4.643097000000000E-01     -1.047314000000000E+01      5.115662000000000E-01     -1.787031000000000E+02      5.573120000000000E-01     -1.871826000000000E+00      2.270584000000000E-01      1.102500000000000E+02
4869000000.000000      4.674835000000000E-01     -1.025586000000000E+01      5.093689000000000E-01     -1.791406000000000E+02      5.568848000000000E-01     -1.858093000000000E+00      2.341614000000000E-01      1.110508000000000E+02
4870000000.000000      4.702759000000000E-01     -9.706543000000000E+00      5.116882000000000E-01     -1.791484000000000E+02      5.584106000000000E-01     -2.000977000000000E+00      2.396851000000000E-01      1.117930000000000E+02
4871000000.000000      4.680023000000000E-01     -9.851074000000000E+00      5.125122000000000E-01     -1.797109000000000E+02      5.569763000000000E-01     -2.160278000000000E+00      2.461929000000000E-01      1.126523000000000E+02
4872000000.000000      4.725342000000000E-01     -9.551270000000000E+00      5.130920000000000E-01      1.799687000000000E+02      5.572205000000000E-01     -2.322266000000000E+00      2.536926000000000E-01      1.132773000000000E+02
4873000000.000000      4.754639000000000E-01     -9.285156000000000E+00      5.137329000000000E-01      1.794297000000000E+02      5.563965000000000E-01     -2.202759000000000E+00      2.567749000000000E-01      1.140898000000000E+02
4874000000.000000      4.791565000000000E-01     -9.128418000000000E+00      5.131226000000000E-01      1.791953000000000E+02      5.582581000000000E-01     -2.401978000000000E+00      2.621002000000000E-01      1.144219000000000E+02
4875000000.000000      4.827118000000000E-01     -9.096680000000000E+00      5.145569000000000E-01      1.790469000000000E+02      5.559692000000000E-01     -2.522827000000000E+00      2.674103000000000E-01      1.147773000000000E+02
4876000000.000000      4.839478000000000E-01     -8.560059000000000E+00      5.171814000000000E-01      1.786484000000000E+02      5.584106000000000E-01     -2.621704000000000E+00      2.737427000000000E-01      1.154023000000000E+02
4877000000.000000      4.871674000000000E-01     -8.653320000000000E+00      5.145569000000000E-01      1.781328000000000E+02      5.565186000000000E-01     -2.444458000000000E+00      2.787781000000000E-01      1.153164000000000E+02
4878000000.000000      4.873810000000000E-01     -8.598633000000000E+00      5.180664000000000E-01      1.778125000000000E+02      5.545959000000000E-01     -2.557129000000000E+00      2.839966000000000E-01      1.158711000000000E+02
4879000000.000000      4.928131000000000E-01     -8.458496000000000E+00      5.167847000000000E-01      1.773750000000000E+02      5.560303000000000E-01     -2.669678000000000E+00      2.873840000000000E-01      1.162812000000000E+02
4880000000.000000      4.962921000000000E-01     -8.134277000000000E+00      5.186157000000000E-01      1.768594000000000E+02      5.542908000000000E-01     -2.748047000000000E+00      2.925415000000000E-01      1.162852000000000E+02
4881000000.000000      4.976196000000000E-01     -8.208496000000000E+00      5.185242000000000E-01      1.767422000000000E+02      5.538025000000000E-01     -2.770020000000000E+00      2.968903000000000E-01      1.168750000000000E+02
4882000000.000000      5.038452000000000E-01     -8.097168000000000E+00      5.207214000000000E-01      1.762812000000000E+02      5.552063000000000E-01     -2.715088000000000E+00      3.007813000000000E-01      1.168203000000000E+02
