! Network Analyzer HP8722D
! Hewlett-Packard
! Data name: Linha & Wilkinson
! Saver's name: Rodrigo Anjos
! Comments: Teste da utilização de aquisição
continua pelo VNA HP8722D
! Time and date: 8/5/2025 13:22
!              Frequency                     S11                                                   S21                                                   S12                                                   S22
# HZ  S  MA R 50
4800000000.000000      9.002380000000000E-01      1.155898000000000E+02      3.221893000000000E-01     -1.707266000000000E+02      2.582245000000000E-01     -8.623438000000000E+01      9.820862000000000E-01     -4.764453000000000E+01
4801000000.000000      8.985901000000000E-01      1.157148000000000E+02      3.221436000000000E-01     -1.707813000000000E+02      2.579346000000000E-01     -8.626171000000000E+01      9.777527000000000E-01     -4.780663000000000E+01
4802000000.000000      8.962402000000000E-01      1.159492000000000E+02      3.216400000000000E-01     -1.705547000000000E+02      2.584991000000000E-01     -8.592188000000000E+01      9.729004000000000E-01     -4.775391000000000E+01
4803000000.000000      8.920593000000000E-01      1.161719000000000E+02      3.232117000000000E-01     -1.704844000000000E+02      2.583008000000000E-01     -8.577734000000000E+01      9.674988000000000E-01     -4.791992000000000E+01
4804000000.000000      8.929443000000000E-01      1.166133000000000E+02      3.234253000000000E-01     -1.704766000000000E+02      2.585297000000000E-01     -8.576563000000000E+01      9.614868000000000E-01     -4.798047000000000E+01
4805000000.000000      8.927612000000000E-01      1.166250000000000E+02      3.230438000000000E-01     -1.703594000000000E+02      2.577820000000000E-01     -8.537109000000000E+01      9.557495000000000E-01     -4.796679000000000E+01
4806000000.000000      8.879700000000000E-01      1.169805000000000E+02      3.237915000000000E-01     -1.704219000000000E+02      2.572327000000000E-01     -8.515625000000000E+01      9.500427000000000E-01     -4.822070000000000E+01
4807000000.000000      8.900146000000000E-01      1.169805000000000E+02      3.250427000000000E-01     -1.705625000000000E+02      2.577057000000000E-01     -8.511719000000000E+01      9.451904000000000E-01     -4.814648000000000E+01
4808000000.000000      8.849792000000000E-01      1.173438000000000E+02      3.252563000000000E-01     -1.703750000000000E+02      2.578430000000000E-01     -8.482813000000000E+01      9.398499000000000E-01     -4.816992000000000E+01
4809000000.000000      8.830261000000000E-01      1.176641000000000E+02      3.250427000000000E-01     -1.705312000000000E+02      2.587738000000000E-01     -8.466797000000000E+01      9.345093000000000E-01     -4.825195000000000E+01
4810000000.000000      8.818970000000000E-01      1.179297000000000E+02      3.264313000000000E-01     -1.704062000000000E+02      2.577667000000000E-01     -8.438280000000000E+01      9.291687000000000E-01     -4.843359000000000E+01
4811000000.000000      8.786011000000000E-01      1.181016000000000E+02      3.269501000000000E-01     -1.704766000000000E+02      2.591248000000000E-01     -8.405077000000000E+01      9.243469000000000E-01     -4.833202000000000E+01
4812000000.000000      8.773499000000000E-01      1.183437000000000E+02      3.271027000000000E-01     -1.705859000000000E+02      2.582245000000000E-01     -8.387499000000000E+01      9.176941000000000E-01     -4.848437000000000E+01
4813000000.000000      8.753967000000000E-01      1.187734000000000E+02      3.276672000000000E-01     -1.705469000000000E+02      2.579803000000000E-01     -8.363281000000000E+01      9.134521000000000E-01     -4.855273000000000E+01
4814000000.000000      8.695374000000000E-01      1.188984000000000E+02      3.279877000000000E-01     -1.703750000000000E+02      2.580872000000000E-01     -8.345703000000000E+01      9.076843000000000E-01     -4.860352000000000E+01
4815000000.000000      8.654785000000000E-01      1.191445000000000E+02      3.288422000000000E-01     -1.705703000000000E+02      2.584991000000000E-01     -8.305079000000000E+01      9.016724000000000E-01     -4.859179000000000E+01
4816000000.000000      8.678284000000000E-01      1.194297000000000E+02      3.302307000000000E-01     -1.705781000000000E+02      2.589111000000000E-01     -8.284765000000000E+01      8.973389000000000E-01     -4.868945000000000E+01
4817000000.000000      8.616943000000000E-01      1.195976000000000E+02      3.300171000000000E-01     -1.707109000000000E+02      2.584534000000000E-01     -8.255077000000000E+01      8.901367000000000E-01     -4.874804000000000E+01
4818000000.000000      8.592834000000000E-01      1.197734000000000E+02      3.305206000000000E-01     -1.707187000000000E+02      2.585449000000000E-01     -8.214062000000000E+01      8.861084000000000E-01     -4.864062000000000E+01
4819000000.000000      8.576660000000000E-01      1.199766000000000E+02      3.313904000000000E-01     -1.707891000000000E+02      2.575073000000000E-01     -8.207031000000000E+01      8.802185000000000E-01     -4.894140000000000E+01
4820000000.000000      8.505859000000000E-01      1.202969000000000E+02      3.317413000000000E-01     -1.707734000000000E+02      2.583923000000000E-01     -8.158203000000000E+01      8.748169000000000E-01     -4.888281000000000E+01
4821000000.000000      8.505249000000000E-01      1.204492000000000E+02      3.334198000000000E-01     -1.709375000000000E+02      2.582855000000000E-01     -8.144531000000000E+01      8.702393000000000E-01     -4.896093000000000E+01
4822000000.000000      8.467407000000000E-01      1.204883000000000E+02      3.331909000000000E-01     -1.710859000000000E+02      2.571411000000000E-01     -8.115234000000000E+01      8.652039000000000E-01     -4.905859000000000E+01
4823000000.000000      8.413696000000000E-01      1.207148000000000E+02      3.345795000000000E-01     -1.712500000000000E+02      2.576599000000000E-01     -8.069921000000000E+01      8.592529000000000E-01     -4.916406000000000E+01
4824000000.000000      8.402100000000000E-01      1.208984000000000E+02      3.350983000000000E-01     -1.714922000000000E+02      2.579651000000000E-01     -8.038671000000000E+01      8.541870000000000E-01     -4.919726000000000E+01
4825000000.000000      8.342590000000000E-01      1.209570000000000E+02      3.346863000000000E-01     -1.715391000000000E+02      2.582245000000000E-01     -8.017578000000000E+01      8.504944000000000E-01     -4.926171000000000E+01
4826000000.000000      8.341675000000000E-01      1.211211000000000E+02      3.366394000000000E-01     -1.717187000000000E+02      2.575226000000000E-01     -7.987109000000000E+01      8.449097000000000E-01     -4.937695000000000E+01
4827000000.000000      8.293457000000000E-01      1.213633000000000E+02      3.368683000000000E-01     -1.717813000000000E+02      2.573395000000000E-01     -7.950781000000000E+01      8.401184000000000E-01     -4.933594000000000E+01
4828000000.000000      8.268433000000000E-01      1.215820000000000E+02      3.380890000000000E-01     -1.719375000000000E+02      2.571564000000000E-01     -7.919531000000000E+01      8.351135000000000E-01     -4.957226000000000E+01
4829000000.000000      8.174744000000000E-01      1.218945000000000E+02      3.373108000000000E-01     -1.720625000000000E+02      2.583771000000000E-01     -7.889062000000000E+01      8.334656000000000E-01     -4.954883000000000E+01
4830000000.000000      8.152161000000000E-01      1.217812000000000E+02      3.383484000000000E-01     -1.723047000000000E+02      2.577209000000000E-01     -7.851953000000000E+01      8.261414000000000E-01     -4.962304000000000E+01
4831000000.000000      8.102112000000000E-01      1.219844000000000E+02      3.381653000000000E-01     -1.725000000000000E+02      2.581329000000000E-01     -7.810547000000000E+01      8.224792000000000E-01     -4.967773000000000E+01
4832000000.000000      8.079529000000000E-01      1.219648000000000E+02      3.388977000000000E-01     -1.727422000000000E+02      2.578583000000000E-01     -7.773046000000000E+01      8.176270000000000E-01     -4.970117000000000E+01
4833000000.000000      8.008728000000000E-01      1.219765000000000E+02      3.393555000000000E-01     -1.729375000000000E+02      2.576447000000000E-01     -7.750000000000000E+01      8.133850000000000E-01     -4.983984000000000E+01
4834000000.000000      7.978821000000000E-01      1.221680000000000E+02      3.397217000000000E-01     -1.730781000000000E+02      2.579651000000000E-01     -7.711328000000000E+01      8.099365000000000E-01     -4.980078000000000E+01
4835000000.000000      7.913818000000000E-01      1.220898000000000E+02      3.394775000000000E-01     -1.733750000000000E+02      2.583618000000000E-01     -7.679296000000000E+01      8.049011000000000E-01     -4.996094000000000E+01
4836000000.000000      7.890320000000000E-01      1.223984000000000E+02      3.397369000000000E-01     -1.736250000000000E+02      2.585144000000000E-01     -7.642187000000000E+01      8.010254000000000E-01     -4.993750000000000E+01
4837000000.000000      7.823792000000000E-01      1.222969000000000E+02      3.401184000000000E-01     -1.740313000000000E+02      2.585907000000000E-01     -7.611718000000000E+01      7.976379000000000E-01     -5.000195000000000E+01
4838000000.000000      7.764587000000000E-01      1.222773000000000E+02      3.404846000000000E-01     -1.740625000000000E+02      2.590027000000000E-01     -7.573437000000000E+01      7.936401000000000E-01     -5.005273000000000E+01
4839000000.000000      7.736816000000000E-01      1.224023000000000E+02      3.394470000000000E-01     -1.741406000000000E+02      2.590637000000000E-01     -7.548828000000000E+01      7.890930000000000E-01     -5.019140000000000E+01
4840000000.000000      7.677612000000000E-01      1.224609000000000E+02      3.395233000000000E-01     -1.743828000000000E+02      2.597504000000000E-01     -7.513281000000000E+01      7.862854000000000E-01     -5.028710000000000E+01
4841000000.000000      7.630920000000000E-01      1.223828000000000E+02      3.400879000000000E-01     -1.748359000000000E+02      2.598419000000000E-01     -7.469921000000000E+01      7.830200000000000E-01     -5.028906000000000E+01
4842000000.000000      7.565308000000000E-01      1.223789000000000E+02      3.397827000000000E-01     -1.750313000000000E+02      2.596741000000000E-01     -7.451172000000000E+01      7.813110000000000E-01     -5.029491000000000E+01
4843000000.000000      7.529602000000000E-01      1.222187000000000E+02      3.399658000000000E-01     -1.752187000000000E+02      2.596741000000000E-01     -7.410937000000000E+01      7.761230000000000E-01     -5.037890000000000E+01
4844000000.000000      7.465820000000000E-01      1.223125000000000E+02      3.393402000000000E-01     -1.754297000000000E+02      2.599792000000000E-01     -7.372265000000000E+01      7.719116000000000E-01     -5.042969000000000E+01
4845000000.000000      7.393188000000000E-01      1.222031000000000E+02      3.390656000000000E-01     -1.756562000000000E+02      2.606964000000000E-01     -7.346484000000000E+01      7.688599000000000E-01     -5.048633000000000E+01
4846000000.000000      7.348938000000000E-01      1.222187000000000E+02      3.392944000000000E-01     -1.758672000000000E+02      2.613983000000000E-01     -7.309765000000000E+01      7.656555000000000E-01     -5.056054000000000E+01
4847000000.000000      7.279663000000000E-01      1.220976000000000E+02      3.385315000000000E-01     -1.762969000000000E+02      2.613525000000000E-01     -7.280859000000000E+01      7.632446000000000E-01     -5.077343000000000E+01
4848000000.000000      7.237854000000000E-01      1.219141000000000E+02      3.377991000000000E-01     -1.764375000000000E+02      2.612305000000000E-01     -7.242969000000000E+01      7.593689000000000E-01     -5.078711000000000E+01
4849000000.000000      7.153931000000000E-01      1.217539000000000E+02      3.371429000000000E-01     -1.767031000000000E+02      2.615814000000000E-01     -7.217187000000000E+01      7.557068000000000E-01     -5.071875000000000E+01
4850000000.000000      7.127991000000000E-01      1.217461000000000E+02      3.363800000000000E-01     -1.770078000000000E+02      2.619781000000000E-01     -7.188671000000000E+01      7.527771000000000E-01     -5.079102000000000E+01
4851000000.000000      7.053833000000000E-01      1.216211000000000E+02      3.363342000000000E-01     -1.771797000000000E+02      2.625885000000000E-01     -7.157421000000000E+01      7.507019000000000E-01     -5.093359000000000E+01
4852000000.000000      6.992493000000000E-01      1.214297000000000E+02      3.356628000000000E-01     -1.774531000000000E+02      2.630615000000000E-01     -7.125000000000000E+01      7.479248000000000E-01     -5.091797000000000E+01
4853000000.000000      6.931458000000000E-01      1.213047000000000E+02      3.335876000000000E-01     -1.777500000000000E+02      2.636871000000000E-01     -7.103906000000000E+01      7.444763000000000E-01     -5.112499000000000E+01
4854000000.000000      6.864624000000000E-01      1.209766000000000E+02      3.330841000000000E-01     -1.780625000000000E+02      2.634888000000000E-01     -7.074609000000000E+01      7.437439000000000E-01     -5.107616000000000E+01
4855000000.000000      6.825256000000000E-01      1.209141000000000E+02      3.327484000000000E-01     -1.782734000000000E+02      2.640381000000000E-01     -7.028125000000000E+01      7.380981000000000E-01     -5.112695000000000E+01
4856000000.000000      6.759644000000000E-01      1.207148000000000E+02      3.321075000000000E-01     -1.783984000000000E+02      2.642212000000000E-01     -7.019921000000000E+01      7.374268000000000E-01     -5.123047000000000E+01
4857000000.000000      6.681519000000000E-01      1.204805000000000E+02      3.311157000000000E-01     -1.785859000000000E+02      2.646790000000000E-01     -6.977344000000000E+01      7.334900000000000E-01     -5.125977000000000E+01
4858000000.000000      6.599426000000000E-01      1.200625000000000E+02      3.298645000000000E-01     -1.789063000000000E+02      2.647095000000000E-01     -6.966406000000000E+01      7.315674000000000E-01     -5.133789000000000E+01
4859000000.000000      6.562805000000000E-01      1.197656000000000E+02      3.291321000000000E-01     -1.791406000000000E+02      2.651367000000000E-01     -6.954296000000000E+01      7.304688000000000E-01     -5.140820000000000E+01
4860000000.000000      6.498718000000000E-01      1.197109000000000E+02      3.286743000000000E-01     -1.792812000000000E+02      2.653961000000000E-01     -6.902734000000000E+01      7.258301000000000E-01     -5.138866000000000E+01
4861000000.000000      6.429443000000000E-01      1.194570000000000E+02      3.270569000000000E-01     -1.796797000000000E+02      2.660522000000000E-01     -6.882813000000000E+01      7.238770000000000E-01     -5.143749000000000E+01
4862000000.000000      6.358643000000000E-01      1.190469000000000E+02      3.262939000000000E-01     -1.797344000000000E+02      2.662506000000000E-01     -6.878906000000000E+01      7.225647000000000E-01     -5.158008000000000E+01
4863000000.000000      6.293640000000000E-01      1.186953000000000E+02      3.234558000000000E-01      1.799062000000000E+02      2.669525000000000E-01     -6.838672000000000E+01      7.207642000000000E-01     -5.158593000000000E+01
4864000000.000000      6.231689000000000E-01      1.185000000000000E+02      3.242645000000000E-01      1.797734000000000E+02      2.664642000000000E-01     -6.820313000000000E+01      7.171021000000000E-01     -5.166210000000000E+01
4865000000.000000      6.163330000000000E-01      1.179609000000000E+02      3.222351000000000E-01      1.797812000000000E+02      2.674408000000000E-01     -6.811718000000000E+01      7.167053000000000E-01     -5.161523000000000E+01
4866000000.000000      6.124573000000000E-01      1.177422000000000E+02      3.209076000000000E-01      1.795078000000000E+02      2.671509000000000E-01     -6.802343000000000E+01      7.138367000000000E-01     -5.165039000000000E+01
4867000000.000000      6.049500000000000E-01      1.173789000000000E+02      3.202209000000000E-01      1.792266000000000E+02      2.670288000000000E-01     -6.775781000000000E+01      7.121582000000000E-01     -5.170507000000000E+01
4868000000.000000      5.997009000000000E-01      1.170469000000000E+02      3.189240000000000E-01      1.790781000000000E+02      2.682190000000000E-01     -6.760156000000000E+01      7.086182000000000E-01     -5.167578000000000E+01
4869000000.000000      5.917358000000000E-01      1.167969000000000E+02      3.167419000000000E-01      1.790469000000000E+02      2.684174000000000E-01     -6.748437000000000E+01      7.071838000000000E-01     -5.190820000000000E+01
4870000000.000000      5.880432000000000E-01      1.161992000000000E+02      3.166504000000000E-01      1.789609000000000E+02      2.685852000000000E-01     -6.733203000000000E+01      7.058105000000000E-01     -5.175390000000000E+01
4871000000.000000      5.823059000000000E-01      1.158437000000000E+02      3.151703000000000E-01      1.786328000000000E+02      2.684937000000000E-01     -6.716015000000000E+01      7.023926000000000E-01     -5.194336000000000E+01
4872000000.000000      5.771484000000000E-01      1.153125000000000E+02      3.137970000000000E-01      1.787578000000000E+02      2.688904000000000E-01     -6.720312000000000E+01      7.017822000000000E-01     -5.180469000000000E+01
4873000000.000000      5.722046000000000E-01      1.150312000000000E+02      3.131256000000000E-01      1.783359000000000E+02      2.685089000000000E-01     -6.698437000000000E+01      6.968384000000000E-01     -5.196679000000000E+01
4874000000.000000      5.654602000000000E-01      1.144531000000000E+02      3.105927000000000E-01      1.783516000000000E+02      2.695770000000000E-01     -6.696484000000000E+01      6.953125000000000E-01     -5.178320000000000E+01
4875000000.000000      5.598755000000000E-01      1.140351000000000E+02      3.104248000000000E-01      1.781797000000000E+02      2.699280000000000E-01     -6.679296000000000E+01      6.935730000000000E-01     -5.190430000000000E+01
4876000000.000000      5.564575000000000E-01      1.136641000000000E+02      3.096771000000000E-01      1.780156000000000E+02      2.696838000000000E-01     -6.674999000000000E+01      6.924133000000000E-01     -5.209179000000000E+01
4877000000.000000      5.508118000000000E-01      1.128281000000000E+02      3.079376000000000E-01      1.780703000000000E+02      2.696686000000000E-01     -6.667578000000000E+01      6.898804000000000E-01     -5.201953000000000E+01
4878000000.000000      5.444946000000000E-01      1.124023000000000E+02      3.073578000000000E-01      1.778672000000000E+02      2.699738000000000E-01     -6.649219000000000E+01      6.885376000000000E-01     -5.203711000000000E+01
4879000000.000000      5.429077000000000E-01      1.118945000000000E+02      3.050842000000000E-01      1.777422000000000E+02      2.692871000000000E-01     -6.657421000000000E+01      6.855469000000000E-01     -5.198828000000000E+01
4880000000.000000      5.349731000000000E-01      1.113633000000000E+02      3.043976000000000E-01      1.776484000000000E+02      2.698517000000000E-01     -6.640234000000000E+01      6.836548000000000E-01     -5.189843000000000E+01
4881000000.000000      5.311890000000000E-01      1.108320000000000E+02      3.038330000000000E-01      1.776250000000000E+02      2.698975000000000E-01     -6.651172000000000E+01      6.822815000000000E-01     -5.191211000000000E+01
4882000000.000000      5.275879000000000E-01      1.102344000000000E+02      3.023834000000000E-01      1.774844000000000E+02      2.695465000000000E-01     -6.648046000000000E+01      6.806641000000000E-01     -5.181250000000000E+01
