! Network Analyzer HP8722D
! Hewlett-Packard
! Data name: Linha & Wilkinson
! Saver's name: Rodrigo Anjos
! Comments: Teste da utilização de aquisição
continua pelo VNA HP8722D
! Time and date: 8/5/2025 14:02
!              Frequency                     S11                                                   S21                                                   S12                                                   S22
# HZ  S  MA R 50
4800000000.000000      5.377808000000000E-01     -2.544336000000000E+01      3.620453000000000E-01     -1.484141000000000E+02      3.795776000000000E-01      1.095313000000000E+01      5.041504000000000E-01      1.470764000000000E+00
4801000000.000000      5.357361000000000E-01     -2.518261000000000E+01      3.654633000000000E-01     -1.487187000000000E+02      3.831024000000000E-01      1.061279000000000E+01      4.996033000000000E-01      1.452942000000000E+00
4802000000.000000      5.367126000000000E-01     -2.477344000000000E+01      3.693848000000000E-01     -1.491094000000000E+02      3.862762000000000E-01      1.065918000000000E+01      4.958801000000000E-01      1.808594000000000E+00
4803000000.000000      5.345459000000000E-01     -2.454297000000000E+01      3.749390000000000E-01     -1.493750000000000E+02      3.897095000000000E-01      1.067432000000000E+01      4.891357000000000E-01      1.680908000000000E+00
4804000000.000000      5.328064000000000E-01     -2.425000000000000E+01      3.774414000000000E-01     -1.498281000000000E+02      3.958282000000000E-01      1.024463000000000E+01      4.828949000000000E-01      1.781128000000000E+00
4805000000.000000      5.344238000000000E-01     -2.418554000000000E+01      3.820953000000000E-01     -1.502891000000000E+02      3.978729000000000E-01      1.021143000000000E+01      4.751892000000000E-01      1.744080000000000E+00
4806000000.000000      5.288391000000000E-01     -2.390527000000000E+01      3.856506000000000E-01     -1.507187000000000E+02      4.011841000000000E-01      1.030078000000000E+01      4.681396000000000E-01      1.965149000000000E+00
4807000000.000000      5.291748000000000E-01     -2.355664000000000E+01      3.892670000000000E-01     -1.511953000000000E+02      4.065552000000000E-01      9.621094000000000E+00      4.620361000000000E-01      2.202759000000000E+00
4808000000.000000      5.260925000000000E-01     -2.328223000000000E+01      3.934021000000000E-01     -1.513906000000000E+02      4.080963000000000E-01      9.763672000000000E+00      4.549255000000000E-01      2.344116000000000E+00
4809000000.000000      5.273132000000000E-01     -2.307324000000000E+01      3.977509000000000E-01     -1.520313000000000E+02      4.142303000000000E-01      9.558105000000000E+00      4.475403000000000E-01      2.464966000000000E+00
4810000000.000000      5.259094000000000E-01     -2.295410000000000E+01      4.015656000000000E-01     -1.523750000000000E+02      4.179688000000000E-01      9.437012000000000E+00      4.407959000000000E-01      2.406006000000000E+00
4811000000.000000      5.248413000000000E-01     -2.291699000000000E+01      4.055786000000000E-01     -1.528672000000000E+02      4.214325000000000E-01      9.379395000000000E+00      4.332428000000000E-01      2.849487000000000E+00
4812000000.000000      5.259705000000000E-01     -2.233203000000000E+01      4.086914000000000E-01     -1.533516000000000E+02      4.245605000000000E-01      9.105957000000000E+00      4.257660000000000E-01      2.752075000000000E+00
4813000000.000000      5.241089000000000E-01     -2.216406000000000E+01      4.122620000000000E-01     -1.537188000000000E+02      4.290466000000000E-01      9.075684000000000E+00      4.184265000000000E-01      3.179077000000000E+00
4814000000.000000      5.204468000000000E-01     -2.219433000000000E+01      4.160614000000000E-01     -1.542031000000000E+02      4.324951000000000E-01      8.868652000000000E+00      4.093323000000000E-01      3.316406000000000E+00
4815000000.000000      5.197144000000000E-01     -2.194726000000000E+01      4.181519000000000E-01     -1.545625000000000E+02      4.359589000000000E-01      8.875488000000000E+00      4.020233000000000E-01      3.559570000000000E+00
4816000000.000000      5.186768000000000E-01     -2.176074000000000E+01      4.224854000000000E-01     -1.550156000000000E+02      4.398041000000000E-01      8.825684000000000E+00      3.950500000000000E-01      3.760010000000000E+00
4817000000.000000      5.176392000000000E-01     -2.157910000000000E+01      4.255676000000000E-01     -1.555859000000000E+02      4.425964000000000E-01      8.412598000000000E+00      3.842163000000000E-01      4.136230000000000E+00
4818000000.000000      5.126648000000000E-01     -2.143164000000000E+01      4.282379000000000E-01     -1.559375000000000E+02      4.465942000000000E-01      8.189941000000000E+00      3.756714000000000E-01      4.366943000000000E+00
4819000000.000000      5.127869000000000E-01     -2.112597000000000E+01      4.316559000000000E-01     -1.564297000000000E+02      4.508972000000000E-01      8.198242000000000E+00      3.661957000000000E-01      4.493408000000000E+00
4820000000.000000      5.086975000000000E-01     -2.081933000000000E+01      4.347534000000000E-01     -1.567266000000000E+02      4.525757000000000E-01      8.062500000000000E+00      3.582153000000000E-01      5.028809000000000E+00
4821000000.000000      5.108032000000000E-01     -2.087305000000000E+01      4.377747000000000E-01     -1.574453000000000E+02      4.553833000000000E-01      7.954102000000000E+00      3.489075000000000E-01      5.487549000000000E+00
4822000000.000000      5.094604000000000E-01     -2.086035000000000E+01      4.392853000000000E-01     -1.577734000000000E+02      4.576569000000000E-01      7.598389000000000E+00      3.404846000000000E-01      5.714111000000000E+00
4823000000.000000      5.070801000000000E-01     -2.052734000000000E+01      4.433441000000000E-01     -1.583047000000000E+02      4.617767000000000E-01      7.544678000000000E+00      3.311157000000000E-01      6.025879000000000E+00
4824000000.000000      5.045776000000000E-01     -2.046387000000000E+01      4.451904000000000E-01     -1.588125000000000E+02      4.649048000000000E-01      7.554443000000000E+00      3.211517000000000E-01      6.455811000000000E+00
4825000000.000000      5.043640000000000E-01     -2.027344000000000E+01      4.472809000000000E-01     -1.591719000000000E+02      4.690247000000000E-01      7.401855000000000E+00      3.139191000000000E-01      7.046143000000000E+00
4826000000.000000      5.028992000000000E-01     -2.025000000000000E+01      4.508362000000000E-01     -1.598906000000000E+02      4.719238000000000E-01      6.933594000000000E+00      3.032227000000000E-01      7.627197000000000E+00
4827000000.000000      5.000610000000000E-01     -1.981836000000000E+01      4.535522000000000E-01     -1.600078000000000E+02      4.753113000000000E-01      6.950195000000000E+00      2.945862000000000E-01      8.170898000000000E+00
4828000000.000000      4.982758000000000E-01     -1.974121000000000E+01      4.563141000000000E-01     -1.605781000000000E+02      4.777985000000000E-01      6.829346000000000E+00      2.847595000000000E-01      8.733887000000000E+00
4829000000.000000      4.946442000000000E-01     -1.974609000000000E+01      4.585724000000000E-01     -1.610937000000000E+02      4.819946000000000E-01      6.838867000000000E+00      2.769775000000000E-01      9.636230000000000E+00
4830000000.000000      4.950256000000000E-01     -1.961523000000000E+01      4.603577000000000E-01     -1.616016000000000E+02      4.844513000000000E-01      6.590332000000000E+00      2.655792000000000E-01      1.041602000000000E+01
4831000000.000000      4.945374000000000E-01     -1.938867000000000E+01      4.625092000000000E-01     -1.620937000000000E+02      4.883881000000000E-01      6.485840000000000E+00      2.566833000000000E-01      1.121143000000000E+01
4832000000.000000      4.929657000000000E-01     -1.921191000000000E+01      4.644470000000000E-01     -1.624219000000000E+02      4.895325000000000E-01      6.406250000000000E+00      2.463837000000000E-01      1.255713000000000E+01
4833000000.000000      4.916077000000000E-01     -1.910254000000000E+01      4.659271000000000E-01     -1.627969000000000E+02      4.934845000000000E-01      6.262207000000000E+00      2.366562000000000E-01      1.345508000000000E+01
4834000000.000000      4.869385000000000E-01     -1.900586000000000E+01      4.679718000000000E-01     -1.633437000000000E+02      4.962158000000000E-01      6.046387000000000E+00      2.283249000000000E-01      1.479004000000000E+01
4835000000.000000      4.875183000000000E-01     -1.877930000000000E+01      4.703827000000000E-01     -1.638906000000000E+02      4.996796000000000E-01      5.899658000000000E+00      2.188721000000000E-01      1.596289000000000E+01
4836000000.000000      4.849243000000000E-01     -1.850390000000000E+01      4.712524000000000E-01     -1.642031000000000E+02      5.007324000000000E-01      5.928467000000000E+00      2.096024000000000E-01      1.756640000000000E+01
4837000000.000000      4.847107000000000E-01     -1.864746000000000E+01      4.725342000000000E-01     -1.648203000000000E+02      5.038147000000000E-01      5.423096000000000E+00      2.005463000000000E-01      1.929394000000000E+01
4838000000.000000      4.822540000000000E-01     -1.846191000000000E+01      4.755096000000000E-01     -1.650078000000000E+02      5.068970000000000E-01      5.370850000000000E+00      1.924362000000000E-01      2.121582000000000E+01
4839000000.000000      4.824371000000000E-01     -1.790039000000000E+01      4.765472000000000E-01     -1.654531000000000E+02      5.094299000000000E-01      5.196533000000000E+00      1.852951000000000E-01      2.280762000000000E+01
4840000000.000000      4.803925000000000E-01     -1.792871000000000E+01      4.782104000000000E-01     -1.659609000000000E+02      5.110779000000000E-01      4.976807000000000E+00      1.764832000000000E-01      2.504004000000000E+01
4841000000.000000      4.757843000000000E-01     -1.759375000000000E+01      4.800720000000000E-01     -1.664844000000000E+02      5.141296000000000E-01      4.872314000000000E+00      1.687851000000000E-01      2.775488000000000E+01
4842000000.000000      4.768829000000000E-01     -1.757617000000000E+01      4.805603000000000E-01     -1.667969000000000E+02      5.151062000000000E-01      4.791260000000000E+00      1.618500000000000E-01      3.077246000000000E+01
4843000000.000000      4.759827000000000E-01     -1.742578000000000E+01      4.831238000000000E-01     -1.673750000000000E+02      5.198364000000000E-01      4.659424000000000E+00      1.541290000000000E-01      3.365625000000000E+01
4844000000.000000      4.732513000000000E-01     -1.748535000000000E+01      4.828339000000000E-01     -1.677109000000000E+02      5.207520000000000E-01      4.465820000000000E+00      1.464767000000000E-01      3.692773000000000E+01
4845000000.000000      4.717255000000000E-01     -1.679980000000000E+01      4.846039000000000E-01     -1.680938000000000E+02      5.230103000000000E-01      4.373779000000000E+00      1.425400000000000E-01      4.024414000000000E+01
4846000000.000000      4.723511000000000E-01     -1.684082000000000E+01      4.860687000000000E-01     -1.685390000000000E+02      5.258179000000000E-01      4.133545000000000E+00      1.375122000000000E-01      4.404882000000000E+01
4847000000.000000      4.688568000000000E-01     -1.655371000000000E+01      4.873199000000000E-01     -1.688281000000000E+02      5.286865000000000E-01      3.868530000000000E+00      1.321182000000000E-01      4.854297000000000E+01
4848000000.000000      4.680786000000000E-01     -1.625098000000000E+01      4.865112000000000E-01     -1.692266000000000E+02      5.300903000000000E-01      3.795776000000000E+00      1.298370000000000E-01      5.268749000000000E+01
4849000000.000000      4.678497000000000E-01     -1.600098000000000E+01      4.893341000000000E-01     -1.697422000000000E+02      5.324097000000000E-01      3.621338000000000E+00      1.269913000000000E-01      5.727148000000000E+01
4850000000.000000      4.645233000000000E-01     -1.585205000000000E+01      4.897156000000000E-01     -1.700625000000000E+02      5.339966000000000E-01      3.291748000000000E+00      1.263428000000000E-01      6.215820000000000E+01
4851000000.000000      4.657898000000000E-01     -1.534424000000000E+01      4.913788000000000E-01     -1.704922000000000E+02      5.344238000000000E-01      3.132446000000000E+00      1.258163000000000E-01      6.657421000000000E+01
4852000000.000000      4.626617000000000E-01     -1.523828000000000E+01      4.920197000000000E-01     -1.708437000000000E+02      5.361633000000000E-01      3.218994000000000E+00      1.261597000000000E-01      7.088281000000000E+01
4853000000.000000      4.626770000000000E-01     -1.528076000000000E+01      4.915314000000000E-01     -1.711719000000000E+02      5.388794000000000E-01      2.801514000000000E+00      1.273804000000000E-01      7.544531000000000E+01
4854000000.000000      4.627838000000000E-01     -1.475195000000000E+01      4.938660000000000E-01     -1.716797000000000E+02      5.396729000000000E-01      2.800049000000000E+00      1.300735000000000E-01      7.969531000000000E+01
4855000000.000000      4.618530000000000E-01     -1.457227000000000E+01      4.944305000000000E-01     -1.719844000000000E+02      5.423584000000000E-01      2.427979000000000E+00      1.325150000000000E-01      8.430079000000000E+01
4856000000.000000      4.631500000000000E-01     -1.447607000000000E+01      4.946442000000000E-01     -1.723125000000000E+02      5.418701000000000E-01      2.388062000000000E+00      1.367188000000000E-01      8.787500000000000E+01
4857000000.000000      4.607239000000000E-01     -1.415479000000000E+01      4.970856000000000E-01     -1.725469000000000E+02      5.432434000000000E-01      2.289185000000000E+00      1.400375000000000E-01      9.142578000000000E+01
4858000000.000000      4.607086000000000E-01     -1.358203000000000E+01      4.974518000000000E-01     -1.729141000000000E+02      5.447693000000000E-01      2.102417000000000E+00      1.453018000000000E-01      9.456640000000000E+01
4859000000.000000      4.608002000000000E-01     -1.359326000000000E+01      4.979095000000000E-01     -1.733828000000000E+02      5.454102000000000E-01      1.941833000000000E+00      1.503830000000000E-01      9.762499000000000E+01
4860000000.000000      4.608459000000000E-01     -1.316064000000000E+01      4.990997000000000E-01     -1.735547000000000E+02      5.463257000000000E-01      1.744080000000000E+00      1.563721000000000E-01      1.003164000000000E+02
4861000000.000000      4.604187000000000E-01     -1.275928000000000E+01      4.994965000000000E-01     -1.739687000000000E+02      5.490417000000000E-01      1.608093000000000E+00      1.621246000000000E-01      1.031172000000000E+02
4862000000.000000      4.622955000000000E-01     -1.261230000000000E+01      5.016479000000000E-01     -1.743047000000000E+02      5.499573000000000E-01      1.653442000000000E+00      1.675644000000000E-01      1.051641000000000E+02
4863000000.000000      4.620819000000000E-01     -1.223486000000000E+01      4.996185000000000E-01     -1.748203000000000E+02      5.496216000000000E-01      1.373291000000000E+00      1.756287000000000E-01      1.065742000000000E+02
4864000000.000000      4.635315000000000E-01     -1.193115000000000E+01      5.025940000000000E-01     -1.750937000000000E+02      5.505676000000000E-01      1.244202000000000E+00      1.812973000000000E-01      1.085273000000000E+02
4865000000.000000      4.644928000000000E-01     -1.171045000000000E+01      5.025635000000000E-01     -1.752969000000000E+02      5.488281000000000E-01      1.312866000000000E+00      1.872025000000000E-01      1.100352000000000E+02
4866000000.000000      4.639587000000000E-01     -1.132422000000000E+01      5.028687000000000E-01     -1.756953000000000E+02      5.509338000000000E-01      9.420776000000000E-01      1.942291000000000E-01      1.113555000000000E+02
4867000000.000000      4.662323000000000E-01     -1.108008000000000E+01      5.027771000000000E-01     -1.761484000000000E+02      5.510254000000000E-01      8.857727000000000E-01      1.995010000000000E-01      1.128516000000000E+02
4868000000.000000      4.673004000000000E-01     -1.075977000000000E+01      5.052795000000000E-01     -1.764766000000000E+02      5.513611000000000E-01      6.440735000000000E-01      2.065277000000000E-01      1.138672000000000E+02
4869000000.000000      4.687653000000000E-01     -1.039600000000000E+01      5.057983000000000E-01     -1.768359000000000E+02      5.515442000000000E-01      6.083679000000000E-01      2.133713000000000E-01      1.148242000000000E+02
4870000000.000000      4.722900000000000E-01     -1.023242000000000E+01      5.072021000000000E-01     -1.770234000000000E+02      5.506592000000000E-01      5.108643000000000E-01      2.191849000000000E-01      1.157265000000000E+02
4871000000.000000      4.727478000000000E-01     -1.025195000000000E+01      5.075073000000000E-01     -1.776250000000000E+02      5.510559000000000E-01      3.900146000000000E-01      2.255859000000000E-01      1.165508000000000E+02
4872000000.000000      4.771729000000000E-01     -9.955078000000000E+00      5.080566000000000E-01     -1.778359000000000E+02      5.507202000000000E-01      1.908875000000000E-01      2.339554000000000E-01      1.170508000000000E+02
4873000000.000000      4.782867000000000E-01     -9.456543000000000E+00      5.075073000000000E-01     -1.784531000000000E+02      5.512695000000000E-01      2.005005000000000E-01      2.381821000000000E-01      1.179531000000000E+02
4874000000.000000      4.784393000000000E-01     -9.210938000000000E+00      5.098267000000000E-01     -1.786641000000000E+02      5.540771000000000E-01      4.394531000000000E-02      2.434235000000000E-01      1.183359000000000E+02
4875000000.000000      4.826202000000000E-01     -9.110840000000000E+00      5.105896000000000E-01     -1.789375000000000E+02      5.514832000000000E-01      1.675415000000000E-01      2.490005000000000E-01      1.191953000000000E+02
4876000000.000000      4.837646000000000E-01     -8.826172000000000E+00      5.119324000000000E-01     -1.794453000000000E+02      5.533447000000000E-01      6.591797000000000E-02      2.552338000000000E-01      1.197109000000000E+02
4877000000.000000      4.892578000000000E-01     -8.862305000000000E+00      5.131226000000000E-01     -1.797734000000000E+02      5.502930000000000E-01     -1.400757000000000E-01      2.615967000000000E-01      1.199883000000000E+02
4878000000.000000      4.873047000000000E-01     -8.555664000000000E+00      5.138550000000000E-01      1.799766000000000E+02      5.510864000000000E-01     -6.317139000000000E-02      2.644806000000000E-01      1.199961000000000E+02
4879000000.000000      4.934540000000000E-01     -8.455566000000000E+00      5.131226000000000E-01      1.795625000000000E+02      5.507813000000000E-01     -2.540588000000000E-01      2.699432000000000E-01      1.207891000000000E+02
4880000000.000000      4.980164000000000E-01     -8.182129000000000E+00      5.151062000000000E-01      1.792031000000000E+02      5.507507000000000E-01     -2.609253000000000E-01      2.765808000000000E-01      1.209414000000000E+02
4881000000.000000      4.991455000000000E-01     -7.972168000000000E+00      5.163879000000000E-01      1.787734000000000E+02      5.499268000000000E-01     -3.240967000000000E-01      2.808075000000000E-01      1.211055000000000E+02
4882000000.000000      5.024109000000000E-01     -7.768799000000000E+00      5.176392000000000E-01      1.783203000000000E+02      5.505981000000000E-01     -3.872681000000000E-01      2.859039000000000E-01      1.215977000000000E+02
