! Network Analyzer HP8722D
! Hewlett-Packard
! Data name: Linha & Wilkinson
! Saver's name: Rodrigo Anjos
! Comments: Teste da utilização de aquisição
continua pelo VNA HP8722D
! Time and date: 8/5/2025 15:23
!              Frequency                     S11                                                   S21                                                   S12                                                   S22
# HZ  S  MA R 50
4800000000.000000      5.278625000000000E-01     -2.525976000000000E+01      3.712006000000000E-01     -1.503359000000000E+02      3.903046000000000E-01      8.836914000000000E+00      4.966888000000000E-01      1.062927000000000E+00
4801000000.000000      5.264587000000000E-01     -2.464453000000000E+01      3.766937000000000E-01     -1.507578000000000E+02      3.938904000000000E-01      8.708008000000000E+00      4.940033000000000E-01      1.058777000000000E+00
4802000000.000000      5.260010000000000E-01     -2.456836000000000E+01      3.804016000000000E-01     -1.509375000000000E+02      3.984070000000000E-01      8.567871000000000E+00      4.894714000000000E-01      1.479004000000000E+00
4803000000.000000      5.256958000000000E-01     -2.429980000000000E+01      3.858948000000000E-01     -1.516172000000000E+02      4.025116000000000E-01      8.548340000000000E+00      4.820709000000000E-01      1.399353000000000E+00
4804000000.000000      5.232544000000000E-01     -2.386035000000000E+01      3.896332000000000E-01     -1.519219000000000E+02      4.060364000000000E-01      8.438477000000000E+00      4.749603000000000E-01      1.428223000000000E+00
4805000000.000000      5.245056000000000E-01     -2.365039000000000E+01      3.925171000000000E-01     -1.522500000000000E+02      4.104156000000000E-01      8.304199000000000E+00      4.690094000000000E-01      1.454285000000000E+00
4806000000.000000      5.238342000000000E-01     -2.315136000000000E+01      3.964081000000000E-01     -1.526875000000000E+02      4.140625000000000E-01      8.189941000000000E+00      4.607544000000000E-01      1.653442000000000E+00
4807000000.000000      5.209351000000000E-01     -2.322558000000000E+01      4.012146000000000E-01     -1.532109000000000E+02      4.171600000000000E-01      7.892090000000000E+00      4.532166000000000E-01      1.929443000000000E+00
4808000000.000000      5.198975000000000E-01     -2.290722000000000E+01      4.036865000000000E-01     -1.533203000000000E+02      4.207611000000000E-01      7.774170000000000E+00      4.472351000000000E-01      2.036499000000000E+00
4809000000.000000      5.165100000000000E-01     -2.261621000000000E+01      4.088440000000000E-01     -1.540781000000000E+02      4.247894000000000E-01      7.616211000000000E+00      4.400635000000000E-01      2.326294000000000E+00
4810000000.000000      5.180969000000000E-01     -2.258105000000000E+01      4.121246000000000E-01     -1.543828000000000E+02      4.299774000000000E-01      7.416992000000000E+00      4.327850000000000E-01      2.227417000000000E+00
4811000000.000000      5.172729000000000E-01     -2.217871000000000E+01      4.169159000000000E-01     -1.549453000000000E+02      4.333954000000000E-01      7.500732000000000E+00      4.249115000000000E-01      2.730103000000000E+00
4812000000.000000      5.163269000000000E-01     -2.208008000000000E+01      4.185333000000000E-01     -1.551953000000000E+02      4.358215000000000E-01      7.187744000000000E+00      4.169617000000000E-01      2.725952000000000E+00
4813000000.000000      5.154724000000000E-01     -2.182715000000000E+01      4.211731000000000E-01     -1.557812000000000E+02      4.389038000000000E-01      7.093018000000000E+00      4.098053000000000E-01      3.273926000000000E+00
4814000000.000000      5.134583000000000E-01     -2.188965000000000E+01      4.257507000000000E-01     -1.563594000000000E+02      4.431458000000000E-01      6.896484000000000E+00      4.015656000000000E-01      3.359009000000000E+00
4815000000.000000      5.119629000000000E-01     -2.147070000000000E+01      4.278564000000000E-01     -1.567266000000000E+02      4.458160000000000E-01      6.803223000000000E+00      3.932495000000000E-01      3.732544000000000E+00
4816000000.000000      5.100098000000000E-01     -2.103516000000000E+01      4.314728000000000E-01     -1.569141000000000E+02      4.507751000000000E-01      6.843018000000000E+00      3.860168000000000E-01      3.942627000000000E+00
4817000000.000000      5.093079000000000E-01     -2.108887000000000E+01      4.349518000000000E-01     -1.574844000000000E+02      4.531403000000000E-01      6.488770000000000E+00      3.757629000000000E-01      4.406738000000000E+00
4818000000.000000      5.067139000000000E-01     -2.101074000000000E+01      4.375000000000000E-01     -1.580547000000000E+02      4.581451000000000E-01      6.159180000000000E+00      3.667145000000000E-01      4.869629000000000E+00
4819000000.000000      5.067444000000000E-01     -2.063379000000000E+01      4.407501000000000E-01     -1.584766000000000E+02      4.608612000000000E-01      6.192139000000000E+00      3.577271000000000E-01      4.979492000000000E+00
4820000000.000000      5.029297000000000E-01     -2.056641000000000E+01      4.441223000000000E-01     -1.586641000000000E+02      4.637756000000000E-01      6.035400000000000E+00      3.490601000000000E-01      5.568604000000000E+00
4821000000.000000      5.032349000000000E-01     -2.041602000000000E+01      4.471283000000000E-01     -1.594453000000000E+02      4.669495000000000E-01      5.907715000000000E+00      3.406219000000000E-01      6.153564000000000E+00
4822000000.000000      4.995575000000000E-01     -2.025781000000000E+01      4.479523000000000E-01     -1.597344000000000E+02      4.694214000000000E-01      5.752686000000000E+00      3.321228000000000E-01      6.414551000000000E+00
4823000000.000000      4.999695000000000E-01     -2.018945000000000E+01      4.512329000000000E-01     -1.604141000000000E+02      4.732208000000000E-01      5.753906000000000E+00      3.219604000000000E-01      6.913086000000000E+00
4824000000.000000      4.975586000000000E-01     -2.009570000000000E+01      4.553986000000000E-01     -1.607734000000000E+02      4.763794000000000E-01      5.362549000000000E+00      3.127747000000000E-01      7.412842000000000E+00
4825000000.000000      4.983368000000000E-01     -1.990039000000000E+01      4.556885000000000E-01     -1.613047000000000E+02      4.824677000000000E-01      5.262451000000000E+00      3.052063000000000E-01      8.246582000000000E+00
4826000000.000000      4.953613000000000E-01     -1.959570000000000E+01      4.601746000000000E-01     -1.618906000000000E+02      4.832916000000000E-01      5.034424000000000E+00      2.946472000000000E-01      8.875488000000000E+00
4827000000.000000      4.950867000000000E-01     -1.947754000000000E+01      4.614563000000000E-01     -1.620547000000000E+02      4.852142000000000E-01      5.061768000000000E+00      2.861023000000000E-01      9.534668000000000E+00
4828000000.000000      4.937744000000000E-01     -1.928125000000000E+01      4.647980000000000E-01     -1.625078000000000E+02      4.887695000000000E-01      4.956055000000000E+00      2.764435000000000E-01      1.025977000000000E+01
4829000000.000000      4.895782000000000E-01     -1.936230000000000E+01      4.664459000000000E-01     -1.631016000000000E+02      4.928284000000000E-01      4.706055000000000E+00      2.691803000000000E-01      1.148340000000000E+01
4830000000.000000      4.896393000000000E-01     -1.922754000000000E+01      4.673920000000000E-01     -1.634297000000000E+02      4.941559000000000E-01      4.626465000000000E+00      2.575531000000000E-01      1.245557000000000E+01
4831000000.000000      4.888306000000000E-01     -1.914258000000000E+01      4.703674000000000E-01     -1.640547000000000E+02      4.983063000000000E-01      4.464355000000000E+00      2.487946000000000E-01      1.335791000000000E+01
4832000000.000000      4.854126000000000E-01     -1.880078000000000E+01      4.716644000000000E-01     -1.642187000000000E+02      5.004272000000000E-01      4.237793000000000E+00      2.393951000000000E-01      1.497021000000000E+01
4833000000.000000      4.832916000000000E-01     -1.877734000000000E+01      4.739075000000000E-01     -1.646719000000000E+02      5.041199000000000E-01      4.182861000000000E+00      2.300949000000000E-01      1.610449000000000E+01
4834000000.000000      4.811859000000000E-01     -1.850000000000000E+01      4.757690000000000E-01     -1.654219000000000E+02      5.073853000000000E-01      3.724365000000000E+00      2.222900000000000E-01      1.778320000000000E+01
4835000000.000000      4.804993000000000E-01     -1.845605000000000E+01      4.774475000000000E-01     -1.658437000000000E+02      5.092468000000000E-01      3.669434000000000E+00      2.136917000000000E-01      1.914844000000000E+01
4836000000.000000      4.798279000000000E-01     -1.831836000000000E+01      4.786835000000000E-01     -1.662344000000000E+02      5.106812000000000E-01      3.733887000000000E+00      2.048340000000000E-01      2.104394000000000E+01
4837000000.000000      4.775543000000000E-01     -1.795605000000000E+01      4.788208000000000E-01     -1.668203000000000E+02      5.122375000000000E-01      3.490845000000000E+00      1.971512000000000E-01      2.319726000000000E+01
4838000000.000000      4.758911000000000E-01     -1.806738000000000E+01      4.828186000000000E-01     -1.669297000000000E+02      5.150757000000000E-01      3.368652000000000E+00      1.885223000000000E-01      2.512890000000000E+01
4839000000.000000      4.760742000000000E-01     -1.755078000000000E+01      4.826050000000000E-01     -1.673984000000000E+02      5.192566000000000E-01      3.220337000000000E+00      1.824112000000000E-01      2.717382000000000E+01
4840000000.000000      4.730072000000000E-01     -1.781641000000000E+01      4.850311000000000E-01     -1.679297000000000E+02      5.212402000000000E-01      3.019775000000000E+00      1.743851000000000E-01      2.994824000000000E+01
4841000000.000000      4.709167000000000E-01     -1.745605000000000E+01      4.868927000000000E-01     -1.682500000000000E+02      5.232239000000000E-01      2.841309000000000E+00      1.689987000000000E-01      3.283984000000000E+01
4842000000.000000      4.698486000000000E-01     -1.710058000000000E+01      4.874115000000000E-01     -1.688125000000000E+02      5.249329000000000E-01      2.724609000000000E+00      1.624985000000000E-01      3.591601000000000E+01
4843000000.000000      4.690094000000000E-01     -1.688769000000000E+01      4.911041000000000E-01     -1.692891000000000E+02      5.292664000000000E-01      2.517212000000000E+00      1.571198000000000E-01      3.953125000000000E+01
4844000000.000000      4.666595000000000E-01     -1.700879000000000E+01      4.889374000000000E-01     -1.695937000000000E+02      5.303040000000000E-01      2.294678000000000E+00      1.506348000000000E-01      4.291992000000000E+01
4845000000.000000      4.654541000000000E-01     -1.648535000000000E+01      4.898224000000000E-01     -1.698828000000000E+02      5.335693000000000E-01      1.978882000000000E+00      1.473770000000000E-01      4.624804000000000E+01
4846000000.000000      4.642639000000000E-01     -1.627637000000000E+01      4.907379000000000E-01     -1.702266000000000E+02      5.352173000000000E-01      1.855286000000000E+00      1.437836000000000E-01      5.011523000000000E+01
4847000000.000000      4.635315000000000E-01     -1.605957000000000E+01      4.938965000000000E-01     -1.708281000000000E+02      5.371704000000000E-01      1.890991000000000E+00      1.398849000000000E-01      5.444530000000000E+01
4848000000.000000      4.629517000000000E-01     -1.593018000000000E+01      4.919128000000000E-01     -1.710625000000000E+02      5.396118000000000E-01      1.451538000000000E+00      1.403351000000000E-01      5.876171000000000E+01
4849000000.000000      4.614410000000000E-01     -1.562695000000000E+01      4.959717000000000E-01     -1.714375000000000E+02      5.416260000000000E-01      1.288147000000000E+00      1.388016000000000E-01      6.308788000000000E+01
4850000000.000000      4.608765000000000E-01     -1.549072000000000E+01      4.936676000000000E-01     -1.719531000000000E+02      5.422974000000000E-01      1.241455000000000E+00      1.393814000000000E-01      6.708984000000000E+01
4851000000.000000      4.591827000000000E-01     -1.531494000000000E+01      4.974365000000000E-01     -1.723203000000000E+02      5.433350000000000E-01      1.084900000000000E+00      1.405029000000000E-01      7.080859000000000E+01
4852000000.000000      4.596863000000000E-01     -1.502246000000000E+01      4.980164000000000E-01     -1.726797000000000E+02      5.447083000000000E-01      8.706665000000000E-01      1.422272000000000E-01      7.469531000000000E+01
4853000000.000000      4.583282000000000E-01     -1.456689000000000E+01      4.966888000000000E-01     -1.731094000000000E+02      5.466614000000000E-01      7.044983000000000E-01      1.440048000000000E-01      7.873437000000000E+01
4854000000.000000      4.576416000000000E-01     -1.432080000000000E+01      4.989624000000000E-01     -1.733516000000000E+02      5.469055000000000E-01      5.053711000000000E-01      1.482239000000000E-01      8.216406000000000E+01
4855000000.000000      4.562836000000000E-01     -1.396777000000000E+01      4.990692000000000E-01     -1.737969000000000E+02      5.486145000000000E-01      4.298401000000000E-01      1.512756000000000E-01      8.665234000000000E+01
4856000000.000000      4.566956000000000E-01     -1.383594000000000E+01      5.006409000000000E-01     -1.741406000000000E+02      5.495911000000000E-01      3.021240000000000E-01      1.565933000000000E-01      8.927343000000000E+01
4857000000.000000      4.578094000000000E-01     -1.336377000000000E+01      5.014648000000000E-01     -1.743672000000000E+02      5.515747000000000E-01      1.373291000000000E-02      1.599274000000000E-01      9.239061000000000E+01
4858000000.000000      4.563293000000000E-01     -1.318359000000000E+01      5.011902000000000E-01     -1.748203000000000E+02      5.522766000000000E-01      4.119873000000000E-03      1.654816000000000E-01      9.469530000000000E+01
4859000000.000000      4.563446000000000E-01     -1.316992000000000E+01      5.029907000000000E-01     -1.751719000000000E+02      5.527344000000000E-01     -1.194763000000000E-01      1.710281000000000E-01      9.714062000000000E+01
4860000000.000000      4.573669000000000E-01     -1.264014000000000E+01      5.025635000000000E-01     -1.752812000000000E+02      5.529175000000000E-01     -4.971313000000000E-01      1.778564000000000E-01      9.874218000000000E+01
4861000000.000000      4.573517000000000E-01     -1.250391000000000E+01      5.041504000000000E-01     -1.759687000000000E+02      5.554810000000000E-01     -5.891418000000000E-01      1.829605000000000E-01      1.013867000000000E+02
4862000000.000000      4.573822000000000E-01     -1.212646000000000E+01      5.049133000000000E-01     -1.761875000000000E+02      5.556030000000000E-01     -6.234741000000000E-01      1.898880000000000E-01      1.029140000000000E+02
4863000000.000000      4.599152000000000E-01     -1.170898000000000E+01      5.050659000000000E-01     -1.765625000000000E+02      5.549622000000000E-01     -7.717896000000000E-01      1.949615000000000E-01      1.050547000000000E+02
4864000000.000000      4.609222000000000E-01     -1.170898000000000E+01      5.065308000000000E-01     -1.767031000000000E+02      5.560608000000000E-01     -8.267212000000000E-01      2.015991000000000E-01      1.062773000000000E+02
4865000000.000000      4.614563000000000E-01     -1.110889000000000E+01      5.059814000000000E-01     -1.772109000000000E+02      5.555725000000000E-01     -1.025879000000000E+00      2.065201000000000E-01      1.073086000000000E+02
4866000000.000000      4.622803000000000E-01     -1.097266000000000E+01      5.083313000000000E-01     -1.774062000000000E+02      5.559692000000000E-01     -1.141235000000000E+00      2.141495000000000E-01      1.087852000000000E+02
4867000000.000000      4.642792000000000E-01     -1.074463000000000E+01      5.084534000000000E-01     -1.780781000000000E+02      5.559387000000000E-01     -1.270325000000000E+00      2.204742000000000E-01      1.097187000000000E+02
4868000000.000000      4.669495000000000E-01     -1.060889000000000E+01      5.108032000000000E-01     -1.782891000000000E+02      5.578613000000000E-01     -1.359558000000000E+00      2.243347000000000E-01      1.106523000000000E+02
4869000000.000000      4.692841000000000E-01     -1.034229000000000E+01      5.101624000000000E-01     -1.786562000000000E+02      5.566101000000000E-01     -1.583435000000000E+00      2.311096000000000E-01      1.117461000000000E+02
4870000000.000000      4.687805000000000E-01     -9.863281000000000E+00      5.117798000000000E-01     -1.787031000000000E+02      5.575562000000000E-01     -1.436462000000000E+00      2.373962000000000E-01      1.124687000000000E+02
4871000000.000000      4.707947000000000E-01     -9.846680000000000E+00      5.128174000000000E-01     -1.792578000000000E+02      5.585632000000000E-01     -1.661682000000000E+00      2.445297000000000E-01      1.128086000000000E+02
4872000000.000000      4.746704000000000E-01     -9.537598000000000E+00      5.123291000000000E-01     -1.795781000000000E+02      5.565491000000000E-01     -1.842957000000000E+00      2.494888000000000E-01      1.139141000000000E+02
4873000000.000000      4.763184000000000E-01     -9.190430000000000E+00      5.134277000000000E-01      1.798828000000000E+02      5.554199000000000E-01     -2.033936000000000E+00      2.557373000000000E-01      1.143789000000000E+02
4874000000.000000      4.777374000000000E-01     -9.038086000000000E+00      5.128784000000000E-01      1.794922000000000E+02      5.567627000000000E-01     -2.050415000000000E+00      2.607574000000000E-01      1.150078000000000E+02
4875000000.000000      4.798737000000000E-01     -8.898926000000000E+00      5.138550000000000E-01      1.792109000000000E+02      5.555420000000000E-01     -2.044922000000000E+00      2.640228000000000E-01      1.156055000000000E+02
4876000000.000000      4.841309000000000E-01     -8.893555000000000E+00      5.148010000000000E-01      1.788750000000000E+02      5.569153000000000E-01     -1.994019000000000E+00      2.695313000000000E-01      1.162734000000000E+02
4877000000.000000      4.861145000000000E-01     -8.675293000000000E+00      5.160522000000000E-01      1.783984000000000E+02      5.548096000000000E-01     -2.095703000000000E+00      2.751617000000000E-01      1.159336000000000E+02
4878000000.000000      4.880066000000000E-01     -8.345703000000000E+00      5.164490000000000E-01      1.780937000000000E+02      5.540161000000000E-01     -2.061401000000000E+00      2.798309000000000E-01      1.163086000000000E+02
4879000000.000000      4.920959000000000E-01     -8.164551000000000E+00      5.167542000000000E-01      1.777656000000000E+02      5.541382000000000E-01     -2.452759000000000E+00      2.850952000000000E-01      1.169180000000000E+02
4880000000.000000      4.964294000000000E-01     -8.124512000000000E+00      5.191650000000000E-01      1.773438000000000E+02      5.548096000000000E-01     -2.385498000000000E+00      2.894592000000000E-01      1.171992000000000E+02
4881000000.000000      4.979553000000000E-01     -8.017578000000000E+00      5.176392000000000E-01      1.769609000000000E+02      5.527344000000000E-01     -2.230225000000000E+00      2.940521000000000E-01      1.173633000000000E+02
4882000000.000000      5.018616000000000E-01     -7.790771000000000E+00      5.205994000000000E-01      1.766953000000000E+02      5.534363000000000E-01     -2.378540000000000E+00      2.988434000000000E-01      1.175898000000000E+02
