! Network Analyzer HP8722D
! Hewlett-Packard
! Data name: Linha & Wilkinson
! Saver's name: Rodrigo Anjos
! Comments: Teste da utilização de aquisição
continua pelo VNA HP8722D
! Time and date: 8/5/2025 14:38
!              Frequency                     S11                                                   S21                                                   S12                                                   S22
# HZ  S  MA R 50
4800000000.000000      5.323486000000000E-01     -2.520898000000000E+01      3.754120000000000E-01     -1.506250000000000E+02      3.922424000000000E-01      8.661133000000000E+00      4.948120000000000E-01      9.049988000000000E-01
4801000000.000000      5.289917000000000E-01     -2.488574000000000E+01      3.785706000000000E-01     -1.509140000000000E+02      3.955841000000000E-01      8.495117000000000E+00      4.908905000000000E-01      7.594299000000000E-01
4802000000.000000      5.276489000000000E-01     -2.469727000000000E+01      3.807983000000000E-01     -1.512422000000000E+02      3.995514000000000E-01      8.229980000000000E+00      4.865723000000000E-01      1.329346000000000E+00
4803000000.000000      5.279541000000000E-01     -2.432324000000000E+01      3.887329000000000E-01     -1.517031000000000E+02      4.027252000000000E-01      8.255859000000000E+00      4.807281000000000E-01      1.116455000000000E+00
4804000000.000000      5.272522000000000E-01     -2.416113000000000E+01      3.904572000000000E-01     -1.520859000000000E+02      4.079132000000000E-01      7.824951000000000E+00      4.727020000000000E-01      1.257935000000000E+00
4805000000.000000      5.278015000000000E-01     -2.393555000000000E+01      3.936005000000000E-01     -1.525078000000000E+02      4.113922000000000E-01      7.992432000000000E+00      4.657135000000000E-01      1.268921000000000E+00
4806000000.000000      5.249023000000000E-01     -2.354102000000000E+01      3.963470000000000E-01     -1.529766000000000E+02      4.153137000000000E-01      7.739746000000000E+00      4.587555000000000E-01      1.428223000000000E+00
4807000000.000000      5.231628000000000E-01     -2.353613000000000E+01      4.003906000000000E-01     -1.535000000000000E+02      4.182129000000000E-01      7.656006000000000E+00      4.512634000000000E-01      1.631470000000000E+00
4808000000.000000      5.213928000000000E-01     -2.299609000000000E+01      4.065094000000000E-01     -1.536875000000000E+02      4.217377000000000E-01      7.642334000000000E+00      4.439545000000000E-01      1.838806000000000E+00
4809000000.000000      5.220337000000000E-01     -2.288086000000000E+01      4.093933000000000E-01     -1.543984000000000E+02      4.265137000000000E-01      7.109375000000000E+00      4.369659000000000E-01      2.157349000000000E+00
4810000000.000000      5.207825000000000E-01     -2.269433000000000E+01      4.130096000000000E-01     -1.547500000000000E+02      4.304810000000000E-01      7.064209000000000E+00      4.299469000000000E-01      2.085938000000000E+00
4811000000.000000      5.199585000000000E-01     -2.241504000000000E+01      4.168549000000000E-01     -1.551875000000000E+02      4.341736000000000E-01      6.939209000000000E+00      4.214020000000000E-01      2.688843000000000E+00
4812000000.000000      5.184631000000000E-01     -2.184961000000000E+01      4.199371000000000E-01     -1.556094000000000E+02      4.385529000000000E-01      6.752441000000000E+00      4.139404000000000E-01      2.566650000000000E+00
4813000000.000000      5.164185000000000E-01     -2.186328000000000E+01      4.226532000000000E-01     -1.558984000000000E+02      4.414520000000000E-01      6.727539000000000E+00      4.067078000000000E-01      3.187378000000000E+00
4814000000.000000      5.153809000000000E-01     -2.177637000000000E+01      4.263458000000000E-01     -1.564844000000000E+02      4.446564000000000E-01      6.635742000000000E+00      3.978424000000000E-01      3.227173000000000E+00
4815000000.000000      5.143127000000000E-01     -2.158496000000000E+01      4.289246000000000E-01     -1.569922000000000E+02      4.471130000000000E-01      6.476318000000000E+00      3.907318000000000E-01      3.613037000000000E+00
4816000000.000000      5.127258000000000E-01     -2.152930000000000E+01      4.322662000000000E-01     -1.572266000000000E+02      4.524841000000000E-01      6.428223000000000E+00      3.831787000000000E-01      3.893188000000000E+00
4817000000.000000      5.120544000000000E-01     -2.110644000000000E+01      4.362640000000000E-01     -1.578203000000000E+02      4.542389000000000E-01      6.163330000000000E+00      3.726654000000000E-01      4.388916000000000E+00
4818000000.000000      5.115967000000000E-01     -2.133887000000000E+01      4.378204000000000E-01     -1.583906000000000E+02      4.592743000000000E-01      6.045166000000000E+00      3.633575000000000E-01      4.801025000000000E+00
4819000000.000000      5.093689000000000E-01     -2.080859000000000E+01      4.409485000000000E-01     -1.587891000000000E+02      4.613342000000000E-01      5.807617000000000E+00      3.540497000000000E-01      4.949219000000000E+00
4820000000.000000      5.068054000000000E-01     -2.075195000000000E+01      4.445343000000000E-01     -1.590469000000000E+02      4.644623000000000E-01      5.791016000000000E+00      3.464508000000000E-01      5.557617000000000E+00
4821000000.000000      5.071411000000000E-01     -2.062891000000000E+01      4.471436000000000E-01     -1.596797000000000E+02      4.666748000000000E-01      5.410645000000000E+00      3.365173000000000E-01      6.247070000000000E+00
4822000000.000000      5.034485000000000E-01     -2.048340000000000E+01      4.492493000000000E-01     -1.599609000000000E+02      4.706421000000000E-01      5.203369000000000E+00      3.282471000000000E-01      6.517578000000000E+00
4823000000.000000      5.032043000000000E-01     -2.034570000000000E+01      4.524384000000000E-01     -1.606484000000000E+02      4.727020000000000E-01      5.278809000000000E+00      3.186951000000000E-01      7.055908000000000E+00
4824000000.000000      4.992523000000000E-01     -2.002734000000000E+01      4.546356000000000E-01     -1.611406000000000E+02      4.772339000000000E-01      4.958740000000000E+00      3.092346000000000E-01      7.635498000000000E+00
4825000000.000000      4.995270000000000E-01     -1.995898000000000E+01      4.569550000000000E-01     -1.613906000000000E+02      4.814911000000000E-01      4.951904000000000E+00      3.014069000000000E-01      8.386230000000000E+00
4826000000.000000      4.988708000000000E-01     -2.012500000000000E+01      4.590759000000000E-01     -1.621172000000000E+02      4.835052000000000E-01      4.821533000000000E+00      2.919159000000000E-01      9.154297000000000E+00
4827000000.000000      4.983063000000000E-01     -1.975293000000000E+01      4.620056000000000E-01     -1.621406000000000E+02      4.852295000000000E-01      4.793945000000000E+00      2.829285000000000E-01      9.910645000000000E+00
4828000000.000000      4.967346000000000E-01     -1.943164000000000E+01      4.649200000000000E-01     -1.628984000000000E+02      4.881897000000000E-01      4.496094000000000E+00      2.728882000000000E-01      1.058350000000000E+01
4829000000.000000      4.939270000000000E-01     -1.926465000000000E+01      4.671783000000000E-01     -1.633984000000000E+02      4.927216000000000E-01      4.265381000000000E+00      2.655792000000000E-01      1.185547000000000E+01
4830000000.000000      4.911041000000000E-01     -1.922363000000000E+01      4.685059000000000E-01     -1.638125000000000E+02      4.957886000000000E-01      4.228271000000000E+00      2.545319000000000E-01      1.295801000000000E+01
4831000000.000000      4.915161000000000E-01     -1.934180000000000E+01      4.708710000000000E-01     -1.643828000000000E+02      4.998322000000000E-01      4.042969000000000E+00      2.456741000000000E-01      1.387158000000000E+01
4832000000.000000      4.887695000000000E-01     -1.887500000000000E+01      4.714661000000000E-01     -1.644531000000000E+02      5.006714000000000E-01      3.843750000000000E+00      2.364044000000000E-01      1.551514000000000E+01
4833000000.000000      4.885864000000000E-01     -1.880859000000000E+01      4.732666000000000E-01     -1.649922000000000E+02      5.056763000000000E-01      3.525146000000000E+00      2.273331000000000E-01      1.683301000000000E+01
4834000000.000000      4.842834000000000E-01     -1.873047000000000E+01      4.753876000000000E-01     -1.655078000000000E+02      5.074463000000000E-01      3.585571000000000E+00      2.186890000000000E-01      1.842871000000000E+01
4835000000.000000      4.829102000000000E-01     -1.850879000000000E+01      4.774170000000000E-01     -1.659609000000000E+02      5.110474000000000E-01      3.457886000000000E+00      2.098770000000000E-01      2.002734000000000E+01
4836000000.000000      4.812164000000000E-01     -1.832129000000000E+01      4.786377000000000E-01     -1.662969000000000E+02      5.139160000000000E-01      3.400269000000000E+00      2.025986000000000E-01      2.204590000000000E+01
4837000000.000000      4.794464000000000E-01     -1.846875000000000E+01      4.785461000000000E-01     -1.670078000000000E+02      5.141602000000000E-01      2.945679000000000E+00      1.946106000000000E-01      2.413769000000000E+01
4838000000.000000      4.787445000000000E-01     -1.819140000000000E+01      4.821777000000000E-01     -1.671016000000000E+02      5.170288000000000E-01      2.848145000000000E+00      1.874695000000000E-01      2.633691000000000E+01
4839000000.000000      4.777222000000000E-01     -1.764453000000000E+01      4.832153000000000E-01     -1.677187000000000E+02      5.206909000000000E-01      2.859131000000000E+00      1.801529000000000E-01      2.839550000000000E+01
4840000000.000000      4.757996000000000E-01     -1.802637000000000E+01      4.843140000000000E-01     -1.681328000000000E+02      5.236206000000000E-01      2.595459000000000E+00      1.731186000000000E-01      3.130078000000000E+01
4841000000.000000      4.722137000000000E-01     -1.767578000000000E+01      4.864197000000000E-01     -1.685469000000000E+02      5.247803000000000E-01      2.322144000000000E+00      1.672363000000000E-01      3.450781000000000E+01
4842000000.000000      4.743195000000000E-01     -1.770996000000000E+01      4.871063000000000E-01     -1.689375000000000E+02      5.256958000000000E-01      2.285156000000000E+00      1.624222000000000E-01      3.767187000000000E+01
4843000000.000000      4.719543000000000E-01     -1.704687000000000E+01      4.876404000000000E-01     -1.695156000000000E+02      5.291748000000000E-01      2.061279000000000E+00      1.560059000000000E-01      4.124413000000000E+01
4844000000.000000      4.681702000000000E-01     -1.709668000000000E+01      4.904480000000000E-01     -1.698047000000000E+02      5.310974000000000E-01      1.781128000000000E+00      1.512299000000000E-01      4.446679000000000E+01
4845000000.000000      4.690704000000000E-01     -1.673437000000000E+01      4.900208000000000E-01     -1.702109000000000E+02      5.323181000000000E-01      1.668518000000000E+00      1.484375000000000E-01      4.831445000000000E+01
4846000000.000000      4.684143000000000E-01     -1.643164000000000E+01      4.905396000000000E-01     -1.705547000000000E+02      5.354004000000000E-01      1.554565000000000E+00      1.449356000000000E-01      5.247460000000000E+01
4847000000.000000      4.670105000000000E-01     -1.635644000000000E+01      4.929810000000000E-01     -1.707031000000000E+02      5.387268000000000E-01      1.369141000000000E+00      1.424789000000000E-01      5.622070000000000E+01
4848000000.000000      4.661255000000000E-01     -1.595801000000000E+01      4.919739000000000E-01     -1.713359000000000E+02      5.399475000000000E-01      1.145325000000000E+00      1.421967000000000E-01      6.042969000000000E+01
4849000000.000000      4.632111000000000E-01     -1.583008000000000E+01      4.932251000000000E-01     -1.718047000000000E+02      5.402527000000000E-01      8.445740000000000E-01      1.417084000000000E-01      6.485156000000000E+01
4850000000.000000      4.634399000000000E-01     -1.564746000000000E+01      4.947052000000000E-01     -1.722578000000000E+02      5.435791000000000E-01      7.882690000000000E-01      1.424866000000000E-01      6.873047000000000E+01
4851000000.000000      4.627228000000000E-01     -1.520508000000000E+01      4.961700000000000E-01     -1.724922000000000E+02      5.452271000000000E-01      7.690430000000000E-01      1.436386000000000E-01      7.251953000000000E+01
4852000000.000000      4.614410000000000E-01     -1.495801000000000E+01      4.971008000000000E-01     -1.727890000000000E+02      5.463562000000000E-01      5.699158000000000E-01      1.462708000000000E-01      7.653125000000000E+01
4853000000.000000      4.607239000000000E-01     -1.482617000000000E+01      4.965057000000000E-01     -1.732265000000000E+02      5.475159000000000E-01      3.639221000000000E-01      1.489182000000000E-01      7.985937000000000E+01
4854000000.000000      4.619904000000000E-01     -1.465186000000000E+01      4.984894000000000E-01     -1.737422000000000E+02      5.488281000000000E-01      3.117371000000000E-01      1.526489000000000E-01      8.319139000000000E+01
4855000000.000000      4.596710000000000E-01     -1.431934000000000E+01      4.978027000000000E-01     -1.740078000000000E+02      5.503540000000000E-01     -4.119873000000000E-03      1.560364000000000E-01      8.688671000000000E+01
4856000000.000000      4.599457000000000E-01     -1.390869000000000E+01      4.981842000000000E-01     -1.742109000000000E+02      5.517578000000000E-01     -1.524353000000000E-01      1.618729000000000E-01      9.008204000000000E+01
4857000000.000000      4.609070000000000E-01     -1.355615000000000E+01      5.014954000000000E-01     -1.747266000000000E+02      5.514832000000000E-01     -3.776550000000000E-01      1.655731000000000E-01      9.267578000000000E+01
4858000000.000000      4.600830000000000E-01     -1.349707000000000E+01      5.006714000000000E-01     -1.749063000000000E+02      5.523987000000000E-01     -4.463196000000000E-01      1.713104000000000E-01      9.519922000000000E+01
4859000000.000000      4.608307000000000E-01     -1.308887000000000E+01      5.029907000000000E-01     -1.753281000000000E+02      5.522461000000000E-01     -5.644226000000000E-01      1.768799000000000E-01      9.731640000000000E+01
4860000000.000000      4.590912000000000E-01     -1.275928000000000E+01      5.027466000000000E-01     -1.758281000000000E+02      5.534058000000000E-01     -8.239746000000000E-01      1.830215000000000E-01      9.933203000000000E+01
4861000000.000000      4.591370000000000E-01     -1.252344000000000E+01      5.026855000000000E-01     -1.762422000000000E+02      5.547791000000000E-01     -1.018982000000000E+00      1.880264000000000E-01      1.013477000000000E+02
4862000000.000000      4.611359000000000E-01     -1.213721000000000E+01      5.034485000000000E-01     -1.763047000000000E+02      5.556641000000000E-01     -1.067078000000000E+00      1.948090000000000E-01      1.027930000000000E+02
4863000000.000000      4.625702000000000E-01     -1.196143000000000E+01      5.050659000000000E-01     -1.767812000000000E+02      5.557861000000000E-01     -1.192017000000000E+00      2.004166000000000E-01      1.042695000000000E+02
4864000000.000000      4.626923000000000E-01     -1.148096000000000E+01      5.059204000000000E-01     -1.769453000000000E+02      5.568542000000000E-01     -1.330750000000000E+00      2.064667000000000E-01      1.059297000000000E+02
4865000000.000000      4.641418000000000E-01     -1.155371000000000E+01      5.051575000000000E-01     -1.772969000000000E+02      5.564270000000000E-01     -1.407654000000000E+00      2.127457000000000E-01      1.075156000000000E+02
4866000000.000000      4.648590000000000E-01     -1.122412000000000E+01      5.075684000000000E-01     -1.778516000000000E+02      5.578308000000000E-01     -1.799011000000000E+00      2.200699000000000E-01      1.082422000000000E+02
4867000000.000000      4.662781000000000E-01     -1.113477000000000E+01      5.071716000000000E-01     -1.782422000000000E+02      5.561218000000000E-01     -1.653442000000000E+00      2.260666000000000E-01      1.095391000000000E+02
4868000000.000000      4.685211000000000E-01     -1.075195000000000E+01      5.088806000000000E-01     -1.785625000000000E+02      5.580139000000000E-01     -1.882813000000000E+00      2.322159000000000E-01      1.096094000000000E+02
4869000000.000000      4.687805000000000E-01     -1.052490000000000E+01      5.079346000000000E-01     -1.789844000000000E+02      5.570679000000000E-01     -1.919861000000000E+00      2.382507000000000E-01      1.109297000000000E+02
4870000000.000000      4.721527000000000E-01     -1.006787000000000E+01      5.100098000000000E-01     -1.788516000000000E+02      5.566711000000000E-01     -1.878662000000000E+00      2.432175000000000E-01      1.122500000000000E+02
4871000000.000000      4.740906000000000E-01     -9.865723000000000E+00      5.105896000000000E-01     -1.796250000000000E+02      5.544434000000000E-01     -2.068237000000000E+00      2.491608000000000E-01      1.128320000000000E+02
4872000000.000000      4.748230000000000E-01     -9.547363000000000E+00      5.125122000000000E-01     -1.798828000000000E+02      5.549622000000000E-01     -2.451416000000000E+00      2.557526000000000E-01      1.133203000000000E+02
4873000000.000000      4.772339000000000E-01     -9.441406000000000E+00      5.126038000000000E-01      1.798750000000000E+02      5.551453000000000E-01     -2.318115000000000E+00      2.622681000000000E-01      1.137148000000000E+02
4874000000.000000      4.798126000000000E-01     -9.206543000000000E+00      5.129395000000000E-01      1.793516000000000E+02      5.554504000000000E-01     -2.459595000000000E+00      2.671661000000000E-01      1.144883000000000E+02
4875000000.000000      4.847107000000000E-01     -9.256348000000000E+00      5.130615000000000E-01      1.789766000000000E+02      5.537415000000000E-01     -2.408813000000000E+00      2.717438000000000E-01      1.145742000000000E+02
4876000000.000000      4.866943000000000E-01     -8.472168000000000E+00      5.147705000000000E-01      1.786797000000000E+02      5.549927000000000E-01     -2.322266000000000E+00      2.774963000000000E-01      1.152617000000000E+02
4877000000.000000      4.885254000000000E-01     -8.969238000000000E+00      5.143738000000000E-01      1.782266000000000E+02      5.542908000000000E-01     -2.539307000000000E+00      2.819519000000000E-01      1.155742000000000E+02
4878000000.000000      4.905853000000000E-01     -8.504883000000000E+00      5.162354000000000E-01      1.780313000000000E+02      5.541992000000000E-01     -2.499390000000000E+00      2.859650000000000E-01      1.154844000000000E+02
4879000000.000000      4.943848000000000E-01     -8.391113000000000E+00      5.151978000000000E-01      1.774375000000000E+02      5.539551000000000E-01     -2.632690000000000E+00      2.899628000000000E-01      1.160352000000000E+02
4880000000.000000      4.985657000000000E-01     -8.433594000000000E+00      5.174255000000000E-01      1.770000000000000E+02      5.536194000000000E-01     -2.861938000000000E+00      2.944794000000000E-01      1.162617000000000E+02
4881000000.000000      4.991302000000000E-01     -8.197266000000000E+00      5.188293000000000E-01      1.767734000000000E+02      5.508728000000000E-01     -2.676636000000000E+00      3.001099000000000E-01      1.163281000000000E+02
4882000000.000000      5.030823000000000E-01     -8.131348000000000E+00      5.183411000000000E-01      1.762422000000000E+02      5.521545000000000E-01     -2.768555000000000E+00      3.047791000000000E-01      1.165547000000000E+02
