! Network Analyzer HP8722D
! Hewlett-Packard
! Data name: Linha & Wilkinson
! Saver's name: Rodrigo Anjos
! Comments: Teste da utilização de aquisição
continua pelo VNA HP8722D
! Time and date: 8/5/2025 12:50
!              Frequency                     S11                                                   S21                                                   S12                                                   S22
# HZ  S  MA R 50
4800000000.000000      9.510193000000000E-01      1.644922000000000E+02      4.410553000000000E-01      1.239570000000000E+02      4.354401000000000E-01      1.925977000000000E+01      9.514771000000000E-01     -3.658008000000000E+01
4801000000.000000      9.500122000000000E-01      1.644219000000000E+02      4.400482000000000E-01      1.234648000000000E+02      4.352875000000000E-01      1.868457000000000E+01      9.495544000000000E-01     -3.700976000000000E+01
4802000000.000000      9.490662000000000E-01      1.644609000000000E+02      4.408417000000000E-01      1.231523000000000E+02      4.383545000000000E-01      1.858691000000000E+01      9.441223000000000E-01     -3.729687000000000E+01
4803000000.000000      9.463196000000000E-01      1.644531000000000E+02      4.436951000000000E-01      1.227266000000000E+02      4.378815000000000E-01      1.833594000000000E+01      9.393921000000000E-01     -3.797070000000000E+01
4804000000.000000      9.466553000000000E-01      1.645625000000000E+02      4.459229000000000E-01      1.222539000000000E+02      4.396210000000000E-01      1.786328000000000E+01      9.346619000000000E-01     -3.826757000000000E+01
4805000000.000000      9.466858000000000E-01      1.646797000000000E+02      4.478760000000000E-01      1.219805000000000E+02      4.389648000000000E-01      1.755957000000000E+01      9.304199000000000E-01     -3.883008000000000E+01
4806000000.000000      9.457703000000000E-01      1.647422000000000E+02      4.503021000000000E-01      1.214336000000000E+02      4.378967000000000E-01      1.731543000000000E+01      9.256287000000000E-01     -3.946484000000000E+01
4807000000.000000      9.450684000000000E-01      1.647891000000000E+02      4.530334000000000E-01      1.208164000000000E+02      4.403229000000000E-01      1.695996000000000E+01      9.192810000000000E-01     -3.970312000000000E+01
4808000000.000000      9.443054000000000E-01      1.647969000000000E+02      4.553680000000000E-01      1.205078000000000E+02      4.394379000000000E-01      1.663281000000000E+01      9.161682000000000E-01     -4.011523000000000E+01
4809000000.000000      9.420471000000000E-01      1.648281000000000E+02      4.564209000000000E-01      1.198164000000000E+02      4.416199000000000E-01      1.633789000000000E+01      9.120178000000000E-01     -4.058203000000000E+01
4810000000.000000      9.413147000000000E-01      1.649375000000000E+02      4.575806000000000E-01      1.195313000000000E+02      4.414978000000000E-01      1.591064000000000E+01      9.059753000000000E-01     -4.120313000000000E+01
4811000000.000000      9.384155000000000E-01      1.648750000000000E+02      4.603119000000000E-01      1.189336000000000E+02      4.449921000000000E-01      1.566748000000000E+01      9.002686000000000E-01     -4.145508000000000E+01
4812000000.000000      9.384766000000000E-01      1.650156000000000E+02      4.607544000000000E-01      1.181797000000000E+02      4.445953000000000E-01      1.534766000000000E+01      8.944092000000000E-01     -4.202538000000000E+01
4813000000.000000      9.354858000000000E-01      1.650859000000000E+02      4.632568000000000E-01      1.179062000000000E+02      4.428711000000000E-01      1.513086000000000E+01      8.903503000000000E-01     -4.250781000000000E+01
4814000000.000000      9.318237000000000E-01      1.650156000000000E+02      4.640808000000000E-01      1.173516000000000E+02      4.434662000000000E-01      1.472949000000000E+01      8.842163000000000E-01     -4.303515000000000E+01
4815000000.000000      9.305725000000000E-01      1.651719000000000E+02      4.648590000000000E-01      1.167383000000000E+02      4.451599000000000E-01      1.471338000000000E+01      8.778992000000000E-01     -4.334570000000000E+01
4816000000.000000      9.306946000000000E-01      1.653359000000000E+02      4.676971000000000E-01      1.165234000000000E+02      4.458466000000000E-01      1.430127000000000E+01      8.736572000000000E-01     -4.391406000000000E+01
4817000000.000000      9.286499000000000E-01      1.652812000000000E+02      4.688873000000000E-01      1.156992000000000E+02      4.450226000000000E-01      1.397998000000000E+01      8.667603000000000E-01     -4.423047000000000E+01
4818000000.000000      9.260254000000000E-01      1.652109000000000E+02      4.685822000000000E-01      1.152773000000000E+02      4.466553000000000E-01      1.363672000000000E+01      8.585205000000000E-01     -4.471093000000000E+01
4819000000.000000      9.257813000000000E-01      1.652578000000000E+02      4.734344000000000E-01      1.145547000000000E+02      4.464569000000000E-01      1.340869000000000E+01      8.534546000000000E-01     -4.546679000000000E+01
4820000000.000000      9.171753000000000E-01      1.653047000000000E+02      4.744415000000000E-01      1.140195000000000E+02      4.460754000000000E-01      1.299805000000000E+01      8.476868000000000E-01     -4.576562000000000E+01
4821000000.000000      9.194946000000000E-01      1.655781000000000E+02      4.765015000000000E-01      1.134062000000000E+02      4.471436000000000E-01      1.291016000000000E+01      8.421326000000000E-01     -4.617383000000000E+01
4822000000.000000      9.175415000000000E-01      1.653828000000000E+02      4.786530000000000E-01      1.128672000000000E+02      4.465637000000000E-01      1.232666000000000E+01      8.359375000000000E-01     -4.679101000000000E+01
4823000000.000000      9.152832000000000E-01      1.654687000000000E+02      4.799957000000000E-01      1.122344000000000E+02      4.461823000000000E-01      1.230469000000000E+01      8.293152000000000E-01     -4.715625000000000E+01
4824000000.000000      9.123535000000000E-01      1.654766000000000E+02      4.810181000000000E-01      1.114883000000000E+02      4.467926000000000E-01      1.188721000000000E+01      8.212891000000000E-01     -4.765234000000000E+01
4825000000.000000      9.089050000000000E-01      1.653672000000000E+02      4.809570000000000E-01      1.108476000000000E+02      4.483948000000000E-01      1.152588000000000E+01      8.169861000000000E-01     -4.807031000000000E+01
4826000000.000000      9.068909000000000E-01      1.655469000000000E+02      4.828796000000000E-01      1.103945000000000E+02      4.465942000000000E-01      1.119775000000000E+01      8.111267000000000E-01     -4.859570000000000E+01
4827000000.000000      9.069824000000000E-01      1.656016000000000E+02      4.846191000000000E-01      1.098398000000000E+02      4.470062000000000E-01      1.083252000000000E+01      8.042297000000000E-01     -4.906250000000000E+01
4828000000.000000      9.037476000000000E-01      1.657656000000000E+02      4.865265000000000E-01      1.089141000000000E+02      4.467010000000000E-01      1.062061000000000E+01      7.975464000000000E-01     -4.957421000000000E+01
4829000000.000000      8.946838000000000E-01      1.657500000000000E+02      4.846039000000000E-01      1.083437000000000E+02      4.489746000000000E-01      1.025684000000000E+01      7.923279000000000E-01     -4.991405000000000E+01
4830000000.000000      8.951111000000000E-01      1.657266000000000E+02      4.854889000000000E-01      1.076250000000000E+02      4.481659000000000E-01      9.974121000000000E+00      7.840271000000000E-01     -5.046875000000000E+01
4831000000.000000      8.887634000000000E-01      1.657812000000000E+02      4.864960000000000E-01      1.067773000000000E+02      4.490814000000000E-01      9.668945000000000E+00      7.770081000000000E-01     -5.091210000000000E+01
4832000000.000000      8.874207000000000E-01      1.657891000000000E+02      4.904785000000000E-01      1.062109000000000E+02      4.481506000000000E-01      9.523438000000000E+00      7.706604000000000E-01     -5.126953000000000E+01
4833000000.000000      8.860168000000000E-01      1.657266000000000E+02      4.905701000000000E-01      1.055195000000000E+02      4.467010000000000E-01      9.012695000000000E+00      7.629395000000000E-01     -5.171679000000000E+01
4834000000.000000      8.820190000000000E-01      1.657422000000000E+02      4.897461000000000E-01      1.047812000000000E+02      4.477539000000000E-01      8.845215000000000E+00      7.561035000000000E-01     -5.220117000000000E+01
4835000000.000000      8.793335000000000E-01      1.656719000000000E+02      4.913940000000000E-01      1.040664000000000E+02      4.483948000000000E-01      8.389160000000000E+00      7.491150000000000E-01     -5.274023000000000E+01
4836000000.000000      8.766174000000000E-01      1.658906000000000E+02      4.910431000000000E-01      1.031797000000000E+02      4.488525000000000E-01      8.142090000000000E+00      7.426758000000000E-01     -5.299609000000000E+01
4837000000.000000      8.706970000000000E-01      1.658516000000000E+02      4.885254000000000E-01      1.022383000000000E+02      4.474640000000000E-01      7.716309000000000E+00      7.353516000000000E-01     -5.333398000000000E+01
4838000000.000000      8.680420000000000E-01      1.656719000000000E+02      4.903107000000000E-01      1.017266000000000E+02      4.482269000000000E-01      7.482910000000000E+00      7.285767000000000E-01     -5.378124000000000E+01
4839000000.000000      8.656311000000000E-01      1.658437000000000E+02      4.887390000000000E-01      1.010859000000000E+02      4.474030000000000E-01      6.950195000000000E+00      7.225342000000000E-01     -5.427343000000000E+01
4840000000.000000      8.608398000000000E-01      1.659609000000000E+02      4.882050000000000E-01      1.003906000000000E+02      4.496155000000000E-01      6.856689000000000E+00      7.147827000000000E-01     -5.462109000000000E+01
4841000000.000000      8.570251000000000E-01      1.657344000000000E+02      4.883575000000000E-01      9.937500000000000E+01      4.480286000000000E-01      6.358154000000000E+00      7.076111000000000E-01     -5.503515000000000E+01
4842000000.000000      8.535767000000000E-01      1.658750000000000E+02      4.878387000000000E-01      9.871483000000000E+01      4.477234000000000E-01      5.957275000000000E+00      7.010803000000000E-01     -5.532617000000000E+01
4843000000.000000      8.511963000000000E-01      1.657734000000000E+02      4.867401000000000E-01      9.785156000000000E+01      4.476318000000000E-01      5.546631000000000E+00      6.929016000000000E-01     -5.568749000000000E+01
4844000000.000000      8.464966000000000E-01      1.658047000000000E+02      4.862061000000000E-01      9.724998000000000E+01      4.455261000000000E-01      5.215576000000000E+00      6.847839000000000E-01     -5.610742000000000E+01
4845000000.000000      8.412781000000000E-01      1.658125000000000E+02      4.833679000000000E-01      9.654686000000000E+01      4.464569000000000E-01      4.960205000000000E+00      6.765442000000000E-01     -5.646484000000000E+01
4846000000.000000      8.399353000000000E-01      1.658828000000000E+02      4.826660000000000E-01      9.577343000000000E+01      4.473724000000000E-01      4.538574000000000E+00      6.701660000000000E-01     -5.676367000000000E+01
4847000000.000000      8.354187000000000E-01      1.658672000000000E+02      4.811096000000000E-01      9.521093000000000E+01      4.475708000000000E-01      3.941284000000000E+00      6.634216000000000E-01     -5.728320000000000E+01
4848000000.000000      8.328247000000000E-01      1.658203000000000E+02      4.786987000000000E-01      9.441015000000000E+01      4.458618000000000E-01      3.755859000000000E+00      6.546936000000000E-01     -5.759570000000000E+01
4849000000.000000      8.279724000000000E-01      1.656094000000000E+02      4.770050000000000E-01      9.348436000000000E+01      4.461670000000000E-01      3.383789000000000E+00      6.466064000000000E-01     -5.779101000000000E+01
4850000000.000000      8.224182000000000E-01      1.656484000000000E+02      4.753113000000000E-01      9.286327000000000E+01      4.454956000000000E-01      3.007446000000000E+00      6.390381000000000E-01     -5.802343000000000E+01
4851000000.000000      8.197327000000000E-01      1.658359000000000E+02      4.766235000000000E-01      9.189453000000000E+01      4.460754000000000E-01      2.610596000000000E+00      6.323547000000000E-01     -5.835938000000000E+01
4852000000.000000      8.145447000000000E-01      1.656172000000000E+02      4.717712000000000E-01      9.135546000000000E+01      4.452820000000000E-01      2.147827000000000E+00      6.241760000000000E-01     -5.860156000000000E+01
4853000000.000000      8.139038000000000E-01      1.656328000000000E+02      4.688568000000000E-01      9.063671000000000E+01      4.448547000000000E-01      1.654785000000000E+00      6.163025000000000E-01     -5.897265000000000E+01
4854000000.000000      8.058472000000000E-01      1.657656000000000E+02      4.672241000000000E-01      8.989061000000000E+01      4.448395000000000E-01      1.139832000000000E+00      6.087952000000000E-01     -5.915820000000000E+01
4855000000.000000      8.036499000000000E-01      1.655859000000000E+02      4.653931000000000E-01      8.910547000000000E+01      4.427795000000000E-01      7.855225000000000E-01      5.982971000000000E-01     -5.928515000000000E+01
4856000000.000000      8.040466000000000E-01      1.658359000000000E+02      4.627075000000000E-01      8.867579000000000E+01      4.425964000000000E-01      2.485657000000000E-01      5.915833000000000E-01     -5.961523000000000E+01
4857000000.000000      7.967224000000000E-01      1.654766000000000E+02      4.603577000000000E-01      8.798828000000000E+01      4.415131000000000E-01     -5.905151000000000E-02      5.827942000000000E-01     -5.963281000000000E+01
4858000000.000000      7.912598000000000E-01      1.655156000000000E+02      4.557953000000000E-01      8.735546000000000E+01      4.406738000000000E-01     -6.564331000000000E-01      5.751648000000000E-01     -5.994726000000000E+01
4859000000.000000      7.900696000000000E-01      1.653828000000000E+02      4.555206000000000E-01      8.668360000000000E+01      4.396362000000000E-01     -1.143982000000000E+00      5.679016000000000E-01     -6.016992000000000E+01
4860000000.000000      7.850037000000000E-01      1.654922000000000E+02      4.519806000000000E-01      8.606249000000000E+01      4.384308000000000E-01     -1.472168000000000E+00      5.582886000000000E-01     -6.008984000000000E+01
4861000000.000000      7.829590000000000E-01      1.655469000000000E+02      4.486694000000000E-01      8.511719000000000E+01      4.389038000000000E-01     -1.902039000000000E+00      5.500183000000000E-01     -6.039063000000000E+01
4862000000.000000      7.779846000000000E-01      1.654922000000000E+02      4.478607000000000E-01      8.465235000000000E+01      4.383850000000000E-01     -2.407471000000000E+00      5.424500000000000E-01     -6.035351000000000E+01
4863000000.000000      7.740173000000000E-01      1.654922000000000E+02      4.430847000000000E-01      8.370703000000000E+01      4.366302000000000E-01     -2.980103000000000E+00      5.347290000000000E-01     -6.025781000000000E+01
4864000000.000000      7.719116000000000E-01      1.654453000000000E+02      4.402161000000000E-01      8.334375000000000E+01      4.342499000000000E-01     -3.490967000000000E+00      5.254211000000000E-01     -6.028906000000000E+01
4865000000.000000      7.662048000000000E-01      1.654453000000000E+02      4.370728000000000E-01      8.291016000000000E+01      4.349976000000000E-01     -3.841187000000000E+00      5.188599000000000E-01     -6.015234000000000E+01
4866000000.000000      7.642212000000000E-01      1.653906000000000E+02      4.334106000000000E-01      8.219921000000000E+01      4.327545000000000E-01     -4.643311000000000E+00      5.100708000000000E-01     -6.020117000000000E+01
4867000000.000000      7.615967000000000E-01      1.653984000000000E+02      4.326477000000000E-01      8.124218000000000E+01      4.320221000000000E-01     -5.033203000000000E+00      5.021667000000000E-01     -6.003711000000000E+01
4868000000.000000      7.579346000000000E-01      1.652187000000000E+02      4.293213000000000E-01      8.089453000000000E+01      4.318542000000000E-01     -5.544189000000000E+00      4.933624000000000E-01     -5.983203000000000E+01
4869000000.000000      7.537842000000000E-01      1.652656000000000E+02      4.256134000000000E-01      8.021875000000000E+01      4.302826000000000E-01     -5.887451000000000E+00      4.854736000000000E-01     -5.979882000000000E+01
4870000000.000000      7.521057000000000E-01      1.654219000000000E+02      4.236908000000000E-01      7.985937000000000E+01      4.276581000000000E-01     -6.645508000000000E+00      4.785461000000000E-01     -5.940820000000000E+01
4871000000.000000      7.486267000000000E-01      1.651875000000000E+02      4.199371000000000E-01      7.911718000000000E+01      4.253540000000000E-01     -7.269043000000000E+00      4.697723000000000E-01     -5.926171000000000E+01
4872000000.000000      7.485962000000000E-01      1.653359000000000E+02      4.164734000000000E-01      7.868359000000000E+01      4.243774000000000E-01     -7.845703000000000E+00      4.629364000000000E-01     -5.892187000000000E+01
4873000000.000000      7.423706000000000E-01      1.652969000000000E+02      4.136963000000000E-01      7.807812000000000E+01      4.214020000000000E-01     -8.227539000000000E+00      4.542694000000000E-01     -5.855273000000000E+01
4874000000.000000      7.406311000000000E-01      1.652344000000000E+02      4.100342000000000E-01      7.750000000000000E+01      4.216766000000000E-01     -8.976074000000000E+00      4.467316000000000E-01     -5.795703000000000E+01
4875000000.000000      7.385559000000000E-01      1.652422000000000E+02      4.068756000000000E-01      7.700390000000000E+01      4.186249000000000E-01     -9.414063000000000E+00      4.400177000000000E-01     -5.754101000000000E+01
4876000000.000000      7.357178000000000E-01      1.652656000000000E+02      4.028778000000000E-01      7.642578000000000E+01      4.166107000000000E-01     -1.006104000000000E+01      4.334869000000000E-01     -5.714648000000000E+01
4877000000.000000      7.328186000000000E-01      1.651719000000000E+02      4.005432000000000E-01      7.586719000000000E+01      4.140930000000000E-01     -1.075195000000000E+01      4.255066000000000E-01     -5.649023000000000E+01
4878000000.000000      7.309265000000000E-01      1.650469000000000E+02      3.977203000000000E-01      7.526172000000000E+01      4.113922000000000E-01     -1.116943000000000E+01      4.190826000000000E-01     -5.586523000000000E+01
4879000000.000000      7.292175000000000E-01      1.651797000000000E+02      3.941193000000000E-01      7.484765000000000E+01      4.089813000000000E-01     -1.185840000000000E+01      4.128418000000000E-01     -5.510351000000000E+01
4880000000.000000      7.268982000000000E-01      1.651641000000000E+02      3.921661000000000E-01      7.392187000000000E+01      4.063568000000000E-01     -1.239160000000000E+01      4.064484000000000E-01     -5.429492000000000E+01
4881000000.000000      7.277222000000000E-01      1.652344000000000E+02      3.894958000000000E-01      7.383984000000000E+01      4.053040000000000E-01     -1.310693000000000E+01      4.011078000000000E-01     -5.355469000000000E+01
4882000000.000000      7.231445000000000E-01      1.651641000000000E+02      3.851318000000000E-01      7.304688000000000E+01      4.019012000000000E-01     -1.378662000000000E+01      3.948822000000000E-01     -5.258789000000000E+01
