! Network Analyzer HP8722D
! Hewlett-Packard
! Data name: Linha & Wilkinson
! Saver's name: Rodrigo Anjos
! Comments: Teste da utilização de aquisição
continua pelo VNA HP8722D
! Time and date: 8/5/2025 14:30
!              Frequency                     S11                                                   S21                                                   S12                                                   S22
# HZ  S  MA R 50
4800000000.000000      5.351868000000000E-01     -2.545215000000000E+01      3.639984000000000E-01     -1.488359000000000E+02      3.815765000000000E-01      1.045752000000000E+01      5.032043000000000E-01      1.542175000000000E+00
4801000000.000000      5.341797000000000E-01     -2.507715000000000E+01      3.676147000000000E-01     -1.490547000000000E+02      3.852844000000000E-01      1.044922000000000E+01      4.987946000000000E-01      1.356812000000000E+00
4802000000.000000      5.336609000000000E-01     -2.463574000000000E+01      3.713531000000000E-01     -1.494531000000000E+02      3.894043000000000E-01      1.010840000000000E+01      4.937897000000000E-01      1.667175000000000E+00
4803000000.000000      5.329590000000000E-01     -2.467480000000000E+01      3.770294000000000E-01     -1.498125000000000E+02      3.920441000000000E-01      1.013330000000000E+01      4.864349000000000E-01      1.560059000000000E+00
4804000000.000000      5.311584000000000E-01     -2.406641000000000E+01      3.803558000000000E-01     -1.502266000000000E+02      3.967133000000000E-01      9.912109000000000E+00      4.812164000000000E-01      1.823730000000000E+00
4805000000.000000      5.317078000000000E-01     -2.397363000000000E+01      3.840790000000000E-01     -1.506094000000000E+02      4.012604000000000E-01      1.019238000000000E+01      4.751282000000000E-01      1.759155000000000E+00
4806000000.000000      5.284119000000000E-01     -2.360352000000000E+01      3.879852000000000E-01     -1.510703000000000E+02      4.038696000000000E-01      9.603027000000000E+00      4.676971000000000E-01      1.708374000000000E+00
4807000000.000000      5.264587000000000E-01     -2.325293000000000E+01      3.914185000000000E-01     -1.515625000000000E+02      4.086456000000000E-01      9.497559000000000E+00      4.597015000000000E-01      2.102417000000000E+00
4808000000.000000      5.261536000000000E-01     -2.327734000000000E+01      3.953094000000000E-01     -1.518984000000000E+02      4.122925000000000E-01      9.524902000000000E+00      4.533844000000000E-01      2.213745000000000E+00
4809000000.000000      5.250854000000000E-01     -2.295215000000000E+01      3.996582000000000E-01     -1.524922000000000E+02      4.177551000000000E-01      9.174805000000000E+00      4.461212000000000E-01      2.477417000000000E+00
4810000000.000000      5.226135000000000E-01     -2.276953000000000E+01      4.034424000000000E-01     -1.526797000000000E+02      4.205475000000000E-01      9.181641000000000E+00      4.393005000000000E-01      2.382568000000000E+00
4811000000.000000      5.240173000000000E-01     -2.249902000000000E+01      4.071655000000000E-01     -1.532578000000000E+02      4.247437000000000E-01      9.002930000000000E+00      4.314423000000000E-01      2.823486000000000E+00
4812000000.000000      5.233765000000000E-01     -2.232617000000000E+01      4.106293000000000E-01     -1.535547000000000E+02      4.274902000000000E-01      8.895996000000000E+00      4.244843000000000E-01      2.662720000000000E+00
4813000000.000000      5.212708000000000E-01     -2.224609000000000E+01      4.142456000000000E-01     -1.541328000000000E+02      4.306641000000000E-01      8.693848000000000E+00      4.168396000000000E-01      3.295898000000000E+00
4814000000.000000      5.177002000000000E-01     -2.211230000000000E+01      4.177704000000000E-01     -1.544765000000000E+02      4.344635000000000E-01      8.600586000000000E+00      4.078217000000000E-01      3.254639000000000E+00
4815000000.000000      5.174866000000000E-01     -2.172558000000000E+01      4.205780000000000E-01     -1.550000000000000E+02      4.371338000000000E-01      8.547363000000000E+00      3.999939000000000E-01      3.593872000000000E+00
4816000000.000000      5.172119000000000E-01     -2.142090000000000E+01      4.246063000000000E-01     -1.553750000000000E+02      4.423218000000000E-01      8.414063000000000E+00      3.934326000000000E-01      3.743530000000000E+00
4817000000.000000      5.160522000000000E-01     -2.141406000000000E+01      4.275208000000000E-01     -1.558594000000000E+02      4.447479000000000E-01      8.078613000000000E+00      3.827209000000000E-01      4.202148000000000E+00
4818000000.000000      5.145874000000000E-01     -2.127441000000000E+01      4.298706000000000E-01     -1.563594000000000E+02      4.471588000000000E-01      7.955322000000000E+00      3.741150000000000E-01      4.468506000000000E+00
4819000000.000000      5.122375000000000E-01     -2.110254000000000E+01      4.329681000000000E-01     -1.567734000000000E+02      4.534302000000000E-01      7.884033000000000E+00      3.643341000000000E-01      4.534424000000000E+00
4820000000.000000      5.101624000000000E-01     -2.081836000000000E+01      4.364471000000000E-01     -1.571484000000000E+02      4.551697000000000E-01      7.779541000000000E+00      3.569031000000000E-01      5.071533000000000E+00
4821000000.000000      5.073547000000000E-01     -2.074023000000000E+01      4.395752000000000E-01     -1.577656000000000E+02      4.571686000000000E-01      7.362061000000000E+00      3.467865000000000E-01      5.570068000000000E+00
4822000000.000000      5.086060000000000E-01     -2.059668000000000E+01      4.411926000000000E-01     -1.580625000000000E+02      4.616699000000000E-01      7.316895000000000E+00      3.392639000000000E-01      5.752686000000000E+00
4823000000.000000      5.075989000000000E-01     -2.039941000000000E+01      4.444580000000000E-01     -1.587265000000000E+02      4.638672000000000E-01      7.437744000000000E+00      3.290405000000000E-01      6.269043000000000E+00
4824000000.000000      5.032349000000000E-01     -2.025781000000000E+01      4.468689000000000E-01     -1.591016000000000E+02      4.689636000000000E-01      7.105225000000000E+00      3.194885000000000E-01      6.550537000000000E+00
4825000000.000000      5.043335000000000E-01     -2.005566000000000E+01      4.494781000000000E-01     -1.595391000000000E+02      4.725342000000000E-01      6.965332000000000E+00      3.116150000000000E-01      7.219238000000000E+00
4826000000.000000      5.010681000000000E-01     -2.011817000000000E+01      4.527740000000000E-01     -1.601328000000000E+02      4.731293000000000E-01      6.770264000000000E+00      3.011475000000000E-01      7.750732000000000E+00
4827000000.000000      5.003357000000000E-01     -1.982422000000000E+01      4.545441000000000E-01     -1.604297000000000E+02      4.762878000000000E-01      6.636963000000000E+00      2.931671000000000E-01      8.364258000000000E+00
4828000000.000000      4.972992000000000E-01     -1.980176000000000E+01      4.571075000000000E-01     -1.608672000000000E+02      4.806061000000000E-01      6.576660000000000E+00      2.826996000000000E-01      8.836914000000000E+00
4829000000.000000      4.962311000000000E-01     -1.932910000000000E+01      4.600220000000000E-01     -1.614531000000000E+02      4.840851000000000E-01      6.620605000000000E+00      2.748108000000000E-01      9.871094000000000E+00
4830000000.000000      4.968109000000000E-01     -1.956152000000000E+01      4.615021000000000E-01     -1.619453000000000E+02      4.863892000000000E-01      6.198975000000000E+00      2.637939000000000E-01      1.079785000000000E+01
4831000000.000000      4.948883000000000E-01     -1.939648000000000E+01      4.637146000000000E-01     -1.625078000000000E+02      4.895172000000000E-01      6.065674000000000E+00      2.556763000000000E-01      1.163037000000000E+01
4832000000.000000      4.912262000000000E-01     -1.895215000000000E+01      4.657898000000000E-01     -1.626328000000000E+02      4.926147000000000E-01      5.755371000000000E+00      2.446671000000000E-01      1.288135000000000E+01
4833000000.000000      4.897614000000000E-01     -1.921191000000000E+01      4.676819000000000E-01     -1.631250000000000E+02      4.949036000000000E-01      5.843262000000000E+00      2.347565000000000E-01      1.400732000000000E+01
4834000000.000000      4.867859000000000E-01     -1.895605000000000E+01      4.696045000000000E-01     -1.637344000000000E+02      4.972687000000000E-01      5.637207000000000E+00      2.267685000000000E-01      1.532031000000000E+01
4835000000.000000      4.864349000000000E-01     -1.865820000000000E+01      4.712982000000000E-01     -1.641562000000000E+02      5.016174000000000E-01      5.410645000000000E+00      2.172699000000000E-01      1.665723000000000E+01
4836000000.000000      4.844208000000000E-01     -1.864746000000000E+01      4.724731000000000E-01     -1.645469000000000E+02      5.028381000000000E-01      5.429932000000000E+00      2.081146000000000E-01      1.812793000000000E+01
4837000000.000000      4.823608000000000E-01     -1.832812000000000E+01      4.733582000000000E-01     -1.652266000000000E+02      5.046387000000000E-01      5.173096000000000E+00      1.997299000000000E-01      1.990820000000000E+01
4838000000.000000      4.821930000000000E-01     -1.831152000000000E+01      4.765930000000000E-01     -1.653984000000000E+02      5.087891000000000E-01      4.947754000000000E+00      1.908569000000000E-01      2.179394000000000E+01
4839000000.000000      4.795227000000000E-01     -1.788769000000000E+01      4.777374000000000E-01     -1.658125000000000E+02      5.116272000000000E-01      4.940918000000000E+00      1.839066000000000E-01      2.358691000000000E+01
4840000000.000000      4.798889000000000E-01     -1.807617000000000E+01      4.796295000000000E-01     -1.663281000000000E+02      5.132446000000000E-01      4.784424000000000E+00      1.752625000000000E-01      2.592578000000000E+01
4841000000.000000      4.747009000000000E-01     -1.771191000000000E+01      4.811554000000000E-01     -1.667500000000000E+02      5.156860000000000E-01      4.592285000000000E+00      1.685333000000000E-01      2.854199000000000E+01
4842000000.000000      4.734039000000000E-01     -1.741406000000000E+01      4.817047000000000E-01     -1.671641000000000E+02      5.170898000000000E-01      4.491943000000000E+00      1.616592000000000E-01      3.163183000000000E+01
4843000000.000000      4.748688000000000E-01     -1.727637000000000E+01      4.839935000000000E-01     -1.676875000000000E+02      5.205383000000000E-01      4.241943000000000E+00      1.546478000000000E-01      3.483593000000000E+01
4844000000.000000      4.714813000000000E-01     -1.706055000000000E+01      4.848175000000000E-01     -1.680938000000000E+02      5.218506000000000E-01      4.070313000000000E+00      1.470947000000000E-01      3.818554000000000E+01
4845000000.000000      4.700775000000000E-01     -1.697070000000000E+01      4.854889000000000E-01     -1.683672000000000E+02      5.245667000000000E-01      3.935791000000000E+00      1.425858000000000E-01      4.154882000000000E+01
4846000000.000000      4.702301000000000E-01     -1.662012000000000E+01      4.871368000000000E-01     -1.687344000000000E+02      5.278931000000000E-01      3.724365000000000E+00      1.384735000000000E-01      4.563281000000000E+01
4847000000.000000      4.690857000000000E-01     -1.650098000000000E+01      4.882660000000000E-01     -1.691641000000000E+02      5.310059000000000E-01      3.581543000000000E+00      1.334229000000000E-01      4.969336000000000E+01
4848000000.000000      4.664307000000000E-01     -1.616992000000000E+01      4.880829000000000E-01     -1.694922000000000E+02      5.317993000000000E-01      3.385132000000000E+00      1.311493000000000E-01      5.408398000000000E+01
4849000000.000000      4.644623000000000E-01     -1.602148000000000E+01      4.904480000000000E-01     -1.699453000000000E+02      5.335693000000000E-01      3.216187000000000E+00      1.286316000000000E-01      5.872851000000000E+01
4850000000.000000      4.649811000000000E-01     -1.576709000000000E+01      4.904175000000000E-01     -1.702969000000000E+02      5.350342000000000E-01      2.978638000000000E+00      1.286316000000000E-01      6.307031000000000E+01
4851000000.000000      4.642639000000000E-01     -1.553760000000000E+01      4.933777000000000E-01     -1.708203000000000E+02      5.355835000000000E-01      2.959351000000000E+00      1.286392000000000E-01      6.757030000000000E+01
4852000000.000000      4.624176000000000E-01     -1.537842000000000E+01      4.932098000000000E-01     -1.710312000000000E+02      5.374146000000000E-01      2.798706000000000E+00      1.288605000000000E-01      7.187500000000000E+01
4853000000.000000      4.619293000000000E-01     -1.497168000000000E+01      4.923553000000000E-01     -1.714687000000000E+02      5.393982000000000E-01      2.379883000000000E+00      1.299515000000000E-01      7.632813000000000E+01
4854000000.000000      4.625854000000000E-01     -1.453516000000000E+01      4.945068000000000E-01     -1.718984000000000E+02      5.414429000000000E-01      2.324951000000000E+00      1.335754000000000E-01      8.031250000000000E+01
4855000000.000000      4.632111000000000E-01     -1.422900000000000E+01      4.956055000000000E-01     -1.723672000000000E+02      5.425415000000000E-01      2.146362000000000E+00      1.358948000000000E-01      8.478516000000000E+01
4856000000.000000      4.604645000000000E-01     -1.402832000000000E+01      4.959106000000000E-01     -1.725234000000000E+02      5.443420000000000E-01      2.039307000000000E+00      1.407166000000000E-01      8.848047000000000E+01
4857000000.000000      4.595642000000000E-01     -1.374951000000000E+01      4.980927000000000E-01     -1.728281000000000E+02      5.450134000000000E-01      1.944580000000000E+00      1.442413000000000E-01      9.177734000000000E+01
4858000000.000000      4.614105000000000E-01     -1.327295000000000E+01      4.984436000000000E-01     -1.732891000000000E+02      5.463562000000000E-01      1.604004000000000E+00      1.492081000000000E-01      9.480078000000000E+01
4859000000.000000      4.606018000000000E-01     -1.337598000000000E+01      4.991455000000000E-01     -1.736328000000000E+02      5.469055000000000E-01      1.598511000000000E+00      1.537323000000000E-01      9.771873000000000E+01
4860000000.000000      4.604034000000000E-01     -1.299316000000000E+01      4.995422000000000E-01     -1.739453000000000E+02      5.469360000000000E-01      1.348572000000000E+00      1.611099000000000E-01      1.002539000000000E+02
4861000000.000000      4.610443000000000E-01     -1.251904000000000E+01      5.002441000000000E-01     -1.743438000000000E+02      5.492249000000000E-01      1.161804000000000E+00      1.660004000000000E-01      1.027773000000000E+02
4862000000.000000      4.593353000000000E-01     -1.242041000000000E+01      5.026245000000000E-01     -1.745703000000000E+02      5.514832000000000E-01      1.262024000000000E+00      1.717224000000000E-01      1.049336000000000E+02
4863000000.000000      4.606018000000000E-01     -1.216504000000000E+01      5.006714000000000E-01     -1.750625000000000E+02      5.518494000000000E-01      9.571838000000000E-01      1.783447000000000E-01      1.063437000000000E+02
4864000000.000000      4.624176000000000E-01     -1.177881000000000E+01      5.037842000000000E-01     -1.752656000000000E+02      5.517273000000000E-01      9.420776000000000E-01      1.854248000000000E-01      1.077461000000000E+02
4865000000.000000      4.644928000000000E-01     -1.164551000000000E+01      5.039368000000000E-01     -1.756484000000000E+02      5.513306000000000E-01      6.756592000000000E-01      1.912231000000000E-01      1.098555000000000E+02
4866000000.000000      4.653473000000000E-01     -1.128027000000000E+01      5.046692000000000E-01     -1.761875000000000E+02      5.520325000000000E-01      6.564331000000000E-01      1.974335000000000E-01      1.108437000000000E+02
4867000000.000000      4.658966000000000E-01     -1.099072000000000E+01      5.056763000000000E-01     -1.765391000000000E+02      5.518494000000000E-01      6.179810000000000E-01      2.029419000000000E-01      1.123828000000000E+02
4868000000.000000      4.669800000000000E-01     -1.094385000000000E+01      5.069885000000000E-01     -1.769453000000000E+02      5.528564000000000E-01      3.254700000000000E-01      2.102203000000000E-01      1.133672000000000E+02
4869000000.000000      4.707947000000000E-01     -1.039209000000000E+01      5.066223000000000E-01     -1.771484000000000E+02      5.518494000000000E-01      2.403259000000000E-01      2.164688000000000E-01      1.142500000000000E+02
4870000000.000000      4.712372000000000E-01     -1.007080000000000E+01      5.080566000000000E-01     -1.773984000000000E+02      5.536499000000000E-01      2.719116000000000E-01      2.242813000000000E-01      1.152422000000000E+02
4871000000.000000      4.711609000000000E-01     -1.000732000000000E+01      5.069275000000000E-01     -1.778281000000000E+02      5.516663000000000E-01      2.883911000000000E-02      2.299957000000000E-01      1.161211000000000E+02
4872000000.000000      4.766541000000000E-01     -1.000586000000000E+01      5.098267000000000E-01     -1.781484000000000E+02      5.523071000000000E-01     -1.620483000000000E-01      2.360764000000000E-01      1.169023000000000E+02
4873000000.000000      4.750977000000000E-01     -9.430664000000000E+00      5.094910000000000E-01     -1.784922000000000E+02      5.529175000000000E-01     -8.789063000000000E-02      2.421875000000000E-01      1.173906000000000E+02
4874000000.000000      4.817047000000000E-01     -9.099609000000000E+00      5.114746000000000E-01     -1.790313000000000E+02      5.531006000000000E-01     -3.501892000000000E-01      2.455368000000000E-01      1.179531000000000E+02
4875000000.000000      4.818420000000000E-01     -9.221680000000000E+00      5.110474000000000E-01     -1.792422000000000E+02      5.520325000000000E-01     -2.348328000000000E-01      2.514038000000000E-01      1.182383000000000E+02
4876000000.000000      4.848938000000000E-01     -8.826172000000000E+00      5.134583000000000E-01     -1.796641000000000E+02      5.529480000000000E-01     -3.419495000000000E-01      2.604370000000000E-01      1.191094000000000E+02
4877000000.000000      4.877777000000000E-01     -8.723145000000000E+00      5.122070000000000E-01     -1.799922000000000E+02      5.522461000000000E-01     -6.056213000000000E-01      2.627869000000000E-01      1.193789000000000E+02
4878000000.000000      4.888611000000000E-01     -8.635254000000000E+00      5.134277000000000E-01      1.795234000000000E+02      5.513916000000000E-01     -4.559326000000000E-01      2.699127000000000E-01      1.195039000000000E+02
4879000000.000000      4.938202000000000E-01     -8.291992000000000E+00      5.141907000000000E-01      1.793672000000000E+02      5.512390000000000E-01     -5.300903000000000E-01      2.743683000000000E-01      1.199023000000000E+02
4880000000.000000      4.961090000000000E-01     -8.197266000000000E+00      5.155029000000000E-01      1.787969000000000E+02      5.517273000000000E-01     -5.355835000000000E-01      2.784576000000000E-01      1.203203000000000E+02
4881000000.000000      4.975586000000000E-01     -8.256348000000000E+00      5.155640000000000E-01      1.786094000000000E+02      5.512695000000000E-01     -6.509399000000000E-01      2.844849000000000E-01      1.207422000000000E+02
4882000000.000000      5.026855000000000E-01     -7.845703000000000E+00      5.180359000000000E-01      1.781406000000000E+02      5.510559000000000E-01     -7.305908000000000E-01      2.883301000000000E-01      1.207773000000000E+02
