! Network Analyzer HP8722D
! Hewlett-Packard
! Data name: Linha & Wilkinson
! Saver's name: Rodrigo Anjos
! Comments: Teste da utilização de aquisição
continua pelo VNA HP8722D
! Time and date: 8/5/2025 14:29
!              Frequency                     S11                                                   S21                                                   S12                                                   S22
# HZ  S  MA R 50
4800000000.000000      5.346985000000000E-01     -2.537890000000000E+01      3.646393000000000E-01     -1.489297000000000E+02      3.828125000000000E-01      1.047949000000000E+01      5.026245000000000E-01      1.411743000000000E+00
4801000000.000000      5.351563000000000E-01     -2.510449000000000E+01      3.684235000000000E-01     -1.491875000000000E+02      3.859711000000000E-01      1.016357000000000E+01      4.974365000000000E-01      1.417236000000000E+00
4802000000.000000      5.328064000000000E-01     -2.491015000000000E+01      3.721313000000000E-01     -1.495312000000000E+02      3.903046000000000E-01      1.011133000000000E+01      4.929657000000000E-01      1.781128000000000E+00
4803000000.000000      5.305786000000000E-01     -2.441992000000000E+01      3.772736000000000E-01     -1.499375000000000E+02      3.925934000000000E-01      1.017578000000000E+01      4.876251000000000E-01      1.638306000000000E+00
4804000000.000000      5.321960000000000E-01     -2.433691000000000E+01      3.806152000000000E-01     -1.504297000000000E+02      3.981323000000000E-01      9.989258000000000E+00      4.810486000000000E-01      1.849792000000000E+00
4805000000.000000      5.326538000000000E-01     -2.398633000000000E+01      3.847809000000000E-01     -1.507031000000000E+02      4.015961000000000E-01      9.865723000000000E+00      4.743958000000000E-01      1.658936000000000E+00
4806000000.000000      5.303040000000000E-01     -2.366504000000000E+01      3.881226000000000E-01     -1.511719000000000E+02      4.054260000000000E-01      9.631836000000000E+00      4.662628000000000E-01      1.934937000000000E+00
4807000000.000000      5.261230000000000E-01     -2.362109000000000E+01      3.920135000000000E-01     -1.516250000000000E+02      4.095306000000000E-01      9.446777000000000E+00      4.593964000000000E-01      2.070923000000000E+00
4808000000.000000      5.263367000000000E-01     -2.328320000000000E+01      3.960724000000000E-01     -1.518437000000000E+02      4.130096000000000E-01      9.294434000000000E+00      4.537811000000000E-01      2.199951000000000E+00
4809000000.000000      5.242310000000000E-01     -2.277246000000000E+01      3.999786000000000E-01     -1.524765000000000E+02      4.164429000000000E-01      9.349121000000000E+00      4.461823000000000E-01      2.485596000000000E+00
4810000000.000000      5.234680000000000E-01     -2.312109000000000E+01      4.040680000000000E-01     -1.527734000000000E+02      4.210510000000000E-01      9.266602000000000E+00      4.387054000000000E-01      2.411499000000000E+00
4811000000.000000      5.240784000000000E-01     -2.269824000000000E+01      4.077606000000000E-01     -1.533516000000000E+02      4.252319000000000E-01      8.858887000000000E+00      4.315186000000000E-01      2.787720000000000E+00
4812000000.000000      5.228882000000000E-01     -2.233008000000000E+01      4.114990000000000E-01     -1.537109000000000E+02      4.280548000000000E-01      8.862793000000000E+00      4.235535000000000E-01      2.753418000000000E+00
4813000000.000000      5.199890000000000E-01     -2.222168000000000E+01      4.145203000000000E-01     -1.542578000000000E+02      4.314880000000000E-01      8.603516000000000E+00      4.166565000000000E-01      3.177734000000000E+00
4814000000.000000      5.197144000000000E-01     -2.215039000000000E+01      4.182587000000000E-01     -1.546016000000000E+02      4.353638000000000E-01      8.354980000000000E+00      4.073029000000000E-01      3.309570000000000E+00
4815000000.000000      5.170593000000000E-01     -2.170410000000000E+01      4.207153000000000E-01     -1.550078000000000E+02      4.373627000000000E-01      8.210449000000000E+00      3.996124000000000E-01      3.615845000000000E+00
4816000000.000000      5.160522000000000E-01     -2.144433000000000E+01      4.242859000000000E-01     -1.554844000000000E+02      4.425964000000000E-01      8.309570000000000E+00      3.923950000000000E-01      3.709229000000000E+00
4817000000.000000      5.154724000000000E-01     -2.131543000000000E+01      4.273071000000000E-01     -1.559453000000000E+02      4.444580000000000E-01      8.174805000000000E+00      3.820801000000000E-01      4.182861000000000E+00
4818000000.000000      5.132751000000000E-01     -2.134961000000000E+01      4.304504000000000E-01     -1.564453000000000E+02      4.487762000000000E-01      7.800293000000000E+00      3.731232000000000E-01      4.461670000000000E+00
4819000000.000000      5.119324000000000E-01     -2.107910000000000E+01      4.333801000000000E-01     -1.568281000000000E+02      4.525604000000000E-01      7.824951000000000E+00      3.644257000000000E-01      4.623779000000000E+00
4820000000.000000      5.102234000000000E-01     -2.080176000000000E+01      4.365082000000000E-01     -1.572344000000000E+02      4.552307000000000E-01      7.491211000000000E+00      3.557739000000000E-01      5.075684000000000E+00
4821000000.000000      5.094299000000000E-01     -2.069824000000000E+01      4.393616000000000E-01     -1.578906000000000E+02      4.571381000000000E-01      7.340088000000000E+00      3.463745000000000E-01      5.560303000000000E+00
4822000000.000000      5.061951000000000E-01     -2.076367000000000E+01      4.411926000000000E-01     -1.582109000000000E+02      4.608917000000000E-01      7.399170000000000E+00      3.384247000000000E-01      5.793701000000000E+00
4823000000.000000      5.065613000000000E-01     -2.039649000000000E+01      4.453430000000000E-01     -1.586875000000000E+02      4.632263000000000E-01      7.360840000000000E+00      3.286591000000000E-01      6.216797000000000E+00
4824000000.000000      5.035706000000000E-01     -2.024805000000000E+01      4.475250000000000E-01     -1.592187000000000E+02      4.680328000000000E-01      6.735840000000000E+00      3.191071000000000E-01      6.649414000000000E+00
4825000000.000000      5.028381000000000E-01     -1.998730000000000E+01      4.507141000000000E-01     -1.595937000000000E+02      4.728394000000000E-01      7.091553000000000E+00      3.116455000000000E-01      7.208252000000000E+00
4826000000.000000      5.015869000000000E-01     -2.026074000000000E+01      4.526672000000000E-01     -1.601797000000000E+02      4.748535000000000E-01      6.571045000000000E+00      3.010864000000000E-01      7.826172000000000E+00
4827000000.000000      4.998169000000000E-01     -1.966504000000000E+01      4.549866000000000E-01     -1.605000000000000E+02      4.775238000000000E-01      6.674072000000000E+00      2.917480000000000E-01      8.451172000000000E+00
4828000000.000000      4.994812000000000E-01     -1.966016000000000E+01      4.579620000000000E-01     -1.608828000000000E+02      4.803925000000000E-01      6.553223000000000E+00      2.831268000000000E-01      8.889160000000000E+00
4829000000.000000      4.958801000000000E-01     -1.951953000000000E+01      4.601440000000000E-01     -1.614766000000000E+02      4.835663000000000E-01      6.405029000000000E+00      2.748260000000000E-01      1.002197000000000E+01
4830000000.000000      4.954834000000000E-01     -1.936816000000000E+01      4.627075000000000E-01     -1.620391000000000E+02      4.856415000000000E-01      6.131592000000000E+00      2.632141000000000E-01      1.095020000000000E+01
4831000000.000000      4.948883000000000E-01     -1.932031000000000E+01      4.641724000000000E-01     -1.625391000000000E+02      4.908600000000000E-01      6.058838000000000E+00      2.544250000000000E-01      1.165234000000000E+01
4832000000.000000      4.911499000000000E-01     -1.914941000000000E+01      4.656677000000000E-01     -1.629375000000000E+02      4.917450000000000E-01      5.806152000000000E+00      2.439957000000000E-01      1.310938000000000E+01
4833000000.000000      4.890137000000000E-01     -1.903711000000000E+01      4.681854000000000E-01     -1.632266000000000E+02      4.950409000000000E-01      5.567139000000000E+00      2.352066000000000E-01      1.407617000000000E+01
4834000000.000000      4.874115000000000E-01     -1.903125000000000E+01      4.700165000000000E-01     -1.637344000000000E+02      4.976501000000000E-01      5.583740000000000E+00      2.259674000000000E-01      1.555371000000000E+01
4835000000.000000      4.860229000000000E-01     -1.861914000000000E+01      4.714966000000000E-01     -1.642891000000000E+02      5.019531000000000E-01      5.420166000000000E+00      2.170639000000000E-01      1.665332000000000E+01
4836000000.000000      4.856720000000000E-01     -1.846484000000000E+01      4.726868000000000E-01     -1.646172000000000E+02      5.040894000000000E-01      5.407959000000000E+00      2.079926000000000E-01      1.834765000000000E+01
4837000000.000000      4.818115000000000E-01     -1.829785000000000E+01      4.739990000000000E-01     -1.653828000000000E+02      5.058899000000000E-01      5.118164000000000E+00      1.992188000000000E-01      2.016602000000000E+01
4838000000.000000      4.800262000000000E-01     -1.829297000000000E+01      4.766846000000000E-01     -1.653906000000000E+02      5.088501000000000E-01      4.902588000000000E+00      1.913147000000000E-01      2.197949000000000E+01
4839000000.000000      4.801331000000000E-01     -1.773242000000000E+01      4.782715000000000E-01     -1.658750000000000E+02      5.096130000000000E-01      4.916260000000000E+00      1.839371000000000E-01      2.376953000000000E+01
4840000000.000000      4.785156000000000E-01     -1.802051000000000E+01      4.802551000000000E-01     -1.663750000000000E+02      5.144958000000000E-01      4.685547000000000E+00      1.751862000000000E-01      2.608691000000000E+01
4841000000.000000      4.751282000000000E-01     -1.749023000000000E+01      4.812775000000000E-01     -1.669062000000000E+02      5.166626000000000E-01      4.393066000000000E+00      1.676178000000000E-01      2.895020000000000E+01
4842000000.000000      4.745789000000000E-01     -1.768164000000000E+01      4.826050000000000E-01     -1.672656000000000E+02      5.167236000000000E-01      4.365479000000000E+00      1.620712000000000E-01      3.170215000000000E+01
4843000000.000000      4.730988000000000E-01     -1.731445000000000E+01      4.840088000000000E-01     -1.677656000000000E+02      5.213928000000000E-01      4.266602000000000E+00      1.549911000000000E-01      3.502344000000000E+01
4844000000.000000      4.697418000000000E-01     -1.720605000000000E+01      4.846802000000000E-01     -1.681406000000000E+02      5.231323000000000E-01      3.906982000000000E+00      1.476822000000000E-01      3.819140000000000E+01
4845000000.000000      4.705505000000000E-01     -1.691797000000000E+01      4.861755000000000E-01     -1.684219000000000E+02      5.265503000000000E-01      3.757324000000000E+00      1.432877000000000E-01      4.173633000000000E+01
4846000000.000000      4.716949000000000E-01     -1.650195000000000E+01      4.872589000000000E-01     -1.689219000000000E+02      5.289917000000000E-01      3.558105000000000E+00      1.386719000000000E-01      4.569531000000000E+01
4847000000.000000      4.682770000000000E-01     -1.633203000000000E+01      4.884949000000000E-01     -1.693047000000000E+02      5.307617000000000E-01      3.457886000000000E+00      1.338196000000000E-01      4.992969000000000E+01
4848000000.000000      4.689178000000000E-01     -1.604980000000000E+01      4.882813000000000E-01     -1.694453000000000E+02      5.319214000000000E-01      3.190063000000000E+00      1.323547000000000E-01      5.437500000000000E+01
4849000000.000000      4.661407000000000E-01     -1.586328000000000E+01      4.907227000000000E-01     -1.700234000000000E+02      5.335083000000000E-01      3.022583000000000E+00      1.292114000000000E-01      5.893164000000000E+01
4850000000.000000      4.646912000000000E-01     -1.548145000000000E+01      4.903870000000000E-01     -1.703672000000000E+02      5.361633000000000E-01      2.949829000000000E+00      1.283951000000000E-01      6.348437000000000E+01
4851000000.000000      4.632568000000000E-01     -1.542627000000000E+01      4.932251000000000E-01     -1.708125000000000E+02      5.374756000000000E-01      2.925049000000000E+00      1.287003000000000E-01      6.780859000000000E+01
4852000000.000000      4.644775000000000E-01     -1.520117000000000E+01      4.936981000000000E-01     -1.711719000000000E+02      5.390625000000000E-01      2.676514000000000E+00      1.293411000000000E-01      7.196875000000000E+01
4853000000.000000      4.619598000000000E-01     -1.514648000000000E+01      4.927368000000000E-01     -1.715312000000000E+02      5.408630000000000E-01      2.415527000000000E+00      1.312332000000000E-01      7.657812000000000E+01
4854000000.000000      4.622498000000000E-01     -1.476318000000000E+01      4.941406000000000E-01     -1.719687000000000E+02      5.420837000000000E-01      2.322144000000000E+00      1.344604000000000E-01      8.046093000000000E+01
4855000000.000000      4.596558000000000E-01     -1.430859000000000E+01      4.957275000000000E-01     -1.723828000000000E+02      5.431519000000000E-01      2.124390000000000E+00      1.369095000000000E-01      8.507421000000000E+01
4856000000.000000      4.614105000000000E-01     -1.392383000000000E+01      4.955750000000000E-01     -1.727109000000000E+02      5.445862000000000E-01      1.903381000000000E+00      1.410065000000000E-01      8.848047000000000E+01
4857000000.000000      4.615936000000000E-01     -1.376758000000000E+01      4.979706000000000E-01     -1.729531000000000E+02      5.452271000000000E-01      1.741333000000000E+00      1.449890000000000E-01      9.195313000000000E+01
4858000000.000000      4.598236000000000E-01     -1.336230000000000E+01      4.985809000000000E-01     -1.733906000000000E+02      5.472717000000000E-01      1.582031000000000E+00      1.499023000000000E-01      9.469921000000000E+01
4859000000.000000      4.600983000000000E-01     -1.310303000000000E+01      4.996948000000000E-01     -1.738516000000000E+02      5.472107000000000E-01      1.510620000000000E+00      1.551208000000000E-01      9.758984000000000E+01
4860000000.000000      4.603577000000000E-01     -1.304395000000000E+01      4.987488000000000E-01     -1.739766000000000E+02      5.466003000000000E-01      1.362305000000000E+00      1.616058000000000E-01      9.993359000000000E+01
4861000000.000000      4.608307000000000E-01     -1.258350000000000E+01      4.994202000000000E-01     -1.744609000000000E+02      5.505066000000000E-01      1.197510000000000E+00      1.664200000000000E-01      1.025664000000000E+02
4862000000.000000      4.604492000000000E-01     -1.240088000000000E+01      5.026855000000000E-01     -1.748047000000000E+02      5.501404000000000E-01      1.109619000000000E+00      1.727219000000000E-01      1.045000000000000E+02
4863000000.000000      4.622345000000000E-01     -1.207813000000000E+01      5.006409000000000E-01     -1.751875000000000E+02      5.497742000000000E-01      8.940125000000000E-01      1.804428000000000E-01      1.058437000000000E+02
4864000000.000000      4.647064000000000E-01     -1.184766000000000E+01      5.049438000000000E-01     -1.753438000000000E+02      5.522156000000000E-01      6.811523000000000E-01      1.876984000000000E-01      1.079102000000000E+02
4865000000.000000      4.646454000000000E-01     -1.142871000000000E+01      5.035706000000000E-01     -1.755781000000000E+02      5.509949000000000E-01      6.509399000000000E-01      1.930313000000000E-01      1.094765000000000E+02
4866000000.000000      4.655151000000000E-01     -1.139844000000000E+01      5.036316000000000E-01     -1.761172000000000E+02      5.529785000000000E-01      5.094910000000000E-01      1.983871000000000E-01      1.107227000000000E+02
4867000000.000000      4.640503000000000E-01     -1.092871000000000E+01      5.046997000000000E-01     -1.765078000000000E+02      5.506592000000000E-01      5.300903000000000E-01      2.039795000000000E-01      1.120742000000000E+02
4868000000.000000      4.667053000000000E-01     -1.073389000000000E+01      5.079956000000000E-01     -1.769140000000000E+02      5.536194000000000E-01      3.158569000000000E-01      2.126846000000000E-01      1.132461000000000E+02
4869000000.000000      4.688416000000000E-01     -1.054297000000000E+01      5.071106000000000E-01     -1.774765000000000E+02      5.521240000000000E-01      1.387024000000000E-01      2.174072000000000E-01      1.140273000000000E+02
4870000000.000000      4.718933000000000E-01     -1.021631000000000E+01      5.079041000000000E-01     -1.774531000000000E+02      5.531311000000000E-01      2.279663000000000E-01      2.243271000000000E-01      1.151367000000000E+02
4871000000.000000      4.729614000000000E-01     -1.026416000000000E+01      5.089722000000000E-01     -1.779297000000000E+02      5.520020000000000E-01     -3.158569000000000E-02      2.301331000000000E-01      1.155820000000000E+02
4872000000.000000      4.767303000000000E-01     -9.699707000000000E+00      5.075073000000000E-01     -1.780859000000000E+02      5.527344000000000E-01     -1.167297000000000E-01      2.363968000000000E-01      1.165859000000000E+02
4873000000.000000      4.760895000000000E-01     -9.315430000000000E+00      5.081482000000000E-01     -1.787031000000000E+02      5.522156000000000E-01     -2.911377000000000E-01      2.423630000000000E-01      1.172187000000000E+02
4874000000.000000      4.775391000000000E-01     -8.991211000000000E+00      5.104675000000000E-01     -1.789922000000000E+02      5.530090000000000E-01     -4.298401000000000E-01      2.476730000000000E-01      1.173359000000000E+02
4875000000.000000      4.821014000000000E-01     -9.351074000000000E+00      5.101318000000000E-01     -1.792969000000000E+02      5.513611000000000E-01     -3.776550000000000E-01      2.533875000000000E-01      1.186016000000000E+02
4876000000.000000      4.850006000000000E-01     -8.685059000000000E+00      5.121765000000000E-01     -1.797656000000000E+02      5.539246000000000E-01     -3.982544000000000E-01      2.604065000000000E-01      1.189180000000000E+02
4877000000.000000      4.865570000000000E-01     -9.017090000000000E+00      5.130920000000000E-01      1.798359000000000E+02      5.512695000000000E-01     -6.468201000000000E-01      2.641144000000000E-01      1.191758000000000E+02
4878000000.000000      4.889679000000000E-01     -8.477539000000000E+00      5.130310000000000E-01      1.795391000000000E+02      5.512085000000000E-01     -6.193542000000000E-01      2.678375000000000E-01      1.193242000000000E+02
4879000000.000000      4.934540000000000E-01     -8.278320000000000E+00      5.140686000000000E-01      1.792734000000000E+02      5.510559000000000E-01     -7.305908000000000E-01      2.749939000000000E-01      1.197812000000000E+02
4880000000.000000      4.960480000000000E-01     -8.332031000000000E+00      5.139160000000000E-01      1.786328000000000E+02      5.505981000000000E-01     -7.498169000000000E-01      2.800140000000000E-01      1.201172000000000E+02
4881000000.000000      5.002747000000000E-01     -8.102539000000000E+00      5.165710000000000E-01      1.784531000000000E+02      5.503235000000000E-01     -7.429504000000000E-01      2.841949000000000E-01      1.201133000000000E+02
4882000000.000000      5.034180000000000E-01     -7.893799000000000E+00      5.169983000000000E-01      1.779297000000000E+02      5.508728000000000E-01     -8.514404000000000E-01      2.889099000000000E-01      1.206484000000000E+02
