! Network Analyzer HP8722D
! Hewlett-Packard
! Data name: Linha & Wilkinson
! Saver's name: Rodrigo Anjos
! Comments: Teste da utilização de aquisição
continua pelo VNA HP8722D
! Time and date: 8/5/2025 16:37
!              Frequency                     S11                                                   S21                                                   S12                                                   S22
# HZ  S  MA R 50
4800000000.000000      4.932098000000000E-01     -1.675078000000000E+02      2.597351000000000E-01     -2.035449000000000E+01      2.565155000000000E-01     -1.416484000000000E+02      6.522217000000000E-01     -8.032421000000000E+01
4801000000.000000      4.950867000000000E-01     -1.675937000000000E+02      2.639618000000000E-01     -2.066895000000000E+01      2.599487000000000E-01     -1.417109000000000E+02      6.504211000000000E-01     -7.996484000000000E+01
4802000000.000000      4.960327000000000E-01     -1.676797000000000E+02      2.680359000000000E-01     -2.088281000000000E+01      2.634888000000000E-01     -1.417969000000000E+02      6.484680000000000E-01     -7.971484000000000E+01
4803000000.000000      4.973145000000000E-01     -1.677500000000000E+02      2.726440000000000E-01     -2.121777000000000E+01      2.666321000000000E-01     -1.418359000000000E+02      6.481934000000000E-01     -7.953515000000000E+01
4804000000.000000      5.000610000000000E-01     -1.676953000000000E+02      2.756348000000000E-01     -2.142676000000000E+01      2.707520000000000E-01     -1.420000000000000E+02      6.487427000000000E-01     -7.925781000000000E+01
4805000000.000000      5.027771000000000E-01     -1.677813000000000E+02      2.797699000000000E-01     -2.180566000000000E+01      2.743835000000000E-01     -1.420078000000000E+02      6.473694000000000E-01     -7.914063000000000E+01
4806000000.000000      5.046082000000000E-01     -1.677266000000000E+02      2.840729000000000E-01     -2.217480000000000E+01      2.770538000000000E-01     -1.420000000000000E+02      6.479797000000000E-01     -7.903906000000000E+01
4807000000.000000      5.076904000000000E-01     -1.677734000000000E+02      2.884216000000000E-01     -2.245508000000000E+01      2.816162000000000E-01     -1.422812000000000E+02      6.481018000000000E-01     -7.868750000000000E+01
4808000000.000000      5.106201000000000E-01     -1.676875000000000E+02      2.926025000000000E-01     -2.271777000000000E+01      2.843781000000000E-01     -1.424453000000000E+02      6.475220000000000E-01     -7.844921000000000E+01
4809000000.000000      5.126343000000000E-01     -1.677344000000000E+02      2.960052000000000E-01     -2.327929000000000E+01      2.887115000000000E-01     -1.427109000000000E+02      6.480713000000000E-01     -7.841406000000000E+01
4810000000.000000      5.162659000000000E-01     -1.677734000000000E+02      2.997437000000000E-01     -2.357617000000000E+01      2.911835000000000E-01     -1.427187000000000E+02      6.492615000000000E-01     -7.822266000000000E+01
4811000000.000000      5.193787000000000E-01     -1.676875000000000E+02      3.040924000000000E-01     -2.407031000000000E+01      2.958984000000000E-01     -1.428125000000000E+02      6.486511000000000E-01     -7.796484000000000E+01
4812000000.000000      5.234070000000000E-01     -1.676484000000000E+02      3.075104000000000E-01     -2.445605000000000E+01      2.986603000000000E-01     -1.430078000000000E+02      6.495972000000000E-01     -7.780078000000000E+01
4813000000.000000      5.259094000000000E-01     -1.676484000000000E+02      3.105011000000000E-01     -2.479687000000000E+01      3.007507000000000E-01     -1.431953000000000E+02      6.506653000000000E-01     -7.760156000000000E+01
4814000000.000000      5.290833000000000E-01     -1.676953000000000E+02      3.147736000000000E-01     -2.516308000000000E+01      3.045044000000000E-01     -1.433984000000000E+02      6.529846000000000E-01     -7.739843000000000E+01
4815000000.000000      5.332947000000000E-01     -1.675703000000000E+02      3.175507000000000E-01     -2.557422000000000E+01      3.071594000000000E-01     -1.434531000000000E+02      6.518555000000000E-01     -7.716406000000000E+01
4816000000.000000      5.376587000000000E-01     -1.674766000000000E+02      3.218689000000000E-01     -2.593750000000000E+01      3.112793000000000E-01     -1.436172000000000E+02      6.548462000000000E-01     -7.696875000000000E+01
4817000000.000000      5.423279000000000E-01     -1.673828000000000E+02      3.249359000000000E-01     -2.650195000000000E+01      3.134460000000000E-01     -1.438828000000000E+02      6.557312000000000E-01     -7.689453000000000E+01
4818000000.000000      5.462646000000000E-01     -1.674297000000000E+02      3.283691000000000E-01     -2.687597000000000E+01      3.170929000000000E-01     -1.440234000000000E+02      6.576538000000000E-01     -7.675781000000000E+01
4819000000.000000      5.515137000000000E-01     -1.673203000000000E+02      3.314209000000000E-01     -2.742480000000000E+01      3.196411000000000E-01     -1.441641000000000E+02      6.599426000000000E-01     -7.661327000000000E+01
4820000000.000000      5.534363000000000E-01     -1.673047000000000E+02      3.341522000000000E-01     -2.779199000000000E+01      3.232574000000000E-01     -1.444062000000000E+02      6.606750000000000E-01     -7.641406000000000E+01
4821000000.000000      5.604553000000000E-01     -1.671562000000000E+02      3.384399000000000E-01     -2.839453000000000E+01      3.252716000000000E-01     -1.446640000000000E+02      6.618652000000000E-01     -7.635547000000000E+01
4822000000.000000      5.671387000000000E-01     -1.671797000000000E+02      3.404083000000000E-01     -2.868945000000000E+01      3.273926000000000E-01     -1.448984000000000E+02      6.659241000000000E-01     -7.624218000000000E+01
4823000000.000000      5.703125000000000E-01     -1.670078000000000E+02      3.434906000000000E-01     -2.933984000000000E+01      3.305511000000000E-01     -1.448203000000000E+02      6.666260000000000E-01     -7.605859000000000E+01
4824000000.000000      5.770874000000000E-01     -1.670781000000000E+02      3.476105000000000E-01     -2.997265000000000E+01      3.335724000000000E-01     -1.452656000000000E+02      6.709290000000000E-01     -7.597656000000000E+01
4825000000.000000      5.817871000000000E-01     -1.669219000000000E+02      3.496857000000000E-01     -3.022754000000000E+01      3.367462000000000E-01     -1.453125000000000E+02      6.727295000000000E-01     -7.589844000000000E+01
4826000000.000000      5.885315000000000E-01     -1.668516000000000E+02      3.528595000000000E-01     -3.087793000000000E+01      3.380737000000000E-01     -1.455703000000000E+02      6.754761000000000E-01     -7.580468000000000E+01
4827000000.000000      5.937500000000000E-01     -1.666875000000000E+02      3.558655000000000E-01     -3.129395000000000E+01      3.411102000000000E-01     -1.458047000000000E+02      6.785889000000000E-01     -7.565234000000000E+01
4828000000.000000      6.009827000000000E-01     -1.666406000000000E+02      3.584290000000000E-01     -3.179590000000000E+01      3.433380000000000E-01     -1.459922000000000E+02      6.824951000000000E-01     -7.557812000000000E+01
4829000000.000000      6.039429000000000E-01     -1.665234000000000E+02      3.602142000000000E-01     -3.245508000000000E+01      3.457031000000000E-01     -1.462265000000000E+02      6.855774000000000E-01     -7.533203000000000E+01
4830000000.000000      6.114502000000000E-01     -1.665078000000000E+02      3.630524000000000E-01     -3.301953000000000E+01      3.485107000000000E-01     -1.462578000000000E+02      6.869812000000000E-01     -7.545703000000000E+01
4831000000.000000      6.169739000000000E-01     -1.663906000000000E+02      3.650360000000000E-01     -3.352734000000000E+01      3.504791000000000E-01     -1.463438000000000E+02      6.911316000000000E-01     -7.539063000000000E+01
4832000000.000000      6.258850000000000E-01     -1.663594000000000E+02      3.680115000000000E-01     -3.408594000000000E+01      3.529205000000000E-01     -1.467500000000000E+02      6.937866000000000E-01     -7.526562000000000E+01
4833000000.000000      6.321106000000000E-01     -1.663828000000000E+02      3.699951000000000E-01     -3.445313000000000E+01      3.540192000000000E-01     -1.469141000000000E+02      6.975403000000000E-01     -7.522655000000000E+01
4834000000.000000      6.381531000000000E-01     -1.662266000000000E+02      3.724518000000000E-01     -3.518359000000000E+01      3.567657000000000E-01     -1.470078000000000E+02      7.004395000000000E-01     -7.512890000000000E+01
4835000000.000000      6.440735000000000E-01     -1.661641000000000E+02      3.738251000000000E-01     -3.565234000000000E+01      3.593292000000000E-01     -1.472031000000000E+02      7.046204000000000E-01     -7.520312000000000E+01
4836000000.000000      6.526489000000000E-01     -1.660938000000000E+02      3.761597000000000E-01     -3.611914000000000E+01      3.603210000000000E-01     -1.474922000000000E+02      7.078247000000000E-01     -7.505468000000000E+01
4837000000.000000      6.594238000000000E-01     -1.660078000000000E+02      3.778076000000000E-01     -3.706640000000000E+01      3.627625000000000E-01     -1.478750000000000E+02      7.113953000000000E-01     -7.500000000000000E+01
4838000000.000000      6.664124000000000E-01     -1.660859000000000E+02      3.798065000000000E-01     -3.721875000000000E+01      3.650818000000000E-01     -1.478750000000000E+02      7.154846000000000E-01     -7.491405000000000E+01
4839000000.000000      6.736450000000000E-01     -1.659062000000000E+02      3.807678000000000E-01     -3.775195000000000E+01      3.670959000000000E-01     -1.480000000000000E+02      7.196960000000000E-01     -7.493359000000000E+01
4840000000.000000      6.789856000000000E-01     -1.659765000000000E+02      3.826447000000000E-01     -3.842968000000000E+01      3.688202000000000E-01     -1.483281000000000E+02      7.231750000000000E-01     -7.496484000000000E+01
4841000000.000000      6.875305000000000E-01     -1.659765000000000E+02      3.838348000000000E-01     -3.913476000000000E+01      3.701782000000000E-01     -1.484609000000000E+02      7.271729000000000E-01     -7.496094000000000E+01
4842000000.000000      6.947327000000000E-01     -1.658984000000000E+02      3.853912000000000E-01     -3.958789000000000E+01      3.716736000000000E-01     -1.486328000000000E+02      7.319031000000000E-01     -7.497265000000000E+01
4843000000.000000      7.015381000000000E-01     -1.659609000000000E+02      3.861847000000000E-01     -4.013085000000000E+01      3.740234000000000E-01     -1.488672000000000E+02      7.367554000000000E-01     -7.483203000000000E+01
4844000000.000000      7.083435000000000E-01     -1.658359000000000E+02      3.870544000000000E-01     -4.053906000000000E+01      3.756866000000000E-01     -1.491016000000000E+02      7.394409000000000E-01     -7.487499000000000E+01
4845000000.000000      7.149353000000000E-01     -1.658125000000000E+02      3.880768000000000E-01     -4.113867000000000E+01      3.772583000000000E-01     -1.492344000000000E+02      7.438660000000000E-01     -7.482812000000000E+01
4846000000.000000      7.221680000000000E-01     -1.657578000000000E+02      3.888397000000000E-01     -4.175000000000000E+01      3.797607000000000E-01     -1.493515000000000E+02      7.479858000000000E-01     -7.501171000000000E+01
4847000000.000000      7.295837000000000E-01     -1.657891000000000E+02      3.895569000000000E-01     -4.216797000000000E+01      3.811035000000000E-01     -1.495937000000000E+02      7.537537000000000E-01     -7.503906000000000E+01
4848000000.000000      7.379456000000000E-01     -1.657812000000000E+02      3.898773000000000E-01     -4.268750000000000E+01      3.820648000000000E-01     -1.496875000000000E+02      7.564087000000000E-01     -7.495703000000000E+01
4849000000.000000      7.438354000000000E-01     -1.659609000000000E+02      3.907013000000000E-01     -4.341406000000000E+01      3.838348000000000E-01     -1.498437000000000E+02      7.621155000000000E-01     -7.493750000000000E+01
4850000000.000000      7.513733000000000E-01     -1.658359000000000E+02      3.908234000000000E-01     -4.383985000000000E+01      3.853149000000000E-01     -1.500547000000000E+02      7.662659000000000E-01     -7.484765000000000E+01
4851000000.000000      7.581482000000000E-01     -1.657187000000000E+02      3.915710000000000E-01     -4.448828000000000E+01      3.865204000000000E-01     -1.502656000000000E+02      7.712708000000000E-01     -7.499218000000000E+01
4852000000.000000      7.661743000000000E-01     -1.657891000000000E+02      3.922119000000000E-01     -4.494531000000000E+01      3.882751000000000E-01     -1.503438000000000E+02      7.755432000000000E-01     -7.501953000000000E+01
4853000000.000000      7.725220000000000E-01     -1.658516000000000E+02      3.905640000000000E-01     -4.538867000000000E+01      3.899231000000000E-01     -1.505312000000000E+02      7.812195000000000E-01     -7.519921000000000E+01
4854000000.000000      7.785339000000000E-01     -1.658437000000000E+02      3.909760000000000E-01     -4.606445000000000E+01      3.901825000000000E-01     -1.508359000000000E+02      7.849426000000000E-01     -7.519531000000000E+01
4855000000.000000      7.842407000000000E-01     -1.658672000000000E+02      3.910370000000000E-01     -4.646680000000000E+01      3.913879000000000E-01     -1.508359000000000E+02      7.886658000000000E-01     -7.518749000000000E+01
4856000000.000000      7.918396000000000E-01     -1.657734000000000E+02      3.913574000000000E-01     -4.691211000000000E+01      3.928223000000000E-01     -1.509922000000000E+02      7.944031000000000E-01     -7.528906000000000E+01
4857000000.000000      7.980347000000000E-01     -1.659297000000000E+02      3.910065000000000E-01     -4.728906000000000E+01      3.942413000000000E-01     -1.511875000000000E+02      7.992859000000000E-01     -7.523046000000000E+01
4858000000.000000      8.005066000000000E-01     -1.659141000000000E+02      3.902588000000000E-01     -4.781836000000000E+01      3.946838000000000E-01     -1.513438000000000E+02      8.037720000000000E-01     -7.542187000000000E+01
4859000000.000000      8.082886000000000E-01     -1.659297000000000E+02      3.899841000000000E-01     -4.833593000000000E+01      3.963470000000000E-01     -1.516250000000000E+02      8.103638000000000E-01     -7.551171000000000E+01
4860000000.000000      8.168945000000000E-01     -1.659375000000000E+02      3.896027000000000E-01     -4.869531000000000E+01      3.970642000000000E-01     -1.516016000000000E+02      8.134155000000000E-01     -7.550390000000000E+01
4861000000.000000      8.218689000000000E-01     -1.658672000000000E+02      3.895264000000000E-01     -4.938671000000000E+01      3.989868000000000E-01     -1.517656000000000E+02      8.179321000000000E-01     -7.553124000000000E+01
4862000000.000000      8.244629000000000E-01     -1.659375000000000E+02      3.877411000000000E-01     -4.950781000000000E+01      3.994751000000000E-01     -1.518984000000000E+02      8.249512000000000E-01     -7.564453000000000E+01
4863000000.000000      8.315430000000000E-01     -1.659453000000000E+02      3.873138000000000E-01     -5.015820000000000E+01      4.012604000000000E-01     -1.521484000000000E+02      8.287354000000000E-01     -7.561328000000000E+01
4864000000.000000      8.392334000000000E-01     -1.660078000000000E+02      3.863983000000000E-01     -5.036523000000000E+01      4.003448000000000E-01     -1.522266000000000E+02      8.350220000000000E-01     -7.576172000000000E+01
4865000000.000000      8.395081000000000E-01     -1.660234000000000E+02      3.850098000000000E-01     -5.079296000000000E+01      4.016724000000000E-01     -1.524844000000000E+02      8.385010000000000E-01     -7.579687000000000E+01
4866000000.000000      8.439331000000000E-01     -1.659062000000000E+02      3.840179000000000E-01     -5.122265000000000E+01      4.029694000000000E-01     -1.526094000000000E+02      8.444519000000000E-01     -7.587891000000000E+01
4867000000.000000      8.512573000000000E-01     -1.660000000000000E+02      3.836517000000000E-01     -5.172070000000000E+01      4.031677000000000E-01     -1.527422000000000E+02      8.476257000000000E-01     -7.596093000000000E+01
4868000000.000000      8.550110000000000E-01     -1.660234000000000E+02      3.826294000000000E-01     -5.205468000000000E+01      4.048157000000000E-01     -1.529063000000000E+02      8.521423000000000E-01     -7.597656000000000E+01
4869000000.000000      8.579102000000000E-01     -1.659219000000000E+02      3.800354000000000E-01     -5.245507000000000E+01      4.049683000000000E-01     -1.531094000000000E+02      8.565674000000000E-01     -7.624218000000000E+01
4870000000.000000      8.632813000000000E-01     -1.659531000000000E+02      3.804474000000000E-01     -5.252734000000000E+01      4.054108000000000E-01     -1.532812000000000E+02      8.622437000000000E-01     -7.625000000000000E+01
4871000000.000000      8.644104000000000E-01     -1.660391000000000E+02      3.788147000000000E-01     -5.304101000000000E+01      4.055481000000000E-01     -1.534375000000000E+02      8.654785000000000E-01     -7.637500000000000E+01
4872000000.000000      8.705444000000000E-01     -1.659062000000000E+02      3.763428000000000E-01     -5.328125000000000E+01      4.061127000000000E-01     -1.536719000000000E+02      8.711243000000000E-01     -7.645702000000000E+01
4873000000.000000      8.708191000000000E-01     -1.658516000000000E+02      3.752136000000000E-01     -5.356250000000000E+01      4.061279000000000E-01     -1.537734000000000E+02      8.732910000000000E-01     -7.662499000000000E+01
4874000000.000000      8.777466000000000E-01     -1.659375000000000E+02      3.739319000000000E-01     -5.389453000000000E+01      4.077301000000000E-01     -1.538359000000000E+02      8.788757000000000E-01     -7.651172000000000E+01
4875000000.000000      8.796997000000000E-01     -1.657578000000000E+02      3.727417000000000E-01     -5.403515000000000E+01      4.078522000000000E-01     -1.541875000000000E+02      8.819580000000000E-01     -7.682031000000000E+01
4876000000.000000      8.824158000000000E-01     -1.658750000000000E+02      3.709717000000000E-01     -5.435937000000000E+01      4.069672000000000E-01     -1.542187000000000E+02      8.862610000000000E-01     -7.691406000000000E+01
4877000000.000000      8.838806000000000E-01     -1.656484000000000E+02      3.703766000000000E-01     -5.456249000000000E+01      4.084167000000000E-01     -1.544922000000000E+02      8.916321000000000E-01     -7.713672000000000E+01
4878000000.000000      8.877258000000000E-01     -1.655000000000000E+02      3.690491000000000E-01     -5.484765000000000E+01      4.082031000000000E-01     -1.545000000000000E+02      8.955383000000000E-01     -7.725390000000000E+01
4879000000.000000      8.908081000000000E-01     -1.657500000000000E+02      3.671112000000000E-01     -5.500586000000000E+01      4.079285000000000E-01     -1.546641000000000E+02      8.996887000000000E-01     -7.723437000000000E+01
4880000000.000000      8.893738000000000E-01     -1.655313000000000E+02      3.656311000000000E-01     -5.518749000000000E+01      4.088440000000000E-01     -1.547422000000000E+02      9.023743000000000E-01     -7.733984000000000E+01
4881000000.000000      8.948364000000000E-01     -1.654063000000000E+02      3.650513000000000E-01     -5.531250000000000E+01      4.087219000000000E-01     -1.549922000000000E+02      9.066162000000000E-01     -7.748437000000000E+01
4882000000.000000      8.936462000000000E-01     -1.653750000000000E+02      3.628082000000000E-01     -5.558594000000000E+01      4.082031000000000E-01     -1.550547000000000E+02      9.074097000000000E-01     -7.760937000000000E+01
