! Network Analyzer HP8722D
! Hewlett-Packard
! Data name: Linha & Wilkinson
! Saver's name: Rodrigo Anjos
! Comments: Teste da utilização de aquisição
continua pelo VNA HP8722D
! Time and date: 8/5/2025 15:46
!              Frequency                     S11                                                   S21                                                   S12                                                   S22
# HZ  S  MA R 50
4800000000.000000      9.383850000000000E-01      1.629766000000000E+02      4.551697000000000E-01      1.201367000000000E+02      4.447174000000000E-01      1.545215000000000E+01      9.338989000000000E-01     -3.960156000000000E+01
4801000000.000000      9.372559000000000E-01      1.630312000000000E+02      4.548950000000000E-01      1.197852000000000E+02      4.448700000000000E-01      1.502783000000000E+01      9.286804000000000E-01     -3.992578000000000E+01
4802000000.000000      9.340515000000000E-01      1.630156000000000E+02      4.553833000000000E-01      1.196133000000000E+02      4.469604000000000E-01      1.483838000000000E+01      9.259033000000000E-01     -4.028320000000000E+01
4803000000.000000      9.346008000000000E-01      1.630391000000000E+02      4.590759000000000E-01      1.190039000000000E+02      4.471741000000000E-01      1.422559000000000E+01      9.190674000000000E-01     -4.088086000000000E+01
4804000000.000000      9.331970000000000E-01      1.631484000000000E+02      4.601135000000000E-01      1.182851000000000E+02      4.489594000000000E-01      1.403076000000000E+01      9.140015000000000E-01     -4.125390000000000E+01
4805000000.000000      9.317017000000000E-01      1.631250000000000E+02      4.609528000000000E-01      1.180508000000000E+02      4.483337000000000E-01      1.376953000000000E+01      9.093323000000000E-01     -4.182813000000000E+01
4806000000.000000      9.298401000000000E-01      1.631406000000000E+02      4.625549000000000E-01      1.176250000000000E+02      4.478760000000000E-01      1.348291000000000E+01      9.025269000000000E-01     -4.233594000000000E+01
4807000000.000000      9.327393000000000E-01      1.631953000000000E+02      4.658356000000000E-01      1.169765000000000E+02      4.499969000000000E-01      1.303076000000000E+01      8.965759000000000E-01     -4.265234000000000E+01
4808000000.000000      9.292297000000000E-01      1.633906000000000E+02      4.683838000000000E-01      1.164141000000000E+02      4.502563000000000E-01      1.289209000000000E+01      8.919067000000000E-01     -4.325000000000000E+01
4809000000.000000      9.250183000000000E-01      1.633828000000000E+02      4.692535000000000E-01      1.159727000000000E+02      4.515381000000000E-01      1.239941000000000E+01      8.862000000000000E-01     -4.359765000000000E+01
4810000000.000000      9.256592000000000E-01      1.634219000000000E+02      4.706421000000000E-01      1.155976000000000E+02      4.512177000000000E-01      1.219727000000000E+01      8.794556000000000E-01     -4.417773000000000E+01
4811000000.000000      9.208984000000000E-01      1.634687000000000E+02      4.727478000000000E-01      1.147422000000000E+02      4.523926000000000E-01      1.204199000000000E+01      8.732910000000000E-01     -4.447266000000000E+01
4812000000.000000      9.222107000000000E-01      1.635313000000000E+02      4.746857000000000E-01      1.143125000000000E+02      4.521942000000000E-01      1.164404000000000E+01      8.666687000000000E-01     -4.504492000000000E+01
4813000000.000000      9.198914000000000E-01      1.636953000000000E+02      4.744568000000000E-01      1.139063000000000E+02      4.527435000000000E-01      1.142139000000000E+01      8.616638000000000E-01     -4.531054000000000E+01
4814000000.000000      9.160461000000000E-01      1.635703000000000E+02      4.761047000000000E-01      1.129570000000000E+02      4.523315000000000E-01      1.095605000000000E+01      8.540344000000000E-01     -4.597070000000000E+01
4815000000.000000      9.128723000000000E-01      1.637891000000000E+02      4.778137000000000E-01      1.127734000000000E+02      4.530945000000000E-01      1.059863000000000E+01      8.488770000000000E-01     -4.639648000000000E+01
4816000000.000000      9.123535000000000E-01      1.638281000000000E+02      4.820709000000000E-01      1.122109000000000E+02      4.555969000000000E-01      1.048096000000000E+01      8.430481000000000E-01     -4.688086000000000E+01
4817000000.000000      9.105835000000000E-01      1.639688000000000E+02      4.811859000000000E-01      1.115781000000000E+02      4.552307000000000E-01      1.010742000000000E+01      8.355103000000000E-01     -4.723437000000000E+01
4818000000.000000      9.078674000000000E-01      1.640469000000000E+02      4.831085000000000E-01      1.110781000000000E+02      4.543915000000000E-01      9.832520000000000E+00      8.284912000000000E-01     -4.771874000000000E+01
4819000000.000000      9.071655000000000E-01      1.640469000000000E+02      4.862061000000000E-01      1.103242000000000E+02      4.544983000000000E-01      9.452148000000000E+00      8.226318000000000E-01     -4.834570000000000E+01
4820000000.000000      8.994751000000000E-01      1.639297000000000E+02      4.837189000000000E-01      1.100000000000000E+02      4.548645000000000E-01      9.167969000000000E+00      8.138123000000000E-01     -4.867773000000000E+01
4821000000.000000      8.992310000000000E-01      1.641719000000000E+02      4.878235000000000E-01      1.090586000000000E+02      4.554138000000000E-01      8.789063000000000E+00      8.087463000000000E-01     -4.911523000000000E+01
4822000000.000000      9.002380000000000E-01      1.640234000000000E+02      4.871368000000000E-01      1.085078000000000E+02      4.551392000000000E-01      8.622559000000000E+00      8.014526000000000E-01     -4.959765000000000E+01
4823000000.000000      8.946228000000000E-01      1.641797000000000E+02      4.898834000000000E-01      1.079726000000000E+02      4.548340000000000E-01      8.309570000000000E+00      7.945251000000000E-01     -4.996679000000000E+01
4824000000.000000      8.937988000000000E-01      1.641953000000000E+02      4.900513000000000E-01      1.069062000000000E+02      4.566193000000000E-01      7.804199000000000E+00      7.871399000000000E-01     -5.046875000000000E+01
4825000000.000000      8.890076000000000E-01      1.641484000000000E+02      4.928284000000000E-01      1.065000000000000E+02      4.566345000000000E-01      7.595459000000000E+00      7.810364000000000E-01     -5.097851000000000E+01
4826000000.000000      8.882751000000000E-01      1.644219000000000E+02      4.925537000000000E-01      1.058594000000000E+02      4.550171000000000E-01      7.161621000000000E+00      7.739258000000000E-01     -5.136328000000000E+01
4827000000.000000      8.854370000000000E-01      1.644766000000000E+02      4.922180000000000E-01      1.053555000000000E+02      4.550171000000000E-01      6.910400000000000E+00      7.665405000000000E-01     -5.184960000000000E+01
4828000000.000000      8.824463000000000E-01      1.644375000000000E+02      4.938965000000000E-01      1.046328000000000E+02      4.563293000000000E-01      6.565674000000000E+00      7.589111000000000E-01     -5.230078000000000E+01
4829000000.000000      8.754578000000000E-01      1.645234000000000E+02      4.927368000000000E-01      1.038008000000000E+02      4.558258000000000E-01      6.326660000000000E+00      7.535400000000000E-01     -5.274414000000000E+01
4830000000.000000      8.733521000000000E-01      1.645234000000000E+02      4.938354000000000E-01      1.031758000000000E+02      4.554443000000000E-01      5.948975000000000E+00      7.444153000000000E-01     -5.321679000000000E+01
4831000000.000000      8.700562000000000E-01      1.646328000000000E+02      4.939880000000000E-01      1.024922000000000E+02      4.571381000000000E-01      5.672852000000000E+00      7.377014000000000E-01     -5.353710000000000E+01
4832000000.000000      8.684387000000000E-01      1.646563000000000E+02      4.961243000000000E-01      1.018086000000000E+02      4.551392000000000E-01      5.281494000000000E+00      7.305603000000000E-01     -5.393945000000000E+01
4833000000.000000      8.636475000000000E-01      1.645469000000000E+02      4.948273000000000E-01      1.009531000000000E+02      4.561615000000000E-01      5.001465000000000E+00      7.217407000000000E-01     -5.432031000000000E+01
4834000000.000000      8.607178000000000E-01      1.645625000000000E+02      4.960022000000000E-01      1.002305000000000E+02      4.565887000000000E-01      4.581299000000000E+00      7.143555000000000E-01     -5.477148000000000E+01
4835000000.000000      8.566589000000000E-01      1.645313000000000E+02      4.936523000000000E-01      9.957420000000000E+01      4.553528000000000E-01      4.328613000000000E+00      7.070313000000000E-01     -5.516602000000000E+01
4836000000.000000      8.527527000000000E-01      1.645313000000000E+02      4.937286000000000E-01      9.866796000000000E+01      4.548798000000000E-01      4.038818000000000E+00      6.999512000000000E-01     -5.555664000000000E+01
4837000000.000000      8.510437000000000E-01      1.647969000000000E+02      4.933929000000000E-01      9.776953000000000E+01      4.551239000000000E-01      3.501831000000000E+00      6.923218000000000E-01     -5.589062000000000E+01
4838000000.000000      8.469238000000000E-01      1.646172000000000E+02      4.938202000000000E-01      9.731249000000000E+01      4.551239000000000E-01      3.100830000000000E+00      6.844177000000000E-01     -5.623437000000000E+01
4839000000.000000      8.429565000000000E-01      1.647500000000000E+02      4.917450000000000E-01      9.660156000000000E+01      4.548645000000000E-01      2.679199000000000E+00      6.783447000000000E-01     -5.658789000000000E+01
4840000000.000000      8.378296000000000E-01      1.648516000000000E+02      4.903412000000000E-01      9.605469000000000E+01      4.548492000000000E-01      2.399048000000000E+00      6.676941000000000E-01     -5.704883000000000E+01
4841000000.000000      8.327637000000000E-01      1.647578000000000E+02      4.902039000000000E-01      9.508204000000000E+01      4.541931000000000E-01      1.944580000000000E+00      6.618652000000000E-01     -5.723827000000000E+01
4842000000.000000      8.303528000000000E-01      1.648828000000000E+02      4.890289000000000E-01      9.446484000000000E+01      4.539948000000000E-01      1.605347000000000E+00      6.553345000000000E-01     -5.760547000000000E+01
4843000000.000000      8.266907000000000E-01      1.647109000000000E+02      4.872131000000000E-01      9.364843000000000E+01      4.544830000000000E-01      1.354065000000000E+00      6.459351000000000E-01     -5.782227000000000E+01
4844000000.000000      8.222046000000000E-01      1.648906000000000E+02      4.857788000000000E-01      9.290234000000000E+01      4.527435000000000E-01      9.352112000000000E-01      6.380005000000000E-01     -5.822656000000000E+01
4845000000.000000      8.200989000000000E-01      1.648672000000000E+02      4.825897000000000E-01      9.228516000000000E+01      4.527283000000000E-01      4.435730000000000E-01      6.298523000000000E-01     -5.847656000000000E+01
4846000000.000000      8.161316000000000E-01      1.649453000000000E+02      4.810944000000000E-01      9.151953000000000E+01      4.535065000000000E-01      9.613037000000000E-02      6.225891000000000E-01     -5.875390000000000E+01
4847000000.000000      8.123779000000000E-01      1.647812000000000E+02      4.798584000000000E-01      9.076563000000000E+01      4.528503000000000E-01     -4.476929000000000E-01      6.145935000000000E-01     -5.907227000000000E+01
4848000000.000000      8.081665000000000E-01      1.649062000000000E+02      4.778900000000000E-01      9.015625000000000E+01      4.511566000000000E-01     -8.953857000000000E-01      6.052856000000000E-01     -5.934960000000000E+01
4849000000.000000      8.042603000000000E-01      1.647109000000000E+02      4.768982000000000E-01      8.920702000000000E+01      4.502869000000000E-01     -1.230469000000000E+00      5.970154000000000E-01     -5.934570000000000E+01
4850000000.000000      8.003235000000000E-01      1.648594000000000E+02      4.739075000000000E-01      8.844921000000000E+01      4.504242000000000E-01     -1.738586000000000E+00      5.892029000000000E-01     -5.964648000000000E+01
4851000000.000000      7.961426000000000E-01      1.648828000000000E+02      4.730072000000000E-01      8.783983000000000E+01      4.492645000000000E-01     -2.116333000000000E+00      5.815735000000000E-01     -5.979882000000000E+01
4852000000.000000      7.938538000000000E-01      1.648047000000000E+02      4.700317000000000E-01      8.705469000000000E+01      4.480438000000000E-01     -2.385498000000000E+00      5.736694000000000E-01     -5.993359000000000E+01
4853000000.000000      7.909241000000000E-01      1.650078000000000E+02      4.656067000000000E-01      8.641405000000000E+01      4.490662000000000E-01     -3.010254000000000E+00      5.649414000000000E-01     -6.016406000000000E+01
4854000000.000000      7.860718000000000E-01      1.648594000000000E+02      4.637756000000000E-01      8.564453000000000E+01      4.469299000000000E-01     -3.621460000000000E+00      5.582275000000000E-01     -6.026172000000000E+01
4855000000.000000      7.794495000000000E-01      1.648281000000000E+02      4.616547000000000E-01      8.525391000000000E+01      4.455872000000000E-01     -3.920776000000000E+00      5.466309000000000E-01     -6.030078000000000E+01
4856000000.000000      7.774963000000000E-01      1.649531000000000E+02      4.592590000000000E-01      8.444530000000000E+01      4.456635000000000E-01     -4.426270000000000E+00      5.406799000000000E-01     -6.033203000000000E+01
4857000000.000000      7.745361000000000E-01      1.648906000000000E+02      4.565277000000000E-01      8.392969000000000E+01      4.429169000000000E-01     -4.843750000000000E+00      5.324707000000000E-01     -6.031640000000000E+01
4858000000.000000      7.693481000000000E-01      1.647891000000000E+02      4.529114000000000E-01      8.319139000000000E+01      4.411316000000000E-01     -5.375244000000000E+00      5.233459000000000E-01     -6.038086000000000E+01
4859000000.000000      7.653809000000000E-01      1.648281000000000E+02      4.512939000000000E-01      8.268749000000000E+01      4.416656000000000E-01     -5.914795000000000E+00      5.160522000000000E-01     -6.033789000000000E+01
4860000000.000000      7.667542000000000E-01      1.649375000000000E+02      4.482574000000000E-01      8.199999000000000E+01      4.392853000000000E-01     -6.321289000000000E+00      5.081787000000000E-01     -6.017968000000000E+01
4861000000.000000      7.623291000000000E-01      1.650000000000000E+02      4.438629000000000E-01      8.121094000000000E+01      4.397430000000000E-01     -6.898193000000000E+00      4.998169000000000E-01     -6.025195000000000E+01
4862000000.000000      7.575989000000000E-01      1.648516000000000E+02      4.399567000000000E-01      8.060156000000000E+01      4.375305000000000E-01     -7.417236000000000E+00      4.928741000000000E-01     -6.003515000000000E+01
4863000000.000000      7.526245000000000E-01      1.650859000000000E+02      4.376678000000000E-01      8.007421000000000E+01      4.366608000000000E-01     -7.869141000000000E+00      4.847565000000000E-01     -5.976367000000000E+01
4864000000.000000      7.496338000000000E-01      1.648828000000000E+02      4.356232000000000E-01      7.941796000000000E+01      4.337006000000000E-01     -8.491211000000000E+00      4.765778000000000E-01     -5.961523000000000E+01
4865000000.000000      7.449646000000000E-01      1.648359000000000E+02      4.311829000000000E-01      7.875000000000000E+01      4.327545000000000E-01     -9.088867000000000E+00      4.696350000000000E-01     -5.923046000000000E+01
4866000000.000000      7.423706000000000E-01      1.648906000000000E+02      4.284668000000000E-01      7.816796000000000E+01      4.314117000000000E-01     -9.504883000000000E+00      4.612732000000000E-01     -5.892578000000000E+01
4867000000.000000      7.424011000000000E-01      1.648750000000000E+02      4.247131000000000E-01      7.732031000000000E+01      4.292297000000000E-01     -9.956543000000000E+00      4.544983000000000E-01     -5.856445000000000E+01
4868000000.000000      7.384033000000000E-01      1.650078000000000E+02      4.223022000000000E-01      7.685937000000000E+01      4.267426000000000E-01     -1.051709000000000E+01      4.462433000000000E-01     -5.814648000000000E+01
4869000000.000000      7.344666000000000E-01      1.649765000000000E+02      4.184113000000000E-01      7.633984000000000E+01      4.246063000000000E-01     -1.127637000000000E+01      4.398956000000000E-01     -5.778710000000000E+01
4870000000.000000      7.323303000000000E-01      1.647891000000000E+02      4.157257000000000E-01      7.601953000000000E+01      4.228516000000000E-01     -1.169092000000000E+01      4.332275000000000E-01     -5.716210000000000E+01
4871000000.000000      7.291870000000000E-01      1.648047000000000E+02      4.115753000000000E-01      7.499218000000000E+01      4.198914000000000E-01     -1.219238000000000E+01      4.258575000000000E-01     -5.665820000000000E+01
4872000000.000000      7.281189000000000E-01      1.650000000000000E+02      4.075317000000000E-01      7.489843000000000E+01      4.169617000000000E-01     -1.291309000000000E+01      4.200745000000000E-01     -5.595117000000000E+01
4873000000.000000      7.251587000000000E-01      1.651172000000000E+02      4.047241000000000E-01      7.417578000000000E+01      4.154968000000000E-01     -1.343652000000000E+01      4.126740000000000E-01     -5.539257000000000E+01
4874000000.000000      7.221985000000000E-01      1.649688000000000E+02      4.013672000000000E-01      7.338281000000000E+01      4.129944000000000E-01     -1.394336000000000E+01      4.073181000000000E-01     -5.444726000000000E+01
4875000000.000000      7.216187000000000E-01      1.648203000000000E+02      3.986511000000000E-01      7.305078000000000E+01      4.097748000000000E-01     -1.451172000000000E+01      4.017029000000000E-01     -5.376758000000000E+01
4876000000.000000      7.168884000000000E-01      1.649453000000000E+02      3.951569000000000E-01      7.226953000000000E+01      4.078522000000000E-01     -1.502832000000000E+01      3.971405000000000E-01     -5.307226000000000E+01
4877000000.000000      7.167053000000000E-01      1.649844000000000E+02      3.908386000000000E-01      7.178905000000000E+01      4.055176000000000E-01     -1.577246000000000E+01      3.916016000000000E-01     -5.206836000000000E+01
4878000000.000000      7.142029000000000E-01      1.649297000000000E+02      3.891296000000000E-01      7.124218000000000E+01      4.032440000000000E-01     -1.621387000000000E+01      3.870392000000000E-01     -5.114843000000000E+01
4879000000.000000      7.134399000000000E-01      1.648672000000000E+02      3.854675000000000E-01      7.086719000000000E+01      3.995056000000000E-01     -1.706250000000000E+01      3.827057000000000E-01     -5.008398000000000E+01
4880000000.000000      7.103882000000000E-01      1.650781000000000E+02      3.810730000000000E-01      7.015625000000000E+01      3.950043000000000E-01     -1.734375000000000E+01      3.789825000000000E-01     -4.906836000000000E+01
4881000000.000000      7.094116000000000E-01      1.650781000000000E+02      3.792419000000000E-01      6.970703000000000E+01      3.938751000000000E-01     -1.823047000000000E+01      3.755646000000000E-01     -4.794141000000000E+01
4882000000.000000      7.093506000000000E-01      1.650234000000000E+02      3.749084000000000E-01      6.931250000000000E+01      3.894501000000000E-01     -1.867969000000000E+01      3.722534000000000E-01     -4.684179000000000E+01
