! Network Analyzer HP8722D
! Hewlett-Packard
! Data name: Linha & Wilkinson
! Saver's name: Rodrigo Anjos
! Comments: Teste da utilização de aquisição
continua pelo VNA HP8722D
! Time and date: 8/5/2025 15:22
!              Frequency                     S11                                                   S21                                                   S12                                                   S22
# HZ  S  MA R 50
4800000000.000000      5.244141000000000E-01     -2.492871000000000E+01      3.811340000000000E-01     -1.518750000000000E+02      3.974762000000000E-01      7.937500000000000E+00      4.923096000000000E-01      6.921387000000000E-01
4801000000.000000      5.227661000000000E-01     -2.448535000000000E+01      3.855286000000000E-01     -1.520234000000000E+02      4.002533000000000E-01      7.529541000000000E+00      4.871368000000000E-01      8.253479000000000E-01
4802000000.000000      5.223083000000000E-01     -2.414746000000000E+01      3.887787000000000E-01     -1.523281000000000E+02      4.045715000000000E-01      7.551514000000000E+00      4.836884000000000E-01      1.131592000000000E+00
4803000000.000000      5.216064000000000E-01     -2.400000000000000E+01      3.941345000000000E-01     -1.528594000000000E+02      4.080963000000000E-01      7.473389000000000E+00      4.789124000000000E-01      9.640503000000000E-01
4804000000.000000      5.186157000000000E-01     -2.389551000000000E+01      3.963165000000000E-01     -1.533125000000000E+02      4.120941000000000E-01      7.044922000000000E+00      4.706268000000000E-01      1.571045000000000E+00
4805000000.000000      5.227051000000000E-01     -2.368945000000000E+01      4.008789000000000E-01     -1.537344000000000E+02      4.161072000000000E-01      7.011963000000000E+00      4.642029000000000E-01      1.333435000000000E+00
4806000000.000000      5.191345000000000E-01     -2.336035000000000E+01      4.044952000000000E-01     -1.540000000000000E+02      4.202576000000000E-01      7.128662000000000E+00      4.563141000000000E-01      1.452942000000000E+00
4807000000.000000      5.153503000000000E-01     -2.318262000000000E+01      4.078064000000000E-01     -1.546016000000000E+02      4.239807000000000E-01      6.786621000000000E+00      4.487152000000000E-01      1.737183000000000E+00
4808000000.000000      5.143127000000000E-01     -2.271973000000000E+01      4.113159000000000E-01     -1.550781000000000E+02      4.276123000000000E-01      6.576660000000000E+00      4.429779000000000E-01      1.912964000000000E+00
4809000000.000000      5.138550000000000E-01     -2.245410000000000E+01      4.140320000000000E-01     -1.554453000000000E+02      4.318085000000000E-01      6.304688000000000E+00      4.347992000000000E-01      2.290649000000000E+00
4810000000.000000      5.122986000000000E-01     -2.215625000000000E+01      4.188232000000000E-01     -1.558672000000000E+02      4.350586000000000E-01      6.277100000000000E+00      4.284363000000000E-01      2.176636000000000E+00
4811000000.000000      5.108032000000000E-01     -2.235644000000000E+01      4.229126000000000E-01     -1.564297000000000E+02      4.395142000000000E-01      6.377441000000000E+00      4.200897000000000E-01      2.710815000000000E+00
4812000000.000000      5.127563000000000E-01     -2.199121000000000E+01      4.253693000000000E-01     -1.565391000000000E+02      4.433594000000000E-01      6.135742000000000E+00      4.117279000000000E-01      2.698486000000000E+00
4813000000.000000      5.101624000000000E-01     -2.197168000000000E+01      4.284058000000000E-01     -1.572422000000000E+02      4.458008000000000E-01      6.010742000000000E+00      4.047546000000000E-01      3.343872000000000E+00
4814000000.000000      5.068054000000000E-01     -2.154297000000000E+01      4.322205000000000E-01     -1.577422000000000E+02      4.494019000000000E-01      5.723877000000000E+00      3.958130000000000E-01      3.416748000000000E+00
4815000000.000000      5.097656000000000E-01     -2.139941000000000E+01      4.347534000000000E-01     -1.580937000000000E+02      4.535522000000000E-01      5.663330000000000E+00      3.882904000000000E-01      3.845215000000000E+00
4816000000.000000      5.070496000000000E-01     -2.110156000000000E+01      4.380493000000000E-01     -1.584687000000000E+02      4.586334000000000E-01      5.410645000000000E+00      3.804932000000000E-01      4.162354000000000E+00
4817000000.000000      5.048828000000000E-01     -2.097168000000000E+01      4.400330000000000E-01     -1.591094000000000E+02      4.598999000000000E-01      5.303467000000000E+00      3.704681000000000E-01      4.660889000000000E+00
4818000000.000000      5.018616000000000E-01     -2.083984000000000E+01      4.436798000000000E-01     -1.595000000000000E+02      4.629517000000000E-01      5.140137000000000E+00      3.615112000000000E-01      5.000000000000000E+00
4819000000.000000      5.022278000000000E-01     -2.069824000000000E+01      4.458160000000000E-01     -1.596641000000000E+02      4.681091000000000E-01      4.909424000000000E+00      3.517609000000000E-01      5.138672000000000E+00
4820000000.000000      4.999847000000000E-01     -2.054101000000000E+01      4.491882000000000E-01     -1.603125000000000E+02      4.707031000000000E-01      4.979492000000000E+00      3.443451000000000E-01      5.797852000000000E+00
4821000000.000000      4.990234000000000E-01     -2.044629000000000E+01      4.523926000000000E-01     -1.608516000000000E+02      4.732056000000000E-01      4.619629000000000E+00      3.349762000000000E-01      6.500977000000000E+00
4822000000.000000      4.983826000000000E-01     -2.043652000000000E+01      4.539795000000000E-01     -1.611797000000000E+02      4.765778000000000E-01      4.630615000000000E+00      3.273926000000000E-01      6.843018000000000E+00
4823000000.000000      4.977570000000000E-01     -2.022070000000000E+01      4.588165000000000E-01     -1.617266000000000E+02      4.795074000000000E-01      4.416504000000000E+00      3.168030000000000E-01      7.421143000000000E+00
4824000000.000000      4.941559000000000E-01     -1.975098000000000E+01      4.594727000000000E-01     -1.622734000000000E+02      4.828644000000000E-01      4.313477000000000E+00      3.073120000000000E-01      8.062500000000000E+00
4825000000.000000      4.912109000000000E-01     -1.957910000000000E+01      4.627075000000000E-01     -1.626484000000000E+02      4.866638000000000E-01      4.016846000000000E+00      3.001404000000000E-01      8.808105000000000E+00
4826000000.000000      4.926147000000000E-01     -1.992383000000000E+01      4.652252000000000E-01     -1.632422000000000E+02      4.900513000000000E-01      3.895996000000000E+00      2.896423000000000E-01      9.541504000000000E+00
4827000000.000000      4.889984000000000E-01     -1.935840000000000E+01      4.656982000000000E-01     -1.632891000000000E+02      4.920349000000000E-01      3.779297000000000E+00      2.812805000000000E-01      1.045459000000000E+01
4828000000.000000      4.897156000000000E-01     -1.949121000000000E+01      4.695282000000000E-01     -1.640000000000000E+02      4.960632000000000E-01      3.544434000000000E+00      2.720032000000000E-01      1.122070000000000E+01
4829000000.000000      4.862366000000000E-01     -1.888086000000000E+01      4.711151000000000E-01     -1.646250000000000E+02      4.990540000000000E-01      3.570557000000000E+00      2.641754000000000E-01      1.249121000000000E+01
4830000000.000000      4.861603000000000E-01     -1.905859000000000E+01      4.738007000000000E-01     -1.649453000000000E+02      5.021667000000000E-01      3.295898000000000E+00      2.535858000000000E-01      1.354980000000000E+01
4831000000.000000      4.839020000000000E-01     -1.906348000000000E+01      4.753113000000000E-01     -1.655078000000000E+02      5.051270000000000E-01      3.261475000000000E+00      2.459488000000000E-01      1.447852000000000E+01
4832000000.000000      4.828339000000000E-01     -1.873926000000000E+01      4.773865000000000E-01     -1.659297000000000E+02      5.065308000000000E-01      2.925049000000000E+00      2.354050000000000E-01      1.627148000000000E+01
4833000000.000000      4.812012000000000E-01     -1.885156000000000E+01      4.785004000000000E-01     -1.662188000000000E+02      5.108948000000000E-01      2.765747000000000E+00      2.273026000000000E-01      1.751758000000000E+01
4834000000.000000      4.784851000000000E-01     -1.852734000000000E+01      4.792175000000000E-01     -1.666484000000000E+02      5.119629000000000E-01      2.588623000000000E+00      2.188492000000000E-01      1.914844000000000E+01
4835000000.000000      4.768982000000000E-01     -1.831738000000000E+01      4.831085000000000E-01     -1.671172000000000E+02      5.174866000000000E-01      2.399048000000000E+00      2.098465000000000E-01      2.095605000000000E+01
4836000000.000000      4.775696000000000E-01     -1.814453000000000E+01      4.828644000000000E-01     -1.674609000000000E+02      5.168762000000000E-01      2.557007000000000E+00      2.023010000000000E-01      2.304785000000000E+01
4837000000.000000      4.730072000000000E-01     -1.803027000000000E+01      4.833527000000000E-01     -1.682031000000000E+02      5.200500000000000E-01      2.242554000000000E+00      1.946335000000000E-01      2.519433000000000E+01
4838000000.000000      4.715729000000000E-01     -1.800293000000000E+01      4.850616000000000E-01     -1.682734000000000E+02      5.215454000000000E-01      2.025513000000000E+00      1.876144000000000E-01      2.737500000000000E+01
4839000000.000000      4.709167000000000E-01     -1.752246000000000E+01      4.867401000000000E-01     -1.688203000000000E+02      5.263977000000000E-01      2.036499000000000E+00      1.812744000000000E-01      2.955566000000000E+01
4840000000.000000      4.696503000000000E-01     -1.752246000000000E+01      4.892731000000000E-01     -1.692109000000000E+02      5.273743000000000E-01      1.783875000000000E+00      1.740189000000000E-01      3.233789000000000E+01
4841000000.000000      4.681549000000000E-01     -1.710449000000000E+01      4.904480000000000E-01     -1.697500000000000E+02      5.294189000000000E-01      1.565552000000000E+00      1.687164000000000E-01      3.541211000000000E+01
4842000000.000000      4.657745000000000E-01     -1.710058000000000E+01      4.904480000000000E-01     -1.701094000000000E+02      5.310364000000000E-01      1.402100000000000E+00      1.634827000000000E-01      3.875977000000000E+01
4843000000.000000      4.670563000000000E-01     -1.695410000000000E+01      4.928436000000000E-01     -1.705703000000000E+02      5.336609000000000E-01      1.274414000000000E+00      1.591415000000000E-01      4.230664000000000E+01
4844000000.000000      4.635010000000000E-01     -1.662695000000000E+01      4.935913000000000E-01     -1.710703000000000E+02      5.364685000000000E-01      9.942627000000000E-01      1.535263000000000E-01      4.580468000000000E+01
4845000000.000000      4.626007000000000E-01     -1.625293000000000E+01      4.934082000000000E-01     -1.713047000000000E+02      5.383606000000000E-01      7.305908000000000E-01      1.509705000000000E-01      4.927539000000000E+01
4846000000.000000      4.638519000000000E-01     -1.621094000000000E+01      4.958496000000000E-01     -1.716797000000000E+02      5.399170000000000E-01      6.770325000000000E-01      1.484528000000000E-01      5.339257000000000E+01
4847000000.000000      4.611511000000000E-01     -1.604004000000000E+01      4.967194000000000E-01     -1.719453000000000E+02      5.423279000000000E-01      4.971313000000000E-01      1.461792000000000E-01      5.742188000000000E+01
4848000000.000000      4.580536000000000E-01     -1.571631000000000E+01      4.954987000000000E-01     -1.723281000000000E+02      5.439148000000000E-01      1.675415000000000E-01      1.461258000000000E-01      6.146093000000000E+01
4849000000.000000      4.610901000000000E-01     -1.549658000000000E+01      4.984894000000000E-01     -1.727266000000000E+02      5.445862000000000E-01     -4.806519000000000E-02      1.451721000000000E-01      6.526172000000000E+01
4850000000.000000      4.579926000000000E-01     -1.519580000000000E+01      4.981842000000000E-01     -1.733203000000000E+02      5.458984000000000E-01      8.102417000000000E-02      1.468506000000000E-01      6.928515000000000E+01
4851000000.000000      4.571075000000000E-01     -1.490186000000000E+01      5.006714000000000E-01     -1.736406000000000E+02      5.481567000000000E-01     -2.650452000000000E-01      1.482162000000000E-01      7.300390000000000E+01
4852000000.000000      4.563751000000000E-01     -1.471631000000000E+01      5.002441000000000E-01     -1.739297000000000E+02      5.501404000000000E-01     -3.433228000000000E-01      1.504593000000000E-01      7.676171000000000E+01
4853000000.000000      4.569244000000000E-01     -1.462695000000000E+01      5.012512000000000E-01     -1.742344000000000E+02      5.515137000000000E-01     -5.740356000000000E-01      1.525726000000000E-01      8.017578000000000E+01
4854000000.000000      4.563141000000000E-01     -1.409717000000000E+01      5.010681000000000E-01     -1.747344000000000E+02      5.532532000000000E-01     -8.129883000000000E-01      1.575470000000000E-01      8.348436000000000E+01
4855000000.000000      4.555206000000000E-01     -1.406982000000000E+01      5.012207000000000E-01     -1.750781000000000E+02      5.539551000000000E-01     -9.503174000000000E-01      1.607895000000000E-01      8.699999000000000E+01
4856000000.000000      4.553223000000000E-01     -1.366309000000000E+01      5.034485000000000E-01     -1.753672000000000E+02      5.552979000000000E-01     -1.174194000000000E+00      1.660767000000000E-01      8.958984000000000E+01
4857000000.000000      4.553223000000000E-01     -1.336914000000000E+01      5.051575000000000E-01     -1.755703000000000E+02      5.556335000000000E-01     -1.237366000000000E+00      1.707993000000000E-01      9.219530000000000E+01
4858000000.000000      4.565735000000000E-01     -1.308887000000000E+01      5.048828000000000E-01     -1.760313000000000E+02      5.570068000000000E-01     -1.474915000000000E+00      1.752548000000000E-01      9.473827000000000E+01
4859000000.000000      4.569855000000000E-01     -1.293262000000000E+01      5.062561000000000E-01     -1.764453000000000E+02      5.577698000000000E-01     -1.385681000000000E+00      1.795120000000000E-01      9.666405000000000E+01
4860000000.000000      4.553375000000000E-01     -1.230371000000000E+01      5.063171000000000E-01     -1.767266000000000E+02      5.571594000000000E-01     -1.694641000000000E+00      1.877594000000000E-01      9.846874000000000E+01
4861000000.000000      4.562378000000000E-01     -1.241602000000000E+01      5.055237000000000E-01     -1.771953000000000E+02      5.600281000000000E-01     -1.792175000000000E+00      1.914520000000000E-01      1.006680000000000E+02
4862000000.000000      4.563904000000000E-01     -1.193262000000000E+01      5.107117000000000E-01     -1.775078000000000E+02      5.599060000000000E-01     -1.989929000000000E+00      1.981735000000000E-01      1.021875000000000E+02
4863000000.000000      4.594116000000000E-01     -1.162109000000000E+01      5.074158000000000E-01     -1.779140000000000E+02      5.592957000000000E-01     -2.064087000000000E+00      2.044678000000000E-01      1.033750000000000E+02
4864000000.000000      4.606323000000000E-01     -1.164014000000000E+01      5.094910000000000E-01     -1.781250000000000E+02      5.592346000000000E-01     -2.186279000000000E+00      2.112503000000000E-01      1.045351000000000E+02
4865000000.000000      4.588165000000000E-01     -1.143408000000000E+01      5.108032000000000E-01     -1.784765000000000E+02      5.601807000000000E-01     -2.234375000000000E+00      2.165070000000000E-01      1.065898000000000E+02
4866000000.000000      4.630432000000000E-01     -1.093164000000000E+01      5.092163000000000E-01     -1.788125000000000E+02      5.605164000000000E-01     -2.585938000000000E+00      2.229080000000000E-01      1.071289000000000E+02
4867000000.000000      4.647675000000000E-01     -1.090820000000000E+01      5.110168000000000E-01     -1.791953000000000E+02      5.600586000000000E-01     -2.610718000000000E+00      2.293854000000000E-01      1.082578000000000E+02
4868000000.000000      4.655762000000000E-01     -1.041504000000000E+01      5.121460000000000E-01     -1.795391000000000E+02      5.593567000000000E-01     -2.767212000000000E+00      2.360153000000000E-01      1.093867000000000E+02
4869000000.000000      4.673615000000000E-01     -1.012549000000000E+01      5.141602000000000E-01      1.799687000000000E+02      5.584106000000000E-01     -2.897705000000000E+00      2.405319000000000E-01      1.102187000000000E+02
4870000000.000000      4.698181000000000E-01     -9.982910000000000E+00      5.147705000000000E-01      1.797969000000000E+02      5.606689000000000E-01     -2.842773000000000E+00      2.452774000000000E-01      1.107773000000000E+02
4871000000.000000      4.707947000000000E-01     -9.945801000000000E+00      5.140381000000000E-01      1.795000000000000E+02      5.593872000000000E-01     -2.926514000000000E+00      2.525482000000000E-01      1.116836000000000E+02
4872000000.000000      4.749451000000000E-01     -9.507324000000000E+00      5.141296000000000E-01      1.791250000000000E+02      5.585938000000000E-01     -3.206665000000000E+00      2.579193000000000E-01      1.123398000000000E+02
4873000000.000000      4.755554000000000E-01     -9.311035000000000E+00      5.160217000000000E-01      1.786406000000000E+02      5.578308000000000E-01     -3.154541000000000E+00      2.622681000000000E-01      1.128984000000000E+02
4874000000.000000      4.777527000000000E-01     -8.982910000000000E+00      5.152893000000000E-01      1.781797000000000E+02      5.597534000000000E-01     -3.415405000000000E+00      2.691956000000000E-01      1.129375000000000E+02
4875000000.000000      4.814148000000000E-01     -9.168457000000000E+00      5.156250000000000E-01      1.781719000000000E+02      5.581360000000000E-01     -3.052856000000000E+00      2.733612000000000E-01      1.138125000000000E+02
4876000000.000000      4.845886000000000E-01     -8.919922000000000E+00      5.161438000000000E-01      1.775625000000000E+02      5.587158000000000E-01     -3.261597000000000E+00      2.794647000000000E-01      1.139023000000000E+02
4877000000.000000      4.873199000000000E-01     -8.738281000000000E+00      5.173340000000000E-01      1.771563000000000E+02      5.571899000000000E-01     -3.361816000000000E+00      2.827148000000000E-01      1.146562000000000E+02
4878000000.000000      4.890289000000000E-01     -8.612305000000000E+00      5.201721000000000E-01      1.767969000000000E+02      5.552673000000000E-01     -3.437378000000000E+00      2.868805000000000E-01      1.147227000000000E+02
4879000000.000000      4.929352000000000E-01     -8.473633000000000E+00      5.191345000000000E-01      1.765859000000000E+02      5.568542000000000E-01     -3.676392000000000E+00      2.934570000000000E-01      1.151211000000000E+02
4880000000.000000      4.960480000000000E-01     -8.303223000000000E+00      5.191040000000000E-01      1.760391000000000E+02      5.546875000000000E-01     -3.488159000000000E+00      2.961731000000000E-01      1.152305000000000E+02
4881000000.000000      4.974670000000000E-01     -8.375977000000000E+00      5.190735000000000E-01      1.757422000000000E+02      5.567322000000000E-01     -3.490967000000000E+00      3.020020000000000E-01      1.153672000000000E+02
4882000000.000000      5.031738000000000E-01     -8.181152000000000E+00      5.220947000000000E-01      1.752656000000000E+02      5.545654000000000E-01     -3.584351000000000E+00      3.052063000000000E-01      1.157813000000000E+02
