! Network Analyzer HP8722D
! Hewlett-Packard
! Data name: Linha & Wilkinson
! Saver's name: Rodrigo Anjos
! Comments: Teste da utilização de aquisição
continua pelo VNA HP8722D
! Time and date: 8/5/2025 13:28
!              Frequency                     S11                                                   S21                                                   S12                                                   S22
# HZ  S  MA R 50
4800000000.000000      5.380859000000000E-01     -2.533496000000000E+01      3.601685000000000E-01     -1.482422000000000E+02      3.777161000000000E-01      1.128418000000000E+01      5.037537000000000E-01      1.749573000000000E+00
4801000000.000000      5.376282000000000E-01     -2.506738000000000E+01      3.641052000000000E-01     -1.485859000000000E+02      3.812866000000000E-01      1.099170000000000E+01      5.007629000000000E-01      1.654785000000000E+00
4802000000.000000      5.349426000000000E-01     -2.487109000000000E+01      3.674316000000000E-01     -1.489063000000000E+02      3.870239000000000E-01      1.085693000000000E+01      4.942932000000000E-01      2.033813000000000E+00
4803000000.000000      5.352783000000000E-01     -2.467578000000000E+01      3.731537000000000E-01     -1.493047000000000E+02      3.899994000000000E-01      1.078027000000000E+01      4.880829000000000E-01      1.988525000000000E+00
4804000000.000000      5.341492000000000E-01     -2.443554000000000E+01      3.765869000000000E-01     -1.496797000000000E+02      3.932037000000000E-01      1.043945000000000E+01      4.821320000000000E-01      1.900635000000000E+00
4805000000.000000      5.329285000000000E-01     -2.414941000000000E+01      3.808289000000000E-01     -1.501797000000000E+02      3.970184000000000E-01      1.052734000000000E+01      4.754028000000000E-01      1.970642000000000E+00
4806000000.000000      5.313721000000000E-01     -2.379687000000000E+01      3.842773000000000E-01     -1.504375000000000E+02      4.010162000000000E-01      1.044385000000000E+01      4.681091000000000E-01      1.954163000000000E+00
4807000000.000000      5.278320000000000E-01     -2.383105000000000E+01      3.878174000000000E-01     -1.509687000000000E+02      4.038849000000000E-01      1.006445000000000E+01      4.617157000000000E-01      2.195801000000000E+00
4808000000.000000      5.266724000000000E-01     -2.345898000000000E+01      3.919678000000000E-01     -1.512578000000000E+02      4.089966000000000E-01      9.989258000000000E+00      4.549561000000000E-01      2.337280000000000E+00
4809000000.000000      5.246277000000000E-01     -2.326660000000000E+01      3.959351000000000E-01     -1.519297000000000E+02      4.126892000000000E-01      9.876465000000000E+00      4.482117000000000E-01      2.559814000000000E+00
4810000000.000000      5.268860000000000E-01     -2.302539000000000E+01      4.003296000000000E-01     -1.521094000000000E+02      4.154663000000000E-01      9.768066000000000E+00      4.412537000000000E-01      2.423828000000000E+00
4811000000.000000      5.250549000000000E-01     -2.276562000000000E+01      4.040680000000000E-01     -1.526562000000000E+02      4.213104000000000E-01      9.660645000000000E+00      4.338837000000000E-01      2.887939000000000E+00
4812000000.000000      5.251465000000000E-01     -2.245898000000000E+01      4.078979000000000E-01     -1.530859000000000E+02      4.234314000000000E-01      9.306641000000000E+00      4.260101000000000E-01      2.796021000000000E+00
4813000000.000000      5.217590000000000E-01     -2.226465000000000E+01      4.109802000000000E-01     -1.535469000000000E+02      4.275208000000000E-01      9.478027000000000E+00      4.187927000000000E-01      3.243652000000000E+00
4814000000.000000      5.186768000000000E-01     -2.234961000000000E+01      4.147949000000000E-01     -1.539141000000000E+02      4.297791000000000E-01      9.126465000000000E+00      4.095764000000000E-01      3.302734000000000E+00
4815000000.000000      5.187378000000000E-01     -2.189941000000000E+01      4.174805000000000E-01     -1.543984000000000E+02      4.339142000000000E-01      9.152832000000000E+00      4.027710000000000E-01      3.633667000000000E+00
4816000000.000000      5.176697000000000E-01     -2.179688000000000E+01      4.214935000000000E-01     -1.548672000000000E+02      4.389496000000000E-01      8.963379000000000E+00      3.950195000000000E-01      3.766846000000000E+00
4817000000.000000      5.163574000000000E-01     -2.170508000000000E+01      4.237823000000000E-01     -1.553203000000000E+02      4.407959000000000E-01      8.548340000000000E+00      3.846741000000000E-01      4.103271000000000E+00
4818000000.000000      5.150146000000000E-01     -2.152442000000000E+01      4.271393000000000E-01     -1.557891000000000E+02      4.453430000000000E-01      8.451172000000000E+00      3.758087000000000E-01      4.357422000000000E+00
4819000000.000000      5.142517000000000E-01     -2.133984000000000E+01      4.303741000000000E-01     -1.562734000000000E+02      4.486847000000000E-01      8.404297000000000E+00      3.667603000000000E-01      4.435547000000000E+00
4820000000.000000      5.115967000000000E-01     -2.102441000000000E+01      4.332428000000000E-01     -1.565625000000000E+02      4.520111000000000E-01      8.314941000000000E+00      3.589020000000000E-01      4.978027000000000E+00
4821000000.000000      5.106812000000000E-01     -2.105567000000000E+01      4.365845000000000E-01     -1.572187000000000E+02      4.541473000000000E-01      8.061035000000000E+00      3.496552000000000E-01      5.418945000000000E+00
4822000000.000000      5.098572000000000E-01     -2.093750000000000E+01      4.383087000000000E-01     -1.575703000000000E+02      4.571686000000000E-01      8.104980000000000E+00      3.412170000000000E-01      5.530029000000000E+00
4823000000.000000      5.077209000000000E-01     -2.071972000000000E+01      4.419556000000000E-01     -1.580469000000000E+02      4.602661000000000E-01      7.800293000000000E+00      3.314209000000000E-01      5.961426000000000E+00
4824000000.000000      5.052795000000000E-01     -2.050000000000000E+01      4.444122000000000E-01     -1.585781000000000E+02      4.638519000000000E-01      7.491211000000000E+00      3.220825000000000E-01      6.396729000000000E+00
4825000000.000000      5.050659000000000E-01     -2.039355000000000E+01      4.469910000000000E-01     -1.589687000000000E+02      4.675293000000000E-01      7.775391000000000E+00      3.135834000000000E-01      6.991211000000000E+00
4826000000.000000      5.023499000000000E-01     -2.035645000000000E+01      4.500122000000000E-01     -1.595781000000000E+02      4.698029000000000E-01      7.418457000000000E+00      3.037720000000000E-01      7.392334000000000E+00
4827000000.000000      5.019836000000000E-01     -2.013867000000000E+01      4.523773000000000E-01     -1.598984000000000E+02      4.738464000000000E-01      7.232910000000000E+00      2.955017000000000E-01      7.951172000000000E+00
4828000000.000000      4.997253000000000E-01     -1.979199000000000E+01      4.544525000000000E-01     -1.603437000000000E+02      4.775391000000000E-01      7.058594000000000E+00      2.854462000000000E-01      8.464844000000000E+00
4829000000.000000      4.981384000000000E-01     -1.958789000000000E+01      4.572601000000000E-01     -1.608281000000000E+02      4.813232000000000E-01      7.046143000000000E+00      2.770538000000000E-01      9.477051000000000E+00
4830000000.000000      4.968872000000000E-01     -1.970605000000000E+01      4.592285000000000E-01     -1.614219000000000E+02      4.839325000000000E-01      6.928223000000000E+00      2.662964000000000E-01      1.031299000000000E+01
4831000000.000000      4.942932000000000E-01     -1.954394000000000E+01      4.615936000000000E-01     -1.620000000000000E+02      4.866180000000000E-01      6.761963000000000E+00      2.568054000000000E-01      1.102881000000000E+01
4832000000.000000      4.910431000000000E-01     -1.941992000000000E+01      4.623871000000000E-01     -1.620859000000000E+02      4.905396000000000E-01      6.485840000000000E+00      2.465897000000000E-01      1.230713000000000E+01
4833000000.000000      4.916077000000000E-01     -1.925390000000000E+01      4.654846000000000E-01     -1.626016000000000E+02      4.917908000000000E-01      6.259277000000000E+00      2.371826000000000E-01      1.316016000000000E+01
4834000000.000000      4.880219000000000E-01     -1.906543000000000E+01      4.667511000000000E-01     -1.631328000000000E+02      4.955902000000000E-01      6.157715000000000E+00      2.284241000000000E-01      1.444287000000000E+01
4835000000.000000      4.877319000000000E-01     -1.902051000000000E+01      4.692535000000000E-01     -1.636797000000000E+02      4.985352000000000E-01      6.060303000000000E+00      2.187576000000000E-01      1.562646000000000E+01
4836000000.000000      4.857178000000000E-01     -1.859863000000000E+01      4.703217000000000E-01     -1.640391000000000E+02      4.999390000000000E-01      6.043701000000000E+00      2.094040000000000E-01      1.730859000000000E+01
4837000000.000000      4.842224000000000E-01     -1.841309000000000E+01      4.713287000000000E-01     -1.647109000000000E+02      5.024719000000000E-01      5.753906000000000E+00      2.012177000000000E-01      1.896973000000000E+01
4838000000.000000      4.832001000000000E-01     -1.828613000000000E+01      4.745331000000000E-01     -1.647812000000000E+02      5.047913000000000E-01      5.467041000000000E+00      1.923676000000000E-01      2.067285000000000E+01
4839000000.000000      4.819336000000000E-01     -1.802539000000000E+01      4.758911000000000E-01     -1.653203000000000E+02      5.076599000000000E-01      5.526123000000000E+00      1.848450000000000E-01      2.238379000000000E+01
4840000000.000000      4.792175000000000E-01     -1.819824000000000E+01      4.776459000000000E-01     -1.657891000000000E+02      5.120239000000000E-01      5.368164000000000E+00      1.759720000000000E-01      2.439844000000000E+01
4841000000.000000      4.773407000000000E-01     -1.773926000000000E+01      4.792938000000000E-01     -1.661641000000000E+02      5.126648000000000E-01      4.936768000000000E+00      1.685257000000000E-01      2.728418000000000E+01
4842000000.000000      4.768524000000000E-01     -1.756933000000000E+01      4.800568000000000E-01     -1.666953000000000E+02      5.133972000000000E-01      5.101563000000000E+00      1.616745000000000E-01      3.016211000000000E+01
4843000000.000000      4.763184000000000E-01     -1.757422000000000E+01      4.825439000000000E-01     -1.671484000000000E+02      5.176697000000000E-01      4.968506000000000E+00      1.533813000000000E-01      3.300976000000000E+01
4844000000.000000      4.719543000000000E-01     -1.753613000000000E+01      4.825287000000000E-01     -1.675156000000000E+02      5.199890000000000E-01      4.682861000000000E+00      1.460800000000000E-01      3.618945000000000E+01
4845000000.000000      4.718475000000000E-01     -1.704199000000000E+01      4.836273000000000E-01     -1.679375000000000E+02      5.212402000000000E-01      4.401367000000000E+00      1.423721000000000E-01      3.941601000000000E+01
4846000000.000000      4.703827000000000E-01     -1.686816000000000E+01      4.847412000000000E-01     -1.683359000000000E+02      5.237122000000000E-01      4.354492000000000E+00      1.365433000000000E-01      4.349218000000000E+01
4847000000.000000      4.679718000000000E-01     -1.665332000000000E+01      4.868011000000000E-01     -1.686406000000000E+02      5.271301000000000E-01      4.133545000000000E+00      1.310501000000000E-01      4.778320000000000E+01
4848000000.000000      4.665833000000000E-01     -1.631836000000000E+01      4.853516000000000E-01     -1.690156000000000E+02      5.285950000000000E-01      4.002930000000000E+00      1.291199000000000E-01      5.204296000000000E+01
4849000000.000000      4.661407000000000E-01     -1.621387000000000E+01      4.887695000000000E-01     -1.694453000000000E+02      5.317383000000000E-01      3.714722000000000E+00      1.253433000000000E-01      5.665039000000000E+01
4850000000.000000      4.651031000000000E-01     -1.586426000000000E+01      4.890289000000000E-01     -1.697969000000000E+02      5.325317000000000E-01      3.692749000000000E+00      1.247482000000000E-01      6.105663000000000E+01
4851000000.000000      4.638672000000000E-01     -1.552539000000000E+01      4.908905000000000E-01     -1.703281000000000E+02      5.332336000000000E-01      3.555420000000000E+00      1.241417000000000E-01      6.577734000000000E+01
4852000000.000000      4.637604000000000E-01     -1.538525000000000E+01      4.915009000000000E-01     -1.705469000000000E+02      5.348511000000000E-01      3.437256000000000E+00      1.243820000000000E-01      7.029687000000000E+01
4853000000.000000      4.634705000000000E-01     -1.528076000000000E+01      4.903717000000000E-01     -1.709922000000000E+02      5.376282000000000E-01      3.283447000000000E+00      1.249084000000000E-01      7.527734000000000E+01
4854000000.000000      4.626770000000000E-01     -1.489648000000000E+01      4.925842000000000E-01     -1.713594000000000E+02      5.391541000000000E-01      3.029419000000000E+00      1.277924000000000E-01      7.944530000000000E+01
4855000000.000000      4.617920000000000E-01     -1.479346000000000E+01      4.926605000000000E-01     -1.717578000000000E+02      5.406799000000000E-01      2.959351000000000E+00      1.299667000000000E-01      8.409765000000000E+01
4856000000.000000      4.599915000000000E-01     -1.434033000000000E+01      4.941254000000000E-01     -1.720781000000000E+02      5.412903000000000E-01      2.723145000000000E+00      1.343384000000000E-01      8.795313000000000E+01
4857000000.000000      4.618530000000000E-01     -1.424658000000000E+01      4.962921000000000E-01     -1.724062000000000E+02      5.420227000000000E-01      2.627075000000000E+00      1.377869000000000E-01      9.141796000000000E+01
4858000000.000000      4.605865000000000E-01     -1.368506000000000E+01      4.967651000000000E-01     -1.728672000000000E+02      5.435791000000000E-01      2.353760000000000E+00      1.430130000000000E-01      9.485155000000000E+01
4859000000.000000      4.607239000000000E-01     -1.370313000000000E+01      4.974518000000000E-01     -1.731953000000000E+02      5.445862000000000E-01      2.257690000000000E+00      1.474304000000000E-01      9.810547000000000E+01
4860000000.000000      4.599915000000000E-01     -1.311084000000000E+01      4.981079000000000E-01     -1.734062000000000E+02      5.449219000000000E-01      2.079102000000000E+00      1.538162000000000E-01      1.003945000000000E+02
4861000000.000000      4.620819000000000E-01     -1.293945000000000E+01      4.983215000000000E-01     -1.739375000000000E+02      5.474548000000000E-01      1.929443000000000E+00      1.594543000000000E-01      1.033047000000000E+02
4862000000.000000      4.605408000000000E-01     -1.256445000000000E+01      5.000000000000000E-01     -1.742500000000000E+02      5.484314000000000E-01      1.794861000000000E+00      1.656570000000000E-01      1.052812000000000E+02
4863000000.000000      4.636078000000000E-01     -1.230762000000000E+01      4.988556000000000E-01     -1.745937000000000E+02      5.478821000000000E-01      1.572388000000000E+00      1.721573000000000E-01      1.070000000000000E+02
4864000000.000000      4.633789000000000E-01     -1.206738000000000E+01      5.016785000000000E-01     -1.747890000000000E+02      5.487366000000000E-01      1.614990000000000E+00      1.789627000000000E-01      1.091211000000000E+02
4865000000.000000      4.638062000000000E-01     -1.182715000000000E+01      5.018311000000000E-01     -1.751172000000000E+02      5.498352000000000E-01      1.513367000000000E+00      1.862946000000000E-01      1.103281000000000E+02
4866000000.000000      4.653778000000000E-01     -1.146289000000000E+01      5.021362000000000E-01     -1.755625000000000E+02      5.512390000000000E-01      1.319702000000000E+00      1.906433000000000E-01      1.119297000000000E+02
4867000000.000000      4.648285000000000E-01     -1.109619000000000E+01      5.032349000000000E-01     -1.759453000000000E+02      5.483093000000000E-01      1.150818000000000E+00      1.967468000000000E-01      1.130117000000000E+02
4868000000.000000      4.687195000000000E-01     -1.094141000000000E+01      5.042114000000000E-01     -1.764297000000000E+02      5.507507000000000E-01      9.187317000000000E-01      2.036743000000000E-01      1.140078000000000E+02
4869000000.000000      4.702759000000000E-01     -1.061719000000000E+01      5.053101000000000E-01     -1.766172000000000E+02      5.494385000000000E-01      8.885193000000000E-01      2.107697000000000E-01      1.153203000000000E+02
4870000000.000000      4.725494000000000E-01     -1.038623000000000E+01      5.056763000000000E-01     -1.769063000000000E+02      5.502319000000000E-01      8.143616000000000E-01      2.171631000000000E-01      1.165547000000000E+02
4871000000.000000      4.716492000000000E-01     -1.029590000000000E+01      5.074463000000000E-01     -1.775469000000000E+02      5.501404000000000E-01      6.605530000000000E-01      2.240295000000000E-01      1.173555000000000E+02
4872000000.000000      4.770355000000000E-01     -9.807129000000000E+00      5.074158000000000E-01     -1.776094000000000E+02      5.498047000000000E-01      4.078674000000000E-01      2.304001000000000E-01      1.177578000000000E+02
4873000000.000000      4.754333000000000E-01     -9.523926000000000E+00      5.083923000000000E-01     -1.782812000000000E+02      5.498962000000000E-01      4.490662000000000E-01      2.370148000000000E-01      1.185312000000000E+02
4874000000.000000      4.780579000000000E-01     -9.324707000000000E+00      5.080566000000000E-01     -1.784922000000000E+02      5.515747000000000E-01      3.076172000000000E-01      2.412949000000000E-01      1.190391000000000E+02
4875000000.000000      4.814453000000000E-01     -9.110840000000000E+00      5.097046000000000E-01     -1.788828000000000E+02      5.503845000000000E-01      4.518127000000000E-01      2.471924000000000E-01      1.196406000000000E+02
4876000000.000000      4.829559000000000E-01     -8.767090000000000E+00      5.112915000000000E-01     -1.790859000000000E+02      5.512695000000000E-01      2.883911000000000E-01      2.529297000000000E-01      1.200273000000000E+02
4877000000.000000      4.868011000000000E-01     -8.998047000000000E+00      5.119629000000000E-01     -1.798203000000000E+02      5.514832000000000E-01      1.112366000000000E-01      2.586365000000000E-01      1.205273000000000E+02
4878000000.000000      4.884338000000000E-01     -8.688965000000000E+00      5.125732000000000E-01     -1.798594000000000E+02      5.508118000000000E-01      1.263428000000000E-01      2.626343000000000E-01      1.209258000000000E+02
4879000000.000000      4.943695000000000E-01     -8.359375000000000E+00      5.125732000000000E-01      1.797500000000000E+02      5.487976000000000E-01      0.000000000000000E+00      2.698975000000000E-01      1.210898000000000E+02
4880000000.000000      4.963379000000000E-01     -8.289551000000000E+00      5.120850000000000E-01      1.793359000000000E+02      5.490723000000000E-01      9.475708000000000E-02      2.719727000000000E-01      1.213906000000000E+02
4881000000.000000      4.966583000000000E-01     -8.293457000000000E+00      5.145569000000000E-01      1.789141000000000E+02      5.500183000000000E-01     -1.043701000000000E-01      2.795563000000000E-01      1.217305000000000E+02
4882000000.000000      5.011292000000000E-01     -8.063965000000000E+00      5.150452000000000E-01      1.783906000000000E+02      5.495911000000000E-01     -9.887695000000000E-02      2.839813000000000E-01      1.219805000000000E+02
