! Network Analyzer HP8722D
! Hewlett-Packard
! Data name: Linha & Wilkinson
! Saver's name: Rodrigo Anjos
! Comments: Teste da utilização de aquisição
continua pelo VNA HP8722D
! Time and date: 8/5/2025 13:50
!              Frequency                     S11                                                   S21                                                   S12                                                   S22
# HZ  S  MA R 50
4800000000.000000      5.309448000000000E-01     -2.513867000000000E+01      3.725433000000000E-01     -1.503203000000000E+02      3.885956000000000E-01      9.051270000000000E+00      4.979095000000000E-01      1.046448000000000E+00
4801000000.000000      5.289612000000000E-01     -2.493555000000000E+01      3.753357000000000E-01     -1.504453000000000E+02      3.922577000000000E-01      8.816406000000000E+00      4.932098000000000E-01      1.071167000000000E+00
4802000000.000000      5.275269000000000E-01     -2.468262000000000E+01      3.801117000000000E-01     -1.508516000000000E+02      3.959198000000000E-01      8.667969000000000E+00      4.882355000000000E-01      1.354065000000000E+00
4803000000.000000      5.268250000000000E-01     -2.455371000000000E+01      3.838806000000000E-01     -1.515078000000000E+02      4.013672000000000E-01      8.677734000000000E+00      4.812012000000000E-01      1.347168000000000E+00
4804000000.000000      5.256042000000000E-01     -2.414941000000000E+01      3.881989000000000E-01     -1.518984000000000E+02      4.062805000000000E-01      8.162598000000000E+00      4.748077000000000E-01      1.568298000000000E+00
4805000000.000000      5.249634000000000E-01     -2.387109000000000E+01      3.919373000000000E-01     -1.521797000000000E+02      4.084473000000000E-01      8.320313000000000E+00      4.682159000000000E-01      1.539429000000000E+00
4806000000.000000      5.244446000000000E-01     -2.380273000000000E+01      3.948517000000000E-01     -1.527734000000000E+02      4.126587000000000E-01      8.257324000000000E+00      4.614410000000000E-01      1.594360000000000E+00
4807000000.000000      5.215759000000000E-01     -2.346875000000000E+01      3.989105000000000E-01     -1.531953000000000E+02      4.158630000000000E-01      7.857910000000000E+00      4.535828000000000E-01      1.819580000000000E+00
4808000000.000000      5.216980000000000E-01     -2.327637000000000E+01      4.031219000000000E-01     -1.532656000000000E+02      4.193420000000000E-01      7.888184000000000E+00      4.475403000000000E-01      2.047485000000000E+00
4809000000.000000      5.204773000000000E-01     -2.291699000000000E+01      4.055634000000000E-01     -1.537578000000000E+02      4.253845000000000E-01      7.307129000000000E+00      4.403687000000000E-01      2.276855000000000E+00
4810000000.000000      5.191345000000000E-01     -2.295215000000000E+01      4.096527000000000E-01     -1.541172000000000E+02      4.289398000000000E-01      7.669678000000000E+00      4.325562000000000E-01      2.212280000000000E+00
4811000000.000000      5.180054000000000E-01     -2.263379000000000E+01      4.138336000000000E-01     -1.547969000000000E+02      4.314880000000000E-01      7.480225000000000E+00      4.249573000000000E-01      2.763062000000000E+00
4812000000.000000      5.200195000000000E-01     -2.239453000000000E+01      4.176331000000000E-01     -1.549531000000000E+02      4.343567000000000E-01      7.459717000000000E+00      4.175568000000000E-01      2.660034000000000E+00
4813000000.000000      5.166016000000000E-01     -2.228613000000000E+01      4.211426000000000E-01     -1.555781000000000E+02      4.395905000000000E-01      7.330566000000000E+00      4.094543000000000E-01      3.261475000000000E+00
4814000000.000000      5.124512000000000E-01     -2.210644000000000E+01      4.243317000000000E-01     -1.559922000000000E+02      4.438019000000000E-01      7.141113000000000E+00      4.012756000000000E-01      3.354858000000000E+00
4815000000.000000      5.131226000000000E-01     -2.179297000000000E+01      4.266815000000000E-01     -1.563594000000000E+02      4.451447000000000E-01      6.873291000000000E+00      3.936310000000000E-01      3.658447000000000E+00
4816000000.000000      5.130005000000000E-01     -2.154199000000000E+01      4.302979000000000E-01     -1.569766000000000E+02      4.505310000000000E-01      6.968018000000000E+00      3.856506000000000E-01      3.894653000000000E+00
4817000000.000000      5.111694000000000E-01     -2.125195000000000E+01      4.340363000000000E-01     -1.573047000000000E+02      4.502869000000000E-01      6.481934000000000E+00      3.754578000000000E-01      4.416504000000000E+00
4818000000.000000      5.086975000000000E-01     -2.139453000000000E+01      4.363251000000000E-01     -1.580937000000000E+02      4.569244000000000E-01      6.348633000000000E+00      3.666382000000000E-01      4.671875000000000E+00
4819000000.000000      5.068054000000000E-01     -2.112402000000000E+01      4.382324000000000E-01     -1.583828000000000E+02      4.611816000000000E-01      6.312988000000000E+00      3.572540000000000E-01      4.799561000000000E+00
4820000000.000000      5.060120000000000E-01     -2.089550000000000E+01      4.431000000000000E-01     -1.588281000000000E+02      4.630585000000000E-01      6.120605000000000E+00      3.495026000000000E-01      5.434082000000000E+00
4821000000.000000      5.043945000000000E-01     -2.093262000000000E+01      4.456177000000000E-01     -1.593437000000000E+02      4.660339000000000E-01      5.979248000000000E+00      3.399048000000000E-01      6.075439000000000E+00
4822000000.000000      5.040588000000000E-01     -2.066211000000000E+01      4.467010000000000E-01     -1.595469000000000E+02      4.679260000000000E-01      5.826660000000000E+00      3.316040000000000E-01      6.242920000000000E+00
4823000000.000000      5.033264000000000E-01     -2.039551000000000E+01      4.499969000000000E-01     -1.602500000000000E+02      4.734955000000000E-01      5.709961000000000E+00      3.223267000000000E-01      6.796387000000000E+00
4824000000.000000      4.991455000000000E-01     -2.032422000000000E+01      4.524994000000000E-01     -1.607812000000000E+02      4.761658000000000E-01      5.512207000000000E+00      3.127594000000000E-01      7.375732000000000E+00
4825000000.000000      4.977722000000000E-01     -2.031445000000000E+01      4.545593000000000E-01     -1.610391000000000E+02      4.806976000000000E-01      5.510986000000000E+00      3.047638000000000E-01      8.113281000000000E+00
4826000000.000000      4.967194000000000E-01     -2.031054000000000E+01      4.583740000000000E-01     -1.616797000000000E+02      4.819183000000000E-01      5.104492000000000E+00      2.946777000000000E-01      8.735352000000000E+00
4827000000.000000      4.938965000000000E-01     -1.984961000000000E+01      4.595947000000000E-01     -1.619141000000000E+02      4.844666000000000E-01      5.048096000000000E+00      2.859650000000000E-01      9.492188000000000E+00
4828000000.000000      4.940338000000000E-01     -1.980371000000000E+01      4.639587000000000E-01     -1.624766000000000E+02      4.878693000000000E-01      4.994629000000000E+00      2.764282000000000E-01      9.991699000000000E+00
4829000000.000000      4.933319000000000E-01     -1.947949000000000E+01      4.656525000000000E-01     -1.630078000000000E+02      4.908447000000000E-01      4.868164000000000E+00      2.682953000000000E-01      1.120166000000000E+01
4830000000.000000      4.922943000000000E-01     -1.944336000000000E+01      4.675446000000000E-01     -1.635781000000000E+02      4.938965000000000E-01      4.636230000000000E+00      2.581177000000000E-01      1.229053000000000E+01
4831000000.000000      4.888153000000000E-01     -1.933594000000000E+01      4.693451000000000E-01     -1.641016000000000E+02      4.960938000000000E-01      4.593506000000000E+00      2.492447000000000E-01      1.316699000000000E+01
4832000000.000000      4.863586000000000E-01     -1.930371000000000E+01      4.714050000000000E-01     -1.643125000000000E+02      4.994049000000000E-01      4.387451000000000E+00      2.389297000000000E-01      1.478027000000000E+01
4833000000.000000      4.868164000000000E-01     -1.919336000000000E+01      4.732208000000000E-01     -1.646172000000000E+02      5.033264000000000E-01      3.960571000000000E+00      2.297897000000000E-01      1.600683000000000E+01
4834000000.000000      4.845276000000000E-01     -1.897949000000000E+01      4.752197000000000E-01     -1.652422000000000E+02      5.060120000000000E-01      3.966064000000000E+00      2.218781000000000E-01      1.727441000000000E+01
4835000000.000000      4.826813000000000E-01     -1.864258000000000E+01      4.773254000000000E-01     -1.657266000000000E+02      5.081787000000000E-01      3.673462000000000E+00      2.127991000000000E-01      1.889355000000000E+01
4836000000.000000      4.826355000000000E-01     -1.857031000000000E+01      4.782257000000000E-01     -1.661484000000000E+02      5.093384000000000E-01      3.885010000000000E+00      2.044678000000000E-01      2.085547000000000E+01
4837000000.000000      4.795837000000000E-01     -1.837891000000000E+01      4.772949000000000E-01     -1.666719000000000E+02      5.126038000000000E-01      3.456543000000000E+00      1.965027000000000E-01      2.287890000000000E+01
4838000000.000000      4.767303000000000E-01     -1.828125000000000E+01      4.820709000000000E-01     -1.669219000000000E+02      5.152283000000000E-01      3.558105000000000E+00      1.885071000000000E-01      2.477734000000000E+01
4839000000.000000      4.776764000000000E-01     -1.798633000000000E+01      4.819183000000000E-01     -1.673281000000000E+02      5.180664000000000E-01      3.095337000000000E+00      1.816101000000000E-01      2.698242000000000E+01
4840000000.000000      4.758606000000000E-01     -1.809375000000000E+01      4.833221000000000E-01     -1.677422000000000E+02      5.205383000000000E-01      2.963501000000000E+00      1.736221000000000E-01      2.943164000000000E+01
4841000000.000000      4.720306000000000E-01     -1.772851000000000E+01      4.851532000000000E-01     -1.682578000000000E+02      5.238342000000000E-01      2.708130000000000E+00      1.685333000000000E-01      3.244726000000000E+01
4842000000.000000      4.718323000000000E-01     -1.774316000000000E+01      4.854584000000000E-01     -1.684922000000000E+02      5.240784000000000E-01      2.786377000000000E+00      1.615295000000000E-01      3.561523000000000E+01
4843000000.000000      4.721069000000000E-01     -1.746094000000000E+01      4.883575000000000E-01     -1.692578000000000E+02      5.280762000000000E-01      2.557007000000000E+00      1.561356000000000E-01      3.894531000000000E+01
4844000000.000000      4.684296000000000E-01     -1.703027000000000E+01      4.885864000000000E-01     -1.695391000000000E+02      5.294495000000000E-01      2.401855000000000E+00      1.495056000000000E-01      4.258398000000000E+01
4845000000.000000      4.687958000000000E-01     -1.693750000000000E+01      4.888153000000000E-01     -1.698750000000000E+02      5.334167000000000E-01      2.287842000000000E+00      1.466064000000000E-01      4.590820000000000E+01
4846000000.000000      4.680023000000000E-01     -1.661328000000000E+01      4.912720000000000E-01     -1.701797000000000E+02      5.354309000000000E-01      2.009033000000000E+00      1.430969000000000E-01      5.018555000000000E+01
4847000000.000000      4.667206000000000E-01     -1.639648000000000E+01      4.921417000000000E-01     -1.705156000000000E+02      5.383301000000000E-01      1.880005000000000E+00      1.396561000000000E-01      5.411914000000000E+01
4848000000.000000      4.644928000000000E-01     -1.609277000000000E+01      4.906158000000000E-01     -1.710312000000000E+02      5.378113000000000E-01      1.804504000000000E+00      1.389923000000000E-01      5.829687000000000E+01
4849000000.000000      4.619141000000000E-01     -1.597998000000000E+01      4.944305000000000E-01     -1.713906000000000E+02      5.401611000000000E-01      1.472168000000000E+00      1.370773000000000E-01      6.266796000000000E+01
4850000000.000000      4.632568000000000E-01     -1.576855000000000E+01      4.938354000000000E-01     -1.716406000000000E+02      5.407715000000000E-01      1.341675000000000E+00      1.380692000000000E-01      6.707031000000000E+01
4851000000.000000      4.614410000000000E-01     -1.545508000000000E+01      4.968872000000000E-01     -1.721953000000000E+02      5.416565000000000E-01      1.300476000000000E+00      1.387711000000000E-01      7.082031000000000E+01
4852000000.000000      4.599152000000000E-01     -1.513818000000000E+01      4.955292000000000E-01     -1.725078000000000E+02      5.428162000000000E-01      1.146667000000000E+00      1.402283000000000E-01      7.494922000000000E+01
4853000000.000000      4.610901000000000E-01     -1.489746000000000E+01      4.954681000000000E-01     -1.728984000000000E+02      5.452881000000000E-01      9.201050000000000E-01      1.426849000000000E-01      7.877734000000000E+01
4854000000.000000      4.606171000000000E-01     -1.477979000000000E+01      4.977112000000000E-01     -1.734062000000000E+02      5.458069000000000E-01      8.747864000000000E-01      1.464005000000000E-01      8.232422000000000E+01
4855000000.000000      4.597321000000000E-01     -1.435547000000000E+01      4.988708000000000E-01     -1.736328000000000E+02      5.484619000000000E-01      4.463196000000000E-01      1.494370000000000E-01      8.628906000000000E+01
4856000000.000000      4.587097000000000E-01     -1.418066000000000E+01      4.972076000000000E-01     -1.739453000000000E+02      5.490112000000000E-01      2.005005000000000E-01      1.550980000000000E-01      8.930468000000000E+01
4857000000.000000      4.599762000000000E-01     -1.367969000000000E+01      5.021057000000000E-01     -1.742891000000000E+02      5.503540000000000E-01      2.128601000000000E-01      1.582642000000000E-01      9.227343000000000E+01
4858000000.000000      4.579315000000000E-01     -1.374121000000000E+01      5.006714000000000E-01     -1.747969000000000E+02      5.499573000000000E-01     -9.201050000000000E-02      1.633987000000000E-01      9.485155000000000E+01
4859000000.000000      4.582367000000000E-01     -1.310010000000000E+01      5.038147000000000E-01     -1.750625000000000E+02      5.512390000000000E-01      1.510620000000000E-02      1.689453000000000E-01      9.751171000000000E+01
4860000000.000000      4.596100000000000E-01     -1.304395000000000E+01      5.022278000000000E-01     -1.752578000000000E+02      5.512085000000000E-01     -2.513123000000000E-01      1.751938000000000E-01      9.942577000000000E+01
4861000000.000000      4.587860000000000E-01     -1.279248000000000E+01      5.030823000000000E-01     -1.758047000000000E+02      5.536804000000000E-01     -4.174805000000000E-01      1.813126000000000E-01      1.017851000000000E+02
4862000000.000000      4.589844000000000E-01     -1.219092000000000E+01      5.054932000000000E-01     -1.761641000000000E+02      5.559692000000000E-01     -5.575562000000000E-01      1.873474000000000E-01      1.032031000000000E+02
4863000000.000000      4.613495000000000E-01     -1.212207000000000E+01      5.047302000000000E-01     -1.766719000000000E+02      5.544128000000000E-01     -7.415771000000000E-01      1.942749000000000E-01      1.048516000000000E+02
4864000000.000000      4.631348000000000E-01     -1.200439000000000E+01      5.055237000000000E-01     -1.766953000000000E+02      5.555420000000000E-01     -7.841492000000000E-01      1.999054000000000E-01      1.065351000000000E+02
4865000000.000000      4.618378000000000E-01     -1.166357000000000E+01      5.060730000000000E-01     -1.771563000000000E+02      5.565796000000000E-01     -1.014893000000000E+00      2.052307000000000E-01      1.079609000000000E+02
4866000000.000000      4.640503000000000E-01     -1.125732000000000E+01      5.051575000000000E-01     -1.774219000000000E+02      5.557861000000000E-01     -1.082153000000000E+00      2.109451000000000E-01      1.087539000000000E+02
4867000000.000000      4.649658000000000E-01     -1.100439000000000E+01      5.075684000000000E-01     -1.778594000000000E+02      5.545654000000000E-01     -1.167297000000000E+00      2.180481000000000E-01      1.099375000000000E+02
4868000000.000000      4.671326000000000E-01     -1.074365000000000E+01      5.088501000000000E-01     -1.784297000000000E+02      5.558777000000000E-01     -1.292297000000000E+00      2.242661000000000E-01      1.110781000000000E+02
4869000000.000000      4.677124000000000E-01     -1.051953000000000E+01      5.089722000000000E-01     -1.787656000000000E+02      5.552368000000000E-01     -1.419983000000000E+00      2.303467000000000E-01      1.120508000000000E+02
4870000000.000000      4.703522000000000E-01     -1.016260000000000E+01      5.111084000000000E-01     -1.787344000000000E+02      5.559387000000000E-01     -1.540833000000000E+00      2.373199000000000E-01      1.128008000000000E+02
4871000000.000000      4.731750000000000E-01     -1.003613000000000E+01      5.098572000000000E-01     -1.791797000000000E+02      5.554810000000000E-01     -1.568298000000000E+00      2.439651000000000E-01      1.135039000000000E+02
4872000000.000000      4.763489000000000E-01     -9.839844000000000E+00      5.118103000000000E-01     -1.794297000000000E+02      5.551453000000000E-01     -1.848450000000000E+00      2.495956000000000E-01      1.136914000000000E+02
4873000000.000000      4.773407000000000E-01     -9.414063000000000E+00      5.128784000000000E-01      1.799219000000000E+02      5.552673000000000E-01     -1.819641000000000E+00      2.542877000000000E-01      1.146016000000000E+02
4874000000.000000      4.795380000000000E-01     -9.390625000000000E+00      5.127563000000000E-01      1.797578000000000E+02      5.566101000000000E-01     -1.849854000000000E+00      2.596130000000000E-01      1.151015000000000E+02
4875000000.000000      4.801178000000000E-01     -9.368652000000000E+00      5.125122000000000E-01      1.794062000000000E+02      5.550537000000000E-01     -1.991272000000000E+00      2.643890000000000E-01      1.158476000000000E+02
4876000000.000000      4.836731000000000E-01     -8.984375000000000E+00      5.157166000000000E-01      1.789219000000000E+02      5.549316000000000E-01     -1.871826000000000E+00      2.704163000000000E-01      1.164219000000000E+02
4877000000.000000      4.882202000000000E-01     -9.096680000000000E+00      5.150452000000000E-01      1.785000000000000E+02      5.540771000000000E-01     -2.076416000000000E+00      2.737122000000000E-01      1.164141000000000E+02
4878000000.000000      4.889679000000000E-01     -8.612305000000000E+00      5.156555000000000E-01      1.781484000000000E+02      5.513000000000000E-01     -2.017456000000000E+00      2.790222000000000E-01      1.169180000000000E+02
4879000000.000000      4.926605000000000E-01     -8.454102000000000E+00      5.160522000000000E-01      1.779687000000000E+02      5.546570000000000E-01     -2.200073000000000E+00      2.836914000000000E-01      1.174492000000000E+02
4880000000.000000      4.958649000000000E-01     -8.283691000000000E+00      5.176697000000000E-01      1.774531000000000E+02      5.536499000000000E-01     -2.362061000000000E+00      2.889252000000000E-01      1.173867000000000E+02
4881000000.000000      4.984283000000000E-01     -8.213867000000000E+00      5.175781000000000E-01      1.772578000000000E+02      5.517273000000000E-01     -2.256348000000000E+00      2.929840000000000E-01      1.177539000000000E+02
4882000000.000000      5.016174000000000E-01     -8.209961000000000E+00      5.190125000000000E-01      1.765938000000000E+02      5.516968000000000E-01     -2.320923000000000E+00      2.985382000000000E-01      1.177383000000000E+02
