! Network Analyzer HP8722D
! Hewlett-Packard
! Data name: Linha & Wilkinson
! Saver's name: Rodrigo Anjos
! Comments: Teste da utilização de aquisição
continua pelo VNA HP8722D
! Time and date: 8/5/2025 14:32
!              Frequency                     S11                                                   S21                                                   S12                                                   S22
# HZ  S  MA R 50
4800000000.000000      5.376892000000000E-01     -2.524023000000000E+01      3.632050000000000E-01     -1.486953000000000E+02      3.824768000000000E-01      1.062744000000000E+01      5.016174000000000E-01      1.337585000000000E+00
4801000000.000000      5.350342000000000E-01     -2.486621000000000E+01      3.672943000000000E-01     -1.489687000000000E+02      3.847961000000000E-01      1.026221000000000E+01      4.989777000000000E-01      1.356812000000000E+00
4802000000.000000      5.342407000000000E-01     -2.458008000000000E+01      3.714752000000000E-01     -1.493906000000000E+02      3.885193000000000E-01      1.040234000000000E+01      4.936981000000000E-01      1.774292000000000E+00
4803000000.000000      5.329590000000000E-01     -2.453808000000000E+01      3.761139000000000E-01     -1.497109000000000E+02      3.919830000000000E-01      1.006348000000000E+01      4.869995000000000E-01      1.612244000000000E+00
4804000000.000000      5.310974000000000E-01     -2.443359000000000E+01      3.798828000000000E-01     -1.501172000000000E+02      3.975830000000000E-01      9.943848000000000E+00      4.812927000000000E-01      1.991272000000000E+00
4805000000.000000      5.319214000000000E-01     -2.403320000000000E+01      3.836365000000000E-01     -1.506172000000000E+02      4.010925000000000E-01      9.842285000000000E+00      4.739685000000000E-01      1.881409000000000E+00
4806000000.000000      5.307312000000000E-01     -2.376563000000000E+01      3.875885000000000E-01     -1.509453000000000E+02      4.041901000000000E-01      9.714355000000000E+00      4.670868000000000E-01      1.774292000000000E+00
4807000000.000000      5.273438000000000E-01     -2.355273000000000E+01      3.911438000000000E-01     -1.514844000000000E+02      4.075928000000000E-01      9.575684000000000E+00      4.604950000000000E-01      2.073608000000000E+00
4808000000.000000      5.279236000000000E-01     -2.332617000000000E+01      3.948364000000000E-01     -1.517422000000000E+02      4.115448000000000E-01      9.629395000000000E+00      4.535675000000000E-01      2.193115000000000E+00
4809000000.000000      5.262451000000000E-01     -2.299609000000000E+01      3.992920000000000E-01     -1.523516000000000E+02      4.159088000000000E-01      9.152832000000000E+00      4.461670000000000E-01      2.445801000000000E+00
4810000000.000000      5.238953000000000E-01     -2.269531000000000E+01      4.033966000000000E-01     -1.525625000000000E+02      4.188843000000000E-01      9.324219000000000E+00      4.396057000000000E-01      2.360596000000000E+00
4811000000.000000      5.235596000000000E-01     -2.262793000000000E+01      4.066162000000000E-01     -1.532266000000000E+02      4.249878000000000E-01      9.280273000000000E+00      4.322205000000000E-01      2.771240000000000E+00
4812000000.000000      5.232849000000000E-01     -2.220801000000000E+01      4.104004000000000E-01     -1.535391000000000E+02      4.267731000000000E-01      8.913574000000000E+00      4.240875000000000E-01      2.697144000000000E+00
4813000000.000000      5.227356000000000E-01     -2.208887000000000E+01      4.133453000000000E-01     -1.540000000000000E+02      4.302826000000000E-01      8.849121000000000E+00      4.171906000000000E-01      3.247803000000000E+00
4814000000.000000      5.171814000000000E-01     -2.224804000000000E+01      4.178314000000000E-01     -1.543984000000000E+02      4.351349000000000E-01      8.752930000000000E+00      4.079132000000000E-01      3.323364000000000E+00
4815000000.000000      5.189819000000000E-01     -2.166406000000000E+01      4.202118000000000E-01     -1.548047000000000E+02      4.363098000000000E-01      8.514160000000000E+00      4.002075000000000E-01      3.554077000000000E+00
4816000000.000000      5.173035000000000E-01     -2.135254000000000E+01      4.241333000000000E-01     -1.553437000000000E+02      4.423370000000000E-01      8.466309000000000E+00      3.931427000000000E-01      3.762817000000000E+00
4817000000.000000      5.155945000000000E-01     -2.116015000000000E+01      4.269104000000000E-01     -1.557578000000000E+02      4.435730000000000E-01      8.298340000000000E+00      3.825836000000000E-01      4.233643000000000E+00
4818000000.000000      5.144348000000000E-01     -2.115723000000000E+01      4.295654000000000E-01     -1.562344000000000E+02      4.495697000000000E-01      8.010254000000000E+00      3.736115000000000E-01      4.527588000000000E+00
4819000000.000000      5.140381000000000E-01     -2.094336000000000E+01      4.329224000000000E-01     -1.566875000000000E+02      4.517212000000000E-01      7.890869000000000E+00      3.651733000000000E-01      4.454834000000000E+00
4820000000.000000      5.109558000000000E-01     -2.066992000000000E+01      4.363098000000000E-01     -1.571172000000000E+02      4.536438000000000E-01      7.934814000000000E+00      3.567505000000000E-01      5.046631000000000E+00
4821000000.000000      5.096130000000000E-01     -2.083887000000000E+01      4.394836000000000E-01     -1.575469000000000E+02      4.565277000000000E-01      7.609375000000000E+00      3.474731000000000E-01      5.619385000000000E+00
4822000000.000000      5.077820000000000E-01     -2.075488000000000E+01      4.407806000000000E-01     -1.580312000000000E+02      4.609375000000000E-01      7.359375000000000E+00      3.397064000000000E-01      5.670166000000000E+00
4823000000.000000      5.061340000000000E-01     -2.048047000000000E+01      4.446259000000000E-01     -1.585625000000000E+02      4.627991000000000E-01      7.367676000000000E+00      3.287811000000000E-01      6.183838000000000E+00
4824000000.000000      5.042419000000000E-01     -2.028223000000000E+01      4.475555000000000E-01     -1.589766000000000E+02      4.675598000000000E-01      7.032471000000000E+00      3.197327000000000E-01      6.560059000000000E+00
4825000000.000000      5.047302000000000E-01     -2.011523000000000E+01      4.493713000000000E-01     -1.594297000000000E+02      4.719086000000000E-01      6.959717000000000E+00      3.119049000000000E-01      7.149170000000000E+00
4826000000.000000      5.010986000000000E-01     -2.006543000000000E+01      4.523010000000000E-01     -1.600078000000000E+02      4.731445000000000E-01      6.778564000000000E+00      3.017731000000000E-01      7.757568000000000E+00
4827000000.000000      5.007019000000000E-01     -1.981738000000000E+01      4.546204000000000E-01     -1.604219000000000E+02      4.774933000000000E-01      6.767578000000000E+00      2.929688000000000E-01      8.370117000000000E+00
4828000000.000000      4.982758000000000E-01     -1.977148000000000E+01      4.572296000000000E-01     -1.608828000000000E+02      4.803162000000000E-01      6.525879000000000E+00      2.834320000000000E-01      8.899902000000000E+00
4829000000.000000      4.971466000000000E-01     -1.959765000000000E+01      4.595947000000000E-01     -1.613672000000000E+02      4.824066000000000E-01      6.511963000000000E+00      2.754364000000000E-01      9.935547000000000E+00
4830000000.000000      4.967957000000000E-01     -1.960547000000000E+01      4.615936000000000E-01     -1.619062000000000E+02      4.857941000000000E-01      6.230469000000000E+00      2.639923000000000E-01      1.078564000000000E+01
4831000000.000000      4.941254000000000E-01     -1.906152000000000E+01      4.634247000000000E-01     -1.622578000000000E+02      4.895325000000000E-01      6.215332000000000E+00      2.550507000000000E-01      1.147363000000000E+01
4832000000.000000      4.923401000000000E-01     -1.898340000000000E+01      4.655762000000000E-01     -1.625781000000000E+02      4.910431000000000E-01      6.042480000000000E+00      2.444763000000000E-01      1.296094000000000E+01
4833000000.000000      4.910583000000000E-01     -1.904492000000000E+01      4.671783000000000E-01     -1.630156000000000E+02      4.940338000000000E-01      5.678467000000000E+00      2.356033000000000E-01      1.381348000000000E+01
4834000000.000000      4.871521000000000E-01     -1.898633000000000E+01      4.694366000000000E-01     -1.637109000000000E+02      4.977875000000000E-01      5.800781000000000E+00      2.267303000000000E-01      1.517578000000000E+01
4835000000.000000      4.866943000000000E-01     -1.879004000000000E+01      4.714355000000000E-01     -1.640859000000000E+02      5.005188000000000E-01      5.545166000000000E+00      2.177124000000000E-01      1.647168000000000E+01
4836000000.000000      4.866180000000000E-01     -1.840137000000000E+01      4.720917000000000E-01     -1.643750000000000E+02      5.023804000000000E-01      5.416260000000000E+00      2.081223000000000E-01      1.809277000000000E+01
4837000000.000000      4.815521000000000E-01     -1.843262000000000E+01      4.738617000000000E-01     -1.651953000000000E+02      5.044556000000000E-01      5.074219000000000E+00      2.002106000000000E-01      1.988379000000000E+01
4838000000.000000      4.821472000000000E-01     -1.830664000000000E+01      4.762421000000000E-01     -1.653047000000000E+02      5.076294000000000E-01      5.083740000000000E+00      1.916199000000000E-01      2.171289000000000E+01
4839000000.000000      4.819183000000000E-01     -1.781054000000000E+01      4.777832000000000E-01     -1.657500000000000E+02      5.097046000000000E-01      4.951904000000000E+00      1.843872000000000E-01      2.342480000000000E+01
4840000000.000000      4.792175000000000E-01     -1.778711000000000E+01      4.796906000000000E-01     -1.662188000000000E+02      5.134277000000000E-01      4.971191000000000E+00      1.751099000000000E-01      2.571972000000000E+01
4841000000.000000      4.755096000000000E-01     -1.760351000000000E+01      4.814301000000000E-01     -1.666953000000000E+02      5.154114000000000E-01      4.583984000000000E+00      1.681671000000000E-01      2.849902000000000E+01
4842000000.000000      4.773407000000000E-01     -1.740430000000000E+01      4.821625000000000E-01     -1.670547000000000E+02      5.176392000000000E-01      4.601807000000000E+00      1.608353000000000E-01      3.146582000000000E+01
4843000000.000000      4.753418000000000E-01     -1.743848000000000E+01      4.836731000000000E-01     -1.675937000000000E+02      5.201416000000000E-01      4.454834000000000E+00      1.547623000000000E-01      3.451562000000000E+01
4844000000.000000      4.717865000000000E-01     -1.726172000000000E+01      4.845428000000000E-01     -1.680078000000000E+02      5.222778000000000E-01      4.188477000000000E+00      1.473618000000000E-01      3.783398000000000E+01
4845000000.000000      4.708252000000000E-01     -1.658008000000000E+01      4.850159000000000E-01     -1.682969000000000E+02      5.232544000000000E-01      3.740845000000000E+00      1.425476000000000E-01      4.120507000000000E+01
4846000000.000000      4.706879000000000E-01     -1.657519000000000E+01      4.870758000000000E-01     -1.687109000000000E+02      5.271301000000000E-01      3.740845000000000E+00      1.380692000000000E-01      4.544922000000000E+01
4847000000.000000      4.677582000000000E-01     -1.635254000000000E+01      4.885101000000000E-01     -1.689062000000000E+02      5.310974000000000E-01      3.695435000000000E+00      1.333160000000000E-01      4.944336000000000E+01
4848000000.000000      4.658508000000000E-01     -1.611230000000000E+01      4.874878000000000E-01     -1.694531000000000E+02      5.316162000000000E-01      3.419434000000000E+00      1.314621000000000E-01      5.373241000000000E+01
4849000000.000000      4.665833000000000E-01     -1.610254000000000E+01      4.903564000000000E-01     -1.699219000000000E+02      5.333557000000000E-01      3.190063000000000E+00      1.287079000000000E-01      5.843554000000000E+01
4850000000.000000      4.666443000000000E-01     -1.573682000000000E+01      4.902802000000000E-01     -1.702656000000000E+02      5.349121000000000E-01      3.191528000000000E+00      1.285629000000000E-01      6.287304000000000E+01
4851000000.000000      4.653320000000000E-01     -1.540039000000000E+01      4.925690000000000E-01     -1.707344000000000E+02      5.356445000000000E-01      2.896240000000000E+00      1.278915000000000E-01      6.763281000000000E+01
4852000000.000000      4.645081000000000E-01     -1.518457000000000E+01      4.922943000000000E-01     -1.710078000000000E+02      5.379639000000000E-01      2.898926000000000E+00      1.288605000000000E-01      7.185937000000000E+01
4853000000.000000      4.615936000000000E-01     -1.486475000000000E+01      4.920807000000000E-01     -1.714141000000000E+02      5.406799000000000E-01      2.642212000000000E+00      1.296692000000000E-01      7.642187000000000E+01
4854000000.000000      4.640045000000000E-01     -1.483447000000000E+01      4.940643000000000E-01     -1.719219000000000E+02      5.400085000000000E-01      2.499390000000000E+00      1.336899000000000E-01      8.050390000000000E+01
4855000000.000000      4.612427000000000E-01     -1.430859000000000E+01      4.952393000000000E-01     -1.721328000000000E+02      5.427551000000000E-01      2.271362000000000E+00      1.354675000000000E-01      8.453905000000000E+01
4856000000.000000      4.593048000000000E-01     -1.418359000000000E+01      4.960327000000000E-01     -1.725234000000000E+02      5.431824000000000E-01      2.150513000000000E+00      1.398087000000000E-01      8.829296000000000E+01
4857000000.000000      4.613647000000000E-01     -1.364795000000000E+01      4.976196000000000E-01     -1.728672000000000E+02      5.450134000000000E-01      1.976135000000000E+00      1.436691000000000E-01      9.206640000000000E+01
4858000000.000000      4.613953000000000E-01     -1.346924000000000E+01      4.979858000000000E-01     -1.732265000000000E+02      5.466919000000000E-01      1.807251000000000E+00      1.485062000000000E-01      9.500391000000000E+01
4859000000.000000      4.618225000000000E-01     -1.334473000000000E+01      4.996338000000000E-01     -1.736875000000000E+02      5.469971000000000E-01      1.706970000000000E+00      1.540527000000000E-01      9.769140000000000E+01
4860000000.000000      4.615173000000000E-01     -1.296289000000000E+01      4.994659000000000E-01     -1.738594000000000E+02      5.470581000000000E-01      1.444702000000000E+00      1.601944000000000E-01      1.001289000000000E+02
4861000000.000000      4.621124000000000E-01     -1.279395000000000E+01      4.994049000000000E-01     -1.742734000000000E+02      5.490112000000000E-01      1.273010000000000E+00      1.650009000000000E-01      1.029531000000000E+02
4862000000.000000      4.621582000000000E-01     -1.239990000000000E+01      5.004883000000000E-01     -1.745234000000000E+02      5.501099000000000E-01      1.283997000000000E+00      1.715546000000000E-01      1.044219000000000E+02
4863000000.000000      4.617615000000000E-01     -1.208643000000000E+01      5.009155000000000E-01     -1.747969000000000E+02      5.494385000000000E-01      1.018982000000000E+00      1.770020000000000E-01      1.067812000000000E+02
4864000000.000000      4.656525000000000E-01     -1.185059000000000E+01      5.028992000000000E-01     -1.751328000000000E+02      5.501099000000000E-01      9.654236000000000E-01      1.850357000000000E-01      1.081875000000000E+02
4865000000.000000      4.640808000000000E-01     -1.152637000000000E+01      5.032349000000000E-01     -1.755078000000000E+02      5.512390000000000E-01      7.841492000000000E-01      1.917343000000000E-01      1.094258000000000E+02
4866000000.000000      4.648438000000000E-01     -1.136279000000000E+01      5.043640000000000E-01     -1.761797000000000E+02      5.513306000000000E-01      5.163574000000000E-01      1.974030000000000E-01      1.108594000000000E+02
4867000000.000000      4.652405000000000E-01     -1.094238000000000E+01      5.053406000000000E-01     -1.763359000000000E+02      5.505981000000000E-01      5.397034000000000E-01      2.027740000000000E-01      1.123789000000000E+02
4868000000.000000      4.687347000000000E-01     -1.084082000000000E+01      5.053711000000000E-01     -1.768281000000000E+02      5.512390000000000E-01      5.548096000000000E-01      2.093124000000000E-01      1.134727000000000E+02
4869000000.000000      4.688721000000000E-01     -1.051709000000000E+01      5.073547000000000E-01     -1.773047000000000E+02      5.522766000000000E-01      3.556824000000000E-01      2.158813000000000E-01      1.147578000000000E+02
4870000000.000000      4.719543000000000E-01     -1.022168000000000E+01      5.075989000000000E-01     -1.772109000000000E+02      5.532837000000000E-01      2.664185000000000E-01      2.228470000000000E-01      1.158984000000000E+02
4871000000.000000      4.714508000000000E-01     -1.013770000000000E+01      5.081177000000000E-01     -1.778281000000000E+02      5.521545000000000E-01      1.579285000000000E-01      2.293167000000000E-01      1.160859000000000E+02
4872000000.000000      4.751892000000000E-01     -9.931641000000000E+00      5.086670000000000E-01     -1.779453000000000E+02      5.516968000000000E-01     -1.139832000000000E-01      2.359009000000000E-01      1.163359000000000E+02
4873000000.000000      4.762268000000000E-01     -9.352539000000000E+00      5.097046000000000E-01     -1.785000000000000E+02      5.527954000000000E-01     -5.081177000000000E-02      2.407150000000000E-01      1.177305000000000E+02
4874000000.000000      4.801025000000000E-01     -9.273926000000000E+00      5.115967000000000E-01     -1.791406000000000E+02      5.543518000000000E-01     -2.279663000000000E-01      2.475510000000000E-01      1.180391000000000E+02
4875000000.000000      4.820251000000000E-01     -9.101074000000000E+00      5.108643000000000E-01     -1.790937000000000E+02      5.531616000000000E-01     -1.428223000000000E-01      2.510681000000000E-01      1.184766000000000E+02
4876000000.000000      4.830780000000000E-01     -8.866211000000000E+00      5.130310000000000E-01     -1.795469000000000E+02      5.527039000000000E-01     -2.279663000000000E-01      2.579498000000000E-01      1.191953000000000E+02
4877000000.000000      4.884186000000000E-01     -8.788086000000000E+00      5.125732000000000E-01      1.799297000000000E+02      5.505066000000000E-01     -3.721619000000000E-01      2.648010000000000E-01      1.191367000000000E+02
4878000000.000000      4.887238000000000E-01     -8.604004000000000E+00      5.154724000000000E-01      1.796250000000000E+02      5.519104000000000E-01     -3.666687000000000E-01      2.685699000000000E-01      1.193594000000000E+02
4879000000.000000      4.942780000000000E-01     -8.333496000000000E+00      5.135498000000000E-01      1.794375000000000E+02      5.516663000000000E-01     -5.767822000000000E-01      2.750092000000000E-01      1.203711000000000E+02
4880000000.000000      4.975128000000000E-01     -8.122070000000000E+00      5.153503000000000E-01      1.790078000000000E+02      5.509949000000000E-01     -6.124878000000000E-01      2.789459000000000E-01      1.204492000000000E+02
4881000000.000000      4.990997000000000E-01     -8.131348000000000E+00      5.157776000000000E-01      1.784922000000000E+02      5.508118000000000E-01     -5.836487000000000E-01      2.839508000000000E-01      1.206641000000000E+02
4882000000.000000      5.022888000000000E-01     -7.907471000000000E+00      5.182190000000000E-01      1.780078000000000E+02      5.494385000000000E-01     -6.427002000000000E-01      2.869263000000000E-01      1.208750000000000E+02
