! Network Analyzer HP8722D
! Hewlett-Packard
! Data name: Linha & Wilkinson
! Saver's name: Rodrigo Anjos
! Comments: Teste da utilização de aquisição
continua pelo VNA HP8722D
! Time and date: 8/5/2025 13:44
!              Frequency                     S11                                                   S21                                                   S12                                                   S22
# HZ  S  MA R 50
4800000000.000000      5.310364000000000E-01     -2.531836000000000E+01      3.713684000000000E-01     -1.500156000000000E+02      3.868103000000000E-01      9.352051000000000E+00      4.987030000000000E-01      1.031311000000000E+00
4801000000.000000      5.282288000000000E-01     -2.515234000000000E+01      3.744354000000000E-01     -1.503359000000000E+02      3.920441000000000E-01      9.093750000000000E+00      4.951630000000000E-01      1.094482000000000E+00
4802000000.000000      5.281067000000000E-01     -2.464258000000000E+01      3.784027000000000E-01     -1.506641000000000E+02      3.950806000000000E-01      8.982422000000000E+00      4.901276000000000E-01      1.384277000000000E+00
4803000000.000000      5.285950000000000E-01     -2.448047000000000E+01      3.832092000000000E-01     -1.510234000000000E+02      3.991699000000000E-01      8.946777000000000E+00      4.834595000000000E-01      1.492737000000000E+00
4804000000.000000      5.258789000000000E-01     -2.426953000000000E+01      3.881836000000000E-01     -1.514609000000000E+02      4.035645000000000E-01      8.564941000000000E+00      4.760132000000000E-01      1.517456000000000E+00
4805000000.000000      5.263062000000000E-01     -2.404687000000000E+01      3.908539000000000E-01     -1.518437000000000E+02      4.077759000000000E-01      8.475586000000000E+00      4.691620000000000E-01      1.572388000000000E+00
4806000000.000000      5.239258000000000E-01     -2.380469000000000E+01      3.930969000000000E-01     -1.525234000000000E+02      4.107208000000000E-01      8.420898000000000E+00      4.629974000000000E-01      1.549072000000000E+00
4807000000.000000      5.221558000000000E-01     -2.345215000000000E+01      3.982697000000000E-01     -1.528828000000000E+02      4.143829000000000E-01      8.217773000000000E+00      4.545288000000000E-01      1.792114000000000E+00
4808000000.000000      5.211792000000000E-01     -2.344433000000000E+01      4.011078000000000E-01     -1.531250000000000E+02      4.181519000000000E-01      8.409668000000000E+00      4.484863000000000E-01      2.061279000000000E+00
4809000000.000000      5.212402000000000E-01     -2.301856000000000E+01      4.058228000000000E-01     -1.537422000000000E+02      4.220428000000000E-01      7.859131000000000E+00      4.411621000000000E-01      2.285156000000000E+00
4810000000.000000      5.201721000000000E-01     -2.293750000000000E+01      4.094696000000000E-01     -1.541328000000000E+02      4.250336000000000E-01      7.985596000000000E+00      4.335327000000000E-01      2.282349000000000E+00
4811000000.000000      5.190125000000000E-01     -2.266894000000000E+01      4.136963000000000E-01     -1.546250000000000E+02      4.310150000000000E-01      7.771240000000000E+00      4.258728000000000E-01      2.758911000000000E+00
4812000000.000000      5.205383000000000E-01     -2.225195000000000E+01      4.161987000000000E-01     -1.548984000000000E+02      4.332581000000000E-01      7.653320000000000E+00      4.185638000000000E-01      2.661377000000000E+00
4813000000.000000      5.171204000000000E-01     -2.216406000000000E+01      4.190216000000000E-01     -1.553125000000000E+02      4.372101000000000E-01      7.543457000000000E+00      4.112701000000000E-01      3.198364000000000E+00
4814000000.000000      5.153198000000000E-01     -2.197168000000000E+01      4.230042000000000E-01     -1.557500000000000E+02      4.403229000000000E-01      7.238525000000000E+00      4.020233000000000E-01      3.298584000000000E+00
4815000000.000000      5.134583000000000E-01     -2.158301000000000E+01      4.254608000000000E-01     -1.562031000000000E+02      4.425201000000000E-01      7.046143000000000E+00      3.952484000000000E-01      3.647461000000000E+00
4816000000.000000      5.119934000000000E-01     -2.166504000000000E+01      4.305267000000000E-01     -1.565859000000000E+02      4.495239000000000E-01      7.177979000000000E+00      3.877563000000000E-01      3.835571000000000E+00
4817000000.000000      5.115051000000000E-01     -2.127832000000000E+01      4.313965000000000E-01     -1.572891000000000E+02      4.511414000000000E-01      6.910400000000000E+00      3.768463000000000E-01      4.302490000000000E+00
4818000000.000000      5.100403000000000E-01     -2.129981000000000E+01      4.348755000000000E-01     -1.576094000000000E+02      4.547424000000000E-01      6.580811000000000E+00      3.684692000000000E-01      4.724121000000000E+00
4819000000.000000      5.074463000000000E-01     -2.116406000000000E+01      4.391785000000000E-01     -1.580547000000000E+02      4.598999000000000E-01      6.510742000000000E+00      3.589020000000000E-01      4.718506000000000E+00
4820000000.000000      5.057983000000000E-01     -2.092383000000000E+01      4.418182000000000E-01     -1.585781000000000E+02      4.635468000000000E-01      6.330811000000000E+00      3.513184000000000E-01      5.405273000000000E+00
4821000000.000000      5.052795000000000E-01     -2.071972000000000E+01      4.440002000000000E-01     -1.590312000000000E+02      4.643097000000000E-01      6.115234000000000E+00      3.414917000000000E-01      5.957275000000000E+00
4822000000.000000      5.036621000000000E-01     -2.070801000000000E+01      4.467621000000000E-01     -1.593750000000000E+02      4.673309000000000E-01      5.955811000000000E+00      3.329926000000000E-01      6.200195000000000E+00
4823000000.000000      5.019836000000000E-01     -2.053809000000000E+01      4.501038000000000E-01     -1.599062000000000E+02      4.703674000000000E-01      6.069824000000000E+00      3.231049000000000E-01      6.635742000000000E+00
4824000000.000000      5.009460000000000E-01     -2.030273000000000E+01      4.530792000000000E-01     -1.603359000000000E+02      4.754028000000000E-01      5.677002000000000E+00      3.142395000000000E-01      7.114990000000000E+00
4825000000.000000      5.001221000000000E-01     -2.019726000000000E+01      4.546661000000000E-01     -1.609062000000000E+02      4.780579000000000E-01      5.744385000000000E+00      3.061066000000000E-01      7.922363000000000E+00
4826000000.000000      4.980164000000000E-01     -2.013281000000000E+01      4.564056000000000E-01     -1.612734000000000E+02      4.808807000000000E-01      5.476563000000000E+00      2.960052000000000E-01      8.486816000000000E+00
4827000000.000000      4.953308000000000E-01     -1.982812000000000E+01      4.590759000000000E-01     -1.617109000000000E+02      4.816284000000000E-01      5.443604000000000E+00      2.870789000000000E-01      9.232422000000000E+00
4828000000.000000      4.949036000000000E-01     -1.978808000000000E+01      4.632568000000000E-01     -1.622422000000000E+02      4.862518000000000E-01      5.212891000000000E+00      2.780914000000000E-01      9.788574000000000E+00
4829000000.000000      4.930878000000000E-01     -1.929492000000000E+01      4.643097000000000E-01     -1.627109000000000E+02      4.893646000000000E-01      5.190918000000000E+00      2.698822000000000E-01      1.101514000000000E+01
4830000000.000000      4.926605000000000E-01     -1.955762000000000E+01      4.679718000000000E-01     -1.631094000000000E+02      4.924164000000000E-01      4.934082000000000E+00      2.591858000000000E-01      1.210693000000000E+01
4831000000.000000      4.886017000000000E-01     -1.914160000000000E+01      4.680939000000000E-01     -1.637812000000000E+02      4.965515000000000E-01      4.801025000000000E+00      2.503815000000000E-01      1.285791000000000E+01
4832000000.000000      4.882813000000000E-01     -1.896680000000000E+01      4.696655000000000E-01     -1.639609000000000E+02      4.977570000000000E-01      4.645752000000000E+00      2.393646000000000E-01      1.436035000000000E+01
4833000000.000000      4.859772000000000E-01     -1.914258000000000E+01      4.720459000000000E-01     -1.643281000000000E+02      5.025635000000000E-01      4.377930000000000E+00      2.308273000000000E-01      1.549609000000000E+01
4834000000.000000      4.828186000000000E-01     -1.884473000000000E+01      4.723511000000000E-01     -1.648281000000000E+02      5.042725000000000E-01      4.390381000000000E+00      2.223282000000000E-01      1.691992000000000E+01
4835000000.000000      4.834442000000000E-01     -1.887109000000000E+01      4.752045000000000E-01     -1.654766000000000E+02      5.069275000000000E-01      4.004395000000000E+00      2.140656000000000E-01      1.848828000000000E+01
4836000000.000000      4.815369000000000E-01     -1.846875000000000E+01      4.773865000000000E-01     -1.657109000000000E+02      5.098267000000000E-01      3.950928000000000E+00      2.054443000000000E-01      2.021484000000000E+01
4837000000.000000      4.795074000000000E-01     -1.830664000000000E+01      4.787292000000000E-01     -1.665547000000000E+02      5.100403000000000E-01      3.669434000000000E+00      1.969757000000000E-01      2.226367000000000E+01
4838000000.000000      4.770508000000000E-01     -1.825391000000000E+01      4.803009000000000E-01     -1.665703000000000E+02      5.144348000000000E-01      3.552612000000000E+00      1.890335000000000E-01      2.441406000000000E+01
4839000000.000000      4.792938000000000E-01     -1.800293000000000E+01      4.814758000000000E-01     -1.670859000000000E+02      5.175171000000000E-01      3.582886000000000E+00      1.824112000000000E-01      2.630762000000000E+01
4840000000.000000      4.753876000000000E-01     -1.813574000000000E+01      4.824829000000000E-01     -1.674453000000000E+02      5.197754000000000E-01      3.382324000000000E+00      1.740723000000000E-01      2.874512000000000E+01
4841000000.000000      4.717102000000000E-01     -1.767090000000000E+01      4.839020000000000E-01     -1.679609000000000E+02      5.220947000000000E-01      3.115967000000000E+00      1.675339000000000E-01      3.192480000000000E+01
4842000000.000000      4.730072000000000E-01     -1.765429000000000E+01      4.865112000000000E-01     -1.684141000000000E+02      5.244446000000000E-01      3.175049000000000E+00      1.616821000000000E-01      3.488476000000000E+01
4843000000.000000      4.720917000000000E-01     -1.756348000000000E+01      4.864349000000000E-01     -1.689609000000000E+02      5.264282000000000E-01      2.846802000000000E+00      1.559143000000000E-01      3.806445000000000E+01
4844000000.000000      4.677277000000000E-01     -1.730273000000000E+01      4.872589000000000E-01     -1.692656000000000E+02      5.281372000000000E-01      2.658691000000000E+00      1.491241000000000E-01      4.154492000000000E+01
4845000000.000000      4.675751000000000E-01     -1.672949000000000E+01      4.880219000000000E-01     -1.696250000000000E+02      5.304871000000000E-01      2.389526000000000E+00      1.463165000000000E-01      4.517578000000000E+01
4846000000.000000      4.671326000000000E-01     -1.664453000000000E+01      4.901276000000000E-01     -1.700312000000000E+02      5.328369000000000E-01      2.243896000000000E+00      1.421204000000000E-01      4.930664000000000E+01
4847000000.000000      4.660950000000000E-01     -1.634277000000000E+01      4.926147000000000E-01     -1.702500000000000E+02      5.348206000000000E-01      2.076416000000000E+00      1.382065000000000E-01      5.347265000000000E+01
4848000000.000000      4.656372000000000E-01     -1.616699000000000E+01      4.918213000000000E-01     -1.709141000000000E+02      5.367126000000000E-01      2.035156000000000E+00      1.376572000000000E-01      5.743554000000000E+01
4849000000.000000      4.614716000000000E-01     -1.606836000000000E+01      4.932709000000000E-01     -1.711250000000000E+02      5.382690000000000E-01      1.694641000000000E+00      1.360321000000000E-01      6.186913000000000E+01
4850000000.000000      4.613342000000000E-01     -1.578369000000000E+01      4.936523000000000E-01     -1.715391000000000E+02      5.390930000000000E-01      1.533936000000000E+00      1.362381000000000E-01      6.608593000000000E+01
4851000000.000000      4.631653000000000E-01     -1.537842000000000E+01      4.965820000000000E-01     -1.719063000000000E+02      5.403137000000000E-01      1.430969000000000E+00      1.365280000000000E-01      7.020312000000000E+01
4852000000.000000      4.618683000000000E-01     -1.534668000000000E+01      4.961395000000000E-01     -1.722734000000000E+02      5.423584000000000E-01      1.363647000000000E+00      1.381454000000000E-01      7.429296000000000E+01
4853000000.000000      4.611359000000000E-01     -1.501025000000000E+01      4.950867000000000E-01     -1.726016000000000E+02      5.435181000000000E-01      1.061523000000000E+00      1.407700000000000E-01      7.821875000000000E+01
4854000000.000000      4.606476000000000E-01     -1.463965000000000E+01      4.958496000000000E-01     -1.731797000000000E+02      5.447693000000000E-01      9.283447000000000E-01      1.446609000000000E-01      8.184765000000000E+01
4855000000.000000      4.595642000000000E-01     -1.446387000000000E+01      4.980164000000000E-01     -1.735312000000000E+02      5.458374000000000E-01      7.017517000000000E-01      1.471024000000000E-01      8.576172000000000E+01
4856000000.000000      4.587250000000000E-01     -1.427539000000000E+01      4.972687000000000E-01     -1.736016000000000E+02      5.474243000000000E-01      5.754089000000000E-01      1.527634000000000E-01      8.900000000000000E+01
4857000000.000000      4.598541000000000E-01     -1.395410000000000E+01      4.991913000000000E-01     -1.740391000000000E+02      5.496216000000000E-01      4.875183000000000E-01      1.557693000000000E-01      9.239452000000000E+01
4858000000.000000      4.574127000000000E-01     -1.360938000000000E+01      5.008240000000000E-01     -1.745156000000000E+02      5.503845000000000E-01      2.856445000000000E-01      1.618958000000000E-01      9.482031000000000E+01
4859000000.000000      4.580994000000000E-01     -1.323730000000000E+01      5.015259000000000E-01     -1.748281000000000E+02      5.510559000000000E-01      2.101135000000000E-01      1.666870000000000E-01      9.720312000000000E+01
4860000000.000000      4.589386000000000E-01     -1.309863000000000E+01      5.022888000000000E-01     -1.750391000000000E+02      5.507813000000000E-01     -1.167297000000000E-01      1.729050000000000E-01      9.950781000000000E+01
4861000000.000000      4.594879000000000E-01     -1.264551000000000E+01      5.046387000000000E-01     -1.755469000000000E+02      5.533752000000000E-01     -3.089905000000000E-01      1.762009000000000E-01      1.017773000000000E+02
4862000000.000000      4.593201000000000E-01     -1.242188000000000E+01      5.037842000000000E-01     -1.757344000000000E+02      5.532532000000000E-01     -2.087402000000000E-01      1.843948000000000E-01      1.035000000000000E+02
4863000000.000000      4.618988000000000E-01     -1.200537000000000E+01      5.040588000000000E-01     -1.763047000000000E+02      5.540466000000000E-01     -4.394531000000000E-01      1.892853000000000E-01      1.050352000000000E+02
4864000000.000000      4.635315000000000E-01     -1.183252000000000E+01      5.071106000000000E-01     -1.765156000000000E+02      5.531921000000000E-01     -4.394531000000000E-01      1.961975000000000E-01      1.064805000000000E+02
4865000000.000000      4.643402000000000E-01     -1.150000000000000E+01      5.061340000000000E-01     -1.767031000000000E+02      5.536499000000000E-01     -7.580566000000000E-01      2.024384000000000E-01      1.081562000000000E+02
4866000000.000000      4.635925000000000E-01     -1.143994000000000E+01      5.049438000000000E-01     -1.771406000000000E+02      5.551147000000000E-01     -9.008789000000000E-01      2.107697000000000E-01      1.094180000000000E+02
4867000000.000000      4.662476000000000E-01     -1.106494000000000E+01      5.086060000000000E-01     -1.778437000000000E+02      5.549011000000000E-01     -7.058716000000000E-01      2.147446000000000E-01      1.106641000000000E+02
4868000000.000000      4.676819000000000E-01     -1.076123000000000E+01      5.074463000000000E-01     -1.780078000000000E+02      5.550842000000000E-01     -1.061584000000000E+00      2.214279000000000E-01      1.113555000000000E+02
4869000000.000000      4.696503000000000E-01     -1.078076000000000E+01      5.087280000000000E-01     -1.782734000000000E+02      5.561523000000000E-01     -1.090393000000000E+00      2.265854000000000E-01      1.128867000000000E+02
4870000000.000000      4.712219000000000E-01     -1.033984000000000E+01      5.106201000000000E-01     -1.783359000000000E+02      5.553589000000000E-01     -1.174194000000000E+00      2.347946000000000E-01      1.131758000000000E+02
4871000000.000000      4.712524000000000E-01     -1.016943000000000E+01      5.099487000000000E-01     -1.791328000000000E+02      5.554504000000000E-01     -1.395264000000000E+00      2.397385000000000E-01      1.142031000000000E+02
4872000000.000000      4.765930000000000E-01     -9.821777000000000E+00      5.116882000000000E-01     -1.792500000000000E+02      5.551147000000000E-01     -1.672668000000000E+00      2.460022000000000E-01      1.142969000000000E+02
4873000000.000000      4.759064000000000E-01     -9.613281000000000E+00      5.119324000000000E-01     -1.798281000000000E+02      5.540771000000000E-01     -1.543579000000000E+00      2.513123000000000E-01      1.152461000000000E+02
4874000000.000000      4.790955000000000E-01     -9.324707000000000E+00      5.126038000000000E-01     -1.799687000000000E+02      5.561829000000000E-01     -1.823730000000000E+00      2.560272000000000E-01      1.151563000000000E+02
4875000000.000000      4.827576000000000E-01     -9.044922000000000E+00      5.110168000000000E-01      1.795234000000000E+02      5.538330000000000E-01     -1.584778000000000E+00      2.619781000000000E-01      1.162773000000000E+02
4876000000.000000      4.853058000000000E-01     -8.985840000000000E+00      5.135498000000000E-01      1.791250000000000E+02      5.558472000000000E-01     -1.547729000000000E+00      2.688904000000000E-01      1.168594000000000E+02
4877000000.000000      4.869843000000000E-01     -8.898926000000000E+00      5.133057000000000E-01      1.787344000000000E+02      5.542603000000000E-01     -1.858093000000000E+00      2.724762000000000E-01      1.169844000000000E+02
4878000000.000000      4.904327000000000E-01     -8.826172000000000E+00      5.143127000000000E-01      1.783359000000000E+02      5.529175000000000E-01     -1.663086000000000E+00      2.770386000000000E-01      1.172383000000000E+02
4879000000.000000      4.947205000000000E-01     -8.476074000000000E+00      5.149841000000000E-01      1.780234000000000E+02      5.527649000000000E-01     -1.963806000000000E+00      2.833710000000000E-01      1.178164000000000E+02
4880000000.000000      4.992523000000000E-01     -8.452637000000000E+00      5.158997000000000E-01      1.775781000000000E+02      5.526428000000000E-01     -1.989929000000000E+00      2.857056000000000E-01      1.179531000000000E+02
4881000000.000000      4.987488000000000E-01     -8.357910000000000E+00      5.175781000000000E-01      1.775469000000000E+02      5.526733000000000E-01     -2.021484000000000E+00      2.910767000000000E-01      1.182109000000000E+02
4882000000.000000      5.035706000000000E-01     -8.319824000000000E+00      5.171204000000000E-01      1.768750000000000E+02      5.521240000000000E-01     -2.039429000000000E+00      2.958374000000000E-01      1.179180000000000E+02
