! Network Analyzer HP8722D
! Hewlett-Packard
! Data name: Linha & Wilkinson
! Saver's name: Rodrigo Anjos
! Comments: Teste da utilização de aquisição
continua pelo VNA HP8722D
! Time and date: 8/5/2025 13:02
!              Frequency                     S11                                                   S21                                                   S12                                                   S22
# HZ  S  MA R 50
4800000000.000000      6.116943000000000E-01     -4.776172000000000E+01      4.165497000000000E-01     -2.212109000000000E+01      4.862366000000000E-01     -1.758281000000000E+02      4.934692000000000E-01     -1.799453000000000E+02
4801000000.000000      6.144409000000000E-01     -4.812890000000000E+01      4.176025000000000E-01     -2.235254000000000E+01      4.886017000000000E-01     -1.761797000000000E+02      4.918671000000000E-01      1.795469000000000E+02
4802000000.000000      6.165466000000000E-01     -4.884960000000000E+01      4.191132000000000E-01     -2.274121000000000E+01      4.906616000000000E-01     -1.762266000000000E+02      4.944000000000000E-01      1.789844000000000E+02
4803000000.000000      6.201782000000000E-01     -4.966797000000000E+01      4.213715000000000E-01     -2.331933000000000E+01      4.949188000000000E-01     -1.764062000000000E+02      4.979401000000000E-01      1.787578000000000E+02
4804000000.000000      6.218262000000000E-01     -4.998632000000000E+01      4.207611000000000E-01     -2.386230000000000E+01      4.979248000000000E-01     -1.770781000000000E+02      4.994049000000000E-01      1.786016000000000E+02
4805000000.000000      6.242371000000000E-01     -5.077538000000000E+01      4.218292000000000E-01     -2.444336000000000E+01      5.014038000000000E-01     -1.772187000000000E+02      5.027771000000000E-01      1.779297000000000E+02
4806000000.000000      6.222839000000000E-01     -5.122851000000000E+01      4.219055000000000E-01     -2.485058000000000E+01      5.034180000000000E-01     -1.773594000000000E+02      5.050964000000000E-01      1.777422000000000E+02
4807000000.000000      6.257935000000000E-01     -5.172265000000000E+01      4.216003000000000E-01     -2.523438000000000E+01      5.061646000000000E-01     -1.777734000000000E+02      5.067139000000000E-01      1.770391000000000E+02
4808000000.000000      6.290283000000000E-01     -5.234179000000000E+01      4.226837000000000E-01     -2.556250000000000E+01      5.092773000000000E-01     -1.780156000000000E+02      5.049744000000000E-01      1.771641000000000E+02
4809000000.000000      6.321716000000000E-01     -5.283789000000000E+01      4.239960000000000E-01     -2.641894000000000E+01      5.108643000000000E-01     -1.786172000000000E+02      5.121460000000000E-01      1.763984000000000E+02
4810000000.000000      6.340942000000000E-01     -5.348827000000000E+01      4.252777000000000E-01     -2.666992000000000E+01      5.156555000000000E-01     -1.787266000000000E+02      5.113525000000000E-01      1.760234000000000E+02
4811000000.000000      6.367798000000000E-01     -5.382226000000000E+01      4.256134000000000E-01     -2.738379000000000E+01      5.204468000000000E-01     -1.788750000000000E+02      5.143738000000000E-01      1.758125000000000E+02
4812000000.000000      6.406250000000000E-01     -5.418163000000000E+01      4.255981000000000E-01     -2.795703000000000E+01      5.218811000000000E-01     -1.793906000000000E+02      5.150757000000000E-01      1.752656000000000E+02
4813000000.000000      6.422424000000000E-01     -5.483203000000000E+01      4.252014000000000E-01     -2.835254000000000E+01      5.230713000000000E-01     -1.796016000000000E+02      5.195923000000000E-01      1.749219000000000E+02
4814000000.000000      6.426086000000000E-01     -5.538671000000000E+01      4.243011000000000E-01     -2.891113000000000E+01      5.262756000000000E-01     -1.798828000000000E+02      5.191345000000000E-01      1.745391000000000E+02
4815000000.000000      6.426086000000000E-01     -5.590820000000000E+01      4.253540000000000E-01     -2.957812000000000E+01      5.260315000000000E-01      1.795781000000000E+02      5.211182000000000E-01      1.737890000000000E+02
4816000000.000000      6.448364000000000E-01     -5.635351000000000E+01      4.272308000000000E-01     -2.991992000000000E+01      5.330200000000000E-01      1.792109000000000E+02      5.237732000000000E-01      1.738203000000000E+02
4817000000.000000      6.479492000000000E-01     -5.682812000000000E+01      4.255066000000000E-01     -3.038574000000000E+01      5.320129000000000E-01      1.788437000000000E+02      5.255737000000000E-01      1.733438000000000E+02
4818000000.000000      6.455994000000000E-01     -5.729882000000000E+01      4.248657000000000E-01     -3.102148000000000E+01      5.397339000000000E-01      1.780937000000000E+02      5.285339000000000E-01      1.728047000000000E+02
4819000000.000000      6.491089000000000E-01     -5.776562000000000E+01      4.237518000000000E-01     -3.147461000000000E+01      5.421143000000000E-01      1.778906000000000E+02      5.287476000000000E-01      1.726875000000000E+02
4820000000.000000      6.504517000000000E-01     -5.799023000000000E+01      4.249573000000000E-01     -3.169238000000000E+01      5.440063000000000E-01      1.772500000000000E+02      5.303345000000000E-01      1.720234000000000E+02
4821000000.000000      6.507874000000000E-01     -5.849609000000000E+01      4.246826000000000E-01     -3.250781000000000E+01      5.447083000000000E-01      1.768906000000000E+02      5.321655000000000E-01      1.713047000000000E+02
4822000000.000000      6.521301000000000E-01     -5.913280000000000E+01      4.226074000000000E-01     -3.289453000000000E+01      5.491638000000000E-01      1.762891000000000E+02      5.323486000000000E-01      1.708359000000000E+02
4823000000.000000      6.538391000000000E-01     -5.930859000000000E+01      4.242096000000000E-01     -3.368555000000000E+01      5.504456000000000E-01      1.757813000000000E+02      5.325928000000000E-01      1.703750000000000E+02
4824000000.000000      6.569519000000000E-01     -5.958202000000000E+01      4.215698000000000E-01     -3.405664000000000E+01      5.526123000000000E-01      1.750156000000000E+02      5.315552000000000E-01      1.699141000000000E+02
4825000000.000000      6.568298000000000E-01     -5.965625000000000E+01      4.213257000000000E-01     -3.461523000000000E+01      5.555115000000000E-01      1.746406000000000E+02      5.322876000000000E-01      1.695000000000000E+02
4826000000.000000      6.561584000000000E-01     -6.041406000000000E+01      4.205627000000000E-01     -3.528125000000000E+01      5.546875000000000E-01      1.741016000000000E+02      5.320129000000000E-01      1.689453000000000E+02
4827000000.000000      6.577454000000000E-01     -6.032227000000000E+01      4.193420000000000E-01     -3.567187000000000E+01      5.592346000000000E-01      1.736172000000000E+02      5.326233000000000E-01      1.684766000000000E+02
4828000000.000000      6.615601000000000E-01     -6.069336000000000E+01      4.192200000000000E-01     -3.606836000000000E+01      5.604248000000000E-01      1.731094000000000E+02      5.323792000000000E-01      1.680078000000000E+02
4829000000.000000      6.589661000000000E-01     -6.074804000000000E+01      4.175415000000000E-01     -3.637695000000000E+01      5.597839000000000E-01      1.724922000000000E+02      5.286865000000000E-01      1.676094000000000E+02
4830000000.000000      6.606445000000000E-01     -6.113281000000000E+01      4.156494000000000E-01     -3.701757000000000E+01      5.624695000000000E-01      1.719063000000000E+02      5.311584000000000E-01      1.668750000000000E+02
4831000000.000000      6.606445000000000E-01     -6.133789000000000E+01      4.153748000000000E-01     -3.775000000000000E+01      5.641479000000000E-01      1.712812000000000E+02      5.278320000000000E-01      1.663047000000000E+02
4832000000.000000      6.610718000000000E-01     -6.137109000000000E+01      4.142303000000000E-01     -3.804296000000000E+01      5.641785000000000E-01      1.706484000000000E+02      5.254822000000000E-01      1.658984000000000E+02
4833000000.000000      6.633911000000000E-01     -6.167773000000000E+01      4.133911000000000E-01     -3.833984000000000E+01      5.640259000000000E-01      1.700234000000000E+02      5.223999000000000E-01      1.656406000000000E+02
4834000000.000000      6.610718000000000E-01     -6.178515000000000E+01      4.124298000000000E-01     -3.894531000000000E+01      5.636597000000000E-01      1.692188000000000E+02      5.192566000000000E-01      1.649375000000000E+02
4835000000.000000      6.625671000000000E-01     -6.168750000000000E+01      4.116058000000000E-01     -3.928320000000000E+01      5.660095000000000E-01      1.686875000000000E+02      5.159302000000000E-01      1.644219000000000E+02
4836000000.000000      6.617432000000000E-01     -6.157617000000000E+01      4.095154000000000E-01     -3.977930000000000E+01      5.647888000000000E-01      1.683359000000000E+02      5.115051000000000E-01      1.640078000000000E+02
4837000000.000000      6.638489000000000E-01     -6.159765000000000E+01      4.085388000000000E-01     -4.039453000000000E+01      5.645447000000000E-01      1.673516000000000E+02      5.072327000000000E-01      1.635859000000000E+02
4838000000.000000      6.643372000000000E-01     -6.167187000000000E+01      4.085999000000000E-01     -4.049414000000000E+01      5.630188000000000E-01      1.666641000000000E+02      5.033569000000000E-01      1.629922000000000E+02
4839000000.000000      6.643066000000000E-01     -6.158398000000000E+01      4.064636000000000E-01     -4.110352000000000E+01      5.640259000000000E-01      1.660781000000000E+02      4.987488000000000E-01      1.625078000000000E+02
4840000000.000000      6.635437000000000E-01     -6.177148000000000E+01      4.062958000000000E-01     -4.149219000000000E+01      5.602112000000000E-01      1.656172000000000E+02      4.921722000000000E-01      1.620000000000000E+02
4841000000.000000      6.645813000000000E-01     -6.155859000000000E+01      4.047089000000000E-01     -4.211719000000000E+01      5.590210000000000E-01      1.648750000000000E+02      4.868011000000000E-01      1.616797000000000E+02
4842000000.000000      6.645508000000000E-01     -6.162890000000000E+01      4.038696000000000E-01     -4.236524000000000E+01      5.555115000000000E-01      1.643750000000000E+02      4.808655000000000E-01      1.612500000000000E+02
4843000000.000000      6.658325000000000E-01     -6.147851000000000E+01      4.032440000000000E-01     -4.300781000000000E+01      5.564270000000000E-01      1.635781000000000E+02      4.759216000000000E-01      1.609062000000000E+02
4844000000.000000      6.649170000000000E-01     -6.134766000000000E+01      3.999481000000000E-01     -4.331640000000000E+01      5.532532000000000E-01      1.628672000000000E+02      4.685364000000000E-01      1.603672000000000E+02
4845000000.000000      6.665955000000000E-01     -6.103906000000000E+01      3.980255000000000E-01     -4.376172000000000E+01      5.515747000000000E-01      1.622187000000000E+02      4.608459000000000E-01      1.601172000000000E+02
4846000000.000000      6.662598000000000E-01     -6.094336000000000E+01      3.974762000000000E-01     -4.431445000000000E+01      5.487366000000000E-01      1.615781000000000E+02      4.537354000000000E-01      1.598750000000000E+02
4847000000.000000      6.657104000000000E-01     -6.066796000000000E+01      3.963928000000000E-01     -4.458984000000000E+01      5.464172000000000E-01      1.609609000000000E+02      4.467163000000000E-01      1.596875000000000E+02
4848000000.000000      6.643066000000000E-01     -6.032617000000000E+01      3.956146000000000E-01     -4.502930000000000E+01      5.430298000000000E-01      1.603281000000000E+02      4.378052000000000E-01      1.593594000000000E+02
4849000000.000000      6.649780000000000E-01     -6.037304000000000E+01      3.957367000000000E-01     -4.528320000000000E+01      5.381775000000000E-01      1.595547000000000E+02      4.280548000000000E-01      1.593281000000000E+02
4850000000.000000      6.676941000000000E-01     -6.008594000000000E+01      3.933411000000000E-01     -4.577734000000000E+01      5.353088000000000E-01      1.590937000000000E+02      4.219818000000000E-01      1.589609000000000E+02
4851000000.000000      6.681519000000000E-01     -5.984765000000000E+01      3.936157000000000E-01     -4.646289000000000E+01      5.307617000000000E-01      1.585156000000000E+02      4.128418000000000E-01      1.589531000000000E+02
4852000000.000000      6.698914000000000E-01     -5.969727000000000E+01      3.906097000000000E-01     -4.655078000000000E+01      5.279541000000000E-01      1.580156000000000E+02      4.034882000000000E-01      1.591953000000000E+02
4853000000.000000      6.685181000000000E-01     -5.937109000000000E+01      3.896027000000000E-01     -4.721093000000000E+01      5.243835000000000E-01      1.573125000000000E+02      3.949432000000000E-01      1.590937000000000E+02
4854000000.000000      6.698914000000000E-01     -5.912304000000000E+01      3.899231000000000E-01     -4.779297000000000E+01      5.191345000000000E-01      1.567812000000000E+02      3.867950000000000E-01      1.591563000000000E+02
4855000000.000000      6.707458000000000E-01     -5.877343000000000E+01      3.871460000000000E-01     -4.830468000000000E+01      5.163574000000000E-01      1.561641000000000E+02      3.789978000000000E-01      1.592109000000000E+02
4856000000.000000      6.708069000000000E-01     -5.846874000000000E+01      3.858490000000000E-01     -4.842773000000000E+01      5.104370000000000E-01      1.556562000000000E+02      3.689117000000000E-01      1.594297000000000E+02
4857000000.000000      6.713562000000000E-01     -5.828711000000000E+01      3.867950000000000E-01     -4.902148000000000E+01      5.061340000000000E-01      1.552734000000000E+02      3.603973000000000E-01      1.594531000000000E+02
4858000000.000000      6.715088000000000E-01     -5.788671000000000E+01      3.845062000000000E-01     -4.955664000000000E+01      5.025940000000000E-01      1.545781000000000E+02      3.498383000000000E-01      1.603594000000000E+02
4859000000.000000      6.730957000000000E-01     -5.757226000000000E+01      3.844452000000000E-01     -5.004687000000000E+01      4.982605000000000E-01      1.542187000000000E+02      3.414001000000000E-01      1.604453000000000E+02
4860000000.000000      6.745605000000000E-01     -5.725780000000000E+01      3.809509000000000E-01     -5.034765000000000E+01      4.940491000000000E-01      1.535625000000000E+02      3.322601000000000E-01      1.608594000000000E+02
4861000000.000000      6.740112000000000E-01     -5.691211000000000E+01      3.806915000000000E-01     -5.101171000000000E+01      4.906921000000000E-01      1.531094000000000E+02      3.234711000000000E-01      1.617734000000000E+02
4862000000.000000      6.750793000000000E-01     -5.662304000000000E+01      3.791199000000000E-01     -5.125195000000000E+01      4.849396000000000E-01      1.526875000000000E+02      3.145905000000000E-01      1.624063000000000E+02
4863000000.000000      6.751404000000000E-01     -5.620507000000000E+01      3.771515000000000E-01     -5.205468000000000E+01      4.792023000000000E-01      1.524688000000000E+02      3.058624000000000E-01      1.625703000000000E+02
4864000000.000000      6.774292000000000E-01     -5.589453000000000E+01      3.757935000000000E-01     -5.244335000000000E+01      4.758148000000000E-01      1.519375000000000E+02      2.970734000000000E-01      1.637266000000000E+02
4865000000.000000      6.781311000000000E-01     -5.562304000000000E+01      3.732147000000000E-01     -5.278515000000000E+01      4.715881000000000E-01      1.515938000000000E+02      2.906189000000000E-01      1.647031000000000E+02
4866000000.000000      6.806946000000000E-01     -5.529101000000000E+01      3.721161000000000E-01     -5.336914000000000E+01      4.675446000000000E-01      1.510781000000000E+02      2.829132000000000E-01      1.654297000000000E+02
4867000000.000000      6.768799000000000E-01     -5.480663000000000E+01      3.702087000000000E-01     -5.369531000000000E+01      4.603119000000000E-01      1.508203000000000E+02      2.744446000000000E-01      1.666406000000000E+02
4868000000.000000      6.826172000000000E-01     -5.475586000000000E+01      3.700562000000000E-01     -5.436718000000000E+01      4.579620000000000E-01      1.501641000000000E+02      2.669525000000000E-01      1.679688000000000E+02
4869000000.000000      6.825562000000000E-01     -5.431250000000000E+01      3.676605000000000E-01     -5.507813000000000E+01      4.532013000000000E-01      1.499922000000000E+02      2.619781000000000E-01      1.692109000000000E+02
4870000000.000000      6.813660000000000E-01     -5.383007000000000E+01      3.665924000000000E-01     -5.519531000000000E+01      4.483795000000000E-01      1.496719000000000E+02      2.526245000000000E-01      1.707969000000000E+02
4871000000.000000      6.828308000000000E-01     -5.362109000000000E+01      3.664093000000000E-01     -5.587695000000000E+01      4.435120000000000E-01      1.490078000000000E+02      2.480164000000000E-01      1.721250000000000E+02
4872000000.000000      6.838989000000000E-01     -5.331055000000000E+01      3.627472000000000E-01     -5.621094000000000E+01      4.382019000000000E-01      1.488281000000000E+02      2.430649000000000E-01      1.737422000000000E+02
4873000000.000000      6.824341000000000E-01     -5.285937000000000E+01      3.603668000000000E-01     -5.689648000000000E+01      4.335175000000000E-01      1.484609000000000E+02      2.363129000000000E-01      1.754297000000000E+02
4874000000.000000      6.841431000000000E-01     -5.246679000000000E+01      3.581696000000000E-01     -5.754883000000000E+01      4.307404000000000E-01      1.481641000000000E+02      2.313995000000000E-01      1.771719000000000E+02
4875000000.000000      6.843262000000000E-01     -5.229101000000000E+01      3.571777000000000E-01     -5.783008000000000E+01      4.249573000000000E-01      1.475469000000000E+02      2.266388000000000E-01      1.791484000000000E+02
4876000000.000000      6.849670000000000E-01     -5.189843000000000E+01      3.538513000000000E-01     -5.840625000000000E+01      4.204559000000000E-01      1.474688000000000E+02      2.246780000000000E-01     -1.788672000000000E+02
4877000000.000000      6.846008000000000E-01     -5.158984000000000E+01      3.514404000000000E-01     -5.922265000000000E+01      4.156342000000000E-01      1.470000000000000E+02      2.190933000000000E-01     -1.771641000000000E+02
4878000000.000000      6.847839000000000E-01     -5.124218000000000E+01      3.510284000000000E-01     -5.936328000000000E+01      4.111786000000000E-01      1.465859000000000E+02      2.163010000000000E-01     -1.749609000000000E+02
4879000000.000000      6.857910000000000E-01     -5.084570000000000E+01      3.470764000000000E-01     -5.995312000000000E+01      4.078827000000000E-01      1.463906000000000E+02      2.144165000000000E-01     -1.727656000000000E+02
4880000000.000000      6.853333000000000E-01     -5.049805000000000E+01      3.458405000000000E-01     -6.077148000000000E+01      4.022217000000000E-01      1.458516000000000E+02      2.121582000000000E-01     -1.707656000000000E+02
4881000000.000000      6.840210000000000E-01     -5.025391000000000E+01      3.427887000000000E-01     -6.095898000000000E+01      3.970795000000000E-01      1.455859000000000E+02      2.092743000000000E-01     -1.685937000000000E+02
4882000000.000000      6.846924000000000E-01     -4.986133000000000E+01      3.432159000000000E-01     -6.165429000000000E+01      3.944702000000000E-01      1.454766000000000E+02      2.070770000000000E-01     -1.668672000000000E+02
