! Network Analyzer HP8722D
! Hewlett-Packard
! Data name: Linha & Wilkinson
! Saver's name: Rodrigo Anjos
! Comments: Teste da utilização de aquisição
continua pelo VNA HP8722D
! Time and date: 8/5/2025 13:10
!              Frequency                     S11                                                   S21                                                   S12                                                   S22
# HZ  S  MA R 50
4800000000.000000      6.118774000000000E-01     -4.809570000000000E+01      4.188232000000000E-01     -2.246387000000000E+01      4.897766000000000E-01     -1.766172000000000E+02      4.890137000000000E-01      1.790313000000000E+02
4801000000.000000      6.141968000000000E-01     -4.868554000000000E+01      4.206085000000000E-01     -2.300195000000000E+01      4.921570000000000E-01     -1.769766000000000E+02      4.925232000000000E-01      1.784219000000000E+02
4802000000.000000      6.160583000000000E-01     -4.933594000000000E+01      4.193115000000000E-01     -2.340039000000000E+01      4.932556000000000E-01     -1.772266000000000E+02      4.915466000000000E-01      1.777578000000000E+02
4803000000.000000      6.186218000000000E-01     -4.997265000000000E+01      4.223480000000000E-01     -2.384863000000000E+01      4.963226000000000E-01     -1.773828000000000E+02      4.942627000000000E-01      1.776953000000000E+02
4804000000.000000      6.189575000000000E-01     -5.051562000000000E+01      4.220428000000000E-01     -2.425293000000000E+01      4.992523000000000E-01     -1.776641000000000E+02      4.952393000000000E-01      1.775859000000000E+02
4805000000.000000      6.235962000000000E-01     -5.097265000000000E+01      4.238129000000000E-01     -2.491992000000000E+01      5.037842000000000E-01     -1.781953000000000E+02      4.987030000000000E-01      1.769844000000000E+02
4806000000.000000      6.248169000000000E-01     -5.166601000000000E+01      4.232330000000000E-01     -2.563281000000000E+01      5.050354000000000E-01     -1.781406000000000E+02      5.007629000000000E-01      1.766328000000000E+02
4807000000.000000      6.271973000000000E-01     -5.224804000000000E+01      4.253845000000000E-01     -2.594238000000000E+01      5.096130000000000E-01     -1.786172000000000E+02      5.012817000000000E-01      1.762969000000000E+02
4808000000.000000      6.284180000000000E-01     -5.278906000000000E+01      4.243317000000000E-01     -2.635156000000000E+01      5.115967000000000E-01     -1.787891000000000E+02      5.016479000000000E-01      1.759609000000000E+02
4809000000.000000      6.291504000000000E-01     -5.308788000000000E+01      4.268188000000000E-01     -2.703222000000000E+01      5.150146000000000E-01     -1.794062000000000E+02      5.060425000000000E-01      1.755625000000000E+02
4810000000.000000      6.316528000000000E-01     -5.397655000000000E+01      4.264526000000000E-01     -2.740429000000000E+01      5.158081000000000E-01     -1.795859000000000E+02      5.083618000000000E-01      1.752422000000000E+02
4811000000.000000      6.346741000000000E-01     -5.446484000000000E+01      4.272003000000000E-01     -2.813965000000000E+01      5.227051000000000E-01     -1.798594000000000E+02      5.100098000000000E-01      1.747266000000000E+02
4812000000.000000      6.415710000000000E-01     -5.471093000000000E+01      4.276276000000000E-01     -2.853027000000000E+01      5.236816000000000E-01      1.797109000000000E+02      5.118713000000000E-01      1.742734000000000E+02
4813000000.000000      6.404724000000000E-01     -5.530078000000000E+01      4.264221000000000E-01     -2.890918000000000E+01      5.266113000000000E-01      1.793594000000000E+02      5.152893000000000E-01      1.740391000000000E+02
4814000000.000000      6.413269000000000E-01     -5.604687000000000E+01      4.265747000000000E-01     -2.940136000000000E+01      5.304260000000000E-01      1.790313000000000E+02      5.157166000000000E-01      1.735703000000000E+02
4815000000.000000      6.416931000000000E-01     -5.629296000000000E+01      4.261322000000000E-01     -3.010058000000000E+01      5.316162000000000E-01      1.784688000000000E+02      5.152893000000000E-01      1.730078000000000E+02
4816000000.000000      6.452026000000000E-01     -5.678515000000000E+01      4.256439000000000E-01     -3.048047000000000E+01      5.373840000000000E-01      1.783203000000000E+02      5.177307000000000E-01      1.727969000000000E+02
4817000000.000000      6.469727000000000E-01     -5.727929000000000E+01      4.261322000000000E-01     -3.106738000000000E+01      5.369568000000000E-01      1.778047000000000E+02      5.211487000000000E-01      1.722265000000000E+02
4818000000.000000      6.479492000000000E-01     -5.786523000000000E+01      4.269104000000000E-01     -3.156933000000000E+01      5.425110000000000E-01      1.771641000000000E+02      5.227966000000000E-01      1.717500000000000E+02
4819000000.000000      6.509705000000000E-01     -5.808984000000000E+01      4.265747000000000E-01     -3.196484000000000E+01      5.439758000000000E-01      1.769063000000000E+02      5.257568000000000E-01      1.716094000000000E+02
4820000000.000000      6.494751000000000E-01     -5.847656000000000E+01      4.262695000000000E-01     -3.251953000000000E+01      5.466919000000000E-01      1.764297000000000E+02      5.251465000000000E-01      1.708906000000000E+02
4821000000.000000      6.522217000000000E-01     -5.884960000000000E+01      4.262390000000000E-01     -3.320898000000000E+01      5.473328000000000E-01      1.758906000000000E+02      5.272522000000000E-01      1.704609000000000E+02
4822000000.000000      6.529541000000000E-01     -5.942968000000000E+01      4.232025000000000E-01     -3.353906000000000E+01      5.514526000000000E-01      1.753672000000000E+02      5.289917000000000E-01      1.700234000000000E+02
4823000000.000000      6.536560000000000E-01     -5.972851000000000E+01      4.222260000000000E-01     -3.421484000000000E+01      5.516968000000000E-01      1.748906000000000E+02      5.251465000000000E-01      1.695156000000000E+02
4824000000.000000      6.544800000000000E-01     -5.992969000000000E+01      4.224396000000000E-01     -3.448242000000000E+01      5.541687000000000E-01      1.741484000000000E+02      5.266724000000000E-01      1.690078000000000E+02
4825000000.000000      6.553650000000000E-01     -6.005468000000000E+01      4.227905000000000E-01     -3.519922000000000E+01      5.587158000000000E-01      1.738125000000000E+02      5.288391000000000E-01      1.688594000000000E+02
4826000000.000000      6.556702000000000E-01     -6.059179000000000E+01      4.216156000000000E-01     -3.587500000000000E+01      5.590515000000000E-01      1.731250000000000E+02      5.270691000000000E-01      1.680234000000000E+02
4827000000.000000      6.580811000000000E-01     -6.065039000000000E+01      4.190063000000000E-01     -3.604883000000000E+01      5.585327000000000E-01      1.725469000000000E+02      5.246582000000000E-01      1.676016000000000E+02
4828000000.000000      6.590881000000000E-01     -6.100390000000000E+01      4.184570000000000E-01     -3.659570000000000E+01      5.620422000000000E-01      1.721406000000000E+02      5.251770000000000E-01      1.673594000000000E+02
4829000000.000000      6.601257000000000E-01     -6.111523000000000E+01      4.190369000000000E-01     -3.710546000000000E+01      5.644531000000000E-01      1.717500000000000E+02      5.236511000000000E-01      1.668125000000000E+02
4830000000.000000      6.613159000000000E-01     -6.150195000000000E+01      4.176331000000000E-01     -3.761719000000000E+01      5.639038000000000E-01      1.708672000000000E+02      5.241394000000000E-01      1.660469000000000E+02
4831000000.000000      6.579285000000000E-01     -6.160937000000000E+01      4.163666000000000E-01     -3.839062000000000E+01      5.650940000000000E-01      1.702578000000000E+02      5.206604000000000E-01      1.655937000000000E+02
4832000000.000000      6.599121000000000E-01     -6.175586000000000E+01      4.164276000000000E-01     -3.852930000000000E+01      5.664978000000000E-01      1.696328000000000E+02      5.203247000000000E-01      1.652344000000000E+02
4833000000.000000      6.607971000000000E-01     -6.188477000000000E+01      4.143066000000000E-01     -3.895117000000000E+01      5.657959000000000E-01      1.689141000000000E+02      5.149231000000000E-01      1.645937000000000E+02
4834000000.000000      6.590271000000000E-01     -6.217187000000000E+01      4.127960000000000E-01     -3.939062000000000E+01      5.651550000000000E-01      1.684531000000000E+02      5.117493000000000E-01      1.644063000000000E+02
4835000000.000000      6.625671000000000E-01     -6.187304000000000E+01      4.136505000000000E-01     -3.989062000000000E+01      5.666199000000000E-01      1.676094000000000E+02      5.072632000000000E-01      1.636406000000000E+02
4836000000.000000      6.594543000000000E-01     -6.202148000000000E+01      4.100647000000000E-01     -4.042188000000000E+01      5.639343000000000E-01      1.671406000000000E+02      5.031433000000000E-01      1.632578000000000E+02
4837000000.000000      6.608582000000000E-01     -6.200390000000000E+01      4.100037000000000E-01     -4.109179000000000E+01      5.630493000000000E-01      1.664297000000000E+02      4.976959000000000E-01      1.625703000000000E+02
4838000000.000000      6.627197000000000E-01     -6.215429000000000E+01      4.090118000000000E-01     -4.124023000000000E+01      5.633545000000000E-01      1.658203000000000E+02      4.942780000000000E-01      1.622266000000000E+02
4839000000.000000      6.628418000000000E-01     -6.205664000000000E+01      4.076385000000000E-01     -4.173437000000000E+01      5.625916000000000E-01      1.653594000000000E+02      4.898224000000000E-01      1.617266000000000E+02
4840000000.000000      6.651001000000000E-01     -6.209765000000000E+01      4.058838000000000E-01     -4.229882000000000E+01      5.596924000000000E-01      1.643984000000000E+02      4.829712000000000E-01      1.614219000000000E+02
4841000000.000000      6.617432000000000E-01     -6.187500000000000E+01      4.054260000000000E-01     -4.245703000000000E+01      5.588074000000000E-01      1.638047000000000E+02      4.766388000000000E-01      1.607969000000000E+02
4842000000.000000      6.639404000000000E-01     -6.192773000000000E+01      4.041901000000000E-01     -4.313477000000000E+01      5.560608000000000E-01      1.632266000000000E+02      4.734497000000000E-01      1.605156000000000E+02
4843000000.000000      6.641235000000000E-01     -6.189258000000000E+01      4.034119000000000E-01     -4.348437000000000E+01      5.557861000000000E-01      1.625781000000000E+02      4.669495000000000E-01      1.603906000000000E+02
4844000000.000000      6.630859000000000E-01     -6.173437000000000E+01      4.010620000000000E-01     -4.393945000000000E+01      5.524292000000000E-01      1.616953000000000E+02      4.606476000000000E-01      1.599219000000000E+02
4845000000.000000      6.630249000000000E-01     -6.118164000000000E+01      3.989105000000000E-01     -4.446289000000000E+01      5.498962000000000E-01      1.611016000000000E+02      4.519348000000000E-01      1.594609000000000E+02
4846000000.000000      6.643372000000000E-01     -6.116796000000000E+01      3.989868000000000E-01     -4.480664000000000E+01      5.477905000000000E-01      1.606719000000000E+02      4.445038000000000E-01      1.595234000000000E+02
4847000000.000000      6.655884000000000E-01     -6.102734000000000E+01      3.984985000000000E-01     -4.517578000000000E+01      5.466309000000000E-01      1.600312000000000E+02      4.389801000000000E-01      1.593594000000000E+02
4848000000.000000      6.632385000000000E-01     -6.075781000000000E+01      3.952637000000000E-01     -4.542578000000000E+01      5.417786000000000E-01      1.594609000000000E+02      4.299469000000000E-01      1.591016000000000E+02
4849000000.000000      6.650085000000000E-01     -6.069336000000000E+01      3.959045000000000E-01     -4.610156000000000E+01      5.375977000000000E-01      1.586641000000000E+02      4.207001000000000E-01      1.589375000000000E+02
4850000000.000000      6.649780000000000E-01     -6.039844000000000E+01      3.943634000000000E-01     -4.633203000000000E+01      5.344543000000000E-01      1.582187000000000E+02      4.118958000000000E-01      1.588828000000000E+02
4851000000.000000      6.682434000000000E-01     -6.005859000000000E+01      3.932800000000000E-01     -4.700391000000000E+01      5.303955000000000E-01      1.576094000000000E+02      4.056854000000000E-01      1.589687000000000E+02
4852000000.000000      6.682739000000000E-01     -5.985937000000000E+01      3.922272000000000E-01     -4.742578000000000E+01      5.274963000000000E-01      1.570703000000000E+02      3.950043000000000E-01      1.584766000000000E+02
4853000000.000000      6.677856000000000E-01     -5.946094000000000E+01      3.910217000000000E-01     -4.772851000000000E+01      5.223694000000000E-01      1.564219000000000E+02      3.861389000000000E-01      1.587969000000000E+02
4854000000.000000      6.699524000000000E-01     -5.906836000000000E+01      3.882294000000000E-01     -4.839062000000000E+01      5.179443000000000E-01      1.560625000000000E+02      3.783264000000000E-01      1.590625000000000E+02
4855000000.000000      6.670837000000000E-01     -5.905273000000000E+01      3.875122000000000E-01     -4.876562000000000E+01      5.144958000000000E-01      1.553281000000000E+02      3.696747000000000E-01      1.591172000000000E+02
4856000000.000000      6.679688000000000E-01     -5.877930000000000E+01      3.866730000000000E-01     -4.933398000000000E+01      5.096130000000000E-01      1.548125000000000E+02      3.615417000000000E-01      1.592266000000000E+02
4857000000.000000      6.697693000000000E-01     -5.839648000000000E+01      3.852234000000000E-01     -4.953906000000000E+01      5.061951000000000E-01      1.545156000000000E+02      3.506165000000000E-01      1.598516000000000E+02
4858000000.000000      6.710510000000000E-01     -5.802734000000000E+01      3.837128000000000E-01     -5.008594000000000E+01      5.011902000000000E-01      1.538203000000000E+02      3.430786000000000E-01      1.599297000000000E+02
4859000000.000000      6.709595000000000E-01     -5.796093000000000E+01      3.820648000000000E-01     -5.057617000000000E+01      4.963379000000000E-01      1.533437000000000E+02      3.327637000000000E-01      1.601875000000000E+02
4860000000.000000      6.702271000000000E-01     -5.739843000000000E+01      3.816223000000000E-01     -5.098242000000000E+01      4.922333000000000E-01      1.528516000000000E+02      3.258972000000000E-01      1.611562000000000E+02
4861000000.000000      6.746826000000000E-01     -5.709179000000000E+01      3.791962000000000E-01     -5.166210000000000E+01      4.889374000000000E-01      1.521484000000000E+02      3.179169000000000E-01      1.616719000000000E+02
4862000000.000000      6.734924000000000E-01     -5.675195000000000E+01      3.789215000000000E-01     -5.198632000000000E+01      4.833221000000000E-01      1.519609000000000E+02      3.090515000000000E-01      1.624844000000000E+02
4863000000.000000      6.762695000000000E-01     -5.658008000000000E+01      3.760376000000000E-01     -5.257813000000000E+01      4.794922000000000E-01      1.514766000000000E+02      3.006592000000000E-01      1.632266000000000E+02
4864000000.000000      6.752319000000000E-01     -5.613476000000000E+01      3.761597000000000E-01     -5.293945000000000E+01      4.724731000000000E-01      1.512656000000000E+02      2.918243000000000E-01      1.641562000000000E+02
4865000000.000000      6.767273000000000E-01     -5.581640000000000E+01      3.739014000000000E-01     -5.332812000000000E+01      4.697723000000000E-01      1.508203000000000E+02      2.836151000000000E-01      1.652266000000000E+02
4866000000.000000      6.772766000000000E-01     -5.553905000000000E+01      3.720856000000000E-01     -5.410546000000000E+01      4.654388000000000E-01      1.500937000000000E+02      2.773285000000000E-01      1.661562000000000E+02
4867000000.000000      6.789246000000000E-01     -5.521874000000000E+01      3.704071000000000E-01     -5.462695000000000E+01      4.591064000000000E-01      1.498750000000000E+02      2.687073000000000E-01      1.672578000000000E+02
4868000000.000000      6.773071000000000E-01     -5.468554000000000E+01      3.672638000000000E-01     -5.508203000000000E+01      4.552917000000000E-01      1.494766000000000E+02      2.631531000000000E-01      1.684531000000000E+02
4869000000.000000      6.800537000000000E-01     -5.457226000000000E+01      3.674927000000000E-01     -5.561718000000000E+01      4.507599000000000E-01      1.490000000000000E+02      2.563782000000000E-01      1.699453000000000E+02
4870000000.000000      6.793518000000000E-01     -5.401172000000000E+01      3.638306000000000E-01     -5.587304000000000E+01      4.446106000000000E-01      1.485781000000000E+02      2.506256000000000E-01      1.719063000000000E+02
4871000000.000000      6.813354000000000E-01     -5.383594000000000E+01      3.633881000000000E-01     -5.663476000000000E+01      4.403839000000000E-01      1.483516000000000E+02      2.435608000000000E-01      1.730703000000000E+02
4872000000.000000      6.822205000000000E-01     -5.330273000000000E+01      3.605042000000000E-01     -5.689843000000000E+01      4.353943000000000E-01      1.477422000000000E+02      2.378387000000000E-01      1.745547000000000E+02
4873000000.000000      6.808472000000000E-01     -5.308594000000000E+01      3.596497000000000E-01     -5.770508000000000E+01      4.306030000000000E-01      1.476250000000000E+02      2.330627000000000E-01      1.763906000000000E+02
4874000000.000000      6.834717000000000E-01     -5.266211000000000E+01      3.571014000000000E-01     -5.814453000000000E+01      4.280853000000000E-01      1.472031000000000E+02      2.292709000000000E-01      1.782734000000000E+02
4875000000.000000      6.835022000000000E-01     -5.241992000000000E+01      3.562164000000000E-01     -5.846680000000000E+01      4.223022000000000E-01      1.469531000000000E+02      2.223816000000000E-01     -1.796406000000000E+02
4876000000.000000      6.832886000000000E-01     -5.199219000000000E+01      3.533325000000000E-01     -5.913086000000000E+01      4.184265000000000E-01      1.466563000000000E+02      2.226257000000000E-01     -1.774609000000000E+02
4877000000.000000      6.826782000000000E-01     -5.180859000000000E+01      3.505096000000000E-01     -5.979297000000000E+01      4.132385000000000E-01      1.461484000000000E+02      2.181778000000000E-01     -1.757344000000000E+02
4878000000.000000      6.806946000000000E-01     -5.152538000000000E+01      3.490906000000000E-01     -6.036718000000000E+01      4.096680000000000E-01      1.458047000000000E+02      2.139511000000000E-01     -1.736172000000000E+02
4879000000.000000      6.831970000000000E-01     -5.111718000000000E+01      3.449554000000000E-01     -6.060156000000000E+01      4.056702000000000E-01      1.456953000000000E+02      2.126389000000000E-01     -1.718828000000000E+02
4880000000.000000      6.826477000000000E-01     -5.082226000000000E+01      3.435974000000000E-01     -6.145117000000000E+01      4.009094000000000E-01      1.454375000000000E+02      2.110901000000000E-01     -1.696016000000000E+02
4881000000.000000      6.821594000000000E-01     -5.033789000000000E+01      3.419342000000000E-01     -6.171875000000000E+01      3.963776000000000E-01      1.450859000000000E+02      2.099457000000000E-01     -1.673750000000000E+02
4882000000.000000      6.802368000000000E-01     -4.996094000000000E+01      3.396301000000000E-01     -6.247265000000000E+01      3.912811000000000E-01      1.446953000000000E+02      2.082520000000000E-01     -1.655703000000000E+02
