! Network Analyzer HP8722D
! Hewlett-Packard
! Data name: Linha & Wilkinson
! Saver's name: Rodrigo Anjos
! Comments: Teste da utilização de aquisição
continua pelo VNA HP8722D
! Time and date: 8/5/2025 16:00
!              Frequency                     S11                                                   S21                                                   S12                                                   S22
# HZ  S  MA R 50
4800000000.000000      9.030457000000000E-01      1.156445000000000E+02      3.226624000000000E-01     -1.707031000000000E+02      2.584534000000000E-01     -8.629686000000000E+01      9.815674000000000E-01     -4.794726000000000E+01
4801000000.000000      8.984985000000000E-01      1.159453000000000E+02      3.225098000000000E-01     -1.707344000000000E+02      2.586975000000000E-01     -8.626953000000000E+01      9.772949000000000E-01     -4.804101000000000E+01
4802000000.000000      8.956909000000000E-01      1.160547000000000E+02      3.225098000000000E-01     -1.706016000000000E+02      2.591553000000000E-01     -8.600389000000000E+01      9.722595000000000E-01     -4.792188000000000E+01
4803000000.000000      8.929749000000000E-01      1.163945000000000E+02      3.233643000000000E-01     -1.705469000000000E+02      2.586823000000000E-01     -8.592968000000000E+01      9.667664000000000E-01     -4.813671000000000E+01
4804000000.000000      8.909607000000000E-01      1.167226000000000E+02      3.235168000000000E-01     -1.704844000000000E+02      2.591705000000000E-01     -8.575781000000000E+01      9.619751000000000E-01     -4.817968000000000E+01
4805000000.000000      8.908386000000000E-01      1.168633000000000E+02      3.238068000000000E-01     -1.704219000000000E+02      2.587280000000000E-01     -8.542578000000000E+01      9.554443000000000E-01     -4.823828000000000E+01
4806000000.000000      8.878479000000000E-01      1.170313000000000E+02      3.241882000000000E-01     -1.704453000000000E+02      2.579346000000000E-01     -8.517187000000000E+01      9.481506000000000E-01     -4.840429000000000E+01
4807000000.000000      8.887939000000000E-01      1.173320000000000E+02      3.251190000000000E-01     -1.706016000000000E+02      2.588196000000000E-01     -8.513672000000000E+01      9.440918000000000E-01     -4.836914000000000E+01
4808000000.000000      8.851929000000000E-01      1.175078000000000E+02      3.260803000000000E-01     -1.704844000000000E+02      2.587128000000000E-01     -8.489061000000000E+01      9.381714000000000E-01     -4.842382000000000E+01
4809000000.000000      8.814087000000000E-01      1.179688000000000E+02      3.256226000000000E-01     -1.706016000000000E+02      2.593079000000000E-01     -8.473436000000000E+01      9.335022000000000E-01     -4.853516000000000E+01
4810000000.000000      8.794250000000000E-01      1.180469000000000E+02      3.267365000000000E-01     -1.704141000000000E+02      2.587738000000000E-01     -8.443359000000000E+01      9.277649000000000E-01     -4.864062000000000E+01
4811000000.000000      8.778992000000000E-01      1.183750000000000E+02      3.275452000000000E-01     -1.706094000000000E+02      2.600098000000000E-01     -8.408983000000000E+01      9.227905000000000E-01     -4.854101000000000E+01
4812000000.000000      8.765564000000000E-01      1.185195000000000E+02      3.271942000000000E-01     -1.705156000000000E+02      2.590637000000000E-01     -8.391796000000000E+01      9.160461000000000E-01     -4.871484000000000E+01
4813000000.000000      8.721313000000000E-01      1.189805000000000E+02      3.283691000000000E-01     -1.705234000000000E+02      2.589569000000000E-01     -8.371485000000000E+01      9.113159000000000E-01     -4.875586000000000E+01
4814000000.000000      8.676758000000000E-01      1.191211000000000E+02      3.282166000000000E-01     -1.705156000000000E+02      2.591095000000000E-01     -8.339062000000000E+01      9.069824000000000E-01     -4.879492000000000E+01
4815000000.000000      8.665771000000000E-01      1.192891000000000E+02      3.289032000000000E-01     -1.706094000000000E+02      2.588806000000000E-01     -8.310156000000000E+01      9.008484000000000E-01     -4.878711000000000E+01
4816000000.000000      8.648987000000000E-01      1.195703000000000E+02      3.306274000000000E-01     -1.705078000000000E+02      2.597504000000000E-01     -8.294922000000000E+01      8.957214000000000E-01     -4.888085000000000E+01
4817000000.000000      8.616638000000000E-01      1.197773000000000E+02      3.306274000000000E-01     -1.707500000000000E+02      2.592163000000000E-01     -8.256639000000000E+01      8.899536000000000E-01     -4.885937000000000E+01
4818000000.000000      8.590088000000000E-01      1.199297000000000E+02      3.309174000000000E-01     -1.706953000000000E+02      2.592316000000000E-01     -8.223436000000000E+01      8.841858000000000E-01     -4.896679000000000E+01
4819000000.000000      8.569641000000000E-01      1.202148000000000E+02      3.324280000000000E-01     -1.708359000000000E+02      2.582550000000000E-01     -8.212109000000000E+01      8.788757000000000E-01     -4.917578000000000E+01
4820000000.000000      8.476868000000000E-01      1.203164000000000E+02      3.326263000000000E-01     -1.707969000000000E+02      2.590790000000000E-01     -8.164843000000000E+01      8.743591000000000E-01     -4.910351000000000E+01
4821000000.000000      8.510742000000000E-01      1.206797000000000E+02      3.341064000000000E-01     -1.709531000000000E+02      2.591095000000000E-01     -8.142578000000000E+01      8.689880000000000E-01     -4.921093000000000E+01
4822000000.000000      8.448792000000000E-01      1.207539000000000E+02      3.337555000000000E-01     -1.711016000000000E+02      2.578888000000000E-01     -8.121874000000000E+01      8.636475000000000E-01     -4.932422000000000E+01
4823000000.000000      8.399048000000000E-01      1.208242000000000E+02      3.345337000000000E-01     -1.712265000000000E+02      2.584686000000000E-01     -8.068750000000000E+01      8.581543000000000E-01     -4.930664000000000E+01
4824000000.000000      8.385315000000000E-01      1.210625000000000E+02      3.351440000000000E-01     -1.715781000000000E+02      2.588654000000000E-01     -8.054688000000000E+01      8.529053000000000E-01     -4.942773000000000E+01
4825000000.000000      8.360596000000000E-01      1.211992000000000E+02      3.357697000000000E-01     -1.714297000000000E+02      2.589722000000000E-01     -8.021093000000000E+01      8.497314000000000E-01     -4.945703000000000E+01
4826000000.000000      8.310547000000000E-01      1.215781000000000E+02      3.372192000000000E-01     -1.717344000000000E+02      2.588196000000000E-01     -7.997265000000000E+01      8.446960000000000E-01     -4.960742000000000E+01
4827000000.000000      8.265076000000000E-01      1.214961000000000E+02      3.371124000000000E-01     -1.717109000000000E+02      2.586212000000000E-01     -7.954687000000000E+01      8.404236000000000E-01     -4.959765000000000E+01
4828000000.000000      8.255615000000000E-01      1.215703000000000E+02      3.382721000000000E-01     -1.720156000000000E+02      2.579193000000000E-01     -7.933594000000000E+01      8.345642000000000E-01     -4.978516000000000E+01
4829000000.000000      8.174744000000000E-01      1.217383000000000E+02      3.379517000000000E-01     -1.720625000000000E+02      2.590790000000000E-01     -7.896484000000000E+01      8.323364000000000E-01     -4.974218000000000E+01
4830000000.000000      8.146057000000000E-01      1.220195000000000E+02      3.388977000000000E-01     -1.723438000000000E+02      2.587585000000000E-01     -7.854687000000000E+01      8.252869000000000E-01     -4.988086000000000E+01
4831000000.000000      8.089905000000000E-01      1.221484000000000E+02      3.392639000000000E-01     -1.725000000000000E+02      2.589722000000000E-01     -7.813671000000000E+01      8.217773000000000E-01     -4.991796000000000E+01
4832000000.000000      8.059082000000000E-01      1.221523000000000E+02      3.395081000000000E-01     -1.727890000000000E+02      2.588348000000000E-01     -7.784374000000000E+01      8.168945000000000E-01     -4.991015000000000E+01
4833000000.000000      8.000183000000000E-01      1.221680000000000E+02      3.401184000000000E-01     -1.729063000000000E+02      2.586212000000000E-01     -7.753124000000000E+01      8.117065000000000E-01     -5.000586000000000E+01
4834000000.000000      7.948914000000000E-01      1.221523000000000E+02      3.404236000000000E-01     -1.730781000000000E+02      2.588806000000000E-01     -7.718359000000000E+01      8.089294000000000E-01     -5.006640000000000E+01
4835000000.000000      7.912292000000000E-01      1.223438000000000E+02      3.404541000000000E-01     -1.733984000000000E+02      2.592621000000000E-01     -7.685937000000000E+01      8.033752000000000E-01     -5.016796000000000E+01
4836000000.000000      7.872620000000000E-01      1.222969000000000E+02      3.400726000000000E-01     -1.736094000000000E+02      2.595520000000000E-01     -7.636719000000000E+01      8.006592000000000E-01     -5.028906000000000E+01
4837000000.000000      7.802734000000000E-01      1.224219000000000E+02      3.400574000000000E-01     -1.741250000000000E+02      2.594147000000000E-01     -7.617578000000000E+01      7.975159000000000E-01     -5.016602000000000E+01
4838000000.000000      7.751770000000000E-01      1.224961000000000E+02      3.413544000000000E-01     -1.740000000000000E+02      2.598877000000000E-01     -7.570703000000000E+01      7.928467000000000E-01     -5.029687000000000E+01
4839000000.000000      7.713623000000000E-01      1.225937000000000E+02      3.407898000000000E-01     -1.743359000000000E+02      2.599487000000000E-01     -7.557422000000000E+01      7.897339000000000E-01     -5.037695000000000E+01
4840000000.000000      7.645569000000000E-01      1.224648000000000E+02      3.401794000000000E-01     -1.744062000000000E+02      2.605591000000000E-01     -7.520312000000000E+01      7.862244000000000E-01     -5.037695000000000E+01
4841000000.000000      7.615356000000000E-01      1.225508000000000E+02      3.404083000000000E-01     -1.749609000000000E+02      2.609711000000000E-01     -7.482812000000000E+01      7.820435000000000E-01     -5.051562000000000E+01
4842000000.000000      7.543640000000000E-01      1.225703000000000E+02      3.408356000000000E-01     -1.749375000000000E+02      2.608185000000000E-01     -7.455859000000000E+01      7.799072000000000E-01     -5.060937000000000E+01
4843000000.000000      7.518921000000000E-01      1.223281000000000E+02      3.402710000000000E-01     -1.753203000000000E+02      2.606354000000000E-01     -7.422265000000000E+01      7.757874000000000E-01     -5.058788000000000E+01
4844000000.000000      7.427979000000000E-01      1.224492000000000E+02      3.402557000000000E-01     -1.754844000000000E+02      2.607117000000000E-01     -7.378124000000000E+01      7.712097000000000E-01     -5.073242000000000E+01
4845000000.000000      7.363586000000000E-01      1.224414000000000E+02      3.391418000000000E-01     -1.756953000000000E+02      2.617035000000000E-01     -7.356640000000000E+01      7.677307000000000E-01     -5.073437000000000E+01
4846000000.000000      7.328796000000000E-01      1.223164000000000E+02      3.389130000000000E-01     -1.760313000000000E+02      2.621002000000000E-01     -7.325390000000000E+01      7.644653000000000E-01     -5.081640000000000E+01
4847000000.000000      7.274475000000000E-01      1.222969000000000E+02      3.387451000000000E-01     -1.762578000000000E+02      2.624512000000000E-01     -7.292969000000000E+01      7.615967000000000E-01     -5.094140000000000E+01
4848000000.000000      7.217712000000000E-01      1.221055000000000E+02      3.382721000000000E-01     -1.765781000000000E+02      2.621002000000000E-01     -7.258594000000000E+01      7.574463000000000E-01     -5.098242000000000E+01
4849000000.000000      7.157898000000000E-01      1.219062000000000E+02      3.377991000000000E-01     -1.768359000000000E+02      2.631683000000000E-01     -7.219140000000000E+01      7.549133000000000E-01     -5.093554000000000E+01
4850000000.000000      7.108459000000000E-01      1.219062000000000E+02      3.369598000000000E-01     -1.771094000000000E+02      2.628632000000000E-01     -7.196094000000000E+01      7.520142000000000E-01     -5.104297000000000E+01
4851000000.000000      7.043457000000000E-01      1.218906000000000E+02      3.370514000000000E-01     -1.774219000000000E+02      2.636261000000000E-01     -7.173437000000000E+01      7.507324000000000E-01     -5.118164000000000E+01
4852000000.000000      6.973572000000000E-01      1.215781000000000E+02      3.361511000000000E-01     -1.775312000000000E+02      2.640686000000000E-01     -7.134766000000000E+01      7.474365000000000E-01     -5.113476000000000E+01
4853000000.000000      6.922607000000000E-01      1.214297000000000E+02      3.342743000000000E-01     -1.778203000000000E+02      2.649536000000000E-01     -7.107031000000000E+01      7.444153000000000E-01     -5.127734000000000E+01
4854000000.000000      6.854858000000000E-01      1.213359000000000E+02      3.345490000000000E-01     -1.781250000000000E+02      2.642517000000000E-01     -7.083984000000000E+01      7.420349000000000E-01     -5.132030000000000E+01
4855000000.000000      6.776428000000000E-01      1.210859000000000E+02      3.334198000000000E-01     -1.783047000000000E+02      2.646027000000000E-01     -7.054688000000000E+01      7.373962000000000E-01     -5.134960000000000E+01
4856000000.000000      6.728821000000000E-01      1.208906000000000E+02      3.326721000000000E-01     -1.785234000000000E+02      2.653046000000000E-01     -7.028515000000000E+01      7.356262000000000E-01     -5.143555000000000E+01
4857000000.000000      6.664124000000000E-01      1.206914000000000E+02      3.319702000000000E-01     -1.787422000000000E+02      2.653656000000000E-01     -6.990234000000000E+01      7.329712000000000E-01     -5.144726000000000E+01
4858000000.000000      6.591187000000000E-01      1.202500000000000E+02      3.307037000000000E-01     -1.789531000000000E+02      2.656860000000000E-01     -6.973827000000000E+01      7.308044000000000E-01     -5.161914000000000E+01
4859000000.000000      6.528015000000000E-01      1.201875000000000E+02      3.304291000000000E-01     -1.792109000000000E+02      2.663422000000000E-01     -6.961328000000000E+01      7.296143000000000E-01     -5.174414000000000E+01
4860000000.000000      6.481323000000000E-01      1.198242000000000E+02      3.291626000000000E-01     -1.793672000000000E+02      2.660980000000000E-01     -6.927343000000000E+01      7.248535000000000E-01     -5.156054000000000E+01
4861000000.000000      6.413879000000000E-01      1.197070000000000E+02      3.277740000000000E-01     -1.797344000000000E+02      2.672577000000000E-01     -6.900781000000000E+01      7.227478000000000E-01     -5.173437000000000E+01
4862000000.000000      6.338501000000000E-01      1.192109000000000E+02      3.278503000000000E-01     -1.798594000000000E+02      2.672424000000000E-01     -6.878124000000000E+01      7.223511000000000E-01     -5.181054000000000E+01
4863000000.000000      6.287231000000000E-01      1.189531000000000E+02      3.247986000000000E-01      1.797656000000000E+02      2.679443000000000E-01     -6.860937000000000E+01      7.209167000000000E-01     -5.167187000000000E+01
4864000000.000000      6.235046000000000E-01      1.187383000000000E+02      3.247070000000000E-01      1.798750000000000E+02      2.675629000000000E-01     -6.837891000000000E+01      7.161560000000000E-01     -5.189258000000000E+01
4865000000.000000      6.154785000000000E-01      1.181094000000000E+02      3.231354000000000E-01      1.796484000000000E+02      2.685089000000000E-01     -6.836328000000000E+01      7.148132000000000E-01     -5.177539000000000E+01
4866000000.000000      6.091614000000000E-01      1.179492000000000E+02      3.219910000000000E-01      1.794922000000000E+02      2.686157000000000E-01     -6.814453000000000E+01      7.124023000000000E-01     -5.193164000000000E+01
4867000000.000000      6.037903000000000E-01      1.174531000000000E+02      3.211060000000000E-01      1.791797000000000E+02      2.687378000000000E-01     -6.791797000000000E+01      7.112427000000000E-01     -5.187695000000000E+01
4868000000.000000      5.983582000000000E-01      1.171250000000000E+02      3.193512000000000E-01      1.790156000000000E+02      2.689514000000000E-01     -6.776172000000000E+01      7.076721000000000E-01     -5.192187000000000E+01
4869000000.000000      5.909729000000000E-01      1.168633000000000E+02      3.177490000000000E-01      1.789141000000000E+02      2.692261000000000E-01     -6.756249000000000E+01      7.056885000000000E-01     -5.200781000000000E+01
4870000000.000000      5.857239000000000E-01      1.162539000000000E+02      3.171082000000000E-01      1.789297000000000E+02      2.700195000000000E-01     -6.748437000000000E+01      7.050781000000000E-01     -5.195898000000000E+01
4871000000.000000      5.812683000000000E-01      1.158320000000000E+02      3.154449000000000E-01      1.786641000000000E+02      2.695618000000000E-01     -6.727734000000000E+01      7.019958000000000E-01     -5.209179000000000E+01
4872000000.000000      5.757751000000000E-01      1.155664000000000E+02      3.145294000000000E-01      1.785859000000000E+02      2.700653000000000E-01     -6.742188000000000E+01      7.000732000000000E-01     -5.215234000000000E+01
4873000000.000000      5.698547000000000E-01      1.150781000000000E+02      3.135529000000000E-01      1.782500000000000E+02      2.699280000000000E-01     -6.728906000000000E+01      6.972046000000000E-01     -5.210546000000000E+01
4874000000.000000      5.630188000000000E-01      1.147227000000000E+02      3.124847000000000E-01      1.781797000000000E+02      2.701721000000000E-01     -6.706640000000000E+01      6.947632000000000E-01     -5.201562000000000E+01
4875000000.000000      5.592346000000000E-01      1.140859000000000E+02      3.105774000000000E-01      1.781406000000000E+02      2.707977000000000E-01     -6.711328000000000E+01      6.938782000000000E-01     -5.208789000000000E+01
4876000000.000000      5.532227000000000E-01      1.137031000000000E+02      3.096771000000000E-01      1.779531000000000E+02      2.699280000000000E-01     -6.709374000000000E+01      6.914978000000000E-01     -5.228906000000000E+01
4877000000.000000      5.498962000000000E-01      1.129219000000000E+02      3.087006000000000E-01      1.779063000000000E+02      2.710724000000000E-01     -6.692968000000000E+01      6.901550000000000E-01     -5.210938000000000E+01
4878000000.000000      5.425415000000000E-01      1.124687000000000E+02      3.078156000000000E-01      1.776484000000000E+02      2.704010000000000E-01     -6.661718000000000E+01      6.878052000000000E-01     -5.219336000000000E+01
4879000000.000000      5.399475000000000E-01      1.121484000000000E+02      3.053436000000000E-01      1.776406000000000E+02      2.703552000000000E-01     -6.673437000000000E+01      6.850281000000000E-01     -5.215038000000000E+01
4880000000.000000      5.335999000000000E-01      1.114570000000000E+02      3.046570000000000E-01      1.776562000000000E+02      2.701721000000000E-01     -6.660546000000000E+01      6.828918000000000E-01     -5.207812000000000E+01
4881000000.000000      5.289001000000000E-01      1.112070000000000E+02      3.045807000000000E-01      1.775781000000000E+02      2.706909000000000E-01     -6.674999000000000E+01      6.813049000000000E-01     -5.206445000000000E+01
4882000000.000000      5.255432000000000E-01      1.105625000000000E+02      3.032227000000000E-01      1.773203000000000E+02      2.702637000000000E-01     -6.652344000000000E+01      6.778870000000000E-01     -5.208008000000000E+01
