! Network Analyzer HP8722D
! Hewlett-Packard
! Data name: Linha & Wilkinson
! Saver's name: Rodrigo Anjos
! Comments: Teste da utilização de aquisição
continua pelo VNA HP8722D
! Time and date: 8/5/2025 15:52
!              Frequency                     S11                                                   S21                                                   S12                                                   S22
# HZ  S  MA R 50
4800000000.000000      5.471191000000000E-01      4.365234000000000E+01      1.630630000000000E-01      8.053905000000000E+01      1.535416000000000E-01      4.523046000000000E+01      4.077454000000000E-01      1.990430000000000E+01
4801000000.000000      5.523071000000000E-01      4.463281000000000E+01      1.623459000000000E-01      8.160936000000000E+01      1.526413000000000E-01      4.618750000000000E+01      4.088593000000000E-01      2.059765000000000E+01
4802000000.000000      5.567322000000000E-01      4.534570000000000E+01      1.616745000000000E-01      8.296875000000000E+01      1.521835000000000E-01      4.721093000000000E+01      4.066010000000000E-01      2.187012000000000E+01
4803000000.000000      5.622253000000000E-01      4.616406000000000E+01      1.617584000000000E-01      8.391796000000000E+01      1.517258000000000E-01      4.848633000000000E+01      4.045563000000000E-01      2.274121000000000E+01
4804000000.000000      5.651855000000000E-01      4.676562000000000E+01      1.614151000000000E-01      8.505077000000000E+01      1.516647000000000E-01      4.941796000000000E+01      4.004974000000000E-01      2.346875000000000E+01
4805000000.000000      5.718994000000000E-01      4.742578000000000E+01      1.616974000000000E-01      8.625780000000000E+01      1.515808000000000E-01      5.063086000000000E+01      4.003296000000000E-01      2.431055000000000E+01
4806000000.000000      5.747375000000000E-01      4.834179000000000E+01      1.617279000000000E-01      8.726954000000000E+01      1.516037000000000E-01      5.175586000000000E+01      3.968048000000000E-01      2.511035000000000E+01
4807000000.000000      5.789490000000000E-01      4.908203000000000E+01      1.620636000000000E-01      8.803514000000000E+01      1.521072000000000E-01      5.272461000000000E+01      3.949738000000000E-01      2.605762000000000E+01
4808000000.000000      5.821228000000000E-01      4.938477000000000E+01      1.626282000000000E-01      8.956249000000000E+01      1.528244000000000E-01      5.399609000000000E+01      3.931122000000000E-01      2.688672000000000E+01
4809000000.000000      5.879211000000000E-01      5.025976000000000E+01      1.629791000000000E-01      9.023046000000000E+01      1.537094000000000E-01      5.501953000000000E+01      3.920593000000000E-01      2.790625000000000E+01
4810000000.000000      5.926514000000000E-01      5.070898000000000E+01      1.642303000000000E-01      9.142187000000000E+01      1.541214000000000E-01      5.616211000000000E+01      3.906250000000000E-01      2.836719000000000E+01
4811000000.000000      5.978699000000000E-01      5.151172000000000E+01      1.660004000000000E-01      9.248827000000000E+01      1.554413000000000E-01      5.726757000000000E+01      3.898773000000000E-01      2.937597000000000E+01
4812000000.000000      6.036682000000000E-01      5.212304000000000E+01      1.661224000000000E-01      9.352343000000000E+01      1.564026000000000E-01      5.817577000000000E+01      3.859558000000000E-01      3.026172000000000E+01
4813000000.000000      6.047668000000000E-01      5.271874000000000E+01      1.672897000000000E-01      9.445313000000000E+01      1.578369000000000E-01      5.916406000000000E+01      3.854218000000000E-01      3.100879000000000E+01
4814000000.000000      6.098633000000000E-01      5.294335000000000E+01      1.690598000000000E-01      9.539454000000000E+01      1.591949000000000E-01      6.009766000000000E+01      3.840790000000000E-01      3.178711000000000E+01
4815000000.000000      6.139221000000000E-01      5.354101000000000E+01      1.705322000000000E-01      9.614843000000000E+01      1.604309000000000E-01      6.094336000000000E+01      3.822632000000000E-01      3.248632000000000E+01
4816000000.000000      6.203613000000000E-01      5.395117000000000E+01      1.725769000000000E-01      9.696093000000000E+01      1.625671000000000E-01      6.188671000000000E+01      3.806763000000000E-01      3.334961000000000E+01
4817000000.000000      6.206360000000000E-01      5.444530000000000E+01      1.738205000000000E-01      9.781250000000000E+01      1.639481000000000E-01      6.281836000000000E+01      3.777618000000000E-01      3.432226000000000E+01
4818000000.000000      6.244202000000000E-01      5.476953000000000E+01      1.758499000000000E-01      9.864843000000000E+01      1.655502000000000E-01      6.351953000000000E+01      3.777924000000000E-01      3.481836000000000E+01
4819000000.000000      6.284790000000000E-01      5.538280000000000E+01      1.780090000000000E-01      9.947266000000000E+01      1.676025000000000E-01      6.443749000000000E+01      3.733673000000000E-01      3.575390000000000E+01
4820000000.000000      6.293640000000000E-01      5.573047000000000E+01      1.800766000000000E-01      1.001250000000000E+02      1.699448000000000E-01      6.507421000000000E+01      3.733368000000000E-01      3.640429000000000E+01
4821000000.000000      6.346436000000000E-01      5.616405000000000E+01      1.818695000000000E-01      1.008125000000000E+02      1.714478000000000E-01      6.562109000000000E+01      3.707581000000000E-01      3.741992000000000E+01
4822000000.000000      6.364746000000000E-01      5.617773000000000E+01      1.843033000000000E-01      1.014141000000000E+02      1.740265000000000E-01      6.638281000000000E+01      3.709106000000000E-01      3.759766000000000E+01
4823000000.000000      6.407776000000000E-01      5.666406000000000E+01      1.870575000000000E-01      1.021016000000000E+02      1.759644000000000E-01      6.715625000000000E+01      3.684082000000000E-01      3.842968000000000E+01
4824000000.000000      6.424255000000000E-01      5.700390000000000E+01      1.889420000000000E-01      1.023242000000000E+02      1.785355000000000E-01      6.762890000000000E+01      3.663025000000000E-01      3.918945000000000E+01
4825000000.000000      6.440125000000000E-01      5.716406000000000E+01      1.920013000000000E-01      1.028906000000000E+02      1.811295000000000E-01      6.832421000000000E+01      3.672485000000000E-01      3.959375000000000E+01
4826000000.000000      6.486816000000000E-01      5.760937000000000E+01      1.946182000000000E-01      1.033242000000000E+02      1.832962000000000E-01      6.876953000000000E+01      3.629913000000000E-01      4.038281000000000E+01
4827000000.000000      6.503601000000000E-01      5.790039000000000E+01      1.966476000000000E-01      1.039297000000000E+02      1.858826000000000E-01      6.922656000000000E+01      3.634796000000000E-01      4.113477000000000E+01
4828000000.000000      6.507874000000000E-01      5.812304000000000E+01      2.000046000000000E-01      1.042383000000000E+02      1.881943000000000E-01      6.966406000000000E+01      3.607941000000000E-01      4.157422000000000E+01
4829000000.000000      6.521912000000000E-01      5.849218000000000E+01      2.021790000000000E-01      1.047148000000000E+02      1.912079000000000E-01      7.014062000000000E+01      3.628540000000000E-01      4.230664000000000E+01
4830000000.000000      6.538086000000000E-01      5.865624000000000E+01      2.046509000000000E-01      1.049726000000000E+02      1.939850000000000E-01      7.053905000000000E+01      3.589020000000000E-01      4.291211000000000E+01
4831000000.000000      6.541443000000000E-01      5.875586000000000E+01      2.073746000000000E-01      1.052500000000000E+02      1.964035000000000E-01      7.090234000000000E+01      3.575287000000000E-01      4.356641000000000E+01
4832000000.000000      6.557312000000000E-01      5.911718000000000E+01      2.098694000000000E-01      1.056875000000000E+02      1.997452000000000E-01      7.134766000000000E+01      3.557892000000000E-01      4.432422000000000E+01
4833000000.000000      6.557007000000000E-01      5.927539000000000E+01      2.125549000000000E-01      1.058867000000000E+02      2.022934000000000E-01      7.162499000000000E+01      3.531799000000000E-01      4.457031000000000E+01
4834000000.000000      6.562805000000000E-01      5.943945000000000E+01      2.157516000000000E-01      1.061133000000000E+02      2.047653000000000E-01      7.200000000000000E+01      3.522186000000000E-01      4.540625000000000E+01
4835000000.000000      6.560364000000000E-01      5.950000000000000E+01      2.190247000000000E-01      1.061836000000000E+02      2.081757000000000E-01      7.213281000000000E+01      3.501892000000000E-01      4.592187000000000E+01
4836000000.000000      6.568604000000000E-01      5.961914000000000E+01      2.207947000000000E-01      1.063672000000000E+02      2.103424000000000E-01      7.252734000000000E+01      3.489532000000000E-01      4.663671000000000E+01
4837000000.000000      6.570435000000000E-01      5.991992000000000E+01      2.239838000000000E-01      1.065039000000000E+02      2.136993000000000E-01      7.264453000000000E+01      3.482971000000000E-01      4.739453000000000E+01
4838000000.000000      6.547852000000000E-01      5.994726000000000E+01      2.271118000000000E-01      1.067461000000000E+02      2.163620000000000E-01      7.291797000000000E+01      3.467560000000000E-01      4.775195000000000E+01
4839000000.000000      6.578369000000000E-01      6.020898000000000E+01      2.306595000000000E-01      1.068437000000000E+02      2.187729000000000E-01      7.301562000000000E+01      3.438873000000000E-01      4.821875000000000E+01
4840000000.000000      6.552429000000000E-01      6.017968000000000E+01      2.335129000000000E-01      1.069609000000000E+02      2.220459000000000E-01      7.325390000000000E+01      3.418427000000000E-01      4.884960000000000E+01
4841000000.000000      6.529846000000000E-01      6.029297000000000E+01      2.361755000000000E-01      1.069336000000000E+02      2.249146000000000E-01      7.329296000000000E+01      3.416443000000000E-01      4.947266000000000E+01
4842000000.000000      6.507568000000000E-01      6.049999000000000E+01      2.384949000000000E-01      1.071328000000000E+02      2.276611000000000E-01      7.356640000000000E+01      3.397064000000000E-01      5.006054000000000E+01
4843000000.000000      6.515503000000000E-01      6.033398000000000E+01      2.422638000000000E-01      1.069883000000000E+02      2.308044000000000E-01      7.342968000000000E+01      3.385468000000000E-01      5.055859000000000E+01
4844000000.000000      6.482849000000000E-01      6.041992000000000E+01      2.445374000000000E-01      1.069609000000000E+02      2.333679000000000E-01      7.370703000000000E+01      3.373260000000000E-01      5.092773000000000E+01
4845000000.000000      6.457520000000000E-01      6.069726000000000E+01      2.471542000000000E-01      1.072148000000000E+02      2.364044000000000E-01      7.373047000000000E+01      3.366394000000000E-01      5.160937000000000E+01
4846000000.000000      6.454468000000000E-01      6.067577000000000E+01      2.500458000000000E-01      1.070469000000000E+02      2.399979000000000E-01      7.385937000000000E+01      3.348236000000000E-01      5.237305000000000E+01
4847000000.000000      6.430359000000000E-01      6.087891000000000E+01      2.536469000000000E-01      1.071484000000000E+02      2.426605000000000E-01      7.391406000000000E+01      3.324890000000000E-01      5.276172000000000E+01
4848000000.000000      6.384277000000000E-01      6.078711000000000E+01      2.558594000000000E-01      1.070313000000000E+02      2.452850000000000E-01      7.389062000000000E+01      3.339081000000000E-01      5.319726000000000E+01
4849000000.000000      6.378174000000000E-01      6.074609000000000E+01      2.593689000000000E-01      1.070508000000000E+02      2.482986000000000E-01      7.394140000000000E+01      3.308258000000000E-01      5.384570000000000E+01
4850000000.000000      6.340942000000000E-01      6.077148000000000E+01      2.613525000000000E-01      1.068711000000000E+02      2.506714000000000E-01      7.396484000000000E+01      3.298645000000000E-01      5.420312000000000E+01
4851000000.000000      6.324768000000000E-01      6.088281000000000E+01      2.650757000000000E-01      1.068594000000000E+02      2.532349000000000E-01      7.403906000000000E+01      3.284760000000000E-01      5.494531000000000E+01
4852000000.000000      6.289673000000000E-01      6.086523000000000E+01      2.678223000000000E-01      1.067305000000000E+02      2.566071000000000E-01      7.411327000000000E+01      3.278046000000000E-01      5.509766000000000E+01
4853000000.000000      6.264648000000000E-01      6.094921000000000E+01      2.695313000000000E-01      1.067266000000000E+02      2.594757000000000E-01      7.400781000000000E+01      3.264923000000000E-01      5.560937000000000E+01
4854000000.000000      6.214905000000000E-01      6.093750000000000E+01      2.717133000000000E-01      1.062617000000000E+02      2.616577000000000E-01      7.399609000000000E+01      3.267822000000000E-01      5.603125000000000E+01
4855000000.000000      6.202698000000000E-01      6.106250000000000E+01      2.757721000000000E-01      1.063008000000000E+02      2.646332000000000E-01      7.394921000000000E+01      3.255920000000000E-01      5.673046000000000E+01
4856000000.000000      6.146240000000000E-01      6.087500000000000E+01      2.788544000000000E-01      1.062656000000000E+02      2.675018000000000E-01      7.403125000000000E+01      3.265991000000000E-01      5.694336000000000E+01
4857000000.000000      6.127014000000000E-01      6.089844000000000E+01      2.820740000000000E-01      1.061289000000000E+02      2.700653000000000E-01      7.389453000000000E+01      3.240509000000000E-01      5.734961000000000E+01
4858000000.000000      6.082153000000000E-01      6.085351000000000E+01      2.843933000000000E-01      1.059180000000000E+02      2.728271000000000E-01      7.389843000000000E+01      3.237762000000000E-01      5.784765000000000E+01
4859000000.000000      6.047974000000000E-01      6.070507000000000E+01      2.874908000000000E-01      1.057500000000000E+02      2.754059000000000E-01      7.379687000000000E+01      3.251801000000000E-01      5.839453000000000E+01
4860000000.000000      6.016541000000000E-01      6.077343000000000E+01      2.901611000000000E-01      1.056836000000000E+02      2.774200000000000E-01      7.373047000000000E+01      3.236847000000000E-01      5.850586000000000E+01
4861000000.000000      5.965576000000000E-01      6.077538000000000E+01      2.921906000000000E-01      1.053672000000000E+02      2.805634000000000E-01      7.369531000000000E+01      3.220062000000000E-01      5.925586000000000E+01
4862000000.000000      5.911560000000000E-01      6.079492000000000E+01      2.960968000000000E-01      1.052305000000000E+02      2.834778000000000E-01      7.377343000000000E+01      3.236389000000000E-01      5.949219000000000E+01
4863000000.000000      5.876770000000000E-01      6.068945000000000E+01      2.978058000000000E-01      1.050117000000000E+02      2.860260000000000E-01      7.370312000000000E+01      3.236542000000000E-01      5.980663000000000E+01
4864000000.000000      5.865479000000000E-01      6.041210000000000E+01      3.018951000000000E-01      1.050078000000000E+02      2.878113000000000E-01      7.364062000000000E+01      3.227844000000000E-01      6.000195000000000E+01
4865000000.000000      5.800781000000000E-01      6.036133000000000E+01      3.032074000000000E-01      1.048476000000000E+02      2.906799000000000E-01      7.349609000000000E+01      3.244934000000000E-01      6.046679000000000E+01
4866000000.000000      5.773621000000000E-01      6.029491000000000E+01      3.060608000000000E-01      1.044219000000000E+02      2.935028000000000E-01      7.331640000000000E+01      3.249512000000000E-01      6.062109000000000E+01
4867000000.000000      5.715332000000000E-01      6.016796000000000E+01      3.098907000000000E-01      1.041289000000000E+02      2.948608000000000E-01      7.341797000000000E+01      3.251953000000000E-01      6.100195000000000E+01
4868000000.000000      5.684814000000000E-01      6.013085000000000E+01      3.128510000000000E-01      1.039063000000000E+02      2.975006000000000E-01      7.336719000000000E+01      3.254089000000000E-01      6.129687000000000E+01
4869000000.000000      5.635986000000000E-01      6.000390000000000E+01      3.155060000000000E-01      1.037852000000000E+02      3.004608000000000E-01      7.316406000000000E+01      3.253479000000000E-01      6.166406000000000E+01
4870000000.000000      5.602722000000000E-01      5.988281000000000E+01      3.183289000000000E-01      1.035078000000000E+02      3.027496000000000E-01      7.320313000000000E+01      3.274994000000000E-01      6.190234000000000E+01
4871000000.000000      5.567627000000000E-01      5.954687000000000E+01      3.204346000000000E-01      1.031719000000000E+02      3.045044000000000E-01      7.307031000000000E+01      3.272400000000000E-01      6.204492000000000E+01
4872000000.000000      5.534668000000000E-01      5.945313000000000E+01      3.233948000000000E-01      1.030508000000000E+02      3.072662000000000E-01      7.282421000000000E+01      3.295288000000000E-01      6.224218000000000E+01
4873000000.000000      5.504456000000000E-01      5.934765000000000E+01      3.260956000000000E-01      1.026015000000000E+02      3.090820000000000E-01      7.290234000000000E+01      3.314667000000000E-01      6.229687000000000E+01
4874000000.000000      5.460510000000000E-01      5.904297000000000E+01      3.285522000000000E-01      1.023242000000000E+02      3.119202000000000E-01      7.270312000000000E+01      3.318634000000000E-01      6.225586000000000E+01
4875000000.000000      5.425415000000000E-01      5.889062000000000E+01      3.317871000000000E-01      1.021719000000000E+02      3.134460000000000E-01      7.269921000000000E+01      3.311768000000000E-01      6.252343000000000E+01
4876000000.000000      5.393066000000000E-01      5.874218000000000E+01      3.344116000000000E-01      1.017695000000000E+02      3.168488000000000E-01      7.266796000000000E+01      3.341217000000000E-01      6.277538000000000E+01
4877000000.000000      5.356140000000000E-01      5.832617000000000E+01      3.366089000000000E-01      1.015234000000000E+02      3.181000000000000E-01      7.250390000000000E+01      3.383331000000000E-01      6.298046000000000E+01
4878000000.000000      5.304260000000000E-01      5.832812000000000E+01      3.389435000000000E-01      1.011797000000000E+02      3.206329000000000E-01      7.252734000000000E+01      3.376923000000000E-01      6.291016000000000E+01
4879000000.000000      5.284729000000000E-01      5.799805000000000E+01      3.415375000000000E-01      1.009258000000000E+02      3.231201000000000E-01      7.227734000000000E+01      3.399048000000000E-01      6.288867000000000E+01
4880000000.000000      5.253296000000000E-01      5.761913000000000E+01      3.449402000000000E-01      1.005351000000000E+02      3.244476000000000E-01      7.217968000000000E+01      3.407593000000000E-01      6.280273000000000E+01
4881000000.000000      5.212708000000000E-01      5.745898000000000E+01      3.473969000000000E-01      1.002656000000000E+02      3.269196000000000E-01      7.212891000000000E+01      3.434753000000000E-01      6.289063000000000E+01
4882000000.000000      5.192566000000000E-01      5.721680000000000E+01      3.502502000000000E-01      9.982811000000000E+01      3.289490000000000E-01      7.198047000000000E+01      3.482666000000000E-01      6.290820000000000E+01
