! Network Analyzer HP8722D
! Hewlett-Packard
! Data name: Linha & Wilkinson
! Saver's name: Rodrigo Anjos
! Comments: Teste da utilização de aquisição
continua pelo VNA HP8722D
! Time and date: 22/5/2025 10:59
!              Frequency                     S11                                                   S21                                                   S12                                                   S22
# HZ  S  MA R 50
4800000000.000000      6.509399000000000E-01      1.079395000000000E+01      4.715118000000000E-01     -9.297266000000000E+01
4801000000.000000      6.473999000000000E-01      1.069629000000000E+01      4.724884000000000E-01     -9.351171000000000E+01
4802000000.000000      6.477051000000000E-01      1.065674000000000E+01      4.739380000000000E-01     -9.409765000000000E+01
4803000000.000000      6.448975000000000E-01      1.075000000000000E+01      4.766846000000000E-01     -9.499609000000000E+01
4804000000.000000      6.447754000000000E-01      1.075146000000000E+01      4.785309000000000E-01     -9.582811000000000E+01
4805000000.000000      6.421509000000000E-01      1.057568000000000E+01      4.803925000000000E-01     -9.651562000000000E+01
4806000000.000000      6.399841000000000E-01      1.062061000000000E+01      4.805603000000000E-01     -9.723045000000000E+01
4807000000.000000      6.376038000000000E-01      1.076660000000000E+01      4.840240000000000E-01     -9.797264000000000E+01
4808000000.000000      6.365967000000000E-01      1.076904000000000E+01      4.848480000000000E-01     -9.870312000000000E+01
4809000000.000000      6.362610000000000E-01      1.090088000000000E+01      4.866791000000000E-01     -9.955078000000000E+01
4810000000.000000      6.344604000000000E-01      1.062354000000000E+01      4.890137000000000E-01     -1.002344000000000E+02
4811000000.000000      6.343689000000000E-01      1.092725000000000E+01      4.899445000000000E-01     -1.012734000000000E+02
4812000000.000000      6.313171000000000E-01      1.097803000000000E+01      4.891663000000000E-01     -1.018750000000000E+02
4813000000.000000      6.308594000000000E-01      1.104639000000000E+01      4.910431000000000E-01     -1.028477000000000E+02
4814000000.000000      6.279602000000000E-01      1.108203000000000E+01      4.929199000000000E-01     -1.032227000000000E+02
4815000000.000000      6.260986000000000E-01      1.113428000000000E+01      4.937134000000000E-01     -1.040234000000000E+02
4816000000.000000      6.260071000000000E-01      1.130078000000000E+01      4.935760000000000E-01     -1.047578000000000E+02
4817000000.000000      6.239014000000000E-01      1.136768000000000E+01      4.950104000000000E-01     -1.054844000000000E+02
4818000000.000000      6.234131000000000E-01      1.133057000000000E+01      4.951630000000000E-01     -1.063672000000000E+02
4819000000.000000      6.216431000000000E-01      1.141064000000000E+01      4.950104000000000E-01     -1.071484000000000E+02
4820000000.000000      6.215820000000000E-01      1.135840000000000E+01      4.960022000000000E-01     -1.076719000000000E+02
4821000000.000000      6.210022000000000E-01      1.165771000000000E+01      4.975586000000000E-01     -1.085273000000000E+02
4822000000.000000      6.199951000000000E-01      1.158496000000000E+01      4.962616000000000E-01     -1.091953000000000E+02
4823000000.000000      6.191711000000000E-01      1.167139000000000E+01      4.977875000000000E-01     -1.100937000000000E+02
4824000000.000000      6.166992000000000E-01      1.193115000000000E+01      4.970093000000000E-01     -1.109141000000000E+02
4825000000.000000      6.156006000000000E-01      1.186523000000000E+01      4.965363000000000E-01     -1.115625000000000E+02
4826000000.000000      6.163330000000000E-01      1.202441000000000E+01      4.984741000000000E-01     -1.124531000000000E+02
4827000000.000000      6.162109000000000E-01      1.215771000000000E+01      4.976196000000000E-01     -1.130898000000000E+02
4828000000.000000      6.159973000000000E-01      1.218213000000000E+01      4.987335000000000E-01     -1.138906000000000E+02
4829000000.000000      6.130371000000000E-01      1.249951000000000E+01      4.993744000000000E-01     -1.146797000000000E+02
4830000000.000000      6.153870000000000E-01      1.236914000000000E+01      4.999390000000000E-01     -1.154375000000000E+02
4831000000.000000      6.142578000000000E-01      1.256104000000000E+01      4.985504000000000E-01     -1.162812000000000E+02
4832000000.000000      6.120300000000000E-01      1.276855000000000E+01      4.984589000000000E-01     -1.169570000000000E+02
4833000000.000000      6.126709000000000E-01      1.269434000000000E+01      4.987183000000000E-01     -1.175430000000000E+02
4834000000.000000      6.128845000000000E-01      1.299121000000000E+01      4.993134000000000E-01     -1.183750000000000E+02
4835000000.000000      6.141663000000000E-01      1.295947000000000E+01      4.984283000000000E-01     -1.193398000000000E+02
4836000000.000000      6.130676000000000E-01      1.319824000000000E+01      4.988708000000000E-01     -1.198984000000000E+02
4837000000.000000      6.130066000000000E-01      1.339209000000000E+01      4.964905000000000E-01     -1.209101000000000E+02
4838000000.000000      6.119080000000000E-01      1.329736000000000E+01      4.968414000000000E-01     -1.215195000000000E+02
4839000000.000000      6.167297000000000E-01      1.358301000000000E+01      4.981232000000000E-01     -1.222422000000000E+02
4840000000.000000      6.153870000000000E-01      1.350049000000000E+01      4.979401000000000E-01     -1.230351000000000E+02
4841000000.000000      6.155701000000000E-01      1.379980000000000E+01      4.956055000000000E-01     -1.240000000000000E+02
4842000000.000000      6.179199000000000E-01      1.356104000000000E+01      4.948425000000000E-01     -1.246601000000000E+02
4843000000.000000      6.177979000000000E-01      1.376172000000000E+01      4.951782000000000E-01     -1.256016000000000E+02
4844000000.000000      6.168518000000000E-01      1.386182000000000E+01      4.925385000000000E-01     -1.264336000000000E+02
4845000000.000000      6.185913000000000E-01      1.406934000000000E+01      4.924011000000000E-01     -1.271523000000000E+02
4846000000.000000      6.192932000000000E-01      1.393994000000000E+01      4.909821000000000E-01     -1.280391000000000E+02
4847000000.000000      6.210327000000000E-01      1.409814000000000E+01      4.921112000000000E-01     -1.288047000000000E+02
4848000000.000000      6.199036000000000E-01      1.415283000000000E+01      4.881134000000000E-01     -1.296797000000000E+02
4849000000.000000      6.211548000000000E-01      1.414063000000000E+01      4.889526000000000E-01     -1.305703000000000E+02
4850000000.000000      6.221313000000000E-01      1.426563000000000E+01      4.837036000000000E-01     -1.313672000000000E+02
4851000000.000000      6.228943000000000E-01      1.450293000000000E+01      4.857178000000000E-01     -1.322344000000000E+02
4852000000.000000      6.239319000000000E-01      1.446338000000000E+01      4.832153000000000E-01     -1.331797000000000E+02
4853000000.000000      6.269836000000000E-01      1.443164000000000E+01      4.781189000000000E-01     -1.339219000000000E+02
4854000000.000000      6.264038000000000E-01      1.454297000000000E+01      4.780884000000000E-01     -1.349141000000000E+02
4855000000.000000      6.273499000000000E-01      1.456494000000000E+01      4.757080000000000E-01     -1.358672000000000E+02
4856000000.000000      6.268616000000000E-01      1.470068000000000E+01      4.715881000000000E-01     -1.363984000000000E+02
4857000000.000000      6.278687000000000E-01      1.470752000000000E+01      4.723206000000000E-01     -1.375234000000000E+02
4858000000.000000      6.301270000000000E-01      1.467041000000000E+01      4.676056000000000E-01     -1.380859000000000E+02
4859000000.000000      6.317444000000000E-01      1.463232000000000E+01      4.657745000000000E-01     -1.391406000000000E+02
4860000000.000000      6.323853000000000E-01      1.470068000000000E+01      4.620819000000000E-01     -1.398594000000000E+02
4861000000.000000      6.326294000000000E-01      1.472021000000000E+01      4.583740000000000E-01     -1.408984000000000E+02
4862000000.000000      6.328735000000000E-01      1.466504000000000E+01      4.563446000000000E-01     -1.416250000000000E+02
4863000000.000000      6.371765000000000E-01      1.479541000000000E+01      4.515228000000000E-01     -1.425078000000000E+02
4864000000.000000      6.381226000000000E-01      1.476660000000000E+01      4.486389000000000E-01     -1.432656000000000E+02
4865000000.000000      6.372375000000000E-01      1.462256000000000E+01      4.448395000000000E-01     -1.439375000000000E+02
4866000000.000000      6.395264000000000E-01      1.465137000000000E+01      4.402161000000000E-01     -1.447891000000000E+02
4867000000.000000      6.398315000000000E-01      1.476270000000000E+01      4.364014000000000E-01     -1.457969000000000E+02
4868000000.000000      6.423950000000000E-01      1.470508000000000E+01      4.337463000000000E-01     -1.462734000000000E+02
4869000000.000000      6.425171000000000E-01      1.464063000000000E+01      4.289703000000000E-01     -1.470312000000000E+02
4870000000.000000      6.450500000000000E-01      1.476416000000000E+01      4.253387000000000E-01     -1.478594000000000E+02
4871000000.000000      6.456604000000000E-01      1.460205000000000E+01      4.216614000000000E-01     -1.485078000000000E+02
4872000000.000000      6.478882000000000E-01      1.467773000000000E+01      4.158325000000000E-01     -1.492109000000000E+02
4873000000.000000      6.488342000000000E-01      1.463477000000000E+01      4.132080000000000E-01     -1.500469000000000E+02
4874000000.000000      6.500244000000000E-01      1.470898000000000E+01      4.084473000000000E-01     -1.507031000000000E+02
4875000000.000000      6.499939000000000E-01      1.449365000000000E+01      4.033966000000000E-01     -1.513672000000000E+02
4876000000.000000      6.529846000000000E-01      1.459229000000000E+01      4.000549000000000E-01     -1.519297000000000E+02
4877000000.000000      6.546936000000000E-01      1.446729000000000E+01      3.952484000000000E-01     -1.527734000000000E+02
4878000000.000000      6.520081000000000E-01      1.432617000000000E+01      3.909607000000000E-01     -1.532891000000000E+02
4879000000.000000      6.581726000000000E-01      1.448242000000000E+01      3.865204000000000E-01     -1.537578000000000E+02
4880000000.000000      6.578369000000000E-01      1.434521000000000E+01      3.821564000000000E-01     -1.543828000000000E+02
4881000000.000000      6.586304000000000E-01      1.429443000000000E+01      3.774567000000000E-01     -1.549375000000000E+02
4882000000.000000      6.585083000000000E-01      1.412939000000000E+01      3.739929000000000E-01     -1.558437000000000E+02
4883000000.000000      6.600037000000000E-01      1.406934000000000E+01      3.692627000000000E-01     -1.562422000000000E+02
4884000000.000000      6.655884000000000E-01      1.419824000000000E+01      3.635712000000000E-01     -1.566406000000000E+02
4885000000.000000      6.643066000000000E-01      1.406104000000000E+01      3.601227000000000E-01     -1.569609000000000E+02
4886000000.000000      6.647034000000000E-01      1.394678000000000E+01      3.553467000000000E-01     -1.573672000000000E+02
4887000000.000000      6.651306000000000E-01      1.393604000000000E+01      3.506470000000000E-01     -1.581016000000000E+02
4888000000.000000      6.670837000000000E-01      1.389600000000000E+01      3.478546000000000E-01     -1.588125000000000E+02
4889000000.000000      6.679993000000000E-01      1.379590000000000E+01      3.427887000000000E-01     -1.589375000000000E+02
4890000000.000000      6.672974000000000E-01      1.354883000000000E+01      3.399811000000000E-01     -1.596562000000000E+02
4891000000.000000      6.708374000000000E-01      1.365186000000000E+01      3.340759000000000E-01     -1.600391000000000E+02
4892000000.000000      6.707764000000000E-01      1.352539000000000E+01      3.298798000000000E-01     -1.602969000000000E+02
4893000000.000000      6.734924000000000E-01      1.341113000000000E+01      3.262939000000000E-01     -1.608203000000000E+02
4894000000.000000      6.719055000000000E-01      1.323438000000000E+01      3.231964000000000E-01     -1.611875000000000E+02
4895000000.000000      6.727905000000000E-01      1.312988000000000E+01      3.194885000000000E-01     -1.613203000000000E+02
4896000000.000000      6.752319000000000E-01      1.299805000000000E+01      3.155975000000000E-01     -1.618906000000000E+02
4897000000.000000      6.773682000000000E-01      1.289648000000000E+01      3.106232000000000E-01     -1.623125000000000E+02
4898000000.000000      6.772156000000000E-01      1.306934000000000E+01      3.077698000000000E-01     -1.626250000000000E+02
4899000000.000000      6.773071000000000E-01      1.298438000000000E+01      3.038635000000000E-01     -1.631406000000000E+02
4900000000.000000      6.782227000000000E-01      1.265479000000000E+01      2.997589000000000E-01     -1.633672000000000E+02
4901000000.000000      6.796875000000000E-01      1.272998000000000E+01      2.968292000000000E-01     -1.636641000000000E+02
4902000000.000000      6.802979000000000E-01      1.252295000000000E+01      2.936096000000000E-01     -1.639141000000000E+02
4903000000.000000      6.798706000000000E-01      1.244434000000000E+01      2.889557000000000E-01     -1.642578000000000E+02
4904000000.000000      6.801147000000000E-01      1.237598000000000E+01      2.858582000000000E-01     -1.646797000000000E+02
4905000000.000000      6.806030000000000E-01      1.219873000000000E+01      2.827606000000000E-01     -1.650312000000000E+02
4906000000.000000      6.804810000000000E-01      1.202295000000000E+01      2.782898000000000E-01     -1.651094000000000E+02
4907000000.000000      6.839294000000000E-01      1.205713000000000E+01      2.759094000000000E-01     -1.655937000000000E+02
4908000000.000000      6.856384000000000E-01      1.194336000000000E+01      2.734375000000000E-01     -1.660547000000000E+02
4909000000.000000      6.832581000000000E-01      1.177734000000000E+01      2.681274000000000E-01     -1.663203000000000E+02
4910000000.000000      6.869202000000000E-01      1.182520000000000E+01      2.647095000000000E-01     -1.665547000000000E+02
4911000000.000000      6.855774000000000E-01      1.172070000000000E+01      2.619781000000000E-01     -1.667656000000000E+02
4912000000.000000      6.889343000000000E-01      1.154639000000000E+01      2.579346000000000E-01     -1.672734000000000E+02
4913000000.000000      6.893005000000000E-01      1.125244000000000E+01      2.544098000000000E-01     -1.676406000000000E+02
4914000000.000000      6.883850000000000E-01      1.125537000000000E+01      2.512512000000000E-01     -1.676641000000000E+02
4915000000.000000      6.886597000000000E-01      1.123486000000000E+01      2.476578000000000E-01     -1.682266000000000E+02
4916000000.000000      6.907349000000000E-01      1.117578000000000E+01      2.431641000000000E-01     -1.685547000000000E+02
4917000000.000000      6.906128000000000E-01      1.098633000000000E+01      2.399826000000000E-01     -1.686641000000000E+02
4918000000.000000      6.911621000000000E-01      1.093652000000000E+01      2.360764000000000E-01     -1.690156000000000E+02
4919000000.000000      6.924744000000000E-01      1.104932000000000E+01      2.329712000000000E-01     -1.688750000000000E+02
4920000000.000000      6.929016000000000E-01      1.088184000000000E+01      2.291794000000000E-01     -1.694922000000000E+02
4921000000.000000      6.919556000000000E-01      1.068945000000000E+01      2.257156000000000E-01     -1.696172000000000E+02
4922000000.000000      6.934814000000000E-01      1.042188000000000E+01      2.220993000000000E-01     -1.696172000000000E+02
4923000000.000000      6.927795000000000E-01      1.056592000000000E+01      2.183228000000000E-01     -1.699531000000000E+02
4924000000.000000      6.921692000000000E-01      1.043408000000000E+01      2.143478000000000E-01     -1.702891000000000E+02
4925000000.000000      6.920471000000000E-01      1.034082000000000E+01      2.112808000000000E-01     -1.702812000000000E+02
4926000000.000000      6.932678000000000E-01      1.020605000000000E+01      2.074432000000000E-01     -1.706172000000000E+02
4927000000.000000      6.930847000000000E-01      1.001123000000000E+01      2.035370000000000E-01     -1.706172000000000E+02
4928000000.000000      6.973877000000000E-01      9.829590000000000E+00      2.003403000000000E-01     -1.705391000000000E+02
4929000000.000000      6.977234000000000E-01      9.931641000000000E+00      1.958008000000000E-01     -1.706484000000000E+02
4930000000.000000      6.970825000000000E-01      9.895508000000000E+00      1.922989000000000E-01     -1.708984000000000E+02
4931000000.000000      6.979675000000000E-01      9.684082000000000E+00      1.890030000000000E-01     -1.709297000000000E+02
4932000000.000000      6.954041000000000E-01      9.581055000000000E+00      1.845856000000000E-01     -1.708516000000000E+02
4933000000.000000      6.978149000000000E-01      9.424805000000000E+00      1.802750000000000E-01     -1.706406000000000E+02
4934000000.000000      7.005310000000000E-01      9.426270000000000E+00      1.767120000000000E-01     -1.706406000000000E+02
4935000000.000000      7.004089000000000E-01      9.221191000000000E+00      1.735001000000000E-01     -1.703125000000000E+02
4936000000.000000      6.965637000000000E-01      9.170410000000000E+00      1.696472000000000E-01     -1.703125000000000E+02
4937000000.000000      6.991577000000000E-01      9.031738000000000E+00      1.656113000000000E-01     -1.700000000000000E+02
4938000000.000000      6.979065000000000E-01      9.246094000000000E+00      1.622391000000000E-01     -1.697813000000000E+02
4939000000.000000      7.009888000000000E-01      8.902832000000000E+00      1.587219000000000E-01     -1.694219000000000E+02
4940000000.000000      7.019043000000000E-01      8.961914000000000E+00      1.547241000000000E-01     -1.691484000000000E+02
4941000000.000000      7.022400000000000E-01      8.840820000000000E+00      1.514969000000000E-01     -1.684297000000000E+02
4942000000.000000      7.014771000000000E-01      8.677734000000000E+00      1.480484000000000E-01     -1.681562000000000E+02
4943000000.000000      7.024536000000000E-01      8.680176000000000E+00      1.446381000000000E-01     -1.675703000000000E+02
4944000000.000000      7.017517000000000E-01      8.449707000000000E+00      1.416855000000000E-01     -1.670703000000000E+02
4945000000.000000      7.031555000000000E-01      8.301270000000000E+00      1.380310000000000E-01     -1.662344000000000E+02
4946000000.000000      7.035828000000000E-01      8.261719000000000E+00      1.349945000000000E-01     -1.655000000000000E+02
4947000000.000000      7.053528000000000E-01      8.152832000000000E+00      1.318054000000000E-01     -1.647812000000000E+02
4948000000.000000      7.033386000000000E-01      8.033691000000000E+00      1.285629000000000E-01     -1.638984000000000E+02
4949000000.000000      7.017212000000000E-01      7.853760000000000E+00      1.260681000000000E-01     -1.625000000000000E+02
4950000000.000000      7.071228000000000E-01      7.834473000000000E+00      1.228333000000000E-01     -1.614844000000000E+02
4951000000.000000      7.056885000000000E-01      7.676514000000000E+00      1.205940000000000E-01     -1.604844000000000E+02
4952000000.000000      7.048035000000000E-01      7.540527000000000E+00      1.178207000000000E-01     -1.592500000000000E+02
4953000000.000000      7.056274000000000E-01      7.609375000000000E+00      1.157722000000000E-01     -1.577969000000000E+02
4954000000.000000      7.068481000000000E-01      7.473389000000000E+00      1.139603000000000E-01     -1.563984000000000E+02
