! Network Analyzer HP8722D
! Hewlett-Packard
! Data name: Linha & Wilkinson
! Saver's name: Rodrigo Anjos
! Comments: Teste da utilização de aquisição
continua pelo VNA HP8722D
! Time and date: 22/5/2025 10:06
!              Frequency                     S11                                                   S21                                                   S12                                                   S22
# HZ  S  MA R 50
4800000000.000000      6.464233000000000E-01      1.059326000000000E+01      4.751434000000000E-01     -9.383593000000000E+01
4801000000.000000      6.442871000000000E-01      1.052881000000000E+01      4.766693000000000E-01     -9.444530000000000E+01
4802000000.000000      6.436157000000000E-01      1.046826000000000E+01      4.772644000000000E-01     -9.504686000000000E+01
4803000000.000000      6.411438000000000E-01      1.052051000000000E+01      4.814911000000000E-01     -9.583984000000000E+01
4804000000.000000      6.392822000000000E-01      1.043408000000000E+01      4.827881000000000E-01     -9.674608000000000E+01
4805000000.000000      6.406860000000000E-01      1.048877000000000E+01      4.843140000000000E-01     -9.732031000000000E+01
4806000000.000000      6.373596000000000E-01      1.035693000000000E+01      4.856110000000000E-01     -9.817968000000000E+01
4807000000.000000      6.344604000000000E-01      1.052344000000000E+01      4.850159000000000E-01     -9.908983000000000E+01
4808000000.000000      6.342468000000000E-01      1.047803000000000E+01      4.872742000000000E-01     -9.946484000000000E+01
4809000000.000000      6.322632000000000E-01      1.070313000000000E+01      4.897461000000000E-01     -1.005312000000000E+02
4810000000.000000      6.300049000000000E-01      1.062354000000000E+01      4.923553000000000E-01     -1.012109000000000E+02
4811000000.000000      6.292419000000000E-01      1.058936000000000E+01      4.912415000000000E-01     -1.020937000000000E+02
4812000000.000000      6.291504000000000E-01      1.080225000000000E+01      4.921112000000000E-01     -1.026992000000000E+02
4813000000.000000      6.287231000000000E-01      1.086914000000000E+01      4.930573000000000E-01     -1.036289000000000E+02
4814000000.000000      6.245117000000000E-01      1.077441000000000E+01      4.948730000000000E-01     -1.042383000000000E+02
4815000000.000000      6.223450000000000E-01      1.081152000000000E+01      4.945831000000000E-01     -1.051680000000000E+02
4816000000.000000      6.228943000000000E-01      1.091748000000000E+01      4.957275000000000E-01     -1.058555000000000E+02
4817000000.000000      6.205444000000000E-01      1.107959000000000E+01      4.967957000000000E-01     -1.065391000000000E+02
4818000000.000000      6.196289000000000E-01      1.107959000000000E+01      4.962616000000000E-01     -1.074414000000000E+02
4819000000.000000      6.207275000000000E-01      1.113281000000000E+01      4.971924000000000E-01     -1.080351000000000E+02
4820000000.000000      6.179199000000000E-01      1.135840000000000E+01      4.989014000000000E-01     -1.086523000000000E+02
4821000000.000000      6.166077000000000E-01      1.143652000000000E+01      4.985962000000000E-01     -1.098320000000000E+02
4822000000.000000      6.148376000000000E-01      1.146533000000000E+01      4.961853000000000E-01     -1.102930000000000E+02
4823000000.000000      6.170349000000000E-01      1.138965000000000E+01      5.000305000000000E-01     -1.111758000000000E+02
4824000000.000000      6.134949000000000E-01      1.187988000000000E+01      4.991150000000000E-01     -1.118047000000000E+02
4825000000.000000      6.141357000000000E-01      1.167529000000000E+01      4.987183000000000E-01     -1.124297000000000E+02
4826000000.000000      6.138916000000000E-01      1.168115000000000E+01      4.992981000000000E-01     -1.133516000000000E+02
4827000000.000000      6.130371000000000E-01      1.198193000000000E+01      4.991150000000000E-01     -1.138711000000000E+02
4828000000.000000      6.141357000000000E-01      1.196680000000000E+01      5.009155000000000E-01     -1.148438000000000E+02
4829000000.000000      6.143188000000000E-01      1.231250000000000E+01      5.006104000000000E-01     -1.156016000000000E+02
4830000000.000000      6.123962000000000E-01      1.224658000000000E+01      5.004272000000000E-01     -1.163398000000000E+02
4831000000.000000      6.127930000000000E-01      1.241455000000000E+01      5.011597000000000E-01     -1.171719000000000E+02
4832000000.000000      6.115112000000000E-01      1.258057000000000E+01      4.997253000000000E-01     -1.178320000000000E+02
4833000000.000000      6.109619000000000E-01      1.271484000000000E+01      5.002136000000000E-01     -1.185703000000000E+02
4834000000.000000      6.109924000000000E-01      1.276172000000000E+01      4.991150000000000E-01     -1.194492000000000E+02
4835000000.000000      6.115417000000000E-01      1.286475000000000E+01      4.991302000000000E-01     -1.201914000000000E+02
4836000000.000000      6.124878000000000E-01      1.307227000000000E+01      4.981842000000000E-01     -1.209648000000000E+02
4837000000.000000      6.099854000000000E-01      1.326025000000000E+01      4.978027000000000E-01     -1.219648000000000E+02
4838000000.000000      6.125793000000000E-01      1.326172000000000E+01      4.976654000000000E-01     -1.225039000000000E+02
4839000000.000000      6.163635000000000E-01      1.341943000000000E+01      4.977570000000000E-01     -1.232344000000000E+02
4840000000.000000      6.142578000000000E-01      1.330566000000000E+01      4.967651000000000E-01     -1.240000000000000E+02
4841000000.000000      6.141968000000000E-01      1.366406000000000E+01      4.963989000000000E-01     -1.249531000000000E+02
4842000000.000000      6.148987000000000E-01      1.355127000000000E+01      4.948273000000000E-01     -1.258320000000000E+02
4843000000.000000      6.166687000000000E-01      1.349219000000000E+01      4.956055000000000E-01     -1.266836000000000E+02
4844000000.000000      6.166382000000000E-01      1.369971000000000E+01      4.934082000000000E-01     -1.274883000000000E+02
4845000000.000000      6.162109000000000E-01      1.375586000000000E+01      4.921417000000000E-01     -1.281172000000000E+02
4846000000.000000      6.175232000000000E-01      1.387549000000000E+01      4.910278000000000E-01     -1.291875000000000E+02
4847000000.000000      6.192322000000000E-01      1.412402000000000E+01      4.902191000000000E-01     -1.298125000000000E+02
4848000000.000000      6.190491000000000E-01      1.400195000000000E+01      4.861450000000000E-01     -1.306719000000000E+02
4849000000.000000      6.224060000000000E-01      1.406494000000000E+01      4.864807000000000E-01     -1.316875000000000E+02
4850000000.000000      6.212769000000000E-01      1.419824000000000E+01      4.839020000000000E-01     -1.324531000000000E+02
4851000000.000000      6.231384000000000E-01      1.425879000000000E+01      4.836426000000000E-01     -1.333594000000000E+02
4852000000.000000      6.227112000000000E-01      1.432715000000000E+01      4.808502000000000E-01     -1.341641000000000E+02
4853000000.000000      6.245422000000000E-01      1.430518000000000E+01      4.753265000000000E-01     -1.349062000000000E+02
4854000000.000000      6.248474000000000E-01      1.454004000000000E+01      4.745941000000000E-01     -1.357969000000000E+02
4855000000.000000      6.235962000000000E-01      1.439746000000000E+01      4.742432000000000E-01     -1.367031000000000E+02
4856000000.000000      6.273193000000000E-01      1.437012000000000E+01      4.696503000000000E-01     -1.373203000000000E+02
4857000000.000000      6.286926000000000E-01      1.446729000000000E+01      4.709625000000000E-01     -1.382031000000000E+02
4858000000.000000      6.296387000000000E-01      1.439063000000000E+01      4.652405000000000E-01     -1.391172000000000E+02
4859000000.000000      6.322632000000000E-01      1.438916000000000E+01      4.632111000000000E-01     -1.400938000000000E+02
4860000000.000000      6.319885000000000E-01      1.465283000000000E+01      4.589844000000000E-01     -1.406641000000000E+02
4861000000.000000      6.320801000000000E-01      1.459082000000000E+01      4.555664000000000E-01     -1.419219000000000E+02
4862000000.000000      6.328735000000000E-01      1.450293000000000E+01      4.535828000000000E-01     -1.423437000000000E+02
4863000000.000000      6.356506000000000E-01      1.453857000000000E+01      4.498444000000000E-01     -1.433047000000000E+02
4864000000.000000      6.369324000000000E-01      1.453760000000000E+01      4.460297000000000E-01     -1.440000000000000E+02
4865000000.000000      6.374512000000000E-01      1.454150000000000E+01      4.424286000000000E-01     -1.447031000000000E+02
4866000000.000000      6.398926000000000E-01      1.460596000000000E+01      4.381561000000000E-01     -1.456875000000000E+02
4867000000.000000      6.394958000000000E-01      1.451660000000000E+01      4.339142000000000E-01     -1.465703000000000E+02
4868000000.000000      6.415405000000000E-01      1.455957000000000E+01      4.293365000000000E-01     -1.471562000000000E+02
4869000000.000000      6.419678000000000E-01      1.445654000000000E+01      4.263763000000000E-01     -1.480234000000000E+02
4870000000.000000      6.434631000000000E-01      1.451660000000000E+01      4.223480000000000E-01     -1.485547000000000E+02
4871000000.000000      6.452332000000000E-01      1.445215000000000E+01      4.178314000000000E-01     -1.495469000000000E+02
4872000000.000000      6.474915000000000E-01      1.435059000000000E+01      4.133606000000000E-01     -1.499609000000000E+02
4873000000.000000      6.478271000000000E-01      1.430127000000000E+01      4.087830000000000E-01     -1.506406000000000E+02
4874000000.000000      6.497803000000000E-01      1.437256000000000E+01      4.053802000000000E-01     -1.515625000000000E+02
4875000000.000000      6.519775000000000E-01      1.416943000000000E+01      3.997803000000000E-01     -1.521094000000000E+02
4876000000.000000      6.524353000000000E-01      1.429980000000000E+01      3.973694000000000E-01     -1.527656000000000E+02
4877000000.000000      6.517334000000000E-01      1.393164000000000E+01      3.922272000000000E-01     -1.534688000000000E+02
4878000000.000000      6.540527000000000E-01      1.402539000000000E+01      3.880157000000000E-01     -1.539141000000000E+02
4879000000.000000      6.544189000000000E-01      1.412939000000000E+01      3.824158000000000E-01     -1.544765000000000E+02
4880000000.000000      6.587524000000000E-01      1.406104000000000E+01      3.774261000000000E-01     -1.551406000000000E+02
4881000000.000000      6.575012000000000E-01      1.406104000000000E+01      3.745575000000000E-01     -1.556797000000000E+02
4882000000.000000      6.582031000000000E-01      1.387695000000000E+01      3.708496000000000E-01     -1.562969000000000E+02
4883000000.000000      6.600037000000000E-01      1.366699000000000E+01      3.650360000000000E-01     -1.568125000000000E+02
4884000000.000000      6.619568000000000E-01      1.389209000000000E+01      3.613281000000000E-01     -1.574375000000000E+02
4885000000.000000      6.631775000000000E-01      1.378467000000000E+01      3.568573000000000E-01     -1.577656000000000E+02
4886000000.000000      6.641541000000000E-01      1.377930000000000E+01      3.520203000000000E-01     -1.582891000000000E+02
4887000000.000000      6.659546000000000E-01      1.356934000000000E+01      3.485565000000000E-01     -1.587734000000000E+02
4888000000.000000      6.665344000000000E-01      1.339746000000000E+01      3.462677000000000E-01     -1.591719000000000E+02
4889000000.000000      6.662292000000000E-01      1.343604000000000E+01      3.387756000000000E-01     -1.595625000000000E+02
4890000000.000000      6.660767000000000E-01      1.327393000000000E+01      3.348999000000000E-01     -1.604141000000000E+02
4891000000.000000      6.699829000000000E-01      1.326855000000000E+01      3.306732000000000E-01     -1.604141000000000E+02
4892000000.000000      6.694641000000000E-01      1.325732000000000E+01      3.275146000000000E-01     -1.609531000000000E+02
4893000000.000000      6.720886000000000E-01      1.313818000000000E+01      3.242035000000000E-01     -1.614766000000000E+02
4894000000.000000      6.721497000000000E-01      1.288525000000000E+01      3.180695000000000E-01     -1.614531000000000E+02
4895000000.000000      6.739807000000000E-01      1.287598000000000E+01      3.170319000000000E-01     -1.620547000000000E+02
4896000000.000000      6.748962000000000E-01      1.278369000000000E+01      3.122253000000000E-01     -1.623281000000000E+02
4897000000.000000      6.748657000000000E-01      1.272900000000000E+01      3.083954000000000E-01     -1.628672000000000E+02
4898000000.000000      6.774292000000000E-01      1.268213000000000E+01      3.047638000000000E-01     -1.630625000000000E+02
4899000000.000000      6.759033000000000E-01      1.260791000000000E+01      3.012695000000000E-01     -1.635313000000000E+02
4900000000.000000      6.767578000000000E-01      1.240723000000000E+01      2.975769000000000E-01     -1.636406000000000E+02
4901000000.000000      6.774597000000000E-01      1.230176000000000E+01      2.936707000000000E-01     -1.640078000000000E+02
4902000000.000000      6.795044000000000E-01      1.226465000000000E+01      2.908630000000000E-01     -1.644219000000000E+02
4903000000.000000      6.802368000000000E-01      1.213672000000000E+01      2.857971000000000E-01     -1.647812000000000E+02
4904000000.000000      6.807556000000000E-01      1.199414000000000E+01      2.824402000000000E-01     -1.651172000000000E+02
4905000000.000000      6.818848000000000E-01      1.188965000000000E+01      2.795563000000000E-01     -1.654531000000000E+02
4906000000.000000      6.786194000000000E-01      1.180615000000000E+01      2.759094000000000E-01     -1.655703000000000E+02
4907000000.000000      6.819458000000000E-01      1.173438000000000E+01      2.726746000000000E-01     -1.660000000000000E+02
4908000000.000000      6.831055000000000E-01      1.155176000000000E+01      2.694855000000000E-01     -1.663828000000000E+02
4909000000.000000      6.827087000000000E-01      1.150391000000000E+01      2.662354000000000E-01     -1.666719000000000E+02
4910000000.000000      6.844177000000000E-01      1.143359000000000E+01      2.620697000000000E-01     -1.668984000000000E+02
4911000000.000000      6.859131000000000E-01      1.134033000000000E+01      2.589111000000000E-01     -1.672109000000000E+02
4912000000.000000      6.856079000000000E-01      1.120459000000000E+01      2.552643000000000E-01     -1.674687000000000E+02
4913000000.000000      6.877747000000000E-01      1.112061000000000E+01      2.519836000000000E-01     -1.677891000000000E+02
4914000000.000000      6.879272000000000E-01      1.107129000000000E+01      2.487717000000000E-01     -1.679688000000000E+02
4915000000.000000      6.881409000000000E-01      1.083252000000000E+01      2.445984000000000E-01     -1.684453000000000E+02
4916000000.000000      6.892395000000000E-01      1.075537000000000E+01      2.409973000000000E-01     -1.686094000000000E+02
4917000000.000000      6.874390000000000E-01      1.083496000000000E+01      2.371140000000000E-01     -1.689375000000000E+02
4918000000.000000      6.884155000000000E-01      1.061816000000000E+01      2.335892000000000E-01     -1.691641000000000E+02
4919000000.000000      6.878967000000000E-01      1.059326000000000E+01      2.304001000000000E-01     -1.690781000000000E+02
4920000000.000000      6.889648000000000E-01      1.031055000000000E+01      2.260971000000000E-01     -1.697891000000000E+02
4921000000.000000      6.912231000000000E-01      1.045898000000000E+01      2.237625000000000E-01     -1.698203000000000E+02
4922000000.000000      6.908875000000000E-01      1.008789000000000E+01      2.196198000000000E-01     -1.698359000000000E+02
4923000000.000000      6.918030000000000E-01      1.026660000000000E+01      2.154999000000000E-01     -1.699141000000000E+02
4924000000.000000      6.936951000000000E-01      1.016504000000000E+01      2.117691000000000E-01     -1.703125000000000E+02
4925000000.000000      6.911926000000000E-01      1.004688000000000E+01      2.080917000000000E-01     -1.704141000000000E+02
4926000000.000000      6.910400000000000E-01      1.000293000000000E+01      2.045059000000000E-01     -1.703438000000000E+02
4927000000.000000      6.930542000000000E-01      9.725586000000000E+00      2.002182000000000E-01     -1.706016000000000E+02
4928000000.000000      6.953125000000000E-01      9.585449000000000E+00      1.972656000000000E-01     -1.707344000000000E+02
4929000000.000000      6.920776000000000E-01      9.618164000000000E+00      1.928558000000000E-01     -1.707187000000000E+02
4930000000.000000      6.954346000000000E-01      9.467285000000000E+00      1.893845000000000E-01     -1.707266000000000E+02
4931000000.000000      6.951599000000000E-01      9.497559000000000E+00      1.862488000000000E-01     -1.705937000000000E+02
4932000000.000000      6.958618000000000E-01      9.335449000000000E+00      1.816711000000000E-01     -1.706953000000000E+02
4933000000.000000      6.954651000000000E-01      9.121094000000000E+00      1.776352000000000E-01     -1.703750000000000E+02
4934000000.000000      6.965942000000000E-01      9.066406000000000E+00      1.746140000000000E-01     -1.704297000000000E+02
4935000000.000000      6.993103000000000E-01      9.030762000000000E+00      1.713104000000000E-01     -1.701015000000000E+02
4936000000.000000      6.939697000000000E-01      8.853516000000000E+00      1.670761000000000E-01     -1.699687000000000E+02
4937000000.000000      6.976929000000000E-01      8.732422000000000E+00      1.635056000000000E-01     -1.697813000000000E+02
4938000000.000000      6.960144000000000E-01      8.758789000000000E+00      1.601791000000000E-01     -1.692656000000000E+02
4939000000.000000      6.984253000000000E-01      8.735352000000000E+00      1.562271000000000E-01     -1.690391000000000E+02
4940000000.000000      7.006836000000000E-01      8.577148000000000E+00      1.522064000000000E-01     -1.685859000000000E+02
4941000000.000000      7.002258000000000E-01      8.493652000000000E+00      1.491318000000000E-01     -1.679766000000000E+02
4942000000.000000      6.987915000000000E-01      8.356445000000000E+00      1.454849000000000E-01     -1.676563000000000E+02
4943000000.000000      7.029114000000000E-01      8.361816000000000E+00      1.429291000000000E-01     -1.667812000000000E+02
4944000000.000000      6.999512000000000E-01      7.999268000000000E+00      1.394806000000000E-01     -1.663516000000000E+02
4945000000.000000      7.011108000000000E-01      8.000488000000000E+00      1.358337000000000E-01     -1.653906000000000E+02
4946000000.000000      7.026978000000000E-01      7.857910000000000E+00      1.328354000000000E-01     -1.646563000000000E+02
4947000000.000000      7.034607000000000E-01      7.896240000000000E+00      1.299438000000000E-01     -1.637969000000000E+02
4948000000.000000      7.036133000000000E-01      7.809814000000000E+00      1.266861000000000E-01     -1.625781000000000E+02
4949000000.000000      7.011108000000000E-01      7.481689000000000E+00      1.241837000000000E-01     -1.614687000000000E+02
4950000000.000000      7.024841000000000E-01      7.513184000000000E+00      1.219368000000000E-01     -1.604844000000000E+02
4951000000.000000      7.048645000000000E-01      7.456787000000000E+00      1.192780000000000E-01     -1.593828000000000E+02
4952000000.000000      7.061462000000000E-01      7.311279000000000E+00      1.167412000000000E-01     -1.579453000000000E+02
4953000000.000000      7.044067000000000E-01      7.109375000000000E+00      1.150475000000000E-01     -1.564922000000000E+02
4954000000.000000      7.062988000000000E-01      7.172607000000000E+00      1.128922000000000E-01     -1.551719000000000E+02
