! Network Analyzer HP8722D
! Hewlett-Packard
! Data name: Linha & Wilkinson
! Saver's name: Rodrigo Anjos
! Comments: Teste da utilização de aquisição
continua pelo VNA HP8722D
! Time and date: 22/5/2025 14:00
!              Frequency                     S11                                                   S21                                                   S12                                                   S22
# HZ  S  MA R 50
4800000000.000000      6.527405000000000E-01      1.094336000000000E+01      4.717560000000000E-01     -9.225000000000000E+01
4801000000.000000      6.508179000000000E-01      1.095166000000000E+01      4.721527000000000E-01     -9.297266000000000E+01
4802000000.000000      6.497803000000000E-01      1.081299000000000E+01      4.734955000000000E-01     -9.380468000000000E+01
4803000000.000000      6.463318000000000E-01      1.091309000000000E+01      4.782562000000000E-01     -9.423437000000000E+01
4804000000.000000      6.439819000000000E-01      1.098047000000000E+01      4.773865000000000E-01     -9.521093000000000E+01
4805000000.000000      6.459656000000000E-01      1.088037000000000E+01      4.794922000000000E-01     -9.593750000000000E+01
4806000000.000000      6.429749000000000E-01      1.074854000000000E+01      4.819183000000000E-01     -9.672655000000000E+01
4807000000.000000      6.406250000000000E-01      1.079541000000000E+01      4.824371000000000E-01     -9.775780000000000E+01
4808000000.000000      6.381531000000000E-01      1.075684000000000E+01      4.834747000000000E-01     -9.830467000000000E+01
4809000000.000000      6.364746000000000E-01      1.095850000000000E+01      4.863281000000000E-01     -9.918358000000000E+01
4810000000.000000      6.347046000000000E-01      1.089941000000000E+01      4.873352000000000E-01     -9.967577000000000E+01
4811000000.000000      6.341248000000000E-01      1.102734000000000E+01      4.887848000000000E-01     -1.005703000000000E+02
4812000000.000000      6.336670000000000E-01      1.115381000000000E+01      4.897614000000000E-01     -1.013867000000000E+02
4813000000.000000      6.323853000000000E-01      1.113428000000000E+01      4.900055000000000E-01     -1.020273000000000E+02
4814000000.000000      6.285706000000000E-01      1.112891000000000E+01      4.925385000000000E-01     -1.025547000000000E+02
4815000000.000000      6.292419000000000E-01      1.124170000000000E+01      4.929504000000000E-01     -1.034844000000000E+02
4816000000.000000      6.274719000000000E-01      1.123486000000000E+01      4.938354000000000E-01     -1.042266000000000E+02
4817000000.000000      6.243591000000000E-01      1.143359000000000E+01      4.943542000000000E-01     -1.050742000000000E+02
4818000000.000000      6.240540000000000E-01      1.148438000000000E+01      4.937897000000000E-01     -1.057969000000000E+02
4819000000.000000      6.224060000000000E-01      1.148193000000000E+01      4.942169000000000E-01     -1.064961000000000E+02
4820000000.000000      6.206055000000000E-01      1.176221000000000E+01      4.951630000000000E-01     -1.072227000000000E+02
4821000000.000000      6.222839000000000E-01      1.155859000000000E+01      4.971161000000000E-01     -1.079140000000000E+02
4822000000.000000      6.188049000000000E-01      1.159863000000000E+01      4.955139000000000E-01     -1.087226000000000E+02
4823000000.000000      6.202393000000000E-01      1.175781000000000E+01      4.976807000000000E-01     -1.096250000000000E+02
4824000000.000000      6.173096000000000E-01      1.209277000000000E+01      4.981232000000000E-01     -1.102773000000000E+02
4825000000.000000      6.170654000000000E-01      1.198438000000000E+01      4.985199000000000E-01     -1.110195000000000E+02
4826000000.000000      6.164246000000000E-01      1.200781000000000E+01      4.990234000000000E-01     -1.119765000000000E+02
4827000000.000000      6.159668000000000E-01      1.227002000000000E+01      4.986420000000000E-01     -1.125547000000000E+02
4828000000.000000      6.162109000000000E-01      1.233203000000000E+01      5.002747000000000E-01     -1.133594000000000E+02
4829000000.000000      6.147766000000000E-01      1.257617000000000E+01      5.000000000000000E-01     -1.138789000000000E+02
4830000000.000000      6.143799000000000E-01      1.258447000000000E+01      4.989319000000000E-01     -1.148789000000000E+02
4831000000.000000      6.152954000000000E-01      1.260107000000000E+01      4.996796000000000E-01     -1.156914000000000E+02
4832000000.000000      6.136780000000000E-01      1.290039000000000E+01      5.004272000000000E-01     -1.162383000000000E+02
4833000000.000000      6.134644000000000E-01      1.284131000000000E+01      4.985962000000000E-01     -1.170508000000000E+02
4834000000.000000      6.132202000000000E-01      1.297754000000000E+01      5.004883000000000E-01     -1.179570000000000E+02
4835000000.000000      6.154480000000000E-01      1.312012000000000E+01      4.989319000000000E-01     -1.186758000000000E+02
4836000000.000000      6.136169000000000E-01      1.343994000000000E+01      4.972076000000000E-01     -1.194336000000000E+02
4837000000.000000      6.126099000000000E-01      1.348535000000000E+01      4.981232000000000E-01     -1.204180000000000E+02
4838000000.000000      6.122131000000000E-01      1.338135000000000E+01      4.981689000000000E-01     -1.208203000000000E+02
4839000000.000000      6.166687000000000E-01      1.370117000000000E+01      4.986420000000000E-01     -1.217422000000000E+02
4840000000.000000      6.157532000000000E-01      1.349512000000000E+01      4.981689000000000E-01     -1.224961000000000E+02
4841000000.000000      6.142578000000000E-01      1.390723000000000E+01      4.977417000000000E-01     -1.234492000000000E+02
4842000000.000000      6.155090000000000E-01      1.383545000000000E+01      4.966125000000000E-01     -1.241406000000000E+02
4843000000.000000      6.182251000000000E-01      1.401416000000000E+01      4.961395000000000E-01     -1.250469000000000E+02
4844000000.000000      6.155396000000000E-01      1.402637000000000E+01      4.941254000000000E-01     -1.259727000000000E+02
4845000000.000000      6.180115000000000E-01      1.413916000000000E+01      4.940796000000000E-01     -1.266758000000000E+02
4846000000.000000      6.191711000000000E-01      1.420801000000000E+01      4.930267000000000E-01     -1.274375000000000E+02
4847000000.000000      6.184998000000000E-01      1.423535000000000E+01      4.918060000000000E-01     -1.282266000000000E+02
4848000000.000000      6.209106000000000E-01      1.428320000000000E+01      4.883575000000000E-01     -1.292422000000000E+02
4849000000.000000      6.211243000000000E-01      1.442480000000000E+01      4.877930000000000E-01     -1.299141000000000E+02
4850000000.000000      6.225281000000000E-01      1.449463000000000E+01      4.867859000000000E-01     -1.308281000000000E+02
4851000000.000000      6.216125000000000E-01      1.457715000000000E+01      4.863434000000000E-01     -1.316172000000000E+02
4852000000.000000      6.218567000000000E-01      1.460059000000000E+01      4.833527000000000E-01     -1.325234000000000E+02
4853000000.000000      6.257324000000000E-01      1.471045000000000E+01      4.815979000000000E-01     -1.333750000000000E+02
4854000000.000000      6.256714000000000E-01      1.473242000000000E+01      4.781342000000000E-01     -1.342656000000000E+02
4855000000.000000      6.253357000000000E-01      1.474609000000000E+01      4.775848000000000E-01     -1.351016000000000E+02
4856000000.000000      6.283264000000000E-01      1.481201000000000E+01      4.746704000000000E-01     -1.360391000000000E+02
4857000000.000000      6.305542000000000E-01      1.496582000000000E+01      4.737244000000000E-01     -1.368515000000000E+02
4858000000.000000      6.307068000000000E-01      1.480127000000000E+01      4.705963000000000E-01     -1.376484000000000E+02
4859000000.000000      6.304016000000000E-01      1.491211000000000E+01      4.670563000000000E-01     -1.385859000000000E+02
4860000000.000000      6.306763000000000E-01      1.501416000000000E+01      4.633636000000000E-01     -1.394297000000000E+02
4861000000.000000      6.328735000000000E-01      1.496045000000000E+01      4.615784000000000E-01     -1.402109000000000E+02
4862000000.000000      6.343079000000000E-01      1.491211000000000E+01      4.587555000000000E-01     -1.408750000000000E+02
4863000000.000000      6.350708000000000E-01      1.494531000000000E+01      4.547882000000000E-01     -1.419922000000000E+02
4864000000.000000      6.372681000000000E-01      1.507715000000000E+01      4.517517000000000E-01     -1.427031000000000E+02
4865000000.000000      6.355591000000000E-01      1.500732000000000E+01      4.478607000000000E-01     -1.434141000000000E+02
4866000000.000000      6.387634000000000E-01      1.491797000000000E+01      4.436646000000000E-01     -1.442656000000000E+02
4867000000.000000      6.387024000000000E-01      1.497119000000000E+01      4.401703000000000E-01     -1.452422000000000E+02
4868000000.000000      6.408997000000000E-01      1.495508000000000E+01      4.358215000000000E-01     -1.459297000000000E+02
4869000000.000000      6.439514000000000E-01      1.487109000000000E+01      4.329376000000000E-01     -1.467656000000000E+02
4870000000.000000      6.448059000000000E-01      1.500293000000000E+01      4.289703000000000E-01     -1.472188000000000E+02
4871000000.000000      6.452026000000000E-01      1.487646000000000E+01      4.247131000000000E-01     -1.481719000000000E+02
4872000000.000000      6.491394000000000E-01      1.495752000000000E+01      4.206848000000000E-01     -1.487187000000000E+02
4873000000.000000      6.503906000000000E-01      1.488770000000000E+01      4.145203000000000E-01     -1.496562000000000E+02
4874000000.000000      6.487122000000000E-01      1.493164000000000E+01      4.115601000000000E-01     -1.502812000000000E+02
4875000000.000000      6.505127000000000E-01      1.477100000000000E+01      4.067383000000000E-01     -1.508984000000000E+02
4876000000.000000      6.515808000000000E-01      1.474072000000000E+01      4.035187000000000E-01     -1.515312000000000E+02
4877000000.000000      6.544800000000000E-01      1.467773000000000E+01      3.989258000000000E-01     -1.523750000000000E+02
4878000000.000000      6.527405000000000E-01      1.465820000000000E+01      3.926086000000000E-01     -1.528984000000000E+02
4879000000.000000      6.568298000000000E-01      1.469971000000000E+01      3.877869000000000E-01     -1.533516000000000E+02
4880000000.000000      6.575317000000000E-01      1.446582000000000E+01      3.846893000000000E-01     -1.540625000000000E+02
4881000000.000000      6.597595000000000E-01      1.448242000000000E+01      3.809357000000000E-01     -1.543828000000000E+02
4882000000.000000      6.592712000000000E-01      1.442188000000000E+01      3.762665000000000E-01     -1.552109000000000E+02
4883000000.000000      6.589050000000000E-01      1.436182000000000E+01      3.713684000000000E-01     -1.558750000000000E+02
4884000000.000000      6.606750000000000E-01      1.445654000000000E+01      3.677216000000000E-01     -1.565625000000000E+02
4885000000.000000      6.641235000000000E-01      1.447021000000000E+01      3.622894000000000E-01     -1.564297000000000E+02
4886000000.000000      6.641235000000000E-01      1.423926000000000E+01      3.589935000000000E-01     -1.572891000000000E+02
4887000000.000000      6.647644000000000E-01      1.420801000000000E+01      3.549042000000000E-01     -1.577891000000000E+02
4888000000.000000      6.664734000000000E-01      1.409668000000000E+01      3.501587000000000E-01     -1.581719000000000E+02
4889000000.000000      6.670837000000000E-01      1.401855000000000E+01      3.455963000000000E-01     -1.586875000000000E+02
4890000000.000000      6.661682000000000E-01      1.391650000000000E+01      3.405762000000000E-01     -1.595234000000000E+02
4891000000.000000      6.684265000000000E-01      1.372168000000000E+01      3.382568000000000E-01     -1.595312000000000E+02
4892000000.000000      6.705017000000000E-01      1.371338000000000E+01      3.326263000000000E-01     -1.600312000000000E+02
4893000000.000000      6.713562000000000E-01      1.372559000000000E+01      3.297272000000000E-01     -1.606406000000000E+02
4894000000.000000      6.721497000000000E-01      1.352930000000000E+01      3.255463000000000E-01     -1.609297000000000E+02
4895000000.000000      6.747437000000000E-01      1.338818000000000E+01      3.210144000000000E-01     -1.611406000000000E+02
4896000000.000000      6.738892000000000E-01      1.326172000000000E+01      3.183899000000000E-01     -1.615391000000000E+02
4897000000.000000      6.769714000000000E-01      1.340430000000000E+01      3.131866000000000E-01     -1.619609000000000E+02
4898000000.000000      6.757202000000000E-01      1.307617000000000E+01      3.097534000000000E-01     -1.622969000000000E+02
4899000000.000000      6.765747000000000E-01      1.315039000000000E+01      3.063202000000000E-01     -1.627812000000000E+02
4900000000.000000      6.781616000000000E-01      1.294873000000000E+01      3.028259000000000E-01     -1.630078000000000E+02
4901000000.000000      6.814270000000000E-01      1.294873000000000E+01      2.988892000000000E-01     -1.633125000000000E+02
4902000000.000000      6.786804000000000E-01      1.289893000000000E+01      2.960663000000000E-01     -1.637422000000000E+02
4903000000.000000      6.788330000000000E-01      1.280859000000000E+01      2.913971000000000E-01     -1.641406000000000E+02
4904000000.000000      6.810913000000000E-01      1.239502000000000E+01      2.876282000000000E-01     -1.643750000000000E+02
4905000000.000000      6.811218000000000E-01      1.241553000000000E+01      2.849274000000000E-01     -1.648516000000000E+02
4906000000.000000      6.819458000000000E-01      1.231689000000000E+01      2.810211000000000E-01     -1.649297000000000E+02
4907000000.000000      6.828003000000000E-01      1.237158000000000E+01      2.781525000000000E-01     -1.654219000000000E+02
4908000000.000000      6.843262000000000E-01      1.198193000000000E+01      2.748413000000000E-01     -1.657031000000000E+02
4909000000.000000      6.851501000000000E-01      1.220557000000000E+01      2.714691000000000E-01     -1.661719000000000E+02
4910000000.000000      6.836548000000000E-01      1.206299000000000E+01      2.677307000000000E-01     -1.662891000000000E+02
4911000000.000000      6.849365000000000E-01      1.192383000000000E+01      2.636719000000000E-01     -1.665859000000000E+02
4912000000.000000      6.882935000000000E-01      1.197217000000000E+01      2.601471000000000E-01     -1.671797000000000E+02
4913000000.000000      6.867676000000000E-01      1.176465000000000E+01      2.570038000000000E-01     -1.673672000000000E+02
4914000000.000000      6.888428000000000E-01      1.145703000000000E+01      2.534027000000000E-01     -1.675156000000000E+02
4915000000.000000      6.894836000000000E-01      1.156543000000000E+01      2.493896000000000E-01     -1.680938000000000E+02
4916000000.000000      6.885071000000000E-01      1.131982000000000E+01      2.458649000000000E-01     -1.681719000000000E+02
4917000000.000000      6.897583000000000E-01      1.116992000000000E+01      2.424622000000000E-01     -1.684766000000000E+02
4918000000.000000      6.903992000000000E-01      1.109619000000000E+01      2.386780000000000E-01     -1.688281000000000E+02
4919000000.000000      6.875610000000000E-01      1.100684000000000E+01      2.357788000000000E-01     -1.686875000000000E+02
4920000000.000000      6.922302000000000E-01      1.093945000000000E+01      2.318115000000000E-01     -1.694062000000000E+02
4921000000.000000      6.912231000000000E-01      1.097656000000000E+01      2.284851000000000E-01     -1.693516000000000E+02
4922000000.000000      6.920776000000000E-01      1.093652000000000E+01      2.248840000000000E-01     -1.695625000000000E+02
4923000000.000000      6.916809000000000E-01      1.074463000000000E+01      2.204742000000000E-01     -1.698984000000000E+02
4924000000.000000      6.922607000000000E-01      1.075391000000000E+01      2.163315000000000E-01     -1.701172000000000E+02
4925000000.000000      6.918945000000000E-01      1.063867000000000E+01      2.133942000000000E-01     -1.702734000000000E+02
4926000000.000000      6.937561000000000E-01      1.063574000000000E+01      2.098923000000000E-01     -1.704375000000000E+02
4927000000.000000      6.940308000000000E-01      1.031592000000000E+01      2.050629000000000E-01     -1.706719000000000E+02
4928000000.000000      6.948242000000000E-01      1.016602000000000E+01      2.021561000000000E-01     -1.706640000000000E+02
4929000000.000000      6.947021000000000E-01      1.025391000000000E+01      1.978989000000000E-01     -1.706953000000000E+02
4930000000.000000      6.962585000000000E-01      1.013477000000000E+01      1.947250000000000E-01     -1.708984000000000E+02
4931000000.000000      6.963196000000000E-01      9.965820000000000E+00      1.908646000000000E-01     -1.709297000000000E+02
4932000000.000000      6.962280000000000E-01      9.699219000000000E+00      1.868286000000000E-01     -1.708594000000000E+02
4933000000.000000      6.965942000000000E-01      9.640137000000000E+00      1.824875000000000E-01     -1.705703000000000E+02
4934000000.000000      6.995544000000000E-01      9.586914000000000E+00      1.796341000000000E-01     -1.708906000000000E+02
4935000000.000000      7.003784000000000E-01      9.493164000000000E+00      1.754303000000000E-01     -1.704453000000000E+02
4936000000.000000      6.958313000000000E-01      9.346191000000000E+00      1.717377000000000E-01     -1.703359000000000E+02
4937000000.000000      6.983948000000000E-01      9.382324000000000E+00      1.680527000000000E-01     -1.702578000000000E+02
4938000000.000000      6.986389000000000E-01      9.292969000000000E+00      1.641693000000000E-01     -1.699844000000000E+02
4939000000.000000      6.985779000000000E-01      9.283203000000000E+00      1.608200000000000E-01     -1.696953000000000E+02
4940000000.000000      7.007446000000000E-01      9.221191000000000E+00      1.564026000000000E-01     -1.695703000000000E+02
4941000000.000000      7.005920000000000E-01      8.980957000000000E+00      1.531754000000000E-01     -1.687891000000000E+02
4942000000.000000      6.999207000000000E-01      8.787598000000000E+00      1.499176000000000E-01     -1.684531000000000E+02
4943000000.000000      7.019958000000000E-01      8.939941000000000E+00      1.461258000000000E-01     -1.680078000000000E+02
4944000000.000000      7.033997000000000E-01      8.615723000000000E+00      1.431885000000000E-01     -1.674453000000000E+02
4945000000.000000      7.041321000000000E-01      8.551270000000000E+00      1.390915000000000E-01     -1.668516000000000E+02
4946000000.000000      7.034302000000000E-01      8.507324000000000E+00      1.361237000000000E-01     -1.659219000000000E+02
4947000000.000000      7.041016000000000E-01      8.328613000000000E+00      1.327667000000000E-01     -1.652734000000000E+02
4948000000.000000      7.054138000000000E-01      8.354980000000000E+00      1.300583000000000E-01     -1.642812000000000E+02
4949000000.000000      7.030334000000000E-01      8.287598000000000E+00      1.273727000000000E-01     -1.630703000000000E+02
4950000000.000000      7.057800000000000E-01      8.205078000000000E+00      1.243019000000000E-01     -1.620781000000000E+02
4951000000.000000      7.051086000000000E-01      7.968994000000000E+00      1.215096000000000E-01     -1.612890000000000E+02
4952000000.000000      7.064209000000000E-01      7.921143000000000E+00      1.185608000000000E-01     -1.598906000000000E+02
4953000000.000000      7.073975000000000E-01      7.846924000000000E+00      1.166153000000000E-01     -1.583672000000000E+02
4954000000.000000      7.094116000000000E-01      7.791992000000000E+00      1.142044000000000E-01     -1.571563000000000E+02
