! Network Analyzer HP8722D
! Hewlett-Packard
! Data name: Linha & Wilkinson
! Saver's name: Rodrigo Anjos
! Comments: Teste da utilização de aquisição
continua pelo VNA HP8722D
! Time and date: 22/5/2025 13:43
!              Frequency                     S11                                                   S21                                                   S12                                                   S22
# HZ  S  MA R 50
4800000000.000000      6.494751000000000E-01      1.086523000000000E+01      4.714508000000000E-01     -9.319921000000000E+01
4801000000.000000      6.479492000000000E-01      1.096289000000000E+01      4.737396000000000E-01     -9.369141000000000E+01
4802000000.000000      6.470337000000000E-01      1.086230000000000E+01      4.763031000000000E-01     -9.449610000000000E+01
4803000000.000000      6.445007000000000E-01      1.088428000000000E+01      4.787903000000000E-01     -9.523046000000000E+01
4804000000.000000      6.423950000000000E-01      1.067285000000000E+01      4.797516000000000E-01     -9.598436000000000E+01
4805000000.000000      6.427307000000000E-01      1.079248000000000E+01      4.817352000000000E-01     -9.690624000000000E+01
4806000000.000000      6.394653000000000E-01      1.090625000000000E+01      4.840393000000000E-01     -9.771873000000000E+01
4807000000.000000      6.382446000000000E-01      1.089404000000000E+01      4.833984000000000E-01     -9.839062000000000E+01
4808000000.000000      6.359558000000000E-01      1.080762000000000E+01      4.845734000000000E-01     -9.900780000000000E+01
4809000000.000000      6.354370000000000E-01      1.104639000000000E+01      4.876099000000000E-01     -9.991014000000000E+01
4810000000.000000      6.340942000000000E-01      1.089941000000000E+01      4.883118000000000E-01     -1.005039000000000E+02
4811000000.000000      6.326294000000000E-01      1.103418000000000E+01      4.892731000000000E-01     -1.012461000000000E+02
4812000000.000000      6.321106000000000E-01      1.122070000000000E+01      4.908752000000000E-01     -1.021367000000000E+02
4813000000.000000      6.308289000000000E-01      1.119873000000000E+01      4.915771000000000E-01     -1.029570000000000E+02
4814000000.000000      6.276855000000000E-01      1.119092000000000E+01      4.936218000000000E-01     -1.035000000000000E+02
4815000000.000000      6.253052000000000E-01      1.126758000000000E+01      4.920197000000000E-01     -1.044023000000000E+02
4816000000.000000      6.247864000000000E-01      1.139795000000000E+01      4.938202000000000E-01     -1.049805000000000E+02
4817000000.000000      6.232300000000000E-01      1.134033000000000E+01      4.942627000000000E-01     -1.059062000000000E+02
4818000000.000000      6.241455000000000E-01      1.147217000000000E+01      4.942627000000000E-01     -1.067617000000000E+02
4819000000.000000      6.216736000000000E-01      1.148877000000000E+01      4.941559000000000E-01     -1.075625000000000E+02
4820000000.000000      6.202698000000000E-01      1.163721000000000E+01      4.960175000000000E-01     -1.078867000000000E+02
4821000000.000000      6.203003000000000E-01      1.166992000000000E+01      4.973602000000000E-01     -1.088828000000000E+02
4822000000.000000      6.170044000000000E-01      1.180859000000000E+01      4.961700000000000E-01     -1.095859000000000E+02
4823000000.000000      6.177368000000000E-01      1.181299000000000E+01      4.977722000000000E-01     -1.104609000000000E+02
4824000000.000000      6.161804000000000E-01      1.216455000000000E+01      4.971008000000000E-01     -1.111719000000000E+02
4825000000.000000      6.162720000000000E-01      1.206152000000000E+01      4.980469000000000E-01     -1.119531000000000E+02
4826000000.000000      6.145020000000000E-01      1.197607000000000E+01      4.983368000000000E-01     -1.127070000000000E+02
4827000000.000000      6.159058000000000E-01      1.234131000000000E+01      4.989929000000000E-01     -1.133984000000000E+02
4828000000.000000      6.154785000000000E-01      1.257373000000000E+01      5.000610000000000E-01     -1.141289000000000E+02
4829000000.000000      6.156616000000000E-01      1.264502000000000E+01      4.987488000000000E-01     -1.147852000000000E+02
4830000000.000000      6.154480000000000E-01      1.268213000000000E+01      4.993286000000000E-01     -1.156914000000000E+02
4831000000.000000      6.143799000000000E-01      1.271240000000000E+01      4.990845000000000E-01     -1.164297000000000E+02
4832000000.000000      6.119080000000000E-01      1.302393000000000E+01      4.976196000000000E-01     -1.171250000000000E+02
4833000000.000000      6.133728000000000E-01      1.305029000000000E+01      4.982300000000000E-01     -1.178164000000000E+02
4834000000.000000      6.135559000000000E-01      1.308447000000000E+01      4.987183000000000E-01     -1.186016000000000E+02
4835000000.000000      6.146240000000000E-01      1.321338000000000E+01      4.982605000000000E-01     -1.195195000000000E+02
4836000000.000000      6.136169000000000E-01      1.326172000000000E+01      4.968262000000000E-01     -1.202031000000000E+02
4837000000.000000      6.132813000000000E-01      1.348975000000000E+01      4.957428000000000E-01     -1.211250000000000E+02
4838000000.000000      6.133728000000000E-01      1.362988000000000E+01      4.962463000000000E-01     -1.217148000000000E+02
4839000000.000000      6.172180000000000E-01      1.370117000000000E+01      4.949646000000000E-01     -1.224883000000000E+02
4840000000.000000      6.166687000000000E-01      1.357910000000000E+01      4.962006000000000E-01     -1.234414000000000E+02
4841000000.000000      6.141968000000000E-01      1.398535000000000E+01      4.946136000000000E-01     -1.242695000000000E+02
4842000000.000000      6.160583000000000E-01      1.391260000000000E+01      4.948730000000000E-01     -1.250664000000000E+02
4843000000.000000      6.181946000000000E-01      1.397461000000000E+01      4.936523000000000E-01     -1.259258000000000E+02
4844000000.000000      6.169434000000000E-01      1.409375000000000E+01      4.934692000000000E-01     -1.266211000000000E+02
4845000000.000000      6.181335000000000E-01      1.415283000000000E+01      4.913177000000000E-01     -1.274141000000000E+02
4846000000.000000      6.200256000000000E-01      1.443164000000000E+01      4.913025000000000E-01     -1.283125000000000E+02
4847000000.000000      6.213074000000000E-01      1.442090000000000E+01      4.900208000000000E-01     -1.290390000000000E+02
4848000000.000000      6.182556000000000E-01      1.440283000000000E+01      4.868469000000000E-01     -1.301406000000000E+02
4849000000.000000      6.206360000000000E-01      1.442334000000000E+01      4.865112000000000E-01     -1.309453000000000E+02
4850000000.000000      6.217957000000000E-01      1.460449000000000E+01      4.845276000000000E-01     -1.315703000000000E+02
4851000000.000000      6.242371000000000E-01      1.471191000000000E+01      4.841156000000000E-01     -1.327031000000000E+02
4852000000.000000      6.252441000000000E-01      1.481738000000000E+01      4.809418000000000E-01     -1.332578000000000E+02
4853000000.000000      6.262512000000000E-01      1.488086000000000E+01      4.776917000000000E-01     -1.342422000000000E+02
4854000000.000000      6.265869000000000E-01      1.471582000000000E+01      4.761810000000000E-01     -1.352031000000000E+02
4855000000.000000      6.271057000000000E-01      1.485352000000000E+01      4.743652000000000E-01     -1.359766000000000E+02
4856000000.000000      6.272888000000000E-01      1.493018000000000E+01      4.721069000000000E-01     -1.367734000000000E+02
4857000000.000000      6.301880000000000E-01      1.509766000000000E+01      4.700775000000000E-01     -1.375234000000000E+02
4858000000.000000      6.307373000000000E-01      1.495215000000000E+01      4.672089000000000E-01     -1.386875000000000E+02
4859000000.000000      6.316528000000000E-01      1.493555000000000E+01      4.647522000000000E-01     -1.392812000000000E+02
4860000000.000000      6.311646000000000E-01      1.508545000000000E+01      4.615631000000000E-01     -1.402109000000000E+02
4861000000.000000      6.346436000000000E-01      1.493848000000000E+01      4.580841000000000E-01     -1.411562000000000E+02
4862000000.000000      6.343689000000000E-01      1.509619000000000E+01      4.545593000000000E-01     -1.418984000000000E+02
4863000000.000000      6.365662000000000E-01      1.510986000000000E+01      4.504700000000000E-01     -1.428047000000000E+02
4864000000.000000      6.375732000000000E-01      1.509766000000000E+01      4.482727000000000E-01     -1.434531000000000E+02
4865000000.000000      6.383057000000000E-01      1.497803000000000E+01      4.440460000000000E-01     -1.441953000000000E+02
4866000000.000000      6.393433000000000E-01      1.493848000000000E+01      4.398346000000000E-01     -1.450312000000000E+02
4867000000.000000      6.399231000000000E-01      1.504980000000000E+01      4.361267000000000E-01     -1.459766000000000E+02
4868000000.000000      6.418457000000000E-01      1.505664000000000E+01      4.317017000000000E-01     -1.468047000000000E+02
4869000000.000000      6.431580000000000E-01      1.506201000000000E+01      4.278717000000000E-01     -1.473984000000000E+02
4870000000.000000      6.434326000000000E-01      1.488916000000000E+01      4.225769000000000E-01     -1.480000000000000E+02
4871000000.000000      6.470032000000000E-01      1.478320000000000E+01      4.186249000000000E-01     -1.488672000000000E+02
4872000000.000000      6.477966000000000E-01      1.493164000000000E+01      4.154663000000000E-01     -1.494922000000000E+02
4873000000.000000      6.499023000000000E-01      1.479541000000000E+01      4.103546000000000E-01     -1.500234000000000E+02
4874000000.000000      6.512146000000000E-01      1.481348000000000E+01      4.059296000000000E-01     -1.510391000000000E+02
4875000000.000000      6.526794000000000E-01      1.467773000000000E+01      4.017639000000000E-01     -1.514453000000000E+02
4876000000.000000      6.539307000000000E-01      1.468311000000000E+01      3.987579000000000E-01     -1.522578000000000E+02
4877000000.000000      6.533203000000000E-01      1.456494000000000E+01      3.934631000000000E-01     -1.530156000000000E+02
4878000000.000000      6.544495000000000E-01      1.452930000000000E+01      3.888397000000000E-01     -1.533828000000000E+02
4879000000.000000      6.553345000000000E-01      1.445801000000000E+01      3.844604000000000E-01     -1.539219000000000E+02
4880000000.000000      6.576233000000000E-01      1.447168000000000E+01      3.794556000000000E-01     -1.545391000000000E+02
4881000000.000000      6.590271000000000E-01      1.453467000000000E+01      3.753357000000000E-01     -1.551719000000000E+02
4882000000.000000      6.610107000000000E-01      1.434814000000000E+01      3.720856000000000E-01     -1.556797000000000E+02
4883000000.000000      6.617432000000000E-01      1.436426000000000E+01      3.659210000000000E-01     -1.563984000000000E+02
4884000000.000000      6.633606000000000E-01      1.437256000000000E+01      3.617706000000000E-01     -1.567734000000000E+02
4885000000.000000      6.633911000000000E-01      1.425732000000000E+01      3.587036000000000E-01     -1.570859000000000E+02
4886000000.000000      6.655579000000000E-01      1.403467000000000E+01      3.552246000000000E-01     -1.576250000000000E+02
4887000000.000000      6.657410000000000E-01      1.404443000000000E+01      3.505859000000000E-01     -1.582969000000000E+02
4888000000.000000      6.677551000000000E-01      1.385205000000000E+01      3.467255000000000E-01     -1.586875000000000E+02
4889000000.000000      6.678162000000000E-01      1.376709000000000E+01      3.407288000000000E-01     -1.590156000000000E+02
4890000000.000000      6.688538000000000E-01      1.363232000000000E+01      3.353424000000000E-01     -1.597031000000000E+02
4891000000.000000      6.681213000000000E-01      1.377393000000000E+01      3.327179000000000E-01     -1.600703000000000E+02
4892000000.000000      6.695557000000000E-01      1.350732000000000E+01      3.278351000000000E-01     -1.602344000000000E+02
4893000000.000000      6.710510000000000E-01      1.334814000000000E+01      3.247528000000000E-01     -1.608594000000000E+02
4894000000.000000      6.723022000000000E-01      1.352246000000000E+01      3.206177000000000E-01     -1.613672000000000E+02
4895000000.000000      6.756287000000000E-01      1.327002000000000E+01      3.182068000000000E-01     -1.615703000000000E+02
4896000000.000000      6.757507000000000E-01      1.323535000000000E+01      3.131714000000000E-01     -1.620000000000000E+02
4897000000.000000      6.739807000000000E-01      1.314209000000000E+01      3.091583000000000E-01     -1.623750000000000E+02
4898000000.000000      6.771240000000000E-01      1.317920000000000E+01      3.059692000000000E-01     -1.626406000000000E+02
4899000000.000000      6.773682000000000E-01      1.289648000000000E+01      3.019257000000000E-01     -1.630078000000000E+02
4900000000.000000      6.790771000000000E-01      1.274658000000000E+01      2.981262000000000E-01     -1.634531000000000E+02
4901000000.000000      6.806335000000000E-01      1.275342000000000E+01      2.948151000000000E-01     -1.636719000000000E+02
4902000000.000000      6.809082000000000E-01      1.273145000000000E+01      2.916260000000000E-01     -1.639453000000000E+02
4903000000.000000      6.802063000000000E-01      1.261230000000000E+01      2.869873000000000E-01     -1.643125000000000E+02
4904000000.000000      6.838989000000000E-01      1.238281000000000E+01      2.834473000000000E-01     -1.646563000000000E+02
4905000000.000000      6.815491000000000E-01      1.225488000000000E+01      2.810364000000000E-01     -1.650234000000000E+02
4906000000.000000      6.814880000000000E-01      1.217822000000000E+01      2.768555000000000E-01     -1.650703000000000E+02
4907000000.000000      6.830139000000000E-01      1.225781000000000E+01      2.742462000000000E-01     -1.656016000000000E+02
4908000000.000000      6.836548000000000E-01      1.201172000000000E+01      2.708130000000000E-01     -1.659375000000000E+02
4909000000.000000      6.836243000000000E-01      1.183350000000000E+01      2.665863000000000E-01     -1.662969000000000E+02
4910000000.000000      6.859436000000000E-01      1.188574000000000E+01      2.631226000000000E-01     -1.665156000000000E+02
4911000000.000000      6.860046000000000E-01      1.177832000000000E+01      2.593994000000000E-01     -1.668281000000000E+02
4912000000.000000      6.877747000000000E-01      1.175537000000000E+01      2.564545000000000E-01     -1.672812000000000E+02
4913000000.000000      6.888733000000000E-01      1.151758000000000E+01      2.527466000000000E-01     -1.675078000000000E+02
4914000000.000000      6.883545000000000E-01      1.131982000000000E+01      2.494278000000000E-01     -1.677187000000000E+02
4915000000.000000      6.876831000000000E-01      1.142285000000000E+01      2.459106000000000E-01     -1.681250000000000E+02
4916000000.000000      6.877747000000000E-01      1.123486000000000E+01      2.427063000000000E-01     -1.683437000000000E+02
4917000000.000000      6.887817000000000E-01      1.127979000000000E+01      2.388458000000000E-01     -1.685547000000000E+02
4918000000.000000      6.900024000000000E-01      1.110156000000000E+01      2.345123000000000E-01     -1.688906000000000E+02
4919000000.000000      6.906738000000000E-01      1.113721000000000E+01      2.316589000000000E-01     -1.687656000000000E+02
4920000000.000000      6.893616000000000E-01      1.076367000000000E+01      2.273026000000000E-01     -1.692422000000000E+02
4921000000.000000      6.922913000000000E-01      1.073633000000000E+01      2.240067000000000E-01     -1.694844000000000E+02
4922000000.000000      6.923218000000000E-01      1.081055000000000E+01      2.204590000000000E-01     -1.694375000000000E+02
4923000000.000000      6.929932000000000E-01      1.061963000000000E+01      2.163467000000000E-01     -1.698594000000000E+02
4924000000.000000      6.923828000000000E-01      1.048193000000000E+01      2.125015000000000E-01     -1.701641000000000E+02
4925000000.000000      6.904602000000000E-01      1.045752000000000E+01      2.089844000000000E-01     -1.700391000000000E+02
4926000000.000000      6.933289000000000E-01      1.033105000000000E+01      2.057266000000000E-01     -1.703281000000000E+02
4927000000.000000      6.930237000000000E-01      1.008936000000000E+01      2.016068000000000E-01     -1.704219000000000E+02
4928000000.000000      6.955566000000000E-01      1.006885000000000E+01      1.982574000000000E-01     -1.704453000000000E+02
4929000000.000000      6.951599000000000E-01      9.925781000000000E+00      1.938705000000000E-01     -1.704453000000000E+02
4930000000.000000      6.940918000000000E-01      9.920410000000000E+00      1.907959000000000E-01     -1.702500000000000E+02
4931000000.000000      6.938782000000000E-01      9.829590000000000E+00      1.871490000000000E-01     -1.705937000000000E+02
4932000000.000000      6.977844000000000E-01      9.734863000000000E+00      1.830597000000000E-01     -1.704531000000000E+02
4933000000.000000      6.973572000000000E-01      9.593750000000000E+00      1.785202000000000E-01     -1.702031000000000E+02
4934000000.000000      6.981201000000000E-01      9.482422000000000E+00      1.751328000000000E-01     -1.704219000000000E+02
4935000000.000000      6.997986000000000E-01      9.404297000000000E+00      1.719666000000000E-01     -1.700781000000000E+02
4936000000.000000      6.989136000000000E-01      9.346191000000000E+00      1.678848000000000E-01     -1.698203000000000E+02
4937000000.000000      6.977844000000000E-01      9.187012000000000E+00      1.643829000000000E-01     -1.697578000000000E+02
4938000000.000000      7.003784000000000E-01      8.990723000000000E+00      1.608810000000000E-01     -1.693516000000000E+02
4939000000.000000      6.983032000000000E-01      8.948242000000000E+00      1.575851000000000E-01     -1.688828000000000E+02
4940000000.000000      7.002258000000000E-01      8.993652000000000E+00      1.533356000000000E-01     -1.689141000000000E+02
4941000000.000000      7.019958000000000E-01      8.789063000000000E+00      1.503372000000000E-01     -1.681250000000000E+02
4942000000.000000      7.007446000000000E-01      8.736816000000000E+00      1.464920000000000E-01     -1.677734000000000E+02
4943000000.000000      7.010803000000000E-01      8.591309000000000E+00      1.431656000000000E-01     -1.670625000000000E+02
4944000000.000000      7.034302000000000E-01      8.423340000000000E+00      1.398315000000000E-01     -1.665859000000000E+02
4945000000.000000      7.012939000000000E-01      8.361816000000000E+00      1.364441000000000E-01     -1.657344000000000E+02
4946000000.000000      7.044983000000000E-01      8.265625000000000E+00      1.339417000000000E-01     -1.647422000000000E+02
4947000000.000000      7.048340000000000E-01      8.091309000000000E+00      1.304932000000000E-01     -1.640938000000000E+02
4948000000.000000      7.047729000000000E-01      8.287598000000000E+00      1.279984000000000E-01     -1.631719000000000E+02
4949000000.000000      7.028503000000000E-01      8.092773000000000E+00      1.251526000000000E-01     -1.618438000000000E+02
4950000000.000000      7.076721000000000E-01      7.871582000000000E+00      1.224022000000000E-01     -1.608047000000000E+02
4951000000.000000      7.052002000000000E-01      8.014160000000000E+00      1.197472000000000E-01     -1.596953000000000E+02
4952000000.000000      7.037048000000000E-01      7.745361000000000E+00      1.173553000000000E-01     -1.583125000000000E+02
4953000000.000000      7.059937000000000E-01      7.455566000000000E+00      1.153221000000000E-01     -1.567031000000000E+02
4954000000.000000      7.049866000000000E-01      7.635498000000000E+00      1.130562000000000E-01     -1.554453000000000E+02
