! Network Analyzer HP8722D
! Hewlett-Packard
! Data name: Linha & Wilkinson
! Saver's name: Rodrigo Anjos
! Comments: Teste da utilização de aquisição
continua pelo VNA HP8722D
! Time and date: 22/5/2025 08:11
!              Frequency                     S11                                                   S21                                                   S12                                                   S22
# HZ  S  MA R 50
4800000000.000000      6.477051000000000E-01      1.032813000000000E+01      4.747925000000000E-01     -9.392578000000000E+01
4801000000.000000      6.455078000000000E-01      1.027734000000000E+01      4.761963000000000E-01     -9.441406000000000E+01
4802000000.000000      6.441956000000000E-01      1.017578000000000E+01      4.760132000000000E-01     -9.513672000000000E+01
4803000000.000000      6.424561000000000E-01      1.025684000000000E+01      4.808502000000000E-01     -9.572657000000000E+01
4804000000.000000      6.394958000000000E-01      1.030225000000000E+01      4.822388000000000E-01     -9.671875000000000E+01
4805000000.000000      6.403503000000000E-01      1.011426000000000E+01      4.835358000000000E-01     -9.762108000000000E+01
4806000000.000000      6.378174000000000E-01      1.013477000000000E+01      4.845276000000000E-01     -9.822655000000000E+01
4807000000.000000      6.341248000000000E-01      1.016602000000000E+01      4.866791000000000E-01     -9.905859000000000E+01
4808000000.000000      6.319580000000000E-01      1.028320000000000E+01      4.871979000000000E-01     -9.979687000000000E+01
4809000000.000000      6.311035000000000E-01      1.034766000000000E+01      4.897003000000000E-01     -1.006719000000000E+02
4810000000.000000      6.306152000000000E-01      1.038184000000000E+01      4.905701000000000E-01     -1.011797000000000E+02
4811000000.000000      6.304932000000000E-01      1.043115000000000E+01      4.919891000000000E-01     -1.021445000000000E+02
4812000000.000000      6.292419000000000E-01      1.052490000000000E+01      4.928131000000000E-01     -1.027266000000000E+02
4813000000.000000      6.259155000000000E-01      1.063330000000000E+01      4.942780000000000E-01     -1.036875000000000E+02
4814000000.000000      6.246033000000000E-01      1.054541000000000E+01      4.943390000000000E-01     -1.041953000000000E+02
4815000000.000000      6.237183000000000E-01      1.069238000000000E+01      4.932861000000000E-01     -1.050781000000000E+02
4816000000.000000      6.241455000000000E-01      1.071289000000000E+01      4.958191000000000E-01     -1.058672000000000E+02
4817000000.000000      6.209717000000000E-01      1.085986000000000E+01      4.958191000000000E-01     -1.065820000000000E+02
4818000000.000000      6.211548000000000E-01      1.089697000000000E+01      4.962616000000000E-01     -1.073750000000000E+02
4819000000.000000      6.204224000000000E-01      1.090381000000000E+01      4.975433000000000E-01     -1.081992000000000E+02
4820000000.000000      6.179810000000000E-01      1.098730000000000E+01      4.978790000000000E-01     -1.089375000000000E+02
4821000000.000000      6.191101000000000E-01      1.122656000000000E+01      4.986725000000000E-01     -1.097383000000000E+02
4822000000.000000      6.149902000000000E-01      1.123193000000000E+01      4.969330000000000E-01     -1.103437000000000E+02
4823000000.000000      6.153564000000000E-01      1.127588000000000E+01      4.997711000000000E-01     -1.110390000000000E+02
4824000000.000000      6.159668000000000E-01      1.152588000000000E+01      4.978943000000000E-01     -1.118359000000000E+02
4825000000.000000      6.155701000000000E-01      1.152734000000000E+01      4.994507000000000E-01     -1.125742000000000E+02
4826000000.000000      6.126404000000000E-01      1.158740000000000E+01      4.991150000000000E-01     -1.135859000000000E+02
4827000000.000000      6.159058000000000E-01      1.176904000000000E+01      4.987183000000000E-01     -1.140469000000000E+02
4828000000.000000      6.145935000000000E-01      1.173584000000000E+01      5.003662000000000E-01     -1.147070000000000E+02
4829000000.000000      6.136780000000000E-01      1.211230000000000E+01      5.003052000000000E-01     -1.155312000000000E+02
4830000000.000000      6.141052000000000E-01      1.201904000000000E+01      5.000305000000000E-01     -1.163320000000000E+02
4831000000.000000      6.119995000000000E-01      1.209717000000000E+01      5.006409000000000E-01     -1.171055000000000E+02
4832000000.000000      6.109009000000000E-01      1.245557000000000E+01      4.994202000000000E-01     -1.178281000000000E+02
4833000000.000000      6.128540000000000E-01      1.246533000000000E+01      4.990234000000000E-01     -1.185195000000000E+02
4834000000.000000      6.105652000000000E-01      1.254736000000000E+01      4.990234000000000E-01     -1.194141000000000E+02
4835000000.000000      6.122742000000000E-01      1.250635000000000E+01      4.984436000000000E-01     -1.203281000000000E+02
4836000000.000000      6.118469000000000E-01      1.286328000000000E+01      4.980316000000000E-01     -1.210039000000000E+02
4837000000.000000      6.127625000000000E-01      1.298291000000000E+01      4.977570000000000E-01     -1.220039000000000E+02
4838000000.000000      6.121216000000000E-01      1.297998000000000E+01      4.981689000000000E-01     -1.224492000000000E+02
4839000000.000000      6.161804000000000E-01      1.329053000000000E+01      4.973602000000000E-01     -1.232969000000000E+02
4840000000.000000      6.146545000000000E-01      1.295557000000000E+01      4.981995000000000E-01     -1.241992000000000E+02
4841000000.000000      6.144714000000000E-01      1.335791000000000E+01      4.956207000000000E-01     -1.250547000000000E+02
4842000000.000000      6.142578000000000E-01      1.327930000000000E+01      4.960327000000000E-01     -1.259062000000000E+02
4843000000.000000      6.183472000000000E-01      1.345117000000000E+01      4.953003000000000E-01     -1.267617000000000E+02
4844000000.000000      6.156616000000000E-01      1.354980000000000E+01      4.925842000000000E-01     -1.273359000000000E+02
4845000000.000000      6.174927000000000E-01      1.358984000000000E+01      4.929047000000000E-01     -1.281094000000000E+02
4846000000.000000      6.182556000000000E-01      1.372705000000000E+01      4.909210000000000E-01     -1.291797000000000E+02
4847000000.000000      6.196594000000000E-01      1.394434000000000E+01      4.898834000000000E-01     -1.296641000000000E+02
4848000000.000000      6.192627000000000E-01      1.388770000000000E+01      4.864349000000000E-01     -1.307031000000000E+02
4849000000.000000      6.188660000000000E-01      1.384277000000000E+01      4.861450000000000E-01     -1.316719000000000E+02
4850000000.000000      6.196594000000000E-01      1.400732000000000E+01      4.830475000000000E-01     -1.323672000000000E+02
4851000000.000000      6.215820000000000E-01      1.406934000000000E+01      4.834137000000000E-01     -1.333359000000000E+02
4852000000.000000      6.228638000000000E-01      1.396631000000000E+01      4.806976000000000E-01     -1.340469000000000E+02
4853000000.000000      6.260681000000000E-01      1.422021000000000E+01      4.770966000000000E-01     -1.348828000000000E+02
4854000000.000000      6.257629000000000E-01      1.426270000000000E+01      4.758453000000000E-01     -1.361484000000000E+02
4855000000.000000      6.251221000000000E-01      1.422021000000000E+01      4.735870000000000E-01     -1.366562000000000E+02
4856000000.000000      6.286621000000000E-01      1.412695000000000E+01      4.712067000000000E-01     -1.374375000000000E+02
4857000000.000000      6.288757000000000E-01      1.440576000000000E+01      4.694824000000000E-01     -1.382969000000000E+02
4858000000.000000      6.294250000000000E-01      1.441260000000000E+01      4.660034000000000E-01     -1.392500000000000E+02
4859000000.000000      6.308594000000000E-01      1.415967000000000E+01      4.628448000000000E-01     -1.400234000000000E+02
4860000000.000000      6.304016000000000E-01      1.449463000000000E+01      4.594269000000000E-01     -1.406875000000000E+02
4861000000.000000      6.324768000000000E-01      1.443311000000000E+01      4.573364000000000E-01     -1.417891000000000E+02
4862000000.000000      6.334534000000000E-01      1.435059000000000E+01      4.527435000000000E-01     -1.424297000000000E+02
4863000000.000000      6.359863000000000E-01      1.442773000000000E+01      4.497833000000000E-01     -1.434219000000000E+02
4864000000.000000      6.359558000000000E-01      1.427490000000000E+01      4.459839000000000E-01     -1.440781000000000E+02
4865000000.000000      6.363525000000000E-01      1.440283000000000E+01      4.416656000000000E-01     -1.447578000000000E+02
4866000000.000000      6.383667000000000E-01      1.437695000000000E+01      4.394684000000000E-01     -1.456797000000000E+02
4867000000.000000      6.381531000000000E-01      1.437549000000000E+01      4.345856000000000E-01     -1.466094000000000E+02
4868000000.000000      6.406250000000000E-01      1.426270000000000E+01      4.294586000000000E-01     -1.473203000000000E+02
4869000000.000000      6.434937000000000E-01      1.433691000000000E+01      4.272308000000000E-01     -1.480234000000000E+02
4870000000.000000      6.457214000000000E-01      1.427246000000000E+01      4.220886000000000E-01     -1.485156000000000E+02
4871000000.000000      6.448059000000000E-01      1.415967000000000E+01      4.179077000000000E-01     -1.494297000000000E+02
4872000000.000000      6.473694000000000E-01      1.404150000000000E+01      4.131470000000000E-01     -1.501484000000000E+02
4873000000.000000      6.472473000000000E-01      1.410889000000000E+01      4.091339000000000E-01     -1.509687000000000E+02
4874000000.000000      6.487122000000000E-01      1.419824000000000E+01      4.057770000000000E-01     -1.516484000000000E+02
4875000000.000000      6.515503000000000E-01      1.409375000000000E+01      4.001617000000000E-01     -1.520156000000000E+02
4876000000.000000      6.533508000000000E-01      1.395117000000000E+01      3.973694000000000E-01     -1.530000000000000E+02
4877000000.000000      6.542053000000000E-01      1.390283000000000E+01      3.918304000000000E-01     -1.536094000000000E+02
4878000000.000000      6.535645000000000E-01      1.386035000000000E+01      3.879700000000000E-01     -1.539922000000000E+02
4879000000.000000      6.563721000000000E-01      1.390039000000000E+01      3.824310000000000E-01     -1.547344000000000E+02
4880000000.000000      6.598511000000000E-01      1.384668000000000E+01      3.785553000000000E-01     -1.552344000000000E+02
4881000000.000000      6.567993000000000E-01      1.355811000000000E+01      3.740387000000000E-01     -1.557891000000000E+02
4882000000.000000      6.605530000000000E-01      1.366797000000000E+01      3.717804000000000E-01     -1.564062000000000E+02
4883000000.000000      6.617126000000000E-01      1.363770000000000E+01      3.656921000000000E-01     -1.570547000000000E+02
4884000000.000000      6.622925000000000E-01      1.370508000000000E+01      3.613434000000000E-01     -1.574297000000000E+02
4885000000.000000      6.624451000000000E-01      1.373389000000000E+01      3.573456000000000E-01     -1.576172000000000E+02
4886000000.000000      6.644592000000000E-01      1.351318000000000E+01      3.527527000000000E-01     -1.581797000000000E+02
4887000000.000000      6.653748000000000E-01      1.364063000000000E+01      3.477936000000000E-01     -1.588828000000000E+02
4888000000.000000      6.671448000000000E-01      1.325879000000000E+01      3.451843000000000E-01     -1.595391000000000E+02
4889000000.000000      6.672974000000000E-01      1.327246000000000E+01      3.387909000000000E-01     -1.596016000000000E+02
4890000000.000000      6.684875000000000E-01      1.311035000000000E+01      3.358154000000000E-01     -1.603359000000000E+02
4891000000.000000      6.693420000000000E-01      1.322754000000000E+01      3.314514000000000E-01     -1.605703000000000E+02
4892000000.000000      6.708374000000000E-01      1.307617000000000E+01      3.272858000000000E-01     -1.609453000000000E+02
4893000000.000000      6.724854000000000E-01      1.285938000000000E+01      3.249512000000000E-01     -1.617031000000000E+02
4894000000.000000      6.734009000000000E-01      1.286621000000000E+01      3.188171000000000E-01     -1.616094000000000E+02
4895000000.000000      6.737061000000000E-01      1.264795000000000E+01      3.175354000000000E-01     -1.620391000000000E+02
4896000000.000000      6.741028000000000E-01      1.258594000000000E+01      3.123474000000000E-01     -1.625781000000000E+02
4897000000.000000      6.757507000000000E-01      1.241553000000000E+01      3.083191000000000E-01     -1.627422000000000E+02
4898000000.000000      6.771545000000000E-01      1.248145000000000E+01      3.053589000000000E-01     -1.630156000000000E+02
4899000000.000000      6.786499000000000E-01      1.236328000000000E+01      3.013306000000000E-01     -1.635781000000000E+02
4900000000.000000      6.798096000000000E-01      1.201611000000000E+01      2.976074000000000E-01     -1.638203000000000E+02
4901000000.000000      6.788025000000000E-01      1.208496000000000E+01      2.940216000000000E-01     -1.640703000000000E+02
4902000000.000000      6.800232000000000E-01      1.198047000000000E+01      2.914429000000000E-01     -1.644063000000000E+02
4903000000.000000      6.809692000000000E-01      1.198975000000000E+01      2.858887000000000E-01     -1.647812000000000E+02
4904000000.000000      6.817322000000000E-01      1.181982000000000E+01      2.830048000000000E-01     -1.652187000000000E+02
4905000000.000000      6.824036000000000E-01      1.162451000000000E+01      2.801819000000000E-01     -1.655234000000000E+02
4906000000.000000      6.817017000000000E-01      1.164941000000000E+01      2.762604000000000E-01     -1.656875000000000E+02
4907000000.000000      6.834106000000000E-01      1.158350000000000E+01      2.736053000000000E-01     -1.660859000000000E+02
4908000000.000000      6.844177000000000E-01      1.140088000000000E+01      2.699127000000000E-01     -1.665625000000000E+02
4909000000.000000      6.843262000000000E-01      1.133643000000000E+01      2.655029000000000E-01     -1.666641000000000E+02
4910000000.000000      6.828308000000000E-01      1.124854000000000E+01      2.624054000000000E-01     -1.669765000000000E+02
4911000000.000000      6.844482000000000E-01      1.104785000000000E+01      2.593536000000000E-01     -1.671875000000000E+02
4912000000.000000      6.858521000000000E-01      1.116748000000000E+01      2.554474000000000E-01     -1.677422000000000E+02
4913000000.000000      6.881409000000000E-01      1.089941000000000E+01      2.522736000000000E-01     -1.679297000000000E+02
4914000000.000000      6.867981000000000E-01      1.091895000000000E+01      2.482300000000000E-01     -1.680391000000000E+02
4915000000.000000      6.872864000000000E-01      1.076074000000000E+01      2.448730000000000E-01     -1.685625000000000E+02
4916000000.000000      6.900024000000000E-01      1.070459000000000E+01      2.412949000000000E-01     -1.689609000000000E+02
4917000000.000000      6.876221000000000E-01      1.050391000000000E+01      2.379227000000000E-01     -1.688984000000000E+02
4918000000.000000      6.893616000000000E-01      1.046680000000000E+01      2.338257000000000E-01     -1.692891000000000E+02
4919000000.000000      6.885681000000000E-01      1.031885000000000E+01      2.304840000000000E-01     -1.691797000000000E+02
4920000000.000000      6.901855000000000E-01      1.025293000000000E+01      2.267075000000000E-01     -1.697344000000000E+02
4921000000.000000      6.914673000000000E-01      1.020215000000000E+01      2.235794000000000E-01     -1.699062000000000E+02
4922000000.000000      6.907959000000000E-01      1.008643000000000E+01      2.197342000000000E-01     -1.699219000000000E+02
4923000000.000000      6.925964000000000E-01      9.994629000000000E+00      2.156448000000000E-01     -1.700469000000000E+02
4924000000.000000      6.937561000000000E-01      1.002734000000000E+01      2.115021000000000E-01     -1.705469000000000E+02
4925000000.000000      6.917725000000000E-01      9.756836000000000E+00      2.082901000000000E-01     -1.705391000000000E+02
4926000000.000000      6.943359000000000E-01      9.739258000000000E+00      2.051163000000000E-01     -1.707422000000000E+02
4927000000.000000      6.930542000000000E-01      9.570313000000000E+00      2.005157000000000E-01     -1.707422000000000E+02
4928000000.000000      6.953430000000000E-01      9.484863000000000E+00      1.973343000000000E-01     -1.707344000000000E+02
4929000000.000000      6.948547000000000E-01      9.480957000000000E+00      1.932678000000000E-01     -1.707109000000000E+02
4930000000.000000      6.968994000000000E-01      9.374023000000000E+00      1.892853000000000E-01     -1.708750000000000E+02
4931000000.000000      6.967468000000000E-01      9.235352000000000E+00      1.863403000000000E-01     -1.707500000000000E+02
4932000000.000000      6.958008000000000E-01      9.129395000000000E+00      1.820831000000000E-01     -1.708047000000000E+02
4933000000.000000      6.959839000000000E-01      9.077148000000000E+00      1.780167000000000E-01     -1.704766000000000E+02
4934000000.000000      6.983032000000000E-01      8.879395000000000E+00      1.746063000000000E-01     -1.705859000000000E+02
4935000000.000000      7.009583000000000E-01      8.767090000000000E+00      1.713638000000000E-01     -1.703047000000000E+02
4936000000.000000      6.973572000000000E-01      8.673340000000000E+00      1.677322000000000E-01     -1.703281000000000E+02
4937000000.000000      6.993408000000000E-01      8.610352000000000E+00      1.638794000000000E-01     -1.698828000000000E+02
4938000000.000000      6.975098000000000E-01      8.514160000000000E+00      1.603546000000000E-01     -1.695234000000000E+02
4939000000.000000      6.990051000000000E-01      8.419434000000000E+00      1.563187000000000E-01     -1.690312000000000E+02
4940000000.000000      7.000122000000000E-01      8.341309000000000E+00      1.530151000000000E-01     -1.687500000000000E+02
4941000000.000000      7.017212000000000E-01      8.177734000000000E+00      1.493225000000000E-01     -1.683984000000000E+02
4942000000.000000      6.990967000000000E-01      8.103516000000000E+00      1.458282000000000E-01     -1.678281000000000E+02
4943000000.000000      7.014465000000000E-01      7.985596000000000E+00      1.430283000000000E-01     -1.671250000000000E+02
4944000000.000000      7.024231000000000E-01      7.846924000000000E+00      1.394043000000000E-01     -1.665000000000000E+02
4945000000.000000      7.021790000000000E-01      7.757568000000000E+00      1.357727000000000E-01     -1.657422000000000E+02
4946000000.000000      7.050781000000000E-01      7.793213000000000E+00      1.329193000000000E-01     -1.649297000000000E+02
4947000000.000000      7.008362000000000E-01      7.651855000000000E+00      1.301041000000000E-01     -1.639297000000000E+02
4948000000.000000      7.035217000000000E-01      7.587402000000000E+00      1.270370000000000E-01     -1.629219000000000E+02
4949000000.000000      7.032471000000000E-01      7.371826000000000E+00      1.244049000000000E-01     -1.614297000000000E+02
4950000000.000000      7.041321000000000E-01      7.319580000000000E+00      1.220932000000000E-01     -1.607109000000000E+02
4951000000.000000      7.059631000000000E-01      7.196045000000000E+00      1.197815000000000E-01     -1.596094000000000E+02
4952000000.000000      7.051697000000000E-01      7.224854000000000E+00      1.169090000000000E-01     -1.582266000000000E+02
4953000000.000000      7.052612000000000E-01      6.907471000000000E+00      1.154327000000000E-01     -1.565938000000000E+02
4954000000.000000      7.088928000000000E-01      6.947266000000000E+00      1.130638000000000E-01     -1.552031000000000E+02
