! Network Analyzer HP8722D
! Hewlett-Packard
! Data name: Linha & Wilkinson
! Saver's name: Rodrigo Anjos
! Comments: Teste da utilização de aquisição
continua pelo VNA HP8722D
! Time and date: 22/5/2025 14:18
!              Frequency                     S11                                                   S21                                                   S12                                                   S22
# HZ  S  MA R 50
4800000000.000000      6.522827000000000E-01      1.076074000000000E+01      4.708252000000000E-01     -9.217968000000000E+01
4801000000.000000      6.501465000000000E-01      1.089258000000000E+01      4.718323000000000E-01     -9.271875000000000E+01
4802000000.000000      6.498413000000000E-01      1.092969000000000E+01      4.731293000000000E-01     -9.337891000000000E+01
4803000000.000000      6.478271000000000E-01      1.100537000000000E+01      4.781647000000000E-01     -9.404297000000000E+01
4804000000.000000      6.460876000000000E-01      1.082129000000000E+01      4.781647000000000E-01     -9.492579000000000E+01
4805000000.000000      6.466370000000000E-01      1.084717000000000E+01      4.790802000000000E-01     -9.574219000000000E+01
4806000000.000000      6.421814000000000E-01      1.089844000000000E+01      4.807892000000000E-01     -9.641405000000000E+01
4807000000.000000      6.404419000000000E-01      1.077344000000000E+01      4.826508000000000E-01     -9.731249000000000E+01
4808000000.000000      6.368713000000000E-01      1.072803000000000E+01      4.865570000000000E-01     -9.794922000000000E+01
4809000000.000000      6.367493000000000E-01      1.095605000000000E+01      4.856567000000000E-01     -9.876171000000000E+01
4810000000.000000      6.353760000000000E-01      1.096973000000000E+01      4.887085000000000E-01     -9.961718000000000E+01
4811000000.000000      6.340027000000000E-01      1.104932000000000E+01      4.869995000000000E-01     -1.004492000000000E+02
4812000000.000000      6.353149000000000E-01      1.119775000000000E+01      4.902344000000000E-01     -1.010547000000000E+02
4813000000.000000      6.317139000000000E-01      1.098340000000000E+01      4.903412000000000E-01     -1.019414000000000E+02
4814000000.000000      6.298218000000000E-01      1.114111000000000E+01      4.930420000000000E-01     -1.025195000000000E+02
4815000000.000000      6.287537000000000E-01      1.115381000000000E+01      4.917145000000000E-01     -1.031836000000000E+02
4816000000.000000      6.268616000000000E-01      1.129102000000000E+01      4.949951000000000E-01     -1.040078000000000E+02
4817000000.000000      6.266174000000000E-01      1.126611000000000E+01      4.944305000000000E-01     -1.049961000000000E+02
4818000000.000000      6.236877000000000E-01      1.141162000000000E+01      4.948730000000000E-01     -1.053203000000000E+02
4819000000.000000      6.255798000000000E-01      1.133789000000000E+01      4.950562000000000E-01     -1.063789000000000E+02
4820000000.000000      6.206665000000000E-01      1.156543000000000E+01      4.964600000000000E-01     -1.068008000000000E+02
4821000000.000000      6.203613000000000E-01      1.157129000000000E+01      4.962616000000000E-01     -1.079102000000000E+02
4822000000.000000      6.196594000000000E-01      1.161377000000000E+01      4.959564000000000E-01     -1.085195000000000E+02
4823000000.000000      6.192932000000000E-01      1.182227000000000E+01      4.981842000000000E-01     -1.093594000000000E+02
4824000000.000000      6.189880000000000E-01      1.197607000000000E+01      4.976501000000000E-01     -1.100195000000000E+02
4825000000.000000      6.166077000000000E-01      1.203955000000000E+01      4.964600000000000E-01     -1.107734000000000E+02
4826000000.000000      6.169434000000000E-01      1.187744000000000E+01      4.977112000000000E-01     -1.117031000000000E+02
4827000000.000000      6.169434000000000E-01      1.214648000000000E+01      4.979401000000000E-01     -1.121953000000000E+02
4828000000.000000      6.167908000000000E-01      1.233594000000000E+01      4.992828000000000E-01     -1.130273000000000E+02
4829000000.000000      6.159058000000000E-01      1.261621000000000E+01      4.989777000000000E-01     -1.138437000000000E+02
4830000000.000000      6.156006000000000E-01      1.254199000000000E+01      5.003967000000000E-01     -1.146289000000000E+02
4831000000.000000      6.144104000000000E-01      1.261621000000000E+01      4.992371000000000E-01     -1.153047000000000E+02
4832000000.000000      6.150208000000000E-01      1.274414000000000E+01      4.986115000000000E-01     -1.160664000000000E+02
4833000000.000000      6.130981000000000E-01      1.273145000000000E+01      4.986572000000000E-01     -1.166133000000000E+02
4834000000.000000      6.129761000000000E-01      1.312158000000000E+01      4.987793000000000E-01     -1.177148000000000E+02
4835000000.000000      6.145935000000000E-01      1.297168000000000E+01      4.993439000000000E-01     -1.185000000000000E+02
4836000000.000000      6.147156000000000E-01      1.348535000000000E+01      4.974213000000000E-01     -1.190898000000000E+02
4837000000.000000      6.125183000000000E-01      1.346191000000000E+01      4.994049000000000E-01     -1.200430000000000E+02
4838000000.000000      6.142578000000000E-01      1.352539000000000E+01      4.990845000000000E-01     -1.204648000000000E+02
4839000000.000000      6.157532000000000E-01      1.358154000000000E+01      4.981232000000000E-01     -1.212812000000000E+02
4840000000.000000      6.152649000000000E-01      1.354980000000000E+01      4.984131000000000E-01     -1.223203000000000E+02
4841000000.000000      6.140137000000000E-01      1.382324000000000E+01      4.970245000000000E-01     -1.231055000000000E+02
4842000000.000000      6.160889000000000E-01      1.383838000000000E+01      4.972229000000000E-01     -1.239101000000000E+02
4843000000.000000      6.183777000000000E-01      1.377393000000000E+01      4.975891000000000E-01     -1.246406000000000E+02
4844000000.000000      6.177979000000000E-01      1.392480000000000E+01      4.951019000000000E-01     -1.255781000000000E+02
4845000000.000000      6.172791000000000E-01      1.420801000000000E+01      4.939880000000000E-01     -1.263203000000000E+02
4846000000.000000      6.191406000000000E-01      1.444141000000000E+01      4.945068000000000E-01     -1.271289000000000E+02
4847000000.000000      6.187134000000000E-01      1.433398000000000E+01      4.928741000000000E-01     -1.280000000000000E+02
4848000000.000000      6.178589000000000E-01      1.429980000000000E+01      4.898224000000000E-01     -1.288516000000000E+02
4849000000.000000      6.205444000000000E-01      1.429443000000000E+01      4.908447000000000E-01     -1.296953000000000E+02
4850000000.000000      6.202698000000000E-01      1.450586000000000E+01      4.879150000000000E-01     -1.305703000000000E+02
4851000000.000000      6.223755000000000E-01      1.459375000000000E+01      4.868011000000000E-01     -1.312109000000000E+02
4852000000.000000      6.228943000000000E-01      1.460742000000000E+01      4.849243000000000E-01     -1.321484000000000E+02
4853000000.000000      6.236877000000000E-01      1.461719000000000E+01      4.826660000000000E-01     -1.330156000000000E+02
4854000000.000000      6.244202000000000E-01      1.493311000000000E+01      4.794922000000000E-01     -1.340234000000000E+02
4855000000.000000      6.246948000000000E-01      1.484766000000000E+01      4.781036000000000E-01     -1.348906000000000E+02
4856000000.000000      6.271057000000000E-01      1.468555000000000E+01      4.754486000000000E-01     -1.357031000000000E+02
4857000000.000000      6.300354000000000E-01      1.495215000000000E+01      4.748230000000000E-01     -1.365000000000000E+02
4858000000.000000      6.284485000000000E-01      1.487256000000000E+01      4.710083000000000E-01     -1.373516000000000E+02
4859000000.000000      6.283569000000000E-01      1.489160000000000E+01      4.694214000000000E-01     -1.383906000000000E+02
4860000000.000000      6.296082000000000E-01      1.491357000000000E+01      4.661560000000000E-01     -1.389922000000000E+02
4861000000.000000      6.329041000000000E-01      1.508008000000000E+01      4.624634000000000E-01     -1.399375000000000E+02
4862000000.000000      6.325378000000000E-01      1.500830000000000E+01      4.602661000000000E-01     -1.406328000000000E+02
4863000000.000000      6.345520000000000E-01      1.515381000000000E+01      4.565430000000000E-01     -1.417109000000000E+02
4864000000.000000      6.372986000000000E-01      1.506738000000000E+01      4.530487000000000E-01     -1.422188000000000E+02
4865000000.000000      6.349487000000000E-01      1.494238000000000E+01      4.481812000000000E-01     -1.431250000000000E+02
4866000000.000000      6.369324000000000E-01      1.501660000000000E+01      4.454041000000000E-01     -1.440469000000000E+02
4867000000.000000      6.382446000000000E-01      1.503857000000000E+01      4.427490000000000E-01     -1.450234000000000E+02
4868000000.000000      6.404419000000000E-01      1.488477000000000E+01      4.374237000000000E-01     -1.457422000000000E+02
4869000000.000000      6.427307000000000E-01      1.499609000000000E+01      4.335785000000000E-01     -1.464766000000000E+02
4870000000.000000      6.423035000000000E-01      1.494141000000000E+01      4.301453000000000E-01     -1.470547000000000E+02
4871000000.000000      6.443176000000000E-01      1.489600000000000E+01      4.243774000000000E-01     -1.480000000000000E+02
4872000000.000000      6.480103000000000E-01      1.494678000000000E+01      4.208984000000000E-01     -1.486250000000000E+02
4873000000.000000      6.468811000000000E-01      1.498535000000000E+01      4.172668000000000E-01     -1.494375000000000E+02
4874000000.000000      6.483765000000000E-01      1.504004000000000E+01      4.128571000000000E-01     -1.499766000000000E+02
4875000000.000000      6.517029000000000E-01      1.458008000000000E+01      4.087982000000000E-01     -1.507734000000000E+02
4876000000.000000      6.512451000000000E-01      1.497021000000000E+01      4.044189000000000E-01     -1.514922000000000E+02
4877000000.000000      6.523438000000000E-01      1.454834000000000E+01      3.981934000000000E-01     -1.521953000000000E+02
4878000000.000000      6.527100000000000E-01      1.477490000000000E+01      3.959656000000000E-01     -1.526641000000000E+02
4879000000.000000      6.560364000000000E-01      1.467773000000000E+01      3.893433000000000E-01     -1.532891000000000E+02
4880000000.000000      6.571350000000000E-01      1.456641000000000E+01      3.868561000000000E-01     -1.539453000000000E+02
4881000000.000000      6.584778000000000E-01      1.454688000000000E+01      3.815613000000000E-01     -1.543203000000000E+02
4882000000.000000      6.591187000000000E-01      1.450977000000000E+01      3.780670000000000E-01     -1.551953000000000E+02
4883000000.000000      6.596069000000000E-01      1.436865000000000E+01      3.717804000000000E-01     -1.556641000000000E+02
4884000000.000000      6.617432000000000E-01      1.447852000000000E+01      3.694916000000000E-01     -1.562813000000000E+02
4885000000.000000      6.630249000000000E-01      1.440137000000000E+01      3.643646000000000E-01     -1.565078000000000E+02
4886000000.000000      6.660767000000000E-01      1.438232000000000E+01      3.603973000000000E-01     -1.568281000000000E+02
4887000000.000000      6.654663000000000E-01      1.421631000000000E+01      3.564301000000000E-01     -1.577344000000000E+02
4888000000.000000      6.654968000000000E-01      1.391113000000000E+01      3.515320000000000E-01     -1.580312000000000E+02
4889000000.000000      6.669617000000000E-01      1.405420000000000E+01      3.464355000000000E-01     -1.584375000000000E+02
4890000000.000000      6.672668000000000E-01      1.376270000000000E+01      3.412476000000000E-01     -1.591640000000000E+02
4891000000.000000      6.684875000000000E-01      1.381787000000000E+01      3.386993000000000E-01     -1.596641000000000E+02
4892000000.000000      6.699219000000000E-01      1.379053000000000E+01      3.346252000000000E-01     -1.598203000000000E+02
4893000000.000000      6.711426000000000E-01      1.353369000000000E+01      3.292542000000000E-01     -1.603047000000000E+02
4894000000.000000      6.730042000000000E-01      1.349805000000000E+01      3.263855000000000E-01     -1.607422000000000E+02
4895000000.000000      6.736145000000000E-01      1.352783000000000E+01      3.227997000000000E-01     -1.610859000000000E+02
4896000000.000000      6.744385000000000E-01      1.354297000000000E+01      3.190460000000000E-01     -1.614844000000000E+02
4897000000.000000      6.748962000000000E-01      1.327393000000000E+01      3.150940000000000E-01     -1.619453000000000E+02
4898000000.000000      6.768799000000000E-01      1.340869000000000E+01      3.121490000000000E-01     -1.622890000000000E+02
4899000000.000000      6.767578000000000E-01      1.306641000000000E+01      3.081665000000000E-01     -1.626641000000000E+02
4900000000.000000      6.780396000000000E-01      1.309961000000000E+01      3.038940000000000E-01     -1.629688000000000E+02
4901000000.000000      6.800842000000000E-01      1.289795000000000E+01      2.998810000000000E-01     -1.631797000000000E+02
4902000000.000000      6.790771000000000E-01      1.279883000000000E+01      2.967529000000000E-01     -1.635156000000000E+02
4903000000.000000      6.797485000000000E-01      1.271631000000000E+01      2.925873000000000E-01     -1.639375000000000E+02
4904000000.000000      6.810303000000000E-01      1.267529000000000E+01      2.889862000000000E-01     -1.643125000000000E+02
4905000000.000000      6.821899000000000E-01      1.237305000000000E+01      2.863159000000000E-01     -1.648047000000000E+02
4906000000.000000      6.809082000000000E-01      1.233594000000000E+01      2.825470000000000E-01     -1.649765000000000E+02
4907000000.000000      6.818542000000000E-01      1.228271000000000E+01      2.793274000000000E-01     -1.652891000000000E+02
4908000000.000000      6.844482000000000E-01      1.222363000000000E+01      2.761688000000000E-01     -1.657500000000000E+02
4909000000.000000      6.849670000000000E-01      1.204883000000000E+01      2.716217000000000E-01     -1.659375000000000E+02
4910000000.000000      6.864014000000000E-01      1.196680000000000E+01      2.681885000000000E-01     -1.663672000000000E+02
4911000000.000000      6.857910000000000E-01      1.193213000000000E+01      2.648926000000000E-01     -1.664844000000000E+02
4912000000.000000      6.853333000000000E-01      1.180615000000000E+01      2.612457000000000E-01     -1.671562000000000E+02
4913000000.000000      6.869812000000000E-01      1.166602000000000E+01      2.583160000000000E-01     -1.672344000000000E+02
4914000000.000000      6.875000000000000E-01      1.172754000000000E+01      2.544250000000000E-01     -1.674687000000000E+02
4915000000.000000      6.880188000000000E-01      1.160156000000000E+01      2.503662000000000E-01     -1.679688000000000E+02
4916000000.000000      6.867981000000000E-01      1.139111000000000E+01      2.470932000000000E-01     -1.682969000000000E+02
4917000000.000000      6.881104000000000E-01      1.147510000000000E+01      2.434006000000000E-01     -1.684453000000000E+02
4918000000.000000      6.889954000000000E-01      1.125244000000000E+01      2.397156000000000E-01     -1.687344000000000E+02
4919000000.000000      6.880798000000000E-01      1.124170000000000E+01      2.370148000000000E-01     -1.687734000000000E+02
4920000000.000000      6.922607000000000E-01      1.094238000000000E+01      2.320099000000000E-01     -1.693281000000000E+02
4921000000.000000      6.913757000000000E-01      1.095605000000000E+01      2.297974000000000E-01     -1.694609000000000E+02
4922000000.000000      6.924744000000000E-01      1.071680000000000E+01      2.260590000000000E-01     -1.695703000000000E+02
4923000000.000000      6.904297000000000E-01      1.073340000000000E+01      2.215195000000000E-01     -1.698516000000000E+02
4924000000.000000      6.918640000000000E-01      1.060986000000000E+01      2.175217000000000E-01     -1.701797000000000E+02
4925000000.000000      6.921997000000000E-01      1.057568000000000E+01      2.142029000000000E-01     -1.701250000000000E+02
4926000000.000000      6.926575000000000E-01      1.031299000000000E+01      2.109756000000000E-01     -1.704219000000000E+02
4927000000.000000      6.944885000000000E-01      1.031445000000000E+01      2.064056000000000E-01     -1.707031000000000E+02
4928000000.000000      6.943359000000000E-01      1.020313000000000E+01      2.033615000000000E-01     -1.706250000000000E+02
4929000000.000000      6.949768000000000E-01      1.006885000000000E+01      1.985703000000000E-01     -1.708750000000000E+02
4930000000.000000      6.967163000000000E-01      1.005615000000000E+01      1.954727000000000E-01     -1.708828000000000E+02
4931000000.000000      6.931152000000000E-01      9.671875000000000E+00      1.920090000000000E-01     -1.707031000000000E+02
4932000000.000000      6.968079000000000E-01      9.935547000000000E+00      1.880569000000000E-01     -1.708594000000000E+02
4933000000.000000      6.975403000000000E-01      9.665039000000000E+00      1.835709000000000E-01     -1.707500000000000E+02
4934000000.000000      6.994629000000000E-01      9.600586000000000E+00      1.802521000000000E-01     -1.710078000000000E+02
4935000000.000000      6.989441000000000E-01      9.646973000000000E+00      1.768188000000000E-01     -1.705391000000000E+02
4936000000.000000      6.978149000000000E-01      9.501465000000000E+00      1.724625000000000E-01     -1.704219000000000E+02
4937000000.000000      6.987000000000000E-01      9.283203000000000E+00      1.685104000000000E-01     -1.704375000000000E+02
4938000000.000000      6.996155000000000E-01      9.353027000000000E+00      1.652832000000000E-01     -1.701797000000000E+02
4939000000.000000      6.982727000000000E-01      9.218750000000000E+00      1.616821000000000E-01     -1.698281000000000E+02
4940000000.000000      6.992493000000000E-01      9.086914000000000E+00      1.570663000000000E-01     -1.695703000000000E+02
4941000000.000000      7.022400000000000E-01      8.955078000000000E+00      1.540146000000000E-01     -1.690859000000000E+02
4942000000.000000      6.997375000000000E-01      9.012695000000000E+00      1.505890000000000E-01     -1.688125000000000E+02
4943000000.000000      7.008972000000000E-01      8.960449000000000E+00      1.469879000000000E-01     -1.682422000000000E+02
4944000000.000000      6.991577000000000E-01      8.667969000000000E+00      1.438675000000000E-01     -1.675625000000000E+02
4945000000.000000      7.023315000000000E-01      8.600586000000000E+00      1.405334000000000E-01     -1.670000000000000E+02
4946000000.000000      7.040405000000000E-01      8.441406000000000E+00      1.370239000000000E-01     -1.663047000000000E+02
4947000000.000000      7.037964000000000E-01      8.416504000000000E+00      1.339264000000000E-01     -1.654766000000000E+02
4948000000.000000      7.052612000000000E-01      8.431641000000000E+00      1.307297000000000E-01     -1.647500000000000E+02
4949000000.000000      7.025452000000000E-01      8.077637000000000E+00      1.275482000000000E-01     -1.634453000000000E+02
4950000000.000000      7.055969000000000E-01      8.174805000000000E+00      1.249466000000000E-01     -1.627031000000000E+02
4951000000.000000      7.060852000000000E-01      8.129883000000000E+00      1.221733000000000E-01     -1.615625000000000E+02
4952000000.000000      7.048950000000000E-01      7.993896000000000E+00      1.191330000000000E-01     -1.603984000000000E+02
4953000000.000000      7.051086000000000E-01      7.781006000000000E+00      1.170502000000000E-01     -1.586797000000000E+02
4954000000.000000      7.066650000000000E-01      7.791992000000000E+00      1.146355000000000E-01     -1.575078000000000E+02
