! Network Analyzer HP8722D
! Hewlett-Packard
! Data name: Linha & Wilkinson
! Saver's name: Rodrigo Anjos
! Comments: Teste da utilização de aquisição
continua pelo VNA HP8722D
! Time and date: 22/5/2025 14:26
!              Frequency                     S11                                                   S21                                                   S12                                                   S22
# HZ  S  MA R 50
4800000000.000000      6.536560000000000E-01      1.107422000000000E+01      4.712524000000000E-01     -9.187500000000000E+01
4801000000.000000      6.500549000000000E-01      1.103809000000000E+01      4.706421000000000E-01     -9.262890000000000E+01
4802000000.000000      6.502991000000000E-01      1.084326000000000E+01      4.742737000000000E-01     -9.321093000000000E+01
4803000000.000000      6.479187000000000E-01      1.088330000000000E+01      4.775391000000000E-01     -9.417578000000000E+01
4804000000.000000      6.451416000000000E-01      1.085303000000000E+01      4.779816000000000E-01     -9.493359000000000E+01
4805000000.000000      6.464539000000000E-01      1.073633000000000E+01      4.801025000000000E-01     -9.568359000000000E+01
4806000000.000000      6.444092000000000E-01      1.090088000000000E+01      4.814301000000000E-01     -9.657421000000000E+01
4807000000.000000      6.414185000000000E-01      1.080908000000000E+01      4.820404000000000E-01     -9.723045000000000E+01
4808000000.000000      6.376953000000000E-01      1.087061000000000E+01      4.855804000000000E-01     -9.785545000000000E+01
4809000000.000000      6.391296000000000E-01      1.089258000000000E+01      4.863892000000000E-01     -9.877342000000000E+01
4810000000.000000      6.354370000000000E-01      1.099316000000000E+01      4.878998000000000E-01     -9.935936000000000E+01
4811000000.000000      6.350403000000000E-01      1.103955000000000E+01      4.891968000000000E-01     -1.003555000000000E+02
4812000000.000000      6.336060000000000E-01      1.111230000000000E+01      4.901123000000000E-01     -1.010000000000000E+02
4813000000.000000      6.321106000000000E-01      1.116455000000000E+01      4.900055000000000E-01     -1.019453000000000E+02
4814000000.000000      6.281433000000000E-01      1.105225000000000E+01      4.920807000000000E-01     -1.023789000000000E+02
4815000000.000000      6.283569000000000E-01      1.124023000000000E+01      4.925842000000000E-01     -1.033398000000000E+02
4816000000.000000      6.283264000000000E-01      1.124707000000000E+01      4.942017000000000E-01     -1.039023000000000E+02
4817000000.000000      6.260376000000000E-01      1.151758000000000E+01      4.942017000000000E-01     -1.048125000000000E+02
4818000000.000000      6.232300000000000E-01      1.139795000000000E+01      4.943237000000000E-01     -1.054922000000000E+02
4819000000.000000      6.252136000000000E-01      1.153809000000000E+01      4.953613000000000E-01     -1.063242000000000E+02
4820000000.000000      6.218567000000000E-01      1.159424000000000E+01      4.956665000000000E-01     -1.069102000000000E+02
4821000000.000000      6.217346000000000E-01      1.170166000000000E+01      4.989624000000000E-01     -1.079102000000000E+02
4822000000.000000      6.195679000000000E-01      1.151221000000000E+01      4.963837000000000E-01     -1.082656000000000E+02
4823000000.000000      6.194763000000000E-01      1.182129000000000E+01      4.978638000000000E-01     -1.092070000000000E+02
4824000000.000000      6.188965000000000E-01      1.187061000000000E+01      4.973145000000000E-01     -1.099297000000000E+02
4825000000.000000      6.170959000000000E-01      1.187305000000000E+01      4.986572000000000E-01     -1.106562000000000E+02
4826000000.000000      6.170959000000000E-01      1.195703000000000E+01      4.989014000000000E-01     -1.114336000000000E+02
4827000000.000000      6.194153000000000E-01      1.209717000000000E+01      4.986572000000000E-01     -1.121523000000000E+02
4828000000.000000      6.170959000000000E-01      1.216309000000000E+01      4.993896000000000E-01     -1.128867000000000E+02
4829000000.000000      6.174011000000000E-01      1.249658000000000E+01      4.985962000000000E-01     -1.137383000000000E+02
4830000000.000000      6.143494000000000E-01      1.261768000000000E+01      5.001526000000000E-01     -1.143711000000000E+02
4831000000.000000      6.146240000000000E-01      1.268506000000000E+01      4.985962000000000E-01     -1.153281000000000E+02
4832000000.000000      6.136475000000000E-01      1.280713000000000E+01      4.992981000000000E-01     -1.159141000000000E+02
4833000000.000000      6.123657000000000E-01      1.283203000000000E+01      4.991608000000000E-01     -1.168008000000000E+02
4834000000.000000      6.138000000000000E-01      1.298584000000000E+01      5.000916000000000E-01     -1.173242000000000E+02
4835000000.000000      6.150513000000000E-01      1.317529000000000E+01      5.011597000000000E-01     -1.184101000000000E+02
4836000000.000000      6.148987000000000E-01      1.323682000000000E+01      4.989166000000000E-01     -1.192031000000000E+02
4837000000.000000      6.130066000000000E-01      1.352393000000000E+01      4.983368000000000E-01     -1.200078000000000E+02
4838000000.000000      6.118164000000000E-01      1.332764000000000E+01      4.984283000000000E-01     -1.204219000000000E+02
4839000000.000000      6.167908000000000E-01      1.357324000000000E+01      4.989014000000000E-01     -1.213281000000000E+02
4840000000.000000      6.153564000000000E-01      1.346338000000000E+01      4.983215000000000E-01     -1.221016000000000E+02
4841000000.000000      6.159363000000000E-01      1.387402000000000E+01      4.976654000000000E-01     -1.229726000000000E+02
4842000000.000000      6.156006000000000E-01      1.391406000000000E+01      4.967041000000000E-01     -1.238867000000000E+02
4843000000.000000      6.175842000000000E-01      1.377246000000000E+01      4.977570000000000E-01     -1.247812000000000E+02
4844000000.000000      6.175842000000000E-01      1.375049000000000E+01      4.961700000000000E-01     -1.253477000000000E+02
4845000000.000000      6.167297000000000E-01      1.427246000000000E+01      4.947052000000000E-01     -1.262383000000000E+02
4846000000.000000      6.192017000000000E-01      1.418604000000000E+01      4.937897000000000E-01     -1.271211000000000E+02
4847000000.000000      6.192932000000000E-01      1.442334000000000E+01      4.928284000000000E-01     -1.278984000000000E+02
4848000000.000000      6.189575000000000E-01      1.441650000000000E+01      4.898224000000000E-01     -1.288437000000000E+02
4849000000.000000      6.182251000000000E-01      1.446191000000000E+01      4.900055000000000E-01     -1.297500000000000E+02
4850000000.000000      6.199341000000000E-01      1.453857000000000E+01      4.886932000000000E-01     -1.304141000000000E+02
4851000000.000000      6.209412000000000E-01      1.478467000000000E+01      4.875641000000000E-01     -1.314062000000000E+02
4852000000.000000      6.245422000000000E-01      1.473926000000000E+01      4.854736000000000E-01     -1.322813000000000E+02
4853000000.000000      6.251221000000000E-01      1.478613000000000E+01      4.822083000000000E-01     -1.331094000000000E+02
4854000000.000000      6.261292000000000E-01      1.479297000000000E+01      4.807739000000000E-01     -1.339062000000000E+02
4855000000.000000      6.271973000000000E-01      1.484766000000000E+01      4.792175000000000E-01     -1.349453000000000E+02
4856000000.000000      6.274109000000000E-01      1.502344000000000E+01      4.768372000000000E-01     -1.357266000000000E+02
4857000000.000000      6.299744000000000E-01      1.504834000000000E+01      4.751892000000000E-01     -1.363672000000000E+02
4858000000.000000      6.297913000000000E-01      1.493994000000000E+01      4.730377000000000E-01     -1.374141000000000E+02
4859000000.000000      6.297913000000000E-01      1.478857000000000E+01      4.692383000000000E-01     -1.381172000000000E+02
4860000000.000000      6.299744000000000E-01      1.505127000000000E+01      4.653168000000000E-01     -1.390078000000000E+02
4861000000.000000      6.304016000000000E-01      1.506494000000000E+01      4.622650000000000E-01     -1.400156000000000E+02
4862000000.000000      6.327515000000000E-01      1.514014000000000E+01      4.598541000000000E-01     -1.407344000000000E+02
4863000000.000000      6.351929000000000E-01      1.504980000000000E+01      4.562836000000000E-01     -1.415000000000000E+02
4864000000.000000      6.357422000000000E-01      1.496582000000000E+01      4.524994000000000E-01     -1.422812000000000E+02
4865000000.000000      6.363525000000000E-01      1.504834000000000E+01      4.483032000000000E-01     -1.429922000000000E+02
4866000000.000000      6.383362000000000E-01      1.506201000000000E+01      4.449615000000000E-01     -1.438984000000000E+02
4867000000.000000      6.373901000000000E-01      1.524170000000000E+01      4.415741000000000E-01     -1.450938000000000E+02
4868000000.000000      6.413879000000000E-01      1.481641000000000E+01      4.377289000000000E-01     -1.456016000000000E+02
4869000000.000000      6.412354000000000E-01      1.505225000000000E+01      4.347076000000000E-01     -1.465703000000000E+02
4870000000.000000      6.423340000000000E-01      1.509619000000000E+01      4.311523000000000E-01     -1.470156000000000E+02
4871000000.000000      6.431885000000000E-01      1.481885000000000E+01      4.257965000000000E-01     -1.478125000000000E+02
4872000000.000000      6.467590000000000E-01      1.503857000000000E+01      4.207764000000000E-01     -1.486094000000000E+02
4873000000.000000      6.473694000000000E-01      1.503711000000000E+01      4.172974000000000E-01     -1.493047000000000E+02
4874000000.000000      6.484985000000000E-01      1.493018000000000E+01      4.129181000000000E-01     -1.500078000000000E+02
4875000000.000000      6.483765000000000E-01      1.478760000000000E+01      4.080048000000000E-01     -1.504688000000000E+02
4876000000.000000      6.539001000000000E-01      1.482861000000000E+01      4.040527000000000E-01     -1.514062000000000E+02
4877000000.000000      6.533203000000000E-01      1.462256000000000E+01      3.999634000000000E-01     -1.520234000000000E+02
4878000000.000000      6.520996000000000E-01      1.468457000000000E+01      3.951874000000000E-01     -1.525938000000000E+02
4879000000.000000      6.563110000000000E-01      1.464844000000000E+01      3.910675000000000E-01     -1.530391000000000E+02
4880000000.000000      6.561279000000000E-01      1.460889000000000E+01      3.854065000000000E-01     -1.539609000000000E+02
4881000000.000000      6.563416000000000E-01      1.463477000000000E+01      3.824158000000000E-01     -1.542891000000000E+02
4882000000.000000      6.601257000000000E-01      1.450195000000000E+01      3.775177000000000E-01     -1.547656000000000E+02
4883000000.000000      6.598511000000000E-01      1.433838000000000E+01      3.719788000000000E-01     -1.557578000000000E+02
4884000000.000000      6.621094000000000E-01      1.449219000000000E+01      3.689880000000000E-01     -1.561563000000000E+02
4885000000.000000      6.623840000000000E-01      1.430420000000000E+01      3.643188000000000E-01     -1.562578000000000E+02
4886000000.000000      6.632690000000000E-01      1.437402000000000E+01      3.589020000000000E-01     -1.570313000000000E+02
4887000000.000000      6.646423000000000E-01      1.414600000000000E+01      3.562317000000000E-01     -1.574062000000000E+02
4888000000.000000      6.684570000000000E-01      1.410498000000000E+01      3.524017000000000E-01     -1.582344000000000E+02
4889000000.000000      6.676025000000000E-01      1.408984000000000E+01      3.471222000000000E-01     -1.585938000000000E+02
4890000000.000000      6.666260000000000E-01      1.380566000000000E+01      3.415222000000000E-01     -1.593672000000000E+02
4891000000.000000      6.708679000000000E-01      1.398828000000000E+01      3.386841000000000E-01     -1.595391000000000E+02
4892000000.000000      6.685486000000000E-01      1.379980000000000E+01      3.352661000000000E-01     -1.596953000000000E+02
4893000000.000000      6.732788000000000E-01      1.359668000000000E+01      3.305664000000000E-01     -1.603359000000000E+02
4894000000.000000      6.723022000000000E-01      1.354736000000000E+01      3.273773000000000E-01     -1.606172000000000E+02
4895000000.000000      6.738892000000000E-01      1.340332000000000E+01      3.226929000000000E-01     -1.610391000000000E+02
4896000000.000000      6.745911000000000E-01      1.329053000000000E+01      3.196716000000000E-01     -1.614375000000000E+02
4897000000.000000      6.735229000000000E-01      1.325195000000000E+01      3.148346000000000E-01     -1.619609000000000E+02
4898000000.000000      6.752014000000000E-01      1.324365000000000E+01      3.120270000000000E-01     -1.622578000000000E+02
4899000000.000000      6.758423000000000E-01      1.332617000000000E+01      3.076172000000000E-01     -1.625625000000000E+02
4900000000.000000      6.769409000000000E-01      1.310645000000000E+01      3.040619000000000E-01     -1.628594000000000E+02
4901000000.000000      6.791382000000000E-01      1.294580000000000E+01      3.007202000000000E-01     -1.632578000000000E+02
4902000000.000000      6.791992000000000E-01      1.287158000000000E+01      2.973633000000000E-01     -1.634453000000000E+02
4903000000.000000      6.802673000000000E-01      1.287158000000000E+01      2.928619000000000E-01     -1.637969000000000E+02
4904000000.000000      6.816406000000000E-01      1.282080000000000E+01      2.887878000000000E-01     -1.642969000000000E+02
4905000000.000000      6.801147000000000E-01      1.239111000000000E+01      2.869720000000000E-01     -1.646953000000000E+02
4906000000.000000      6.807556000000000E-01      1.249512000000000E+01      2.827759000000000E-01     -1.648203000000000E+02
4907000000.000000      6.849060000000000E-01      1.239648000000000E+01      2.796936000000000E-01     -1.651797000000000E+02
4908000000.000000      6.841125000000000E-01      1.219580000000000E+01      2.760468000000000E-01     -1.656797000000000E+02
4909000000.000000      6.846619000000000E-01      1.233350000000000E+01      2.716980000000000E-01     -1.659141000000000E+02
4910000000.000000      6.827698000000000E-01      1.216699000000000E+01      2.688599000000000E-01     -1.662812000000000E+02
4911000000.000000      6.861877000000000E-01      1.191699000000000E+01      2.655487000000000E-01     -1.665703000000000E+02
4912000000.000000      6.868896000000000E-01      1.192969000000000E+01      2.619019000000000E-01     -1.670391000000000E+02
4913000000.000000      6.868286000000000E-01      1.175928000000000E+01      2.584381000000000E-01     -1.671953000000000E+02
4914000000.000000      6.870728000000000E-01      1.167139000000000E+01      2.552185000000000E-01     -1.675625000000000E+02
4915000000.000000      6.897583000000000E-01      1.172070000000000E+01      2.510376000000000E-01     -1.678828000000000E+02
4916000000.000000      6.906738000000000E-01      1.135400000000000E+01      2.477264000000000E-01     -1.683437000000000E+02
4917000000.000000      6.887207000000000E-01      1.131689000000000E+01      2.441559000000000E-01     -1.683594000000000E+02
4918000000.000000      6.891479000000000E-01      1.124023000000000E+01      2.402496000000000E-01     -1.687969000000000E+02
4919000000.000000      6.871338000000000E-01      1.129102000000000E+01      2.369156000000000E-01     -1.687031000000000E+02
4920000000.000000      6.918640000000000E-01      1.095850000000000E+01      2.327576000000000E-01     -1.692031000000000E+02
4921000000.000000      6.898804000000000E-01      1.100537000000000E+01      2.298279000000000E-01     -1.693750000000000E+02
4922000000.000000      6.920166000000000E-01      1.075830000000000E+01      2.257996000000000E-01     -1.697734000000000E+02
4923000000.000000      6.912537000000000E-01      1.077344000000000E+01      2.212448000000000E-01     -1.697500000000000E+02
4924000000.000000      6.926575000000000E-01      1.067041000000000E+01      2.177582000000000E-01     -1.701484000000000E+02
4925000000.000000      6.932983000000000E-01      1.048340000000000E+01      2.144775000000000E-01     -1.701797000000000E+02
4926000000.000000      6.938782000000000E-01      1.051367000000000E+01      2.108459000000000E-01     -1.705078000000000E+02
4927000000.000000      6.935120000000000E-01      1.033936000000000E+01      2.072983000000000E-01     -1.706016000000000E+02
4928000000.000000      6.950073000000000E-01      1.020605000000000E+01      2.031097000000000E-01     -1.706719000000000E+02
4929000000.000000      6.942444000000000E-01      1.019238000000000E+01      1.990509000000000E-01     -1.707031000000000E+02
4930000000.000000      6.968384000000000E-01      1.014014000000000E+01      1.956253000000000E-01     -1.708672000000000E+02
4931000000.000000      6.933289000000000E-01      1.009326000000000E+01      1.929092000000000E-01     -1.710000000000000E+02
4932000000.000000      6.967773000000000E-01      9.908203000000000E+00      1.885529000000000E-01     -1.710078000000000E+02
4933000000.000000      6.973267000000000E-01      9.846191000000000E+00      1.837616000000000E-01     -1.707500000000000E+02
4934000000.000000      6.979065000000000E-01      9.743164000000000E+00      1.803436000000000E-01     -1.709063000000000E+02
4935000000.000000      6.983643000000000E-01      9.603027000000000E+00      1.772003000000000E-01     -1.706797000000000E+02
4936000000.000000      6.966248000000000E-01      9.548340000000000E+00      1.725006000000000E-01     -1.706406000000000E+02
4937000000.000000      6.983032000000000E-01      9.312012000000000E+00      1.693726000000000E-01     -1.705156000000000E+02
4938000000.000000      6.976929000000000E-01      9.320313000000000E+00      1.656036000000000E-01     -1.700938000000000E+02
4939000000.000000      6.970520000000000E-01      9.321777000000000E+00      1.616211000000000E-01     -1.700703000000000E+02
4940000000.000000      7.006226000000000E-01      9.049805000000000E+00      1.577225000000000E-01     -1.695313000000000E+02
4941000000.000000      7.008972000000000E-01      9.002930000000000E+00      1.547318000000000E-01     -1.692422000000000E+02
4942000000.000000      6.989441000000000E-01      9.022461000000000E+00      1.507721000000000E-01     -1.686406000000000E+02
4943000000.000000      7.022705000000000E-01      8.942871000000000E+00      1.473389000000000E-01     -1.682188000000000E+02
4944000000.000000      7.008362000000000E-01      8.639160000000000E+00      1.437454000000000E-01     -1.674609000000000E+02
4945000000.000000      7.029724000000000E-01      8.567871000000000E+00      1.403275000000000E-01     -1.670078000000000E+02
4946000000.000000      7.048035000000000E-01      8.588379000000000E+00      1.371307000000000E-01     -1.664063000000000E+02
4947000000.000000      7.028809000000000E-01      8.395996000000000E+00      1.342850000000000E-01     -1.655937000000000E+02
4948000000.000000      7.044678000000000E-01      8.323242000000000E+00      1.305389000000000E-01     -1.647812000000000E+02
4949000000.000000      7.030945000000000E-01      8.201172000000000E+00      1.281815000000000E-01     -1.637266000000000E+02
4950000000.000000      7.050476000000000E-01      8.211914000000000E+00      1.254349000000000E-01     -1.626250000000000E+02
4951000000.000000      7.046509000000000E-01      8.008789000000000E+00      1.224899000000000E-01     -1.617031000000000E+02
4952000000.000000      7.041016000000000E-01      7.838623000000000E+00      1.195107000000000E-01     -1.603828000000000E+02
4953000000.000000      7.050781000000000E-01      7.796143000000000E+00      1.174507000000000E-01     -1.589375000000000E+02
4954000000.000000      7.073975000000000E-01      7.724609000000000E+00      1.150894000000000E-01     -1.578047000000000E+02
