! Network Analyzer HP8722D
! Hewlett-Packard
! Data name: Linha & Wilkinson
! Saver's name: Rodrigo Anjos
! Comments: Teste da utilização de aquisição
continua pelo VNA HP8722D
! Time and date: 22/5/2025 08:20
!              Frequency                     S11                                                   S21                                                   S12                                                   S22
# HZ  S  MA R 50
4800000000.000000      6.479187000000000E-01      1.034473000000000E+01      4.737701000000000E-01     -9.384766000000000E+01
4801000000.000000      6.447144000000000E-01      1.035596000000000E+01      4.760284000000000E-01     -9.434374000000000E+01
4802000000.000000      6.446838000000000E-01      1.018408000000000E+01      4.783936000000000E-01     -9.524609000000000E+01
4803000000.000000      6.418762000000000E-01      1.011963000000000E+01      4.802399000000000E-01     -9.588671000000000E+01
4804000000.000000      6.399536000000000E-01      1.025146000000000E+01      4.829407000000000E-01     -9.668749000000000E+01
4805000000.000000      6.399841000000000E-01      1.008643000000000E+01      4.841919000000000E-01     -9.735937000000000E+01
4806000000.000000      6.368713000000000E-01      1.035986000000000E+01      4.845581000000000E-01     -9.827734000000000E+01
4807000000.000000      6.347351000000000E-01      1.023779000000000E+01      4.866180000000000E-01     -9.906250000000000E+01
4808000000.000000      6.323242000000000E-01      1.031055000000000E+01      4.883881000000000E-01     -9.975780000000000E+01
4809000000.000000      6.307983000000000E-01      1.033936000000000E+01      4.905396000000000E-01     -1.004219000000000E+02
4810000000.000000      6.321411000000000E-01      1.052490000000000E+01      4.908142000000000E-01     -1.013945000000000E+02
4811000000.000000      6.310730000000000E-01      1.040771000000000E+01      4.920044000000000E-01     -1.020351000000000E+02
4812000000.000000      6.301880000000000E-01      1.054932000000000E+01      4.936981000000000E-01     -1.026953000000000E+02
4813000000.000000      6.263123000000000E-01      1.044775000000000E+01      4.932861000000000E-01     -1.035430000000000E+02
4814000000.000000      6.243591000000000E-01      1.057275000000000E+01      4.929352000000000E-01     -1.041914000000000E+02
4815000000.000000      6.235046000000000E-01      1.076367000000000E+01      4.938354000000000E-01     -1.049297000000000E+02
4816000000.000000      6.239624000000000E-01      1.084033000000000E+01      4.964142000000000E-01     -1.058555000000000E+02
4817000000.000000      6.204224000000000E-01      1.084033000000000E+01      4.955750000000000E-01     -1.066797000000000E+02
4818000000.000000      6.220093000000000E-01      1.089258000000000E+01      4.974365000000000E-01     -1.072383000000000E+02
4819000000.000000      6.200867000000000E-01      1.094922000000000E+01      4.962158000000000E-01     -1.082813000000000E+02
4820000000.000000      6.171265000000000E-01      1.108350000000000E+01      4.978943000000000E-01     -1.087187000000000E+02
4821000000.000000      6.189880000000000E-01      1.110010000000000E+01      4.982452000000000E-01     -1.096055000000000E+02
4822000000.000000      6.154175000000000E-01      1.123340000000000E+01      4.990845000000000E-01     -1.102930000000000E+02
4823000000.000000      6.139221000000000E-01      1.127295000000000E+01      4.991913000000000E-01     -1.109844000000000E+02
4824000000.000000      6.138000000000000E-01      1.150537000000000E+01      4.993591000000000E-01     -1.119219000000000E+02
4825000000.000000      6.147461000000000E-01      1.152832000000000E+01      5.000305000000000E-01     -1.124805000000000E+02
4826000000.000000      6.131287000000000E-01      1.151465000000000E+01      4.998627000000000E-01     -1.135781000000000E+02
4827000000.000000      6.130981000000000E-01      1.187305000000000E+01      4.998932000000000E-01     -1.141445000000000E+02
4828000000.000000      6.138000000000000E-01      1.183057000000000E+01      5.007324000000000E-01     -1.147109000000000E+02
4829000000.000000      6.121521000000000E-01      1.208203000000000E+01      5.011902000000000E-01     -1.155195000000000E+02
4830000000.000000      6.121826000000000E-01      1.216846000000000E+01      5.008850000000000E-01     -1.162969000000000E+02
4831000000.000000      6.122437000000000E-01      1.229053000000000E+01      5.014954000000000E-01     -1.172539000000000E+02
4832000000.000000      6.122131000000000E-01      1.255713000000000E+01      4.988251000000000E-01     -1.178789000000000E+02
4833000000.000000      6.101990000000000E-01      1.233887000000000E+01      4.987183000000000E-01     -1.184961000000000E+02
4834000000.000000      6.102905000000000E-01      1.255566000000000E+01      4.999847000000000E-01     -1.194062000000000E+02
4835000000.000000      6.120911000000000E-01      1.244580000000000E+01      4.984589000000000E-01     -1.201445000000000E+02
4836000000.000000      6.124878000000000E-01      1.284424000000000E+01      4.983063000000000E-01     -1.209453000000000E+02
4837000000.000000      6.118164000000000E-01      1.302246000000000E+01      4.974213000000000E-01     -1.220273000000000E+02
4838000000.000000      6.115417000000000E-01      1.304346000000000E+01      4.988708000000000E-01     -1.225352000000000E+02
4839000000.000000      6.149902000000000E-01      1.336035000000000E+01      4.975891000000000E-01     -1.233008000000000E+02
4840000000.000000      6.147766000000000E-01      1.311035000000000E+01      4.990234000000000E-01     -1.239805000000000E+02
4841000000.000000      6.148376000000000E-01      1.333447000000000E+01      4.965668000000000E-01     -1.250156000000000E+02
4842000000.000000      6.145325000000000E-01      1.330273000000000E+01      4.961853000000000E-01     -1.257227000000000E+02
4843000000.000000      6.162109000000000E-01      1.337402000000000E+01      4.949493000000000E-01     -1.268125000000000E+02
4844000000.000000      6.151123000000000E-01      1.337549000000000E+01      4.927063000000000E-01     -1.274180000000000E+02
4845000000.000000      6.186523000000000E-01      1.386182000000000E+01      4.926910000000000E-01     -1.281484000000000E+02
4846000000.000000      6.181641000000000E-01      1.382764000000000E+01      4.909821000000000E-01     -1.290156000000000E+02
4847000000.000000      6.185913000000000E-01      1.392920000000000E+01      4.896240000000000E-01     -1.298516000000000E+02
4848000000.000000      6.187744000000000E-01      1.385498000000000E+01      4.895630000000000E-01     -1.306562000000000E+02
4849000000.000000      6.203308000000000E-01      1.394531000000000E+01      4.874115000000000E-01     -1.316484000000000E+02
4850000000.000000      6.213989000000000E-01      1.395508000000000E+01      4.844208000000000E-01     -1.323906000000000E+02
4851000000.000000      6.216125000000000E-01      1.401855000000000E+01      4.834442000000000E-01     -1.331563000000000E+02
4852000000.000000      6.226196000000000E-01      1.414453000000000E+01      4.807892000000000E-01     -1.340078000000000E+02
4853000000.000000      6.250610000000000E-01      1.407178000000000E+01      4.771729000000000E-01     -1.350391000000000E+02
4854000000.000000      6.249084000000000E-01      1.415039000000000E+01      4.761505000000000E-01     -1.357344000000000E+02
4855000000.000000      6.258850000000000E-01      1.421631000000000E+01      4.735107000000000E-01     -1.367969000000000E+02
4856000000.000000      6.272278000000000E-01      1.425439000000000E+01      4.706268000000000E-01     -1.375547000000000E+02
4857000000.000000      6.281433000000000E-01      1.435596000000000E+01      4.698639000000000E-01     -1.382187000000000E+02
4858000000.000000      6.309204000000000E-01      1.426563000000000E+01      4.660492000000000E-01     -1.391484000000000E+02
4859000000.000000      6.321716000000000E-01      1.435205000000000E+01      4.626770000000000E-01     -1.400703000000000E+02
4860000000.000000      6.327209000000000E-01      1.435352000000000E+01      4.595947000000000E-01     -1.408281000000000E+02
4861000000.000000      6.335449000000000E-01      1.431104000000000E+01      4.564819000000000E-01     -1.417891000000000E+02
4862000000.000000      6.348877000000000E-01      1.447021000000000E+01      4.541016000000000E-01     -1.424062000000000E+02
4863000000.000000      6.367188000000000E-01      1.425293000000000E+01      4.496918000000000E-01     -1.434453000000000E+02
4864000000.000000      6.358337000000000E-01      1.437256000000000E+01      4.468842000000000E-01     -1.439062000000000E+02
4865000000.000000      6.370544000000000E-01      1.436572000000000E+01      4.425964000000000E-01     -1.448281000000000E+02
4866000000.000000      6.391296000000000E-01      1.423242000000000E+01      4.391022000000000E-01     -1.456016000000000E+02
4867000000.000000      6.405334000000000E-01      1.432617000000000E+01      4.340210000000000E-01     -1.465547000000000E+02
4868000000.000000      6.419678000000000E-01      1.428320000000000E+01      4.309998000000000E-01     -1.472109000000000E+02
4869000000.000000      6.424561000000000E-01      1.441113000000000E+01      4.268341000000000E-01     -1.480625000000000E+02
4870000000.000000      6.429443000000000E-01      1.415137000000000E+01      4.225159000000000E-01     -1.485312000000000E+02
4871000000.000000      6.446838000000000E-01      1.415137000000000E+01      4.187317000000000E-01     -1.494688000000000E+02
4872000000.000000      6.484375000000000E-01      1.426123000000000E+01      4.151611000000000E-01     -1.500937000000000E+02
4873000000.000000      6.487732000000000E-01      1.416797000000000E+01      4.093628000000000E-01     -1.510234000000000E+02
4874000000.000000      6.502686000000000E-01      1.439893000000000E+01      4.053955000000000E-01     -1.516328000000000E+02
4875000000.000000      6.515503000000000E-01      1.413623000000000E+01      4.009705000000000E-01     -1.522031000000000E+02
4876000000.000000      6.528015000000000E-01      1.411182000000000E+01      3.967285000000000E-01     -1.526641000000000E+02
4877000000.000000      6.539001000000000E-01      1.374365000000000E+01      3.922119000000000E-01     -1.534453000000000E+02
4878000000.000000      6.530151000000000E-01      1.390869000000000E+01      3.883362000000000E-01     -1.539609000000000E+02
4879000000.000000      6.588745000000000E-01      1.383691000000000E+01      3.831177000000000E-01     -1.546016000000000E+02
4880000000.000000      6.576843000000000E-01      1.380811000000000E+01      3.790894000000000E-01     -1.551406000000000E+02
4881000000.000000      6.594543000000000E-01      1.375342000000000E+01      3.742981000000000E-01     -1.556562000000000E+02
4882000000.000000      6.610413000000000E-01      1.382617000000000E+01      3.704834000000000E-01     -1.563437000000000E+02
4883000000.000000      6.611328000000000E-01      1.368311000000000E+01      3.648224000000000E-01     -1.568281000000000E+02
4884000000.000000      6.629944000000000E-01      1.353516000000000E+01      3.615265000000000E-01     -1.573672000000000E+02
4885000000.000000      6.647339000000000E-01      1.355566000000000E+01      3.567200000000000E-01     -1.577266000000000E+02
4886000000.000000      6.656494000000000E-01      1.347461000000000E+01      3.525543000000000E-01     -1.581094000000000E+02
4887000000.000000      6.663818000000000E-01      1.339746000000000E+01      3.497162000000000E-01     -1.587969000000000E+02
4888000000.000000      6.664429000000000E-01      1.332324000000000E+01      3.454742000000000E-01     -1.592344000000000E+02
4889000000.000000      6.670227000000000E-01      1.330957000000000E+01      3.386841000000000E-01     -1.595312000000000E+02
4890000000.000000      6.672974000000000E-01      1.309668000000000E+01      3.353119000000000E-01     -1.603750000000000E+02
4891000000.000000      6.677551000000000E-01      1.291016000000000E+01      3.312988000000000E-01     -1.605156000000000E+02
4892000000.000000      6.713257000000000E-01      1.284961000000000E+01      3.280792000000000E-01     -1.608281000000000E+02
4893000000.000000      6.723633000000000E-01      1.287842000000000E+01      3.234558000000000E-01     -1.614687000000000E+02
4894000000.000000      6.714172000000000E-01      1.269189000000000E+01      3.190308000000000E-01     -1.615469000000000E+02
4895000000.000000      6.738892000000000E-01      1.280566000000000E+01      3.171997000000000E-01     -1.620547000000000E+02
4896000000.000000      6.759033000000000E-01      1.258740000000000E+01      3.128204000000000E-01     -1.625234000000000E+02
4897000000.000000      6.763611000000000E-01      1.251318000000000E+01      3.080139000000000E-01     -1.628828000000000E+02
4898000000.000000      6.771851000000000E-01      1.249121000000000E+01      3.052673000000000E-01     -1.631172000000000E+02
4899000000.000000      6.763306000000000E-01      1.247607000000000E+01      3.013611000000000E-01     -1.637187000000000E+02
4900000000.000000      6.777344000000000E-01      1.221777000000000E+01      2.971039000000000E-01     -1.638125000000000E+02
4901000000.000000      6.796875000000000E-01      1.214648000000000E+01      2.935486000000000E-01     -1.641406000000000E+02
4902000000.000000      6.806335000000000E-01      1.205566000000000E+01      2.908630000000000E-01     -1.643516000000000E+02
4903000000.000000      6.808777000000000E-01      1.198193000000000E+01      2.864227000000000E-01     -1.647031000000000E+02
4904000000.000000      6.804810000000000E-01      1.183594000000000E+01      2.830505000000000E-01     -1.651875000000000E+02
4905000000.000000      6.824036000000000E-01      1.170996000000000E+01      2.803955000000000E-01     -1.655078000000000E+02
4906000000.000000      6.828918000000000E-01      1.141748000000000E+01      2.762604000000000E-01     -1.656406000000000E+02
4907000000.000000      6.842346000000000E-01      1.146533000000000E+01      2.732697000000000E-01     -1.660312000000000E+02
4908000000.000000      6.859131000000000E-01      1.140918000000000E+01      2.704315000000000E-01     -1.663750000000000E+02
4909000000.000000      6.857910000000000E-01      1.122803000000000E+01      2.655487000000000E-01     -1.666172000000000E+02
4910000000.000000      6.839294000000000E-01      1.133203000000000E+01      2.626495000000000E-01     -1.670312000000000E+02
4911000000.000000      6.859436000000000E-01      1.113428000000000E+01      2.589722000000000E-01     -1.672031000000000E+02
4912000000.000000      6.847534000000000E-01      1.107520000000000E+01      2.548065000000000E-01     -1.675625000000000E+02
4913000000.000000      6.868286000000000E-01      1.084717000000000E+01      2.519684000000000E-01     -1.680156000000000E+02
4914000000.000000      6.884766000000000E-01      1.074854000000000E+01      2.486725000000000E-01     -1.681406000000000E+02
4915000000.000000      6.881409000000000E-01      1.072119000000000E+01      2.450256000000000E-01     -1.684375000000000E+02
4916000000.000000      6.890259000000000E-01      1.066357000000000E+01      2.413025000000000E-01     -1.688984000000000E+02
4917000000.000000      6.888733000000000E-01      1.060547000000000E+01      2.375946000000000E-01     -1.691015000000000E+02
4918000000.000000      6.900940000000000E-01      1.034766000000000E+01      2.338486000000000E-01     -1.692188000000000E+02
4919000000.000000      6.897278000000000E-01      1.023096000000000E+01      2.305603000000000E-01     -1.692734000000000E+02
4920000000.000000      6.919556000000000E-01      1.033105000000000E+01      2.257462000000000E-01     -1.696563000000000E+02
4921000000.000000      6.900635000000000E-01      1.019531000000000E+01      2.233200000000000E-01     -1.697656000000000E+02
4922000000.000000      6.929626000000000E-01      1.000000000000000E+01      2.194901000000000E-01     -1.700703000000000E+02
4923000000.000000      6.909790000000000E-01      1.008105000000000E+01      2.150040000000000E-01     -1.700391000000000E+02
4924000000.000000      6.929626000000000E-01      9.947754000000000E+00      2.118378000000000E-01     -1.704844000000000E+02
4925000000.000000      6.930847000000000E-01      9.643066000000000E+00      2.083054000000000E-01     -1.705078000000000E+02
4926000000.000000      6.921082000000000E-01      9.721191000000000E+00      2.046509000000000E-01     -1.705703000000000E+02
4927000000.000000      6.943970000000000E-01      9.467285000000000E+00      2.007675000000000E-01     -1.707891000000000E+02
4928000000.000000      6.936340000000000E-01      9.435547000000000E+00      1.969681000000000E-01     -1.707187000000000E+02
4929000000.000000      6.938782000000000E-01      9.313477000000000E+00      1.927567000000000E-01     -1.707266000000000E+02
4930000000.000000      6.959839000000000E-01      9.493164000000000E+00      1.899719000000000E-01     -1.708516000000000E+02
4931000000.000000      6.972656000000000E-01      9.148438000000000E+00      1.863403000000000E-01     -1.707578000000000E+02
4932000000.000000      6.950989000000000E-01      9.090820000000000E+00      1.820984000000000E-01     -1.708281000000000E+02
4933000000.000000      6.962891000000000E-01      9.008789000000000E+00      1.782532000000000E-01     -1.705625000000000E+02
4934000000.000000      6.990356000000000E-01      8.968750000000000E+00      1.743546000000000E-01     -1.705859000000000E+02
4935000000.000000      6.990662000000000E-01      8.772461000000000E+00      1.716995000000000E-01     -1.703125000000000E+02
4936000000.000000      6.983337000000000E-01      8.698242000000000E+00      1.667404000000000E-01     -1.701406000000000E+02
4937000000.000000      6.992493000000000E-01      8.482422000000000E+00      1.634598000000000E-01     -1.698516000000000E+02
4938000000.000000      6.990356000000000E-01      8.588379000000000E+00      1.599884000000000E-01     -1.693594000000000E+02
4939000000.000000      6.994629000000000E-01      8.420898000000000E+00      1.563416000000000E-01     -1.690625000000000E+02
4940000000.000000      6.992493000000000E-01      8.246582000000000E+00      1.524734000000000E-01     -1.688047000000000E+02
4941000000.000000      7.012634000000000E-01      8.167969000000000E+00      1.494522000000000E-01     -1.684219000000000E+02
4942000000.000000      6.994934000000000E-01      8.110352000000000E+00      1.456604000000000E-01     -1.677031000000000E+02
4943000000.000000      7.012939000000000E-01      8.048828000000000E+00      1.424026000000000E-01     -1.669922000000000E+02
4944000000.000000      7.002869000000000E-01      7.866211000000000E+00      1.396179000000000E-01     -1.664766000000000E+02
4945000000.000000      7.035828000000000E-01      7.874268000000000E+00      1.361389000000000E-01     -1.657500000000000E+02
4946000000.000000      7.053528000000000E-01      7.849609000000000E+00      1.331711000000000E-01     -1.648438000000000E+02
4947000000.000000      7.012329000000000E-01      7.382813000000000E+00      1.297073000000000E-01     -1.640078000000000E+02
4948000000.000000      7.052612000000000E-01      7.698486000000000E+00      1.270599000000000E-01     -1.627031000000000E+02
4949000000.000000      7.019348000000000E-01      7.437744000000000E+00      1.248055000000000E-01     -1.616875000000000E+02
4950000000.000000      7.041321000000000E-01      7.275635000000000E+00      1.220894000000000E-01     -1.606016000000000E+02
4951000000.000000      7.045593000000000E-01      7.090088000000000E+00      1.195259000000000E-01     -1.594531000000000E+02
4952000000.000000      7.043457000000000E-01      7.160156000000000E+00      1.171646000000000E-01     -1.580937000000000E+02
4953000000.000000      7.052307000000000E-01      6.968018000000000E+00      1.150093000000000E-01     -1.565547000000000E+02
4954000000.000000      7.066956000000000E-01      6.965332000000000E+00      1.128616000000000E-01     -1.552344000000000E+02
