! Network Analyzer HP8722D
! Hewlett-Packard
! Data name: Linha & Wilkinson
! Saver's name: Rodrigo Anjos
! Comments: Teste da utilização de aquisição
continua pelo VNA HP8722D
! Time and date: 22/5/2025 11:23
!              Frequency                     S11                                                   S21                                                   S12                                                   S22
# HZ  S  MA R 50
4800000000.000000      6.524658000000000E-01      1.071143000000000E+01      4.717102000000000E-01     -9.255859000000000E+01
4801000000.000000      6.485291000000000E-01      1.079248000000000E+01      4.735260000000000E-01     -9.319530000000000E+01
4802000000.000000      6.490479000000000E-01      1.079541000000000E+01      4.729156000000000E-01     -9.391796000000000E+01
4803000000.000000      6.471252000000000E-01      1.081445000000000E+01      4.773865000000000E-01     -9.456249000000000E+01
4804000000.000000      6.448669000000000E-01      1.075684000000000E+01      4.786224000000000E-01     -9.525782000000000E+01
4805000000.000000      6.444702000000000E-01      1.066602000000000E+01      4.799652000000000E-01     -9.619530000000000E+01
4806000000.000000      6.414185000000000E-01      1.073193000000000E+01      4.830017000000000E-01     -9.707420000000000E+01
4807000000.000000      6.393738000000000E-01      1.071143000000000E+01      4.830475000000000E-01     -9.780859000000000E+01
4808000000.000000      6.372375000000000E-01      1.071826000000000E+01      4.839478000000000E-01     -9.831640000000000E+01
4809000000.000000      6.361694000000000E-01      1.081299000000000E+01      4.853058000000000E-01     -9.937109000000000E+01
4810000000.000000      6.367493000000000E-01      1.085303000000000E+01      4.870300000000000E-01     -1.000039000000000E+02
4811000000.000000      6.335754000000000E-01      1.080078000000000E+01      4.893036000000000E-01     -1.008281000000000E+02
4812000000.000000      6.337585000000000E-01      1.093799000000000E+01      4.885864000000000E-01     -1.016055000000000E+02
4813000000.000000      6.310120000000000E-01      1.093652000000000E+01      4.898376000000000E-01     -1.024297000000000E+02
4814000000.000000      6.299744000000000E-01      1.091211000000000E+01      4.919739000000000E-01     -1.030937000000000E+02
4815000000.000000      6.291199000000000E-01      1.101611000000000E+01      4.913177000000000E-01     -1.037539000000000E+02
4816000000.000000      6.273193000000000E-01      1.095850000000000E+01      4.947662000000000E-01     -1.043633000000000E+02
4817000000.000000      6.247253000000000E-01      1.127881000000000E+01      4.936218000000000E-01     -1.053828000000000E+02
4818000000.000000      6.241760000000000E-01      1.111670000000000E+01      4.941406000000000E-01     -1.059609000000000E+02
4819000000.000000      6.231995000000000E-01      1.140918000000000E+01      4.947968000000000E-01     -1.067695000000000E+02
4820000000.000000      6.206055000000000E-01      1.150391000000000E+01      4.950409000000000E-01     -1.073672000000000E+02
4821000000.000000      6.217346000000000E-01      1.147754000000000E+01      4.974670000000000E-01     -1.081758000000000E+02
4822000000.000000      6.181946000000000E-01      1.155176000000000E+01      4.962006000000000E-01     -1.090977000000000E+02
4823000000.000000      6.174622000000000E-01      1.175928000000000E+01      4.991150000000000E-01     -1.097812000000000E+02
4824000000.000000      6.173096000000000E-01      1.172510000000000E+01      4.978333000000000E-01     -1.105430000000000E+02
4825000000.000000      6.175537000000000E-01      1.178125000000000E+01      4.971619000000000E-01     -1.111992000000000E+02
4826000000.000000      6.163940000000000E-01      1.189404000000000E+01      4.984283000000000E-01     -1.120508000000000E+02
4827000000.000000      6.163940000000000E-01      1.214795000000000E+01      4.982605000000000E-01     -1.126875000000000E+02
4828000000.000000      6.160278000000000E-01      1.211230000000000E+01      4.994659000000000E-01     -1.135312000000000E+02
4829000000.000000      6.158752000000000E-01      1.262012000000000E+01      5.008240000000000E-01     -1.142969000000000E+02
4830000000.000000      6.151428000000000E-01      1.235107000000000E+01      4.991455000000000E-01     -1.151250000000000E+02
4831000000.000000      6.138611000000000E-01      1.259570000000000E+01      5.000916000000000E-01     -1.158242000000000E+02
4832000000.000000      6.136475000000000E-01      1.268506000000000E+01      4.994049000000000E-01     -1.163203000000000E+02
4833000000.000000      6.123047000000000E-01      1.277148000000000E+01      4.992828000000000E-01     -1.172344000000000E+02
4834000000.000000      6.138000000000000E-01      1.279492000000000E+01      4.982147000000000E-01     -1.179336000000000E+02
4835000000.000000      6.143799000000000E-01      1.288525000000000E+01      4.991608000000000E-01     -1.188047000000000E+02
4836000000.000000      6.166077000000000E-01      1.303906000000000E+01      4.973907000000000E-01     -1.195703000000000E+02
4837000000.000000      6.128540000000000E-01      1.330127000000000E+01      4.965210000000000E-01     -1.205156000000000E+02
4838000000.000000      6.122131000000000E-01      1.336328000000000E+01      4.994659000000000E-01     -1.211211000000000E+02
4839000000.000000      6.162109000000000E-01      1.366699000000000E+01      4.972687000000000E-01     -1.220937000000000E+02
4840000000.000000      6.168823000000000E-01      1.348389000000000E+01      4.982758000000000E-01     -1.228672000000000E+02
4841000000.000000      6.150818000000000E-01      1.374072000000000E+01      4.971008000000000E-01     -1.237891000000000E+02
4842000000.000000      6.167603000000000E-01      1.374072000000000E+01      4.957123000000000E-01     -1.243594000000000E+02
4843000000.000000      6.199951000000000E-01      1.383447000000000E+01      4.957733000000000E-01     -1.251914000000000E+02
4844000000.000000      6.184082000000000E-01      1.382861000000000E+01      4.957275000000000E-01     -1.261484000000000E+02
4845000000.000000      6.184387000000000E-01      1.398535000000000E+01      4.930420000000000E-01     -1.267383000000000E+02
4846000000.000000      6.202698000000000E-01      1.416113000000000E+01      4.919739000000000E-01     -1.276758000000000E+02
4847000000.000000      6.202698000000000E-01      1.411865000000000E+01      4.910126000000000E-01     -1.283125000000000E+02
4848000000.000000      6.183777000000000E-01      1.420361000000000E+01      4.883575000000000E-01     -1.293516000000000E+02
4849000000.000000      6.216125000000000E-01      1.413379000000000E+01      4.892120000000000E-01     -1.301250000000000E+02
4850000000.000000      6.221619000000000E-01      1.433398000000000E+01      4.862823000000000E-01     -1.309531000000000E+02
4851000000.000000      6.237488000000000E-01      1.448535000000000E+01      4.851532000000000E-01     -1.318516000000000E+02
4852000000.000000      6.220093000000000E-01      1.450586000000000E+01      4.840088000000000E-01     -1.326406000000000E+02
4853000000.000000      6.244812000000000E-01      1.459766000000000E+01      4.807129000000000E-01     -1.336719000000000E+02
4854000000.000000      6.265564000000000E-01      1.462402000000000E+01      4.783325000000000E-01     -1.344219000000000E+02
4855000000.000000      6.271667000000000E-01      1.460596000000000E+01      4.764862000000000E-01     -1.353203000000000E+02
4856000000.000000      6.263428000000000E-01      1.464307000000000E+01      4.742432000000000E-01     -1.361562000000000E+02
4857000000.000000      6.297913000000000E-01      1.466260000000000E+01      4.727173000000000E-01     -1.370312000000000E+02
4858000000.000000      6.293335000000000E-01      1.481348000000000E+01      4.702148000000000E-01     -1.378906000000000E+02
4859000000.000000      6.321411000000000E-01      1.453760000000000E+01      4.668121000000000E-01     -1.386406000000000E+02
4860000000.000000      6.333008000000000E-01      1.484229000000000E+01      4.632263000000000E-01     -1.394766000000000E+02
4861000000.000000      6.320190000000000E-01      1.490674000000000E+01      4.614258000000000E-01     -1.405859000000000E+02
4862000000.000000      6.353455000000000E-01      1.476123000000000E+01      4.582214000000000E-01     -1.412891000000000E+02
4863000000.000000      6.372070000000000E-01      1.492188000000000E+01      4.535217000000000E-01     -1.421328000000000E+02
4864000000.000000      6.373291000000000E-01      1.485352000000000E+01      4.501953000000000E-01     -1.426719000000000E+02
4865000000.000000      6.379395000000000E-01      1.498389000000000E+01      4.464569000000000E-01     -1.436641000000000E+02
4866000000.000000      6.392822000000000E-01      1.485352000000000E+01      4.429016000000000E-01     -1.444922000000000E+02
4867000000.000000      6.400757000000000E-01      1.497021000000000E+01      4.389343000000000E-01     -1.453125000000000E+02
4868000000.000000      6.413879000000000E-01      1.488232000000000E+01      4.349976000000000E-01     -1.461172000000000E+02
4869000000.000000      6.435242000000000E-01      1.481885000000000E+01      4.300690000000000E-01     -1.468203000000000E+02
4870000000.000000      6.452026000000000E-01      1.464063000000000E+01      4.267426000000000E-01     -1.473047000000000E+02
4871000000.000000      6.457214000000000E-01      1.453320000000000E+01      4.228210000000000E-01     -1.483750000000000E+02
4872000000.000000      6.486816000000000E-01      1.461182000000000E+01      4.174805000000000E-01     -1.487813000000000E+02
4873000000.000000      6.487122000000000E-01      1.476807000000000E+01      4.134216000000000E-01     -1.497344000000000E+02
4874000000.000000      6.502380000000000E-01      1.450732000000000E+01      4.093628000000000E-01     -1.503281000000000E+02
4875000000.000000      6.524963000000000E-01      1.444531000000000E+01      4.047699000000000E-01     -1.510781000000000E+02
4876000000.000000      6.523132000000000E-01      1.461865000000000E+01      4.017792000000000E-01     -1.518359000000000E+02
4877000000.000000      6.542664000000000E-01      1.435596000000000E+01      3.957825000000000E-01     -1.526094000000000E+02
4878000000.000000      6.534424000000000E-01      1.449463000000000E+01      3.926849000000000E-01     -1.531484000000000E+02
4879000000.000000      6.569824000000000E-01      1.449463000000000E+01      3.885040000000000E-01     -1.534297000000000E+02
4880000000.000000      6.579590000000000E-01      1.444141000000000E+01      3.842773000000000E-01     -1.542891000000000E+02
4881000000.000000      6.592102000000000E-01      1.441797000000000E+01      3.805237000000000E-01     -1.546797000000000E+02
4882000000.000000      6.616211000000000E-01      1.415723000000000E+01      3.758087000000000E-01     -1.553594000000000E+02
4883000000.000000      6.620178000000000E-01      1.415723000000000E+01      3.692627000000000E-01     -1.559609000000000E+02
4884000000.000000      6.629944000000000E-01      1.418457000000000E+01      3.668060000000000E-01     -1.565938000000000E+02
4885000000.000000      6.643372000000000E-01      1.421729000000000E+01      3.623505000000000E-01     -1.567109000000000E+02
4886000000.000000      6.660767000000000E-01      1.413623000000000E+01      3.576813000000000E-01     -1.575234000000000E+02
4887000000.000000      6.667480000000000E-01      1.387256000000000E+01      3.542938000000000E-01     -1.577891000000000E+02
4888000000.000000      6.665039000000000E-01      1.377783000000000E+01      3.501282000000000E-01     -1.585312000000000E+02
4889000000.000000      6.682434000000000E-01      1.377393000000000E+01      3.441010000000000E-01     -1.587031000000000E+02
4890000000.000000      6.670837000000000E-01      1.351318000000000E+01      3.406372000000000E-01     -1.596641000000000E+02
4891000000.000000      6.690063000000000E-01      1.375342000000000E+01      3.359528000000000E-01     -1.599141000000000E+02
4892000000.000000      6.708069000000000E-01      1.349805000000000E+01      3.327942000000000E-01     -1.598516000000000E+02
4893000000.000000      6.749573000000000E-01      1.340869000000000E+01      3.286285000000000E-01     -1.605312000000000E+02
4894000000.000000      6.722107000000000E-01      1.328760000000000E+01      3.246307000000000E-01     -1.612109000000000E+02
4895000000.000000      6.754456000000000E-01      1.339063000000000E+01      3.217163000000000E-01     -1.613281000000000E+02
4896000000.000000      6.759644000000000E-01      1.322021000000000E+01      3.175049000000000E-01     -1.616328000000000E+02
4897000000.000000      6.750793000000000E-01      1.299365000000000E+01      3.126831000000000E-01     -1.621172000000000E+02
4898000000.000000      6.756897000000000E-01      1.304199000000000E+01      3.099976000000000E-01     -1.623984000000000E+02
4899000000.000000      6.772766000000000E-01      1.277539000000000E+01      3.059082000000000E-01     -1.629531000000000E+02
4900000000.000000      6.792603000000000E-01      1.274512000000000E+01      3.021851000000000E-01     -1.631406000000000E+02
4901000000.000000      6.776733000000000E-01      1.283447000000000E+01      2.982025000000000E-01     -1.635313000000000E+02
4902000000.000000      6.800232000000000E-01      1.265723000000000E+01      2.954102000000000E-01     -1.639141000000000E+02
4903000000.000000      6.805420000000000E-01      1.251318000000000E+01      2.908020000000000E-01     -1.641953000000000E+02
4904000000.000000      6.804810000000000E-01      1.227832000000000E+01      2.874298000000000E-01     -1.645859000000000E+02
4905000000.000000      6.817932000000000E-01      1.218506000000000E+01      2.848358000000000E-01     -1.650781000000000E+02
4906000000.000000      6.817322000000000E-01      1.218896000000000E+01      2.799377000000000E-01     -1.651016000000000E+02
4907000000.000000      6.836548000000000E-01      1.201904000000000E+01      2.775726000000000E-01     -1.656172000000000E+02
4908000000.000000      6.857300000000000E-01      1.197900000000000E+01      2.737427000000000E-01     -1.658594000000000E+02
4909000000.000000      6.847839000000000E-01      1.209277000000000E+01      2.702484000000000E-01     -1.662188000000000E+02
4910000000.000000      6.850891000000000E-01      1.185693000000000E+01      2.662048000000000E-01     -1.664063000000000E+02
4911000000.000000      6.854858000000000E-01      1.169873000000000E+01      2.629547000000000E-01     -1.667187000000000E+02
4912000000.000000      6.855469000000000E-01      1.179346000000000E+01      2.590027000000000E-01     -1.671016000000000E+02
4913000000.000000      6.863403000000000E-01      1.158740000000000E+01      2.556915000000000E-01     -1.674375000000000E+02
4914000000.000000      6.873474000000000E-01      1.126465000000000E+01      2.529449000000000E-01     -1.677187000000000E+02
4915000000.000000      6.885071000000000E-01      1.127881000000000E+01      2.489243000000000E-01     -1.681015000000000E+02
4916000000.000000      6.873779000000000E-01      1.113428000000000E+01      2.453232000000000E-01     -1.683125000000000E+02
4917000000.000000      6.897888000000000E-01      1.109033000000000E+01      2.419052000000000E-01     -1.686563000000000E+02
4918000000.000000      6.900940000000000E-01      1.109619000000000E+01      2.375870000000000E-01     -1.689453000000000E+02
4919000000.000000      6.900330000000000E-01      1.107959000000000E+01      2.348938000000000E-01     -1.689375000000000E+02
4920000000.000000      6.918335000000000E-01      1.075000000000000E+01      2.310791000000000E-01     -1.695313000000000E+02
4921000000.000000      6.934509000000000E-01      1.077881000000000E+01      2.276459000000000E-01     -1.696406000000000E+02
4922000000.000000      6.908264000000000E-01      1.065381000000000E+01      2.235184000000000E-01     -1.697500000000000E+02
4923000000.000000      6.922302000000000E-01      1.050000000000000E+01      2.196426000000000E-01     -1.698203000000000E+02
4924000000.000000      6.901550000000000E-01      1.045898000000000E+01      2.159119000000000E-01     -1.702344000000000E+02
4925000000.000000      6.935730000000000E-01      1.045752000000000E+01      2.129440000000000E-01     -1.704375000000000E+02
4926000000.000000      6.923828000000000E-01      1.041211000000000E+01      2.093658000000000E-01     -1.706406000000000E+02
4927000000.000000      6.950378000000000E-01      1.022119000000000E+01      2.049179000000000E-01     -1.706172000000000E+02
4928000000.000000      6.963196000000000E-01      1.012793000000000E+01      2.015457000000000E-01     -1.706875000000000E+02
4929000000.000000      6.950073000000000E-01      1.001514000000000E+01      1.971283000000000E-01     -1.707500000000000E+02
4930000000.000000      6.967468000000000E-01      1.008398000000000E+01      1.936111000000000E-01     -1.710234000000000E+02
4931000000.000000      6.953735000000000E-01      9.732422000000000E+00      1.903534000000000E-01     -1.708594000000000E+02
4932000000.000000      6.973572000000000E-01      9.774902000000000E+00      1.864700000000000E-01     -1.708516000000000E+02
4933000000.000000      6.978455000000000E-01      9.553711000000000E+00      1.816406000000000E-01     -1.705547000000000E+02
4934000000.000000      6.996765000000000E-01      9.526367000000000E+00      1.788559000000000E-01     -1.710781000000000E+02
4935000000.000000      7.001038000000000E-01      9.262695000000000E+00      1.754532000000000E-01     -1.705234000000000E+02
4936000000.000000      6.990051000000000E-01      9.353027000000000E+00      1.704941000000000E-01     -1.705391000000000E+02
4937000000.000000      6.989441000000000E-01      8.989258000000000E+00      1.672516000000000E-01     -1.703594000000000E+02
4938000000.000000      6.993408000000000E-01      9.199219000000000E+00      1.639481000000000E-01     -1.701406000000000E+02
4939000000.000000      7.005920000000000E-01      9.159668000000000E+00      1.602859000000000E-01     -1.696719000000000E+02
4940000000.000000      6.997681000000000E-01      8.779297000000000E+00      1.561127000000000E-01     -1.693984000000000E+02
4941000000.000000      7.018738000000000E-01      8.823242000000000E+00      1.525116000000000E-01     -1.688750000000000E+02
4942000000.000000      7.030640000000000E-01      8.840820000000000E+00      1.493607000000000E-01     -1.685625000000000E+02
4943000000.000000      7.015686000000000E-01      8.603516000000000E+00      1.459885000000000E-01     -1.678594000000000E+02
4944000000.000000      7.021790000000000E-01      8.456543000000000E+00      1.427612000000000E-01     -1.673359000000000E+02
4945000000.000000      7.007751000000000E-01      8.316406000000000E+00      1.390305000000000E-01     -1.665469000000000E+02
4946000000.000000      7.048035000000000E-01      8.291504000000000E+00      1.357422000000000E-01     -1.658672000000000E+02
4947000000.000000      7.021790000000000E-01      8.066406000000000E+00      1.326904000000000E-01     -1.651953000000000E+02
4948000000.000000      7.046204000000000E-01      8.014160000000000E+00      1.293488000000000E-01     -1.640859000000000E+02
4949000000.000000      7.052307000000000E-01      7.996582000000000E+00      1.268921000000000E-01     -1.630703000000000E+02
4950000000.000000      7.051086000000000E-01      7.835938000000000E+00      1.236839000000000E-01     -1.621250000000000E+02
4951000000.000000      7.076416000000000E-01      7.846924000000000E+00      1.213417000000000E-01     -1.611797000000000E+02
4952000000.000000      7.048340000000000E-01      7.831787000000000E+00      1.184006000000000E-01     -1.596953000000000E+02
4953000000.000000      7.069702000000000E-01      7.621582000000000E+00      1.167107000000000E-01     -1.583516000000000E+02
4954000000.000000      7.075195000000000E-01      7.403320000000000E+00      1.146126000000000E-01     -1.570781000000000E+02
