! Network Analyzer HP8722D
! Hewlett-Packard
! Data name: Linha & Wilkinson
! Saver's name: Rodrigo Anjos
! Comments: Teste da utilização de aquisição
continua pelo VNA HP8722D
! Time and date: 22/5/2025 13:04
!              Frequency                     S11                                                   S21                                                   S12                                                   S22
# HZ  S  MA R 50
4800000000.000000      6.508179000000000E-01      1.084473000000000E+01      4.721832000000000E-01     -9.282812000000000E+01
4801000000.000000      6.488037000000000E-01      1.091211000000000E+01      4.729919000000000E-01     -9.353907000000000E+01
4802000000.000000      6.476135000000000E-01      1.089404000000000E+01      4.738770000000000E-01     -9.402344000000000E+01
4803000000.000000      6.455078000000000E-01      1.082813000000000E+01      4.782867000000000E-01     -9.480860000000000E+01
4804000000.000000      6.431274000000000E-01      1.082666000000000E+01      4.788208000000000E-01     -9.573828000000000E+01
4805000000.000000      6.422424000000000E-01      1.078418000000000E+01      4.816284000000000E-01     -9.653515000000000E+01
4806000000.000000      6.409302000000000E-01      1.075928000000000E+01      4.830017000000000E-01     -9.721483000000000E+01
4807000000.000000      6.391602000000000E-01      1.092822000000000E+01      4.836426000000000E-01     -9.812889000000000E+01
4808000000.000000      6.365051000000000E-01      1.071143000000000E+01      4.858398000000000E-01     -9.870703000000000E+01
4809000000.000000      6.361084000000000E-01      1.090771000000000E+01      4.865417000000000E-01     -9.979296000000000E+01
4810000000.000000      6.323242000000000E-01      1.091064000000000E+01      4.900055000000000E-01     -1.003008000000000E+02
4811000000.000000      6.337280000000000E-01      1.090234000000000E+01      4.903259000000000E-01     -1.011445000000000E+02
4812000000.000000      6.334839000000000E-01      1.114795000000000E+01      4.909668000000000E-01     -1.017695000000000E+02
4813000000.000000      6.308289000000000E-01      1.106006000000000E+01      4.914551000000000E-01     -1.026563000000000E+02
4814000000.000000      6.271057000000000E-01      1.112207000000000E+01      4.933624000000000E-01     -1.032539000000000E+02
4815000000.000000      6.264038000000000E-01      1.121973000000000E+01      4.945068000000000E-01     -1.041602000000000E+02
4816000000.000000      6.263733000000000E-01      1.135156000000000E+01      4.939880000000000E-01     -1.046641000000000E+02
4817000000.000000      6.243286000000000E-01      1.138867000000000E+01      4.943542000000000E-01     -1.055781000000000E+02
4818000000.000000      6.236572000000000E-01      1.133203000000000E+01      4.951324000000000E-01     -1.063320000000000E+02
4819000000.000000      6.212463000000000E-01      1.142822000000000E+01      4.959717000000000E-01     -1.072187000000000E+02
4820000000.000000      6.214600000000000E-01      1.166602000000000E+01      4.969635000000000E-01     -1.077695000000000E+02
4821000000.000000      6.208801000000000E-01      1.157373000000000E+01      4.978027000000000E-01     -1.088437000000000E+02
4822000000.000000      6.188354000000000E-01      1.173877000000000E+01      4.951324000000000E-01     -1.091719000000000E+02
4823000000.000000      6.176758000000000E-01      1.183350000000000E+01      4.979858000000000E-01     -1.100742000000000E+02
4824000000.000000      6.175537000000000E-01      1.198291000000000E+01      4.985504000000000E-01     -1.110469000000000E+02
4825000000.000000      6.176453000000000E-01      1.205469000000000E+01      4.981689000000000E-01     -1.115820000000000E+02
4826000000.000000      6.166992000000000E-01      1.203125000000000E+01      4.987488000000000E-01     -1.124726000000000E+02
4827000000.000000      6.170349000000000E-01      1.222607000000000E+01      4.984283000000000E-01     -1.129766000000000E+02
4828000000.000000      6.166382000000000E-01      1.242822000000000E+01      4.994507000000000E-01     -1.136172000000000E+02
4829000000.000000      6.147461000000000E-01      1.271094000000000E+01      5.002136000000000E-01     -1.144375000000000E+02
4830000000.000000      6.145325000000000E-01      1.264502000000000E+01      5.001221000000000E-01     -1.154844000000000E+02
4831000000.000000      6.152649000000000E-01      1.259277000000000E+01      4.985962000000000E-01     -1.161992000000000E+02
4832000000.000000      6.135559000000000E-01      1.275879000000000E+01      4.981689000000000E-01     -1.168437000000000E+02
4833000000.000000      6.127014000000000E-01      1.293896000000000E+01      4.993286000000000E-01     -1.175859000000000E+02
4834000000.000000      6.123962000000000E-01      1.297168000000000E+01      4.977112000000000E-01     -1.184766000000000E+02
4835000000.000000      6.144409000000000E-01      1.318359000000000E+01      4.984894000000000E-01     -1.192305000000000E+02
4836000000.000000      6.144714000000000E-01      1.324951000000000E+01      4.987488000000000E-01     -1.200117000000000E+02
4837000000.000000      6.135559000000000E-01      1.341797000000000E+01      4.971313000000000E-01     -1.209023000000000E+02
4838000000.000000      6.129456000000000E-01      1.348975000000000E+01      4.980469000000000E-01     -1.213828000000000E+02
4839000000.000000      6.159363000000000E-01      1.363086000000000E+01      4.970856000000000E-01     -1.222344000000000E+02
4840000000.000000      6.150818000000000E-01      1.362402000000000E+01      4.968567000000000E-01     -1.230820000000000E+02
4841000000.000000      6.157227000000000E-01      1.399365000000000E+01      4.957123000000000E-01     -1.238867000000000E+02
4842000000.000000      6.166992000000000E-01      1.392920000000000E+01      4.968414000000000E-01     -1.246836000000000E+02
4843000000.000000      6.179810000000000E-01      1.398828000000000E+01      4.956970000000000E-01     -1.255117000000000E+02
4844000000.000000      6.183472000000000E-01      1.388232000000000E+01      4.945679000000000E-01     -1.264101000000000E+02
4845000000.000000      6.185303000000000E-01      1.413770000000000E+01      4.934387000000000E-01     -1.272031000000000E+02
4846000000.000000      6.193237000000000E-01      1.431348000000000E+01      4.919128000000000E-01     -1.280859000000000E+02
4847000000.000000      6.212158000000000E-01      1.422559000000000E+01      4.911194000000000E-01     -1.288047000000000E+02
4848000000.000000      6.217651000000000E-01      1.455371000000000E+01      4.884338000000000E-01     -1.296016000000000E+02
4849000000.000000      6.217041000000000E-01      1.450977000000000E+01      4.873352000000000E-01     -1.305312000000000E+02
4850000000.000000      6.225586000000000E-01      1.454297000000000E+01      4.838104000000000E-01     -1.314297000000000E+02
4851000000.000000      6.230164000000000E-01      1.451953000000000E+01      4.840851000000000E-01     -1.322578000000000E+02
4852000000.000000      6.237793000000000E-01      1.470508000000000E+01      4.809570000000000E-01     -1.331016000000000E+02
4853000000.000000      6.255493000000000E-01      1.468018000000000E+01      4.803467000000000E-01     -1.341016000000000E+02
4854000000.000000      6.244202000000000E-01      1.465137000000000E+01      4.774628000000000E-01     -1.349453000000000E+02
4855000000.000000      6.256409000000000E-01      1.476123000000000E+01      4.744110000000000E-01     -1.358516000000000E+02
4856000000.000000      6.286011000000000E-01      1.476270000000000E+01      4.724884000000000E-01     -1.366875000000000E+02
4857000000.000000      6.307373000000000E-01      1.506201000000000E+01      4.716797000000000E-01     -1.372500000000000E+02
4858000000.000000      6.305237000000000E-01      1.487402000000000E+01      4.688721000000000E-01     -1.382266000000000E+02
4859000000.000000      6.332092000000000E-01      1.484229000000000E+01      4.662476000000000E-01     -1.390703000000000E+02
4860000000.000000      6.322632000000000E-01      1.496191000000000E+01      4.620514000000000E-01     -1.397812000000000E+02
4861000000.000000      6.327820000000000E-01      1.474902000000000E+01      4.589081000000000E-01     -1.407969000000000E+02
4862000000.000000      6.342773000000000E-01      1.507178000000000E+01      4.557953000000000E-01     -1.414531000000000E+02
4863000000.000000      6.380005000000000E-01      1.513184000000000E+01      4.509583000000000E-01     -1.424219000000000E+02
4864000000.000000      6.377258000000000E-01      1.498389000000000E+01      4.483032000000000E-01     -1.429766000000000E+02
4865000000.000000      6.372681000000000E-01      1.486719000000000E+01      4.449158000000000E-01     -1.436875000000000E+02
4866000000.000000      6.395569000000000E-01      1.493018000000000E+01      4.411926000000000E-01     -1.447734000000000E+02
4867000000.000000      6.387024000000000E-01      1.504297000000000E+01      4.382019000000000E-01     -1.457422000000000E+02
4868000000.000000      6.439819000000000E-01      1.474219000000000E+01      4.322357000000000E-01     -1.464453000000000E+02
4869000000.000000      6.427002000000000E-01      1.482861000000000E+01      4.288788000000000E-01     -1.471953000000000E+02
4870000000.000000      6.446838000000000E-01      1.490430000000000E+01      4.251404000000000E-01     -1.479609000000000E+02
4871000000.000000      6.444702000000000E-01      1.471045000000000E+01      4.207458000000000E-01     -1.485312000000000E+02
4872000000.000000      6.484985000000000E-01      1.478857000000000E+01      4.158173000000000E-01     -1.491797000000000E+02
4873000000.000000      6.478882000000000E-01      1.486816000000000E+01      4.137115000000000E-01     -1.501172000000000E+02
4874000000.000000      6.463623000000000E-01      1.476660000000000E+01      4.075928000000000E-01     -1.507109000000000E+02
4875000000.000000      6.505127000000000E-01      1.464600000000000E+01      4.029694000000000E-01     -1.512734000000000E+02
4876000000.000000      6.529236000000000E-01      1.478760000000000E+01      3.998260000000000E-01     -1.519375000000000E+02
4877000000.000000      6.529541000000000E-01      1.433008000000000E+01      3.953552000000000E-01     -1.526719000000000E+02
4878000000.000000      6.538086000000000E-01      1.454834000000000E+01      3.898163000000000E-01     -1.532656000000000E+02
4879000000.000000      6.569214000000000E-01      1.451416000000000E+01      3.859253000000000E-01     -1.535469000000000E+02
4880000000.000000      6.576538000000000E-01      1.428906000000000E+01      3.814850000000000E-01     -1.544453000000000E+02
4881000000.000000      6.593018000000000E-01      1.447559000000000E+01      3.776550000000000E-01     -1.548437000000000E+02
4882000000.000000      6.611633000000000E-01      1.441797000000000E+01      3.739319000000000E-01     -1.556484000000000E+02
4883000000.000000      6.624756000000000E-01      1.422852000000000E+01      3.683319000000000E-01     -1.561875000000000E+02
4884000000.000000      6.632385000000000E-01      1.430518000000000E+01      3.643188000000000E-01     -1.567344000000000E+02
4885000000.000000      6.649780000000000E-01      1.409814000000000E+01      3.607025000000000E-01     -1.570547000000000E+02
4886000000.000000      6.661682000000000E-01      1.421338000000000E+01      3.562927000000000E-01     -1.572031000000000E+02
4887000000.000000      6.656799000000000E-01      1.413232000000000E+01      3.516998000000000E-01     -1.581797000000000E+02
4888000000.000000      6.657715000000000E-01      1.390283000000000E+01      3.471680000000000E-01     -1.586641000000000E+02
4889000000.000000      6.675720000000000E-01      1.385889000000000E+01      3.420715000000000E-01     -1.590234000000000E+02
4890000000.000000      6.700439000000000E-01      1.372314000000000E+01      3.388519000000000E-01     -1.596406000000000E+02
4891000000.000000      6.699524000000000E-01      1.388672000000000E+01      3.345032000000000E-01     -1.599062000000000E+02
4892000000.000000      6.700439000000000E-01      1.361475000000000E+01      3.301849000000000E-01     -1.600078000000000E+02
4893000000.000000      6.714478000000000E-01      1.342529000000000E+01      3.261414000000000E-01     -1.607656000000000E+02
4894000000.000000      6.737366000000000E-01      1.344580000000000E+01      3.218536000000000E-01     -1.610469000000000E+02
4895000000.000000      6.751099000000000E-01      1.332617000000000E+01      3.194275000000000E-01     -1.614141000000000E+02
4896000000.000000      6.759949000000000E-01      1.315332000000000E+01      3.145752000000000E-01     -1.618359000000000E+02
4897000000.000000      6.759338000000000E-01      1.328516000000000E+01      3.103790000000000E-01     -1.621875000000000E+02
4898000000.000000      6.780701000000000E-01      1.317920000000000E+01      3.068237000000000E-01     -1.625625000000000E+02
4899000000.000000      6.793518000000000E-01      1.297607000000000E+01      3.034515000000000E-01     -1.629922000000000E+02
4900000000.000000      6.792297000000000E-01      1.299512000000000E+01      2.998352000000000E-01     -1.631641000000000E+02
4901000000.000000      6.791077000000000E-01      1.280566000000000E+01      2.962799000000000E-01     -1.635781000000000E+02
4902000000.000000      6.800537000000000E-01      1.258594000000000E+01      2.933502000000000E-01     -1.636953000000000E+02
4903000000.000000      6.805725000000000E-01      1.278906000000000E+01      2.885590000000000E-01     -1.642500000000000E+02
4904000000.000000      6.814880000000000E-01      1.232764000000000E+01      2.855072000000000E-01     -1.647656000000000E+02
4905000000.000000      6.823730000000000E-01      1.237744000000000E+01      2.821350000000000E-01     -1.650078000000000E+02
4906000000.000000      6.818237000000000E-01      1.224561000000000E+01      2.789001000000000E-01     -1.650234000000000E+02
4907000000.000000      6.832275000000000E-01      1.212988000000000E+01      2.755432000000000E-01     -1.655937000000000E+02
4908000000.000000      6.836853000000000E-01      1.207520000000000E+01      2.727509000000000E-01     -1.659844000000000E+02
4909000000.000000      6.841431000000000E-01      1.188135000000000E+01      2.677612000000000E-01     -1.661172000000000E+02
4910000000.000000      6.855469000000000E-01      1.181689000000000E+01      2.642212000000000E-01     -1.665781000000000E+02
4911000000.000000      6.861572000000000E-01      1.184717000000000E+01      2.612000000000000E-01     -1.667109000000000E+02
4912000000.000000      6.863098000000000E-01      1.178125000000000E+01      2.578125000000000E-01     -1.671797000000000E+02
4913000000.000000      6.882629000000000E-01      1.156299000000000E+01      2.543488000000000E-01     -1.673281000000000E+02
4914000000.000000      6.874695000000000E-01      1.136377000000000E+01      2.506256000000000E-01     -1.676563000000000E+02
4915000000.000000      6.901245000000000E-01      1.129932000000000E+01      2.467346000000000E-01     -1.680938000000000E+02
4916000000.000000      6.892395000000000E-01      1.125781000000000E+01      2.433701000000000E-01     -1.683203000000000E+02
4917000000.000000      6.917725000000000E-01      1.122217000000000E+01      2.402420000000000E-01     -1.685859000000000E+02
4918000000.000000      6.896057000000000E-01      1.107422000000000E+01      2.362213000000000E-01     -1.689609000000000E+02
4919000000.000000      6.893921000000000E-01      1.110693000000000E+01      2.332916000000000E-01     -1.689453000000000E+02
4920000000.000000      6.915283000000000E-01      1.108496000000000E+01      2.287292000000000E-01     -1.694375000000000E+02
4921000000.000000      6.912842000000000E-01      1.078955000000000E+01      2.260056000000000E-01     -1.695547000000000E+02
4922000000.000000      6.917419000000000E-01      1.073877000000000E+01      2.219620000000000E-01     -1.697734000000000E+02
4923000000.000000      6.939087000000000E-01      1.092822000000000E+01      2.175827000000000E-01     -1.699062000000000E+02
4924000000.000000      6.936340000000000E-01      1.039990000000000E+01      2.138748000000000E-01     -1.700625000000000E+02
4925000000.000000      6.927185000000000E-01      1.025830000000000E+01      2.109833000000000E-01     -1.702188000000000E+02
4926000000.000000      6.934814000000000E-01      1.034766000000000E+01      2.065811000000000E-01     -1.703750000000000E+02
4927000000.000000      6.958008000000000E-01      1.025537000000000E+01      2.034454000000000E-01     -1.706406000000000E+02
4928000000.000000      6.950073000000000E-01      1.008398000000000E+01      1.992950000000000E-01     -1.705937000000000E+02
4929000000.000000      6.955261000000000E-01      9.979492000000000E+00      1.951752000000000E-01     -1.706250000000000E+02
4930000000.000000      6.952515000000000E-01      1.001367000000000E+01      1.917877000000000E-01     -1.707344000000000E+02
4931000000.000000      6.950989000000000E-01      9.859863000000000E+00      1.883698000000000E-01     -1.706406000000000E+02
4932000000.000000      6.978149000000000E-01      9.758301000000000E+00      1.841583000000000E-01     -1.705547000000000E+02
4933000000.000000      6.966858000000000E-01      9.626465000000000E+00      1.796570000000000E-01     -1.705312000000000E+02
4934000000.000000      6.997375000000000E-01      9.408203000000000E+00      1.764450000000000E-01     -1.706406000000000E+02
4935000000.000000      6.994934000000000E-01      9.404297000000000E+00      1.736526000000000E-01     -1.702656000000000E+02
4936000000.000000      6.983643000000000E-01      9.343750000000000E+00      1.690445000000000E-01     -1.701953000000000E+02
4937000000.000000      6.995239000000000E-01      9.099121000000000E+00      1.656723000000000E-01     -1.701094000000000E+02
4938000000.000000      6.987000000000000E-01      9.152832000000000E+00      1.619110000000000E-01     -1.696640000000000E+02
4939000000.000000      6.997070000000000E-01      9.078613000000000E+00      1.581497000000000E-01     -1.691719000000000E+02
4940000000.000000      7.002563000000000E-01      8.884766000000000E+00      1.544647000000000E-01     -1.690391000000000E+02
4941000000.000000      6.996460000000000E-01      8.792969000000000E+00      1.511993000000000E-01     -1.683750000000000E+02
4942000000.000000      7.003479000000000E-01      8.825684000000000E+00      1.474609000000000E-01     -1.680391000000000E+02
4943000000.000000      7.010193000000000E-01      8.752930000000000E+00      1.441193000000000E-01     -1.674062000000000E+02
4944000000.000000      7.020569000000000E-01      8.695313000000000E+00      1.411591000000000E-01     -1.669219000000000E+02
4945000000.000000      7.030029000000000E-01      8.392090000000000E+00      1.374130000000000E-01     -1.662734000000000E+02
4946000000.000000      7.024536000000000E-01      8.368652000000000E+00      1.345367000000000E-01     -1.652031000000000E+02
4947000000.000000      7.030029000000000E-01      8.049805000000000E+00      1.315155000000000E-01     -1.644453000000000E+02
4948000000.000000      7.036133000000000E-01      8.167969000000000E+00      1.288605000000000E-01     -1.633984000000000E+02
4949000000.000000      7.029724000000000E-01      8.025391000000000E+00      1.257324000000000E-01     -1.623203000000000E+02
4950000000.000000      7.051392000000000E-01      8.177734000000000E+00      1.229210000000000E-01     -1.614375000000000E+02
4951000000.000000      7.070618000000000E-01      7.888184000000000E+00      1.199303000000000E-01     -1.603281000000000E+02
4952000000.000000      7.059021000000000E-01      7.789307000000000E+00      1.175079000000000E-01     -1.590859000000000E+02
4953000000.000000      7.073669000000000E-01      7.544678000000000E+00      1.155701000000000E-01     -1.574844000000000E+02
4954000000.000000      7.091675000000000E-01      7.677979000000000E+00      1.136017000000000E-01     -1.559375000000000E+02
