! Network Analyzer HP8722D
! Hewlett-Packard
! Data name: Linha & Wilkinson
! Saver's name: Rodrigo Anjos
! Comments: Teste da utilização de aquisição
continua pelo VNA HP8722D
! Time and date: 22/5/2025 15:03
!              Frequency                     S11                                                   S21                                                   S12                                                   S22
# HZ  S  MA R 50
4800000000.000000      6.536865000000000E-01      1.093799000000000E+01      4.711914000000000E-01     -9.200390000000000E+01
4801000000.000000      6.516113000000000E-01      1.083350000000000E+01      4.714050000000000E-01     -9.244921000000000E+01
4802000000.000000      6.493225000000000E-01      1.101514000000000E+01      4.740295000000000E-01     -9.327343000000000E+01
4803000000.000000      6.480713000000000E-01      1.094775000000000E+01      4.781342000000000E-01     -9.387890000000000E+01
4804000000.000000      6.467285000000000E-01      1.090088000000000E+01      4.773102000000000E-01     -9.488281000000000E+01
4805000000.000000      6.447449000000000E-01      1.088184000000000E+01      4.807434000000000E-01     -9.561327000000000E+01
4806000000.000000      6.426697000000000E-01      1.089551000000000E+01      4.818726000000000E-01     -9.626953000000000E+01
4807000000.000000      6.408691000000000E-01      1.087061000000000E+01      4.834290000000000E-01     -9.701561000000000E+01
4808000000.000000      6.381836000000000E-01      1.093115000000000E+01      4.848175000000000E-01     -9.784765000000000E+01
4809000000.000000      6.387024000000000E-01      1.095020000000000E+01      4.861450000000000E-01     -9.853516000000000E+01
4810000000.000000      6.370239000000000E-01      1.093799000000000E+01      4.881439000000000E-01     -9.926170000000000E+01
4811000000.000000      6.347046000000000E-01      1.102051000000000E+01      4.879913000000000E-01     -1.000820000000000E+02
4812000000.000000      6.350708000000000E-01      1.126611000000000E+01      4.896240000000000E-01     -1.007813000000000E+02
4813000000.000000      6.332092000000000E-01      1.107422000000000E+01      4.907074000000000E-01     -1.015391000000000E+02
4814000000.000000      6.302490000000000E-01      1.126904000000000E+01      4.906464000000000E-01     -1.022773000000000E+02
4815000000.000000      6.281128000000000E-01      1.126221000000000E+01      4.925385000000000E-01     -1.033125000000000E+02
4816000000.000000      6.273804000000000E-01      1.126904000000000E+01      4.939728000000000E-01     -1.037617000000000E+02
4817000000.000000      6.246338000000000E-01      1.129102000000000E+01      4.942017000000000E-01     -1.047031000000000E+02
4818000000.000000      6.255188000000000E-01      1.144189000000000E+01      4.938202000000000E-01     -1.055156000000000E+02
4819000000.000000      6.249390000000000E-01      1.152051000000000E+01      4.958954000000000E-01     -1.061289000000000E+02
4820000000.000000      6.223755000000000E-01      1.168213000000000E+01      4.969940000000000E-01     -1.067812000000000E+02
4821000000.000000      6.204224000000000E-01      1.167969000000000E+01      4.974823000000000E-01     -1.074922000000000E+02
4822000000.000000      6.195068000000000E-01      1.170557000000000E+01      4.961395000000000E-01     -1.084101000000000E+02
4823000000.000000      6.194458000000000E-01      1.178516000000000E+01      4.986725000000000E-01     -1.092539000000000E+02
4824000000.000000      6.185913000000000E-01      1.203271000000000E+01      4.984436000000000E-01     -1.100156000000000E+02
4825000000.000000      6.160583000000000E-01      1.195166000000000E+01      4.982605000000000E-01     -1.107305000000000E+02
4826000000.000000      6.168823000000000E-01      1.197607000000000E+01      4.980469000000000E-01     -1.114101000000000E+02
4827000000.000000      6.163635000000000E-01      1.234424000000000E+01      4.983673000000000E-01     -1.119609000000000E+02
4828000000.000000      6.166077000000000E-01      1.230322000000000E+01      4.979095000000000E-01     -1.127930000000000E+02
4829000000.000000      6.157532000000000E-01      1.252148000000000E+01      4.984436000000000E-01     -1.134375000000000E+02
4830000000.000000      6.148682000000000E-01      1.257764000000000E+01      4.997711000000000E-01     -1.144765000000000E+02
4831000000.000000      6.146545000000000E-01      1.260254000000000E+01      5.002136000000000E-01     -1.151719000000000E+02
4832000000.000000      6.140747000000000E-01      1.284814000000000E+01      4.995880000000000E-01     -1.157695000000000E+02
4833000000.000000      6.131897000000000E-01      1.302539000000000E+01      4.991760000000000E-01     -1.165625000000000E+02
4834000000.000000      6.130981000000000E-01      1.289209000000000E+01      5.003662000000000E-01     -1.173789000000000E+02
4835000000.000000      6.130676000000000E-01      1.311328000000000E+01      4.998779000000000E-01     -1.180898000000000E+02
4836000000.000000      6.148987000000000E-01      1.351025000000000E+01      4.990234000000000E-01     -1.189297000000000E+02
4837000000.000000      6.123352000000000E-01      1.359521000000000E+01      4.968414000000000E-01     -1.198555000000000E+02
4838000000.000000      6.124573000000000E-01      1.364355000000000E+01      4.996490000000000E-01     -1.204140000000000E+02
4839000000.000000      6.166382000000000E-01      1.360352000000000E+01      4.983215000000000E-01     -1.211836000000000E+02
4840000000.000000      6.155396000000000E-01      1.365723000000000E+01      4.982300000000000E-01     -1.221289000000000E+02
4841000000.000000      6.157837000000000E-01      1.384375000000000E+01      4.978027000000000E-01     -1.229453000000000E+02
4842000000.000000      6.166992000000000E-01      1.390869000000000E+01      4.971771000000000E-01     -1.236445000000000E+02
4843000000.000000      6.180420000000000E-01      1.394287000000000E+01      4.976044000000000E-01     -1.245313000000000E+02
4844000000.000000      6.173096000000000E-01      1.395361000000000E+01      4.961395000000000E-01     -1.251836000000000E+02
4845000000.000000      6.174622000000000E-01      1.415137000000000E+01      4.941406000000000E-01     -1.262031000000000E+02
4846000000.000000      6.186523000000000E-01      1.431494000000000E+01      4.945374000000000E-01     -1.270781000000000E+02
4847000000.000000      6.188965000000000E-01      1.434814000000000E+01      4.919128000000000E-01     -1.277812000000000E+02
4848000000.000000      6.197815000000000E-01      1.435596000000000E+01      4.899902000000000E-01     -1.287109000000000E+02
4849000000.000000      6.204529000000000E-01      1.433691000000000E+01      4.899750000000000E-01     -1.295703000000000E+02
4850000000.000000      6.215515000000000E-01      1.446191000000000E+01      4.881134000000000E-01     -1.303750000000000E+02
4851000000.000000      6.225586000000000E-01      1.458008000000000E+01      4.879761000000000E-01     -1.312031000000000E+02
4852000000.000000      6.228333000000000E-01      1.470898000000000E+01      4.855957000000000E-01     -1.322031000000000E+02
4853000000.000000      6.239319000000000E-01      1.481494000000000E+01      4.808197000000000E-01     -1.328359000000000E+02
4854000000.000000      6.269836000000000E-01      1.490820000000000E+01      4.809723000000000E-01     -1.338984000000000E+02
4855000000.000000      6.262207000000000E-01      1.489844000000000E+01      4.790344000000000E-01     -1.347344000000000E+02
4856000000.000000      6.272278000000000E-01      1.490527000000000E+01      4.759827000000000E-01     -1.355078000000000E+02
4857000000.000000      6.298828000000000E-01      1.501953000000000E+01      4.746552000000000E-01     -1.364922000000000E+02
4858000000.000000      6.283569000000000E-01      1.489160000000000E+01      4.707336000000000E-01     -1.371953000000000E+02
4859000000.000000      6.310425000000000E-01      1.494238000000000E+01      4.688263000000000E-01     -1.380781000000000E+02
4860000000.000000      6.289063000000000E-01      1.500830000000000E+01      4.664154000000000E-01     -1.390312000000000E+02
4861000000.000000      6.320190000000000E-01      1.512646000000000E+01      4.631348000000000E-01     -1.398281000000000E+02
4862000000.000000      6.334839000000000E-01      1.509375000000000E+01      4.602814000000000E-01     -1.405078000000000E+02
4863000000.000000      6.353149000000000E-01      1.519238000000000E+01      4.567413000000000E-01     -1.414141000000000E+02
4864000000.000000      6.342163000000000E-01      1.503613000000000E+01      4.540100000000000E-01     -1.422031000000000E+02
4865000000.000000      6.396484000000000E-01      1.496338000000000E+01      4.494171000000000E-01     -1.430234000000000E+02
4866000000.000000      6.389771000000000E-01      1.510059000000000E+01      4.449158000000000E-01     -1.437891000000000E+02
4867000000.000000      6.387939000000000E-01      1.503174000000000E+01      4.423981000000000E-01     -1.447578000000000E+02
4868000000.000000      6.405334000000000E-01      1.513086000000000E+01      4.393768000000000E-01     -1.453281000000000E+02
4869000000.000000      6.425476000000000E-01      1.499219000000000E+01      4.349518000000000E-01     -1.463125000000000E+02
4870000000.000000      6.432495000000000E-01      1.510449000000000E+01      4.309845000000000E-01     -1.470312000000000E+02
4871000000.000000      6.434631000000000E-01      1.487402000000000E+01      4.268646000000000E-01     -1.477890000000000E+02
4872000000.000000      6.462097000000000E-01      1.500439000000000E+01      4.225464000000000E-01     -1.483359000000000E+02
4873000000.000000      6.460876000000000E-01      1.487402000000000E+01      4.176941000000000E-01     -1.491641000000000E+02
4874000000.000000      6.499023000000000E-01      1.504150000000000E+01      4.137115000000000E-01     -1.501406000000000E+02
4875000000.000000      6.493530000000000E-01      1.496729000000000E+01      4.089813000000000E-01     -1.505391000000000E+02
4876000000.000000      6.526794000000000E-01      1.501660000000000E+01      4.055176000000000E-01     -1.513438000000000E+02
4877000000.000000      6.521912000000000E-01      1.460352000000000E+01      4.005127000000000E-01     -1.520625000000000E+02
4878000000.000000      6.542053000000000E-01      1.455811000000000E+01      3.952179000000000E-01     -1.526172000000000E+02
4879000000.000000      6.549377000000000E-01      1.483008000000000E+01      3.907013000000000E-01     -1.531719000000000E+02
4880000000.000000      6.571350000000000E-01      1.462646000000000E+01      3.867798000000000E-01     -1.537188000000000E+02
4881000000.000000      6.557922000000000E-01      1.460205000000000E+01      3.826752000000000E-01     -1.543594000000000E+02
4882000000.000000      6.588745000000000E-01      1.455957000000000E+01      3.773956000000000E-01     -1.548906000000000E+02
4883000000.000000      6.612549000000000E-01      1.439453000000000E+01      3.725433000000000E-01     -1.555547000000000E+02
4884000000.000000      6.631470000000000E-01      1.456201000000000E+01      3.689423000000000E-01     -1.561484000000000E+02
4885000000.000000      6.636658000000000E-01      1.424365000000000E+01      3.657227000000000E-01     -1.563828000000000E+02
4886000000.000000      6.647644000000000E-01      1.439063000000000E+01      3.602295000000000E-01     -1.569297000000000E+02
4887000000.000000      6.644592000000000E-01      1.426416000000000E+01      3.563232000000000E-01     -1.575547000000000E+02
4888000000.000000      6.657715000000000E-01      1.411572000000000E+01      3.535767000000000E-01     -1.579844000000000E+02
4889000000.000000      6.655884000000000E-01      1.415576000000000E+01      3.463287000000000E-01     -1.584297000000000E+02
4890000000.000000      6.653748000000000E-01      1.390283000000000E+01      3.441010000000000E-01     -1.591719000000000E+02
4891000000.000000      6.680298000000000E-01      1.397852000000000E+01      3.390045000000000E-01     -1.594141000000000E+02
4892000000.000000      6.690674000000000E-01      1.382324000000000E+01      3.351746000000000E-01     -1.595312000000000E+02
4893000000.000000      6.710205000000000E-01      1.369434000000000E+01      3.307190000000000E-01     -1.601875000000000E+02
4894000000.000000      6.715698000000000E-01      1.371191000000000E+01      3.266296000000000E-01     -1.606641000000000E+02
4895000000.000000      6.730347000000000E-01      1.351855000000000E+01      3.236237000000000E-01     -1.608828000000000E+02
4896000000.000000      6.720276000000000E-01      1.342236000000000E+01      3.192749000000000E-01     -1.616406000000000E+02
4897000000.000000      6.742859000000000E-01      1.346191000000000E+01      3.154907000000000E-01     -1.618203000000000E+02
4898000000.000000      6.744385000000000E-01      1.334424000000000E+01      3.125153000000000E-01     -1.620781000000000E+02
4899000000.000000      6.763306000000000E-01      1.316016000000000E+01      3.086700000000000E-01     -1.626328000000000E+02
4900000000.000000      6.772156000000000E-01      1.292529000000000E+01      3.044434000000000E-01     -1.627656000000000E+02
4901000000.000000      6.783142000000000E-01      1.308838000000000E+01      3.016510000000000E-01     -1.632031000000000E+02
4902000000.000000      6.776733000000000E-01      1.281006000000000E+01      2.980499000000000E-01     -1.634609000000000E+02
4903000000.000000      6.804504000000000E-01      1.286475000000000E+01      2.935791000000000E-01     -1.638203000000000E+02
4904000000.000000      6.797791000000000E-01      1.270703000000000E+01      2.898865000000000E-01     -1.642500000000000E+02
4905000000.000000      6.816711000000000E-01      1.253369000000000E+01      2.869415000000000E-01     -1.645547000000000E+02
4906000000.000000      6.811218000000000E-01      1.235791000000000E+01      2.833862000000000E-01     -1.646719000000000E+02
4907000000.000000      6.845398000000000E-01      1.243506000000000E+01      2.799835000000000E-01     -1.652422000000000E+02
4908000000.000000      6.838684000000000E-01      1.216162000000000E+01      2.766418000000000E-01     -1.657031000000000E+02
4909000000.000000      6.824036000000000E-01      1.226855000000000E+01      2.727509000000000E-01     -1.659453000000000E+02
4910000000.000000      6.849976000000000E-01      1.222217000000000E+01      2.693481000000000E-01     -1.662734000000000E+02
4911000000.000000      6.864929000000000E-01      1.201465000000000E+01      2.662201000000000E-01     -1.664531000000000E+02
4912000000.000000      6.862183000000000E-01      1.208496000000000E+01      2.619934000000000E-01     -1.669141000000000E+02
4913000000.000000      6.869812000000000E-01      1.165771000000000E+01      2.585754000000000E-01     -1.671406000000000E+02
4914000000.000000      6.881104000000000E-01      1.163281000000000E+01      2.551270000000000E-01     -1.674062000000000E+02
4915000000.000000      6.879883000000000E-01      1.171240000000000E+01      2.517090000000000E-01     -1.678906000000000E+02
4916000000.000000      6.891174000000000E-01      1.156836000000000E+01      2.484207000000000E-01     -1.681406000000000E+02
4917000000.000000      6.898499000000000E-01      1.150244000000000E+01      2.444305000000000E-01     -1.684062000000000E+02
4918000000.000000      6.907043000000000E-01      1.141309000000000E+01      2.406921000000000E-01     -1.687109000000000E+02
4919000000.000000      6.890869000000000E-01      1.123584000000000E+01      2.376251000000000E-01     -1.687734000000000E+02
4920000000.000000      6.906433000000000E-01      1.106836000000000E+01      2.335587000000000E-01     -1.692969000000000E+02
4921000000.000000      6.913452000000000E-01      1.097656000000000E+01      2.303009000000000E-01     -1.694453000000000E+02
4922000000.000000      6.932373000000000E-01      1.093408000000000E+01      2.260590000000000E-01     -1.695703000000000E+02
4923000000.000000      6.922302000000000E-01      1.093652000000000E+01      2.223892000000000E-01     -1.696406000000000E+02
4924000000.000000      6.917725000000000E-01      1.093652000000000E+01      2.187042000000000E-01     -1.702422000000000E+02
4925000000.000000      6.911926000000000E-01      1.045752000000000E+01      2.151337000000000E-01     -1.701250000000000E+02
4926000000.000000      6.954651000000000E-01      1.038184000000000E+01      2.117310000000000E-01     -1.703984000000000E+02
4927000000.000000      6.937866000000000E-01      1.036133000000000E+01      2.068405000000000E-01     -1.705469000000000E+02
4928000000.000000      6.950989000000000E-01      1.042871000000000E+01      2.038498000000000E-01     -1.707187000000000E+02
4929000000.000000      6.943359000000000E-01      1.017725000000000E+01      1.997147000000000E-01     -1.707266000000000E+02
4930000000.000000      6.964111000000000E-01      1.014697000000000E+01      1.959915000000000E-01     -1.708516000000000E+02
4931000000.000000      6.974792000000000E-01      9.968262000000000E+00      1.929398000000000E-01     -1.708516000000000E+02
4932000000.000000      6.954956000000000E-01      9.967285000000000E+00      1.884689000000000E-01     -1.710234000000000E+02
4933000000.000000      6.969604000000000E-01      9.790039000000000E+00      1.846390000000000E-01     -1.707578000000000E+02
4934000000.000000      7.001953000000000E-01      9.656738000000000E+00      1.807785000000000E-01     -1.710234000000000E+02
4935000000.000000      6.998596000000000E-01      9.600586000000000E+00      1.777267000000000E-01     -1.707500000000000E+02
4936000000.000000      6.989441000000000E-01      9.553711000000000E+00      1.733856000000000E-01     -1.707734000000000E+02
4937000000.000000      6.992493000000000E-01      9.453613000000000E+00      1.697998000000000E-01     -1.704531000000000E+02
4938000000.000000      6.983643000000000E-01      9.483887000000000E+00      1.660233000000000E-01     -1.701719000000000E+02
4939000000.000000      6.997070000000000E-01      9.371094000000000E+00      1.622086000000000E-01     -1.699453000000000E+02
4940000000.000000      7.019653000000000E-01      9.140625000000000E+00      1.584854000000000E-01     -1.697891000000000E+02
4941000000.000000      7.016602000000000E-01      8.996094000000000E+00      1.550446000000000E-01     -1.693750000000000E+02
4942000000.000000      7.008362000000000E-01      9.066406000000000E+00      1.512527000000000E-01     -1.688359000000000E+02
4943000000.000000      7.014771000000000E-01      8.942871000000000E+00      1.480331000000000E-01     -1.683906000000000E+02
4944000000.000000      7.006836000000000E-01      8.897461000000000E+00      1.442337000000000E-01     -1.678750000000000E+02
4945000000.000000      7.032471000000000E-01      8.637695000000000E+00      1.404572000000000E-01     -1.671484000000000E+02
4946000000.000000      7.035522000000000E-01      8.603516000000000E+00      1.375122000000000E-01     -1.663828000000000E+02
4947000000.000000      7.026978000000000E-01      8.434570000000000E+00      1.339340000000000E-01     -1.657578000000000E+02
4948000000.000000      7.032471000000000E-01      8.479980000000000E+00      1.316605000000000E-01     -1.648906000000000E+02
4949000000.000000      7.015076000000000E-01      8.203613000000000E+00      1.284332000000000E-01     -1.634844000000000E+02
4950000000.000000      7.069397000000000E-01      8.294434000000000E+00      1.256485000000000E-01     -1.626875000000000E+02
4951000000.000000      7.053833000000000E-01      8.085938000000000E+00      1.234245000000000E-01     -1.619297000000000E+02
4952000000.000000      7.059937000000000E-01      8.208008000000000E+00      1.198654000000000E-01     -1.605234000000000E+02
4953000000.000000      7.054443000000000E-01      7.688965000000000E+00      1.174812000000000E-01     -1.592891000000000E+02
4954000000.000000      7.076416000000000E-01      7.829102000000000E+00      1.153450000000000E-01     -1.577266000000000E+02
