! Network Analyzer HP8722D
! Hewlett-Packard
! Data name: Linha & Wilkinson
! Saver's name: Rodrigo Anjos
! Comments: Teste da utilização de aquisição
continua pelo VNA HP8722D
! Time and date: 22/5/2025 10:18
!              Frequency                     S11                                                   S21                                                   S12                                                   S22
# HZ  S  MA R 50
4800000000.000000      6.476746000000000E-01      1.039307000000000E+01      4.757080000000000E-01     -9.380468000000000E+01
4801000000.000000      6.455994000000000E-01      1.061816000000000E+01      4.766693000000000E-01     -9.430859000000000E+01
4802000000.000000      6.429443000000000E-01      1.058105000000000E+01      4.771881000000000E-01     -9.501171000000000E+01
4803000000.000000      6.406860000000000E-01      1.042969000000000E+01      4.804535000000000E-01     -9.587891000000000E+01
4804000000.000000      6.408386000000000E-01      1.042725000000000E+01      4.821320000000000E-01     -9.673046000000000E+01
4805000000.000000      6.388550000000000E-01      1.033496000000000E+01      4.821167000000000E-01     -9.758593000000000E+01
4806000000.000000      6.362610000000000E-01      1.048779000000000E+01      4.859161000000000E-01     -9.832811000000000E+01
4807000000.000000      6.348267000000000E-01      1.037109000000000E+01      4.865417000000000E-01     -9.897655000000000E+01
4808000000.000000      6.325073000000000E-01      1.042041000000000E+01      4.884949000000000E-01     -9.968750000000000E+01
4809000000.000000      6.309204000000000E-01      1.056592000000000E+01      4.891205000000000E-01     -1.007031000000000E+02
4810000000.000000      6.297913000000000E-01      1.054248000000000E+01      4.892578000000000E-01     -1.011836000000000E+02
4811000000.000000      6.281433000000000E-01      1.061670000000000E+01      4.904022000000000E-01     -1.019922000000000E+02
4812000000.000000      6.299133000000000E-01      1.063184000000000E+01      4.916534000000000E-01     -1.027266000000000E+02
4813000000.000000      6.285400000000000E-01      1.082959000000000E+01      4.934998000000000E-01     -1.037305000000000E+02
4814000000.000000      6.239319000000000E-01      1.085303000000000E+01      4.958038000000000E-01     -1.042305000000000E+02
4815000000.000000      6.241455000000000E-01      1.086670000000000E+01      4.931641000000000E-01     -1.050234000000000E+02
4816000000.000000      6.238403000000000E-01      1.098633000000000E+01      4.966583000000000E-01     -1.056719000000000E+02
4817000000.000000      6.221313000000000E-01      1.117676000000000E+01      4.964142000000000E-01     -1.066640000000000E+02
4818000000.000000      6.195068000000000E-01      1.113867000000000E+01      4.971313000000000E-01     -1.073906000000000E+02
4819000000.000000      6.210022000000000E-01      1.126074000000000E+01      4.956055000000000E-01     -1.082227000000000E+02
4820000000.000000      6.161194000000000E-01      1.133350000000000E+01      4.986420000000000E-01     -1.087578000000000E+02
4821000000.000000      6.164856000000000E-01      1.137598000000000E+01      5.004272000000000E-01     -1.095976000000000E+02
4822000000.000000      6.164246000000000E-01      1.147363000000000E+01      4.967957000000000E-01     -1.102617000000000E+02
4823000000.000000      6.164551000000000E-01      1.147510000000000E+01      5.002441000000000E-01     -1.111445000000000E+02
4824000000.000000      6.146851000000000E-01      1.164795000000000E+01      4.994812000000000E-01     -1.117773000000000E+02
4825000000.000000      6.138306000000000E-01      1.168799000000000E+01      5.004272000000000E-01     -1.124453000000000E+02
4826000000.000000      6.145020000000000E-01      1.181982000000000E+01      5.001526000000000E-01     -1.133789000000000E+02
4827000000.000000      6.140747000000000E-01      1.204346000000000E+01      4.990845000000000E-01     -1.139258000000000E+02
4828000000.000000      6.133728000000000E-01      1.205713000000000E+01      5.013428000000000E-01     -1.147930000000000E+02
4829000000.000000      6.116028000000000E-01      1.226074000000000E+01      5.006409000000000E-01     -1.155508000000000E+02
4830000000.000000      6.127014000000000E-01      1.227002000000000E+01      4.993439000000000E-01     -1.162266000000000E+02
4831000000.000000      6.132202000000000E-01      1.237061000000000E+01      4.997711000000000E-01     -1.171914000000000E+02
4832000000.000000      6.110229000000000E-01      1.251465000000000E+01      5.002136000000000E-01     -1.176250000000000E+02
4833000000.000000      6.105957000000000E-01      1.253516000000000E+01      4.997864000000000E-01     -1.184570000000000E+02
4834000000.000000      6.097107000000000E-01      1.261768000000000E+01      5.009155000000000E-01     -1.195430000000000E+02
4835000000.000000      6.133728000000000E-01      1.285645000000000E+01      4.995880000000000E-01     -1.202344000000000E+02
4836000000.000000      6.111755000000000E-01      1.297852000000000E+01      4.969940000000000E-01     -1.208750000000000E+02
4837000000.000000      6.140747000000000E-01      1.316162000000000E+01      4.971161000000000E-01     -1.220781000000000E+02
4838000000.000000      6.110535000000000E-01      1.305713000000000E+01      4.977722000000000E-01     -1.222969000000000E+02
4839000000.000000      6.158447000000000E-01      1.339355000000000E+01      4.981232000000000E-01     -1.232031000000000E+02
4840000000.000000      6.133728000000000E-01      1.332910000000000E+01      4.963684000000000E-01     -1.242148000000000E+02
4841000000.000000      6.141968000000000E-01      1.356787000000000E+01      4.975891000000000E-01     -1.248359000000000E+02
4842000000.000000      6.152344000000000E-01      1.358301000000000E+01      4.952698000000000E-01     -1.256211000000000E+02
4843000000.000000      6.172791000000000E-01      1.362402000000000E+01      4.944000000000000E-01     -1.266484000000000E+02
4844000000.000000      6.147156000000000E-01      1.358154000000000E+01      4.934692000000000E-01     -1.273633000000000E+02
4845000000.000000      6.170349000000000E-01      1.395361000000000E+01      4.908752000000000E-01     -1.281406000000000E+02
4846000000.000000      6.197205000000000E-01      1.392920000000000E+01      4.907074000000000E-01     -1.290625000000000E+02
4847000000.000000      6.192932000000000E-01      1.407715000000000E+01      4.900665000000000E-01     -1.296719000000000E+02
4848000000.000000      6.176147000000000E-01      1.401025000000000E+01      4.855499000000000E-01     -1.305000000000000E+02
4849000000.000000      6.194458000000000E-01      1.396191000000000E+01      4.868622000000000E-01     -1.316328000000000E+02
4850000000.000000      6.221619000000000E-01      1.407715000000000E+01      4.838257000000000E-01     -1.322266000000000E+02
4851000000.000000      6.213379000000000E-01      1.426416000000000E+01      4.833832000000000E-01     -1.332578000000000E+02
4852000000.000000      6.251221000000000E-01      1.431494000000000E+01      4.816132000000000E-01     -1.340937000000000E+02
4853000000.000000      6.250916000000000E-01      1.427490000000000E+01      4.770660000000000E-01     -1.350156000000000E+02
4854000000.000000      6.252441000000000E-01      1.442773000000000E+01      4.748535000000000E-01     -1.358984000000000E+02
4855000000.000000      6.265259000000000E-01      1.450293000000000E+01      4.733276000000000E-01     -1.367188000000000E+02
4856000000.000000      6.273804000000000E-01      1.442627000000000E+01      4.701538000000000E-01     -1.375000000000000E+02
4857000000.000000      6.301880000000000E-01      1.451807000000000E+01      4.700775000000000E-01     -1.383125000000000E+02
4858000000.000000      6.281433000000000E-01      1.448242000000000E+01      4.658966000000000E-01     -1.392031000000000E+02
4859000000.000000      6.316833000000000E-01      1.439990000000000E+01      4.628906000000000E-01     -1.400469000000000E+02
4860000000.000000      6.310730000000000E-01      1.455957000000000E+01      4.595947000000000E-01     -1.408203000000000E+02
4861000000.000000      6.318665000000000E-01      1.467041000000000E+01      4.569855000000000E-01     -1.417891000000000E+02
4862000000.000000      6.333923000000000E-01      1.453760000000000E+01      4.521179000000000E-01     -1.423906000000000E+02
4863000000.000000      6.355286000000000E-01      1.469824000000000E+01      4.488525000000000E-01     -1.432578000000000E+02
4864000000.000000      6.358337000000000E-01      1.453320000000000E+01      4.461060000000000E-01     -1.440859000000000E+02
4865000000.000000      6.368713000000000E-01      1.459766000000000E+01      4.416504000000000E-01     -1.447266000000000E+02
4866000000.000000      6.400452000000000E-01      1.449902000000000E+01      4.380035000000000E-01     -1.456250000000000E+02
4867000000.000000      6.370239000000000E-01      1.441797000000000E+01      4.353943000000000E-01     -1.465000000000000E+02
4868000000.000000      6.411438000000000E-01      1.442773000000000E+01      4.305420000000000E-01     -1.473438000000000E+02
4869000000.000000      6.418457000000000E-01      1.453467000000000E+01      4.262695000000000E-01     -1.481172000000000E+02
4870000000.000000      6.433716000000000E-01      1.449072000000000E+01      4.225159000000000E-01     -1.486484000000000E+02
4871000000.000000      6.453247000000000E-01      1.443311000000000E+01      4.185181000000000E-01     -1.495859000000000E+02
4872000000.000000      6.493225000000000E-01      1.448926000000000E+01      4.137268000000000E-01     -1.500625000000000E+02
4873000000.000000      6.471252000000000E-01      1.447266000000000E+01      4.096222000000000E-01     -1.508828000000000E+02
4874000000.000000      6.492615000000000E-01      1.439063000000000E+01      4.048157000000000E-01     -1.514375000000000E+02
4875000000.000000      6.496277000000000E-01      1.424609000000000E+01      3.997498000000000E-01     -1.520937000000000E+02
4876000000.000000      6.506042000000000E-01      1.443457000000000E+01      3.973083000000000E-01     -1.527344000000000E+02
4877000000.000000      6.527710000000000E-01      1.410645000000000E+01      3.920441000000000E-01     -1.535156000000000E+02
4878000000.000000      6.547852000000000E-01      1.426709000000000E+01      3.872223000000000E-01     -1.540625000000000E+02
4879000000.000000      6.562805000000000E-01      1.418701000000000E+01      3.828278000000000E-01     -1.545547000000000E+02
4880000000.000000      6.559448000000000E-01      1.392334000000000E+01      3.789215000000000E-01     -1.550859000000000E+02
4881000000.000000      6.589661000000000E-01      1.412549000000000E+01      3.747559000000000E-01     -1.556094000000000E+02
4882000000.000000      6.576843000000000E-01      1.400879000000000E+01      3.716736000000000E-01     -1.562344000000000E+02
4883000000.000000      6.612854000000000E-01      1.386475000000000E+01      3.652802000000000E-01     -1.569062000000000E+02
4884000000.000000      6.632385000000000E-01      1.373145000000000E+01      3.609009000000000E-01     -1.572344000000000E+02
4885000000.000000      6.628723000000000E-01      1.376025000000000E+01      3.554382000000000E-01     -1.575156000000000E+02
4886000000.000000      6.641846000000000E-01      1.372461000000000E+01      3.528137000000000E-01     -1.580391000000000E+02
4887000000.000000      6.634216000000000E-01      1.356494000000000E+01      3.494568000000000E-01     -1.585078000000000E+02
4888000000.000000      6.666565000000000E-01      1.341406000000000E+01      3.444366000000000E-01     -1.593437000000000E+02
4889000000.000000      6.656494000000000E-01      1.334277000000000E+01      3.403168000000000E-01     -1.592109000000000E+02
4890000000.000000      6.675720000000000E-01      1.323828000000000E+01      3.350220000000000E-01     -1.601328000000000E+02
4891000000.000000      6.683960000000000E-01      1.338379000000000E+01      3.306580000000000E-01     -1.603125000000000E+02
4892000000.000000      6.705933000000000E-01      1.315186000000000E+01      3.269806000000000E-01     -1.608047000000000E+02
4893000000.000000      6.710510000000000E-01      1.303906000000000E+01      3.237762000000000E-01     -1.612578000000000E+02
4894000000.000000      6.724854000000000E-01      1.312842000000000E+01      3.191528000000000E-01     -1.616641000000000E+02
4895000000.000000      6.730652000000000E-01      1.284570000000000E+01      3.166962000000000E-01     -1.619688000000000E+02
4896000000.000000      6.746521000000000E-01      1.278076000000000E+01      3.121490000000000E-01     -1.623672000000000E+02
4897000000.000000      6.748352000000000E-01      1.279590000000000E+01      3.072968000000000E-01     -1.627578000000000E+02
4898000000.000000      6.767883000000000E-01      1.260498000000000E+01      3.055725000000000E-01     -1.630312000000000E+02
4899000000.000000      6.792603000000000E-01      1.275635000000000E+01      3.008270000000000E-01     -1.634766000000000E+02
4900000000.000000      6.800537000000000E-01      1.231689000000000E+01      2.973785000000000E-01     -1.636562000000000E+02
4901000000.000000      6.790771000000000E-01      1.223438000000000E+01      2.938538000000000E-01     -1.640703000000000E+02
4902000000.000000      6.801758000000000E-01      1.224658000000000E+01      2.900391000000000E-01     -1.642969000000000E+02
4903000000.000000      6.792297000000000E-01      1.230176000000000E+01      2.856750000000000E-01     -1.646719000000000E+02
4904000000.000000      6.813965000000000E-01      1.202148000000000E+01      2.823181000000000E-01     -1.650703000000000E+02
4905000000.000000      6.830444000000000E-01      1.190332000000000E+01      2.798462000000000E-01     -1.654922000000000E+02
4906000000.000000      6.816406000000000E-01      1.181299000000000E+01      2.755585000000000E-01     -1.654063000000000E+02
4907000000.000000      6.823730000000000E-01      1.166455000000000E+01      2.729797000000000E-01     -1.660234000000000E+02
4908000000.000000      6.830139000000000E-01      1.154639000000000E+01      2.695313000000000E-01     -1.663437000000000E+02
4909000000.000000      6.821594000000000E-01      1.167432000000000E+01      2.650299000000000E-01     -1.665781000000000E+02
4910000000.000000      6.835327000000000E-01      1.146533000000000E+01      2.622528000000000E-01     -1.667500000000000E+02
4911000000.000000      6.867981000000000E-01      1.160938000000000E+01      2.585449000000000E-01     -1.671250000000000E+02
4912000000.000000      6.859131000000000E-01      1.140088000000000E+01      2.554779000000000E-01     -1.676328000000000E+02
4913000000.000000      6.866760000000000E-01      1.095166000000000E+01      2.517395000000000E-01     -1.677813000000000E+02
4914000000.000000      6.870728000000000E-01      1.096826000000000E+01      2.483978000000000E-01     -1.679609000000000E+02
4915000000.000000      6.873474000000000E-01      1.103125000000000E+01      2.439270000000000E-01     -1.683594000000000E+02
4916000000.000000      6.899719000000000E-01      1.102734000000000E+01      2.408676000000000E-01     -1.686875000000000E+02
4917000000.000000      6.877441000000000E-01      1.070752000000000E+01      2.373428000000000E-01     -1.687969000000000E+02
4918000000.000000      6.894531000000000E-01      1.064844000000000E+01      2.333374000000000E-01     -1.691250000000000E+02
4919000000.000000      6.902466000000000E-01      1.063574000000000E+01      2.303543000000000E-01     -1.692109000000000E+02
4920000000.000000      6.913452000000000E-01      1.041357000000000E+01      2.264023000000000E-01     -1.697969000000000E+02
4921000000.000000      6.887817000000000E-01      1.035986000000000E+01      2.228851000000000E-01     -1.698203000000000E+02
4922000000.000000      6.916504000000000E-01      1.034912000000000E+01      2.188416000000000E-01     -1.697500000000000E+02
4923000000.000000      6.913452000000000E-01      1.021582000000000E+01      2.147827000000000E-01     -1.701094000000000E+02
4924000000.000000      6.934814000000000E-01      1.000439000000000E+01      2.115250000000000E-01     -1.701875000000000E+02
4925000000.000000      6.906433000000000E-01      9.991699000000000E+00      2.076111000000000E-01     -1.703594000000000E+02
4926000000.000000      6.918945000000000E-01      9.921875000000000E+00      2.046127000000000E-01     -1.704766000000000E+02
4927000000.000000      6.941223000000000E-01      9.671875000000000E+00      2.002869000000000E-01     -1.707187000000000E+02
4928000000.000000      6.947327000000000E-01      9.714355000000000E+00      1.975021000000000E-01     -1.706563000000000E+02
4929000000.000000      6.949158000000000E-01      9.437012000000000E+00      1.928329000000000E-01     -1.706563000000000E+02
4930000000.000000      6.941223000000000E-01      9.596191000000000E+00      1.892624000000000E-01     -1.707500000000000E+02
4931000000.000000      6.949463000000000E-01      9.265137000000000E+00      1.863861000000000E-01     -1.706719000000000E+02
4932000000.000000      6.954651000000000E-01      9.321777000000000E+00      1.817780000000000E-01     -1.706797000000000E+02
4933000000.000000      6.974792000000000E-01      9.127930000000000E+00      1.778336000000000E-01     -1.703906000000000E+02
4934000000.000000      6.968994000000000E-01      8.971680000000000E+00      1.740952000000000E-01     -1.704141000000000E+02
4935000000.000000      6.982422000000000E-01      8.911133000000000E+00      1.711426000000000E-01     -1.701562000000000E+02
4936000000.000000      6.962280000000000E-01      8.847656000000000E+00      1.669540000000000E-01     -1.699766000000000E+02
4937000000.000000      6.995544000000000E-01      8.680176000000000E+00      1.633148000000000E-01     -1.696953000000000E+02
4938000000.000000      6.991882000000000E-01      8.784668000000000E+00      1.600876000000000E-01     -1.693594000000000E+02
4939000000.000000      6.988525000000000E-01      8.723145000000000E+00      1.562653000000000E-01     -1.689219000000000E+02
4940000000.000000      6.992493000000000E-01      8.485352000000000E+00      1.524734000000000E-01     -1.686797000000000E+02
4941000000.000000      7.005920000000000E-01      8.455078000000000E+00      1.494446000000000E-01     -1.680625000000000E+02
4942000000.000000      6.988525000000000E-01      8.334473000000000E+00      1.455231000000000E-01     -1.675156000000000E+02
4943000000.000000      7.014160000000000E-01      8.291504000000000E+00      1.424026000000000E-01     -1.669062000000000E+02
4944000000.000000      7.010193000000000E-01      8.001953000000000E+00      1.393814000000000E-01     -1.661797000000000E+02
4945000000.000000      7.004700000000000E-01      8.081543000000000E+00      1.356506000000000E-01     -1.655547000000000E+02
4946000000.000000      7.036133000000000E-01      7.903076000000000E+00      1.330719000000000E-01     -1.647031000000000E+02
4947000000.000000      7.014160000000000E-01      7.903076000000000E+00      1.298447000000000E-01     -1.637891000000000E+02
4948000000.000000      7.040100000000000E-01      7.812500000000000E+00      1.272278000000000E-01     -1.627578000000000E+02
4949000000.000000      7.030945000000000E-01      7.617432000000000E+00      1.242676000000000E-01     -1.614844000000000E+02
4950000000.000000      7.051392000000000E-01      7.572266000000000E+00      1.219101000000000E-01     -1.602813000000000E+02
4951000000.000000      7.054443000000000E-01      7.467773000000000E+00      1.195412000000000E-01     -1.593828000000000E+02
4952000000.000000      7.047424000000000E-01      7.443115000000000E+00      1.169968000000000E-01     -1.579141000000000E+02
4953000000.000000      7.036438000000000E-01      7.304443000000000E+00      1.147652000000000E-01     -1.563437000000000E+02
4954000000.000000      7.063599000000000E-01      7.102539000000000E+00      1.131477000000000E-01     -1.549609000000000E+02
