! Network Analyzer HP8722D
! Hewlett-Packard
! Data name: Linha & Wilkinson
! Saver's name: Rodrigo Anjos
! Comments: Teste da utilização de aquisição
continua pelo VNA HP8722D
! Time and date: 22/5/2025 09:14
!              Frequency                     S11                                                   S21                                                   S12                                                   S22
# HZ  S  MA R 50
4800000000.000000      6.478882000000000E-01      1.027734000000000E+01      4.749908000000000E-01     -9.383204000000000E+01
4801000000.000000      6.458130000000000E-01      1.034912000000000E+01      4.750977000000000E-01     -9.428905000000000E+01
4802000000.000000      6.445923000000000E-01      1.031299000000000E+01      4.771271000000000E-01     -9.522655000000000E+01
4803000000.000000      6.412354000000000E-01      1.031055000000000E+01      4.806824000000000E-01     -9.582031000000000E+01
4804000000.000000      6.403198000000000E-01      1.037500000000000E+01      4.823914000000000E-01     -9.649218000000000E+01
4805000000.000000      6.389160000000000E-01      1.035010000000000E+01      4.834137000000000E-01     -9.759766000000000E+01
4806000000.000000      6.375122000000000E-01      1.037891000000000E+01      4.847107000000000E-01     -9.802734000000000E+01
4807000000.000000      6.351624000000000E-01      1.028174000000000E+01      4.860382000000000E-01     -9.895702000000000E+01
4808000000.000000      6.319275000000000E-01      1.033105000000000E+01      4.862976000000000E-01     -9.964844000000000E+01
4809000000.000000      6.320496000000000E-01      1.043701000000000E+01      4.885712000000000E-01     -1.006523000000000E+02
4810000000.000000      6.308289000000000E-01      1.042578000000000E+01      4.930420000000000E-01     -1.010664000000000E+02
4811000000.000000      6.294250000000000E-01      1.041504000000000E+01      4.930878000000000E-01     -1.020234000000000E+02
4812000000.000000      6.293945000000000E-01      1.071826000000000E+01      4.920197000000000E-01     -1.028945000000000E+02
4813000000.000000      6.268005000000000E-01      1.075830000000000E+01      4.933319000000000E-01     -1.034844000000000E+02
4814000000.000000      6.246033000000000E-01      1.054541000000000E+01      4.948578000000000E-01     -1.042305000000000E+02
4815000000.000000      6.241760000000000E-01      1.079248000000000E+01      4.941406000000000E-01     -1.052266000000000E+02
4816000000.000000      6.230774000000000E-01      1.089014000000000E+01      4.974823000000000E-01     -1.056680000000000E+02
4817000000.000000      6.211243000000000E-01      1.097119000000000E+01      4.974060000000000E-01     -1.064726000000000E+02
4818000000.000000      6.206055000000000E-01      1.089551000000000E+01      4.964905000000000E-01     -1.072734000000000E+02
4819000000.000000      6.199036000000000E-01      1.094238000000000E+01      4.976044000000000E-01     -1.081328000000000E+02
4820000000.000000      6.169739000000000E-01      1.126611000000000E+01      4.974060000000000E-01     -1.088008000000000E+02
4821000000.000000      6.182556000000000E-01      1.134863000000000E+01      4.981232000000000E-01     -1.096094000000000E+02
4822000000.000000      6.157227000000000E-01      1.120166000000000E+01      4.966736000000000E-01     -1.103242000000000E+02
4823000000.000000      6.177673000000000E-01      1.140625000000000E+01      4.995728000000000E-01     -1.112344000000000E+02
4824000000.000000      6.147461000000000E-01      1.159180000000000E+01      4.975128000000000E-01     -1.118203000000000E+02
4825000000.000000      6.134644000000000E-01      1.174707000000000E+01      4.990997000000000E-01     -1.125742000000000E+02
4826000000.000000      6.140137000000000E-01      1.154248000000000E+01      4.991913000000000E-01     -1.133516000000000E+02
4827000000.000000      6.137695000000000E-01      1.175244000000000E+01      4.983978000000000E-01     -1.140156000000000E+02
4828000000.000000      6.147461000000000E-01      1.184424000000000E+01      5.010376000000000E-01     -1.148828000000000E+02
4829000000.000000      6.141357000000000E-01      1.217383000000000E+01      5.020752000000000E-01     -1.155586000000000E+02
4830000000.000000      6.147461000000000E-01      1.222217000000000E+01      4.988861000000000E-01     -1.164726000000000E+02
4831000000.000000      6.116028000000000E-01      1.220166000000000E+01      5.009155000000000E-01     -1.172930000000000E+02
4832000000.000000      6.102600000000000E-01      1.251025000000000E+01      4.986115000000000E-01     -1.177187000000000E+02
4833000000.000000      6.109619000000000E-01      1.255176000000000E+01      4.989319000000000E-01     -1.185430000000000E+02
4834000000.000000      6.120605000000000E-01      1.266309000000000E+01      4.991913000000000E-01     -1.192812000000000E+02
4835000000.000000      6.130066000000000E-01      1.270410000000000E+01      5.002136000000000E-01     -1.201953000000000E+02
4836000000.000000      6.109924000000000E-01      1.269434000000000E+01      4.977264000000000E-01     -1.210781000000000E+02
4837000000.000000      6.119385000000000E-01      1.315869000000000E+01      4.973907000000000E-01     -1.219492000000000E+02
4838000000.000000      6.115417000000000E-01      1.303516000000000E+01      4.981995000000000E-01     -1.225156000000000E+02
4839000000.000000      6.152344000000000E-01      1.334668000000000E+01      4.973755000000000E-01     -1.232773000000000E+02
4840000000.000000      6.149292000000000E-01      1.326318000000000E+01      4.967194000000000E-01     -1.239883000000000E+02
4841000000.000000      6.130371000000000E-01      1.344434000000000E+01      4.976044000000000E-01     -1.250820000000000E+02
4842000000.000000      6.134644000000000E-01      1.334668000000000E+01      4.952393000000000E-01     -1.259297000000000E+02
4843000000.000000      6.172485000000000E-01      1.346191000000000E+01      4.958038000000000E-01     -1.267773000000000E+02
4844000000.000000      6.164856000000000E-01      1.351855000000000E+01      4.922791000000000E-01     -1.274726000000000E+02
4845000000.000000      6.163940000000000E-01      1.365869000000000E+01      4.925537000000000E-01     -1.281406000000000E+02
4846000000.000000      6.171570000000000E-01      1.383447000000000E+01      4.907684000000000E-01     -1.289297000000000E+02
4847000000.000000      6.194458000000000E-01      1.391553000000000E+01      4.897766000000000E-01     -1.298359000000000E+02
4848000000.000000      6.197510000000000E-01      1.383301000000000E+01      4.871216000000000E-01     -1.306875000000000E+02
4849000000.000000      6.207275000000000E-01      1.396484000000000E+01      4.871674000000000E-01     -1.315234000000000E+02
4850000000.000000      6.206360000000000E-01      1.407471000000000E+01      4.833527000000000E-01     -1.324844000000000E+02
4851000000.000000      6.210327000000000E-01      1.416943000000000E+01      4.844055000000000E-01     -1.331953000000000E+02
4852000000.000000      6.237488000000000E-01      1.416260000000000E+01      4.798889000000000E-01     -1.341328000000000E+02
4853000000.000000      6.254272000000000E-01      1.429834000000000E+01      4.772034000000000E-01     -1.349375000000000E+02
4854000000.000000      6.243591000000000E-01      1.426563000000000E+01      4.763794000000000E-01     -1.358828000000000E+02
4855000000.000000      6.253967000000000E-01      1.425879000000000E+01      4.738312000000000E-01     -1.368359000000000E+02
4856000000.000000      6.272278000000000E-01      1.433984000000000E+01      4.709015000000000E-01     -1.375625000000000E+02
4857000000.000000      6.295471000000000E-01      1.433545000000000E+01      4.694672000000000E-01     -1.383906000000000E+02
4858000000.000000      6.290588000000000E-01      1.436426000000000E+01      4.655457000000000E-01     -1.392344000000000E+02
4859000000.000000      6.309204000000000E-01      1.433398000000000E+01      4.632263000000000E-01     -1.399688000000000E+02
4860000000.000000      6.312561000000000E-01      1.425293000000000E+01      4.604187000000000E-01     -1.408672000000000E+02
4861000000.000000      6.324768000000000E-01      1.437793000000000E+01      4.561920000000000E-01     -1.416406000000000E+02
4862000000.000000      6.330872000000000E-01      1.443604000000000E+01      4.545441000000000E-01     -1.423750000000000E+02
4863000000.000000      6.363220000000000E-01      1.439746000000000E+01      4.484558000000000E-01     -1.434297000000000E+02
4864000000.000000      6.380615000000000E-01      1.435742000000000E+01      4.460754000000000E-01     -1.439922000000000E+02
4865000000.000000      6.365051000000000E-01      1.428320000000000E+01      4.413300000000000E-01     -1.448828000000000E+02
4866000000.000000      6.386719000000000E-01      1.438623000000000E+01      4.375610000000000E-01     -1.456797000000000E+02
4867000000.000000      6.395264000000000E-01      1.434082000000000E+01      4.342346000000000E-01     -1.466484000000000E+02
4868000000.000000      6.433716000000000E-01      1.436426000000000E+01      4.308319000000000E-01     -1.472500000000000E+02
4869000000.000000      6.427612000000000E-01      1.440967000000000E+01      4.280548000000000E-01     -1.481016000000000E+02
4870000000.000000      6.441650000000000E-01      1.437256000000000E+01      4.232178000000000E-01     -1.483828000000000E+02
4871000000.000000      6.440735000000000E-01      1.416943000000000E+01      4.168091000000000E-01     -1.494453000000000E+02
4872000000.000000      6.488647000000000E-01      1.439453000000000E+01      4.140015000000000E-01     -1.499922000000000E+02
4873000000.000000      6.484375000000000E-01      1.426416000000000E+01      4.108582000000000E-01     -1.510937000000000E+02
4874000000.000000      6.496582000000000E-01      1.437695000000000E+01      4.046326000000000E-01     -1.515703000000000E+02
4875000000.000000      6.503296000000000E-01      1.415283000000000E+01      4.006195000000000E-01     -1.523047000000000E+02
4876000000.000000      6.528015000000000E-01      1.422314000000000E+01      3.963470000000000E-01     -1.529140000000000E+02
4877000000.000000      6.517639000000000E-01      1.387842000000000E+01      3.918457000000000E-01     -1.535391000000000E+02
4878000000.000000      6.536255000000000E-01      1.404736000000000E+01      3.882599000000000E-01     -1.539609000000000E+02
4879000000.000000      6.570129000000000E-01      1.413232000000000E+01      3.822327000000000E-01     -1.544688000000000E+02
4880000000.000000      6.577454000000000E-01      1.395508000000000E+01      3.791046000000000E-01     -1.551094000000000E+02
4881000000.000000      6.583557000000000E-01      1.389893000000000E+01      3.758240000000000E-01     -1.556719000000000E+02
4882000000.000000      6.603394000000000E-01      1.386328000000000E+01      3.707886000000000E-01     -1.562734000000000E+02
4883000000.000000      6.611023000000000E-01      1.381104000000000E+01      3.652039000000000E-01     -1.567891000000000E+02
4884000000.000000      6.614990000000000E-01      1.385205000000000E+01      3.617554000000000E-01     -1.571953000000000E+02
4885000000.000000      6.631165000000000E-01      1.356787000000000E+01      3.555908000000000E-01     -1.576641000000000E+02
4886000000.000000      6.664124000000000E-01      1.345654000000000E+01      3.527069000000000E-01     -1.580156000000000E+02
4887000000.000000      6.654053000000000E-01      1.333740000000000E+01      3.494110000000000E-01     -1.586484000000000E+02
4888000000.000000      6.673889000000000E-01      1.335107000000000E+01      3.451538000000000E-01     -1.592500000000000E+02
4889000000.000000      6.662292000000000E-01      1.342529000000000E+01      3.390656000000000E-01     -1.595937000000000E+02
4890000000.000000      6.674194000000000E-01      1.319141000000000E+01      3.354797000000000E-01     -1.602500000000000E+02
4891000000.000000      6.682434000000000E-01      1.323291000000000E+01      3.297577000000000E-01     -1.605078000000000E+02
4892000000.000000      6.692810000000000E-01      1.301563000000000E+01      3.280487000000000E-01     -1.606250000000000E+02
4893000000.000000      6.717224000000000E-01      1.293359000000000E+01      3.240204000000000E-01     -1.613281000000000E+02
4894000000.000000      6.707458000000000E-01      1.279492000000000E+01      3.192291000000000E-01     -1.617422000000000E+02
4895000000.000000      6.739502000000000E-01      1.275781000000000E+01      3.173828000000000E-01     -1.620156000000000E+02
4896000000.000000      6.746826000000000E-01      1.262598000000000E+01      3.126526000000000E-01     -1.624375000000000E+02
4897000000.000000      6.757813000000000E-01      1.252148000000000E+01      3.082123000000000E-01     -1.627656000000000E+02
4898000000.000000      6.754150000000000E-01      1.238428000000000E+01      3.051605000000000E-01     -1.631094000000000E+02
4899000000.000000      6.769714000000000E-01      1.236084000000000E+01      3.012695000000000E-01     -1.636094000000000E+02
4900000000.000000      6.772766000000000E-01      1.230322000000000E+01      2.971802000000000E-01     -1.637578000000000E+02
4901000000.000000      6.783447000000000E-01      1.222217000000000E+01      2.938843000000000E-01     -1.640781000000000E+02
4902000000.000000      6.803284000000000E-01      1.202979000000000E+01      2.905731000000000E-01     -1.643672000000000E+02
4903000000.000000      6.825256000000000E-01      1.218750000000000E+01      2.859650000000000E-01     -1.647422000000000E+02
4904000000.000000      6.819763000000000E-01      1.190332000000000E+01      2.827148000000000E-01     -1.652422000000000E+02
4905000000.000000      6.822510000000000E-01      1.164795000000000E+01      2.799530000000000E-01     -1.655703000000000E+02
4906000000.000000      6.824646000000000E-01      1.184863000000000E+01      2.759399000000000E-01     -1.655078000000000E+02
4907000000.000000      6.835632000000000E-01      1.148730000000000E+01      2.729340000000000E-01     -1.659062000000000E+02
4908000000.000000      6.833801000000000E-01      1.154492000000000E+01      2.700806000000000E-01     -1.665781000000000E+02
4909000000.000000      6.839600000000000E-01      1.132373000000000E+01      2.658691000000000E-01     -1.665781000000000E+02
4910000000.000000      6.844788000000000E-01      1.127588000000000E+01      2.627411000000000E-01     -1.670312000000000E+02
4911000000.000000      6.850586000000000E-01      1.120166000000000E+01      2.590179000000000E-01     -1.671562000000000E+02
4912000000.000000      6.868896000000000E-01      1.110400000000000E+01      2.551727000000000E-01     -1.676406000000000E+02
4913000000.000000      6.865845000000000E-01      1.090088000000000E+01      2.518463000000000E-01     -1.680000000000000E+02
4914000000.000000      6.863708000000000E-01      1.078857000000000E+01      2.484970000000000E-01     -1.680938000000000E+02
4915000000.000000      6.872864000000000E-01      1.078418000000000E+01      2.441483000000000E-01     -1.683516000000000E+02
4916000000.000000      6.870117000000000E-01      1.072510000000000E+01      2.412338000000000E-01     -1.686953000000000E+02
4917000000.000000      6.880798000000000E-01      1.065918000000000E+01      2.375793000000000E-01     -1.688437000000000E+02
4918000000.000000      6.898499000000000E-01      1.045752000000000E+01      2.339783000000000E-01     -1.692344000000000E+02
4919000000.000000      6.882019000000000E-01      1.033496000000000E+01      2.302704000000000E-01     -1.692031000000000E+02
4920000000.000000      6.883850000000000E-01      1.016895000000000E+01      2.258453000000000E-01     -1.696484000000000E+02
4921000000.000000      6.904907000000000E-01      1.019385000000000E+01      2.230835000000000E-01     -1.697500000000000E+02
4922000000.000000      6.897278000000000E-01      1.024023000000000E+01      2.196045000000000E-01     -1.698984000000000E+02
4923000000.000000      6.934204000000000E-01      1.014014000000000E+01      2.149811000000000E-01     -1.700000000000000E+02
4924000000.000000      6.945496000000000E-01      1.006348000000000E+01      2.121048000000000E-01     -1.705469000000000E+02
4925000000.000000      6.923828000000000E-01      1.004932000000000E+01      2.081146000000000E-01     -1.705312000000000E+02
4926000000.000000      6.940308000000000E-01      9.806641000000000E+00      2.048264000000000E-01     -1.706016000000000E+02
4927000000.000000      6.943665000000000E-01      9.621094000000000E+00      2.008057000000000E-01     -1.706875000000000E+02
4928000000.000000      6.951599000000000E-01      9.571777000000000E+00      1.970062000000000E-01     -1.706719000000000E+02
4929000000.000000      6.953125000000000E-01      9.440918000000000E+00      1.932983000000000E-01     -1.705781000000000E+02
4930000000.000000      6.953430000000000E-01      9.411133000000000E+00      1.897888000000000E-01     -1.708984000000000E+02
4931000000.000000      6.966858000000000E-01      9.384766000000000E+00      1.859894000000000E-01     -1.708203000000000E+02
4932000000.000000      6.961365000000000E-01      9.125488000000000E+00      1.818085000000000E-01     -1.707734000000000E+02
4933000000.000000      6.963806000000000E-01      9.104492000000000E+00      1.776352000000000E-01     -1.704844000000000E+02
4934000000.000000      6.978149000000000E-01      8.979492000000000E+00      1.746826000000000E-01     -1.704297000000000E+02
4935000000.000000      6.976929000000000E-01      9.038574000000000E+00      1.712341000000000E-01     -1.703047000000000E+02
4936000000.000000      6.965332000000000E-01      8.742188000000000E+00      1.672363000000000E-01     -1.697734000000000E+02
4937000000.000000      6.986084000000000E-01      8.605957000000000E+00      1.636047000000000E-01     -1.699531000000000E+02
4938000000.000000      6.974792000000000E-01      8.789063000000000E+00      1.598663000000000E-01     -1.694922000000000E+02
4939000000.000000      6.976624000000000E-01      8.529297000000000E+00      1.567078000000000E-01     -1.690000000000000E+02
4940000000.000000      6.991577000000000E-01      8.291504000000000E+00      1.529694000000000E-01     -1.686563000000000E+02
4941000000.000000      6.994934000000000E-01      8.316406000000000E+00      1.497040000000000E-01     -1.680469000000000E+02
4942000000.000000      6.991272000000000E-01      8.309570000000000E+00      1.458435000000000E-01     -1.677187000000000E+02
4943000000.000000      7.010498000000000E-01      8.205078000000000E+00      1.427002000000000E-01     -1.671641000000000E+02
4944000000.000000      7.021484000000000E-01      8.047363000000000E+00      1.396484000000000E-01     -1.661562000000000E+02
4945000000.000000      7.004700000000000E-01      7.912842000000000E+00      1.357117000000000E-01     -1.653672000000000E+02
4946000000.000000      7.031860000000000E-01      7.925049000000000E+00      1.331787000000000E-01     -1.647422000000000E+02
4947000000.000000      7.030334000000000E-01      7.642334000000000E+00      1.302185000000000E-01     -1.638672000000000E+02
4948000000.000000      7.030029000000000E-01      7.787842000000000E+00      1.271515000000000E-01     -1.627500000000000E+02
4949000000.000000      7.032471000000000E-01      7.469238000000000E+00      1.247139000000000E-01     -1.613906000000000E+02
4950000000.000000      7.044678000000000E-01      7.438965000000000E+00      1.222382000000000E-01     -1.603750000000000E+02
4951000000.000000      7.038879000000000E-01      7.313965000000000E+00      1.193466000000000E-01     -1.594922000000000E+02
4952000000.000000      7.041321000000000E-01      7.360840000000000E+00      1.168289000000000E-01     -1.580156000000000E+02
4953000000.000000      7.056580000000000E-01      7.076416000000000E+00      1.153374000000000E-01     -1.565625000000000E+02
4954000000.000000      7.064819000000000E-01      6.995361000000000E+00      1.133804000000000E-01     -1.550703000000000E+02
