! Network Analyzer HP8722D
! Hewlett-Packard
! Data name: Linha & Wilkinson
! Saver's name: Rodrigo Anjos
! Comments: Teste da utilização de aquisição
continua pelo VNA HP8722D
! Time and date: 22/5/2025 16:51
!              Frequency                     S11                                                   S21                                                   S12                                                   S22
# HZ  S  MA R 50
4800000000.000000      6.498718000000000E-01      1.111084000000000E+01      4.712677000000000E-01     -9.281641000000000E+01
4801000000.000000      6.467285000000000E-01      1.099170000000000E+01      4.747467000000000E-01     -9.325781000000000E+01
4802000000.000000      6.465759000000000E-01      1.098047000000000E+01      4.756775000000000E-01     -9.407030000000000E+01
4803000000.000000      6.437073000000000E-01      1.105469000000000E+01      4.784546000000000E-01     -9.473047000000000E+01
4804000000.000000      6.429749000000000E-01      1.092139000000000E+01      4.795532000000000E-01     -9.558203000000000E+01
4805000000.000000      6.426697000000000E-01      1.100391000000000E+01      4.825287000000000E-01     -9.650780000000000E+01
4806000000.000000      6.412048000000000E-01      1.106445000000000E+01      4.828949000000000E-01     -9.731249000000000E+01
4807000000.000000      6.375122000000000E-01      1.085449000000000E+01      4.853363000000000E-01     -9.819139000000000E+01
4808000000.000000      6.363525000000000E-01      1.101367000000000E+01      4.859161000000000E-01     -9.876953000000000E+01
4809000000.000000      6.358948000000000E-01      1.116455000000000E+01      4.864807000000000E-01     -9.973436000000000E+01
4810000000.000000      6.332397000000000E-01      1.089111000000000E+01      4.890442000000000E-01     -1.003828000000000E+02
4811000000.000000      6.344604000000000E-01      1.103027000000000E+01      4.900055000000000E-01     -1.012695000000000E+02
4812000000.000000      6.330261000000000E-01      1.127588000000000E+01      4.911194000000000E-01     -1.018008000000000E+02
4813000000.000000      6.292114000000000E-01      1.121680000000000E+01      4.908752000000000E-01     -1.025703000000000E+02
4814000000.000000      6.268616000000000E-01      1.129639000000000E+01      4.941254000000000E-01     -1.032305000000000E+02
4815000000.000000      6.271973000000000E-01      1.130176000000000E+01      4.920349000000000E-01     -1.038906000000000E+02
4816000000.000000      6.269226000000000E-01      1.135254000000000E+01      4.940491000000000E-01     -1.048047000000000E+02
4817000000.000000      6.231384000000000E-01      1.155322000000000E+01      4.960022000000000E-01     -1.056055000000000E+02
4818000000.000000      6.238098000000000E-01      1.152295000000000E+01      4.955444000000000E-01     -1.062734000000000E+02
4819000000.000000      6.222229000000000E-01      1.170850000000000E+01      4.956207000000000E-01     -1.069648000000000E+02
4820000000.000000      6.196594000000000E-01      1.178125000000000E+01      4.959412000000000E-01     -1.076328000000000E+02
4821000000.000000      6.209412000000000E-01      1.179102000000000E+01      4.965668000000000E-01     -1.086914000000000E+02
4822000000.000000      6.183167000000000E-01      1.185547000000000E+01      4.965057000000000E-01     -1.094414000000000E+02
4823000000.000000      6.182556000000000E-01      1.201074000000000E+01      4.977112000000000E-01     -1.100078000000000E+02
4824000000.000000      6.157837000000000E-01      1.210791000000000E+01      4.972076000000000E-01     -1.109648000000000E+02
4825000000.000000      6.173401000000000E-01      1.217529000000000E+01      4.982452000000000E-01     -1.115859000000000E+02
4826000000.000000      6.167908000000000E-01      1.235254000000000E+01      4.977722000000000E-01     -1.123945000000000E+02
4827000000.000000      6.148376000000000E-01      1.252295000000000E+01      4.965820000000000E-01     -1.130273000000000E+02
4828000000.000000      6.166687000000000E-01      1.253809000000000E+01      4.995117000000000E-01     -1.137148000000000E+02
4829000000.000000      6.147156000000000E-01      1.271240000000000E+01      4.989471000000000E-01     -1.146719000000000E+02
4830000000.000000      6.143494000000000E-01      1.265869000000000E+01      4.991608000000000E-01     -1.153984000000000E+02
4831000000.000000      6.142273000000000E-01      1.278076000000000E+01      4.990540000000000E-01     -1.161523000000000E+02
4832000000.000000      6.159668000000000E-01      1.304199000000000E+01      4.978638000000000E-01     -1.169023000000000E+02
4833000000.000000      6.118774000000000E-01      1.297998000000000E+01      4.991760000000000E-01     -1.175937000000000E+02
4834000000.000000      6.139526000000000E-01      1.319043000000000E+01      4.987335000000000E-01     -1.184141000000000E+02
4835000000.000000      6.135254000000000E-01      1.331934000000000E+01      4.991608000000000E-01     -1.189648000000000E+02
4836000000.000000      6.120605000000000E-01      1.336035000000000E+01      4.978180000000000E-01     -1.197852000000000E+02
4837000000.000000      6.131592000000000E-01      1.365283000000000E+01      4.963074000000000E-01     -1.208594000000000E+02
4838000000.000000      6.135864000000000E-01      1.359277000000000E+01      4.981995000000000E-01     -1.213437000000000E+02
4839000000.000000      6.170044000000000E-01      1.375879000000000E+01      4.973145000000000E-01     -1.222383000000000E+02
4840000000.000000      6.168213000000000E-01      1.359668000000000E+01      4.956207000000000E-01     -1.232187000000000E+02
4841000000.000000      6.151428000000000E-01      1.411182000000000E+01      4.970703000000000E-01     -1.239609000000000E+02
4842000000.000000      6.140747000000000E-01      1.414893000000000E+01      4.956207000000000E-01     -1.247344000000000E+02
4843000000.000000      6.186829000000000E-01      1.404150000000000E+01      4.941559000000000E-01     -1.256719000000000E+02
4844000000.000000      6.154785000000000E-01      1.414453000000000E+01      4.944000000000000E-01     -1.261797000000000E+02
4845000000.000000      6.184387000000000E-01      1.449219000000000E+01      4.922028000000000E-01     -1.270469000000000E+02
4846000000.000000      6.185913000000000E-01      1.453076000000000E+01      4.927979000000000E-01     -1.280469000000000E+02
4847000000.000000      6.189880000000000E-01      1.464307000000000E+01      4.912109000000000E-01     -1.287578000000000E+02
4848000000.000000      6.190186000000000E-01      1.462256000000000E+01      4.878082000000000E-01     -1.296016000000000E+02
4849000000.000000      6.212463000000000E-01      1.459229000000000E+01      4.864197000000000E-01     -1.305312000000000E+02
4850000000.000000      6.195679000000000E-01      1.463232000000000E+01      4.857178000000000E-01     -1.313672000000000E+02
4851000000.000000      6.205139000000000E-01      1.485059000000000E+01      4.846649000000000E-01     -1.322109000000000E+02
4852000000.000000      6.226501000000000E-01      1.490430000000000E+01      4.816895000000000E-01     -1.330078000000000E+02
4853000000.000000      6.260681000000000E-01      1.491650000000000E+01      4.789734000000000E-01     -1.338125000000000E+02
4854000000.000000      6.252136000000000E-01      1.487646000000000E+01      4.774628000000000E-01     -1.348984000000000E+02
4855000000.000000      6.261292000000000E-01      1.478760000000000E+01      4.749908000000000E-01     -1.357578000000000E+02
4856000000.000000      6.281738000000000E-01      1.479297000000000E+01      4.729614000000000E-01     -1.365469000000000E+02
4857000000.000000      6.280823000000000E-01      1.505371000000000E+01      4.714355000000000E-01     -1.372266000000000E+02
4858000000.000000      6.288452000000000E-01      1.497266000000000E+01      4.683685000000000E-01     -1.381953000000000E+02
4859000000.000000      6.310425000000000E-01      1.502783000000000E+01      4.643097000000000E-01     -1.390391000000000E+02
4860000000.000000      6.325073000000000E-01      1.505518000000000E+01      4.611206000000000E-01     -1.397578000000000E+02
4861000000.000000      6.326599000000000E-01      1.521875000000000E+01      4.590912000000000E-01     -1.407344000000000E+02
4862000000.000000      6.328430000000000E-01      1.497803000000000E+01      4.558105000000000E-01     -1.413594000000000E+02
4863000000.000000      6.357727000000000E-01      1.515283000000000E+01      4.517975000000000E-01     -1.423984000000000E+02
4864000000.000000      6.367493000000000E-01      1.523242000000000E+01      4.493866000000000E-01     -1.431172000000000E+02
4865000000.000000      6.379089000000000E-01      1.509521000000000E+01      4.441376000000000E-01     -1.438437000000000E+02
4866000000.000000      6.379395000000000E-01      1.507178000000000E+01      4.394226000000000E-01     -1.447031000000000E+02
4867000000.000000      6.399231000000000E-01      1.518555000000000E+01      4.375916000000000E-01     -1.455703000000000E+02
4868000000.000000      6.405945000000000E-01      1.493408000000000E+01      4.323425000000000E-01     -1.464609000000000E+02
4869000000.000000      6.430664000000000E-01      1.512256000000000E+01      4.278564000000000E-01     -1.470469000000000E+02
4870000000.000000      6.427307000000000E-01      1.508691000000000E+01      4.248199000000000E-01     -1.477109000000000E+02
4871000000.000000      6.457520000000000E-01      1.500000000000000E+01      4.206390000000000E-01     -1.486484000000000E+02
4872000000.000000      6.478271000000000E-01      1.500732000000000E+01      4.159088000000000E-01     -1.491562000000000E+02
4873000000.000000      6.478577000000000E-01      1.484912000000000E+01      4.116211000000000E-01     -1.499844000000000E+02
4874000000.000000      6.482849000000000E-01      1.494824000000000E+01      4.068756000000000E-01     -1.505312000000000E+02
4875000000.000000      6.498413000000000E-01      1.483691000000000E+01      4.028931000000000E-01     -1.512969000000000E+02
4876000000.000000      6.523438000000000E-01      1.488232000000000E+01      3.996735000000000E-01     -1.519140000000000E+02
4877000000.000000      6.540527000000000E-01      1.494385000000000E+01      3.942566000000000E-01     -1.525156000000000E+02
4878000000.000000      6.537170000000000E-01      1.484375000000000E+01      3.903503000000000E-01     -1.529687000000000E+02
4879000000.000000      6.578369000000000E-01      1.467041000000000E+01      3.853760000000000E-01     -1.535469000000000E+02
4880000000.000000      6.588745000000000E-01      1.460059000000000E+01      3.808899000000000E-01     -1.543203000000000E+02
4881000000.000000      6.583557000000000E-01      1.460205000000000E+01      3.774109000000000E-01     -1.550000000000000E+02
4882000000.000000      6.600037000000000E-01      1.457715000000000E+01      3.720703000000000E-01     -1.554141000000000E+02
4883000000.000000      6.604614000000000E-01      1.445801000000000E+01      3.675079000000000E-01     -1.563047000000000E+02
4884000000.000000      6.621704000000000E-01      1.447998000000000E+01      3.630524000000000E-01     -1.565312000000000E+02
4885000000.000000      6.627197000000000E-01      1.405518000000000E+01      3.605652000000000E-01     -1.567734000000000E+02
4886000000.000000      6.638794000000000E-01      1.425195000000000E+01      3.557892000000000E-01     -1.573906000000000E+02
4887000000.000000      6.646118000000000E-01      1.414453000000000E+01      3.504486000000000E-01     -1.578125000000000E+02
4888000000.000000      6.657410000000000E-01      1.406494000000000E+01      3.470917000000000E-01     -1.585859000000000E+02
4889000000.000000      6.694641000000000E-01      1.420361000000000E+01      3.417206000000000E-01     -1.589453000000000E+02
4890000000.000000      6.672668000000000E-01      1.387842000000000E+01      3.369904000000000E-01     -1.596953000000000E+02
4891000000.000000      6.707764000000000E-01      1.376709000000000E+01      3.346100000000000E-01     -1.600156000000000E+02
4892000000.000000      6.686401000000000E-01      1.387158000000000E+01      3.303833000000000E-01     -1.599766000000000E+02
4893000000.000000      6.730652000000000E-01      1.363086000000000E+01      3.252411000000000E-01     -1.605078000000000E+02
4894000000.000000      6.733704000000000E-01      1.356250000000000E+01      3.216248000000000E-01     -1.610156000000000E+02
4895000000.000000      6.739197000000000E-01      1.347168000000000E+01      3.195038000000000E-01     -1.614375000000000E+02
4896000000.000000      6.748352000000000E-01      1.345654000000000E+01      3.150024000000000E-01     -1.617812000000000E+02
4897000000.000000      6.751404000000000E-01      1.333154000000000E+01      3.102264000000000E-01     -1.620937000000000E+02
4898000000.000000      6.772766000000000E-01      1.331543000000000E+01      3.070068000000000E-01     -1.624453000000000E+02
4899000000.000000      6.766052000000000E-01      1.323682000000000E+01      3.033905000000000E-01     -1.629062000000000E+02
4900000000.000000      6.763916000000000E-01      1.290039000000000E+01      2.998352000000000E-01     -1.631250000000000E+02
4901000000.000000      6.788635000000000E-01      1.283447000000000E+01      2.961121000000000E-01     -1.634531000000000E+02
4902000000.000000      6.790771000000000E-01      1.259570000000000E+01      2.927094000000000E-01     -1.637422000000000E+02
4903000000.000000      6.794434000000000E-01      1.273975000000000E+01      2.880402000000000E-01     -1.641406000000000E+02
4904000000.000000      6.811523000000000E-01      1.270410000000000E+01      2.845612000000000E-01     -1.644687000000000E+02
4905000000.000000      6.823730000000000E-01      1.247314000000000E+01      2.812653000000000E-01     -1.649141000000000E+02
4906000000.000000      6.806946000000000E-01      1.240332000000000E+01      2.784424000000000E-01     -1.648750000000000E+02
4907000000.000000      6.828308000000000E-01      1.245557000000000E+01      2.750092000000000E-01     -1.654297000000000E+02
4908000000.000000      6.846008000000000E-01      1.211914000000000E+01      2.715912000000000E-01     -1.658125000000000E+02
4909000000.000000      6.830750000000000E-01      1.210693000000000E+01      2.673340000000000E-01     -1.660391000000000E+02
4910000000.000000      6.841736000000000E-01      1.212744000000000E+01      2.642365000000000E-01     -1.663281000000000E+02
4911000000.000000      6.871033000000000E-01      1.182373000000000E+01      2.608795000000000E-01     -1.665781000000000E+02
4912000000.000000      6.864319000000000E-01      1.190625000000000E+01      2.571716000000000E-01     -1.670547000000000E+02
4913000000.000000      6.872253000000000E-01      1.169482000000000E+01      2.539520000000000E-01     -1.673359000000000E+02
4914000000.000000      6.878662000000000E-01      1.149561000000000E+01      2.501984000000000E-01     -1.676016000000000E+02
4915000000.000000      6.875610000000000E-01      1.149414000000000E+01      2.465668000000000E-01     -1.679297000000000E+02
4916000000.000000      6.867065000000000E-01      1.134863000000000E+01      2.433929000000000E-01     -1.682734000000000E+02
4917000000.000000      6.905518000000000E-01      1.122803000000000E+01      2.399063000000000E-01     -1.684844000000000E+02
4918000000.000000      6.893616000000000E-01      1.130615000000000E+01      2.358322000000000E-01     -1.687187000000000E+02
4919000000.000000      6.878662000000000E-01      1.109619000000000E+01      2.323914000000000E-01     -1.686328000000000E+02
4920000000.000000      6.909790000000000E-01      1.098193000000000E+01      2.282104000000000E-01     -1.692188000000000E+02
4921000000.000000      6.935120000000000E-01      1.117432000000000E+01      2.250977000000000E-01     -1.694141000000000E+02
4922000000.000000      6.903076000000000E-01      1.085986000000000E+01      2.213211000000000E-01     -1.694687000000000E+02
4923000000.000000      6.915283000000000E-01      1.094482000000000E+01      2.173996000000000E-01     -1.696094000000000E+02
4924000000.000000      6.937561000000000E-01      1.064697000000000E+01      2.137146000000000E-01     -1.699687000000000E+02
4925000000.000000      6.938171000000000E-01      1.042725000000000E+01      2.105179000000000E-01     -1.701719000000000E+02
4926000000.000000      6.928406000000000E-01      1.026660000000000E+01      2.069778000000000E-01     -1.703281000000000E+02
4927000000.000000      6.938477000000000E-01      1.027734000000000E+01      2.020721000000000E-01     -1.703047000000000E+02
4928000000.000000      6.960754000000000E-01      1.032422000000000E+01      1.987381000000000E-01     -1.703203000000000E+02
4929000000.000000      6.949768000000000E-01      1.017871000000000E+01      1.943741000000000E-01     -1.705156000000000E+02
4930000000.000000      6.940918000000000E-01      1.017578000000000E+01      1.911087000000000E-01     -1.706875000000000E+02
4931000000.000000      6.923828000000000E-01      9.850586000000000E+00      1.883392000000000E-01     -1.703438000000000E+02
4932000000.000000      6.960754000000000E-01      9.923340000000000E+00      1.841354000000000E-01     -1.706953000000000E+02
4933000000.000000      6.961365000000000E-01      9.721191000000000E+00      1.797485000000000E-01     -1.702969000000000E+02
4934000000.000000      6.970520000000000E-01      9.732422000000000E+00      1.763611000000000E-01     -1.703672000000000E+02
4935000000.000000      6.979370000000000E-01      9.500000000000000E+00      1.730804000000000E-01     -1.700547000000000E+02
4936000000.000000      6.965637000000000E-01      9.409668000000000E+00      1.686172000000000E-01     -1.698437000000000E+02
4937000000.000000      6.998596000000000E-01      9.372559000000000E+00      1.652679000000000E-01     -1.697109000000000E+02
4938000000.000000      6.998596000000000E-01      9.415039000000000E+00      1.616592000000000E-01     -1.695078000000000E+02
4939000000.000000      6.976013000000000E-01      9.259766000000000E+00      1.580734000000000E-01     -1.690391000000000E+02
4940000000.000000      7.001648000000000E-01      8.964844000000000E+00      1.536636000000000E-01     -1.687578000000000E+02
4941000000.000000      7.011108000000000E-01      8.894531000000000E+00      1.511078000000000E-01     -1.683125000000000E+02
4942000000.000000      6.997375000000000E-01      8.825684000000000E+00      1.470184000000000E-01     -1.677578000000000E+02
4943000000.000000      7.026672000000000E-01      8.858887000000000E+00      1.438675000000000E-01     -1.670938000000000E+02
4944000000.000000      7.024536000000000E-01      8.768066000000000E+00      1.407852000000000E-01     -1.665625000000000E+02
4945000000.000000      7.010193000000000E-01      8.534668000000000E+00      1.372528000000000E-01     -1.657422000000000E+02
4946000000.000000      7.013855000000000E-01      8.423340000000000E+00      1.342087000000000E-01     -1.652187000000000E+02
4947000000.000000      7.033997000000000E-01      8.356445000000000E+00      1.311111000000000E-01     -1.643359000000000E+02
4948000000.000000      7.041931000000000E-01      8.455078000000000E+00      1.281662000000000E-01     -1.631094000000000E+02
4949000000.000000      7.034607000000000E-01      8.126953000000000E+00      1.258316000000000E-01     -1.620156000000000E+02
4950000000.000000      7.051086000000000E-01      8.103516000000000E+00      1.228180000000000E-01     -1.609141000000000E+02
4951000000.000000      7.061157000000000E-01      7.856445000000000E+00      1.203804000000000E-01     -1.598047000000000E+02
4952000000.000000      7.056885000000000E-01      7.993896000000000E+00      1.177711000000000E-01     -1.585234000000000E+02
4953000000.000000      7.057190000000000E-01      7.818115000000000E+00      1.155510000000000E-01     -1.571172000000000E+02
4954000000.000000      7.073364000000000E-01      7.690430000000000E+00      1.133308000000000E-01     -1.557500000000000E+02
