! Network Analyzer HP8722D
! Hewlett-Packard
! Data name: Linha & Wilkinson
! Saver's name: Rodrigo Anjos
! Comments: Teste da utilização de aquisição
continua pelo VNA HP8722D
! Time and date: 22/5/2025 13:14
!              Frequency                     S11                                                   S21                                                   S12                                                   S22
# HZ  S  MA R 50
4800000000.000000      6.515808000000000E-01      1.094775000000000E+01      4.725189000000000E-01     -9.232813000000000E+01
4801000000.000000      6.493530000000000E-01      1.086670000000000E+01      4.725647000000000E-01     -9.314844000000000E+01
4802000000.000000      6.488953000000000E-01      1.083936000000000E+01      4.739990000000000E-01     -9.371874000000000E+01
4803000000.000000      6.456909000000000E-01      1.078564000000000E+01      4.782104000000000E-01     -9.460155000000000E+01
4804000000.000000      6.443787000000000E-01      1.085303000000000E+01      4.794769000000000E-01     -9.529688000000000E+01
4805000000.000000      6.441956000000000E-01      1.083105000000000E+01      4.807739000000000E-01     -9.621094000000000E+01
4806000000.000000      6.414185000000000E-01      1.081445000000000E+01      4.808350000000000E-01     -9.675781000000000E+01
4807000000.000000      6.377258000000000E-01      1.076904000000000E+01      4.843140000000000E-01     -9.782030000000000E+01
4808000000.000000      6.366882000000000E-01      1.079785000000000E+01      4.845734000000000E-01     -9.836718000000000E+01
4809000000.000000      6.362915000000000E-01      1.091455000000000E+01      4.862823000000000E-01     -9.931641000000000E+01
4810000000.000000      6.344604000000000E-01      1.089551000000000E+01      4.878540000000000E-01     -9.969139000000000E+01
4811000000.000000      6.328125000000000E-01      1.094629000000000E+01      4.886017000000000E-01     -1.007109000000000E+02
4812000000.000000      6.326599000000000E-01      1.114941000000000E+01      4.914856000000000E-01     -1.013164000000000E+02
4813000000.000000      6.315918000000000E-01      1.098730000000000E+01      4.907837000000000E-01     -1.020469000000000E+02
4814000000.000000      6.295166000000000E-01      1.104932000000000E+01      4.915619000000000E-01     -1.027930000000000E+02
4815000000.000000      6.266174000000000E-01      1.126074000000000E+01      4.926910000000000E-01     -1.037539000000000E+02
4816000000.000000      6.261902000000000E-01      1.116064000000000E+01      4.930725000000000E-01     -1.046211000000000E+02
4817000000.000000      6.267090000000000E-01      1.144189000000000E+01      4.936676000000000E-01     -1.051601000000000E+02
4818000000.000000      6.244812000000000E-01      1.150635000000000E+01      4.957733000000000E-01     -1.059062000000000E+02
4819000000.000000      6.222839000000000E-01      1.150635000000000E+01      4.942627000000000E-01     -1.068125000000000E+02
4820000000.000000      6.215515000000000E-01      1.167529000000000E+01      4.973755000000000E-01     -1.071680000000000E+02
4821000000.000000      6.208191000000000E-01      1.154639000000000E+01      4.975739000000000E-01     -1.085234000000000E+02
4822000000.000000      6.189880000000000E-01      1.168652000000000E+01      4.969788000000000E-01     -1.089492000000000E+02
4823000000.000000      6.199646000000000E-01      1.174707000000000E+01      4.975128000000000E-01     -1.098242000000000E+02
4824000000.000000      6.171265000000000E-01      1.195410000000000E+01      4.976654000000000E-01     -1.105976000000000E+02
4825000000.000000      6.169128000000000E-01      1.211768000000000E+01      4.991150000000000E-01     -1.111562000000000E+02
4826000000.000000      6.162415000000000E-01      1.212158000000000E+01      4.993439000000000E-01     -1.120703000000000E+02
4827000000.000000      6.177063000000000E-01      1.222070000000000E+01      4.989471000000000E-01     -1.126680000000000E+02
4828000000.000000      6.177673000000000E-01      1.231250000000000E+01      4.991302000000000E-01     -1.134062000000000E+02
4829000000.000000      6.157532000000000E-01      1.257373000000000E+01      4.994812000000000E-01     -1.140898000000000E+02
4830000000.000000      6.145020000000000E-01      1.233594000000000E+01      4.992218000000000E-01     -1.149687000000000E+02
4831000000.000000      6.145325000000000E-01      1.274414000000000E+01      5.000000000000000E-01     -1.158359000000000E+02
4832000000.000000      6.148682000000000E-01      1.288135000000000E+01      4.997253000000000E-01     -1.163984000000000E+02
4833000000.000000      6.120911000000000E-01      1.274414000000000E+01      4.989929000000000E-01     -1.172383000000000E+02
4834000000.000000      6.140442000000000E-01      1.291260000000000E+01      4.983826000000000E-01     -1.179375000000000E+02
4835000000.000000      6.155701000000000E-01      1.320117000000000E+01      4.979248000000000E-01     -1.188515000000000E+02
4836000000.000000      6.146545000000000E-01      1.323682000000000E+01      4.983978000000000E-01     -1.194062000000000E+02
4837000000.000000      6.129761000000000E-01      1.334424000000000E+01      4.978943000000000E-01     -1.205898000000000E+02
4838000000.000000      6.132507000000000E-01      1.336035000000000E+01      4.974823000000000E-01     -1.210312000000000E+02
4839000000.000000      6.157227000000000E-01      1.369141000000000E+01      4.969482000000000E-01     -1.218867000000000E+02
4840000000.000000      6.166687000000000E-01      1.343604000000000E+01      4.987793000000000E-01     -1.225508000000000E+02
4841000000.000000      6.159668000000000E-01      1.380957000000000E+01      4.970703000000000E-01     -1.234531000000000E+02
4842000000.000000      6.151123000000000E-01      1.387549000000000E+01      4.960785000000000E-01     -1.241875000000000E+02
4843000000.000000      6.181335000000000E-01      1.386719000000000E+01      4.958801000000000E-01     -1.252969000000000E+02
4844000000.000000      6.157227000000000E-01      1.393994000000000E+01      4.946594000000000E-01     -1.260469000000000E+02
4845000000.000000      6.176453000000000E-01      1.414209000000000E+01      4.937744000000000E-01     -1.267461000000000E+02
4846000000.000000      6.192627000000000E-01      1.419434000000000E+01      4.927063000000000E-01     -1.276055000000000E+02
4847000000.000000      6.199646000000000E-01      1.426953000000000E+01      4.925232000000000E-01     -1.284922000000000E+02
4848000000.000000      6.195679000000000E-01      1.412256000000000E+01      4.894257000000000E-01     -1.293437000000000E+02
4849000000.000000      6.211548000000000E-01      1.434375000000000E+01      4.889526000000000E-01     -1.301328000000000E+02
4850000000.000000      6.221924000000000E-01      1.446338000000000E+01      4.862213000000000E-01     -1.309375000000000E+02
4851000000.000000      6.230774000000000E-01      1.468164000000000E+01      4.869690000000000E-01     -1.319453000000000E+02
4852000000.000000      6.235962000000000E-01      1.456787000000000E+01      4.812622000000000E-01     -1.325938000000000E+02
4853000000.000000      6.252136000000000E-01      1.478760000000000E+01      4.810486000000000E-01     -1.335312000000000E+02
4854000000.000000      6.256409000000000E-01      1.461963000000000E+01      4.785919000000000E-01     -1.344297000000000E+02
4855000000.000000      6.266785000000000E-01      1.469385000000000E+01      4.762878000000000E-01     -1.353203000000000E+02
4856000000.000000      6.269836000000000E-01      1.470898000000000E+01      4.738464000000000E-01     -1.362656000000000E+02
4857000000.000000      6.293945000000000E-01      1.488477000000000E+01      4.729309000000000E-01     -1.369766000000000E+02
4858000000.000000      6.292114000000000E-01      1.463232000000000E+01      4.691925000000000E-01     -1.378047000000000E+02
4859000000.000000      6.316528000000000E-01      1.473779000000000E+01      4.671173000000000E-01     -1.386875000000000E+02
4860000000.000000      6.299744000000000E-01      1.504297000000000E+01      4.644012000000000E-01     -1.393437000000000E+02
4861000000.000000      6.329956000000000E-01      1.495752000000000E+01      4.604340000000000E-01     -1.405313000000000E+02
4862000000.000000      6.343384000000000E-01      1.485205000000000E+01      4.571686000000000E-01     -1.411484000000000E+02
4863000000.000000      6.357117000000000E-01      1.499219000000000E+01      4.527588000000000E-01     -1.421406000000000E+02
4864000000.000000      6.374512000000000E-01      1.495068000000000E+01      4.497986000000000E-01     -1.429141000000000E+02
4865000000.000000      6.373596000000000E-01      1.500977000000000E+01      4.466400000000000E-01     -1.435781000000000E+02
4866000000.000000      6.391296000000000E-01      1.483154000000000E+01      4.424896000000000E-01     -1.445000000000000E+02
4867000000.000000      6.407776000000000E-01      1.510059000000000E+01      4.383698000000000E-01     -1.450469000000000E+02
4868000000.000000      6.411133000000000E-01      1.482031000000000E+01      4.349823000000000E-01     -1.461797000000000E+02
4869000000.000000      6.426086000000000E-01      1.496436000000000E+01      4.305267000000000E-01     -1.469141000000000E+02
4870000000.000000      6.449890000000000E-01      1.491211000000000E+01      4.270325000000000E-01     -1.474062000000000E+02
4871000000.000000      6.441650000000000E-01      1.451416000000000E+01      4.225464000000000E-01     -1.481953000000000E+02
4872000000.000000      6.467590000000000E-01      1.472168000000000E+01      4.182739000000000E-01     -1.489063000000000E+02
4873000000.000000      6.464539000000000E-01      1.488232000000000E+01      4.143829000000000E-01     -1.497813000000000E+02
4874000000.000000      6.481323000000000E-01      1.483008000000000E+01      4.092865000000000E-01     -1.504297000000000E+02
4875000000.000000      6.503296000000000E-01      1.473389000000000E+01      4.057159000000000E-01     -1.511172000000000E+02
4876000000.000000      6.527100000000000E-01      1.486719000000000E+01      4.014587000000000E-01     -1.516797000000000E+02
4877000000.000000      6.530457000000000E-01      1.454004000000000E+01      3.962708000000000E-01     -1.525000000000000E+02
4878000000.000000      6.532288000000000E-01      1.459766000000000E+01      3.927765000000000E-01     -1.530156000000000E+02
4879000000.000000      6.560974000000000E-01      1.457568000000000E+01      3.879547000000000E-01     -1.536172000000000E+02
4880000000.000000      6.570129000000000E-01      1.461279000000000E+01      3.833771000000000E-01     -1.542344000000000E+02
4881000000.000000      6.576538000000000E-01      1.445654000000000E+01      3.798218000000000E-01     -1.546094000000000E+02
4882000000.000000      6.596069000000000E-01      1.441650000000000E+01      3.760223000000000E-01     -1.553125000000000E+02
4883000000.000000      6.604309000000000E-01      1.427930000000000E+01      3.697968000000000E-01     -1.557422000000000E+02
4884000000.000000      6.631775000000000E-01      1.437939000000000E+01      3.661804000000000E-01     -1.564453000000000E+02
4885000000.000000      6.643982000000000E-01      1.425732000000000E+01      3.612366000000000E-01     -1.567266000000000E+02
4886000000.000000      6.640320000000000E-01      1.415723000000000E+01      3.582611000000000E-01     -1.571875000000000E+02
4887000000.000000      6.664124000000000E-01      1.414893000000000E+01      3.535767000000000E-01     -1.578984000000000E+02
4888000000.000000      6.660461000000000E-01      1.399756000000000E+01      3.490295000000000E-01     -1.583906000000000E+02
4889000000.000000      6.677551000000000E-01      1.410352000000000E+01      3.446503000000000E-01     -1.586016000000000E+02
4890000000.000000      6.654663000000000E-01      1.372461000000000E+01      3.409271000000000E-01     -1.595469000000000E+02
4891000000.000000      6.690979000000000E-01      1.368311000000000E+01      3.361359000000000E-01     -1.597500000000000E+02
4892000000.000000      6.704102000000000E-01      1.373682000000000E+01      3.324585000000000E-01     -1.600703000000000E+02
4893000000.000000      6.730042000000000E-01      1.362988000000000E+01      3.275299000000000E-01     -1.606719000000000E+02
4894000000.000000      6.722107000000000E-01      1.347705000000000E+01      3.246918000000000E-01     -1.610547000000000E+02
4895000000.000000      6.741028000000000E-01      1.334521000000000E+01      3.209381000000000E-01     -1.612656000000000E+02
4896000000.000000      6.755981000000000E-01      1.335205000000000E+01      3.168488000000000E-01     -1.617188000000000E+02
4897000000.000000      6.747131000000000E-01      1.323682000000000E+01      3.130035000000000E-01     -1.621172000000000E+02
4898000000.000000      6.747437000000000E-01      1.318750000000000E+01      3.099365000000000E-01     -1.624297000000000E+02
4899000000.000000      6.790771000000000E-01      1.303516000000000E+01      3.055725000000000E-01     -1.629766000000000E+02
4900000000.000000      6.776428000000000E-01      1.303076000000000E+01      3.022003000000000E-01     -1.630000000000000E+02
4901000000.000000      6.784058000000000E-01      1.282764000000000E+01      2.980804000000000E-01     -1.633672000000000E+02
4902000000.000000      6.794128000000000E-01      1.273145000000000E+01      2.944641000000000E-01     -1.636094000000000E+02
4903000000.000000      6.805725000000000E-01      1.266309000000000E+01      2.904663000000000E-01     -1.641719000000000E+02
4904000000.000000      6.804504000000000E-01      1.262158000000000E+01      2.875519000000000E-01     -1.644687000000000E+02
4905000000.000000      6.809998000000000E-01      1.250244000000000E+01      2.840424000000000E-01     -1.648125000000000E+02
4906000000.000000      6.821594000000000E-01      1.233594000000000E+01      2.804565000000000E-01     -1.649297000000000E+02
4907000000.000000      6.828003000000000E-01      1.221680000000000E+01      2.769470000000000E-01     -1.655234000000000E+02
4908000000.000000      6.852417000000000E-01      1.213818000000000E+01      2.740784000000000E-01     -1.658750000000000E+02
4909000000.000000      6.837463000000000E-01      1.209961000000000E+01      2.701721000000000E-01     -1.661875000000000E+02
4910000000.000000      6.842346000000000E-01      1.211475000000000E+01      2.670441000000000E-01     -1.663047000000000E+02
4911000000.000000      6.857300000000000E-01      1.177295000000000E+01      2.631531000000000E-01     -1.666719000000000E+02
4912000000.000000      6.856689000000000E-01      1.181299000000000E+01      2.593689000000000E-01     -1.671016000000000E+02
4913000000.000000      6.848145000000000E-01      1.158643000000000E+01      2.560883000000000E-01     -1.674375000000000E+02
4914000000.000000      6.881104000000000E-01      1.146240000000000E+01      2.527466000000000E-01     -1.676094000000000E+02
4915000000.000000      6.876221000000000E-01      1.147070000000000E+01      2.483978000000000E-01     -1.679609000000000E+02
4916000000.000000      6.876831000000000E-01      1.149023000000000E+01      2.452774000000000E-01     -1.683125000000000E+02
4917000000.000000      6.890259000000000E-01      1.127881000000000E+01      2.415314000000000E-01     -1.684766000000000E+02
4918000000.000000      6.882019000000000E-01      1.116211000000000E+01      2.377396000000000E-01     -1.688047000000000E+02
4919000000.000000      6.892700000000000E-01      1.097119000000000E+01      2.351685000000000E-01     -1.688203000000000E+02
4920000000.000000      6.896973000000000E-01      1.076367000000000E+01      2.308044000000000E-01     -1.693984000000000E+02
4921000000.000000      6.918335000000000E-01      1.100244000000000E+01      2.277985000000000E-01     -1.695391000000000E+02
4922000000.000000      6.916809000000000E-01      1.069336000000000E+01      2.236557000000000E-01     -1.696250000000000E+02
4923000000.000000      6.917114000000000E-01      1.075537000000000E+01      2.196808000000000E-01     -1.698516000000000E+02
4924000000.000000      6.921082000000000E-01      1.054785000000000E+01      2.153625000000000E-01     -1.701328000000000E+02
4925000000.000000      6.925964000000000E-01      1.035449000000000E+01      2.117920000000000E-01     -1.703594000000000E+02
4926000000.000000      6.937866000000000E-01      1.031982000000000E+01      2.085724000000000E-01     -1.705391000000000E+02
4927000000.000000      6.948853000000000E-01      1.017334000000000E+01      2.048492000000000E-01     -1.705469000000000E+02
4928000000.000000      6.960754000000000E-01      1.019775000000000E+01      2.011414000000000E-01     -1.706640000000000E+02
4929000000.000000      6.949768000000000E-01      1.004541000000000E+01      1.970062000000000E-01     -1.705703000000000E+02
4930000000.000000      6.958313000000000E-01      9.940918000000000E+00      1.934128000000000E-01     -1.707500000000000E+02
4931000000.000000      6.953735000000000E-01      9.869629000000000E+00      1.900406000000000E-01     -1.708359000000000E+02
4932000000.000000      6.979675000000000E-01      9.902344000000000E+00      1.860352000000000E-01     -1.707813000000000E+02
4933000000.000000      6.960449000000000E-01      9.500000000000000E+00      1.817245000000000E-01     -1.706875000000000E+02
4934000000.000000      6.979980000000000E-01      9.486328000000000E+00      1.779861000000000E-01     -1.708437000000000E+02
4935000000.000000      6.998291000000000E-01      9.524902000000000E+00      1.754303000000000E-01     -1.704219000000000E+02
4936000000.000000      6.961060000000000E-01      9.393066000000000E+00      1.705856000000000E-01     -1.702969000000000E+02
4937000000.000000      6.983337000000000E-01      9.235352000000000E+00      1.673889000000000E-01     -1.701641000000000E+02
4938000000.000000      6.990662000000000E-01      9.294434000000000E+00      1.637344000000000E-01     -1.698672000000000E+02
4939000000.000000      6.989136000000000E-01      9.180176000000000E+00      1.599655000000000E-01     -1.696406000000000E+02
4940000000.000000      7.005615000000000E-01      8.979492000000000E+00      1.558990000000000E-01     -1.694609000000000E+02
4941000000.000000      7.010193000000000E-01      8.899902000000000E+00      1.526566000000000E-01     -1.688906000000000E+02
4942000000.000000      6.998596000000000E-01      8.765625000000000E+00      1.488342000000000E-01     -1.684453000000000E+02
4943000000.000000      7.005310000000000E-01      8.825684000000000E+00      1.457596000000000E-01     -1.677109000000000E+02
4944000000.000000      7.022095000000000E-01      8.563477000000000E+00      1.426239000000000E-01     -1.672656000000000E+02
4945000000.000000      7.011414000000000E-01      8.540039000000000E+00      1.389618000000000E-01     -1.665625000000000E+02
4946000000.000000      7.016602000000000E-01      8.488281000000000E+00      1.357727000000000E-01     -1.659531000000000E+02
4947000000.000000      7.023926000000000E-01      8.195801000000000E+00      1.323853000000000E-01     -1.649688000000000E+02
4948000000.000000      7.056274000000000E-01      8.312500000000000E+00      1.297760000000000E-01     -1.641172000000000E+02
4949000000.000000      7.045593000000000E-01      8.157227000000000E+00      1.268921000000000E-01     -1.628984000000000E+02
4950000000.000000      7.054749000000000E-01      8.020996000000000E+00      1.236992000000000E-01     -1.621328000000000E+02
4951000000.000000      7.061768000000000E-01      7.951172000000000E+00      1.210938000000000E-01     -1.611172000000000E+02
4952000000.000000      7.044678000000000E-01      7.782227000000000E+00      1.182518000000000E-01     -1.596406000000000E+02
4953000000.000000      7.055359000000000E-01      7.654541000000000E+00      1.162415000000000E-01     -1.584375000000000E+02
4954000000.000000      7.089844000000000E-01      7.760254000000000E+00      1.139259000000000E-01     -1.569219000000000E+02
