! Network Analyzer HP8722D
! Hewlett-Packard
! Data name: Linha & Wilkinson
! Saver's name: Rodrigo Anjos
! Comments: Teste da utilização de aquisição
continua pelo VNA HP8722D
! Time and date: 22/5/2025 08:43
!              Frequency                     S11                                                   S21                                                   S12                                                   S22
# HZ  S  MA R 50
4800000000.000000      6.482544000000000E-01      1.028174000000000E+01      4.748688000000000E-01     -9.390234000000000E+01
4801000000.000000      6.443787000000000E-01      1.040527000000000E+01      4.767914000000000E-01     -9.434765000000000E+01
4802000000.000000      6.443787000000000E-01      1.029248000000000E+01      4.763947000000000E-01     -9.523438000000000E+01
4803000000.000000      6.405945000000000E-01      1.025391000000000E+01      4.804840000000000E-01     -9.587891000000000E+01
4804000000.000000      6.398010000000000E-01      1.039697000000000E+01      4.809265000000000E-01     -9.671875000000000E+01
4805000000.000000      6.406250000000000E-01      1.023096000000000E+01      4.839478000000000E-01     -9.749609000000000E+01
4806000000.000000      6.376953000000000E-01      1.031738000000000E+01      4.844666000000000E-01     -9.833593000000000E+01
4807000000.000000      6.353455000000000E-01      1.021289000000000E+01      4.852142000000000E-01     -9.919531000000000E+01
4808000000.000000      6.329956000000000E-01      1.022656000000000E+01      4.869385000000000E-01     -9.972656000000000E+01
4809000000.000000      6.316223000000000E-01      1.049707000000000E+01      4.889984000000000E-01     -1.006094000000000E+02
4810000000.000000      6.305847000000000E-01      1.042188000000000E+01      4.914856000000000E-01     -1.011719000000000E+02
4811000000.000000      6.297607000000000E-01      1.038721000000000E+01      4.927063000000000E-01     -1.021250000000000E+02
4812000000.000000      6.296692000000000E-01      1.051660000000000E+01      4.921722000000000E-01     -1.027851000000000E+02
4813000000.000000      6.288147000000000E-01      1.083643000000000E+01      4.924927000000000E-01     -1.035938000000000E+02
4814000000.000000      6.244202000000000E-01      1.066895000000000E+01      4.945526000000000E-01     -1.042969000000000E+02
4815000000.000000      6.247864000000000E-01      1.072949000000000E+01      4.948578000000000E-01     -1.050703000000000E+02
4816000000.000000      6.232910000000000E-01      1.078955000000000E+01      4.952240000000000E-01     -1.056836000000000E+02
4817000000.000000      6.208191000000000E-01      1.097119000000000E+01      4.962616000000000E-01     -1.066016000000000E+02
4818000000.000000      6.193237000000000E-01      1.084863000000000E+01      4.959717000000000E-01     -1.073867000000000E+02
4819000000.000000      6.199036000000000E-01      1.103809000000000E+01      4.983368000000000E-01     -1.082500000000000E+02
4820000000.000000      6.176758000000000E-01      1.112598000000000E+01      4.979553000000000E-01     -1.087422000000000E+02
4821000000.000000      6.179199000000000E-01      1.123047000000000E+01      4.994202000000000E-01     -1.098633000000000E+02
4822000000.000000      6.157837000000000E-01      1.124854000000000E+01      4.980469000000000E-01     -1.102266000000000E+02
4823000000.000000      6.160278000000000E-01      1.128955000000000E+01      4.990387000000000E-01     -1.111719000000000E+02
4824000000.000000      6.146851000000000E-01      1.156689000000000E+01      4.986115000000000E-01     -1.119414000000000E+02
4825000000.000000      6.144714000000000E-01      1.155859000000000E+01      4.991760000000000E-01     -1.127226000000000E+02
4826000000.000000      6.134949000000000E-01      1.159033000000000E+01      5.001526000000000E-01     -1.134648000000000E+02
4827000000.000000      6.120605000000000E-01      1.194336000000000E+01      4.988556000000000E-01     -1.140391000000000E+02
4828000000.000000      6.123657000000000E-01      1.188818000000000E+01      5.010071000000000E-01     -1.147305000000000E+02
4829000000.000000      6.118164000000000E-01      1.209863000000000E+01      5.003357000000000E-01     -1.155586000000000E+02
4830000000.000000      6.110535000000000E-01      1.210107000000000E+01      5.001526000000000E-01     -1.164883000000000E+02
4831000000.000000      6.113586000000000E-01      1.221777000000000E+01      5.006104000000000E-01     -1.170820000000000E+02
4832000000.000000      6.115723000000000E-01      1.230469000000000E+01      4.987488000000000E-01     -1.178437000000000E+02
4833000000.000000      6.098328000000000E-01      1.248975000000000E+01      4.999542000000000E-01     -1.185742000000000E+02
4834000000.000000      6.101990000000000E-01      1.270801000000000E+01      4.994507000000000E-01     -1.193555000000000E+02
4835000000.000000      6.120911000000000E-01      1.269727000000000E+01      4.990234000000000E-01     -1.202851000000000E+02
4836000000.000000      6.118774000000000E-01      1.274268000000000E+01      4.974365000000000E-01     -1.207539000000000E+02
4837000000.000000      6.120300000000000E-01      1.290332000000000E+01      4.979248000000000E-01     -1.219336000000000E+02
4838000000.000000      6.120300000000000E-01      1.301172000000000E+01      4.970856000000000E-01     -1.224336000000000E+02
4839000000.000000      6.148071000000000E-01      1.327002000000000E+01      4.974670000000000E-01     -1.233242000000000E+02
4840000000.000000      6.142883000000000E-01      1.313818000000000E+01      4.966888000000000E-01     -1.241211000000000E+02
4841000000.000000      6.143188000000000E-01      1.341943000000000E+01      4.971619000000000E-01     -1.249531000000000E+02
4842000000.000000      6.159973000000000E-01      1.344580000000000E+01      4.946442000000000E-01     -1.258398000000000E+02
4843000000.000000      6.182556000000000E-01      1.350879000000000E+01      4.955597000000000E-01     -1.266445000000000E+02
4844000000.000000      6.162720000000000E-01      1.366699000000000E+01      4.932861000000000E-01     -1.275547000000000E+02
4845000000.000000      6.158142000000000E-01      1.384131000000000E+01      4.931793000000000E-01     -1.281016000000000E+02
4846000000.000000      6.182861000000000E-01      1.382617000000000E+01      4.916840000000000E-01     -1.290390000000000E+02
4847000000.000000      6.181946000000000E-01      1.406104000000000E+01      4.907837000000000E-01     -1.297969000000000E+02
4848000000.000000      6.182861000000000E-01      1.376709000000000E+01      4.865570000000000E-01     -1.307812000000000E+02
4849000000.000000      6.202087000000000E-01      1.400049000000000E+01      4.868927000000000E-01     -1.314687000000000E+02
4850000000.000000      6.199951000000000E-01      1.396729000000000E+01      4.845276000000000E-01     -1.323984000000000E+02
4851000000.000000      6.220093000000000E-01      1.405127000000000E+01      4.840088000000000E-01     -1.331250000000000E+02
4852000000.000000      6.230774000000000E-01      1.419531000000000E+01      4.812775000000000E-01     -1.339297000000000E+02
4853000000.000000      6.256409000000000E-01      1.425439000000000E+01      4.766693000000000E-01     -1.350469000000000E+02
4854000000.000000      6.255188000000000E-01      1.430518000000000E+01      4.765320000000000E-01     -1.358906000000000E+02
4855000000.000000      6.266174000000000E-01      1.422168000000000E+01      4.733734000000000E-01     -1.367422000000000E+02
4856000000.000000      6.291199000000000E-01      1.414453000000000E+01      4.707947000000000E-01     -1.376328000000000E+02
4857000000.000000      6.303101000000000E-01      1.439453000000000E+01      4.698792000000000E-01     -1.382266000000000E+02
4858000000.000000      6.289673000000000E-01      1.432861000000000E+01      4.667358000000000E-01     -1.392812000000000E+02
4859000000.000000      6.319275000000000E-01      1.422559000000000E+01      4.630432000000000E-01     -1.401172000000000E+02
4860000000.000000      6.319885000000000E-01      1.438916000000000E+01      4.584351000000000E-01     -1.407969000000000E+02
4861000000.000000      6.324768000000000E-01      1.450586000000000E+01      4.553528000000000E-01     -1.418203000000000E+02
4862000000.000000      6.340942000000000E-01      1.433545000000000E+01      4.547119000000000E-01     -1.425703000000000E+02
4863000000.000000      6.343689000000000E-01      1.442480000000000E+01      4.485626000000000E-01     -1.433594000000000E+02
4864000000.000000      6.379700000000000E-01      1.443018000000000E+01      4.470062000000000E-01     -1.441015000000000E+02
4865000000.000000      6.367188000000000E-01      1.442773000000000E+01      4.425201000000000E-01     -1.448125000000000E+02
4866000000.000000      6.404724000000000E-01      1.431348000000000E+01      4.373169000000000E-01     -1.458359000000000E+02
4867000000.000000      6.410217000000000E-01      1.434229000000000E+01      4.343719000000000E-01     -1.464844000000000E+02
4868000000.000000      6.423340000000000E-01      1.424609000000000E+01      4.313812000000000E-01     -1.472812000000000E+02
4869000000.000000      6.456299000000000E-01      1.429150000000000E+01      4.270325000000000E-01     -1.480234000000000E+02
4870000000.000000      6.454468000000000E-01      1.427393000000000E+01      4.228058000000000E-01     -1.485703000000000E+02
4871000000.000000      6.445007000000000E-01      1.405518000000000E+01      4.169617000000000E-01     -1.495078000000000E+02
4872000000.000000      6.491089000000000E-01      1.434668000000000E+01      4.141998000000000E-01     -1.499766000000000E+02
4873000000.000000      6.496887000000000E-01      1.422021000000000E+01      4.096680000000000E-01     -1.509297000000000E+02
4874000000.000000      6.504517000000000E-01      1.431641000000000E+01      4.051666000000000E-01     -1.515391000000000E+02
4875000000.000000      6.520386000000000E-01      1.405518000000000E+01      4.000549000000000E-01     -1.522578000000000E+02
4876000000.000000      6.531372000000000E-01      1.416113000000000E+01      3.966370000000000E-01     -1.528828000000000E+02
4877000000.000000      6.553345000000000E-01      1.381494000000000E+01      3.924408000000000E-01     -1.533984000000000E+02
4878000000.000000      6.538391000000000E-01      1.392334000000000E+01      3.866425000000000E-01     -1.540234000000000E+02
4879000000.000000      6.552734000000000E-01      1.393750000000000E+01      3.830872000000000E-01     -1.546094000000000E+02
4880000000.000000      6.598816000000000E-01      1.376709000000000E+01      3.779449000000000E-01     -1.550625000000000E+02
4881000000.000000      6.570129000000000E-01      1.382178000000000E+01      3.748474000000000E-01     -1.556641000000000E+02
4882000000.000000      6.602478000000000E-01      1.384131000000000E+01      3.716888000000000E-01     -1.563359000000000E+02
4883000000.000000      6.608276000000000E-01      1.360498000000000E+01      3.653107000000000E-01     -1.568594000000000E+02
4884000000.000000      6.633301000000000E-01      1.352539000000000E+01      3.618469000000000E-01     -1.572422000000000E+02
4885000000.000000      6.643982000000000E-01      1.348145000000000E+01      3.560181000000000E-01     -1.576406000000000E+02
4886000000.000000      6.660156000000000E-01      1.352686000000000E+01      3.526917000000000E-01     -1.580703000000000E+02
4887000000.000000      6.668396000000000E-01      1.338818000000000E+01      3.480072000000000E-01     -1.589844000000000E+02
4888000000.000000      6.677856000000000E-01      1.314893000000000E+01      3.458099000000000E-01     -1.592969000000000E+02
4889000000.000000      6.669922000000000E-01      1.331543000000000E+01      3.395538000000000E-01     -1.598203000000000E+02
4890000000.000000      6.690063000000000E-01      1.313818000000000E+01      3.358154000000000E-01     -1.603516000000000E+02
4891000000.000000      6.688843000000000E-01      1.314746000000000E+01      3.323975000000000E-01     -1.604687000000000E+02
4892000000.000000      6.695862000000000E-01      1.299658000000000E+01      3.279114000000000E-01     -1.607344000000000E+02
4893000000.000000      6.735840000000000E-01      1.269873000000000E+01      3.232880000000000E-01     -1.613203000000000E+02
4894000000.000000      6.724548000000000E-01      1.282910000000000E+01      3.202972000000000E-01     -1.616562000000000E+02
4895000000.000000      6.755371000000000E-01      1.267920000000000E+01      3.164368000000000E-01     -1.621484000000000E+02
4896000000.000000      6.752930000000000E-01      1.254053000000000E+01      3.124542000000000E-01     -1.623672000000000E+02
4897000000.000000      6.732483000000000E-01      1.264111000000000E+01      3.086548000000000E-01     -1.628828000000000E+02
4898000000.000000      6.772156000000000E-01      1.244043000000000E+01      3.048553000000000E-01     -1.630234000000000E+02
4899000000.000000      6.774292000000000E-01      1.241162000000000E+01      3.012695000000000E-01     -1.635156000000000E+02
4900000000.000000      6.782532000000000E-01      1.219727000000000E+01      2.977753000000000E-01     -1.638281000000000E+02
4901000000.000000      6.795959000000000E-01      1.213818000000000E+01      2.938690000000000E-01     -1.640859000000000E+02
4902000000.000000      6.808777000000000E-01      1.222607000000000E+01      2.911987000000000E-01     -1.644453000000000E+02
4903000000.000000      6.799622000000000E-01      1.202295000000000E+01      2.864380000000000E-01     -1.648047000000000E+02
4904000000.000000      6.814270000000000E-01      1.172510000000000E+01      2.823639000000000E-01     -1.651562000000000E+02
4905000000.000000      6.818237000000000E-01      1.185400000000000E+01      2.793732000000000E-01     -1.654687000000000E+02
4906000000.000000      6.824646000000000E-01      1.168652000000000E+01      2.761078000000000E-01     -1.656250000000000E+02
4907000000.000000      6.847534000000000E-01      1.163965000000000E+01      2.733307000000000E-01     -1.661641000000000E+02
4908000000.000000      6.860962000000000E-01      1.141602000000000E+01      2.694550000000000E-01     -1.664609000000000E+02
4909000000.000000      6.841125000000000E-01      1.146240000000000E+01      2.662964000000000E-01     -1.667344000000000E+02
4910000000.000000      6.853027000000000E-01      1.121289000000000E+01      2.628326000000000E-01     -1.669375000000000E+02
4911000000.000000      6.866760000000000E-01      1.110693000000000E+01      2.588196000000000E-01     -1.673047000000000E+02
4912000000.000000      6.858215000000000E-01      1.104248000000000E+01      2.551117000000000E-01     -1.675390000000000E+02
4913000000.000000      6.860657000000000E-01      1.090381000000000E+01      2.514343000000000E-01     -1.677813000000000E+02
4914000000.000000      6.877136000000000E-01      1.069629000000000E+01      2.483063000000000E-01     -1.679922000000000E+02
4915000000.000000      6.871033000000000E-01      1.083789000000000E+01      2.441559000000000E-01     -1.686172000000000E+02
4916000000.000000      6.878052000000000E-01      1.056055000000000E+01      2.412109000000000E-01     -1.686875000000000E+02
4917000000.000000      6.892700000000000E-01      1.064697000000000E+01      2.377701000000000E-01     -1.690703000000000E+02
4918000000.000000      6.897278000000000E-01      1.030078000000000E+01      2.336502000000000E-01     -1.691953000000000E+02
4919000000.000000      6.895142000000000E-01      1.038477000000000E+01      2.302399000000000E-01     -1.693438000000000E+02
4920000000.000000      6.893311000000000E-01      1.027588000000000E+01      2.264862000000000E-01     -1.697031000000000E+02
4921000000.000000      6.895447000000000E-01      1.031445000000000E+01      2.232285000000000E-01     -1.698281000000000E+02
4922000000.000000      6.935425000000000E-01      9.989258000000000E+00      2.200012000000000E-01     -1.698906000000000E+02
4923000000.000000      6.911926000000000E-01      9.998535000000000E+00      2.156067000000000E-01     -1.700859000000000E+02
4924000000.000000      6.940002000000000E-01      1.002734000000000E+01      2.117767000000000E-01     -1.703594000000000E+02
4925000000.000000      6.927795000000000E-01      9.596191000000000E+00      2.085495000000000E-01     -1.705625000000000E+02
4926000000.000000      6.943970000000000E-01      9.743164000000000E+00      2.047501000000000E-01     -1.705937000000000E+02
4927000000.000000      6.919861000000000E-01      9.580078000000000E+00      2.011261000000000E-01     -1.706563000000000E+02
4928000000.000000      6.937256000000000E-01      9.531738000000000E+00      1.975632000000000E-01     -1.709844000000000E+02
4929000000.000000      6.972961000000000E-01      9.409668000000000E+00      1.931763000000000E-01     -1.707656000000000E+02
4930000000.000000      6.953430000000000E-01      9.384766000000000E+00      1.896210000000000E-01     -1.708281000000000E+02
4931000000.000000      6.950989000000000E-01      9.306641000000000E+00      1.865768000000000E-01     -1.708672000000000E+02
4932000000.000000      6.963806000000000E-01      9.210449000000000E+00      1.819687000000000E-01     -1.707344000000000E+02
4933000000.000000      6.972046000000000E-01      9.203613000000000E+00      1.780319000000000E-01     -1.704922000000000E+02
4934000000.000000      6.980591000000000E-01      8.895996000000000E+00      1.741180000000000E-01     -1.705781000000000E+02
4935000000.000000      7.001953000000000E-01      8.986816000000000E+00      1.711197000000000E-01     -1.702031000000000E+02
4936000000.000000      6.969910000000000E-01      8.673340000000000E+00      1.673279000000000E-01     -1.701562000000000E+02
4937000000.000000      6.989136000000000E-01      8.589844000000000E+00      1.636200000000000E-01     -1.698359000000000E+02
4938000000.000000      6.975708000000000E-01      8.518066000000000E+00      1.604462000000000E-01     -1.693125000000000E+02
4939000000.000000      7.003784000000000E-01      8.367188000000000E+00      1.565094000000000E-01     -1.688984000000000E+02
4940000000.000000      6.984253000000000E-01      8.437500000000000E+00      1.528854000000000E-01     -1.689453000000000E+02
4941000000.000000      7.016296000000000E-01      8.179199000000000E+00      1.492157000000000E-01     -1.682266000000000E+02
4942000000.000000      6.986694000000000E-01      8.011719000000000E+00      1.458588000000000E-01     -1.677891000000000E+02
4943000000.000000      7.025146000000000E-01      8.312500000000000E+00      1.428223000000000E-01     -1.669765000000000E+02
4944000000.000000      6.984253000000000E-01      7.974609000000000E+00      1.398621000000000E-01     -1.664219000000000E+02
4945000000.000000      7.021484000000000E-01      7.968994000000000E+00      1.363220000000000E-01     -1.655781000000000E+02
4946000000.000000      7.013550000000000E-01      7.753418000000000E+00      1.328430000000000E-01     -1.646641000000000E+02
4947000000.000000      7.037659000000000E-01      7.684814000000000E+00      1.295929000000000E-01     -1.638594000000000E+02
4948000000.000000      7.030334000000000E-01      7.677979000000000E+00      1.273193000000000E-01     -1.627578000000000E+02
4949000000.000000      7.029114000000000E-01      7.410156000000000E+00      1.246681000000000E-01     -1.614844000000000E+02
4950000000.000000      7.055359000000000E-01      7.474609000000000E+00      1.222801000000000E-01     -1.606094000000000E+02
4951000000.000000      7.067871000000000E-01      7.276855000000000E+00      1.194954000000000E-01     -1.595312000000000E+02
4952000000.000000      7.039185000000000E-01      7.246826000000000E+00      1.172943000000000E-01     -1.582187000000000E+02
4953000000.000000      7.045288000000000E-01      7.095703000000000E+00      1.153030000000000E-01     -1.565234000000000E+02
4954000000.000000      7.066956000000000E-01      6.976318000000000E+00      1.133080000000000E-01     -1.553047000000000E+02
