! Network Analyzer HP8722D
! Hewlett-Packard
! Data name: Linha & Wilkinson
! Saver's name: Rodrigo Anjos
! Comments: Teste da utilização de aquisição
continua pelo VNA HP8722D
! Time and date: 22/5/2025 09:18
!              Frequency                     S11                                                   S21                                                   S12                                                   S22
# HZ  S  MA R 50
4800000000.000000      6.473083000000000E-01      1.037109000000000E+01      4.730835000000000E-01     -9.376953000000000E+01
4801000000.000000      6.445923000000000E-01      1.046826000000000E+01      4.772491000000000E-01     -9.439062000000000E+01
4802000000.000000      6.430969000000000E-01      1.034912000000000E+01      4.787750000000000E-01     -9.509766000000000E+01
4803000000.000000      6.401367000000000E-01      1.036670000000000E+01      4.795990000000000E-01     -9.573437000000000E+01
4804000000.000000      6.397095000000000E-01      1.043262000000000E+01      4.816589000000000E-01     -9.642578000000000E+01
4805000000.000000      6.388550000000000E-01      1.032959000000000E+01      4.838104000000000E-01     -9.742968000000000E+01
4806000000.000000      6.376648000000000E-01      1.022119000000000E+01      4.843597000000000E-01     -9.830078000000000E+01
4807000000.000000      6.338196000000000E-01      1.043408000000000E+01      4.857788000000000E-01     -9.926561000000000E+01
4808000000.000000      6.328735000000000E-01      1.049316000000000E+01      4.870605000000000E-01     -9.972265000000000E+01
4809000000.000000      6.319580000000000E-01      1.053027000000000E+01      4.881134000000000E-01     -1.005391000000000E+02
4810000000.000000      6.311951000000000E-01      1.047949000000000E+01      4.908600000000000E-01     -1.013477000000000E+02
4811000000.000000      6.292114000000000E-01      1.041602000000000E+01      4.916077000000000E-01     -1.021094000000000E+02
4812000000.000000      6.288147000000000E-01      1.063721000000000E+01      4.909973000000000E-01     -1.029062000000000E+02
4813000000.000000      6.263123000000000E-01      1.057666000000000E+01      4.945068000000000E-01     -1.035352000000000E+02
4814000000.000000      6.264954000000000E-01      1.076367000000000E+01      4.953003000000000E-01     -1.042031000000000E+02
4815000000.000000      6.242981000000000E-01      1.079541000000000E+01      4.945068000000000E-01     -1.049219000000000E+02
4816000000.000000      6.227722000000000E-01      1.086230000000000E+01      4.956970000000000E-01     -1.057695000000000E+02
4817000000.000000      6.218262000000000E-01      1.092432000000000E+01      4.966736000000000E-01     -1.065859000000000E+02
4818000000.000000      6.216736000000000E-01      1.091064000000000E+01      4.977570000000000E-01     -1.073359000000000E+02
4819000000.000000      6.205444000000000E-01      1.102197000000000E+01      4.956512000000000E-01     -1.081680000000000E+02
4820000000.000000      6.169739000000000E-01      1.118506000000000E+01      4.985809000000000E-01     -1.089101000000000E+02
4821000000.000000      6.182861000000000E-01      1.122803000000000E+01      4.995422000000000E-01     -1.096641000000000E+02
4822000000.000000      6.163330000000000E-01      1.130859000000000E+01      4.971771000000000E-01     -1.103594000000000E+02
4823000000.000000      6.159058000000000E-01      1.148877000000000E+01      5.000916000000000E-01     -1.110898000000000E+02
4824000000.000000      6.148682000000000E-01      1.164941000000000E+01      4.980469000000000E-01     -1.117891000000000E+02
4825000000.000000      6.145630000000000E-01      1.159863000000000E+01      4.995117000000000E-01     -1.125664000000000E+02
4826000000.000000      6.142883000000000E-01      1.175635000000000E+01      4.997406000000000E-01     -1.133750000000000E+02
4827000000.000000      6.127625000000000E-01      1.190332000000000E+01      4.984131000000000E-01     -1.140469000000000E+02
4828000000.000000      6.146240000000000E-01      1.187891000000000E+01      4.993286000000000E-01     -1.149844000000000E+02
4829000000.000000      6.132813000000000E-01      1.226758000000000E+01      5.002136000000000E-01     -1.154570000000000E+02
4830000000.000000      6.114197000000000E-01      1.217969000000000E+01      4.999390000000000E-01     -1.163242000000000E+02
4831000000.000000      6.107178000000000E-01      1.221533000000000E+01      4.998779000000000E-01     -1.172890000000000E+02
4832000000.000000      6.092224000000000E-01      1.252002000000000E+01      4.990997000000000E-01     -1.177851000000000E+02
4833000000.000000      6.109619000000000E-01      1.235791000000000E+01      5.003357000000000E-01     -1.185859000000000E+02
4834000000.000000      6.120911000000000E-01      1.256836000000000E+01      4.997101000000000E-01     -1.194922000000000E+02
4835000000.000000      6.136169000000000E-01      1.266846000000000E+01      4.999390000000000E-01     -1.202422000000000E+02
4836000000.000000      6.120605000000000E-01      1.292920000000000E+01      4.982452000000000E-01     -1.209258000000000E+02
4837000000.000000      6.112366000000000E-01      1.306104000000000E+01      4.977417000000000E-01     -1.217500000000000E+02
4838000000.000000      6.110840000000000E-01      1.304736000000000E+01      4.988403000000000E-01     -1.225156000000000E+02
4839000000.000000      6.149292000000000E-01      1.326318000000000E+01      4.972839000000000E-01     -1.234727000000000E+02
4840000000.000000      6.135254000000000E-01      1.328076000000000E+01      4.973145000000000E-01     -1.240195000000000E+02
4841000000.000000      6.140442000000000E-01      1.353516000000000E+01      4.969635000000000E-01     -1.251015000000000E+02
4842000000.000000      6.145325000000000E-01      1.334668000000000E+01      4.953156000000000E-01     -1.257773000000000E+02
4843000000.000000      6.172485000000000E-01      1.351025000000000E+01      4.961395000000000E-01     -1.266133000000000E+02
4844000000.000000      6.154785000000000E-01      1.365967000000000E+01      4.932404000000000E-01     -1.274414000000000E+02
4845000000.000000      6.167297000000000E-01      1.375342000000000E+01      4.926605000000000E-01     -1.281563000000000E+02
4846000000.000000      6.187744000000000E-01      1.380957000000000E+01      4.921875000000000E-01     -1.291250000000000E+02
4847000000.000000      6.189880000000000E-01      1.396191000000000E+01      4.912109000000000E-01     -1.296797000000000E+02
4848000000.000000      6.199036000000000E-01      1.389453000000000E+01      4.886169000000000E-01     -1.306875000000000E+02
4849000000.000000      6.203003000000000E-01      1.410889000000000E+01      4.873047000000000E-01     -1.315781000000000E+02
4850000000.000000      6.192017000000000E-01      1.414307000000000E+01      4.836578000000000E-01     -1.324297000000000E+02
4851000000.000000      6.221619000000000E-01      1.417773000000000E+01      4.835968000000000E-01     -1.331875000000000E+02
4852000000.000000      6.230469000000000E-01      1.423828000000000E+01      4.814148000000000E-01     -1.340234000000000E+02
4853000000.000000      6.232605000000000E-01      1.424219000000000E+01      4.782104000000000E-01     -1.349062000000000E+02
4854000000.000000      6.264038000000000E-01      1.418701000000000E+01      4.759827000000000E-01     -1.357656000000000E+02
4855000000.000000      6.256409000000000E-01      1.429688000000000E+01      4.744873000000000E-01     -1.365625000000000E+02
4856000000.000000      6.270447000000000E-01      1.437012000000000E+01      4.710999000000000E-01     -1.376016000000000E+02
4857000000.000000      6.287537000000000E-01      1.449072000000000E+01      4.692688000000000E-01     -1.382578000000000E+02
4858000000.000000      6.292725000000000E-01      1.429004000000000E+01      4.654236000000000E-01     -1.391875000000000E+02
4859000000.000000      6.328125000000000E-01      1.420801000000000E+01      4.630737000000000E-01     -1.400312000000000E+02
4860000000.000000      6.309814000000000E-01      1.435596000000000E+01      4.596558000000000E-01     -1.407812000000000E+02
4861000000.000000      6.334839000000000E-01      1.447998000000000E+01      4.565125000000000E-01     -1.417656000000000E+02
4862000000.000000      6.325378000000000E-01      1.437939000000000E+01      4.544067000000000E-01     -1.423906000000000E+02
4863000000.000000      6.344299000000000E-01      1.446484000000000E+01      4.496002000000000E-01     -1.433828000000000E+02
4864000000.000000      6.373291000000000E-01      1.435498000000000E+01      4.467316000000000E-01     -1.441562000000000E+02
4865000000.000000      6.370850000000000E-01      1.455811000000000E+01      4.433289000000000E-01     -1.448437000000000E+02
4866000000.000000      6.412048000000000E-01      1.435596000000000E+01      4.384155000000000E-01     -1.456094000000000E+02
4867000000.000000      6.383057000000000E-01      1.438623000000000E+01      4.351196000000000E-01     -1.464531000000000E+02
4868000000.000000      6.422729000000000E-01      1.427246000000000E+01      4.309082000000000E-01     -1.471406000000000E+02
4869000000.000000      6.452026000000000E-01      1.443311000000000E+01      4.272919000000000E-01     -1.479219000000000E+02
4870000000.000000      6.457214000000000E-01      1.434521000000000E+01      4.230042000000000E-01     -1.484609000000000E+02
4871000000.000000      6.452942000000000E-01      1.428906000000000E+01      4.181519000000000E-01     -1.495078000000000E+02
4872000000.000000      6.493530000000000E-01      1.421338000000000E+01      4.140320000000000E-01     -1.499687000000000E+02
4873000000.000000      6.467590000000000E-01      1.421045000000000E+01      4.100189000000000E-01     -1.511016000000000E+02
4874000000.000000      6.494141000000000E-01      1.423096000000000E+01      4.058533000000000E-01     -1.515938000000000E+02
4875000000.000000      6.518860000000000E-01      1.418311000000000E+01      4.015198000000000E-01     -1.521875000000000E+02
4876000000.000000      6.524048000000000E-01      1.427637000000000E+01      3.974762000000000E-01     -1.528359000000000E+02
4877000000.000000      6.544495000000000E-01      1.395508000000000E+01      3.910675000000000E-01     -1.535000000000000E+02
4878000000.000000      6.520996000000000E-01      1.407031000000000E+01      3.887482000000000E-01     -1.541094000000000E+02
4879000000.000000      6.562805000000000E-01      1.409668000000000E+01      3.828888000000000E-01     -1.545625000000000E+02
4880000000.000000      6.583862000000000E-01      1.389746000000000E+01      3.799133000000000E-01     -1.552500000000000E+02
4881000000.000000      6.578064000000000E-01      1.372314000000000E+01      3.741150000000000E-01     -1.555938000000000E+02
4882000000.000000      6.611938000000000E-01      1.377100000000000E+01      3.711395000000000E-01     -1.563125000000000E+02
4883000000.000000      6.602173000000000E-01      1.350049000000000E+01      3.652344000000000E-01     -1.568125000000000E+02
4884000000.000000      6.625061000000000E-01      1.370801000000000E+01      3.602753000000000E-01     -1.572734000000000E+02
4885000000.000000      6.659546000000000E-01      1.365723000000000E+01      3.568726000000000E-01     -1.575781000000000E+02
4886000000.000000      6.630859000000000E-01      1.364209000000000E+01      3.525848000000000E-01     -1.582734000000000E+02
4887000000.000000      6.658020000000000E-01      1.366406000000000E+01      3.479462000000000E-01     -1.586484000000000E+02
4888000000.000000      6.672668000000000E-01      1.347168000000000E+01      3.440857000000000E-01     -1.592031000000000E+02
4889000000.000000      6.664734000000000E-01      1.345801000000000E+01      3.397522000000000E-01     -1.595781000000000E+02
4890000000.000000      6.657410000000000E-01      1.319287000000000E+01      3.357086000000000E-01     -1.603437000000000E+02
4891000000.000000      6.714478000000000E-01      1.303516000000000E+01      3.307343000000000E-01     -1.604375000000000E+02
4892000000.000000      6.694336000000000E-01      1.316162000000000E+01      3.269196000000000E-01     -1.606328000000000E+02
4893000000.000000      6.721191000000000E-01      1.301172000000000E+01      3.236237000000000E-01     -1.614141000000000E+02
4894000000.000000      6.718140000000000E-01      1.299365000000000E+01      3.192139000000000E-01     -1.619141000000000E+02
4895000000.000000      6.748352000000000E-01      1.275635000000000E+01      3.168335000000000E-01     -1.621328000000000E+02
4896000000.000000      6.748047000000000E-01      1.277539000000000E+01      3.117523000000000E-01     -1.624297000000000E+02
4897000000.000000      6.767883000000000E-01      1.276855000000000E+01      3.081665000000000E-01     -1.627969000000000E+02
4898000000.000000      6.752625000000000E-01      1.256543000000000E+01      3.054199000000000E-01     -1.631250000000000E+02
4899000000.000000      6.783447000000000E-01      1.249805000000000E+01      3.012543000000000E-01     -1.635313000000000E+02
4900000000.000000      6.795349000000000E-01      1.237451000000000E+01      2.976990000000000E-01     -1.638828000000000E+02
4901000000.000000      6.799316000000000E-01      1.221924000000000E+01      2.944336000000000E-01     -1.641016000000000E+02
4902000000.000000      6.789246000000000E-01      1.210547000000000E+01      2.902374000000000E-01     -1.643047000000000E+02
4903000000.000000      6.794434000000000E-01      1.206982000000000E+01      2.865906000000000E-01     -1.648047000000000E+02
4904000000.000000      6.807556000000000E-01      1.180469000000000E+01      2.831573000000000E-01     -1.651250000000000E+02
4905000000.000000      6.815491000000000E-01      1.183057000000000E+01      2.795105000000000E-01     -1.654844000000000E+02
4906000000.000000      6.814270000000000E-01      1.165234000000000E+01      2.758636000000000E-01     -1.655156000000000E+02
4907000000.000000      6.831970000000000E-01      1.164941000000000E+01      2.734222000000000E-01     -1.661328000000000E+02
4908000000.000000      6.849670000000000E-01      1.145557000000000E+01      2.694092000000000E-01     -1.664063000000000E+02
4909000000.000000      6.846924000000000E-01      1.156689000000000E+01      2.656555000000000E-01     -1.666641000000000E+02
4910000000.000000      6.840820000000000E-01      1.134717000000000E+01      2.620697000000000E-01     -1.669062000000000E+02
4911000000.000000      6.860046000000000E-01      1.123486000000000E+01      2.589569000000000E-01     -1.672422000000000E+02
4912000000.000000      6.837463000000000E-01      1.120996000000000E+01      2.555695000000000E-01     -1.677578000000000E+02
4913000000.000000      6.874390000000000E-01      1.092578000000000E+01      2.519379000000000E-01     -1.678281000000000E+02
4914000000.000000      6.879272000000000E-01      1.084863000000000E+01      2.486649000000000E-01     -1.679766000000000E+02
4915000000.000000      6.879272000000000E-01      1.078564000000000E+01      2.444611000000000E-01     -1.684766000000000E+02
4916000000.000000      6.874084000000000E-01      1.073633000000000E+01      2.410965000000000E-01     -1.688125000000000E+02
4917000000.000000      6.890564000000000E-01      1.056738000000000E+01      2.374039000000000E-01     -1.689219000000000E+02
4918000000.000000      6.908569000000000E-01      1.047266000000000E+01      2.333755000000000E-01     -1.691172000000000E+02
4919000000.000000      6.896362000000000E-01      1.045996000000000E+01      2.301407000000000E-01     -1.691250000000000E+02
4920000000.000000      6.906433000000000E-01      1.028711000000000E+01      2.260056000000000E-01     -1.697266000000000E+02
4921000000.000000      6.892090000000000E-01      1.020313000000000E+01      2.236557000000000E-01     -1.697734000000000E+02
4922000000.000000      6.926270000000000E-01      1.013721000000000E+01      2.188034000000000E-01     -1.698984000000000E+02
4923000000.000000      6.930237000000000E-01      1.016895000000000E+01      2.154388000000000E-01     -1.700625000000000E+02
4924000000.000000      6.921692000000000E-01      9.935547000000000E+00      2.117462000000000E-01     -1.703203000000000E+02
4925000000.000000      6.927490000000000E-01      9.901367000000000E+00      2.082901000000000E-01     -1.703594000000000E+02
4926000000.000000      6.929016000000000E-01      9.843750000000000E+00      2.045975000000000E-01     -1.705234000000000E+02
4927000000.000000      6.916504000000000E-01      9.763672000000000E+00      2.002945000000000E-01     -1.706484000000000E+02
4928000000.000000      6.950989000000000E-01      9.534668000000000E+00      1.969681000000000E-01     -1.706953000000000E+02
4929000000.000000      6.940002000000000E-01      9.475586000000000E+00      1.926804000000000E-01     -1.706797000000000E+02
4930000000.000000      6.949463000000000E-01      9.281738000000000E+00      1.892929000000000E-01     -1.709453000000000E+02
4931000000.000000      6.950073000000000E-01      9.313477000000000E+00      1.862106000000000E-01     -1.707813000000000E+02
4932000000.000000      6.950073000000000E-01      9.181641000000000E+00      1.820221000000000E-01     -1.707031000000000E+02
4933000000.000000      6.979980000000000E-01      9.105957000000000E+00      1.775894000000000E-01     -1.704453000000000E+02
4934000000.000000      6.990662000000000E-01      8.919434000000000E+00      1.747360000000000E-01     -1.705391000000000E+02
4935000000.000000      6.970215000000000E-01      8.938477000000000E+00      1.716614000000000E-01     -1.701562000000000E+02
4936000000.000000      6.961060000000000E-01      8.643066000000000E+00      1.671600000000000E-01     -1.700000000000000E+02
4937000000.000000      6.975098000000000E-01      8.695313000000000E+00      1.630630000000000E-01     -1.697344000000000E+02
4938000000.000000      6.967773000000000E-01      8.611816000000000E+00      1.599884000000000E-01     -1.694219000000000E+02
4939000000.000000      7.000427000000000E-01      8.615723000000000E+00      1.565857000000000E-01     -1.690156000000000E+02
4940000000.000000      7.000427000000000E-01      8.387695000000000E+00      1.526718000000000E-01     -1.687734000000000E+02
4941000000.000000      6.992188000000000E-01      8.343750000000000E+00      1.496506000000000E-01     -1.680547000000000E+02
4942000000.000000      7.002869000000000E-01      8.298340000000000E+00      1.461105000000000E-01     -1.676016000000000E+02
4943000000.000000      7.022095000000000E-01      8.229980000000000E+00      1.427765000000000E-01     -1.669688000000000E+02
4944000000.000000      7.019043000000000E-01      8.022461000000000E+00      1.395721000000000E-01     -1.661406000000000E+02
4945000000.000000      7.001343000000000E-01      7.952637000000000E+00      1.361923000000000E-01     -1.656953000000000E+02
4946000000.000000      7.029114000000000E-01      7.822266000000000E+00      1.328735000000000E-01     -1.647422000000000E+02
4947000000.000000      7.020569000000000E-01      7.750732000000000E+00      1.303024000000000E-01     -1.640078000000000E+02
4948000000.000000      7.037048000000000E-01      7.620361000000000E+00      1.268463000000000E-01     -1.628047000000000E+02
4949000000.000000      7.040100000000000E-01      7.669678000000000E+00      1.247330000000000E-01     -1.613984000000000E+02
4950000000.000000      7.033691000000000E-01      7.525635000000000E+00      1.218643000000000E-01     -1.602578000000000E+02
4951000000.000000      7.058105000000000E-01      7.334717000000000E+00      1.194992000000000E-01     -1.595078000000000E+02
4952000000.000000      7.064514000000000E-01      7.130127000000000E+00      1.172371000000000E-01     -1.579922000000000E+02
4953000000.000000      7.045288000000000E-01      7.095703000000000E+00      1.153145000000000E-01     -1.566484000000000E+02
4954000000.000000      7.047119000000000E-01      7.156006000000000E+00      1.132736000000000E-01     -1.552031000000000E+02
