! Network Analyzer HP8722D
! Hewlett-Packard
! Data name: Linha & Wilkinson
! Saver's name: Rodrigo Anjos
! Comments: Teste da utilização de aquisição
continua pelo VNA HP8722D
! Time and date: 22/5/2025 15:20
!              Frequency                     S11                                                   S21                                                   S12                                                   S22
# HZ  S  MA R 50
4800000000.000000      6.532288000000000E-01      1.097900000000000E+01      4.714508000000000E-01     -9.215235000000000E+01
4801000000.000000      6.511230000000000E-01      1.110303000000000E+01      4.731293000000000E-01     -9.267969000000000E+01
4802000000.000000      6.490173000000000E-01      1.103418000000000E+01      4.742737000000000E-01     -9.371094000000000E+01
4803000000.000000      6.463318000000000E-01      1.077881000000000E+01      4.782410000000000E-01     -9.426952000000000E+01
4804000000.000000      6.463013000000000E-01      1.103271000000000E+01      4.769592000000000E-01     -9.517187000000000E+01
4805000000.000000      6.448059000000000E-01      1.093799000000000E+01      4.795227000000000E-01     -9.579687000000000E+01
4806000000.000000      6.422119000000000E-01      1.087354000000000E+01      4.831390000000000E-01     -9.659374000000000E+01
4807000000.000000      6.401672000000000E-01      1.085303000000000E+01      4.819336000000000E-01     -9.747656000000000E+01
4808000000.000000      6.358032000000000E-01      1.091064000000000E+01      4.850159000000000E-01     -9.814842000000000E+01
4809000000.000000      6.364136000000000E-01      1.100391000000000E+01      4.857788000000000E-01     -9.890234000000000E+01
4810000000.000000      6.339417000000000E-01      1.086523000000000E+01      4.876709000000000E-01     -9.954296000000000E+01
4811000000.000000      6.338806000000000E-01      1.102295000000000E+01      4.891815000000000E-01     -1.005859000000000E+02
4812000000.000000      6.336975000000000E-01      1.125000000000000E+01      4.895935000000000E-01     -1.011211000000000E+02
4813000000.000000      6.314697000000000E-01      1.120703000000000E+01      4.903259000000000E-01     -1.020351000000000E+02
4814000000.000000      6.278076000000000E-01      1.104102000000000E+01      4.937134000000000E-01     -1.027695000000000E+02
4815000000.000000      6.278992000000000E-01      1.122656000000000E+01      4.924011000000000E-01     -1.033398000000000E+02
4816000000.000000      6.263733000000000E-01      1.126465000000000E+01      4.942017000000000E-01     -1.042500000000000E+02
4817000000.000000      6.260071000000000E-01      1.141455000000000E+01      4.943542000000000E-01     -1.049336000000000E+02
4818000000.000000      6.254272000000000E-01      1.154492000000000E+01      4.936218000000000E-01     -1.056445000000000E+02
4819000000.000000      6.235352000000000E-01      1.152979000000000E+01      4.946289000000000E-01     -1.064609000000000E+02
4820000000.000000      6.225586000000000E-01      1.167969000000000E+01      4.970093000000000E-01     -1.071289000000000E+02
4821000000.000000      6.224060000000000E-01      1.167139000000000E+01      4.970093000000000E-01     -1.079922000000000E+02
4822000000.000000      6.203308000000000E-01      1.170410000000000E+01      4.951172000000000E-01     -1.085664000000000E+02
4823000000.000000      6.192017000000000E-01      1.184424000000000E+01      4.981384000000000E-01     -1.095195000000000E+02
4824000000.000000      6.174316000000000E-01      1.211914000000000E+01      4.971161000000000E-01     -1.102305000000000E+02
4825000000.000000      6.172180000000000E-01      1.214111000000000E+01      4.991760000000000E-01     -1.110195000000000E+02
4826000000.000000      6.166687000000000E-01      1.202686000000000E+01      5.001221000000000E-01     -1.118516000000000E+02
4827000000.000000      6.170044000000000E-01      1.217676000000000E+01      4.988403000000000E-01     -1.122344000000000E+02
4828000000.000000      6.155701000000000E-01      1.243213000000000E+01      4.993591000000000E-01     -1.131719000000000E+02
4829000000.000000      6.148376000000000E-01      1.268604000000000E+01      5.002747000000000E-01     -1.140234000000000E+02
4830000000.000000      6.152039000000000E-01      1.259961000000000E+01      4.988708000000000E-01     -1.146953000000000E+02
4831000000.000000      6.141663000000000E-01      1.271094000000000E+01      4.983215000000000E-01     -1.156562000000000E+02
4832000000.000000      6.149597000000000E-01      1.270703000000000E+01      4.989014000000000E-01     -1.160156000000000E+02
4833000000.000000      6.118774000000000E-01      1.295654000000000E+01      5.000610000000000E-01     -1.169375000000000E+02
4834000000.000000      6.136169000000000E-01      1.293066000000000E+01      5.000000000000000E-01     -1.176797000000000E+02
4835000000.000000      6.149292000000000E-01      1.310254000000000E+01      4.998779000000000E-01     -1.187148000000000E+02
4836000000.000000      6.152954000000000E-01      1.337158000000000E+01      4.982147000000000E-01     -1.192070000000000E+02
4837000000.000000      6.131592000000000E-01      1.347314000000000E+01      4.972992000000000E-01     -1.201641000000000E+02
4838000000.000000      6.146545000000000E-01      1.341113000000000E+01      4.984436000000000E-01     -1.206211000000000E+02
4839000000.000000      6.169434000000000E-01      1.363916000000000E+01      4.983673000000000E-01     -1.216367000000000E+02
4840000000.000000      6.157837000000000E-01      1.347705000000000E+01      4.972534000000000E-01     -1.224414000000000E+02
4841000000.000000      6.153870000000000E-01      1.390723000000000E+01      4.981232000000000E-01     -1.231445000000000E+02
4842000000.000000      6.158752000000000E-01      1.386865000000000E+01      4.964294000000000E-01     -1.240195000000000E+02
4843000000.000000      6.186523000000000E-01      1.404834000000000E+01      4.976807000000000E-01     -1.249726000000000E+02
4844000000.000000      6.172485000000000E-01      1.391406000000000E+01      4.944763000000000E-01     -1.256445000000000E+02
4845000000.000000      6.174927000000000E-01      1.428223000000000E+01      4.937592000000000E-01     -1.264453000000000E+02
4846000000.000000      6.195679000000000E-01      1.424756000000000E+01      4.937592000000000E-01     -1.272930000000000E+02
4847000000.000000      6.188965000000000E-01      1.441504000000000E+01      4.927979000000000E-01     -1.281250000000000E+02
4848000000.000000      6.191406000000000E-01      1.451660000000000E+01      4.884491000000000E-01     -1.289375000000000E+02
4849000000.000000      6.221313000000000E-01      1.449463000000000E+01      4.890137000000000E-01     -1.298203000000000E+02
4850000000.000000      6.224365000000000E-01      1.455957000000000E+01      4.862976000000000E-01     -1.306797000000000E+02
4851000000.000000      6.231079000000000E-01      1.466260000000000E+01      4.871674000000000E-01     -1.315938000000000E+02
4852000000.000000      6.229858000000000E-01      1.468994000000000E+01      4.845734000000000E-01     -1.322656000000000E+02
4853000000.000000      6.253052000000000E-01      1.463623000000000E+01      4.812164000000000E-01     -1.332344000000000E+02
4854000000.000000      6.252441000000000E-01      1.490283000000000E+01      4.805756000000000E-01     -1.341172000000000E+02
4855000000.000000      6.257935000000000E-01      1.502637000000000E+01      4.783173000000000E-01     -1.350703000000000E+02
4856000000.000000      6.270142000000000E-01      1.482715000000000E+01      4.757538000000000E-01     -1.358359000000000E+02
4857000000.000000      6.301270000000000E-01      1.508691000000000E+01      4.736633000000000E-01     -1.366406000000000E+02
4858000000.000000      6.304932000000000E-01      1.485059000000000E+01      4.705811000000000E-01     -1.374609000000000E+02
4859000000.000000      6.297302000000000E-01      1.490967000000000E+01      4.675446000000000E-01     -1.384219000000000E+02
4860000000.000000      6.325378000000000E-01      1.514307000000000E+01      4.650269000000000E-01     -1.392031000000000E+02
4861000000.000000      6.335449000000000E-01      1.516797000000000E+01      4.613647000000000E-01     -1.401953000000000E+02
4862000000.000000      6.336670000000000E-01      1.501660000000000E+01      4.592743000000000E-01     -1.408516000000000E+02
4863000000.000000      6.371155000000000E-01      1.519678000000000E+01      4.537354000000000E-01     -1.419219000000000E+02
4864000000.000000      6.375427000000000E-01      1.505664000000000E+01      4.517212000000000E-01     -1.425781000000000E+02
4865000000.000000      6.377869000000000E-01      1.498779000000000E+01      4.478912000000000E-01     -1.432109000000000E+02
4866000000.000000      6.393738000000000E-01      1.504004000000000E+01      4.437256000000000E-01     -1.443281000000000E+02
4867000000.000000      6.394043000000000E-01      1.506738000000000E+01      4.403076000000000E-01     -1.451719000000000E+02
4868000000.000000      6.414490000000000E-01      1.507715000000000E+01      4.359589000000000E-01     -1.458281000000000E+02
4869000000.000000      6.423340000000000E-01      1.510742000000000E+01      4.329071000000000E-01     -1.465156000000000E+02
4870000000.000000      6.440430000000000E-01      1.509912000000000E+01      4.284515000000000E-01     -1.472265000000000E+02
4871000000.000000      6.447754000000000E-01      1.502344000000000E+01      4.237213000000000E-01     -1.480313000000000E+02
4872000000.000000      6.481628000000000E-01      1.498242000000000E+01      4.193268000000000E-01     -1.485859000000000E+02
4873000000.000000      6.476440000000000E-01      1.504980000000000E+01      4.159698000000000E-01     -1.495937000000000E+02
4874000000.000000      6.484680000000000E-01      1.489600000000000E+01      4.112701000000000E-01     -1.501172000000000E+02
4875000000.000000      6.496887000000000E-01      1.475586000000000E+01      4.058990000000000E-01     -1.508672000000000E+02
4876000000.000000      6.512451000000000E-01      1.496875000000000E+01      4.039764000000000E-01     -1.515000000000000E+02
4877000000.000000      6.545715000000000E-01      1.463916000000000E+01      3.979492000000000E-01     -1.521484000000000E+02
4878000000.000000      6.513367000000000E-01      1.466797000000000E+01      3.938751000000000E-01     -1.529297000000000E+02
4879000000.000000      6.542358000000000E-01      1.469531000000000E+01      3.896484000000000E-01     -1.532969000000000E+02
4880000000.000000      6.563416000000000E-01      1.456494000000000E+01      3.844757000000000E-01     -1.539453000000000E+02
4881000000.000000      6.566467000000000E-01      1.457471000000000E+01      3.808289000000000E-01     -1.544141000000000E+02
4882000000.000000      6.607666000000000E-01      1.448242000000000E+01      3.776245000000000E-01     -1.550703000000000E+02
4883000000.000000      6.595154000000000E-01      1.429688000000000E+01      3.720093000000000E-01     -1.557578000000000E+02
4884000000.000000      6.613770000000000E-01      1.459912000000000E+01      3.675690000000000E-01     -1.563594000000000E+02
4885000000.000000      6.622314000000000E-01      1.433008000000000E+01      3.629456000000000E-01     -1.565000000000000E+02
4886000000.000000      6.632690000000000E-01      1.430957000000000E+01      3.595276000000000E-01     -1.569219000000000E+02
4887000000.000000      6.659851000000000E-01      1.431104000000000E+01      3.547516000000000E-01     -1.575859000000000E+02
4888000000.000000      6.670532000000000E-01      1.401270000000000E+01      3.505554000000000E-01     -1.583672000000000E+02
4889000000.000000      6.666565000000000E-01      1.410889000000000E+01      3.466339000000000E-01     -1.585625000000000E+02
4890000000.000000      6.692505000000000E-01      1.396875000000000E+01      3.396301000000000E-01     -1.592891000000000E+02
4891000000.000000      6.697388000000000E-01      1.367480000000000E+01      3.385925000000000E-01     -1.595391000000000E+02
4892000000.000000      6.687927000000000E-01      1.373828000000000E+01      3.340302000000000E-01     -1.598203000000000E+02
4893000000.000000      6.718750000000000E-01      1.368457000000000E+01      3.293304000000000E-01     -1.604844000000000E+02
4894000000.000000      6.729126000000000E-01      1.365576000000000E+01      3.255157000000000E-01     -1.607188000000000E+02
4895000000.000000      6.751709000000000E-01      1.349902000000000E+01      3.221130000000000E-01     -1.613203000000000E+02
4896000000.000000      6.746826000000000E-01      1.338818000000000E+01      3.187714000000000E-01     -1.614219000000000E+02
4897000000.000000      6.741638000000000E-01      1.336865000000000E+01      3.143005000000000E-01     -1.618750000000000E+02
4898000000.000000      6.751099000000000E-01      1.351416000000000E+01      3.111115000000000E-01     -1.623125000000000E+02
4899000000.000000      6.777344000000000E-01      1.336035000000000E+01      3.070221000000000E-01     -1.626562000000000E+02
4900000000.000000      6.781006000000000E-01      1.304590000000000E+01      3.030548000000000E-01     -1.630312000000000E+02
4901000000.000000      6.790161000000000E-01      1.295264000000000E+01      2.996216000000000E-01     -1.634687000000000E+02
4902000000.000000      6.794434000000000E-01      1.282910000000000E+01      2.958679000000000E-01     -1.635781000000000E+02
4903000000.000000      6.801758000000000E-01      1.295654000000000E+01      2.912903000000000E-01     -1.640156000000000E+02
4904000000.000000      6.821899000000000E-01      1.262451000000000E+01      2.879181000000000E-01     -1.644531000000000E+02
4905000000.000000      6.840820000000000E-01      1.271387000000000E+01      2.846985000000000E-01     -1.646953000000000E+02
4906000000.000000      6.845093000000000E-01      1.247607000000000E+01      2.815704000000000E-01     -1.648672000000000E+02
4907000000.000000      6.827393000000000E-01      1.229736000000000E+01      2.788544000000000E-01     -1.653828000000000E+02
4908000000.000000      6.864319000000000E-01      1.220557000000000E+01      2.752991000000000E-01     -1.658125000000000E+02
4909000000.000000      6.831970000000000E-01      1.223877000000000E+01      2.703400000000000E-01     -1.660391000000000E+02
4910000000.000000      6.853943000000000E-01      1.207666000000000E+01      2.671814000000000E-01     -1.662031000000000E+02
4911000000.000000      6.849060000000000E-01      1.207227000000000E+01      2.648468000000000E-01     -1.665781000000000E+02
4912000000.000000      6.862488000000000E-01      1.199268000000000E+01      2.611237000000000E-01     -1.670938000000000E+02
4913000000.000000      6.862793000000000E-01      1.181543000000000E+01      2.571716000000000E-01     -1.672422000000000E+02
4914000000.000000      6.884155000000000E-01      1.154248000000000E+01      2.533417000000000E-01     -1.675547000000000E+02
4915000000.000000      6.873169000000000E-01      1.160693000000000E+01      2.502747000000000E-01     -1.678125000000000E+02
4916000000.000000      6.883240000000000E-01      1.136377000000000E+01      2.463379000000000E-01     -1.681562000000000E+02
4917000000.000000      6.890259000000000E-01      1.126367000000000E+01      2.428360000000000E-01     -1.684844000000000E+02
4918000000.000000      6.904602000000000E-01      1.135010000000000E+01      2.386627000000000E-01     -1.688125000000000E+02
4919000000.000000      6.910095000000000E-01      1.119092000000000E+01      2.357483000000000E-01     -1.687656000000000E+02
4920000000.000000      6.909180000000000E-01      1.098340000000000E+01      2.313919000000000E-01     -1.693203000000000E+02
4921000000.000000      6.917114000000000E-01      1.108887000000000E+01      2.289276000000000E-01     -1.695000000000000E+02
4922000000.000000      6.914063000000000E-01      1.084863000000000E+01      2.239990000000000E-01     -1.694766000000000E+02
4923000000.000000      6.938171000000000E-01      1.102441000000000E+01      2.206039000000000E-01     -1.697734000000000E+02
4924000000.000000      6.918030000000000E-01      1.069629000000000E+01      2.169495000000000E-01     -1.700938000000000E+02
4925000000.000000      6.922913000000000E-01      1.050146000000000E+01      2.136002000000000E-01     -1.701719000000000E+02
4926000000.000000      6.939392000000000E-01      1.052051000000000E+01      2.099304000000000E-01     -1.705469000000000E+02
4927000000.000000      6.961365000000000E-01      1.034912000000000E+01      2.058258000000000E-01     -1.707656000000000E+02
4928000000.000000      6.964417000000000E-01      1.022412000000000E+01      2.020798000000000E-01     -1.706875000000000E+02
4929000000.000000      6.957703000000000E-01      1.005225000000000E+01      1.981812000000000E-01     -1.706406000000000E+02
4930000000.000000      6.970215000000000E-01      1.003418000000000E+01      1.945190000000000E-01     -1.708125000000000E+02
4931000000.000000      6.953430000000000E-01      1.006885000000000E+01      1.912308000000000E-01     -1.707266000000000E+02
4932000000.000000      6.962585000000000E-01      9.818848000000000E+00      1.870880000000000E-01     -1.708281000000000E+02
4933000000.000000      6.972046000000000E-01      9.674805000000000E+00      1.822510000000000E-01     -1.707813000000000E+02
4934000000.000000      6.979065000000000E-01      9.558105000000000E+00      1.790695000000000E-01     -1.709141000000000E+02
4935000000.000000      6.974182000000000E-01      9.578613000000000E+00      1.763153000000000E-01     -1.705391000000000E+02
4936000000.000000      6.982422000000000E-01      9.439941000000000E+00      1.720657000000000E-01     -1.703281000000000E+02
4937000000.000000      6.988525000000000E-01      9.354492000000000E+00      1.677933000000000E-01     -1.704844000000000E+02
4938000000.000000      6.983948000000000E-01      9.438477000000000E+00      1.645966000000000E-01     -1.699922000000000E+02
4939000000.000000      6.977844000000000E-01      9.229492000000000E+00      1.615601000000000E-01     -1.696406000000000E+02
4940000000.000000      7.008972000000000E-01      9.211914000000000E+00      1.568375000000000E-01     -1.693359000000000E+02
4941000000.000000      7.012329000000000E-01      8.960449000000000E+00      1.533203000000000E-01     -1.690625000000000E+02
4942000000.000000      7.007141000000000E-01      8.967285000000000E+00      1.496735000000000E-01     -1.683984000000000E+02
4943000000.000000      7.038879000000000E-01      8.904297000000000E+00      1.462555000000000E-01     -1.679531000000000E+02
4944000000.000000      7.013245000000000E-01      8.708984000000000E+00      1.429291000000000E-01     -1.672578000000000E+02
4945000000.000000      7.048950000000000E-01      8.580078000000000E+00      1.399918000000000E-01     -1.666250000000000E+02
4946000000.000000      7.027893000000000E-01      8.661133000000000E+00      1.367111000000000E-01     -1.660859000000000E+02
4947000000.000000      7.036133000000000E-01      8.500488000000000E+00      1.328964000000000E-01     -1.651875000000000E+02
4948000000.000000      7.050476000000000E-01      8.295898000000000E+00      1.301270000000000E-01     -1.643281000000000E+02
4949000000.000000      7.023926000000000E-01      8.220215000000000E+00      1.271896000000000E-01     -1.630859000000000E+02
4950000000.000000      7.059021000000000E-01      8.218750000000000E+00      1.244392000000000E-01     -1.622656000000000E+02
4951000000.000000      7.065430000000000E-01      7.929199000000000E+00      1.217651000000000E-01     -1.611172000000000E+02
4952000000.000000      7.062988000000000E-01      7.919678000000000E+00      1.191406000000000E-01     -1.598594000000000E+02
4953000000.000000      7.062683000000000E-01      7.749268000000000E+00      1.170425000000000E-01     -1.586172000000000E+02
4954000000.000000      7.077026000000000E-01      7.661377000000000E+00      1.145325000000000E-01     -1.574922000000000E+02
