! Network Analyzer HP8722D
! Hewlett-Packard
! Data name: Linha & Wilkinson
! Saver's name: Rodrigo Anjos
! Comments: Teste da utilização de aquisição
continua pelo VNA HP8722D
! Time and date: 22/5/2025 09:19
!              Frequency                     S11                                                   S21                                                   S12                                                   S22
# HZ  S  MA R 50
4800000000.000000      6.477661000000000E-01      1.037500000000000E+01      4.744568000000000E-01     -9.391405000000000E+01
4801000000.000000      6.445007000000000E-01      1.043408000000000E+01      4.759674000000000E-01     -9.449219000000000E+01
4802000000.000000      6.427917000000000E-01      1.035303000000000E+01      4.780273000000000E-01     -9.498827000000000E+01
4803000000.000000      6.427307000000000E-01      1.034082000000000E+01      4.823914000000000E-01     -9.584764000000000E+01
4804000000.000000      6.401062000000000E-01      1.040918000000000E+01      4.818115000000000E-01     -9.652344000000000E+01
4805000000.000000      6.386719000000000E-01      1.025146000000000E+01      4.832306000000000E-01     -9.757421000000000E+01
4806000000.000000      6.363525000000000E-01      1.026123000000000E+01      4.853210000000000E-01     -9.829687000000000E+01
4807000000.000000      6.341248000000000E-01      1.021973000000000E+01      4.856415000000000E-01     -9.900000000000000E+01
4808000000.000000      6.338196000000000E-01      1.030762000000000E+01      4.867096000000000E-01     -9.963671000000000E+01
4809000000.000000      6.317749000000000E-01      1.046143000000000E+01      4.898834000000000E-01     -1.007851000000000E+02
4810000000.000000      6.298523000000000E-01      1.046143000000000E+01      4.902039000000000E-01     -1.013828000000000E+02
4811000000.000000      6.288452000000000E-01      1.053564000000000E+01      4.918671000000000E-01     -1.022617000000000E+02
4812000000.000000      6.300964000000000E-01      1.081055000000000E+01      4.925537000000000E-01     -1.027422000000000E+02
4813000000.000000      6.281738000000000E-01      1.074463000000000E+01      4.934692000000000E-01     -1.034453000000000E+02
4814000000.000000      6.257019000000000E-01      1.062354000000000E+01      4.951782000000000E-01     -1.042656000000000E+02
4815000000.000000      6.240234000000000E-01      1.081152000000000E+01      4.955292000000000E-01     -1.050625000000000E+02
4816000000.000000      6.240234000000000E-01      1.083350000000000E+01      4.968719000000000E-01     -1.058125000000000E+02
4817000000.000000      6.218262000000000E-01      1.092432000000000E+01      4.962769000000000E-01     -1.065351000000000E+02
4818000000.000000      6.216736000000000E-01      1.093262000000000E+01      4.977112000000000E-01     -1.075078000000000E+02
4819000000.000000      6.211243000000000E-01      1.103418000000000E+01      4.984741000000000E-01     -1.080781000000000E+02
4820000000.000000      6.192322000000000E-01      1.133887000000000E+01      4.969940000000000E-01     -1.088281000000000E+02
4821000000.000000      6.189270000000000E-01      1.126758000000000E+01      4.996490000000000E-01     -1.097266000000000E+02
4822000000.000000      6.161499000000000E-01      1.131299000000000E+01      4.975281000000000E-01     -1.103086000000000E+02
4823000000.000000      6.164551000000000E-01      1.131299000000000E+01      5.004578000000000E-01     -1.111016000000000E+02
4824000000.000000      6.141357000000000E-01      1.171680000000000E+01      4.991608000000000E-01     -1.118555000000000E+02
4825000000.000000      6.136780000000000E-01      1.162891000000000E+01      4.988861000000000E-01     -1.126055000000000E+02
4826000000.000000      6.140137000000000E-01      1.168115000000000E+01      5.007629000000000E-01     -1.134180000000000E+02
4827000000.000000      6.130371000000000E-01      1.185938000000000E+01      4.998779000000000E-01     -1.140625000000000E+02
4828000000.000000      6.135254000000000E-01      1.199561000000000E+01      4.995880000000000E-01     -1.149101000000000E+02
4829000000.000000      6.141052000000000E-01      1.216846000000000E+01      5.004578000000000E-01     -1.156328000000000E+02
4830000000.000000      6.134033000000000E-01      1.226758000000000E+01      4.997864000000000E-01     -1.164258000000000E+02
4831000000.000000      6.122437000000000E-01      1.220264000000000E+01      5.012207000000000E-01     -1.171836000000000E+02
4832000000.000000      6.119385000000000E-01      1.248291000000000E+01      5.008545000000000E-01     -1.177344000000000E+02
4833000000.000000      6.109009000000000E-01      1.241162000000000E+01      4.986420000000000E-01     -1.185430000000000E+02
4834000000.000000      6.109619000000000E-01      1.253662000000000E+01      4.990082000000000E-01     -1.194414000000000E+02
4835000000.000000      6.128845000000000E-01      1.277686000000000E+01      4.999390000000000E-01     -1.201015000000000E+02
4836000000.000000      6.119080000000000E-01      1.300635000000000E+01      4.988556000000000E-01     -1.209922000000000E+02
4837000000.000000      6.136169000000000E-01      1.309277000000000E+01      4.978790000000000E-01     -1.218867000000000E+02
4838000000.000000      6.118469000000000E-01      1.309277000000000E+01      4.983978000000000E-01     -1.222773000000000E+02
4839000000.000000      6.163330000000000E-01      1.337988000000000E+01      4.984131000000000E-01     -1.234453000000000E+02
4840000000.000000      6.144409000000000E-01      1.319141000000000E+01      4.969635000000000E-01     -1.239414000000000E+02
4841000000.000000      6.130066000000000E-01      1.347461000000000E+01      4.967651000000000E-01     -1.249297000000000E+02
4842000000.000000      6.159363000000000E-01      1.352246000000000E+01      4.949341000000000E-01     -1.257891000000000E+02
4843000000.000000      6.181946000000000E-01      1.331787000000000E+01      4.947815000000000E-01     -1.267070000000000E+02
4844000000.000000      6.163940000000000E-01      1.361475000000000E+01      4.927826000000000E-01     -1.274726000000000E+02
4845000000.000000      6.177673000000000E-01      1.379053000000000E+01      4.913940000000000E-01     -1.281250000000000E+02
4846000000.000000      6.188660000000000E-01      1.380127000000000E+01      4.911041000000000E-01     -1.289844000000000E+02
4847000000.000000      6.192322000000000E-01      1.401416000000000E+01      4.909973000000000E-01     -1.298359000000000E+02
4848000000.000000      6.209412000000000E-01      1.393750000000000E+01      4.858093000000000E-01     -1.305781000000000E+02
4849000000.000000      6.189575000000000E-01      1.409131000000000E+01      4.870758000000000E-01     -1.315859000000000E+02
4850000000.000000      6.206970000000000E-01      1.405811000000000E+01      4.842987000000000E-01     -1.323594000000000E+02
4851000000.000000      6.230774000000000E-01      1.428467000000000E+01      4.844208000000000E-01     -1.332187000000000E+02
4852000000.000000      6.234436000000000E-01      1.431348000000000E+01      4.810333000000000E-01     -1.341875000000000E+02
4853000000.000000      6.258545000000000E-01      1.418604000000000E+01      4.769592000000000E-01     -1.349453000000000E+02
4854000000.000000      6.242065000000000E-01      1.426709000000000E+01      4.760895000000000E-01     -1.358984000000000E+02
4855000000.000000      6.269836000000000E-01      1.443604000000000E+01      4.741669000000000E-01     -1.367266000000000E+02
4856000000.000000      6.294556000000000E-01      1.439209000000000E+01      4.711761000000000E-01     -1.375391000000000E+02
4857000000.000000      6.283875000000000E-01      1.442773000000000E+01      4.696960000000000E-01     -1.381953000000000E+02
4858000000.000000      6.289063000000000E-01      1.436719000000000E+01      4.669647000000000E-01     -1.392187000000000E+02
4859000000.000000      6.304321000000000E-01      1.436572000000000E+01      4.643097000000000E-01     -1.400312000000000E+02
4860000000.000000      6.332092000000000E-01      1.452930000000000E+01      4.593964000000000E-01     -1.407812000000000E+02
4861000000.000000      6.345520000000000E-01      1.430127000000000E+01      4.561310000000000E-01     -1.417109000000000E+02
4862000000.000000      6.333313000000000E-01      1.457568000000000E+01      4.533691000000000E-01     -1.424062000000000E+02
4863000000.000000      6.371155000000000E-01      1.444385000000000E+01      4.492798000000000E-01     -1.435391000000000E+02
4864000000.000000      6.385498000000000E-01      1.445068000000000E+01      4.463959000000000E-01     -1.441172000000000E+02
4865000000.000000      6.380920000000000E-01      1.451416000000000E+01      4.430237000000000E-01     -1.448906000000000E+02
4866000000.000000      6.393738000000000E-01      1.450586000000000E+01      4.378510000000000E-01     -1.456328000000000E+02
4867000000.000000      6.403503000000000E-01      1.451953000000000E+01      4.345703000000000E-01     -1.464453000000000E+02
4868000000.000000      6.414795000000000E-01      1.420117000000000E+01      4.304504000000000E-01     -1.473516000000000E+02
4869000000.000000      6.426697000000000E-01      1.451270000000000E+01      4.273071000000000E-01     -1.482500000000000E+02
4870000000.000000      6.439209000000000E-01      1.434229000000000E+01      4.226379000000000E-01     -1.484062000000000E+02
4871000000.000000      6.449890000000000E-01      1.422021000000000E+01      4.182587000000000E-01     -1.494609000000000E+02
4872000000.000000      6.481628000000000E-01      1.435205000000000E+01      4.138489000000000E-01     -1.500078000000000E+02
4873000000.000000      6.478882000000000E-01      1.430518000000000E+01      4.098053000000000E-01     -1.507891000000000E+02
4874000000.000000      6.485291000000000E-01      1.426807000000000E+01      4.060059000000000E-01     -1.515234000000000E+02
4875000000.000000      6.513062000000000E-01      1.412842000000000E+01      4.001465000000000E-01     -1.520391000000000E+02
4876000000.000000      6.545105000000000E-01      1.422559000000000E+01      3.981018000000000E-01     -1.527969000000000E+02
4877000000.000000      6.556091000000000E-01      1.389746000000000E+01      3.916626000000000E-01     -1.534141000000000E+02
4878000000.000000      6.552124000000000E-01      1.397998000000000E+01      3.882294000000000E-01     -1.539922000000000E+02
4879000000.000000      6.555786000000000E-01      1.406348000000000E+01      3.832855000000000E-01     -1.545703000000000E+02
4880000000.000000      6.579895000000000E-01      1.385889000000000E+01      3.796234000000000E-01     -1.550859000000000E+02
4881000000.000000      6.573792000000000E-01      1.392090000000000E+01      3.755035000000000E-01     -1.557109000000000E+02
4882000000.000000      6.598511000000000E-01      1.392334000000000E+01      3.714447000000000E-01     -1.562813000000000E+02
4883000000.000000      6.615601000000000E-01      1.360791000000000E+01      3.644257000000000E-01     -1.568906000000000E+02
4884000000.000000      6.639709000000000E-01      1.389209000000000E+01      3.611298000000000E-01     -1.574531000000000E+02
4885000000.000000      6.636047000000000E-01      1.365869000000000E+01      3.562927000000000E-01     -1.578125000000000E+02
4886000000.000000      6.650085000000000E-01      1.368311000000000E+01      3.517609000000000E-01     -1.579141000000000E+02
4887000000.000000      6.644897000000000E-01      1.350488000000000E+01      3.492279000000000E-01     -1.587265000000000E+02
4888000000.000000      6.667175000000000E-01      1.330713000000000E+01      3.451843000000000E-01     -1.592969000000000E+02
4889000000.000000      6.677856000000000E-01      1.332617000000000E+01      3.400116000000000E-01     -1.595781000000000E+02
4890000000.000000      6.661377000000000E-01      1.319727000000000E+01      3.362122000000000E-01     -1.604297000000000E+02
4891000000.000000      6.706238000000000E-01      1.316943000000000E+01      3.299866000000000E-01     -1.607500000000000E+02
4892000000.000000      6.701355000000000E-01      1.328906000000000E+01      3.278503000000000E-01     -1.607969000000000E+02
4893000000.000000      6.709290000000000E-01      1.283740000000000E+01      3.230438000000000E-01     -1.615625000000000E+02
4894000000.000000      6.734619000000000E-01      1.287598000000000E+01      3.191681000000000E-01     -1.617109000000000E+02
4895000000.000000      6.761780000000000E-01      1.284131000000000E+01      3.170319000000000E-01     -1.620234000000000E+02
4896000000.000000      6.753845000000000E-01      1.265186000000000E+01      3.126831000000000E-01     -1.624609000000000E+02
4897000000.000000      6.755066000000000E-01      1.257080000000000E+01      3.081665000000000E-01     -1.628828000000000E+02
4898000000.000000      6.765442000000000E-01      1.262598000000000E+01      3.049011000000000E-01     -1.630469000000000E+02
4899000000.000000      6.770935000000000E-01      1.230029000000000E+01      3.015747000000000E-01     -1.634922000000000E+02
4900000000.000000      6.786499000000000E-01      1.226758000000000E+01      2.978210000000000E-01     -1.637734000000000E+02
4901000000.000000      6.785583000000000E-01      1.220557000000000E+01      2.935638000000000E-01     -1.640703000000000E+02
4902000000.000000      6.809082000000000E-01      1.209863000000000E+01      2.906036000000000E-01     -1.643906000000000E+02
4903000000.000000      6.807556000000000E-01      1.225244000000000E+01      2.854462000000000E-01     -1.648438000000000E+02
4904000000.000000      6.805420000000000E-01      1.197607000000000E+01      2.826843000000000E-01     -1.652500000000000E+02
4905000000.000000      6.817322000000000E-01      1.178271000000000E+01      2.799835000000000E-01     -1.655547000000000E+02
4906000000.000000      6.813660000000000E-01      1.165625000000000E+01      2.771759000000000E-01     -1.655703000000000E+02
4907000000.000000      6.830750000000000E-01      1.159180000000000E+01      2.728271000000000E-01     -1.659765000000000E+02
4908000000.000000      6.846924000000000E-01      1.145557000000000E+01      2.697601000000000E-01     -1.663828000000000E+02
4909000000.000000      6.833801000000000E-01      1.135254000000000E+01      2.656708000000000E-01     -1.667344000000000E+02
4910000000.000000      6.836853000000000E-01      1.138721000000000E+01      2.622528000000000E-01     -1.669609000000000E+02
4911000000.000000      6.861572000000000E-01      1.127441000000000E+01      2.591248000000000E-01     -1.671016000000000E+02
4912000000.000000      6.863098000000000E-01      1.108643000000000E+01      2.554626000000000E-01     -1.676641000000000E+02
4913000000.000000      6.858826000000000E-01      1.107422000000000E+01      2.519531000000000E-01     -1.680000000000000E+02
4914000000.000000      6.880493000000000E-01      1.090771000000000E+01      2.483826000000000E-01     -1.680312000000000E+02
4915000000.000000      6.887207000000000E-01      1.070166000000000E+01      2.442474000000000E-01     -1.683516000000000E+02
4916000000.000000      6.891174000000000E-01      1.085010000000000E+01      2.411423000000000E-01     -1.687578000000000E+02
4917000000.000000      6.893005000000000E-01      1.065088000000000E+01      2.374878000000000E-01     -1.688984000000000E+02
4918000000.000000      6.912842000000000E-01      1.052734000000000E+01      2.336731000000000E-01     -1.690703000000000E+02
4919000000.000000      6.895142000000000E-01      1.055469000000000E+01      2.301178000000000E-01     -1.691953000000000E+02
4920000000.000000      6.914063000000000E-01      1.035010000000000E+01      2.264938000000000E-01     -1.697344000000000E+02
4921000000.000000      6.897888000000000E-01      1.021289000000000E+01      2.232208000000000E-01     -1.697969000000000E+02
4922000000.000000      6.922607000000000E-01      1.017334000000000E+01      2.192078000000000E-01     -1.697813000000000E+02
4923000000.000000      6.913147000000000E-01      1.009473000000000E+01      2.152100000000000E-01     -1.701328000000000E+02
4924000000.000000      6.936951000000000E-01      9.998535000000000E+00      2.119064000000000E-01     -1.703672000000000E+02
4925000000.000000      6.912231000000000E-01      9.928711000000000E+00      2.081833000000000E-01     -1.703984000000000E+02
4926000000.000000      6.940002000000000E-01      9.903809000000000E+00      2.047119000000000E-01     -1.705547000000000E+02
4927000000.000000      6.950684000000000E-01      9.570313000000000E+00      2.007599000000000E-01     -1.706797000000000E+02
4928000000.000000      6.947021000000000E-01      9.582520000000000E+00      1.971588000000000E-01     -1.707422000000000E+02
4929000000.000000      6.935730000000000E-01      9.482422000000000E+00      1.926270000000000E-01     -1.705859000000000E+02
4930000000.000000      6.938171000000000E-01      9.553711000000000E+00      1.890869000000000E-01     -1.708984000000000E+02
4931000000.000000      6.957397000000000E-01      9.143066000000000E+00      1.866913000000000E-01     -1.707891000000000E+02
4932000000.000000      6.965942000000000E-01      9.449219000000000E+00      1.821747000000000E-01     -1.707031000000000E+02
4933000000.000000      6.950073000000000E-01      9.011230000000000E+00      1.779938000000000E-01     -1.703984000000000E+02
4934000000.000000      6.970215000000000E-01      8.928711000000000E+00      1.743851000000000E-01     -1.706406000000000E+02
4935000000.000000      6.976318000000000E-01      8.975586000000000E+00      1.712723000000000E-01     -1.701719000000000E+02
4936000000.000000      6.939392000000000E-01      8.689941000000000E+00      1.666641000000000E-01     -1.701250000000000E+02
4937000000.000000      6.985168000000000E-01      8.658203000000000E+00      1.637039000000000E-01     -1.697656000000000E+02
4938000000.000000      6.976013000000000E-01      8.662598000000000E+00      1.598282000000000E-01     -1.694219000000000E+02
4939000000.000000      6.983948000000000E-01      8.536133000000000E+00      1.565628000000000E-01     -1.689531000000000E+02
4940000000.000000      6.997986000000000E-01      8.445313000000000E+00      1.524963000000000E-01     -1.688750000000000E+02
4941000000.000000      7.002869000000000E-01      8.333008000000000E+00      1.494980000000000E-01     -1.679922000000000E+02
4942000000.000000      6.997070000000000E-01      8.058105000000000E+00      1.456757000000000E-01     -1.677031000000000E+02
4943000000.000000      7.022400000000000E-01      8.189941000000000E+00      1.426544000000000E-01     -1.669531000000000E+02
4944000000.000000      7.009583000000000E-01      8.093750000000000E+00      1.395874000000000E-01     -1.663516000000000E+02
4945000000.000000      7.002563000000000E-01      7.955322000000000E+00      1.359940000000000E-01     -1.656719000000000E+02
4946000000.000000      7.036133000000000E-01      7.965088000000000E+00      1.330719000000000E-01     -1.647187000000000E+02
4947000000.000000      7.030334000000000E-01      7.698486000000000E+00      1.298676000000000E-01     -1.637656000000000E+02
4948000000.000000      7.023926000000000E-01      7.690430000000000E+00      1.272659000000000E-01     -1.628984000000000E+02
4949000000.000000      7.016907000000000E-01      7.669678000000000E+00      1.248360000000000E-01     -1.613359000000000E+02
4950000000.000000      7.036133000000000E-01      7.525635000000000E+00      1.216965000000000E-01     -1.607265000000000E+02
4951000000.000000      7.056885000000000E-01      7.410156000000000E+00      1.193085000000000E-01     -1.596484000000000E+02
4952000000.000000      7.041321000000000E-01      7.245361000000000E+00      1.170120000000000E-01     -1.579453000000000E+02
4953000000.000000      7.050781000000000E-01      7.120361000000000E+00      1.151962000000000E-01     -1.563984000000000E+02
4954000000.000000      7.071228000000000E-01      7.057129000000000E+00      1.130981000000000E-01     -1.549922000000000E+02
