! Network Analyzer HP8722D
! Hewlett-Packard
! Data name: Linha & Wilkinson
! Saver's name: Rodrigo Anjos
! Comments: Teste da utilização de aquisição
continua pelo VNA HP8722D
! Time and date: 22/5/2025 12:52
!              Frequency                     S11                                                   S21                                                   S12                                                   S22
# HZ  S  MA R 50
4800000000.000000      6.535339000000000E-01      1.079639000000000E+01      4.714355000000000E-01     -9.210546000000000E+01
4801000000.000000      6.515503000000000E-01      1.091748000000000E+01      4.737091000000000E-01     -9.282421000000000E+01
4802000000.000000      6.497192000000000E-01      1.082520000000000E+01      4.735565000000000E-01     -9.362499000000000E+01
4803000000.000000      6.472778000000000E-01      1.081152000000000E+01      4.769745000000000E-01     -9.424999000000000E+01
4804000000.000000      6.462708000000000E-01      1.084863000000000E+01      4.762268000000000E-01     -9.495312000000000E+01
4805000000.000000      6.437073000000000E-01      1.072949000000000E+01      4.812317000000000E-01     -9.577734000000000E+01
4806000000.000000      6.416626000000000E-01      1.075244000000000E+01      4.820251000000000E-01     -9.643358000000000E+01
4807000000.000000      6.394958000000000E-01      1.073340000000000E+01      4.808960000000000E-01     -9.748047000000000E+01
4808000000.000000      6.388855000000000E-01      1.093652000000000E+01      4.848480000000000E-01     -9.803514000000000E+01
4809000000.000000      6.365662000000000E-01      1.086377000000000E+01      4.857788000000000E-01     -9.892187000000000E+01
4810000000.000000      6.349487000000000E-01      1.074170000000000E+01      4.877319000000000E-01     -9.961327000000000E+01
4811000000.000000      6.353760000000000E-01      1.078711000000000E+01      4.887848000000000E-01     -1.004062000000000E+02
4812000000.000000      6.336060000000000E-01      1.110156000000000E+01      4.886017000000000E-01     -1.011211000000000E+02
4813000000.000000      6.322327000000000E-01      1.105225000000000E+01      4.904785000000000E-01     -1.019141000000000E+02
4814000000.000000      6.295776000000000E-01      1.102051000000000E+01      4.916229000000000E-01     -1.026015000000000E+02
4815000000.000000      6.283264000000000E-01      1.111084000000000E+01      4.928741000000000E-01     -1.035664000000000E+02
4816000000.000000      6.284790000000000E-01      1.125684000000000E+01      4.933167000000000E-01     -1.041016000000000E+02
4817000000.000000      6.264038000000000E-01      1.137354000000000E+01      4.950256000000000E-01     -1.048164000000000E+02
4818000000.000000      6.249695000000000E-01      1.138867000000000E+01      4.938660000000000E-01     -1.056406000000000E+02
4819000000.000000      6.244202000000000E-01      1.151367000000000E+01      4.951172000000000E-01     -1.063047000000000E+02
4820000000.000000      6.217346000000000E-01      1.156836000000000E+01      4.961395000000000E-01     -1.071367000000000E+02
4821000000.000000      6.205444000000000E-01      1.159180000000000E+01      4.965057000000000E-01     -1.078555000000000E+02
4822000000.000000      6.192932000000000E-01      1.167822000000000E+01      4.963531000000000E-01     -1.084180000000000E+02
4823000000.000000      6.200867000000000E-01      1.174951000000000E+01      4.980774000000000E-01     -1.094687000000000E+02
4824000000.000000      6.196899000000000E-01      1.195850000000000E+01      4.976807000000000E-01     -1.100195000000000E+02
4825000000.000000      6.194458000000000E-01      1.204492000000000E+01      4.975586000000000E-01     -1.109375000000000E+02
4826000000.000000      6.170349000000000E-01      1.210938000000000E+01      4.981079000000000E-01     -1.118359000000000E+02
4827000000.000000      6.168518000000000E-01      1.212988000000000E+01      4.986877000000000E-01     -1.124180000000000E+02
4828000000.000000      6.176453000000000E-01      1.222217000000000E+01      4.998779000000000E-01     -1.133281000000000E+02
4829000000.000000      6.151733000000000E-01      1.243213000000000E+01      5.009766000000000E-01     -1.139961000000000E+02
4830000000.000000      6.152344000000000E-01      1.231250000000000E+01      4.996033000000000E-01     -1.146211000000000E+02
4831000000.000000      6.143494000000000E-01      1.258301000000000E+01      4.998474000000000E-01     -1.154023000000000E+02
4832000000.000000      6.136169000000000E-01      1.293750000000000E+01      4.999390000000000E-01     -1.159141000000000E+02
4833000000.000000      6.130676000000000E-01      1.298975000000000E+01      4.987183000000000E-01     -1.168008000000000E+02
4834000000.000000      6.129761000000000E-01      1.301855000000000E+01      4.996185000000000E-01     -1.175391000000000E+02
4835000000.000000      6.152649000000000E-01      1.300635000000000E+01      4.999542000000000E-01     -1.185117000000000E+02
4836000000.000000      6.127319000000000E-01      1.323438000000000E+01      4.976501000000000E-01     -1.192226000000000E+02
4837000000.000000      6.138916000000000E-01      1.349219000000000E+01      4.989777000000000E-01     -1.201328000000000E+02
4838000000.000000      6.139221000000000E-01      1.337549000000000E+01      4.988251000000000E-01     -1.205703000000000E+02
4839000000.000000      6.160889000000000E-01      1.365723000000000E+01      4.983215000000000E-01     -1.215586000000000E+02
4840000000.000000      6.151733000000000E-01      1.358301000000000E+01      4.989319000000000E-01     -1.224609000000000E+02
4841000000.000000      6.148071000000000E-01      1.386719000000000E+01      4.969788000000000E-01     -1.232461000000000E+02
4842000000.000000      6.159973000000000E-01      1.382324000000000E+01      4.965668000000000E-01     -1.240117000000000E+02
4843000000.000000      6.169739000000000E-01      1.393164000000000E+01      4.962921000000000E-01     -1.251055000000000E+02
4844000000.000000      6.165466000000000E-01      1.404150000000000E+01      4.954071000000000E-01     -1.255586000000000E+02
4845000000.000000      6.188049000000000E-01      1.417773000000000E+01      4.945984000000000E-01     -1.265195000000000E+02
4846000000.000000      6.191711000000000E-01      1.429688000000000E+01      4.937286000000000E-01     -1.273086000000000E+02
4847000000.000000      6.196594000000000E-01      1.432324000000000E+01      4.926300000000000E-01     -1.280625000000000E+02
4848000000.000000      6.206970000000000E-01      1.423828000000000E+01      4.893341000000000E-01     -1.290000000000000E+02
4849000000.000000      6.198730000000000E-01      1.448242000000000E+01      4.892883000000000E-01     -1.297812000000000E+02
4850000000.000000      6.210327000000000E-01      1.436719000000000E+01      4.873505000000000E-01     -1.307422000000000E+02
4851000000.000000      6.242676000000000E-01      1.447559000000000E+01      4.885254000000000E-01     -1.315156000000000E+02
4852000000.000000      6.236877000000000E-01      1.475049000000000E+01      4.845123000000000E-01     -1.323828000000000E+02
4853000000.000000      6.239319000000000E-01      1.485205000000000E+01      4.817505000000000E-01     -1.332891000000000E+02
4854000000.000000      6.256409000000000E-01      1.453076000000000E+01      4.801941000000000E-01     -1.342187000000000E+02
4855000000.000000      6.264648000000000E-01      1.466650000000000E+01      4.772949000000000E-01     -1.349297000000000E+02
4856000000.000000      6.276550000000000E-01      1.473779000000000E+01      4.747925000000000E-01     -1.358281000000000E+02
4857000000.000000      6.296387000000000E-01      1.489600000000000E+01      4.743958000000000E-01     -1.365391000000000E+02
4858000000.000000      6.278992000000000E-01      1.488086000000000E+01      4.695740000000000E-01     -1.374531000000000E+02
4859000000.000000      6.298523000000000E-01      1.479834000000000E+01      4.687500000000000E-01     -1.384766000000000E+02
4860000000.000000      6.315918000000000E-01      1.492871000000000E+01      4.645386000000000E-01     -1.390469000000000E+02
4861000000.000000      6.334839000000000E-01      1.480957000000000E+01      4.623718000000000E-01     -1.402969000000000E+02
4862000000.000000      6.355896000000000E-01      1.502344000000000E+01      4.583893000000000E-01     -1.407812000000000E+02
4863000000.000000      6.354370000000000E-01      1.499902000000000E+01      4.552460000000000E-01     -1.418672000000000E+02
4864000000.000000      6.377869000000000E-01      1.481738000000000E+01      4.524994000000000E-01     -1.422812000000000E+02
4865000000.000000      6.376038000000000E-01      1.493848000000000E+01      4.477234000000000E-01     -1.431562000000000E+02
4866000000.000000      6.398010000000000E-01      1.503174000000000E+01      4.451141000000000E-01     -1.442266000000000E+02
4867000000.000000      6.386719000000000E-01      1.499219000000000E+01      4.408875000000000E-01     -1.448750000000000E+02
4868000000.000000      6.412354000000000E-01      1.491113000000000E+01      4.370880000000000E-01     -1.457266000000000E+02
4869000000.000000      6.423035000000000E-01      1.481738000000000E+01      4.338531000000000E-01     -1.465000000000000E+02
4870000000.000000      6.438904000000000E-01      1.477490000000000E+01      4.277649000000000E-01     -1.470000000000000E+02
4871000000.000000      6.455688000000000E-01      1.486426000000000E+01      4.240723000000000E-01     -1.480156000000000E+02
4872000000.000000      6.478577000000000E-01      1.484375000000000E+01      4.195099000000000E-01     -1.487187000000000E+02
4873000000.000000      6.484070000000000E-01      1.486963000000000E+01      4.153748000000000E-01     -1.495469000000000E+02
4874000000.000000      6.490173000000000E-01      1.481885000000000E+01      4.110107000000000E-01     -1.502344000000000E+02
4875000000.000000      6.510315000000000E-01      1.478760000000000E+01      4.076385000000000E-01     -1.509609000000000E+02
4876000000.000000      6.519775000000000E-01      1.471729000000000E+01      4.031219000000000E-01     -1.515703000000000E+02
4877000000.000000      6.540833000000000E-01      1.462256000000000E+01      3.991547000000000E-01     -1.522812000000000E+02
4878000000.000000      6.524048000000000E-01      1.458398000000000E+01      3.939209000000000E-01     -1.527656000000000E+02
4879000000.000000      6.560364000000000E-01      1.470215000000000E+01      3.893127000000000E-01     -1.531953000000000E+02
4880000000.000000      6.586304000000000E-01      1.441650000000000E+01      3.856049000000000E-01     -1.539922000000000E+02
4881000000.000000      6.582642000000000E-01      1.454150000000000E+01      3.817139000000000E-01     -1.544609000000000E+02
4882000000.000000      6.610718000000000E-01      1.449463000000000E+01      3.766327000000000E-01     -1.551406000000000E+02
4883000000.000000      6.594543000000000E-01      1.431787000000000E+01      3.725433000000000E-01     -1.556172000000000E+02
4884000000.000000      6.624146000000000E-01      1.439063000000000E+01      3.686676000000000E-01     -1.563047000000000E+02
4885000000.000000      6.636658000000000E-01      1.431885000000000E+01      3.634033000000000E-01     -1.563516000000000E+02
4886000000.000000      6.637268000000000E-01      1.417090000000000E+01      3.588409000000000E-01     -1.572266000000000E+02
4887000000.000000      6.658325000000000E-01      1.407471000000000E+01      3.550873000000000E-01     -1.577031000000000E+02
4888000000.000000      6.653748000000000E-01      1.395361000000000E+01      3.522186000000000E-01     -1.581563000000000E+02
4889000000.000000      6.667175000000000E-01      1.394824000000000E+01      3.462830000000000E-01     -1.585312000000000E+02
4890000000.000000      6.671143000000000E-01      1.366406000000000E+01      3.417664000000000E-01     -1.592109000000000E+02
4891000000.000000      6.711121000000000E-01      1.363916000000000E+01      3.368835000000000E-01     -1.595156000000000E+02
4892000000.000000      6.700134000000000E-01      1.382324000000000E+01      3.344421000000000E-01     -1.598438000000000E+02
4893000000.000000      6.722717000000000E-01      1.353760000000000E+01      3.290558000000000E-01     -1.605078000000000E+02
4894000000.000000      6.733398000000000E-01      1.352393000000000E+01      3.263855000000000E-01     -1.607578000000000E+02
4895000000.000000      6.742554000000000E-01      1.323438000000000E+01      3.218231000000000E-01     -1.613437000000000E+02
4896000000.000000      6.719055000000000E-01      1.337988000000000E+01      3.187714000000000E-01     -1.613750000000000E+02
4897000000.000000      6.755676000000000E-01      1.329443000000000E+01      3.139954000000000E-01     -1.618672000000000E+02
4898000000.000000      6.762695000000000E-01      1.307910000000000E+01      3.118591000000000E-01     -1.622890000000000E+02
4899000000.000000      6.759033000000000E-01      1.303076000000000E+01      3.073273000000000E-01     -1.627578000000000E+02
4900000000.000000      6.784973000000000E-01      1.287695000000000E+01      3.033600000000000E-01     -1.629062000000000E+02
4901000000.000000      6.796265000000000E-01      1.302246000000000E+01      2.998352000000000E-01     -1.632422000000000E+02
4902000000.000000      6.801453000000000E-01      1.271094000000000E+01      2.964630000000000E-01     -1.636094000000000E+02
4903000000.000000      6.800232000000000E-01      1.268066000000000E+01      2.916718000000000E-01     -1.639609000000000E+02
4904000000.000000      6.833191000000000E-01      1.260107000000000E+01      2.887268000000000E-01     -1.643906000000000E+02
4905000000.000000      6.820679000000000E-01      1.249805000000000E+01      2.859039000000000E-01     -1.647266000000000E+02
4906000000.000000      6.835022000000000E-01      1.240332000000000E+01      2.819519000000000E-01     -1.648516000000000E+02
4907000000.000000      6.856384000000000E-01      1.223047000000000E+01      2.789764000000000E-01     -1.654687000000000E+02
4908000000.000000      6.867065000000000E-01      1.209717000000000E+01      2.758331000000000E-01     -1.658203000000000E+02
4909000000.000000      6.839600000000000E-01      1.203516000000000E+01      2.715454000000000E-01     -1.660312000000000E+02
4910000000.000000      6.871948000000000E-01      1.202295000000000E+01      2.678680000000000E-01     -1.663125000000000E+02
4911000000.000000      6.860352000000000E-01      1.196094000000000E+01      2.649078000000000E-01     -1.664922000000000E+02
4912000000.000000      6.862183000000000E-01      1.190479000000000E+01      2.613983000000000E-01     -1.670469000000000E+02
4913000000.000000      6.869812000000000E-01      1.167822000000000E+01      2.577209000000000E-01     -1.673828000000000E+02
4914000000.000000      6.895447000000000E-01      1.144043000000000E+01      2.544250000000000E-01     -1.674609000000000E+02
4915000000.000000      6.886292000000000E-01      1.156445000000000E+01      2.504883000000000E-01     -1.680859000000000E+02
4916000000.000000      6.872253000000000E-01      1.142578000000000E+01      2.468414000000000E-01     -1.682891000000000E+02
4917000000.000000      6.886597000000000E-01      1.126611000000000E+01      2.433853000000000E-01     -1.684609000000000E+02
4918000000.000000      6.906738000000000E-01      1.113721000000000E+01      2.393265000000000E-01     -1.687813000000000E+02
4919000000.000000      6.877136000000000E-01      1.101221000000000E+01      2.361603000000000E-01     -1.688906000000000E+02
4920000000.000000      6.896362000000000E-01      1.093652000000000E+01      2.315598000000000E-01     -1.695156000000000E+02
4921000000.000000      6.909485000000000E-01      1.104248000000000E+01      2.288742000000000E-01     -1.694062000000000E+02
4922000000.000000      6.941223000000000E-01      1.072266000000000E+01      2.251282000000000E-01     -1.696250000000000E+02
4923000000.000000      6.910095000000000E-01      1.060986000000000E+01      2.212753000000000E-01     -1.698359000000000E+02
4924000000.000000      6.929626000000000E-01      1.071973000000000E+01      2.174606000000000E-01     -1.702266000000000E+02
4925000000.000000      6.907349000000000E-01      1.050977000000000E+01      2.137909000000000E-01     -1.702344000000000E+02
4926000000.000000      6.944885000000000E-01      1.054541000000000E+01      2.103806000000000E-01     -1.705781000000000E+02
4927000000.000000      6.931458000000000E-01      1.025537000000000E+01      2.061234000000000E-01     -1.706640000000000E+02
4928000000.000000      6.983643000000000E-01      1.014697000000000E+01      2.022552000000000E-01     -1.707344000000000E+02
4929000000.000000      6.941528000000000E-01      1.004932000000000E+01      1.984024000000000E-01     -1.707187000000000E+02
4930000000.000000      6.954651000000000E-01      1.005078000000000E+01      1.951828000000000E-01     -1.708359000000000E+02
4931000000.000000      6.957703000000000E-01      9.697754000000000E+00      1.919556000000000E-01     -1.709687000000000E+02
4932000000.000000      6.961365000000000E-01      9.865723000000000E+00      1.875839000000000E-01     -1.708437000000000E+02
4933000000.000000      6.981812000000000E-01      9.678711000000000E+00      1.829605000000000E-01     -1.707500000000000E+02
4934000000.000000      6.982727000000000E-01      9.614258000000000E+00      1.798401000000000E-01     -1.708437000000000E+02
4935000000.000000      7.007141000000000E-01      9.572754000000000E+00      1.765900000000000E-01     -1.706484000000000E+02
4936000000.000000      6.983948000000000E-01      9.430176000000000E+00      1.719894000000000E-01     -1.705156000000000E+02
4937000000.000000      7.001953000000000E-01      9.321777000000000E+00      1.685791000000000E-01     -1.703828000000000E+02
4938000000.000000      6.995850000000000E-01      9.200684000000000E+00      1.648712000000000E-01     -1.700391000000000E+02
4939000000.000000      6.998596000000000E-01      9.139160000000000E+00      1.609497000000000E-01     -1.697500000000000E+02
4940000000.000000      7.009888000000000E-01      8.996094000000000E+00      1.570816000000000E-01     -1.697031000000000E+02
4941000000.000000      7.007446000000000E-01      9.064941000000000E+00      1.539764000000000E-01     -1.691094000000000E+02
4942000000.000000      7.006836000000000E-01      8.919434000000000E+00      1.506958000000000E-01     -1.686641000000000E+02
4943000000.000000      7.013855000000000E-01      8.862793000000000E+00      1.469269000000000E-01     -1.682109000000000E+02
4944000000.000000      7.011719000000000E-01      8.670898000000000E+00      1.433868000000000E-01     -1.678516000000000E+02
4945000000.000000      7.033997000000000E-01      8.564941000000000E+00      1.397400000000000E-01     -1.669141000000000E+02
4946000000.000000      7.032776000000000E-01      8.468750000000000E+00      1.367722000000000E-01     -1.661953000000000E+02
4947000000.000000      7.031860000000000E-01      8.446777000000000E+00      1.335297000000000E-01     -1.654063000000000E+02
4948000000.000000      7.061768000000000E-01      8.262695000000000E+00      1.308136000000000E-01     -1.646406000000000E+02
4949000000.000000      7.037964000000000E-01      8.027832000000000E+00      1.276932000000000E-01     -1.634922000000000E+02
4950000000.000000      7.049561000000000E-01      8.172363000000000E+00      1.245384000000000E-01     -1.625313000000000E+02
4951000000.000000      7.067261000000000E-01      8.078613000000000E+00      1.221657000000000E-01     -1.614766000000000E+02
4952000000.000000      7.066040000000000E-01      7.886719000000000E+00      1.192131000000000E-01     -1.601719000000000E+02
4953000000.000000      7.059937000000000E-01      7.811279000000000E+00      1.169701000000000E-01     -1.587891000000000E+02
4954000000.000000      7.084961000000000E-01      7.645020000000000E+00      1.146202000000000E-01     -1.575234000000000E+02
