! Network Analyzer HP8722D
! Hewlett-Packard
! Data name: Linha & Wilkinson
! Saver's name: Rodrigo Anjos
! Comments: Teste da utilização de aquisição
continua pelo VNA HP8722D
! Time and date: 22/5/2025 13:07
!              Frequency                     S11                                                   S21                                                   S12                                                   S22
# HZ  S  MA R 50
4800000000.000000      6.493530000000000E-01      1.079639000000000E+01      4.708862000000000E-01     -9.280859000000000E+01
4801000000.000000      6.500244000000000E-01      1.097900000000000E+01      4.737244000000000E-01     -9.348436000000000E+01
4802000000.000000      6.464233000000000E-01      1.087354000000000E+01      4.755554000000000E-01     -9.411718000000000E+01
4803000000.000000      6.445313000000000E-01      1.085547000000000E+01      4.785461000000000E-01     -9.503124000000000E+01
4804000000.000000      6.434631000000000E-01      1.077734000000000E+01      4.795532000000000E-01     -9.561718000000000E+01
4805000000.000000      6.435242000000000E-01      1.076514000000000E+01      4.801483000000000E-01     -9.641796000000000E+01
4806000000.000000      6.403809000000000E-01      1.078271000000000E+01      4.812469000000000E-01     -9.717968000000000E+01
4807000000.000000      6.376953000000000E-01      1.065771000000000E+01      4.826355000000000E-01     -9.829687000000000E+01
4808000000.000000      6.362915000000000E-01      1.081055000000000E+01      4.846191000000000E-01     -9.886328000000000E+01
4809000000.000000      6.349792000000000E-01      1.093945000000000E+01      4.870605000000000E-01     -9.962500000000000E+01
4810000000.000000      6.347961000000000E-01      1.083350000000000E+01      4.877167000000000E-01     -1.003437000000000E+02
4811000000.000000      6.330261000000000E-01      1.089014000000000E+01      4.904633000000000E-01     -1.013047000000000E+02
4812000000.000000      6.325684000000000E-01      1.106689000000000E+01      4.905701000000000E-01     -1.018476000000000E+02
4813000000.000000      6.305847000000000E-01      1.121533000000000E+01      4.925385000000000E-01     -1.024258000000000E+02
4814000000.000000      6.275330000000000E-01      1.116455000000000E+01      4.936523000000000E-01     -1.031797000000000E+02
4815000000.000000      6.270447000000000E-01      1.115088000000000E+01      4.934845000000000E-01     -1.040078000000000E+02
4816000000.000000      6.264954000000000E-01      1.126367000000000E+01      4.945374000000000E-01     -1.048476000000000E+02
4817000000.000000      6.249084000000000E-01      1.130859000000000E+01      4.942322000000000E-01     -1.055547000000000E+02
4818000000.000000      6.224060000000000E-01      1.138965000000000E+01      4.946289000000000E-01     -1.064101000000000E+02
4819000000.000000      6.234436000000000E-01      1.146826000000000E+01      4.949799000000000E-01     -1.072070000000000E+02
4820000000.000000      6.184387000000000E-01      1.170557000000000E+01      4.953918000000000E-01     -1.077539000000000E+02
4821000000.000000      6.196594000000000E-01      1.180469000000000E+01      4.972229000000000E-01     -1.085625000000000E+02
4822000000.000000      6.193542000000000E-01      1.171240000000000E+01      4.967041000000000E-01     -1.093945000000000E+02
4823000000.000000      6.182556000000000E-01      1.175537000000000E+01      4.975128000000000E-01     -1.101875000000000E+02
4824000000.000000      6.181641000000000E-01      1.200928000000000E+01      4.969940000000000E-01     -1.108828000000000E+02
4825000000.000000      6.159058000000000E-01      1.196240000000000E+01      4.984741000000000E-01     -1.116211000000000E+02
4826000000.000000      6.146240000000000E-01      1.191846000000000E+01      5.000916000000000E-01     -1.124062000000000E+02
4827000000.000000      6.152344000000000E-01      1.232910000000000E+01      4.985809000000000E-01     -1.129648000000000E+02
4828000000.000000      6.152344000000000E-01      1.234961000000000E+01      4.998322000000000E-01     -1.137852000000000E+02
4829000000.000000      6.150208000000000E-01      1.246387000000000E+01      5.010071000000000E-01     -1.145859000000000E+02
4830000000.000000      6.154785000000000E-01      1.245117000000000E+01      5.001526000000000E-01     -1.153789000000000E+02
4831000000.000000      6.126404000000000E-01      1.260107000000000E+01      4.995117000000000E-01     -1.162070000000000E+02
4832000000.000000      6.134338000000000E-01      1.296777000000000E+01      4.988098000000000E-01     -1.168516000000000E+02
4833000000.000000      6.128540000000000E-01      1.287451000000000E+01      4.988251000000000E-01     -1.174844000000000E+02
4834000000.000000      6.120605000000000E-01      1.297314000000000E+01      4.984436000000000E-01     -1.183437000000000E+02
4835000000.000000      6.144409000000000E-01      1.321338000000000E+01      4.994812000000000E-01     -1.190234000000000E+02
4836000000.000000      6.129761000000000E-01      1.331934000000000E+01      4.965973000000000E-01     -1.202070000000000E+02
4837000000.000000      6.129456000000000E-01      1.352930000000000E+01      4.972229000000000E-01     -1.208906000000000E+02
4838000000.000000      6.119690000000000E-01      1.346484000000000E+01      4.982605000000000E-01     -1.212344000000000E+02
4839000000.000000      6.166687000000000E-01      1.372168000000000E+01      4.961243000000000E-01     -1.223047000000000E+02
4840000000.000000      6.151733000000000E-01      1.363086000000000E+01      4.982758000000000E-01     -1.232031000000000E+02
4841000000.000000      6.152954000000000E-01      1.376563000000000E+01      4.979553000000000E-01     -1.240039000000000E+02
4842000000.000000      6.160889000000000E-01      1.377393000000000E+01      4.951630000000000E-01     -1.248438000000000E+02
4843000000.000000      6.192017000000000E-01      1.374072000000000E+01      4.959412000000000E-01     -1.255586000000000E+02
4844000000.000000      6.162109000000000E-01      1.395264000000000E+01      4.917450000000000E-01     -1.264531000000000E+02
4845000000.000000      6.174011000000000E-01      1.409668000000000E+01      4.925995000000000E-01     -1.272461000000000E+02
4846000000.000000      6.196289000000000E-01      1.435059000000000E+01      4.919128000000000E-01     -1.280078000000000E+02
4847000000.000000      6.211548000000000E-01      1.437695000000000E+01      4.906921000000000E-01     -1.287734000000000E+02
4848000000.000000      6.195984000000000E-01      1.433691000000000E+01      4.869843000000000E-01     -1.297266000000000E+02
4849000000.000000      6.210632000000000E-01      1.444824000000000E+01      4.882202000000000E-01     -1.305312000000000E+02
4850000000.000000      6.217041000000000E-01      1.439453000000000E+01      4.846191000000000E-01     -1.314062000000000E+02
4851000000.000000      6.229248000000000E-01      1.444141000000000E+01      4.847260000000000E-01     -1.323750000000000E+02
4852000000.000000      6.233826000000000E-01      1.457715000000000E+01      4.818115000000000E-01     -1.329687000000000E+02
4853000000.000000      6.251831000000000E-01      1.467871000000000E+01      4.793091000000000E-01     -1.340000000000000E+02
4854000000.000000      6.250916000000000E-01      1.471338000000000E+01      4.768829000000000E-01     -1.348281000000000E+02
4855000000.000000      6.264343000000000E-01      1.479688000000000E+01      4.750366000000000E-01     -1.356641000000000E+02
4856000000.000000      6.275940000000000E-01      1.485352000000000E+01      4.713745000000000E-01     -1.365859000000000E+02
4857000000.000000      6.289063000000000E-01      1.495361000000000E+01      4.713440000000000E-01     -1.372578000000000E+02
4858000000.000000      6.314697000000000E-01      1.486035000000000E+01      4.679871000000000E-01     -1.380781000000000E+02
4859000000.000000      6.310730000000000E-01      1.478857000000000E+01      4.653320000000000E-01     -1.392344000000000E+02
4860000000.000000      6.325378000000000E-01      1.499463000000000E+01      4.624481000000000E-01     -1.399219000000000E+02
4861000000.000000      6.367493000000000E-01      1.500586000000000E+01      4.593353000000000E-01     -1.408437000000000E+02
4862000000.000000      6.338196000000000E-01      1.501807000000000E+01      4.554596000000000E-01     -1.414375000000000E+02
4863000000.000000      6.348572000000000E-01      1.523779000000000E+01      4.510651000000000E-01     -1.423984000000000E+02
4864000000.000000      6.368408000000000E-01      1.479150000000000E+01      4.482117000000000E-01     -1.430938000000000E+02
4865000000.000000      6.372681000000000E-01      1.503467000000000E+01      4.444275000000000E-01     -1.438359000000000E+02
4866000000.000000      6.401062000000000E-01      1.476416000000000E+01      4.413147000000000E-01     -1.447813000000000E+02
4867000000.000000      6.392517000000000E-01      1.482568000000000E+01      4.373932000000000E-01     -1.457266000000000E+02
4868000000.000000      6.427612000000000E-01      1.480957000000000E+01      4.328613000000000E-01     -1.465312000000000E+02
4869000000.000000      6.410522000000000E-01      1.493164000000000E+01      4.290161000000000E-01     -1.472422000000000E+02
4870000000.000000      6.432190000000000E-01      1.491113000000000E+01      4.241943000000000E-01     -1.477890000000000E+02
4871000000.000000      6.439209000000000E-01      1.459668000000000E+01      4.203339000000000E-01     -1.486875000000000E+02
4872000000.000000      6.484070000000000E-01      1.497803000000000E+01      4.168854000000000E-01     -1.492109000000000E+02
4873000000.000000      6.474609000000000E-01      1.469971000000000E+01      4.119720000000000E-01     -1.501172000000000E+02
4874000000.000000      6.500549000000000E-01      1.469238000000000E+01      4.076080000000000E-01     -1.508672000000000E+02
4875000000.000000      6.513367000000000E-01      1.465430000000000E+01      4.037018000000000E-01     -1.511406000000000E+02
4876000000.000000      6.541748000000000E-01      1.474219000000000E+01      3.999329000000000E-01     -1.522031000000000E+02
4877000000.000000      6.540833000000000E-01      1.468018000000000E+01      3.946228000000000E-01     -1.527891000000000E+02
4878000000.000000      6.546936000000000E-01      1.436182000000000E+01      3.892517000000000E-01     -1.533281000000000E+02
4879000000.000000      6.564636000000000E-01      1.471582000000000E+01      3.839417000000000E-01     -1.536797000000000E+02
4880000000.000000      6.582031000000000E-01      1.453076000000000E+01      3.807373000000000E-01     -1.546094000000000E+02
4881000000.000000      6.582947000000000E-01      1.439453000000000E+01      3.771820000000000E-01     -1.549531000000000E+02
4882000000.000000      6.602478000000000E-01      1.443604000000000E+01      3.738098000000000E-01     -1.556172000000000E+02
4883000000.000000      6.614075000000000E-01      1.428467000000000E+01      3.668365000000000E-01     -1.562578000000000E+02
4884000000.000000      6.636047000000000E-01      1.403613000000000E+01      3.636780000000000E-01     -1.565547000000000E+02
4885000000.000000      6.642151000000000E-01      1.426953000000000E+01      3.591919000000000E-01     -1.569844000000000E+02
4886000000.000000      6.650391000000000E-01      1.419141000000000E+01      3.538818000000000E-01     -1.574219000000000E+02
4887000000.000000      6.664429000000000E-01      1.400049000000000E+01      3.518982000000000E-01     -1.580469000000000E+02
4888000000.000000      6.661682000000000E-01      1.385059000000000E+01      3.476105000000000E-01     -1.585312000000000E+02
4889000000.000000      6.691589000000000E-01      1.384961000000000E+01      3.429871000000000E-01     -1.590937000000000E+02
4890000000.000000      6.661987000000000E-01      1.375732000000000E+01      3.387451000000000E-01     -1.595078000000000E+02
4891000000.000000      6.706543000000000E-01      1.354883000000000E+01      3.338318000000000E-01     -1.598672000000000E+02
4892000000.000000      6.716919000000000E-01      1.367236000000000E+01      3.293915000000000E-01     -1.601250000000000E+02
4893000000.000000      6.734009000000000E-01      1.340430000000000E+01      3.263550000000000E-01     -1.607734000000000E+02
4894000000.000000      6.721802000000000E-01      1.350195000000000E+01      3.229370000000000E-01     -1.609922000000000E+02
4895000000.000000      6.750793000000000E-01      1.331543000000000E+01      3.190918000000000E-01     -1.614922000000000E+02
4896000000.000000      6.761780000000000E-01      1.321094000000000E+01      3.148499000000000E-01     -1.618047000000000E+02
4897000000.000000      6.739807000000000E-01      1.325488000000000E+01      3.110809000000000E-01     -1.622109000000000E+02
4898000000.000000      6.772461000000000E-01      1.314502000000000E+01      3.075409000000000E-01     -1.624922000000000E+02
4899000000.000000      6.794739000000000E-01      1.283594000000000E+01      3.036346000000000E-01     -1.628672000000000E+02
4900000000.000000      6.777344000000000E-01      1.287305000000000E+01      2.994537000000000E-01     -1.631641000000000E+02
4901000000.000000      6.788025000000000E-01      1.291846000000000E+01      2.959747000000000E-01     -1.636953000000000E+02
4902000000.000000      6.813660000000000E-01      1.256543000000000E+01      2.932587000000000E-01     -1.639297000000000E+02
4903000000.000000      6.814270000000000E-01      1.269287000000000E+01      2.885742000000000E-01     -1.643437000000000E+02
4904000000.000000      6.815186000000000E-01      1.233057000000000E+01      2.852936000000000E-01     -1.647031000000000E+02
4905000000.000000      6.820068000000000E-01      1.231836000000000E+01      2.822876000000000E-01     -1.650703000000000E+02
4906000000.000000      6.848450000000000E-01      1.209277000000000E+01      2.780457000000000E-01     -1.650859000000000E+02
4907000000.000000      6.841736000000000E-01      1.207373000000000E+01      2.760010000000000E-01     -1.655703000000000E+02
4908000000.000000      6.847839000000000E-01      1.212158000000000E+01      2.716217000000000E-01     -1.660078000000000E+02
4909000000.000000      6.837158000000000E-01      1.195166000000000E+01      2.682800000000000E-01     -1.661328000000000E+02
4910000000.000000      6.856384000000000E-01      1.185791000000000E+01      2.645264000000000E-01     -1.666406000000000E+02
4911000000.000000      6.862793000000000E-01      1.194043000000000E+01      2.611389000000000E-01     -1.668047000000000E+02
4912000000.000000      6.878052000000000E-01      1.187891000000000E+01      2.576752000000000E-01     -1.671953000000000E+02
4913000000.000000      6.872253000000000E-01      1.157813000000000E+01      2.539215000000000E-01     -1.674062000000000E+02
4914000000.000000      6.865845000000000E-01      1.149854000000000E+01      2.509918000000000E-01     -1.675547000000000E+02
4915000000.000000      6.883545000000000E-01      1.127588000000000E+01      2.465515000000000E-01     -1.682266000000000E+02
4916000000.000000      6.886902000000000E-01      1.133643000000000E+01      2.435760000000000E-01     -1.684844000000000E+02
4917000000.000000      6.894836000000000E-01      1.132813000000000E+01      2.398834000000000E-01     -1.686250000000000E+02
4918000000.000000      6.915283000000000E-01      1.111084000000000E+01      2.359619000000000E-01     -1.689453000000000E+02
4919000000.000000      6.869202000000000E-01      1.115479000000000E+01      2.326736000000000E-01     -1.689922000000000E+02
4920000000.000000      6.901855000000000E-01      1.079248000000000E+01      2.287064000000000E-01     -1.693672000000000E+02
4921000000.000000      6.907654000000000E-01      1.083643000000000E+01      2.254562000000000E-01     -1.694219000000000E+02
4922000000.000000      6.924744000000000E-01      1.071680000000000E+01      2.215881000000000E-01     -1.696328000000000E+02
4923000000.000000      6.926270000000000E-01      1.075146000000000E+01      2.178116000000000E-01     -1.697734000000000E+02
4924000000.000000      6.948242000000000E-01      1.048633000000000E+01      2.139206000000000E-01     -1.701484000000000E+02
4925000000.000000      6.919250000000000E-01      1.044092000000000E+01      2.111130000000000E-01     -1.702578000000000E+02
4926000000.000000      6.922302000000000E-01      1.038574000000000E+01      2.069626000000000E-01     -1.705391000000000E+02
4927000000.000000      6.928406000000000E-01      1.014697000000000E+01      2.027130000000000E-01     -1.704141000000000E+02
4928000000.000000      6.963196000000000E-01      9.909668000000000E+00      1.995163000000000E-01     -1.704766000000000E+02
4929000000.000000      6.948853000000000E-01      9.996094000000000E+00      1.950455000000000E-01     -1.706719000000000E+02
4930000000.000000      6.958313000000000E-01      9.928711000000000E+00      1.915817000000000E-01     -1.706875000000000E+02
4931000000.000000      6.967468000000000E-01      9.865723000000000E+00      1.884995000000000E-01     -1.706250000000000E+02
4932000000.000000      6.962280000000000E-01      9.707520000000000E+00      1.845703000000000E-01     -1.706250000000000E+02
4933000000.000000      6.974182000000000E-01      9.689941000000000E+00      1.798477000000000E-01     -1.704453000000000E+02
4934000000.000000      6.990356000000000E-01      9.423340000000000E+00      1.765213000000000E-01     -1.706016000000000E+02
4935000000.000000      6.987305000000000E-01      9.346191000000000E+00      1.732254000000000E-01     -1.702031000000000E+02
4936000000.000000      6.963806000000000E-01      9.224121000000000E+00      1.692276000000000E-01     -1.700469000000000E+02
4937000000.000000      6.984253000000000E-01      9.272461000000000E+00      1.653290000000000E-01     -1.699687000000000E+02
4938000000.000000      6.975403000000000E-01      9.236328000000000E+00      1.618576000000000E-01     -1.694766000000000E+02
4939000000.000000      7.003479000000000E-01      9.154297000000000E+00      1.579895000000000E-01     -1.692344000000000E+02
4940000000.000000      6.989441000000000E-01      8.946777000000000E+00      1.547470000000000E-01     -1.689766000000000E+02
4941000000.000000      7.029724000000000E-01      8.706543000000000E+00      1.509247000000000E-01     -1.683750000000000E+02
4942000000.000000      6.991577000000000E-01      8.853516000000000E+00      1.475143000000000E-01     -1.679844000000000E+02
4943000000.000000      7.034302000000000E-01      8.821777000000000E+00      1.440353000000000E-01     -1.673203000000000E+02
4944000000.000000      7.007751000000000E-01      8.499023000000000E+00      1.410980000000000E-01     -1.666641000000000E+02
4945000000.000000      7.033081000000000E-01      8.436035000000000E+00      1.372223000000000E-01     -1.660781000000000E+02
4946000000.000000      7.024231000000000E-01      8.414063000000000E+00      1.342316000000000E-01     -1.653437000000000E+02
4947000000.000000      7.031860000000000E-01      8.277832000000000E+00      1.312103000000000E-01     -1.643516000000000E+02
4948000000.000000      7.042542000000000E-01      8.261719000000000E+00      1.283646000000000E-01     -1.635703000000000E+02
4949000000.000000      7.041626000000000E-01      8.047363000000000E+00      1.259003000000000E-01     -1.621328000000000E+02
4950000000.000000      7.055664000000000E-01      8.113281000000000E+00      1.226196000000000E-01     -1.612734000000000E+02
4951000000.000000      7.067566000000000E-01      7.914063000000000E+00      1.207924000000000E-01     -1.600859000000000E+02
4952000000.000000      7.058411000000000E-01      7.628418000000000E+00      1.174240000000000E-01     -1.589922000000000E+02
4953000000.000000      7.071838000000000E-01      7.791992000000000E+00      1.158867000000000E-01     -1.574453000000000E+02
4954000000.000000      7.061157000000000E-01      7.627197000000000E+00      1.134415000000000E-01     -1.560156000000000E+02
