! Network Analyzer HP8722D
! Hewlett-Packard
! Data name: Linha & Wilkinson
! Saver's name: Rodrigo Anjos
! Comments: Teste da utilização de aquisição
continua pelo VNA HP8722D
! Time and date: 22/5/2025 09:57
!              Frequency                     S11                                                   S21                                                   S12                                                   S22
# HZ  S  MA R 50
4800000000.000000      6.477356000000000E-01      1.046582000000000E+01      4.739532000000000E-01     -9.368359000000000E+01
4801000000.000000      6.439819000000000E-01      1.060840000000000E+01      4.759674000000000E-01     -9.449610000000000E+01
4802000000.000000      6.439514000000000E-01      1.035986000000000E+01      4.768829000000000E-01     -9.513672000000000E+01
4803000000.000000      6.401978000000000E-01      1.032715000000000E+01      4.812927000000000E-01     -9.579296000000000E+01
4804000000.000000      6.391602000000000E-01      1.047510000000000E+01      4.806213000000000E-01     -9.656639000000000E+01
4805000000.000000      6.404114000000000E-01      1.045898000000000E+01      4.829407000000000E-01     -9.744141000000000E+01
4806000000.000000      6.354675000000000E-01      1.032568000000000E+01      4.849854000000000E-01     -9.823046000000000E+01
4807000000.000000      6.335754000000000E-01      1.037207000000000E+01      4.854279000000000E-01     -9.920702000000000E+01
4808000000.000000      6.318665000000000E-01      1.049023000000000E+01      4.877167000000000E-01     -9.977343000000000E+01
4809000000.000000      6.327209000000000E-01      1.056055000000000E+01      4.897003000000000E-01     -1.006406000000000E+02
4810000000.000000      6.318359000000000E-01      1.055908000000000E+01      4.903870000000000E-01     -1.011875000000000E+02
4811000000.000000      6.284790000000000E-01      1.072510000000000E+01      4.921722000000000E-01     -1.020430000000000E+02
4812000000.000000      6.303711000000000E-01      1.080078000000000E+01      4.924469000000000E-01     -1.028437000000000E+02
4813000000.000000      6.268005000000000E-01      1.075146000000000E+01      4.927368000000000E-01     -1.035312000000000E+02
4814000000.000000      6.254883000000000E-01      1.070605000000000E+01      4.944458000000000E-01     -1.042148000000000E+02
4815000000.000000      6.236877000000000E-01      1.082959000000000E+01      4.943695000000000E-01     -1.051289000000000E+02
4816000000.000000      6.228943000000000E-01      1.078027000000000E+01      4.976196000000000E-01     -1.058555000000000E+02
4817000000.000000      6.209106000000000E-01      1.101514000000000E+01      4.970856000000000E-01     -1.067188000000000E+02
4818000000.000000      6.217651000000000E-01      1.106299000000000E+01      4.971771000000000E-01     -1.072852000000000E+02
4819000000.000000      6.209717000000000E-01      1.115771000000000E+01      4.969482000000000E-01     -1.081055000000000E+02
4820000000.000000      6.176147000000000E-01      1.136914000000000E+01      4.996490000000000E-01     -1.087930000000000E+02
4821000000.000000      6.168823000000000E-01      1.134717000000000E+01      4.981689000000000E-01     -1.096680000000000E+02
4822000000.000000      6.165771000000000E-01      1.138037000000000E+01      4.983826000000000E-01     -1.103789000000000E+02
4823000000.000000      6.177368000000000E-01      1.151758000000000E+01      4.997406000000000E-01     -1.111445000000000E+02
4824000000.000000      6.156006000000000E-01      1.163721000000000E+01      4.993286000000000E-01     -1.118789000000000E+02
4825000000.000000      6.141357000000000E-01      1.167529000000000E+01      4.993134000000000E-01     -1.126484000000000E+02
4826000000.000000      6.137695000000000E-01      1.181006000000000E+01      4.989471000000000E-01     -1.134101000000000E+02
4827000000.000000      6.129150000000000E-01      1.187744000000000E+01      4.994812000000000E-01     -1.141016000000000E+02
4828000000.000000      6.119690000000000E-01      1.198047000000000E+01      5.000916000000000E-01     -1.149531000000000E+02
4829000000.000000      6.122742000000000E-01      1.229053000000000E+01      5.008850000000000E-01     -1.154180000000000E+02
4830000000.000000      6.119995000000000E-01      1.209717000000000E+01      4.992981000000000E-01     -1.165820000000000E+02
4831000000.000000      6.114807000000000E-01      1.240039000000000E+01      5.000000000000000E-01     -1.173203000000000E+02
4832000000.000000      6.118774000000000E-01      1.269043000000000E+01      4.999084000000000E-01     -1.178359000000000E+02
4833000000.000000      6.105957000000000E-01      1.266406000000000E+01      4.996338000000000E-01     -1.184648000000000E+02
4834000000.000000      6.108093000000000E-01      1.255713000000000E+01      4.994812000000000E-01     -1.194180000000000E+02
4835000000.000000      6.125793000000000E-01      1.269287000000000E+01      4.985962000000000E-01     -1.203164000000000E+02
4836000000.000000      6.109924000000000E-01      1.301465000000000E+01      4.993134000000000E-01     -1.210976000000000E+02
4837000000.000000      6.115112000000000E-01      1.293213000000000E+01      4.960785000000000E-01     -1.219609000000000E+02
4838000000.000000      6.109619000000000E-01      1.312549000000000E+01      4.970703000000000E-01     -1.224180000000000E+02
4839000000.000000      6.157837000000000E-01      1.339502000000000E+01      4.970703000000000E-01     -1.232344000000000E+02
4840000000.000000      6.137390000000000E-01      1.324805000000000E+01      4.973907000000000E-01     -1.241836000000000E+02
4841000000.000000      6.137085000000000E-01      1.344141000000000E+01      4.958801000000000E-01     -1.249375000000000E+02
4842000000.000000      6.131897000000000E-01      1.363379000000000E+01      4.946899000000000E-01     -1.257617000000000E+02
4843000000.000000      6.162109000000000E-01      1.356250000000000E+01      4.939728000000000E-01     -1.265234000000000E+02
4844000000.000000      6.155396000000000E-01      1.364502000000000E+01      4.923706000000000E-01     -1.274805000000000E+02
4845000000.000000      6.178589000000000E-01      1.383838000000000E+01      4.918823000000000E-01     -1.282422000000000E+02
4846000000.000000      6.190796000000000E-01      1.384668000000000E+01      4.911194000000000E-01     -1.291641000000000E+02
4847000000.000000      6.210327000000000E-01      1.392480000000000E+01      4.893188000000000E-01     -1.298125000000000E+02
4848000000.000000      6.207275000000000E-01      1.395654000000000E+01      4.874115000000000E-01     -1.305156000000000E+02
4849000000.000000      6.212158000000000E-01      1.405273000000000E+01      4.859161000000000E-01     -1.315156000000000E+02
4850000000.000000      6.214294000000000E-01      1.404150000000000E+01      4.846497000000000E-01     -1.323516000000000E+02
4851000000.000000      6.221619000000000E-01      1.428223000000000E+01      4.844360000000000E-01     -1.333594000000000E+02
4852000000.000000      6.232300000000000E-01      1.416797000000000E+01      4.810333000000000E-01     -1.341094000000000E+02
4853000000.000000      6.253662000000000E-01      1.437793000000000E+01      4.769897000000000E-01     -1.349453000000000E+02
4854000000.000000      6.261902000000000E-01      1.436426000000000E+01      4.753113000000000E-01     -1.357500000000000E+02
4855000000.000000      6.274414000000000E-01      1.435205000000000E+01      4.742737000000000E-01     -1.367500000000000E+02
4856000000.000000      6.272583000000000E-01      1.436035000000000E+01      4.718475000000000E-01     -1.377031000000000E+02
4857000000.000000      6.284485000000000E-01      1.451270000000000E+01      4.685059000000000E-01     -1.382266000000000E+02
4858000000.000000      6.280823000000000E-01      1.444971000000000E+01      4.661102000000000E-01     -1.392812000000000E+02
4859000000.000000      6.316833000000000E-01      1.434814000000000E+01      4.641876000000000E-01     -1.400781000000000E+02
4860000000.000000      6.322327000000000E-01      1.452100000000000E+01      4.600372000000000E-01     -1.408594000000000E+02
4861000000.000000      6.325989000000000E-01      1.465820000000000E+01      4.557953000000000E-01     -1.420000000000000E+02
4862000000.000000      6.315918000000000E-01      1.467773000000000E+01      4.542542000000000E-01     -1.424609000000000E+02
4863000000.000000      6.366272000000000E-01      1.451563000000000E+01      4.494476000000000E-01     -1.433047000000000E+02
4864000000.000000      6.368103000000000E-01      1.464990000000000E+01      4.461212000000000E-01     -1.440469000000000E+02
4865000000.000000      6.379700000000000E-01      1.448096000000000E+01      4.425507000000000E-01     -1.447656000000000E+02
4866000000.000000      6.397400000000000E-01      1.435889000000000E+01      4.383850000000000E-01     -1.457891000000000E+02
4867000000.000000      6.386414000000000E-01      1.442871000000000E+01      4.342651000000000E-01     -1.465859000000000E+02
4868000000.000000      6.430359000000000E-01      1.443701000000000E+01      4.309387000000000E-01     -1.471250000000000E+02
4869000000.000000      6.425781000000000E-01      1.447412000000000E+01      4.271698000000000E-01     -1.480234000000000E+02
4870000000.000000      6.443176000000000E-01      1.460449000000000E+01      4.229736000000000E-01     -1.486328000000000E+02
4871000000.000000      6.471863000000000E-01      1.434814000000000E+01      4.191132000000000E-01     -1.494922000000000E+02
4872000000.000000      6.470642000000000E-01      1.440967000000000E+01      4.131012000000000E-01     -1.499453000000000E+02
4873000000.000000      6.488342000000000E-01      1.443994000000000E+01      4.095612000000000E-01     -1.508594000000000E+02
4874000000.000000      6.480408000000000E-01      1.436426000000000E+01      4.045563000000000E-01     -1.515469000000000E+02
4875000000.000000      6.515198000000000E-01      1.425439000000000E+01      4.000397000000000E-01     -1.522891000000000E+02
4876000000.000000      6.524963000000000E-01      1.436035000000000E+01      3.968658000000000E-01     -1.527422000000000E+02
4877000000.000000      6.538086000000000E-01      1.410205000000000E+01      3.922882000000000E-01     -1.533437000000000E+02
4878000000.000000      6.536560000000000E-01      1.427930000000000E+01      3.875580000000000E-01     -1.541875000000000E+02
4879000000.000000      6.572571000000000E-01      1.407617000000000E+01      3.825378000000000E-01     -1.546562000000000E+02
4880000000.000000      6.596069000000000E-01      1.403760000000000E+01      3.780365000000000E-01     -1.552344000000000E+02
4881000000.000000      6.576538000000000E-01      1.393311000000000E+01      3.750763000000000E-01     -1.556562000000000E+02
4882000000.000000      6.601563000000000E-01      1.402246000000000E+01      3.699188000000000E-01     -1.564609000000000E+02
4883000000.000000      6.608276000000000E-01      1.384277000000000E+01      3.646698000000000E-01     -1.568125000000000E+02
4884000000.000000      6.629333000000000E-01      1.390283000000000E+01      3.614197000000000E-01     -1.573047000000000E+02
4885000000.000000      6.641846000000000E-01      1.382764000000000E+01      3.570251000000000E-01     -1.576094000000000E+02
4886000000.000000      6.651611000000000E-01      1.369824000000000E+01      3.525238000000000E-01     -1.581953000000000E+02
4887000000.000000      6.652222000000000E-01      1.367627000000000E+01      3.491364000000000E-01     -1.586094000000000E+02
4888000000.000000      6.643677000000000E-01      1.339355000000000E+01      3.447571000000000E-01     -1.593437000000000E+02
4889000000.000000      6.650085000000000E-01      1.327002000000000E+01      3.397675000000000E-01     -1.594609000000000E+02
4890000000.000000      6.679688000000000E-01      1.325732000000000E+01      3.359528000000000E-01     -1.602500000000000E+02
4891000000.000000      6.701050000000000E-01      1.324805000000000E+01      3.319550000000000E-01     -1.605937000000000E+02
4892000000.000000      6.684875000000000E-01      1.305859000000000E+01      3.279419000000000E-01     -1.608203000000000E+02
4893000000.000000      6.719971000000000E-01      1.306543000000000E+01      3.239746000000000E-01     -1.614609000000000E+02
4894000000.000000      6.723938000000000E-01      1.296094000000000E+01      3.198242000000000E-01     -1.617031000000000E+02
4895000000.000000      6.752930000000000E-01      1.283301000000000E+01      3.168793000000000E-01     -1.620391000000000E+02
4896000000.000000      6.733093000000000E-01      1.269043000000000E+01      3.119659000000000E-01     -1.624375000000000E+02
4897000000.000000      6.748962000000000E-01      1.282617000000000E+01      3.077393000000000E-01     -1.627656000000000E+02
4898000000.000000      6.765137000000000E-01      1.252539000000000E+01      3.053131000000000E-01     -1.630000000000000E+02
4899000000.000000      6.776428000000000E-01      1.248047000000000E+01      3.009186000000000E-01     -1.635547000000000E+02
4900000000.000000      6.766968000000000E-01      1.235254000000000E+01      2.968750000000000E-01     -1.636953000000000E+02
4901000000.000000      6.787720000000000E-01      1.221924000000000E+01      2.939301000000000E-01     -1.640781000000000E+02
4902000000.000000      6.787415000000000E-01      1.218750000000000E+01      2.906036000000000E-01     -1.643437000000000E+02
4903000000.000000      6.794434000000000E-01      1.224951000000000E+01      2.859497000000000E-01     -1.646953000000000E+02
4904000000.000000      6.801758000000000E-01      1.187598000000000E+01      2.828979000000000E-01     -1.651250000000000E+02
4905000000.000000      6.814575000000000E-01      1.176611000000000E+01      2.799988000000000E-01     -1.653828000000000E+02
4906000000.000000      6.790771000000000E-01      1.168213000000000E+01      2.759705000000000E-01     -1.656016000000000E+02
4907000000.000000      6.817627000000000E-01      1.178955000000000E+01      2.728882000000000E-01     -1.660234000000000E+02
4908000000.000000      6.836243000000000E-01      1.151465000000000E+01      2.697296000000000E-01     -1.664922000000000E+02
4909000000.000000      6.849976000000000E-01      1.144482000000000E+01      2.657166000000000E-01     -1.666406000000000E+02
4910000000.000000      6.827087000000000E-01      1.140771000000000E+01      2.625427000000000E-01     -1.669609000000000E+02
4911000000.000000      6.843262000000000E-01      1.144043000000000E+01      2.590179000000000E-01     -1.671641000000000E+02
4912000000.000000      6.857300000000000E-01      1.120020000000000E+01      2.553406000000000E-01     -1.675547000000000E+02
4913000000.000000      6.844788000000000E-01      1.122363000000000E+01      2.514343000000000E-01     -1.678125000000000E+02
4914000000.000000      6.878357000000000E-01      1.087061000000000E+01      2.479019000000000E-01     -1.679141000000000E+02
4915000000.000000      6.893311000000000E-01      1.100391000000000E+01      2.447739000000000E-01     -1.683594000000000E+02
4916000000.000000      6.880188000000000E-01      1.070068000000000E+01      2.411194000000000E-01     -1.687969000000000E+02
4917000000.000000      6.878967000000000E-01      1.069092000000000E+01      2.373581000000000E-01     -1.688125000000000E+02
4918000000.000000      6.888428000000000E-01      1.055225000000000E+01      2.335510000000000E-01     -1.692266000000000E+02
4919000000.000000      6.878967000000000E-01      1.055371000000000E+01      2.302628000000000E-01     -1.691719000000000E+02
4920000000.000000      6.906128000000000E-01      1.035986000000000E+01      2.265244000000000E-01     -1.696484000000000E+02
4921000000.000000      6.912842000000000E-01      1.044775000000000E+01      2.229462000000000E-01     -1.696797000000000E+02
4922000000.000000      6.906433000000000E-01      1.010742000000000E+01      2.197723000000000E-01     -1.698516000000000E+02
4923000000.000000      6.900024000000000E-01      1.011133000000000E+01      2.153397000000000E-01     -1.700234000000000E+02
4924000000.000000      6.914978000000000E-01      1.001221000000000E+01      2.120132000000000E-01     -1.703672000000000E+02
4925000000.000000      6.911621000000000E-01      9.829590000000000E+00      2.079773000000000E-01     -1.704531000000000E+02
4926000000.000000      6.931458000000000E-01      1.006348000000000E+01      2.040710000000000E-01     -1.705547000000000E+02
4927000000.000000      6.933594000000000E-01      9.780273000000000E+00      2.004318000000000E-01     -1.706719000000000E+02
4928000000.000000      6.929321000000000E-01      9.550781000000000E+00      1.970825000000000E-01     -1.706094000000000E+02
4929000000.000000      6.933289000000000E-01      9.574219000000000E+00      1.926956000000000E-01     -1.705859000000000E+02
4930000000.000000      6.959229000000000E-01      9.484863000000000E+00      1.892471000000000E-01     -1.706250000000000E+02
4931000000.000000      6.956482000000000E-01      9.365723000000000E+00      1.861496000000000E-01     -1.708594000000000E+02
4932000000.000000      6.957397000000000E-01      9.465820000000000E+00      1.826096000000000E-01     -1.706719000000000E+02
4933000000.000000      6.967773000000000E-01      9.136230000000000E+00      1.777954000000000E-01     -1.704375000000000E+02
4934000000.000000      6.973267000000000E-01      9.140625000000000E+00      1.746368000000000E-01     -1.704062000000000E+02
4935000000.000000      6.985474000000000E-01      8.949707000000000E+00      1.712723000000000E-01     -1.701953000000000E+02
4936000000.000000      6.931458000000000E-01      8.858887000000000E+00      1.668930000000000E-01     -1.699062000000000E+02
4937000000.000000      6.980896000000000E-01      8.732422000000000E+00      1.635971000000000E-01     -1.697891000000000E+02
4938000000.000000      6.972961000000000E-01      8.887695000000000E+00      1.602402000000000E-01     -1.694531000000000E+02
4939000000.000000      6.987000000000000E-01      8.615723000000000E+00      1.564102000000000E-01     -1.690547000000000E+02
4940000000.000000      6.985779000000000E-01      8.478516000000000E+00      1.527023000000000E-01     -1.688359000000000E+02
4941000000.000000      7.007446000000000E-01      8.411133000000000E+00      1.494064000000000E-01     -1.680391000000000E+02
4942000000.000000      7.003479000000000E-01      8.368652000000000E+00      1.460876000000000E-01     -1.675390000000000E+02
4943000000.000000      7.015991000000000E-01      8.157227000000000E+00      1.429443000000000E-01     -1.669062000000000E+02
4944000000.000000      7.030640000000000E-01      8.096680000000000E+00      1.391144000000000E-01     -1.662578000000000E+02
4945000000.000000      7.021179000000000E-01      7.947021000000000E+00      1.361313000000000E-01     -1.655859000000000E+02
4946000000.000000      7.043457000000000E-01      7.911377000000000E+00      1.333771000000000E-01     -1.647891000000000E+02
4947000000.000000      7.033081000000000E-01      7.761719000000000E+00      1.299286000000000E-01     -1.637734000000000E+02
4948000000.000000      7.032166000000000E-01      7.677979000000000E+00      1.271820000000000E-01     -1.627969000000000E+02
4949000000.000000      7.030029000000000E-01      7.555664000000000E+00      1.243172000000000E-01     -1.614531000000000E+02
4950000000.000000      7.045593000000000E-01      7.510498000000000E+00      1.220665000000000E-01     -1.605234000000000E+02
4951000000.000000      7.043152000000000E-01      7.437744000000000E+00      1.193619000000000E-01     -1.593359000000000E+02
4952000000.000000      7.030029000000000E-01      7.177979000000000E+00      1.171417000000000E-01     -1.579453000000000E+02
4953000000.000000      7.042236000000000E-01      7.229004000000000E+00      1.150780000000000E-01     -1.563828000000000E+02
4954000000.000000      7.078247000000000E-01      7.009277000000000E+00      1.132584000000000E-01     -1.550156000000000E+02
