! Network Analyzer HP8722D
! Hewlett-Packard
! Data name: Linha & Wilkinson
! Saver's name: Rodrigo Anjos
! Comments: Teste da utilização de aquisição
continua pelo VNA HP8722D
! Time and date: 22/5/2025 10:31
!              Frequency                     S11                                                   S21                                                   S12                                                   S22
# HZ  S  MA R 50
4800000000.000000      6.471863000000000E-01      1.045898000000000E+01      4.762726000000000E-01     -9.378124000000000E+01
4801000000.000000      6.445923000000000E-01      1.058936000000000E+01      4.743042000000000E-01     -9.439062000000000E+01
4802000000.000000      6.436462000000000E-01      1.049707000000000E+01      4.783783000000000E-01     -9.521875000000000E+01
4803000000.000000      6.411133000000000E-01      1.046973000000000E+01      4.814758000000000E-01     -9.589062000000000E+01
4804000000.000000      6.401062000000000E-01      1.052881000000000E+01      4.831696000000000E-01     -9.665625000000000E+01
4805000000.000000      6.393433000000000E-01      1.028174000000000E+01      4.844360000000000E-01     -9.741405000000000E+01
4806000000.000000      6.370850000000000E-01      1.065234000000000E+01      4.849701000000000E-01     -9.826172000000000E+01
4807000000.000000      6.348572000000000E-01      1.045752000000000E+01      4.871521000000000E-01     -9.910545000000000E+01
4808000000.000000      6.330261000000000E-01      1.054932000000000E+01      4.860535000000000E-01     -9.956249000000000E+01
4809000000.000000      6.329041000000000E-01      1.066211000000000E+01      4.873657000000000E-01     -1.005000000000000E+02
4810000000.000000      6.311646000000000E-01      1.072266000000000E+01      4.923096000000000E-01     -1.011680000000000E+02
4811000000.000000      6.274719000000000E-01      1.082520000000000E+01      4.906158000000000E-01     -1.021406000000000E+02
4812000000.000000      6.296692000000000E-01      1.080078000000000E+01      4.925995000000000E-01     -1.029102000000000E+02
4813000000.000000      6.275330000000000E-01      1.091455000000000E+01      4.927216000000000E-01     -1.036914000000000E+02
4814000000.000000      6.255493000000000E-01      1.085303000000000E+01      4.942322000000000E-01     -1.043789000000000E+02
4815000000.000000      6.242981000000000E-01      1.102881000000000E+01      4.948425000000000E-01     -1.050625000000000E+02
4816000000.000000      6.220703000000000E-01      1.102881000000000E+01      4.962158000000000E-01     -1.059297000000000E+02
4817000000.000000      6.226807000000000E-01      1.116748000000000E+01      4.975128000000000E-01     -1.064180000000000E+02
4818000000.000000      6.199341000000000E-01      1.119336000000000E+01      4.974213000000000E-01     -1.073047000000000E+02
4819000000.000000      6.196289000000000E-01      1.137891000000000E+01      4.974518000000000E-01     -1.080781000000000E+02
4820000000.000000      6.173096000000000E-01      1.127734000000000E+01      4.987793000000000E-01     -1.087812000000000E+02
4821000000.000000      6.180420000000000E-01      1.152051000000000E+01      4.986725000000000E-01     -1.096914000000000E+02
4822000000.000000      6.160583000000000E-01      1.150928000000000E+01      4.968262000000000E-01     -1.103047000000000E+02
4823000000.000000      6.153259000000000E-01      1.170166000000000E+01      4.986267000000000E-01     -1.110234000000000E+02
4824000000.000000      6.136780000000000E-01      1.183594000000000E+01      4.968719000000000E-01     -1.118281000000000E+02
4825000000.000000      6.129150000000000E-01      1.168213000000000E+01      4.987640000000000E-01     -1.123516000000000E+02
4826000000.000000      6.135254000000000E-01      1.201074000000000E+01      5.006409000000000E-01     -1.134648000000000E+02
4827000000.000000      6.137695000000000E-01      1.192676000000000E+01      4.996033000000000E-01     -1.139297000000000E+02
4828000000.000000      6.142578000000000E-01      1.214111000000000E+01      5.006104000000000E-01     -1.149726000000000E+02
4829000000.000000      6.117859000000000E-01      1.236230000000000E+01      4.993744000000000E-01     -1.156289000000000E+02
4830000000.000000      6.139221000000000E-01      1.232666000000000E+01      5.009155000000000E-01     -1.163164000000000E+02
4831000000.000000      6.113281000000000E-01      1.256689000000000E+01      5.004272000000000E-01     -1.171406000000000E+02
4832000000.000000      6.124268000000000E-01      1.266992000000000E+01      4.990082000000000E-01     -1.177461000000000E+02
4833000000.000000      6.116638000000000E-01      1.271484000000000E+01      4.988098000000000E-01     -1.186875000000000E+02
4834000000.000000      6.105957000000000E-01      1.277002000000000E+01      5.004883000000000E-01     -1.193750000000000E+02
4835000000.000000      6.125183000000000E-01      1.291699000000000E+01      4.997253000000000E-01     -1.202070000000000E+02
4836000000.000000      6.125793000000000E-01      1.313818000000000E+01      4.990387000000000E-01     -1.210156000000000E+02
4837000000.000000      6.134338000000000E-01      1.314209000000000E+01      4.976959000000000E-01     -1.218594000000000E+02
4838000000.000000      6.130371000000000E-01      1.331543000000000E+01      4.982910000000000E-01     -1.223867000000000E+02
4839000000.000000      6.151123000000000E-01      1.336035000000000E+01      4.976654000000000E-01     -1.232617000000000E+02
4840000000.000000      6.138611000000000E-01      1.335352000000000E+01      4.986877000000000E-01     -1.238711000000000E+02
4841000000.000000      6.158447000000000E-01      1.364746000000000E+01      4.967041000000000E-01     -1.250117000000000E+02
4842000000.000000      6.169434000000000E-01      1.367920000000000E+01      4.954071000000000E-01     -1.256133000000000E+02
4843000000.000000      6.181030000000000E-01      1.378906000000000E+01      4.953308000000000E-01     -1.265273000000000E+02
4844000000.000000      6.170959000000000E-01      1.391650000000000E+01      4.927673000000000E-01     -1.274570000000000E+02
4845000000.000000      6.156311000000000E-01      1.391113000000000E+01      4.921417000000000E-01     -1.280937000000000E+02
4846000000.000000      6.200562000000000E-01      1.389893000000000E+01      4.912262000000000E-01     -1.290469000000000E+02
4847000000.000000      6.195374000000000E-01      1.397314000000000E+01      4.891357000000000E-01     -1.298125000000000E+02
4848000000.000000      6.189270000000000E-01      1.414307000000000E+01      4.867859000000000E-01     -1.306015000000000E+02
4849000000.000000      6.206360000000000E-01      1.402637000000000E+01      4.858246000000000E-01     -1.314531000000000E+02
4850000000.000000      6.213989000000000E-01      1.406934000000000E+01      4.842072000000000E-01     -1.324922000000000E+02
4851000000.000000      6.229858000000000E-01      1.435352000000000E+01      4.836121000000000E-01     -1.332031000000000E+02
4852000000.000000      6.239319000000000E-01      1.426123000000000E+01      4.808807000000000E-01     -1.339609000000000E+02
4853000000.000000      6.247864000000000E-01      1.454688000000000E+01      4.775085000000000E-01     -1.348438000000000E+02
4854000000.000000      6.246033000000000E-01      1.452393000000000E+01      4.743042000000000E-01     -1.358203000000000E+02
4855000000.000000      6.255493000000000E-01      1.448682000000000E+01      4.745941000000000E-01     -1.368203000000000E+02
4856000000.000000      6.264648000000000E-01      1.455957000000000E+01      4.710693000000000E-01     -1.375313000000000E+02
4857000000.000000      6.296082000000000E-01      1.460059000000000E+01      4.687805000000000E-01     -1.383047000000000E+02
4858000000.000000      6.276855000000000E-01      1.445215000000000E+01      4.660797000000000E-01     -1.390547000000000E+02
4859000000.000000      6.308594000000000E-01      1.453320000000000E+01      4.638062000000000E-01     -1.400703000000000E+02
4860000000.000000      6.314087000000000E-01      1.453174000000000E+01      4.601288000000000E-01     -1.407891000000000E+02
4861000000.000000      6.332397000000000E-01      1.454980000000000E+01      4.557343000000000E-01     -1.416406000000000E+02
4862000000.000000      6.337891000000000E-01      1.459375000000000E+01      4.541931000000000E-01     -1.423984000000000E+02
4863000000.000000      6.357117000000000E-01      1.452783000000000E+01      4.487915000000000E-01     -1.433672000000000E+02
4864000000.000000      6.366577000000000E-01      1.477637000000000E+01      4.466705000000000E-01     -1.440703000000000E+02
4865000000.000000      6.376343000000000E-01      1.455127000000000E+01      4.428711000000000E-01     -1.448516000000000E+02
4866000000.000000      6.412659000000000E-01      1.452930000000000E+01      4.380188000000000E-01     -1.456719000000000E+02
4867000000.000000      6.392822000000000E-01      1.454150000000000E+01      4.352875000000000E-01     -1.465469000000000E+02
4868000000.000000      6.418152000000000E-01      1.458154000000000E+01      4.298553000000000E-01     -1.470469000000000E+02
4869000000.000000      6.425476000000000E-01      1.457178000000000E+01      4.265442000000000E-01     -1.480078000000000E+02
4870000000.000000      6.438599000000000E-01      1.457324000000000E+01      4.228210000000000E-01     -1.486406000000000E+02
4871000000.000000      6.447754000000000E-01      1.438623000000000E+01      4.169464000000000E-01     -1.493125000000000E+02
4872000000.000000      6.463623000000000E-01      1.442627000000000E+01      4.149780000000000E-01     -1.500313000000000E+02
4873000000.000000      6.472778000000000E-01      1.436279000000000E+01      4.087982000000000E-01     -1.508828000000000E+02
4874000000.000000      6.478882000000000E-01      1.446582000000000E+01      4.044952000000000E-01     -1.516641000000000E+02
4875000000.000000      6.500244000000000E-01      1.433154000000000E+01      3.999481000000000E-01     -1.521172000000000E+02
4876000000.000000      6.523132000000000E-01      1.450439000000000E+01      3.973694000000000E-01     -1.527969000000000E+02
4877000000.000000      6.545105000000000E-01      1.419531000000000E+01      3.918152000000000E-01     -1.536016000000000E+02
4878000000.000000      6.540833000000000E-01      1.415283000000000E+01      3.886566000000000E-01     -1.540156000000000E+02
4879000000.000000      6.560059000000000E-01      1.414063000000000E+01      3.819885000000000E-01     -1.544219000000000E+02
4880000000.000000      6.565552000000000E-01      1.408008000000000E+01      3.789368000000000E-01     -1.552031000000000E+02
4881000000.000000      6.579285000000000E-01      1.393750000000000E+01      3.745422000000000E-01     -1.555391000000000E+02
4882000000.000000      6.600952000000000E-01      1.387695000000000E+01      3.694916000000000E-01     -1.565469000000000E+02
4883000000.000000      6.605530000000000E-01      1.379590000000000E+01      3.656158000000000E-01     -1.568672000000000E+02
4884000000.000000      6.629944000000000E-01      1.385645000000000E+01      3.612366000000000E-01     -1.573750000000000E+02
4885000000.000000      6.638184000000000E-01      1.378906000000000E+01      3.576660000000000E-01     -1.577969000000000E+02
4886000000.000000      6.633606000000000E-01      1.370117000000000E+01      3.526001000000000E-01     -1.581172000000000E+02
4887000000.000000      6.646729000000000E-01      1.376025000000000E+01      3.491516000000000E-01     -1.586250000000000E+02
4888000000.000000      6.647949000000000E-01      1.355811000000000E+01      3.440399000000000E-01     -1.591016000000000E+02
4889000000.000000      6.684265000000000E-01      1.357080000000000E+01      3.392181000000000E-01     -1.595312000000000E+02
4890000000.000000      6.659241000000000E-01      1.317920000000000E+01      3.356171000000000E-01     -1.601250000000000E+02
4891000000.000000      6.695862000000000E-01      1.315332000000000E+01      3.320770000000000E-01     -1.604375000000000E+02
4892000000.000000      6.691589000000000E-01      1.323828000000000E+01      3.273468000000000E-01     -1.608125000000000E+02
4893000000.000000      6.711426000000000E-01      1.305420000000000E+01      3.235931000000000E-01     -1.612656000000000E+02
4894000000.000000      6.726990000000000E-01      1.290869000000000E+01      3.186188000000000E-01     -1.618125000000000E+02
4895000000.000000      6.737671000000000E-01      1.278809000000000E+01      3.166656000000000E-01     -1.619453000000000E+02
4896000000.000000      6.760559000000000E-01      1.295801000000000E+01      3.121948000000000E-01     -1.623672000000000E+02
4897000000.000000      6.751709000000000E-01      1.262988000000000E+01      3.077545000000000E-01     -1.627344000000000E+02
4898000000.000000      6.774902000000000E-01      1.270020000000000E+01      3.055420000000000E-01     -1.629688000000000E+02
4899000000.000000      6.757813000000000E-01      1.261621000000000E+01      3.008423000000000E-01     -1.635391000000000E+02
4900000000.000000      6.782837000000000E-01      1.242383000000000E+01      2.973785000000000E-01     -1.637578000000000E+02
4901000000.000000      6.784668000000000E-01      1.238428000000000E+01      2.938843000000000E-01     -1.640000000000000E+02
4902000000.000000      6.801147000000000E-01      1.224268000000000E+01      2.904358000000000E-01     -1.641953000000000E+02
4903000000.000000      6.792603000000000E-01      1.226318000000000E+01      2.856903000000000E-01     -1.647187000000000E+02
4904000000.000000      6.822205000000000E-01      1.194482000000000E+01      2.828064000000000E-01     -1.650156000000000E+02
4905000000.000000      6.798096000000000E-01      1.197070000000000E+01      2.794037000000000E-01     -1.654844000000000E+02
4906000000.000000      6.807861000000000E-01      1.193115000000000E+01      2.753906000000000E-01     -1.654219000000000E+02
4907000000.000000      6.837158000000000E-01      1.167969000000000E+01      2.728119000000000E-01     -1.660781000000000E+02
4908000000.000000      6.844482000000000E-01      1.176318000000000E+01      2.696075000000000E-01     -1.664297000000000E+02
4909000000.000000      6.833496000000000E-01      1.168652000000000E+01      2.651978000000000E-01     -1.666563000000000E+02
4910000000.000000      6.840210000000000E-01      1.141992000000000E+01      2.617798000000000E-01     -1.668047000000000E+02
4911000000.000000      6.846008000000000E-01      1.154248000000000E+01      2.589722000000000E-01     -1.671250000000000E+02
4912000000.000000      6.854248000000000E-01      1.148193000000000E+01      2.545624000000000E-01     -1.674297000000000E+02
4913000000.000000      6.870728000000000E-01      1.123193000000000E+01      2.516785000000000E-01     -1.678281000000000E+02
4914000000.000000      6.869812000000000E-01      1.110010000000000E+01      2.482224000000000E-01     -1.679688000000000E+02
4915000000.000000      6.879578000000000E-01      1.116602000000000E+01      2.443085000000000E-01     -1.683984000000000E+02
4916000000.000000      6.879883000000000E-01      1.081152000000000E+01      2.405167000000000E-01     -1.686406000000000E+02
4917000000.000000      6.902161000000000E-01      1.073486000000000E+01      2.370529000000000E-01     -1.688594000000000E+02
4918000000.000000      6.887817000000000E-01      1.062646000000000E+01      2.334290000000000E-01     -1.688516000000000E+02
4919000000.000000      6.881409000000000E-01      1.054785000000000E+01      2.300568000000000E-01     -1.692812000000000E+02
4920000000.000000      6.905823000000000E-01      1.052051000000000E+01      2.262192000000000E-01     -1.696172000000000E+02
4921000000.000000      6.896362000000000E-01      1.036377000000000E+01      2.232742000000000E-01     -1.696797000000000E+02
4922000000.000000      6.925049000000000E-01      1.039551000000000E+01      2.194824000000000E-01     -1.698516000000000E+02
4923000000.000000      6.922913000000000E-01      1.027490000000000E+01      2.159271000000000E-01     -1.700703000000000E+02
4924000000.000000      6.926575000000000E-01      1.011816000000000E+01      2.118225000000000E-01     -1.702969000000000E+02
4925000000.000000      6.908569000000000E-01      9.806641000000000E+00      2.079697000000000E-01     -1.703594000000000E+02
4926000000.000000      6.945190000000000E-01      9.960449000000000E+00      2.045288000000000E-01     -1.705156000000000E+02
4927000000.000000      6.929321000000000E-01      9.799805000000000E+00      2.004623000000000E-01     -1.708125000000000E+02
4928000000.000000      6.950378000000000E-01      9.793945000000000E+00      1.974869000000000E-01     -1.707109000000000E+02
4929000000.000000      6.934204000000000E-01      9.609863000000000E+00      1.924820000000000E-01     -1.706484000000000E+02
4930000000.000000      6.935425000000000E-01      9.629395000000000E+00      1.895065000000000E-01     -1.705781000000000E+02
4931000000.000000      6.924744000000000E-01      9.357422000000000E+00      1.865768000000000E-01     -1.705781000000000E+02
4932000000.000000      6.965332000000000E-01      9.313477000000000E+00      1.820984000000000E-01     -1.706094000000000E+02
4933000000.000000      6.941223000000000E-01      9.281738000000000E+00      1.774979000000000E-01     -1.702734000000000E+02
4934000000.000000      6.971741000000000E-01      9.134766000000000E+00      1.747513000000000E-01     -1.704062000000000E+02
4935000000.000000      6.995850000000000E-01      9.170410000000000E+00      1.711426000000000E-01     -1.699922000000000E+02
4936000000.000000      6.986694000000000E-01      8.955078000000000E+00      1.667328000000000E-01     -1.699297000000000E+02
4937000000.000000      6.981812000000000E-01      8.749023000000000E+00      1.626434000000000E-01     -1.697578000000000E+02
4938000000.000000      6.981812000000000E-01      8.743652000000000E+00      1.596985000000000E-01     -1.692891000000000E+02
4939000000.000000      6.968994000000000E-01      8.813477000000000E+00      1.564407000000000E-01     -1.688750000000000E+02
4940000000.000000      7.004395000000000E-01      8.459473000000000E+00      1.523895000000000E-01     -1.686563000000000E+02
4941000000.000000      7.004395000000000E-01      8.407227000000000E+00      1.494827000000000E-01     -1.680859000000000E+02
4942000000.000000      6.985168000000000E-01      8.354980000000000E+00      1.454086000000000E-01     -1.674453000000000E+02
4943000000.000000      7.005920000000000E-01      8.188477000000000E+00      1.427841000000000E-01     -1.669297000000000E+02
4944000000.000000      7.011108000000000E-01      8.020996000000000E+00      1.396179000000000E-01     -1.661562000000000E+02
4945000000.000000      7.012634000000000E-01      8.076172000000000E+00      1.359177000000000E-01     -1.653984000000000E+02
4946000000.000000      7.008972000000000E-01      8.000488000000000E+00      1.327667000000000E-01     -1.646016000000000E+02
4947000000.000000      7.009583000000000E-01      7.911377000000000E+00      1.294327000000000E-01     -1.636328000000000E+02
4948000000.000000      7.038269000000000E-01      7.693115000000000E+00      1.273117000000000E-01     -1.626328000000000E+02
4949000000.000000      7.028198000000000E-01      7.617432000000000E+00      1.244926000000000E-01     -1.613750000000000E+02
4950000000.000000      7.053833000000000E-01      7.621582000000000E+00      1.214523000000000E-01     -1.602656000000000E+02
4951000000.000000      7.037659000000000E-01      7.401855000000000E+00      1.192551000000000E-01     -1.593750000000000E+02
4952000000.000000      7.051392000000000E-01      7.454102000000000E+00      1.170082000000000E-01     -1.580469000000000E+02
4953000000.000000      7.038574000000000E-01      7.177979000000000E+00      1.150856000000000E-01     -1.562813000000000E+02
4954000000.000000      7.065125000000000E-01      7.286621000000000E+00      1.129684000000000E-01     -1.549219000000000E+02
