! Network Analyzer HP8722D
! Hewlett-Packard
! Data name: Linha & Wilkinson
! Saver's name: Rodrigo Anjos
! Comments: Teste da utilização de aquisição
continua pelo VNA HP8722D
! Time and date: 22/5/2025 09:35
!              Frequency                     S11                                                   S21                                                   S12                                                   S22
# HZ  S  MA R 50
4800000000.000000      6.463623000000000E-01      1.044775000000000E+01      4.743042000000000E-01     -9.397655000000000E+01
4801000000.000000      6.449585000000000E-01      1.048340000000000E+01      4.765320000000000E-01     -9.456249000000000E+01
4802000000.000000      6.440125000000000E-01      1.048877000000000E+01      4.782410000000000E-01     -9.523438000000000E+01
4803000000.000000      6.430054000000000E-01      1.039697000000000E+01      4.814148000000000E-01     -9.589453000000000E+01
4804000000.000000      6.396484000000000E-01      1.051904000000000E+01      4.832611000000000E-01     -9.684765000000000E+01
4805000000.000000      6.403198000000000E-01      1.028320000000000E+01      4.841461000000000E-01     -9.759766000000000E+01
4806000000.000000      6.371460000000000E-01      1.030225000000000E+01      4.853973000000000E-01     -9.823046000000000E+01
4807000000.000000      6.348572000000000E-01      1.038184000000000E+01      4.859009000000000E-01     -9.915234000000000E+01
4808000000.000000      6.322021000000000E-01      1.039160000000000E+01      4.861908000000000E-01     -9.968359000000000E+01
4809000000.000000      6.309814000000000E-01      1.053027000000000E+01      4.895020000000000E-01     -1.005898000000000E+02
4810000000.000000      6.299744000000000E-01      1.044775000000000E+01      4.914398000000000E-01     -1.011641000000000E+02
4811000000.000000      6.284485000000000E-01      1.056152000000000E+01      4.917450000000000E-01     -1.022109000000000E+02
4812000000.000000      6.298218000000000E-01      1.062646000000000E+01      4.925690000000000E-01     -1.028281000000000E+02
4813000000.000000      6.283264000000000E-01      1.081299000000000E+01      4.924622000000000E-01     -1.036406000000000E+02
4814000000.000000      6.250305000000000E-01      1.072510000000000E+01      4.945831000000000E-01     -1.041367000000000E+02
4815000000.000000      6.228943000000000E-01      1.080762000000000E+01      4.953156000000000E-01     -1.050508000000000E+02
4816000000.000000      6.231689000000000E-01      1.094092000000000E+01      4.951630000000000E-01     -1.058906000000000E+02
4817000000.000000      6.203918000000000E-01      1.092139000000000E+01      4.947357000000000E-01     -1.065508000000000E+02
4818000000.000000      6.205750000000000E-01      1.102734000000000E+01      4.961395000000000E-01     -1.072578000000000E+02
4819000000.000000      6.204834000000000E-01      1.090234000000000E+01      4.973145000000000E-01     -1.080976000000000E+02
4820000000.000000      6.184387000000000E-01      1.136523000000000E+01      4.996033000000000E-01     -1.088242000000000E+02
4821000000.000000      6.166077000000000E-01      1.112207000000000E+01      4.995117000000000E-01     -1.096601000000000E+02
4822000000.000000      6.157532000000000E-01      1.131982000000000E+01      4.978638000000000E-01     -1.102500000000000E+02
4823000000.000000      6.149292000000000E-01      1.126465000000000E+01      4.978027000000000E-01     -1.112109000000000E+02
4824000000.000000      6.144714000000000E-01      1.175244000000000E+01      4.992218000000000E-01     -1.119023000000000E+02
4825000000.000000      6.143494000000000E-01      1.176465000000000E+01      4.999237000000000E-01     -1.126250000000000E+02
4826000000.000000      6.137695000000000E-01      1.179932000000000E+01      5.005188000000000E-01     -1.134609000000000E+02
4827000000.000000      6.144409000000000E-01      1.196240000000000E+01      4.991913000000000E-01     -1.141055000000000E+02
4828000000.000000      6.135864000000000E-01      1.200928000000000E+01      5.003052000000000E-01     -1.149883000000000E+02
4829000000.000000      6.134033000000000E-01      1.231934000000000E+01      5.006409000000000E-01     -1.155078000000000E+02
4830000000.000000      6.114807000000000E-01      1.229492000000000E+01      5.006409000000000E-01     -1.164570000000000E+02
4831000000.000000      6.131897000000000E-01      1.230176000000000E+01      5.010376000000000E-01     -1.172539000000000E+02
4832000000.000000      6.121826000000000E-01      1.252002000000000E+01      4.997101000000000E-01     -1.179492000000000E+02
4833000000.000000      6.108093000000000E-01      1.247217000000000E+01      4.993896000000000E-01     -1.184375000000000E+02
4834000000.000000      6.094971000000000E-01      1.259717000000000E+01      4.989166000000000E-01     -1.195156000000000E+02
4835000000.000000      6.110840000000000E-01      1.276172000000000E+01      5.000305000000000E-01     -1.201133000000000E+02
4836000000.000000      6.128235000000000E-01      1.291553000000000E+01      4.990387000000000E-01     -1.208867000000000E+02
4837000000.000000      6.119385000000000E-01      1.315576000000000E+01      4.979248000000000E-01     -1.219258000000000E+02
4838000000.000000      6.109314000000000E-01      1.310352000000000E+01      4.971466000000000E-01     -1.223789000000000E+02
4839000000.000000      6.165466000000000E-01      1.326172000000000E+01      4.969482000000000E-01     -1.233125000000000E+02
4840000000.000000      6.143188000000000E-01      1.329883000000000E+01      4.975433000000000E-01     -1.241914000000000E+02
4841000000.000000      6.138916000000000E-01      1.352246000000000E+01      4.969635000000000E-01     -1.250000000000000E+02
4842000000.000000      6.154785000000000E-01      1.343994000000000E+01      4.949646000000000E-01     -1.256055000000000E+02
4843000000.000000      6.184998000000000E-01      1.353369000000000E+01      4.958954000000000E-01     -1.266367000000000E+02
4844000000.000000      6.160278000000000E-01      1.373682000000000E+01      4.939728000000000E-01     -1.274961000000000E+02
4845000000.000000      6.172791000000000E-01      1.385059000000000E+01      4.924316000000000E-01     -1.280625000000000E+02
4846000000.000000      6.164856000000000E-01      1.380273000000000E+01      4.903870000000000E-01     -1.289844000000000E+02
4847000000.000000      6.181946000000000E-01      1.396191000000000E+01      4.910278000000000E-01     -1.299766000000000E+02
4848000000.000000      6.188049000000000E-01      1.392773000000000E+01      4.881134000000000E-01     -1.306875000000000E+02
4849000000.000000      6.191406000000000E-01      1.398926000000000E+01      4.866486000000000E-01     -1.314453000000000E+02
4850000000.000000      6.208801000000000E-01      1.407178000000000E+01      4.841461000000000E-01     -1.324531000000000E+02
4851000000.000000      6.229553000000000E-01      1.425879000000000E+01      4.828644000000000E-01     -1.332344000000000E+02
4852000000.000000      6.224670000000000E-01      1.453320000000000E+01      4.802246000000000E-01     -1.341641000000000E+02
4853000000.000000      6.235046000000000E-01      1.426807000000000E+01      4.781647000000000E-01     -1.348281000000000E+02
4854000000.000000      6.250000000000000E-01      1.432031000000000E+01      4.753113000000000E-01     -1.358906000000000E+02
4855000000.000000      6.269531000000000E-01      1.432617000000000E+01      4.747772000000000E-01     -1.367344000000000E+02
4856000000.000000      6.261292000000000E-01      1.445215000000000E+01      4.712067000000000E-01     -1.374766000000000E+02
4857000000.000000      6.293030000000000E-01      1.455957000000000E+01      4.706421000000000E-01     -1.382656000000000E+02
4858000000.000000      6.304016000000000E-01      1.435596000000000E+01      4.662628000000000E-01     -1.392109000000000E+02
4859000000.000000      6.312256000000000E-01      1.440576000000000E+01      4.638214000000000E-01     -1.400078000000000E+02
4860000000.000000      6.309509000000000E-01      1.443994000000000E+01      4.595337000000000E-01     -1.409375000000000E+02
4861000000.000000      6.330566000000000E-01      1.446729000000000E+01      4.568787000000000E-01     -1.417891000000000E+02
4862000000.000000      6.328430000000000E-01      1.452637000000000E+01      4.533844000000000E-01     -1.425547000000000E+02
4863000000.000000      6.362305000000000E-01      1.443311000000000E+01      4.500732000000000E-01     -1.432969000000000E+02
4864000000.000000      6.384888000000000E-01      1.439600000000000E+01      4.470520000000000E-01     -1.440156000000000E+02
4865000000.000000      6.365967000000000E-01      1.439453000000000E+01      4.419861000000000E-01     -1.446875000000000E+02
4866000000.000000      6.402588000000000E-01      1.449365000000000E+01      4.393005000000000E-01     -1.457813000000000E+02
4867000000.000000      6.401978000000000E-01      1.445801000000000E+01      4.349670000000000E-01     -1.466406000000000E+02
4868000000.000000      6.427917000000000E-01      1.445654000000000E+01      4.313202000000000E-01     -1.474453000000000E+02
4869000000.000000      6.440735000000000E-01      1.427100000000000E+01      4.260406000000000E-01     -1.480859000000000E+02
4870000000.000000      6.434631000000000E-01      1.443604000000000E+01      4.218750000000000E-01     -1.484766000000000E+02
4871000000.000000      6.462402000000000E-01      1.428320000000000E+01      4.179688000000000E-01     -1.494219000000000E+02
4872000000.000000      6.470947000000000E-01      1.437695000000000E+01      4.139404000000000E-01     -1.500313000000000E+02
4873000000.000000      6.503601000000000E-01      1.435498000000000E+01      4.092712000000000E-01     -1.508594000000000E+02
4874000000.000000      6.503906000000000E-01      1.427930000000000E+01      4.048157000000000E-01     -1.516250000000000E+02
4875000000.000000      6.530762000000000E-01      1.424072000000000E+01      4.003448000000000E-01     -1.518594000000000E+02
4876000000.000000      6.527710000000000E-01      1.435059000000000E+01      3.956909000000000E-01     -1.529297000000000E+02
4877000000.000000      6.555481000000000E-01      1.397852000000000E+01      3.924561000000000E-01     -1.534453000000000E+02
4878000000.000000      6.543579000000000E-01      1.416943000000000E+01      3.864136000000000E-01     -1.541094000000000E+02
4879000000.000000      6.549988000000000E-01      1.396045000000000E+01      3.821411000000000E-01     -1.544765000000000E+02
4880000000.000000      6.574707000000000E-01      1.384277000000000E+01      3.780518000000000E-01     -1.553281000000000E+02
4881000000.000000      6.580505000000000E-01      1.396191000000000E+01      3.744507000000000E-01     -1.554844000000000E+02
4882000000.000000      6.608582000000000E-01      1.385205000000000E+01      3.702240000000000E-01     -1.561016000000000E+02
4883000000.000000      6.607666000000000E-01      1.385059000000000E+01      3.650360000000000E-01     -1.568828000000000E+02
4884000000.000000      6.636658000000000E-01      1.380566000000000E+01      3.615875000000000E-01     -1.573359000000000E+02
4885000000.000000      6.625366000000000E-01      1.360205000000000E+01      3.573456000000000E-01     -1.575625000000000E+02
4886000000.000000      6.641235000000000E-01      1.373975000000000E+01      3.528442000000000E-01     -1.580234000000000E+02
4887000000.000000      6.659851000000000E-01      1.358154000000000E+01      3.496857000000000E-01     -1.586875000000000E+02
4888000000.000000      6.639404000000000E-01      1.352930000000000E+01      3.446503000000000E-01     -1.592813000000000E+02
4889000000.000000      6.674500000000000E-01      1.332471000000000E+01      3.395386000000000E-01     -1.595703000000000E+02
4890000000.000000      6.670532000000000E-01      1.325488000000000E+01      3.347015000000000E-01     -1.604531000000000E+02
4891000000.000000      6.686096000000000E-01      1.318359000000000E+01      3.308411000000000E-01     -1.606250000000000E+02
4892000000.000000      6.705322000000000E-01      1.299365000000000E+01      3.277435000000000E-01     -1.607344000000000E+02
4893000000.000000      6.706848000000000E-01      1.293457000000000E+01      3.228149000000000E-01     -1.614453000000000E+02
4894000000.000000      6.723328000000000E-01      1.283301000000000E+01      3.191528000000000E-01     -1.618203000000000E+02
4895000000.000000      6.742859000000000E-01      1.261230000000000E+01      3.174744000000000E-01     -1.621016000000000E+02
4896000000.000000      6.738586000000000E-01      1.265869000000000E+01      3.125458000000000E-01     -1.623516000000000E+02
4897000000.000000      6.751099000000000E-01      1.265186000000000E+01      3.079834000000000E-01     -1.628984000000000E+02
4898000000.000000      6.762695000000000E-01      1.256836000000000E+01      3.050995000000000E-01     -1.630391000000000E+02
4899000000.000000      6.781921000000000E-01      1.258057000000000E+01      3.007660000000000E-01     -1.635703000000000E+02
4900000000.000000      6.786194000000000E-01      1.212988000000000E+01      2.975006000000000E-01     -1.638672000000000E+02
4901000000.000000      6.788940000000000E-01      1.223291000000000E+01      2.940369000000000E-01     -1.640156000000000E+02
4902000000.000000      6.805115000000000E-01      1.221387000000000E+01      2.906952000000000E-01     -1.643125000000000E+02
4903000000.000000      6.793213000000000E-01      1.220410000000000E+01      2.859650000000000E-01     -1.647891000000000E+02
4904000000.000000      6.808777000000000E-01      1.209424000000000E+01      2.821960000000000E-01     -1.651406000000000E+02
4905000000.000000      6.819458000000000E-01      1.185938000000000E+01      2.801514000000000E-01     -1.654375000000000E+02
4906000000.000000      6.813354000000000E-01      1.178418000000000E+01      2.761993000000000E-01     -1.656016000000000E+02
4907000000.000000      6.823425000000000E-01      1.171680000000000E+01      2.728882000000000E-01     -1.661016000000000E+02
4908000000.000000      6.847839000000000E-01      1.140918000000000E+01      2.696533000000000E-01     -1.662969000000000E+02
4909000000.000000      6.848450000000000E-01      1.141064000000000E+01      2.663574000000000E-01     -1.665703000000000E+02
4910000000.000000      6.838684000000000E-01      1.127881000000000E+01      2.621613000000000E-01     -1.670625000000000E+02
4911000000.000000      6.867676000000000E-01      1.136523000000000E+01      2.593994000000000E-01     -1.670859000000000E+02
4912000000.000000      6.851501000000000E-01      1.126758000000000E+01      2.551880000000000E-01     -1.675313000000000E+02
4913000000.000000      6.854858000000000E-01      1.102295000000000E+01      2.518768000000000E-01     -1.677891000000000E+02
4914000000.000000      6.866760000000000E-01      1.068799000000000E+01      2.477188000000000E-01     -1.679531000000000E+02
4915000000.000000      6.864624000000000E-01      1.088184000000000E+01      2.447891000000000E-01     -1.685469000000000E+02
4916000000.000000      6.891785000000000E-01      1.085449000000000E+01      2.414017000000000E-01     -1.688125000000000E+02
4917000000.000000      6.881714000000000E-01      1.068408000000000E+01      2.375793000000000E-01     -1.687891000000000E+02
4918000000.000000      6.902466000000000E-01      1.059766000000000E+01      2.328873000000000E-01     -1.692188000000000E+02
4919000000.000000      6.888733000000000E-01      1.050146000000000E+01      2.300339000000000E-01     -1.690781000000000E+02
4920000000.000000      6.897278000000000E-01      1.024854000000000E+01      2.270355000000000E-01     -1.697266000000000E+02
4921000000.000000      6.913147000000000E-01      1.029688000000000E+01      2.227020000000000E-01     -1.696172000000000E+02
4922000000.000000      6.917419000000000E-01      1.001660000000000E+01      2.191086000000000E-01     -1.698125000000000E+02
4923000000.000000      6.932068000000000E-01      1.029541000000000E+01      2.151031000000000E-01     -1.699297000000000E+02
4924000000.000000      6.914978000000000E-01      1.001123000000000E+01      2.114029000000000E-01     -1.702578000000000E+02
4925000000.000000      6.920471000000000E-01      9.918945000000000E+00      2.082672000000000E-01     -1.703203000000000E+02
4926000000.000000      6.924438000000000E-01      9.895508000000000E+00      2.044296000000000E-01     -1.707109000000000E+02
4927000000.000000      6.925049000000000E-01      9.754395000000000E+00      2.000122000000000E-01     -1.707813000000000E+02
4928000000.000000      6.957092000000000E-01      9.464355000000000E+00      1.965942000000000E-01     -1.707500000000000E+02
4929000000.000000      6.931152000000000E-01      9.548340000000000E+00      1.930008000000000E-01     -1.706250000000000E+02
4930000000.000000      6.945801000000000E-01      9.333984000000000E+00      1.898041000000000E-01     -1.708359000000000E+02
4931000000.000000      6.962891000000000E-01      9.154297000000000E+00      1.866302000000000E-01     -1.707500000000000E+02
4932000000.000000      6.947632000000000E-01      9.247559000000000E+00      1.822433000000000E-01     -1.705859000000000E+02
4933000000.000000      6.970825000000000E-01      9.080078000000000E+00      1.776733000000000E-01     -1.703984000000000E+02
4934000000.000000      6.982422000000000E-01      8.854980000000000E+00      1.740723000000000E-01     -1.704766000000000E+02
4935000000.000000      6.976318000000000E-01      8.946777000000000E+00      1.709137000000000E-01     -1.702031000000000E+02
4936000000.000000      6.958923000000000E-01      8.780762000000000E+00      1.668472000000000E-01     -1.700781000000000E+02
4937000000.000000      7.005615000000000E-01      8.604980000000000E+00      1.633759000000000E-01     -1.697734000000000E+02
4938000000.000000      6.979065000000000E-01      8.687012000000000E+00      1.601181000000000E-01     -1.694453000000000E+02
4939000000.000000      6.990356000000000E-01      8.563477000000000E+00      1.562576000000000E-01     -1.690547000000000E+02
4940000000.000000      6.984863000000000E-01      8.625488000000000E+00      1.525955000000000E-01     -1.688125000000000E+02
4941000000.000000      6.995544000000000E-01      8.327637000000000E+00      1.497040000000000E-01     -1.680078000000000E+02
4942000000.000000      7.009888000000000E-01      8.276367000000000E+00      1.453247000000000E-01     -1.675313000000000E+02
4943000000.000000      7.007141000000000E-01      8.217773000000000E+00      1.424713000000000E-01     -1.669765000000000E+02
4944000000.000000      7.022400000000000E-01      8.018555000000000E+00      1.397095000000000E-01     -1.661875000000000E+02
4945000000.000000      7.001648000000000E-01      7.840088000000000E+00      1.357956000000000E-01     -1.655781000000000E+02
4946000000.000000      7.024841000000000E-01      7.857910000000000E+00      1.331177000000000E-01     -1.646563000000000E+02
4947000000.000000      7.018433000000000E-01      7.695801000000000E+00      1.299744000000000E-01     -1.637734000000000E+02
4948000000.000000      7.036743000000000E-01      7.738281000000000E+00      1.275635000000000E-01     -1.626250000000000E+02
4949000000.000000      7.032471000000000E-01      7.469238000000000E+00      1.245689000000000E-01     -1.615625000000000E+02
4950000000.000000      7.046204000000000E-01      7.529541000000000E+00      1.219635000000000E-01     -1.604687000000000E+02
4951000000.000000      7.059326000000000E-01      7.458252000000000E+00      1.195068000000000E-01     -1.594687000000000E+02
4952000000.000000      7.035522000000000E-01      7.454102000000000E+00      1.167297000000000E-01     -1.579766000000000E+02
4953000000.000000      7.052002000000000E-01      7.134033000000000E+00      1.151123000000000E-01     -1.563594000000000E+02
4954000000.000000      7.053528000000000E-01      7.007813000000000E+00      1.130676000000000E-01     -1.549297000000000E+02
