! Network Analyzer HP8722D
! Hewlett-Packard
! Data name: Linha & Wilkinson
! Saver's name: Rodrigo Anjos
! Comments: Teste da utilização de aquisição
continua pelo VNA HP8722D
! Time and date: 22/5/2025 11:44
!              Frequency                     S11                                                   S21                                                   S12                                                   S22
# HZ  S  MA R 50
4800000000.000000      6.513672000000000E-01      1.071680000000000E+01      4.709625000000000E-01     -9.251953000000000E+01
4801000000.000000      6.493835000000000E-01      1.078955000000000E+01      4.730072000000000E-01     -9.319530000000000E+01
4802000000.000000      6.490173000000000E-01      1.074170000000000E+01      4.743805000000000E-01     -9.385157000000000E+01
4803000000.000000      6.463013000000000E-01      1.084326000000000E+01      4.773254000000000E-01     -9.451172000000000E+01
4804000000.000000      6.454163000000000E-01      1.071143000000000E+01      4.789429000000000E-01     -9.547266000000000E+01
4805000000.000000      6.438293000000000E-01      1.073193000000000E+01      4.801788000000000E-01     -9.605078000000000E+01
4806000000.000000      6.422119000000000E-01      1.084473000000000E+01      4.833679000000000E-01     -9.697655000000000E+01
4807000000.000000      6.379700000000000E-01      1.069092000000000E+01      4.825745000000000E-01     -9.794140000000000E+01
4808000000.000000      6.377258000000000E-01      1.079541000000000E+01      4.828033000000000E-01     -9.849998000000000E+01
4809000000.000000      6.358337000000000E-01      1.084033000000000E+01      4.872742000000000E-01     -9.933594000000000E+01
4810000000.000000      6.340027000000000E-01      1.069922000000000E+01      4.886017000000000E-01     -9.966797000000000E+01
4811000000.000000      6.345215000000000E-01      1.077588000000000E+01      4.907379000000000E-01     -1.008359000000000E+02
4812000000.000000      6.349182000000000E-01      1.112354000000000E+01      4.896851000000000E-01     -1.014453000000000E+02
4813000000.000000      6.320801000000000E-01      1.097119000000000E+01      4.905701000000000E-01     -1.024258000000000E+02
4814000000.000000      6.284485000000000E-01      1.096143000000000E+01      4.926453000000000E-01     -1.027344000000000E+02
4815000000.000000      6.272583000000000E-01      1.116309000000000E+01      4.925995000000000E-01     -1.038008000000000E+02
4816000000.000000      6.282959000000000E-01      1.126465000000000E+01      4.956207000000000E-01     -1.044922000000000E+02
4817000000.000000      6.253052000000000E-01      1.137061000000000E+01      4.936829000000000E-01     -1.051875000000000E+02
4818000000.000000      6.233521000000000E-01      1.133203000000000E+01      4.956665000000000E-01     -1.060430000000000E+02
4819000000.000000      6.232605000000000E-01      1.138574000000000E+01      4.968109000000000E-01     -1.067383000000000E+02
4820000000.000000      6.197510000000000E-01      1.150928000000000E+01      4.969025000000000E-01     -1.073750000000000E+02
4821000000.000000      6.216431000000000E-01      1.155859000000000E+01      4.974213000000000E-01     -1.082265000000000E+02
4822000000.000000      6.195068000000000E-01      1.150391000000000E+01      4.959564000000000E-01     -1.090039000000000E+02
4823000000.000000      6.174927000000000E-01      1.163574000000000E+01      4.979095000000000E-01     -1.097812000000000E+02
4824000000.000000      6.187439000000000E-01      1.186523000000000E+01      4.972839000000000E-01     -1.105664000000000E+02
4825000000.000000      6.184998000000000E-01      1.192139000000000E+01      4.983826000000000E-01     -1.112187000000000E+02
4826000000.000000      6.163635000000000E-01      1.180469000000000E+01      4.989777000000000E-01     -1.121172000000000E+02
4827000000.000000      6.154480000000000E-01      1.208594000000000E+01      4.987335000000000E-01     -1.125977000000000E+02
4828000000.000000      6.163940000000000E-01      1.206982000000000E+01      4.992371000000000E-01     -1.135508000000000E+02
4829000000.000000      6.160889000000000E-01      1.247754000000000E+01      4.996490000000000E-01     -1.143047000000000E+02
4830000000.000000      6.139832000000000E-01      1.245020000000000E+01      4.994202000000000E-01     -1.149336000000000E+02
4831000000.000000      6.157837000000000E-01      1.228809000000000E+01      4.991760000000000E-01     -1.159531000000000E+02
4832000000.000000      6.121826000000000E-01      1.270947000000000E+01      4.987488000000000E-01     -1.165937000000000E+02
4833000000.000000      6.125183000000000E-01      1.265625000000000E+01      4.986877000000000E-01     -1.170937000000000E+02
4834000000.000000      6.138306000000000E-01      1.285645000000000E+01      4.976501000000000E-01     -1.181680000000000E+02
4835000000.000000      6.136780000000000E-01      1.306104000000000E+01      5.007935000000000E-01     -1.188281000000000E+02
4836000000.000000      6.153564000000000E-01      1.316553000000000E+01      4.972229000000000E-01     -1.196016000000000E+02
4837000000.000000      6.132507000000000E-01      1.339209000000000E+01      4.974518000000000E-01     -1.205351000000000E+02
4838000000.000000      6.114807000000000E-01      1.331543000000000E+01      4.995575000000000E-01     -1.211601000000000E+02
4839000000.000000      6.171875000000000E-01      1.361475000000000E+01      4.983978000000000E-01     -1.218984000000000E+02
4840000000.000000      6.166992000000000E-01      1.361035000000000E+01      4.983063000000000E-01     -1.226992000000000E+02
4841000000.000000      6.154480000000000E-01      1.384131000000000E+01      4.970398000000000E-01     -1.236211000000000E+02
4842000000.000000      6.170044000000000E-01      1.372021000000000E+01      4.955902000000000E-01     -1.243398000000000E+02
4843000000.000000      6.179504000000000E-01      1.382471000000000E+01      4.970551000000000E-01     -1.252226000000000E+02
4844000000.000000      6.147766000000000E-01      1.396875000000000E+01      4.942017000000000E-01     -1.260195000000000E+02
4845000000.000000      6.176758000000000E-01      1.411426000000000E+01      4.939880000000000E-01     -1.268711000000000E+02
4846000000.000000      6.186523000000000E-01      1.422559000000000E+01      4.923248000000000E-01     -1.277109000000000E+02
4847000000.000000      6.197510000000000E-01      1.425439000000000E+01      4.911346000000000E-01     -1.285391000000000E+02
4848000000.000000      6.193237000000000E-01      1.434668000000000E+01      4.890900000000000E-01     -1.294531000000000E+02
4849000000.000000      6.218262000000000E-01      1.421484000000000E+01      4.889832000000000E-01     -1.302109000000000E+02
4850000000.000000      6.220093000000000E-01      1.442480000000000E+01      4.859314000000000E-01     -1.310234000000000E+02
4851000000.000000      6.235962000000000E-01      1.452637000000000E+01      4.869995000000000E-01     -1.319375000000000E+02
4852000000.000000      6.222839000000000E-01      1.459521000000000E+01      4.837189000000000E-01     -1.327891000000000E+02
4853000000.000000      6.260071000000000E-01      1.463623000000000E+01      4.807434000000000E-01     -1.337500000000000E+02
4854000000.000000      6.264954000000000E-01      1.461963000000000E+01      4.780884000000000E-01     -1.346016000000000E+02
4855000000.000000      6.280518000000000E-01      1.460742000000000E+01      4.766083000000000E-01     -1.352031000000000E+02
4856000000.000000      6.291809000000000E-01      1.481201000000000E+01      4.740295000000000E-01     -1.362187000000000E+02
4857000000.000000      6.284180000000000E-01      1.471436000000000E+01      4.728851000000000E-01     -1.369453000000000E+02
4858000000.000000      6.293945000000000E-01      1.465430000000000E+01      4.690094000000000E-01     -1.377891000000000E+02
4859000000.000000      6.317749000000000E-01      1.471338000000000E+01      4.672089000000000E-01     -1.388906000000000E+02
4860000000.000000      6.318054000000000E-01      1.485596000000000E+01      4.639435000000000E-01     -1.396484000000000E+02
4861000000.000000      6.330872000000000E-01      1.483545000000000E+01      4.597626000000000E-01     -1.404219000000000E+02
4862000000.000000      6.312256000000000E-01      1.470898000000000E+01      4.566650000000000E-01     -1.413047000000000E+02
4863000000.000000      6.359863000000000E-01      1.502490000000000E+01      4.533081000000000E-01     -1.422188000000000E+02
4864000000.000000      6.362305000000000E-01      1.484375000000000E+01      4.506226000000000E-01     -1.428437000000000E+02
4865000000.000000      6.379395000000000E-01      1.476270000000000E+01      4.475098000000000E-01     -1.434609000000000E+02
4866000000.000000      6.388855000000000E-01      1.485059000000000E+01      4.428711000000000E-01     -1.446250000000000E+02
4867000000.000000      6.388550000000000E-01      1.471582000000000E+01      4.403839000000000E-01     -1.454922000000000E+02
4868000000.000000      6.401367000000000E-01      1.482715000000000E+01      4.351959000000000E-01     -1.461719000000000E+02
4869000000.000000      6.429749000000000E-01      1.470508000000000E+01      4.305573000000000E-01     -1.468906000000000E+02
4870000000.000000      6.453857000000000E-01      1.492188000000000E+01      4.278564000000000E-01     -1.473516000000000E+02
4871000000.000000      6.465454000000000E-01      1.475732000000000E+01      4.222260000000000E-01     -1.483047000000000E+02
4872000000.000000      6.486511000000000E-01      1.469385000000000E+01      4.189301000000000E-01     -1.489297000000000E+02
4873000000.000000      6.496582000000000E-01      1.470752000000000E+01      4.134521000000000E-01     -1.498359000000000E+02
4874000000.000000      6.493835000000000E-01      1.465137000000000E+01      4.109497000000000E-01     -1.505234000000000E+02
4875000000.000000      6.507568000000000E-01      1.462549000000000E+01      4.059753000000000E-01     -1.510234000000000E+02
4876000000.000000      6.531067000000000E-01      1.472559000000000E+01      4.014130000000000E-01     -1.517812000000000E+02
4877000000.000000      6.534424000000000E-01      1.446582000000000E+01      3.959351000000000E-01     -1.524141000000000E+02
4878000000.000000      6.539917000000000E-01      1.443994000000000E+01      3.927307000000000E-01     -1.528984000000000E+02
4879000000.000000      6.550293000000000E-01      1.450586000000000E+01      3.876190000000000E-01     -1.537812000000000E+02
4880000000.000000      6.597595000000000E-01      1.430957000000000E+01      3.824615000000000E-01     -1.542422000000000E+02
4881000000.000000      6.593018000000000E-01      1.453613000000000E+01      3.794098000000000E-01     -1.549297000000000E+02
4882000000.000000      6.618042000000000E-01      1.439063000000000E+01      3.749542000000000E-01     -1.553047000000000E+02
4883000000.000000      6.614075000000000E-01      1.422412000000000E+01      3.700867000000000E-01     -1.561016000000000E+02
4884000000.000000      6.620789000000000E-01      1.431494000000000E+01      3.662109000000000E-01     -1.563828000000000E+02
4885000000.000000      6.640015000000000E-01      1.420117000000000E+01      3.622284000000000E-01     -1.568672000000000E+02
4886000000.000000      6.660767000000000E-01      1.394678000000000E+01      3.576660000000000E-01     -1.572109000000000E+02
4887000000.000000      6.670532000000000E-01      1.400879000000000E+01      3.528900000000000E-01     -1.578672000000000E+02
4888000000.000000      6.673584000000000E-01      1.392920000000000E+01      3.496094000000000E-01     -1.584453000000000E+02
4889000000.000000      6.680298000000000E-01      1.376855000000000E+01      3.445892000000000E-01     -1.586875000000000E+02
4890000000.000000      6.688538000000000E-01      1.358984000000000E+01      3.397675000000000E-01     -1.595000000000000E+02
4891000000.000000      6.709595000000000E-01      1.378613000000000E+01      3.368378000000000E-01     -1.598672000000000E+02
4892000000.000000      6.708984000000000E-01      1.362988000000000E+01      3.326111000000000E-01     -1.598750000000000E+02
4893000000.000000      6.750183000000000E-01      1.336719000000000E+01      3.282166000000000E-01     -1.609297000000000E+02
4894000000.000000      6.739807000000000E-01      1.335938000000000E+01      3.242645000000000E-01     -1.608281000000000E+02
4895000000.000000      6.747131000000000E-01      1.324805000000000E+01      3.224182000000000E-01     -1.613437000000000E+02
4896000000.000000      6.753235000000000E-01      1.310938000000000E+01      3.167877000000000E-01     -1.616641000000000E+02
4897000000.000000      6.749878000000000E-01      1.322168000000000E+01      3.127136000000000E-01     -1.622187000000000E+02
4898000000.000000      6.767273000000000E-01      1.300635000000000E+01      3.091888000000000E-01     -1.624531000000000E+02
4899000000.000000      6.759644000000000E-01      1.312549000000000E+01      3.052826000000000E-01     -1.630469000000000E+02
4900000000.000000      6.795654000000000E-01      1.289209000000000E+01      3.018494000000000E-01     -1.631797000000000E+02
4901000000.000000      6.803894000000000E-01      1.273438000000000E+01      2.982330000000000E-01     -1.634687000000000E+02
4902000000.000000      6.804504000000000E-01      1.264502000000000E+01      2.950134000000000E-01     -1.636406000000000E+02
4903000000.000000      6.811829000000000E-01      1.259814000000000E+01      2.906342000000000E-01     -1.642187000000000E+02
4904000000.000000      6.804810000000000E-01      1.239648000000000E+01      2.875671000000000E-01     -1.645625000000000E+02
4905000000.000000      6.828918000000000E-01      1.225244000000000E+01      2.840424000000000E-01     -1.650234000000000E+02
4906000000.000000      6.810303000000000E-01      1.230176000000000E+01      2.801819000000000E-01     -1.649765000000000E+02
4907000000.000000      6.850586000000000E-01      1.195850000000000E+01      2.773743000000000E-01     -1.656250000000000E+02
4908000000.000000      6.831360000000000E-01      1.200928000000000E+01      2.739258000000000E-01     -1.659922000000000E+02
4909000000.000000      6.838379000000000E-01      1.190332000000000E+01      2.700195000000000E-01     -1.661406000000000E+02
4910000000.000000      6.840210000000000E-01      1.185010000000000E+01      2.669067000000000E-01     -1.664141000000000E+02
4911000000.000000      6.866150000000000E-01      1.174414000000000E+01      2.635040000000000E-01     -1.667578000000000E+02
4912000000.000000      6.860657000000000E-01      1.153662000000000E+01      2.589264000000000E-01     -1.670938000000000E+02
4913000000.000000      6.877441000000000E-01      1.157666000000000E+01      2.558746000000000E-01     -1.674687000000000E+02
4914000000.000000      6.872559000000000E-01      1.141455000000000E+01      2.522736000000000E-01     -1.676328000000000E+02
4915000000.000000      6.878662000000000E-01      1.136768000000000E+01      2.486725000000000E-01     -1.681015000000000E+02
4916000000.000000      6.893311000000000E-01      1.119775000000000E+01      2.445984000000000E-01     -1.683750000000000E+02
4917000000.000000      6.906433000000000E-01      1.100391000000000E+01      2.421494000000000E-01     -1.685703000000000E+02
4918000000.000000      6.909180000000000E-01      1.120313000000000E+01      2.380219000000000E-01     -1.688750000000000E+02
4919000000.000000      6.904602000000000E-01      1.095313000000000E+01      2.348557000000000E-01     -1.690234000000000E+02
4920000000.000000      6.907959000000000E-01      1.083350000000000E+01      2.305298000000000E-01     -1.695234000000000E+02
4921000000.000000      6.906433000000000E-01      1.074854000000000E+01      2.274933000000000E-01     -1.694219000000000E+02
4922000000.000000      6.911926000000000E-01      1.063721000000000E+01      2.237625000000000E-01     -1.697344000000000E+02
4923000000.000000      6.932678000000000E-01      1.050684000000000E+01      2.192841000000000E-01     -1.697813000000000E+02
4924000000.000000      6.921692000000000E-01      1.063184000000000E+01      2.159195000000000E-01     -1.701328000000000E+02
4925000000.000000      6.933594000000000E-01      1.046680000000000E+01      2.124023000000000E-01     -1.703438000000000E+02
4926000000.000000      6.940613000000000E-01      1.029932000000000E+01      2.088928000000000E-01     -1.705547000000000E+02
4927000000.000000      6.947021000000000E-01      1.007031000000000E+01      2.043686000000000E-01     -1.707500000000000E+02
4928000000.000000      6.966553000000000E-01      1.015381000000000E+01      2.008972000000000E-01     -1.706406000000000E+02
4929000000.000000      6.942749000000000E-01      9.917480000000000E+00      1.968842000000000E-01     -1.707734000000000E+02
4930000000.000000      6.946411000000000E-01      9.849121000000000E+00      1.936569000000000E-01     -1.709453000000000E+02
4931000000.000000      6.963806000000000E-01      9.740723000000000E+00      1.902237000000000E-01     -1.707656000000000E+02
4932000000.000000      6.964722000000000E-01      9.743164000000000E+00      1.857986000000000E-01     -1.708359000000000E+02
4933000000.000000      6.983643000000000E-01      9.549805000000000E+00      1.814880000000000E-01     -1.707422000000000E+02
4934000000.000000      6.986389000000000E-01      9.389160000000000E+00      1.786194000000000E-01     -1.708281000000000E+02
4935000000.000000      6.984558000000000E-01      9.342285000000000E+00      1.751785000000000E-01     -1.705312000000000E+02
4936000000.000000      6.989441000000000E-01      9.211914000000000E+00      1.703491000000000E-01     -1.704453000000000E+02
4937000000.000000      6.990051000000000E-01      9.031738000000000E+00      1.671448000000000E-01     -1.702109000000000E+02
4938000000.000000      6.991272000000000E-01      9.187012000000000E+00      1.632538000000000E-01     -1.698984000000000E+02
4939000000.000000      7.008362000000000E-01      9.102051000000000E+00      1.600342000000000E-01     -1.695391000000000E+02
4940000000.000000      6.984863000000000E-01      9.053711000000000E+00      1.556244000000000E-01     -1.694219000000000E+02
4941000000.000000      7.007446000000000E-01      8.732422000000000E+00      1.528625000000000E-01     -1.689141000000000E+02
4942000000.000000      6.996155000000000E-01      8.691406000000000E+00      1.491165000000000E-01     -1.685078000000000E+02
4943000000.000000      7.015381000000000E-01      8.715820000000000E+00      1.454163000000000E-01     -1.678359000000000E+02
4944000000.000000      7.023315000000000E-01      8.545898000000000E+00      1.424484000000000E-01     -1.674609000000000E+02
4945000000.000000      7.030945000000000E-01      8.481445000000000E+00      1.387253000000000E-01     -1.666484000000000E+02
4946000000.000000      7.036438000000000E-01      8.335449000000000E+00      1.356354000000000E-01     -1.659062000000000E+02
4947000000.000000      7.034302000000000E-01      8.189941000000000E+00      1.323013000000000E-01     -1.647734000000000E+02
4948000000.000000      7.041321000000000E-01      8.227051000000000E+00      1.296921000000000E-01     -1.641406000000000E+02
4949000000.000000      7.046814000000000E-01      8.000488000000000E+00      1.267548000000000E-01     -1.629062000000000E+02
4950000000.000000      7.067261000000000E-01      7.892090000000000E+00      1.235924000000000E-01     -1.620937000000000E+02
4951000000.000000      7.057800000000000E-01      7.867432000000000E+00      1.212692000000000E-01     -1.611641000000000E+02
4952000000.000000      7.042542000000000E-01      7.713623000000000E+00      1.183739000000000E-01     -1.597344000000000E+02
4953000000.000000      7.073669000000000E-01      7.552979000000000E+00      1.164627000000000E-01     -1.581640000000000E+02
4954000000.000000      7.083130000000000E-01      7.532471000000000E+00      1.143112000000000E-01     -1.568594000000000E+02
