! Network Analyzer HP8722D
! Hewlett-Packard
! Data name: Linha & Wilkinson
! Saver's name: Rodrigo Anjos
! Comments: Teste da utilização de aquisição
continua pelo VNA HP8722D
! Time and date: 22/5/2025 13:49
!              Frequency                     S11                                                   S21                                                   S12                                                   S22
# HZ  S  MA R 50
4800000000.000000      6.495361000000000E-01      1.092432000000000E+01      4.726410000000000E-01     -9.310156000000000E+01
4801000000.000000      6.485596000000000E-01      1.093262000000000E+01      4.742279000000000E-01     -9.383593000000000E+01
4802000000.000000      6.452332000000000E-01      1.089697000000000E+01      4.766693000000000E-01     -9.443750000000000E+01
4803000000.000000      6.441040000000000E-01      1.085693000000000E+01      4.799194000000000E-01     -9.537109000000000E+01
4804000000.000000      6.421204000000000E-01      1.089404000000000E+01      4.799805000000000E-01     -9.603516000000000E+01
4805000000.000000      6.419678000000000E-01      1.071973000000000E+01      4.821014000000000E-01     -9.675390000000000E+01
4806000000.000000      6.398621000000000E-01      1.089404000000000E+01      4.818268000000000E-01     -9.757813000000000E+01
4807000000.000000      6.375732000000000E-01      1.078857000000000E+01      4.846191000000000E-01     -9.852343000000000E+01
4808000000.000000      6.353149000000000E-01      1.087500000000000E+01      4.844360000000000E-01     -9.912109000000000E+01
4809000000.000000      6.338806000000000E-01      1.100928000000000E+01      4.860229000000000E-01     -1.000508000000000E+02
4810000000.000000      6.347351000000000E-01      1.088184000000000E+01      4.895935000000000E-01     -1.006055000000000E+02
4811000000.000000      6.326904000000000E-01      1.110156000000000E+01      4.893799000000000E-01     -1.015781000000000E+02
4812000000.000000      6.310730000000000E-01      1.127979000000000E+01      4.913940000000000E-01     -1.021601000000000E+02
4813000000.000000      6.292114000000000E-01      1.110303000000000E+01      4.912567000000000E-01     -1.030508000000000E+02
4814000000.000000      6.287537000000000E-01      1.122070000000000E+01      4.936371000000000E-01     -1.037266000000000E+02
4815000000.000000      6.261292000000000E-01      1.121826000000000E+01      4.941711000000000E-01     -1.044062000000000E+02
4816000000.000000      6.260986000000000E-01      1.143115000000000E+01      4.950562000000000E-01     -1.051601000000000E+02
4817000000.000000      6.241760000000000E-01      1.139795000000000E+01      4.946289000000000E-01     -1.059297000000000E+02
4818000000.000000      6.230164000000000E-01      1.149951000000000E+01      4.961395000000000E-01     -1.066484000000000E+02
4819000000.000000      6.229858000000000E-01      1.151074000000000E+01      4.945984000000000E-01     -1.074883000000000E+02
4820000000.000000      6.215515000000000E-01      1.181982000000000E+01      4.967346000000000E-01     -1.080742000000000E+02
4821000000.000000      6.196594000000000E-01      1.167139000000000E+01      4.978638000000000E-01     -1.088398000000000E+02
4822000000.000000      6.172791000000000E-01      1.186377000000000E+01      4.962158000000000E-01     -1.096211000000000E+02
4823000000.000000      6.206360000000000E-01      1.176221000000000E+01      4.977264000000000E-01     -1.106289000000000E+02
4824000000.000000      6.165466000000000E-01      1.213428000000000E+01      4.976349000000000E-01     -1.113086000000000E+02
4825000000.000000      6.162415000000000E-01      1.213672000000000E+01      4.978333000000000E-01     -1.118828000000000E+02
4826000000.000000      6.169739000000000E-01      1.212598000000000E+01      4.991608000000000E-01     -1.128242000000000E+02
4827000000.000000      6.150818000000000E-01      1.229053000000000E+01      4.993744000000000E-01     -1.133125000000000E+02
4828000000.000000      6.163025000000000E-01      1.245557000000000E+01      4.996796000000000E-01     -1.142305000000000E+02
4829000000.000000      6.157837000000000E-01      1.284424000000000E+01      4.990845000000000E-01     -1.149453000000000E+02
4830000000.000000      6.152954000000000E-01      1.275488000000000E+01      4.989014000000000E-01     -1.155859000000000E+02
4831000000.000000      6.153259000000000E-01      1.283057000000000E+01      4.994354000000000E-01     -1.166211000000000E+02
4832000000.000000      6.113281000000000E-01      1.309814000000000E+01      4.987183000000000E-01     -1.172266000000000E+02
4833000000.000000      6.117249000000000E-01      1.295947000000000E+01      4.983978000000000E-01     -1.177383000000000E+02
4834000000.000000      6.124268000000000E-01      1.312988000000000E+01      4.974213000000000E-01     -1.187383000000000E+02
4835000000.000000      6.138611000000000E-01      1.323682000000000E+01      4.980469000000000E-01     -1.195625000000000E+02
4836000000.000000      6.145020000000000E-01      1.352002000000000E+01      4.973755000000000E-01     -1.204531000000000E+02
4837000000.000000      6.131897000000000E-01      1.372021000000000E+01      4.962158000000000E-01     -1.213203000000000E+02
4838000000.000000      6.132813000000000E-01      1.351416000000000E+01      4.962616000000000E-01     -1.217812000000000E+02
4839000000.000000      6.167603000000000E-01      1.378760000000000E+01      4.948273000000000E-01     -1.226601000000000E+02
4840000000.000000      6.152344000000000E-01      1.358691000000000E+01      4.974365000000000E-01     -1.234844000000000E+02
4841000000.000000      6.150818000000000E-01      1.400049000000000E+01      4.959412000000000E-01     -1.242188000000000E+02
4842000000.000000      6.164246000000000E-01      1.404150000000000E+01      4.940338000000000E-01     -1.251719000000000E+02
4843000000.000000      6.168518000000000E-01      1.396338000000000E+01      4.950867000000000E-01     -1.258633000000000E+02
4844000000.000000      6.167603000000000E-01      1.411182000000000E+01      4.925842000000000E-01     -1.267578000000000E+02
4845000000.000000      6.182556000000000E-01      1.433398000000000E+01      4.917297000000000E-01     -1.274570000000000E+02
4846000000.000000      6.188354000000000E-01      1.441260000000000E+01      4.909058000000000E-01     -1.283984000000000E+02
4847000000.000000      6.198425000000000E-01      1.445361000000000E+01      4.890900000000000E-01     -1.291563000000000E+02
4848000000.000000      6.210327000000000E-01      1.444824000000000E+01      4.862366000000000E-01     -1.299609000000000E+02
4849000000.000000      6.213074000000000E-01      1.448242000000000E+01      4.868469000000000E-01     -1.307969000000000E+02
4850000000.000000      6.228027000000000E-01      1.458838000000000E+01      4.836731000000000E-01     -1.317422000000000E+02
4851000000.000000      6.230164000000000E-01      1.474365000000000E+01      4.843750000000000E-01     -1.326953000000000E+02
4852000000.000000      6.244507000000000E-01      1.471582000000000E+01      4.804535000000000E-01     -1.333750000000000E+02
4853000000.000000      6.261292000000000E-01      1.470898000000000E+01      4.772339000000000E-01     -1.344219000000000E+02
4854000000.000000      6.271973000000000E-01      1.482178000000000E+01      4.764099000000000E-01     -1.351250000000000E+02
4855000000.000000      6.271362000000000E-01      1.495605000000000E+01      4.741058000000000E-01     -1.360234000000000E+02
4856000000.000000      6.307373000000000E-01      1.496045000000000E+01      4.719696000000000E-01     -1.368984000000000E+02
4857000000.000000      6.307678000000000E-01      1.501416000000000E+01      4.700317000000000E-01     -1.376328000000000E+02
4858000000.000000      6.300049000000000E-01      1.498779000000000E+01      4.661560000000000E-01     -1.384609000000000E+02
4859000000.000000      6.324768000000000E-01      1.494824000000000E+01      4.629059000000000E-01     -1.395547000000000E+02
4860000000.000000      6.323242000000000E-01      1.493994000000000E+01      4.593658000000000E-01     -1.400312000000000E+02
4861000000.000000      6.326599000000000E-01      1.506592000000000E+01      4.569855000000000E-01     -1.411641000000000E+02
4862000000.000000      6.339722000000000E-01      1.498779000000000E+01      4.546814000000000E-01     -1.416406000000000E+02
4863000000.000000      6.357727000000000E-01      1.487256000000000E+01      4.496307000000000E-01     -1.428594000000000E+02
4864000000.000000      6.379395000000000E-01      1.500732000000000E+01      4.474945000000000E-01     -1.433594000000000E+02
4865000000.000000      6.386108000000000E-01      1.481494000000000E+01      4.431152000000000E-01     -1.442188000000000E+02
4866000000.000000      6.396484000000000E-01      1.491504000000000E+01      4.388275000000000E-01     -1.450547000000000E+02
4867000000.000000      6.390686000000000E-01      1.499072000000000E+01      4.352875000000000E-01     -1.458828000000000E+02
4868000000.000000      6.414795000000000E-01      1.495215000000000E+01      4.312439000000000E-01     -1.466797000000000E+02
4869000000.000000      6.435242000000000E-01      1.486426000000000E+01      4.267120000000000E-01     -1.475937000000000E+02
4870000000.000000      6.443481000000000E-01      1.489307000000000E+01      4.241943000000000E-01     -1.480703000000000E+02
4871000000.000000      6.431580000000000E-01      1.487646000000000E+01      4.192505000000000E-01     -1.489141000000000E+02
4872000000.000000      6.478577000000000E-01      1.484375000000000E+01      4.143219000000000E-01     -1.494453000000000E+02
4873000000.000000      6.488342000000000E-01      1.477637000000000E+01      4.107361000000000E-01     -1.502344000000000E+02
4874000000.000000      6.489868000000000E-01      1.496191000000000E+01      4.067993000000000E-01     -1.509844000000000E+02
4875000000.000000      6.519165000000000E-01      1.466260000000000E+01      4.008484000000000E-01     -1.516562000000000E+02
4876000000.000000      6.526794000000000E-01      1.482568000000000E+01      3.984833000000000E-01     -1.522656000000000E+02
4877000000.000000      6.547852000000000E-01      1.428076000000000E+01      3.926392000000000E-01     -1.527266000000000E+02
4878000000.000000      6.551208000000000E-01      1.461963000000000E+01      3.890533000000000E-01     -1.535000000000000E+02
4879000000.000000      6.572876000000000E-01      1.458545000000000E+01      3.828430000000000E-01     -1.538750000000000E+02
4880000000.000000      6.571045000000000E-01      1.442773000000000E+01      3.796692000000000E-01     -1.546953000000000E+02
4881000000.000000      6.588135000000000E-01      1.450049000000000E+01      3.760071000000000E-01     -1.551016000000000E+02
4882000000.000000      6.605835000000000E-01      1.434912000000000E+01      3.708496000000000E-01     -1.556250000000000E+02
4883000000.000000      6.620483000000000E-01      1.426563000000000E+01      3.661804000000000E-01     -1.564609000000000E+02
4884000000.000000      6.647644000000000E-01      1.428223000000000E+01      3.627930000000000E-01     -1.569375000000000E+02
4885000000.000000      6.635742000000000E-01      1.414063000000000E+01      3.582001000000000E-01     -1.571953000000000E+02
4886000000.000000      6.669312000000000E-01      1.417236000000000E+01      3.540039000000000E-01     -1.578125000000000E+02
4887000000.000000      6.643372000000000E-01      1.396875000000000E+01      3.500366000000000E-01     -1.582734000000000E+02
4888000000.000000      6.668701000000000E-01      1.379443000000000E+01      3.463287000000000E-01     -1.585391000000000E+02
4889000000.000000      6.673279000000000E-01      1.382324000000000E+01      3.417053000000000E-01     -1.590312000000000E+02
4890000000.000000      6.667175000000000E-01      1.373389000000000E+01      3.358154000000000E-01     -1.599453000000000E+02
4891000000.000000      6.717224000000000E-01      1.371777000000000E+01      3.326721000000000E-01     -1.599297000000000E+02
4892000000.000000      6.694641000000000E-01      1.357910000000000E+01      3.283539000000000E-01     -1.600859000000000E+02
4893000000.000000      6.721802000000000E-01      1.356396000000000E+01      3.233643000000000E-01     -1.608438000000000E+02
4894000000.000000      6.732178000000000E-01      1.345947000000000E+01      3.204193000000000E-01     -1.613437000000000E+02
4895000000.000000      6.748047000000000E-01      1.324121000000000E+01      3.168945000000000E-01     -1.616172000000000E+02
4896000000.000000      6.772461000000000E-01      1.324121000000000E+01      3.135071000000000E-01     -1.618438000000000E+02
4897000000.000000      6.748657000000000E-01      1.316016000000000E+01      3.094635000000000E-01     -1.624609000000000E+02
4898000000.000000      6.781311000000000E-01      1.303662000000000E+01      3.060608000000000E-01     -1.625469000000000E+02
4899000000.000000      6.780090000000000E-01      1.307373000000000E+01      3.021393000000000E-01     -1.631484000000000E+02
4900000000.000000      6.794434000000000E-01      1.272900000000000E+01      2.980194000000000E-01     -1.632422000000000E+02
4901000000.000000      6.799011000000000E-01      1.283057000000000E+01      2.947083000000000E-01     -1.637109000000000E+02
4902000000.000000      6.789246000000000E-01      1.251709000000000E+01      2.911530000000000E-01     -1.638984000000000E+02
4903000000.000000      6.819763000000000E-01      1.257764000000000E+01      2.868805000000000E-01     -1.642734000000000E+02
4904000000.000000      6.799927000000000E-01      1.242822000000000E+01      2.833405000000000E-01     -1.647266000000000E+02
4905000000.000000      6.805115000000000E-01      1.236768000000000E+01      2.805328000000000E-01     -1.651562000000000E+02
4906000000.000000      6.821594000000000E-01      1.227539000000000E+01      2.761993000000000E-01     -1.651328000000000E+02
4907000000.000000      6.831055000000000E-01      1.215186000000000E+01      2.731934000000000E-01     -1.657578000000000E+02
4908000000.000000      6.846619000000000E-01      1.208057000000000E+01      2.704773000000000E-01     -1.659375000000000E+02
4909000000.000000      6.835938000000000E-01      1.207910000000000E+01      2.658997000000000E-01     -1.662500000000000E+02
4910000000.000000      6.842957000000000E-01      1.197607000000000E+01      2.630005000000000E-01     -1.666250000000000E+02
4911000000.000000      6.862793000000000E-01      1.180176000000000E+01      2.594757000000000E-01     -1.667266000000000E+02
4912000000.000000      6.871033000000000E-01      1.173340000000000E+01      2.560730000000000E-01     -1.672109000000000E+02
4913000000.000000      6.863098000000000E-01      1.149561000000000E+01      2.528229000000000E-01     -1.674297000000000E+02
4914000000.000000      6.882629000000000E-01      1.140234000000000E+01      2.493286000000000E-01     -1.676328000000000E+02
4915000000.000000      6.874695000000000E-01      1.137598000000000E+01      2.450943000000000E-01     -1.681562000000000E+02
4916000000.000000      6.891479000000000E-01      1.121973000000000E+01      2.417297000000000E-01     -1.684297000000000E+02
4917000000.000000      6.874084000000000E-01      1.105322000000000E+01      2.379074000000000E-01     -1.685859000000000E+02
4918000000.000000      6.914673000000000E-01      1.103418000000000E+01      2.339859000000000E-01     -1.690234000000000E+02
4919000000.000000      6.882935000000000E-01      1.101074000000000E+01      2.307968000000000E-01     -1.687500000000000E+02
4920000000.000000      6.911011000000000E-01      1.091895000000000E+01      2.269516000000000E-01     -1.694062000000000E+02
4921000000.000000      6.909485000000000E-01      1.073877000000000E+01      2.239990000000000E-01     -1.692969000000000E+02
4922000000.000000      6.918640000000000E-01      1.070850000000000E+01      2.201691000000000E-01     -1.695625000000000E+02
4923000000.000000      6.927795000000000E-01      1.053027000000000E+01      2.162704000000000E-01     -1.695156000000000E+02
4924000000.000000      6.936646000000000E-01      1.068408000000000E+01      2.120743000000000E-01     -1.701562000000000E+02
4925000000.000000      6.925964000000000E-01      1.038330000000000E+01      2.089691000000000E-01     -1.700859000000000E+02
4926000000.000000      6.943970000000000E-01      1.027734000000000E+01      2.053528000000000E-01     -1.703516000000000E+02
4927000000.000000      6.931763000000000E-01      1.024170000000000E+01      2.009659000000000E-01     -1.705625000000000E+02
4928000000.000000      6.958618000000000E-01      1.002344000000000E+01      1.980591000000000E-01     -1.704766000000000E+02
4929000000.000000      6.952209000000000E-01      9.774902000000000E+00      1.937180000000000E-01     -1.704531000000000E+02
4930000000.000000      6.967468000000000E-01      9.833984000000000E+00      1.906815000000000E-01     -1.706719000000000E+02
4931000000.000000      6.954346000000000E-01      1.004688000000000E+01      1.870804000000000E-01     -1.706484000000000E+02
4932000000.000000      6.960754000000000E-01      9.607422000000000E+00      1.823730000000000E-01     -1.706328000000000E+02
4933000000.000000      6.974182000000000E-01      9.509766000000000E+00      1.786041000000000E-01     -1.703672000000000E+02
4934000000.000000      6.982422000000000E-01      9.390137000000000E+00      1.753235000000000E-01     -1.703672000000000E+02
4935000000.000000      6.990967000000000E-01      9.352051000000000E+00      1.714630000000000E-01     -1.698437000000000E+02
4936000000.000000      6.994019000000000E-01      9.327148000000000E+00      1.678162000000000E-01     -1.698203000000000E+02
4937000000.000000      6.998596000000000E-01      9.189941000000000E+00      1.642227000000000E-01     -1.697266000000000E+02
4938000000.000000      6.982422000000000E-01      9.151367000000000E+00      1.603241000000000E-01     -1.692891000000000E+02
4939000000.000000      6.989746000000000E-01      9.122559000000000E+00      1.572266000000000E-01     -1.689141000000000E+02
4940000000.000000      7.009583000000000E-01      8.854980000000000E+00      1.533356000000000E-01     -1.687578000000000E+02
4941000000.000000      6.996765000000000E-01      8.746094000000000E+00      1.497421000000000E-01     -1.681797000000000E+02
4942000000.000000      7.005615000000000E-01      8.864258000000000E+00      1.460190000000000E-01     -1.676953000000000E+02
4943000000.000000      7.023926000000000E-01      8.698242000000000E+00      1.429672000000000E-01     -1.667578000000000E+02
4944000000.000000      7.006226000000000E-01      8.397461000000000E+00      1.396561000000000E-01     -1.663750000000000E+02
4945000000.000000      7.016296000000000E-01      8.378418000000000E+00      1.362305000000000E-01     -1.655313000000000E+02
4946000000.000000      7.029419000000000E-01      8.343750000000000E+00      1.333084000000000E-01     -1.646250000000000E+02
4947000000.000000      7.042542000000000E-01      8.167969000000000E+00      1.299744000000000E-01     -1.638438000000000E+02
4948000000.000000      7.037659000000000E-01      8.305664000000000E+00      1.270523000000000E-01     -1.629219000000000E+02
4949000000.000000      7.026062000000000E-01      8.059570000000000E+00      1.247787000000000E-01     -1.616719000000000E+02
4950000000.000000      7.036438000000000E-01      8.025391000000000E+00      1.220970000000000E-01     -1.608047000000000E+02
4951000000.000000      7.055664000000000E-01      7.724609000000000E+00      1.195526000000000E-01     -1.596719000000000E+02
4952000000.000000      7.044067000000000E-01      7.726074000000000E+00      1.169777000000000E-01     -1.581484000000000E+02
4953000000.000000      7.051392000000000E-01      7.504883000000000E+00      1.152000000000000E-01     -1.566719000000000E+02
4954000000.000000      7.077026000000000E-01      7.661377000000000E+00      1.130333000000000E-01     -1.552109000000000E+02
