! Network Analyzer HP8722D
! Hewlett-Packard
! Data name: Linha & Wilkinson
! Saver's name: Rodrigo Anjos
! Comments: Teste da utilização de aquisição
continua pelo VNA HP8722D
! Time and date: 22/5/2025 08:18
!              Frequency                     S11                                                   S21                                                   S12                                                   S22
# HZ  S  MA R 50
4800000000.000000      6.478882000000000E-01      1.023486000000000E+01      4.746857000000000E-01     -9.373047000000000E+01
4801000000.000000      6.452026000000000E-01      1.036133000000000E+01      4.764709000000000E-01     -9.437891000000000E+01
4802000000.000000      6.444397000000000E-01      1.041504000000000E+01      4.771423000000000E-01     -9.500000000000000E+01
4803000000.000000      6.414185000000000E-01      1.027051000000000E+01      4.813080000000000E-01     -9.568750000000000E+01
4804000000.000000      6.390991000000000E-01      1.021973000000000E+01      4.824066000000000E-01     -9.643749000000000E+01
4805000000.000000      6.404114000000000E-01      1.024609000000000E+01      4.836121000000000E-01     -9.763281000000000E+01
4806000000.000000      6.361389000000000E-01      1.025684000000000E+01      4.835510000000000E-01     -9.833984000000000E+01
4807000000.000000      6.334839000000000E-01      1.024023000000000E+01      4.853363000000000E-01     -9.907812000000000E+01
4808000000.000000      6.316833000000000E-01      1.024609000000000E+01      4.882202000000000E-01     -9.958593000000000E+01
4809000000.000000      6.335754000000000E-01      1.049854000000000E+01      4.895172000000000E-01     -1.005859000000000E+02
4810000000.000000      6.312256000000000E-01      1.039014000000000E+01      4.916534000000000E-01     -1.011289000000000E+02
4811000000.000000      6.288147000000000E-01      1.049854000000000E+01      4.918518000000000E-01     -1.021016000000000E+02
4812000000.000000      6.292114000000000E-01      1.067969000000000E+01      4.932251000000000E-01     -1.029688000000000E+02
4813000000.000000      6.260986000000000E-01      1.055078000000000E+01      4.934082000000000E-01     -1.035117000000000E+02
4814000000.000000      6.260681000000000E-01      1.062207000000000E+01      4.953918000000000E-01     -1.041953000000000E+02
4815000000.000000      6.222839000000000E-01      1.053857000000000E+01      4.940643000000000E-01     -1.051094000000000E+02
4816000000.000000      6.232300000000000E-01      1.068799000000000E+01      4.950867000000000E-01     -1.057813000000000E+02
4817000000.000000      6.221008000000000E-01      1.093115000000000E+01      4.964600000000000E-01     -1.065312000000000E+02
4818000000.000000      6.197815000000000E-01      1.097803000000000E+01      4.966736000000000E-01     -1.072656000000000E+02
4819000000.000000      6.200562000000000E-01      1.107666000000000E+01      4.985504000000000E-01     -1.081016000000000E+02
4820000000.000000      6.166687000000000E-01      1.124854000000000E+01      4.990997000000000E-01     -1.085625000000000E+02
4821000000.000000      6.174622000000000E-01      1.104492000000000E+01      4.976654000000000E-01     -1.096289000000000E+02
4822000000.000000      6.169434000000000E-01      1.132129000000000E+01      4.979706000000000E-01     -1.102305000000000E+02
4823000000.000000      6.160889000000000E-01      1.131982000000000E+01      5.003967000000000E-01     -1.110742000000000E+02
4824000000.000000      6.144409000000000E-01      1.157666000000000E+01      4.988861000000000E-01     -1.120586000000000E+02
4825000000.000000      6.139832000000000E-01      1.173438000000000E+01      4.994202000000000E-01     -1.126328000000000E+02
4826000000.000000      6.131592000000000E-01      1.155859000000000E+01      4.993134000000000E-01     -1.135078000000000E+02
4827000000.000000      6.135864000000000E-01      1.174414000000000E+01      4.986877000000000E-01     -1.141250000000000E+02
4828000000.000000      6.137085000000000E-01      1.181689000000000E+01      4.998169000000000E-01     -1.148086000000000E+02
4829000000.000000      6.132202000000000E-01      1.216846000000000E+01      5.008545000000000E-01     -1.155898000000000E+02
4830000000.000000      6.127625000000000E-01      1.202295000000000E+01      5.010376000000000E-01     -1.165117000000000E+02
4831000000.000000      6.133118000000000E-01      1.211084000000000E+01      4.990845000000000E-01     -1.172461000000000E+02
4832000000.000000      6.106262000000000E-01      1.236768000000000E+01      5.002136000000000E-01     -1.177226000000000E+02
4833000000.000000      6.109314000000000E-01      1.246094000000000E+01      4.988708000000000E-01     -1.185898000000000E+02
4834000000.000000      6.101990000000000E-01      1.251465000000000E+01      4.995728000000000E-01     -1.194531000000000E+02
4835000000.000000      6.144104000000000E-01      1.252002000000000E+01      4.990234000000000E-01     -1.202148000000000E+02
4836000000.000000      6.121521000000000E-01      1.289502000000000E+01      4.970703000000000E-01     -1.207734000000000E+02
4837000000.000000      6.118469000000000E-01      1.301025000000000E+01      4.979858000000000E-01     -1.220351000000000E+02
4838000000.000000      6.117554000000000E-01      1.305273000000000E+01      4.984436000000000E-01     -1.224766000000000E+02
4839000000.000000      6.161194000000000E-01      1.322168000000000E+01      4.977417000000000E-01     -1.234180000000000E+02
4840000000.000000      6.145020000000000E-01      1.303516000000000E+01      4.966888000000000E-01     -1.241133000000000E+02
4841000000.000000      6.149597000000000E-01      1.343311000000000E+01      4.960938000000000E-01     -1.250664000000000E+02
4842000000.000000      6.151733000000000E-01      1.327686000000000E+01      4.946136000000000E-01     -1.258945000000000E+02
4843000000.000000      6.171265000000000E-01      1.339746000000000E+01      4.943390000000000E-01     -1.265547000000000E+02
4844000000.000000      6.150818000000000E-01      1.338135000000000E+01      4.923401000000000E-01     -1.273984000000000E+02
4845000000.000000      6.171875000000000E-01      1.376563000000000E+01      4.913635000000000E-01     -1.281563000000000E+02
4846000000.000000      6.172180000000000E-01      1.371631000000000E+01      4.914703000000000E-01     -1.290625000000000E+02
4847000000.000000      6.194763000000000E-01      1.385498000000000E+01      4.905853000000000E-01     -1.298281000000000E+02
4848000000.000000      6.180420000000000E-01      1.380566000000000E+01      4.862518000000000E-01     -1.305781000000000E+02
4849000000.000000      6.213684000000000E-01      1.375342000000000E+01      4.861755000000000E-01     -1.315312000000000E+02
4850000000.000000      6.224060000000000E-01      1.392334000000000E+01      4.838562000000000E-01     -1.325781000000000E+02
4851000000.000000      6.226501000000000E-01      1.410645000000000E+01      4.845276000000000E-01     -1.333594000000000E+02
4852000000.000000      6.224365000000000E-01      1.415576000000000E+01      4.817047000000000E-01     -1.340781000000000E+02
4853000000.000000      6.253967000000000E-01      1.417920000000000E+01      4.782715000000000E-01     -1.349609000000000E+02
4854000000.000000      6.264954000000000E-01      1.425732000000000E+01      4.761200000000000E-01     -1.358125000000000E+02
4855000000.000000      6.264954000000000E-01      1.408447000000000E+01      4.743805000000000E-01     -1.368828000000000E+02
4856000000.000000      6.278381000000000E-01      1.409131000000000E+01      4.716187000000000E-01     -1.376328000000000E+02
4857000000.000000      6.289673000000000E-01      1.454980000000000E+01      4.683685000000000E-01     -1.382500000000000E+02
4858000000.000000      6.285706000000000E-01      1.425732000000000E+01      4.655762000000000E-01     -1.393594000000000E+02
4859000000.000000      6.310120000000000E-01      1.425879000000000E+01      4.634705000000000E-01     -1.400703000000000E+02
4860000000.000000      6.317139000000000E-01      1.433545000000000E+01      4.601135000000000E-01     -1.409219000000000E+02
4861000000.000000      6.331482000000000E-01      1.420898000000000E+01      4.580231000000000E-01     -1.417266000000000E+02
4862000000.000000      6.321106000000000E-01      1.427100000000000E+01      4.540863000000000E-01     -1.424922000000000E+02
4863000000.000000      6.346130000000000E-01      1.440283000000000E+01      4.490509000000000E-01     -1.431953000000000E+02
4864000000.000000      6.374512000000000E-01      1.433398000000000E+01      4.461517000000000E-01     -1.440781000000000E+02
4865000000.000000      6.370850000000000E-01      1.448535000000000E+01      4.421387000000000E-01     -1.449141000000000E+02
4866000000.000000      6.395264000000000E-01      1.434082000000000E+01      4.382019000000000E-01     -1.457656000000000E+02
4867000000.000000      6.392212000000000E-01      1.443701000000000E+01      4.326019000000000E-01     -1.466328000000000E+02
4868000000.000000      6.422729000000000E-01      1.428906000000000E+01      4.305725000000000E-01     -1.473516000000000E+02
4869000000.000000      6.420288000000000E-01      1.421631000000000E+01      4.264069000000000E-01     -1.478594000000000E+02
4870000000.000000      6.419067000000000E-01      1.428906000000000E+01      4.234924000000000E-01     -1.487500000000000E+02
4871000000.000000      6.448364000000000E-01      1.412842000000000E+01      4.181976000000000E-01     -1.494844000000000E+02
4872000000.000000      6.481934000000000E-01      1.420117000000000E+01      4.137115000000000E-01     -1.501016000000000E+02
4873000000.000000      6.479492000000000E-01      1.423096000000000E+01      4.088440000000000E-01     -1.508516000000000E+02
4874000000.000000      6.491394000000000E-01      1.424072000000000E+01      4.063568000000000E-01     -1.515156000000000E+02
4875000000.000000      6.520386000000000E-01      1.389746000000000E+01      4.009857000000000E-01     -1.521406000000000E+02
4876000000.000000      6.527710000000000E-01      1.407471000000000E+01      3.968964000000000E-01     -1.528594000000000E+02
4877000000.000000      6.532288000000000E-01      1.408984000000000E+01      3.920135000000000E-01     -1.536172000000000E+02
4878000000.000000      6.557922000000000E-01      1.395361000000000E+01      3.877106000000000E-01     -1.540859000000000E+02
4879000000.000000      6.581421000000000E-01      1.388672000000000E+01      3.831329000000000E-01     -1.545625000000000E+02
4880000000.000000      6.564331000000000E-01      1.387695000000000E+01      3.777618000000000E-01     -1.551875000000000E+02
4881000000.000000      6.583862000000000E-01      1.371875000000000E+01      3.753662000000000E-01     -1.556328000000000E+02
4882000000.000000      6.604614000000000E-01      1.379297000000000E+01      3.724976000000000E-01     -1.562031000000000E+02
4883000000.000000      6.609497000000000E-01      1.364355000000000E+01      3.638916000000000E-01     -1.568672000000000E+02
4884000000.000000      6.626587000000000E-01      1.363525000000000E+01      3.614655000000000E-01     -1.574609000000000E+02
4885000000.000000      6.651306000000000E-01      1.364502000000000E+01      3.579559000000000E-01     -1.576953000000000E+02
4886000000.000000      6.651917000000000E-01      1.349219000000000E+01      3.533173000000000E-01     -1.582734000000000E+02
4887000000.000000      6.661682000000000E-01      1.364746000000000E+01      3.498688000000000E-01     -1.587344000000000E+02
4888000000.000000      6.676331000000000E-01      1.339893000000000E+01      3.446350000000000E-01     -1.593672000000000E+02
4889000000.000000      6.668396000000000E-01      1.328906000000000E+01      3.394928000000000E-01     -1.595859000000000E+02
4890000000.000000      6.670227000000000E-01      1.316943000000000E+01      3.359833000000000E-01     -1.603984000000000E+02
4891000000.000000      6.699829000000000E-01      1.295947000000000E+01      3.317261000000000E-01     -1.603828000000000E+02
4892000000.000000      6.695557000000000E-01      1.286084000000000E+01      3.289337000000000E-01     -1.609219000000000E+02
4893000000.000000      6.724854000000000E-01      1.289355000000000E+01      3.229218000000000E-01     -1.614375000000000E+02
4894000000.000000      6.733398000000000E-01      1.272900000000000E+01      3.184357000000000E-01     -1.617422000000000E+02
4895000000.000000      6.750488000000000E-01      1.266406000000000E+01      3.172455000000000E-01     -1.621328000000000E+02
4896000000.000000      6.748352000000000E-01      1.273438000000000E+01      3.128357000000000E-01     -1.624844000000000E+02
4897000000.000000      6.749268000000000E-01      1.265869000000000E+01      3.086853000000000E-01     -1.628672000000000E+02
4898000000.000000      6.768494000000000E-01      1.245020000000000E+01      3.050537000000000E-01     -1.631016000000000E+02
4899000000.000000      6.775818000000000E-01      1.231543000000000E+01      3.015900000000000E-01     -1.636250000000000E+02
4900000000.000000      6.774292000000000E-01      1.220410000000000E+01      2.973022000000000E-01     -1.638438000000000E+02
4901000000.000000      6.797180000000000E-01      1.205469000000000E+01      2.938843000000000E-01     -1.641328000000000E+02
4902000000.000000      6.799927000000000E-01      1.207666000000000E+01      2.911530000000000E-01     -1.644375000000000E+02
4903000000.000000      6.805420000000000E-01      1.211621000000000E+01      2.865143000000000E-01     -1.649688000000000E+02
4904000000.000000      6.803589000000000E-01      1.188818000000000E+01      2.829285000000000E-01     -1.652891000000000E+02
4905000000.000000      6.825256000000000E-01      1.181006000000000E+01      2.799683000000000E-01     -1.655000000000000E+02
4906000000.000000      6.817932000000000E-01      1.172070000000000E+01      2.760925000000000E-01     -1.656641000000000E+02
4907000000.000000      6.835632000000000E-01      1.161230000000000E+01      2.733307000000000E-01     -1.661094000000000E+02
4908000000.000000      6.833801000000000E-01      1.146973000000000E+01      2.709961000000000E-01     -1.663359000000000E+02
4909000000.000000      6.841125000000000E-01      1.147363000000000E+01      2.654114000000000E-01     -1.667344000000000E+02
4910000000.000000      6.848755000000000E-01      1.132129000000000E+01      2.620544000000000E-01     -1.670938000000000E+02
4911000000.000000      6.867676000000000E-01      1.112061000000000E+01      2.584076000000000E-01     -1.673203000000000E+02
4912000000.000000      6.854248000000000E-01      1.109863000000000E+01      2.554474000000000E-01     -1.677187000000000E+02
4913000000.000000      6.887512000000000E-01      1.097900000000000E+01      2.519836000000000E-01     -1.679453000000000E+02
4914000000.000000      6.888733000000000E-01      1.088428000000000E+01      2.483368000000000E-01     -1.681094000000000E+02
4915000000.000000      6.867371000000000E-01      1.088330000000000E+01      2.440948000000000E-01     -1.684922000000000E+02
4916000000.000000      6.872864000000000E-01      1.067432000000000E+01      2.413101000000000E-01     -1.688359000000000E+02
4917000000.000000      6.894836000000000E-01      1.047266000000000E+01      2.375565000000000E-01     -1.688906000000000E+02
4918000000.000000      6.884155000000000E-01      1.039014000000000E+01      2.341614000000000E-01     -1.692969000000000E+02
4919000000.000000      6.886597000000000E-01      1.051074000000000E+01      2.307129000000000E-01     -1.692734000000000E+02
4920000000.000000      6.891785000000000E-01      1.033789000000000E+01      2.267685000000000E-01     -1.696719000000000E+02
4921000000.000000      6.916809000000000E-01      1.029248000000000E+01      2.241058000000000E-01     -1.698437000000000E+02
4922000000.000000      6.921997000000000E-01      9.971191000000000E+00      2.197647000000000E-01     -1.700312000000000E+02
4923000000.000000      6.920776000000000E-01      1.015918000000000E+01      2.153244000000000E-01     -1.701172000000000E+02
4924000000.000000      6.924438000000000E-01      9.901367000000000E+00      2.119598000000000E-01     -1.704297000000000E+02
4925000000.000000      6.911621000000000E-01      9.785645000000000E+00      2.082367000000000E-01     -1.704219000000000E+02
4926000000.000000      6.921082000000000E-01      9.865723000000000E+00      2.053909000000000E-01     -1.706094000000000E+02
4927000000.000000      6.949463000000000E-01      9.506836000000000E+00      1.998749000000000E-01     -1.707344000000000E+02
4928000000.000000      6.960449000000000E-01      9.357422000000000E+00      1.969147000000000E-01     -1.706953000000000E+02
4929000000.000000      6.945801000000000E-01      9.413574000000000E+00      1.929398000000000E-01     -1.707109000000000E+02
4930000000.000000      6.955261000000000E-01      9.295410000000000E+00      1.897964000000000E-01     -1.709531000000000E+02
4931000000.000000      6.957092000000000E-01      9.166504000000000E+00      1.864090000000000E-01     -1.709375000000000E+02
4932000000.000000      6.965332000000000E-01      9.117188000000000E+00      1.819382000000000E-01     -1.708750000000000E+02
4933000000.000000      6.972351000000000E-01      9.115723000000000E+00      1.778030000000000E-01     -1.705781000000000E+02
4934000000.000000      6.981506000000000E-01      8.906738000000000E+00      1.750336000000000E-01     -1.706328000000000E+02
4935000000.000000      7.003784000000000E-01      8.772461000000000E+00      1.711578000000000E-01     -1.702891000000000E+02
4936000000.000000      6.975708000000000E-01      8.602051000000000E+00      1.668930000000000E-01     -1.701172000000000E+02
4937000000.000000      6.988220000000000E-01      8.681641000000000E+00      1.636124000000000E-01     -1.698984000000000E+02
4938000000.000000      6.990662000000000E-01      8.375488000000000E+00      1.598511000000000E-01     -1.693906000000000E+02
4939000000.000000      7.000427000000000E-01      8.525391000000000E+00      1.568298000000000E-01     -1.690703000000000E+02
4940000000.000000      7.001953000000000E-01      8.372559000000000E+00      1.527939000000000E-01     -1.689141000000000E+02
4941000000.000000      7.013245000000000E-01      8.155762000000000E+00      1.496201000000000E-01     -1.682734000000000E+02
4942000000.000000      7.000122000000000E-01      8.177734000000000E+00      1.460190000000000E-01     -1.676484000000000E+02
4943000000.000000      7.019043000000000E-01      7.989746000000000E+00      1.423874000000000E-01     -1.672578000000000E+02
4944000000.000000      7.010193000000000E-01      7.798828000000000E+00      1.398239000000000E-01     -1.663203000000000E+02
4945000000.000000      7.017517000000000E-01      7.873047000000000E+00      1.361542000000000E-01     -1.656484000000000E+02
4946000000.000000      7.035828000000000E-01      7.774170000000000E+00      1.334610000000000E-01     -1.647891000000000E+02
4947000000.000000      7.038574000000000E-01      7.588623000000000E+00      1.297226000000000E-01     -1.639609000000000E+02
4948000000.000000      7.054138000000000E-01      7.627197000000000E+00      1.273575000000000E-01     -1.629922000000000E+02
4949000000.000000      7.030640000000000E-01      7.445801000000000E+00      1.243286000000000E-01     -1.616406000000000E+02
4950000000.000000      7.052612000000000E-01      7.331787000000000E+00      1.221809000000000E-01     -1.604766000000000E+02
4951000000.000000      7.060852000000000E-01      6.944580000000000E+00      1.193771000000000E-01     -1.594687000000000E+02
4952000000.000000      7.059631000000000E-01      7.212402000000000E+00      1.172523000000000E-01     -1.581875000000000E+02
4953000000.000000      7.074280000000000E-01      6.996826000000000E+00      1.153183000000000E-01     -1.566094000000000E+02
4954000000.000000      7.063904000000000E-01      7.131348000000000E+00      1.128502000000000E-01     -1.550625000000000E+02
