! Network Analyzer HP8722D
! Hewlett-Packard
! Data name: Linha & Wilkinson
! Saver's name: Rodrigo Anjos
! Comments: Teste da utilização de aquisição
continua pelo VNA HP8722D
! Time and date: 22/5/2025 13:06
!              Frequency                     S11                                                   S21                                                   S12                                                   S22
# HZ  S  MA R 50
4800000000.000000      6.500244000000000E-01      1.078418000000000E+01      4.720612000000000E-01     -9.281250000000000E+01
4801000000.000000      6.495056000000000E-01      1.076660000000000E+01      4.741364000000000E-01     -9.339453000000000E+01
4802000000.000000      6.472778000000000E-01      1.081982000000000E+01      4.748535000000000E-01     -9.407030000000000E+01
4803000000.000000      6.457825000000000E-01      1.091748000000000E+01      4.784241000000000E-01     -9.494141000000000E+01
4804000000.000000      6.431274000000000E-01      1.089941000000000E+01      4.792023000000000E-01     -9.566797000000000E+01
4805000000.000000      6.408691000000000E-01      1.078857000000000E+01      4.814301000000000E-01     -9.647655000000000E+01
4806000000.000000      6.400452000000000E-01      1.079639000000000E+01      4.810791000000000E-01     -9.719530000000000E+01
4807000000.000000      6.386719000000000E-01      1.075391000000000E+01      4.826202000000000E-01     -9.815624000000000E+01
4808000000.000000      6.366882000000000E-01      1.078711000000000E+01      4.850159000000000E-01     -9.890234000000000E+01
4809000000.000000      6.355591000000000E-01      1.096533000000000E+01      4.863281000000000E-01     -9.945702000000000E+01
4810000000.000000      6.337280000000000E-01      1.094238000000000E+01      4.879761000000000E-01     -1.002930000000000E+02
4811000000.000000      6.333313000000000E-01      1.091211000000000E+01      4.889984000000000E-01     -1.010664000000000E+02
4812000000.000000      6.339722000000000E-01      1.111230000000000E+01      4.894409000000000E-01     -1.017891000000000E+02
4813000000.000000      6.301270000000000E-01      1.122656000000000E+01      4.909515000000000E-01     -1.027969000000000E+02
4814000000.000000      6.278992000000000E-01      1.125391000000000E+01      4.925842000000000E-01     -1.032734000000000E+02
4815000000.000000      6.267395000000000E-01      1.123047000000000E+01      4.923859000000000E-01     -1.039961000000000E+02
4816000000.000000      6.258545000000000E-01      1.122900000000000E+01      4.953918000000000E-01     -1.047539000000000E+02
4817000000.000000      6.250916000000000E-01      1.125391000000000E+01      4.953766000000000E-01     -1.056641000000000E+02
4818000000.000000      6.242371000000000E-01      1.140234000000000E+01      4.948273000000000E-01     -1.062891000000000E+02
4819000000.000000      6.207886000000000E-01      1.156445000000000E+01      4.968262000000000E-01     -1.070391000000000E+02
4820000000.000000      6.193848000000000E-01      1.157227000000000E+01      4.959869000000000E-01     -1.076015000000000E+02
4821000000.000000      6.215515000000000E-01      1.176221000000000E+01      4.973907000000000E-01     -1.086797000000000E+02
4822000000.000000      6.178894000000000E-01      1.160938000000000E+01      4.958649000000000E-01     -1.091758000000000E+02
4823000000.000000      6.193848000000000E-01      1.174805000000000E+01      4.978027000000000E-01     -1.101484000000000E+02
4824000000.000000      6.184387000000000E-01      1.208203000000000E+01      4.972076000000000E-01     -1.108984000000000E+02
4825000000.000000      6.182556000000000E-01      1.202148000000000E+01      4.983368000000000E-01     -1.116680000000000E+02
4826000000.000000      6.161499000000000E-01      1.197363000000000E+01      4.980011000000000E-01     -1.123672000000000E+02
4827000000.000000      6.164246000000000E-01      1.210693000000000E+01      4.975281000000000E-01     -1.130000000000000E+02
4828000000.000000      6.149292000000000E-01      1.235938000000000E+01      4.988098000000000E-01     -1.138203000000000E+02
4829000000.000000      6.153259000000000E-01      1.248145000000000E+01      4.983978000000000E-01     -1.146797000000000E+02
4830000000.000000      6.161804000000000E-01      1.255859000000000E+01      4.988098000000000E-01     -1.154414000000000E+02
4831000000.000000      6.155701000000000E-01      1.273975000000000E+01      4.983368000000000E-01     -1.160430000000000E+02
4832000000.000000      6.151428000000000E-01      1.291260000000000E+01      4.988708000000000E-01     -1.166055000000000E+02
4833000000.000000      6.126404000000000E-01      1.289355000000000E+01      4.979706000000000E-01     -1.175703000000000E+02
4834000000.000000      6.133728000000000E-01      1.312988000000000E+01      4.983215000000000E-01     -1.183633000000000E+02
4835000000.000000      6.140747000000000E-01      1.324512000000000E+01      4.982147000000000E-01     -1.191953000000000E+02
4836000000.000000      6.146851000000000E-01      1.330811000000000E+01      4.988708000000000E-01     -1.199570000000000E+02
4837000000.000000      6.131287000000000E-01      1.355420000000000E+01      4.971008000000000E-01     -1.210117000000000E+02
4838000000.000000      6.130981000000000E-01      1.349658000000000E+01      4.976959000000000E-01     -1.214453000000000E+02
4839000000.000000      6.174622000000000E-01      1.372461000000000E+01      4.978180000000000E-01     -1.223164000000000E+02
4840000000.000000      6.162109000000000E-01      1.366260000000000E+01      4.984131000000000E-01     -1.231758000000000E+02
4841000000.000000      6.144409000000000E-01      1.394678000000000E+01      4.967041000000000E-01     -1.240977000000000E+02
4842000000.000000      6.161194000000000E-01      1.406494000000000E+01      4.946289000000000E-01     -1.247109000000000E+02
4843000000.000000      6.201782000000000E-01      1.396875000000000E+01      4.964294000000000E-01     -1.257305000000000E+02
4844000000.000000      6.159668000000000E-01      1.386475000000000E+01      4.929504000000000E-01     -1.264648000000000E+02
4845000000.000000      6.175537000000000E-01      1.418994000000000E+01      4.925995000000000E-01     -1.272383000000000E+02
4846000000.000000      6.201477000000000E-01      1.428076000000000E+01      4.907532000000000E-01     -1.280547000000000E+02
4847000000.000000      6.211243000000000E-01      1.434375000000000E+01      4.907684000000000E-01     -1.286250000000000E+02
4848000000.000000      6.212158000000000E-01      1.438623000000000E+01      4.864197000000000E-01     -1.297188000000000E+02
4849000000.000000      6.216736000000000E-01      1.443604000000000E+01      4.872589000000000E-01     -1.304766000000000E+02
4850000000.000000      6.206055000000000E-01      1.453760000000000E+01      4.845123000000000E-01     -1.314219000000000E+02
4851000000.000000      6.231995000000000E-01      1.475586000000000E+01      4.843597000000000E-01     -1.322734000000000E+02
4852000000.000000      6.255798000000000E-01      1.476807000000000E+01      4.821930000000000E-01     -1.331640000000000E+02
4853000000.000000      6.250916000000000E-01      1.468164000000000E+01      4.781799000000000E-01     -1.340625000000000E+02
4854000000.000000      6.259155000000000E-01      1.488623000000000E+01      4.766083000000000E-01     -1.348203000000000E+02
4855000000.000000      6.262817000000000E-01      1.478320000000000E+01      4.756470000000000E-01     -1.356719000000000E+02
4856000000.000000      6.284180000000000E-01      1.485059000000000E+01      4.714355000000000E-01     -1.366016000000000E+02
4857000000.000000      6.302490000000000E-01      1.501807000000000E+01      4.704895000000000E-01     -1.372500000000000E+02
4858000000.000000      6.320801000000000E-01      1.484229000000000E+01      4.670563000000000E-01     -1.382266000000000E+02
4859000000.000000      6.315613000000000E-01      1.471729000000000E+01      4.658356000000000E-01     -1.390781000000000E+02
4860000000.000000      6.340942000000000E-01      1.501123000000000E+01      4.610748000000000E-01     -1.398281000000000E+02
4861000000.000000      6.349182000000000E-01      1.510986000000000E+01      4.580383000000000E-01     -1.407422000000000E+02
4862000000.000000      6.337280000000000E-01      1.495215000000000E+01      4.547577000000000E-01     -1.414922000000000E+02
4863000000.000000      6.354675000000000E-01      1.494385000000000E+01      4.512177000000000E-01     -1.424844000000000E+02
4864000000.000000      6.378479000000000E-01      1.489307000000000E+01      4.486694000000000E-01     -1.431641000000000E+02
4865000000.000000      6.391602000000000E-01      1.496338000000000E+01      4.451599000000000E-01     -1.439062000000000E+02
4866000000.000000      6.404114000000000E-01      1.491650000000000E+01      4.401550000000000E-01     -1.447969000000000E+02
4867000000.000000      6.398926000000000E-01      1.492627000000000E+01      4.365234000000000E-01     -1.457813000000000E+02
4868000000.000000      6.411133000000000E-01      1.489990000000000E+01      4.339905000000000E-01     -1.463516000000000E+02
4869000000.000000      6.455078000000000E-01      1.475293000000000E+01      4.296875000000000E-01     -1.472969000000000E+02
4870000000.000000      6.454163000000000E-01      1.486035000000000E+01      4.256439000000000E-01     -1.477187000000000E+02
4871000000.000000      6.434937000000000E-01      1.483691000000000E+01      4.194641000000000E-01     -1.486094000000000E+02
4872000000.000000      6.479187000000000E-01      1.478320000000000E+01      4.165039000000000E-01     -1.491797000000000E+02
4873000000.000000      6.485596000000000E-01      1.479443000000000E+01      4.112701000000000E-01     -1.501328000000000E+02
4874000000.000000      6.504211000000000E-01      1.482568000000000E+01      4.074860000000000E-01     -1.507344000000000E+02
4875000000.000000      6.503601000000000E-01      1.475049000000000E+01      4.044952000000000E-01     -1.511797000000000E+02
4876000000.000000      6.520691000000000E-01      1.465967000000000E+01      4.002380000000000E-01     -1.520781000000000E+02
4877000000.000000      6.536560000000000E-01      1.463770000000000E+01      3.948364000000000E-01     -1.526562000000000E+02
4878000000.000000      6.550903000000000E-01      1.459082000000000E+01      3.898163000000000E-01     -1.532500000000000E+02
4879000000.000000      6.568909000000000E-01      1.463086000000000E+01      3.850403000000000E-01     -1.538359000000000E+02
4880000000.000000      6.572571000000000E-01      1.457715000000000E+01      3.818359000000000E-01     -1.543125000000000E+02
4881000000.000000      6.580200000000000E-01      1.442334000000000E+01      3.767548000000000E-01     -1.551250000000000E+02
4882000000.000000      6.609192000000000E-01      1.423682000000000E+01      3.741455000000000E-01     -1.557266000000000E+02
4883000000.000000      6.604004000000000E-01      1.432861000000000E+01      3.671112000000000E-01     -1.561641000000000E+02
4884000000.000000      6.625366000000000E-01      1.420215000000000E+01      3.636169000000000E-01     -1.565781000000000E+02
4885000000.000000      6.629639000000000E-01      1.431494000000000E+01      3.596191000000000E-01     -1.568359000000000E+02
4886000000.000000      6.644592000000000E-01      1.419141000000000E+01      3.547363000000000E-01     -1.574062000000000E+02
4887000000.000000      6.653748000000000E-01      1.415283000000000E+01      3.506165000000000E-01     -1.582734000000000E+02
4888000000.000000      6.659851000000000E-01      1.388525000000000E+01      3.484039000000000E-01     -1.583437000000000E+02
4889000000.000000      6.687622000000000E-01      1.366406000000000E+01      3.425293000000000E-01     -1.589141000000000E+02
4890000000.000000      6.675110000000000E-01      1.367090000000000E+01      3.388062000000000E-01     -1.597109000000000E+02
4891000000.000000      6.707764000000000E-01      1.366113000000000E+01      3.339233000000000E-01     -1.597500000000000E+02
4892000000.000000      6.708984000000000E-01      1.364063000000000E+01      3.301239000000000E-01     -1.602500000000000E+02
4893000000.000000      6.727295000000000E-01      1.332764000000000E+01      3.262634000000000E-01     -1.610000000000000E+02
4894000000.000000      6.730957000000000E-01      1.337402000000000E+01      3.218842000000000E-01     -1.612656000000000E+02
4895000000.000000      6.749573000000000E-01      1.347998000000000E+01      3.197327000000000E-01     -1.614375000000000E+02
4896000000.000000      6.765137000000000E-01      1.340869000000000E+01      3.150024000000000E-01     -1.618359000000000E+02
4897000000.000000      6.752319000000000E-01      1.313965000000000E+01      3.106232000000000E-01     -1.621875000000000E+02
4898000000.000000      6.773682000000000E-01      1.308838000000000E+01      3.080902000000000E-01     -1.624531000000000E+02
4899000000.000000      6.757813000000000E-01      1.296387000000000E+01      3.036194000000000E-01     -1.630938000000000E+02
4900000000.000000      6.793823000000000E-01      1.289795000000000E+01      2.998199000000000E-01     -1.633750000000000E+02
4901000000.000000      6.795654000000000E-01      1.280029000000000E+01      2.963104000000000E-01     -1.634844000000000E+02
4902000000.000000      6.795349000000000E-01      1.261621000000000E+01      2.932281000000000E-01     -1.638906000000000E+02
4903000000.000000      6.806641000000000E-01      1.267383000000000E+01      2.890930000000000E-01     -1.643125000000000E+02
4904000000.000000      6.820374000000000E-01      1.251855000000000E+01      2.845459000000000E-01     -1.647344000000000E+02
4905000000.000000      6.810608000000000E-01      1.233057000000000E+01      2.827759000000000E-01     -1.649922000000000E+02
4906000000.000000      6.813354000000000E-01      1.226855000000000E+01      2.788239000000000E-01     -1.650234000000000E+02
4907000000.000000      6.829529000000000E-01      1.217676000000000E+01      2.744751000000000E-01     -1.656094000000000E+02
4908000000.000000      6.852417000000000E-01      1.194727000000000E+01      2.719269000000000E-01     -1.660781000000000E+02
4909000000.000000      6.838989000000000E-01      1.199268000000000E+01      2.679443000000000E-01     -1.663125000000000E+02
4910000000.000000      6.861877000000000E-01      1.191602000000000E+01      2.644348000000000E-01     -1.663984000000000E+02
4911000000.000000      6.851807000000000E-01      1.168359000000000E+01      2.610321000000000E-01     -1.668047000000000E+02
4912000000.000000      6.865540000000000E-01      1.185107000000000E+01      2.579193000000000E-01     -1.671797000000000E+02
4913000000.000000      6.871948000000000E-01      1.155029000000000E+01      2.543335000000000E-01     -1.674453000000000E+02
4914000000.000000      6.879578000000000E-01      1.128564000000000E+01      2.510223000000000E-01     -1.675156000000000E+02
4915000000.000000      6.869202000000000E-01      1.144336000000000E+01      2.469406000000000E-01     -1.681406000000000E+02
4916000000.000000      6.879883000000000E-01      1.131445000000000E+01      2.438126000000000E-01     -1.683672000000000E+02
4917000000.000000      6.903076000000000E-01      1.117432000000000E+01      2.405243000000000E-01     -1.685781000000000E+02
4918000000.000000      6.915283000000000E-01      1.112354000000000E+01      2.354050000000000E-01     -1.687813000000000E+02
4919000000.000000      6.896362000000000E-01      1.109326000000000E+01      2.328491000000000E-01     -1.689141000000000E+02
4920000000.000000      6.894531000000000E-01      1.092969000000000E+01      2.287827000000000E-01     -1.694062000000000E+02
4921000000.000000      6.903687000000000E-01      1.104785000000000E+01      2.253342000000000E-01     -1.694141000000000E+02
4922000000.000000      6.906738000000000E-01      1.080762000000000E+01      2.224121000000000E-01     -1.696094000000000E+02
4923000000.000000      6.931458000000000E-01      1.060156000000000E+01      2.179184000000000E-01     -1.697969000000000E+02
4924000000.000000      6.927490000000000E-01      1.073877000000000E+01      2.143173000000000E-01     -1.701641000000000E+02
4925000000.000000      6.927490000000000E-01      1.042871000000000E+01      2.108459000000000E-01     -1.700938000000000E+02
4926000000.000000      6.918640000000000E-01      1.044629000000000E+01      2.076187000000000E-01     -1.704531000000000E+02
4927000000.000000      6.928101000000000E-01      1.022656000000000E+01      2.030334000000000E-01     -1.704922000000000E+02
4928000000.000000      6.950378000000000E-01      1.001367000000000E+01      1.993790000000000E-01     -1.705703000000000E+02
4929000000.000000      6.954041000000000E-01      9.983398000000000E+00      1.955566000000000E-01     -1.704766000000000E+02
4930000000.000000      6.963196000000000E-01      9.942383000000000E+00      1.914978000000000E-01     -1.707578000000000E+02
4931000000.000000      6.958008000000000E-01      9.918945000000000E+00      1.887283000000000E-01     -1.706563000000000E+02
4932000000.000000      6.972046000000000E-01      9.641602000000000E+00      1.840439000000000E-01     -1.705547000000000E+02
4933000000.000000      6.959534000000000E-01      9.542969000000000E+00      1.801682000000000E-01     -1.704922000000000E+02
4934000000.000000      6.961670000000000E-01      9.474121000000000E+00      1.763535000000000E-01     -1.705781000000000E+02
4935000000.000000      6.977234000000000E-01      9.401367000000000E+00      1.736908000000000E-01     -1.702969000000000E+02
4936000000.000000      6.988220000000000E-01      9.437012000000000E+00      1.689301000000000E-01     -1.701953000000000E+02
4937000000.000000      6.998291000000000E-01      9.185547000000000E+00      1.659698000000000E-01     -1.698672000000000E+02
4938000000.000000      6.980896000000000E-01      9.221191000000000E+00      1.618729000000000E-01     -1.696875000000000E+02
4939000000.000000      6.983643000000000E-01      9.100586000000000E+00      1.582413000000000E-01     -1.692422000000000E+02
4940000000.000000      6.990662000000000E-01      9.026367000000000E+00      1.546021000000000E-01     -1.690469000000000E+02
4941000000.000000      7.013245000000000E-01      8.845215000000000E+00      1.512604000000000E-01     -1.685000000000000E+02
4942000000.000000      6.997681000000000E-01      8.779297000000000E+00      1.474686000000000E-01     -1.680938000000000E+02
4943000000.000000      7.033081000000000E-01      8.691406000000000E+00      1.444473000000000E-01     -1.673281000000000E+02
4944000000.000000      7.048950000000000E-01      8.364258000000000E+00      1.408081000000000E-01     -1.667656000000000E+02
4945000000.000000      7.004089000000000E-01      8.354980000000000E+00      1.375656000000000E-01     -1.661172000000000E+02
4946000000.000000      7.029724000000000E-01      8.371582000000000E+00      1.344147000000000E-01     -1.653906000000000E+02
4947000000.000000      7.032776000000000E-01      8.214844000000000E+00      1.307602000000000E-01     -1.645781000000000E+02
4948000000.000000      7.047729000000000E-01      8.227051000000000E+00      1.281433000000000E-01     -1.633437000000000E+02
4949000000.000000      7.033081000000000E-01      8.086914000000000E+00      1.259308000000000E-01     -1.624219000000000E+02
4950000000.000000      7.048340000000000E-01      7.984131000000000E+00      1.226273000000000E-01     -1.612969000000000E+02
4951000000.000000      7.044067000000000E-01      7.941650000000000E+00      1.203918000000000E-01     -1.603203000000000E+02
4952000000.000000      7.063599000000000E-01      7.720459000000000E+00      1.173897000000000E-01     -1.588750000000000E+02
4953000000.000000      7.048950000000000E-01      7.645020000000000E+00      1.154022000000000E-01     -1.573672000000000E+02
4954000000.000000      7.070618000000000E-01      7.585938000000000E+00      1.134338000000000E-01     -1.563281000000000E+02
