! Network Analyzer HP8722D
! Hewlett-Packard
! Data name: Linha & Wilkinson
! Saver's name: Rodrigo Anjos
! Comments: Teste da utilização de aquisição
continua pelo VNA HP8722D
! Time and date: 22/5/2025 09:50
!              Frequency                     S11                                                   S21                                                   S12                                                   S22
# HZ  S  MA R 50
4800000000.000000      6.470947000000000E-01      1.034766000000000E+01      4.747467000000000E-01     -9.383204000000000E+01
4801000000.000000      6.442261000000000E-01      1.041357000000000E+01      4.755249000000000E-01     -9.451172000000000E+01
4802000000.000000      6.440430000000000E-01      1.031982000000000E+01      4.765015000000000E-01     -9.505077000000000E+01
4803000000.000000      6.426697000000000E-01      1.036963000000000E+01      4.803467000000000E-01     -9.586329000000000E+01
4804000000.000000      6.388855000000000E-01      1.033643000000000E+01      4.818420000000000E-01     -9.653124000000000E+01
4805000000.000000      6.405029000000000E-01      1.024707000000000E+01      4.839478000000000E-01     -9.757813000000000E+01
4806000000.000000      6.372375000000000E-01      1.031055000000000E+01      4.860077000000000E-01     -9.818359000000000E+01
4807000000.000000      6.337585000000000E-01      1.028174000000000E+01      4.866791000000000E-01     -9.907812000000000E+01
4808000000.000000      6.327515000000000E-01      1.032275000000000E+01      4.877472000000000E-01     -9.955078000000000E+01
4809000000.000000      6.330261000000000E-01      1.062207000000000E+01      4.895325000000000E-01     -1.005312000000000E+02
4810000000.000000      6.306152000000000E-01      1.049707000000000E+01      4.916077000000000E-01     -1.012305000000000E+02
4811000000.000000      6.290283000000000E-01      1.051904000000000E+01      4.920349000000000E-01     -1.020781000000000E+02
4812000000.000000      6.278076000000000E-01      1.064697000000000E+01      4.931335000000000E-01     -1.028906000000000E+02
4813000000.000000      6.267395000000000E-01      1.084863000000000E+01      4.937286000000000E-01     -1.035000000000000E+02
4814000000.000000      6.249390000000000E-01      1.067725000000000E+01      4.943237000000000E-01     -1.041875000000000E+02
4815000000.000000      6.222229000000000E-01      1.089941000000000E+01      4.953308000000000E-01     -1.051641000000000E+02
4816000000.000000      6.232910000000000E-01      1.092725000000000E+01      4.968109000000000E-01     -1.056328000000000E+02
4817000000.000000      6.206970000000000E-01      1.097363000000000E+01      4.968719000000000E-01     -1.065898000000000E+02
4818000000.000000      6.203003000000000E-01      1.111230000000000E+01      4.973145000000000E-01     -1.073164000000000E+02
4819000000.000000      6.200867000000000E-01      1.120850000000000E+01      4.972076000000000E-01     -1.079258000000000E+02
4820000000.000000      6.165161000000000E-01      1.119873000000000E+01      4.979095000000000E-01     -1.087500000000000E+02
4821000000.000000      6.177368000000000E-01      1.142139000000000E+01      4.986572000000000E-01     -1.094297000000000E+02
4822000000.000000      6.159973000000000E-01      1.127881000000000E+01      4.983215000000000E-01     -1.102500000000000E+02
4823000000.000000      6.156616000000000E-01      1.144336000000000E+01      4.992218000000000E-01     -1.111875000000000E+02
4824000000.000000      6.152649000000000E-01      1.154492000000000E+01      4.994965000000000E-01     -1.118711000000000E+02
4825000000.000000      6.155090000000000E-01      1.171240000000000E+01      4.988708000000000E-01     -1.125000000000000E+02
4826000000.000000      6.136780000000000E-01      1.165918000000000E+01      4.996033000000000E-01     -1.134258000000000E+02
4827000000.000000      6.130676000000000E-01      1.193213000000000E+01      4.989471000000000E-01     -1.140469000000000E+02
4828000000.000000      6.119690000000000E-01      1.194580000000000E+01      5.002136000000000E-01     -1.148594000000000E+02
4829000000.000000      6.130371000000000E-01      1.233350000000000E+01      5.000610000000000E-01     -1.155937000000000E+02
4830000000.000000      6.138306000000000E-01      1.211475000000000E+01      5.006409000000000E-01     -1.163398000000000E+02
4831000000.000000      6.123657000000000E-01      1.224805000000000E+01      5.001831000000000E-01     -1.173047000000000E+02
4832000000.000000      6.118774000000000E-01      1.260791000000000E+01      4.984741000000000E-01     -1.178086000000000E+02
4833000000.000000      6.095581000000000E-01      1.252148000000000E+01      4.989777000000000E-01     -1.185938000000000E+02
4834000000.000000      6.112061000000000E-01      1.272998000000000E+01      4.990540000000000E-01     -1.193672000000000E+02
4835000000.000000      6.120605000000000E-01      1.275098000000000E+01      5.000610000000000E-01     -1.202422000000000E+02
4836000000.000000      6.122742000000000E-01      1.300342000000000E+01      4.976959000000000E-01     -1.209101000000000E+02
4837000000.000000      6.128235000000000E-01      1.306543000000000E+01      4.968262000000000E-01     -1.219609000000000E+02
4838000000.000000      6.111145000000000E-01      1.315186000000000E+01      4.977570000000000E-01     -1.224766000000000E+02
4839000000.000000      6.156311000000000E-01      1.333740000000000E+01      4.983826000000000E-01     -1.233164000000000E+02
4840000000.000000      6.146240000000000E-01      1.318750000000000E+01      4.971771000000000E-01     -1.240703000000000E+02
4841000000.000000      6.137085000000000E-01      1.355811000000000E+01      4.959106000000000E-01     -1.251094000000000E+02
4842000000.000000      6.146851000000000E-01      1.355127000000000E+01      4.957581000000000E-01     -1.256680000000000E+02
4843000000.000000      6.163635000000000E-01      1.353369000000000E+01      4.948883000000000E-01     -1.265351000000000E+02
4844000000.000000      6.166992000000000E-01      1.365723000000000E+01      4.928741000000000E-01     -1.274219000000000E+02
4845000000.000000      6.182861000000000E-01      1.379980000000000E+01      4.922333000000000E-01     -1.282812000000000E+02
4846000000.000000      6.176453000000000E-01      1.393994000000000E+01      4.919128000000000E-01     -1.291719000000000E+02
4847000000.000000      6.196594000000000E-01      1.397314000000000E+01      4.895020000000000E-01     -1.296406000000000E+02
4848000000.000000      6.204224000000000E-01      1.407324000000000E+01      4.878998000000000E-01     -1.306406000000000E+02
4849000000.000000      6.204834000000000E-01      1.406934000000000E+01      4.863586000000000E-01     -1.313828000000000E+02
4850000000.000000      6.199951000000000E-01      1.428076000000000E+01      4.833221000000000E-01     -1.323281000000000E+02
4851000000.000000      6.222534000000000E-01      1.424512000000000E+01      4.856720000000000E-01     -1.332969000000000E+02
4852000000.000000      6.229248000000000E-01      1.430518000000000E+01      4.804688000000000E-01     -1.341172000000000E+02
4853000000.000000      6.245728000000000E-01      1.437402000000000E+01      4.774017000000000E-01     -1.349219000000000E+02
4854000000.000000      6.242676000000000E-01      1.443604000000000E+01      4.755859000000000E-01     -1.358828000000000E+02
4855000000.000000      6.276245000000000E-01      1.449756000000000E+01      4.744873000000000E-01     -1.366484000000000E+02
4856000000.000000      6.280823000000000E-01      1.425439000000000E+01      4.713440000000000E-01     -1.374766000000000E+02
4857000000.000000      6.285095000000000E-01      1.449463000000000E+01      4.698029000000000E-01     -1.382891000000000E+02
4858000000.000000      6.292725000000000E-01      1.440137000000000E+01      4.670563000000000E-01     -1.392422000000000E+02
4859000000.000000      6.312561000000000E-01      1.438623000000000E+01      4.641571000000000E-01     -1.401719000000000E+02
4860000000.000000      6.297607000000000E-01      1.455957000000000E+01      4.593811000000000E-01     -1.407734000000000E+02
4861000000.000000      6.326294000000000E-01      1.441797000000000E+01      4.563904000000000E-01     -1.416875000000000E+02
4862000000.000000      6.322021000000000E-01      1.459912000000000E+01      4.539490000000000E-01     -1.423594000000000E+02
4863000000.000000      6.340027000000000E-01      1.460205000000000E+01      4.493713000000000E-01     -1.433203000000000E+02
4864000000.000000      6.379395000000000E-01      1.451270000000000E+01      4.477081000000000E-01     -1.440625000000000E+02
4865000000.000000      6.376343000000000E-01      1.442090000000000E+01      4.419556000000000E-01     -1.446875000000000E+02
4866000000.000000      6.388855000000000E-01      1.446582000000000E+01      4.388733000000000E-01     -1.456172000000000E+02
4867000000.000000      6.395569000000000E-01      1.449219000000000E+01      4.341888000000000E-01     -1.466016000000000E+02
4868000000.000000      6.415710000000000E-01      1.436426000000000E+01      4.312286000000000E-01     -1.472500000000000E+02
4869000000.000000      6.445618000000000E-01      1.434912000000000E+01      4.268951000000000E-01     -1.480313000000000E+02
4870000000.000000      6.445313000000000E-01      1.454297000000000E+01      4.229736000000000E-01     -1.485312000000000E+02
4871000000.000000      6.440125000000000E-01      1.441504000000000E+01      4.197540000000000E-01     -1.494141000000000E+02
4872000000.000000      6.486816000000000E-01      1.422852000000000E+01      4.140778000000000E-01     -1.498047000000000E+02
4873000000.000000      6.494446000000000E-01      1.443848000000000E+01      4.089203000000000E-01     -1.509063000000000E+02
4874000000.000000      6.498718000000000E-01      1.443994000000000E+01      4.047089000000000E-01     -1.514141000000000E+02
4875000000.000000      6.502991000000000E-01      1.418701000000000E+01      4.002991000000000E-01     -1.521172000000000E+02
4876000000.000000      6.519165000000000E-01      1.419287000000000E+01      3.971710000000000E-01     -1.527734000000000E+02
4877000000.000000      6.531982000000000E-01      1.408008000000000E+01      3.930359000000000E-01     -1.535234000000000E+02
4878000000.000000      6.548767000000000E-01      1.413916000000000E+01      3.880310000000000E-01     -1.539609000000000E+02
4879000000.000000      6.557922000000000E-01      1.415723000000000E+01      3.829956000000000E-01     -1.545078000000000E+02
4880000000.000000      6.576233000000000E-01      1.402930000000000E+01      3.795013000000000E-01     -1.551719000000000E+02
4881000000.000000      6.600037000000000E-01      1.402637000000000E+01      3.748322000000000E-01     -1.557578000000000E+02
4882000000.000000      6.606140000000000E-01      1.392627000000000E+01      3.706970000000000E-01     -1.561563000000000E+02
4883000000.000000      6.622925000000000E-01      1.370508000000000E+01      3.653564000000000E-01     -1.569062000000000E+02
4884000000.000000      6.635437000000000E-01      1.385205000000000E+01      3.605194000000000E-01     -1.571719000000000E+02
4885000000.000000      6.641541000000000E-01      1.372998000000000E+01      3.566132000000000E-01     -1.576953000000000E+02
4886000000.000000      6.643066000000000E-01      1.379053000000000E+01      3.522491000000000E-01     -1.581875000000000E+02
4887000000.000000      6.652527000000000E-01      1.337012000000000E+01      3.490601000000000E-01     -1.586562000000000E+02
4888000000.000000      6.655884000000000E-01      1.338232000000000E+01      3.456116000000000E-01     -1.595000000000000E+02
4889000000.000000      6.683655000000000E-01      1.327148000000000E+01      3.402405000000000E-01     -1.594844000000000E+02
4890000000.000000      6.669006000000000E-01      1.333008000000000E+01      3.351593000000000E-01     -1.603203000000000E+02
4891000000.000000      6.697388000000000E-01      1.338232000000000E+01      3.311157000000000E-01     -1.606719000000000E+02
4892000000.000000      6.713257000000000E-01      1.304053000000000E+01      3.279114000000000E-01     -1.606016000000000E+02
4893000000.000000      6.724854000000000E-01      1.305859000000000E+01      3.226776000000000E-01     -1.612890000000000E+02
4894000000.000000      6.729126000000000E-01      1.284668000000000E+01      3.192139000000000E-01     -1.615859000000000E+02
4895000000.000000      6.750183000000000E-01      1.279053000000000E+01      3.169250000000000E-01     -1.620625000000000E+02
4896000000.000000      6.745300000000000E-01      1.276172000000000E+01      3.119659000000000E-01     -1.624844000000000E+02
4897000000.000000      6.742859000000000E-01      1.260400000000000E+01      3.079224000000000E-01     -1.628281000000000E+02
4898000000.000000      6.752625000000000E-01      1.258301000000000E+01      3.051147000000000E-01     -1.630625000000000E+02
4899000000.000000      6.770020000000000E-01      1.248975000000000E+01      3.010559000000000E-01     -1.635547000000000E+02
4900000000.000000      6.776123000000000E-01      1.245117000000000E+01      2.973938000000000E-01     -1.637734000000000E+02
4901000000.000000      6.788940000000000E-01      1.233887000000000E+01      2.937927000000000E-01     -1.640781000000000E+02
4902000000.000000      6.799927000000000E-01      1.221777000000000E+01      2.908936000000000E-01     -1.643516000000000E+02
4903000000.000000      6.805725000000000E-01      1.215479000000000E+01      2.869110000000000E-01     -1.646797000000000E+02
4904000000.000000      6.801758000000000E-01      1.197607000000000E+01      2.834015000000000E-01     -1.652031000000000E+02
4905000000.000000      6.808167000000000E-01      1.194727000000000E+01      2.795563000000000E-01     -1.654453000000000E+02
4906000000.000000      6.808167000000000E-01      1.168652000000000E+01      2.757874000000000E-01     -1.654219000000000E+02
4907000000.000000      6.826172000000000E-01      1.162061000000000E+01      2.730255000000000E-01     -1.659219000000000E+02
4908000000.000000      6.848755000000000E-01      1.144629000000000E+01      2.697296000000000E-01     -1.664844000000000E+02
4909000000.000000      6.824036000000000E-01      1.143359000000000E+01      2.653046000000000E-01     -1.667500000000000E+02
4910000000.000000      6.832581000000000E-01      1.155469000000000E+01      2.619781000000000E-01     -1.669531000000000E+02
4911000000.000000      6.843872000000000E-01      1.126904000000000E+01      2.587433000000000E-01     -1.671484000000000E+02
4912000000.000000      6.864319000000000E-01      1.127197000000000E+01      2.555389000000000E-01     -1.674844000000000E+02
4913000000.000000      6.855164000000000E-01      1.116748000000000E+01      2.517242000000000E-01     -1.677578000000000E+02
4914000000.000000      6.877747000000000E-01      1.113037000000000E+01      2.484360000000000E-01     -1.678359000000000E+02
4915000000.000000      6.867676000000000E-01      1.081445000000000E+01      2.443466000000000E-01     -1.683906000000000E+02
4916000000.000000      6.884766000000000E-01      1.064844000000000E+01      2.405472000000000E-01     -1.687891000000000E+02
4917000000.000000      6.879578000000000E-01      1.077051000000000E+01      2.375107000000000E-01     -1.688359000000000E+02
4918000000.000000      6.892395000000000E-01      1.064404000000000E+01      2.337341000000000E-01     -1.693125000000000E+02
4919000000.000000      6.889954000000000E-01      1.053027000000000E+01      2.301636000000000E-01     -1.692812000000000E+02
4920000000.000000      6.901550000000000E-01      1.053955000000000E+01      2.262573000000000E-01     -1.696094000000000E+02
4921000000.000000      6.905212000000000E-01      1.039404000000000E+01      2.234650000000000E-01     -1.697578000000000E+02
4922000000.000000      6.909485000000000E-01      1.019238000000000E+01      2.188644000000000E-01     -1.699219000000000E+02
4923000000.000000      6.911621000000000E-01      1.025537000000000E+01      2.150650000000000E-01     -1.699375000000000E+02
4924000000.000000      6.925964000000000E-01      1.000000000000000E+01      2.110748000000000E-01     -1.703438000000000E+02
4925000000.000000      6.913757000000000E-01      9.920410000000000E+00      2.084198000000000E-01     -1.703828000000000E+02
4926000000.000000      6.947632000000000E-01      9.850586000000000E+00      2.048111000000000E-01     -1.704531000000000E+02
4927000000.000000      6.940308000000000E-01      9.748535000000000E+00      2.002945000000000E-01     -1.706328000000000E+02
4928000000.000000      6.947632000000000E-01      9.331055000000000E+00      1.966705000000000E-01     -1.707031000000000E+02
4929000000.000000      6.937256000000000E-01      9.435547000000000E+00      1.924057000000000E-01     -1.706875000000000E+02
4930000000.000000      6.958923000000000E-01      9.568848000000000E+00      1.893616000000000E-01     -1.706328000000000E+02
4931000000.000000      6.979675000000000E-01      9.246094000000000E+00      1.863403000000000E-01     -1.706484000000000E+02
4932000000.000000      6.955566000000000E-01      9.295410000000000E+00      1.826553000000000E-01     -1.705625000000000E+02
4933000000.000000      6.953125000000000E-01      9.007324000000000E+00      1.776199000000000E-01     -1.704531000000000E+02
4934000000.000000      6.961670000000000E-01      9.029297000000000E+00      1.744843000000000E-01     -1.705859000000000E+02
4935000000.000000      6.993103000000000E-01      8.864258000000000E+00      1.710052000000000E-01     -1.701641000000000E+02
4936000000.000000      6.980896000000000E-01      8.897461000000000E+00      1.671143000000000E-01     -1.699297000000000E+02
4937000000.000000      6.984863000000000E-01      8.684570000000000E+00      1.637268000000000E-01     -1.699141000000000E+02
4938000000.000000      6.976624000000000E-01      8.791504000000000E+00      1.592560000000000E-01     -1.694062000000000E+02
4939000000.000000      6.994019000000000E-01      8.629395000000000E+00      1.566772000000000E-01     -1.689766000000000E+02
4940000000.000000      7.001648000000000E-01      8.489258000000000E+00      1.524658000000000E-01     -1.686875000000000E+02
4941000000.000000      7.001343000000000E-01      8.360352000000000E+00      1.495514000000000E-01     -1.681562000000000E+02
4942000000.000000      6.993408000000000E-01      8.417969000000000E+00      1.456680000000000E-01     -1.676172000000000E+02
4943000000.000000      7.019653000000000E-01      8.242188000000000E+00      1.422882000000000E-01     -1.668516000000000E+02
4944000000.000000      7.018127000000000E-01      7.982910000000000E+00      1.390839000000000E-01     -1.662891000000000E+02
4945000000.000000      7.026367000000000E-01      7.954102000000000E+00      1.355820000000000E-01     -1.655313000000000E+02
4946000000.000000      7.024536000000000E-01      7.815186000000000E+00      1.326294000000000E-01     -1.647187000000000E+02
4947000000.000000      7.026062000000000E-01      7.587402000000000E+00      1.298828000000000E-01     -1.637969000000000E+02
4948000000.000000      7.044067000000000E-01      7.835938000000000E+00      1.273422000000000E-01     -1.628047000000000E+02
4949000000.000000      7.030029000000000E-01      7.557129000000000E+00      1.244850000000000E-01     -1.614844000000000E+02
4950000000.000000      7.036743000000000E-01      7.647705000000000E+00      1.217613000000000E-01     -1.604141000000000E+02
4951000000.000000      7.050171000000000E-01      7.348389000000000E+00      1.198273000000000E-01     -1.593125000000000E+02
4952000000.000000      7.026978000000000E-01      7.304443000000000E+00      1.167831000000000E-01     -1.580781000000000E+02
4953000000.000000      7.067871000000000E-01      7.166992000000000E+00      1.150932000000000E-01     -1.564844000000000E+02
4954000000.000000      7.064819000000000E-01      7.146484000000000E+00      1.130829000000000E-01     -1.550703000000000E+02
