! Network Analyzer HP8722D
! Hewlett-Packard
! Data name: Linha & Wilkinson
! Saver's name: Rodrigo Anjos
! Comments: Teste da utilização de aquisição
continua pelo VNA HP8722D
! Time and date: 22/5/2025 11:58
!              Frequency                     S11                                                   S21                                                   S12                                                   S22
# HZ  S  MA R 50
4800000000.000000      6.519470000000000E-01      1.077441000000000E+01      4.718323000000000E-01     -9.228516000000000E+01
4801000000.000000      6.499939000000000E-01      1.088428000000000E+01      4.705811000000000E-01     -9.295313000000000E+01
4802000000.000000      6.488953000000000E-01      1.093799000000000E+01      4.745789000000000E-01     -9.377344000000000E+01
4803000000.000000      6.486511000000000E-01      1.075537000000000E+01      4.780121000000000E-01     -9.444921000000000E+01
4804000000.000000      6.439209000000000E-01      1.077441000000000E+01      4.779358000000000E-01     -9.517187000000000E+01
4805000000.000000      6.452637000000000E-01      1.062891000000000E+01      4.808960000000000E-01     -9.599609000000000E+01
4806000000.000000      6.426392000000000E-01      1.074170000000000E+01      4.816284000000000E-01     -9.649218000000000E+01
4807000000.000000      6.392517000000000E-01      1.082666000000000E+01      4.821014000000000E-01     -9.771484000000000E+01
4808000000.000000      6.375122000000000E-01      1.067285000000000E+01      4.837952000000000E-01     -9.828514000000000E+01
4809000000.000000      6.369629000000000E-01      1.082666000000000E+01      4.848480000000000E-01     -9.916796000000000E+01
4810000000.000000      6.354370000000000E-01      1.091455000000000E+01      4.877014000000000E-01     -9.955078000000000E+01
4811000000.000000      6.351013000000000E-01      1.097900000000000E+01      4.883423000000000E-01     -1.006445000000000E+02
4812000000.000000      6.344604000000000E-01      1.105225000000000E+01      4.895477000000000E-01     -1.012422000000000E+02
4813000000.000000      6.322632000000000E-01      1.100391000000000E+01      4.909973000000000E-01     -1.021953000000000E+02
4814000000.000000      6.284790000000000E-01      1.097803000000000E+01      4.911346000000000E-01     -1.027969000000000E+02
4815000000.000000      6.279907000000000E-01      1.110010000000000E+01      4.925385000000000E-01     -1.035586000000000E+02
4816000000.000000      6.282349000000000E-01      1.124268000000000E+01      4.944000000000000E-01     -1.042539000000000E+02
4817000000.000000      6.249084000000000E-01      1.130859000000000E+01      4.937744000000000E-01     -1.050117000000000E+02
4818000000.000000      6.238403000000000E-01      1.139795000000000E+01      4.956207000000000E-01     -1.057344000000000E+02
4819000000.000000      6.245117000000000E-01      1.135693000000000E+01      4.947815000000000E-01     -1.065703000000000E+02
4820000000.000000      6.206055000000000E-01      1.159033000000000E+01      4.954071000000000E-01     -1.072461000000000E+02
4821000000.000000      6.238708000000000E-01      1.156836000000000E+01      4.983063000000000E-01     -1.080156000000000E+02
4822000000.000000      6.207275000000000E-01      1.157959000000000E+01      4.950256000000000E-01     -1.087539000000000E+02
4823000000.000000      6.212463000000000E-01      1.165234000000000E+01      4.992523000000000E-01     -1.097578000000000E+02
4824000000.000000      6.188660000000000E-01      1.198584000000000E+01      4.971466000000000E-01     -1.102187000000000E+02
4825000000.000000      6.171570000000000E-01      1.181982000000000E+01      4.974213000000000E-01     -1.111523000000000E+02
4826000000.000000      6.159668000000000E-01      1.202979000000000E+01      4.978027000000000E-01     -1.119570000000000E+02
4827000000.000000      6.170959000000000E-01      1.212891000000000E+01      4.978943000000000E-01     -1.125664000000000E+02
4828000000.000000      6.167603000000000E-01      1.221387000000000E+01      4.990997000000000E-01     -1.131836000000000E+02
4829000000.000000      6.156921000000000E-01      1.237744000000000E+01      4.985046000000000E-01     -1.139453000000000E+02
4830000000.000000      6.149902000000000E-01      1.244434000000000E+01      4.994049000000000E-01     -1.148984000000000E+02
4831000000.000000      6.152649000000000E-01      1.266016000000000E+01      4.991913000000000E-01     -1.157148000000000E+02
4832000000.000000      6.156616000000000E-01      1.281104000000000E+01      5.002136000000000E-01     -1.163789000000000E+02
4833000000.000000      6.128235000000000E-01      1.267920000000000E+01      4.993744000000000E-01     -1.168242000000000E+02
4834000000.000000      6.128845000000000E-01      1.282080000000000E+01      5.004883000000000E-01     -1.177617000000000E+02
4835000000.000000      6.149902000000000E-01      1.301563000000000E+01      5.003967000000000E-01     -1.187422000000000E+02
4836000000.000000      6.162109000000000E-01      1.338232000000000E+01      4.994354000000000E-01     -1.194961000000000E+02
4837000000.000000      6.134033000000000E-01      1.334814000000000E+01      4.973145000000000E-01     -1.203984000000000E+02
4838000000.000000      6.129761000000000E-01      1.340723000000000E+01      4.984131000000000E-01     -1.208476000000000E+02
4839000000.000000      6.161194000000000E-01      1.352930000000000E+01      4.981537000000000E-01     -1.216367000000000E+02
4840000000.000000      6.155701000000000E-01      1.345264000000000E+01      4.963684000000000E-01     -1.226015000000000E+02
4841000000.000000      6.149597000000000E-01      1.386035000000000E+01      4.974976000000000E-01     -1.234414000000000E+02
4842000000.000000      6.173706000000000E-01      1.365283000000000E+01      4.973450000000000E-01     -1.240508000000000E+02
4843000000.000000      6.202698000000000E-01      1.376270000000000E+01      4.972076000000000E-01     -1.251015000000000E+02
4844000000.000000      6.160583000000000E-01      1.377100000000000E+01      4.943085000000000E-01     -1.259180000000000E+02
4845000000.000000      6.182861000000000E-01      1.397461000000000E+01      4.931793000000000E-01     -1.264336000000000E+02
4846000000.000000      6.204224000000000E-01      1.407715000000000E+01      4.942474000000000E-01     -1.274414000000000E+02
4847000000.000000      6.196899000000000E-01      1.425732000000000E+01      4.919586000000000E-01     -1.280781000000000E+02
4848000000.000000      6.197205000000000E-01      1.422998000000000E+01      4.896240000000000E-01     -1.290469000000000E+02
4849000000.000000      6.211548000000000E-01      1.426563000000000E+01      4.883270000000000E-01     -1.300156000000000E+02
4850000000.000000      6.227112000000000E-01      1.446582000000000E+01      4.865875000000000E-01     -1.308438000000000E+02
4851000000.000000      6.249695000000000E-01      1.444287000000000E+01      4.878387000000000E-01     -1.316719000000000E+02
4852000000.000000      6.235352000000000E-01      1.449609000000000E+01      4.836273000000000E-01     -1.325234000000000E+02
4853000000.000000      6.244812000000000E-01      1.461865000000000E+01      4.813843000000000E-01     -1.333750000000000E+02
4854000000.000000      6.257019000000000E-01      1.457178000000000E+01      4.788971000000000E-01     -1.342344000000000E+02
4855000000.000000      6.269836000000000E-01      1.459375000000000E+01      4.781189000000000E-01     -1.352266000000000E+02
4856000000.000000      6.259766000000000E-01      1.467871000000000E+01      4.744110000000000E-01     -1.358281000000000E+02
4857000000.000000      6.304626000000000E-01      1.474072000000000E+01      4.728241000000000E-01     -1.368203000000000E+02
4858000000.000000      6.316528000000000E-01      1.484229000000000E+01      4.689331000000000E-01     -1.376484000000000E+02
4859000000.000000      6.323547000000000E-01      1.479004000000000E+01      4.667053000000000E-01     -1.385156000000000E+02
4860000000.000000      6.307678000000000E-01      1.478320000000000E+01      4.636688000000000E-01     -1.393125000000000E+02
4861000000.000000      6.344604000000000E-01      1.491113000000000E+01      4.606323000000000E-01     -1.402578000000000E+02
4862000000.000000      6.341858000000000E-01      1.476416000000000E+01      4.575195000000000E-01     -1.409062000000000E+02
4863000000.000000      6.345825000000000E-01      1.516211000000000E+01      4.546356000000000E-01     -1.418828000000000E+02
4864000000.000000      6.372070000000000E-01      1.482861000000000E+01      4.505157000000000E-01     -1.426250000000000E+02
4865000000.000000      6.371460000000000E-01      1.493701000000000E+01      4.478760000000000E-01     -1.433359000000000E+02
4866000000.000000      6.380310000000000E-01      1.493555000000000E+01      4.427795000000000E-01     -1.443281000000000E+02
4867000000.000000      6.392212000000000E-01      1.487402000000000E+01      4.398041000000000E-01     -1.451562000000000E+02
4868000000.000000      6.426392000000000E-01      1.484082000000000E+01      4.356995000000000E-01     -1.459453000000000E+02
4869000000.000000      6.437378000000000E-01      1.491357000000000E+01      4.316559000000000E-01     -1.467578000000000E+02
4870000000.000000      6.456299000000000E-01      1.479834000000000E+01      4.286194000000000E-01     -1.471953000000000E+02
4871000000.000000      6.446228000000000E-01      1.470215000000000E+01      4.241943000000000E-01     -1.483125000000000E+02
4872000000.000000      6.484680000000000E-01      1.482715000000000E+01      4.206085000000000E-01     -1.486797000000000E+02
4873000000.000000      6.463318000000000E-01      1.475977000000000E+01      4.152985000000000E-01     -1.495859000000000E+02
4874000000.000000      6.499023000000000E-01      1.481738000000000E+01      4.108124000000000E-01     -1.503906000000000E+02
4875000000.000000      6.507874000000000E-01      1.463379000000000E+01      4.064331000000000E-01     -1.510391000000000E+02
4876000000.000000      6.521606000000000E-01      1.487646000000000E+01      4.017029000000000E-01     -1.515312000000000E+02
4877000000.000000      6.525269000000000E-01      1.444385000000000E+01      3.986969000000000E-01     -1.524688000000000E+02
4878000000.000000      6.551208000000000E-01      1.454834000000000E+01      3.923950000000000E-01     -1.529766000000000E+02
4879000000.000000      6.590576000000000E-01      1.448242000000000E+01      3.878326000000000E-01     -1.532891000000000E+02
4880000000.000000      6.582947000000000E-01      1.446338000000000E+01      3.845062000000000E-01     -1.542266000000000E+02
4881000000.000000      6.585693000000000E-01      1.433984000000000E+01      3.791199000000000E-01     -1.547344000000000E+02
4882000000.000000      6.606445000000000E-01      1.455518000000000E+01      3.770752000000000E-01     -1.552578000000000E+02
4883000000.000000      6.600342000000000E-01      1.415723000000000E+01      3.710175000000000E-01     -1.557031000000000E+02
4884000000.000000      6.620178000000000E-01      1.426270000000000E+01      3.673553000000000E-01     -1.564609000000000E+02
4885000000.000000      6.623840000000000E-01      1.413525000000000E+01      3.623657000000000E-01     -1.567500000000000E+02
4886000000.000000      6.641541000000000E-01      1.413525000000000E+01      3.588715000000000E-01     -1.571875000000000E+02
4887000000.000000      6.663513000000000E-01      1.406348000000000E+01      3.540955000000000E-01     -1.579687000000000E+02
4888000000.000000      6.661072000000000E-01      1.368750000000000E+01      3.494415000000000E-01     -1.583047000000000E+02
4889000000.000000      6.661682000000000E-01      1.406787000000000E+01      3.462372000000000E-01     -1.587109000000000E+02
4890000000.000000      6.659851000000000E-01      1.380127000000000E+01      3.398438000000000E-01     -1.593203000000000E+02
4891000000.000000      6.706543000000000E-01      1.367773000000000E+01      3.368835000000000E-01     -1.595937000000000E+02
4892000000.000000      6.704407000000000E-01      1.371777000000000E+01      3.314514000000000E-01     -1.598359000000000E+02
4893000000.000000      6.702881000000000E-01      1.340723000000000E+01      3.291473000000000E-01     -1.605703000000000E+02
4894000000.000000      6.721191000000000E-01      1.337402000000000E+01      3.243561000000000E-01     -1.608359000000000E+02
4895000000.000000      6.730957000000000E-01      1.315332000000000E+01      3.225555000000000E-01     -1.614687000000000E+02
4896000000.000000      6.745605000000000E-01      1.319824000000000E+01      3.173218000000000E-01     -1.616328000000000E+02
4897000000.000000      6.763000000000000E-01      1.320410000000000E+01      3.138123000000000E-01     -1.620156000000000E+02
4898000000.000000      6.755066000000000E-01      1.322998000000000E+01      3.105774000000000E-01     -1.624063000000000E+02
4899000000.000000      6.765137000000000E-01      1.306641000000000E+01      3.065948000000000E-01     -1.627969000000000E+02
4900000000.000000      6.787109000000000E-01      1.283057000000000E+01      3.025970000000000E-01     -1.630469000000000E+02
4901000000.000000      6.804199000000000E-01      1.282910000000000E+01      2.990570000000000E-01     -1.633984000000000E+02
4902000000.000000      6.797485000000000E-01      1.280713000000000E+01      2.954559000000000E-01     -1.636016000000000E+02
4903000000.000000      6.802368000000000E-01      1.264502000000000E+01      2.913513000000000E-01     -1.641016000000000E+02
4904000000.000000      6.834717000000000E-01      1.243506000000000E+01      2.880554000000000E-01     -1.645156000000000E+02
4905000000.000000      6.817932000000000E-01      1.232764000000000E+01      2.854156000000000E-01     -1.647344000000000E+02
4906000000.000000      6.827087000000000E-01      1.248291000000000E+01      2.810516000000000E-01     -1.650234000000000E+02
4907000000.000000      6.851501000000000E-01      1.224268000000000E+01      2.783356000000000E-01     -1.655703000000000E+02
4908000000.000000      6.856995000000000E-01      1.195313000000000E+01      2.747955000000000E-01     -1.659375000000000E+02
4909000000.000000      6.837769000000000E-01      1.193506000000000E+01      2.706299000000000E-01     -1.662188000000000E+02
4910000000.000000      6.862183000000000E-01      1.194336000000000E+01      2.670898000000000E-01     -1.662969000000000E+02
4911000000.000000      6.865540000000000E-01      1.174561000000000E+01      2.635803000000000E-01     -1.666406000000000E+02
4912000000.000000      6.846313000000000E-01      1.175098000000000E+01      2.608490000000000E-01     -1.671328000000000E+02
4913000000.000000      6.878052000000000E-01      1.175537000000000E+01      2.572784000000000E-01     -1.673750000000000E+02
4914000000.000000      6.890869000000000E-01      1.144775000000000E+01      2.533417000000000E-01     -1.675937000000000E+02
4915000000.000000      6.894226000000000E-01      1.139795000000000E+01      2.493210000000000E-01     -1.679922000000000E+02
4916000000.000000      6.897888000000000E-01      1.132813000000000E+01      2.461548000000000E-01     -1.683047000000000E+02
4917000000.000000      6.886902000000000E-01      1.113574000000000E+01      2.424240000000000E-01     -1.687031000000000E+02
4918000000.000000      6.917419000000000E-01      1.097510000000000E+01      2.385635000000000E-01     -1.687266000000000E+02
4919000000.000000      6.895447000000000E-01      1.105762000000000E+01      2.359009000000000E-01     -1.689219000000000E+02
4920000000.000000      6.911011000000000E-01      1.083252000000000E+01      2.316513000000000E-01     -1.693906000000000E+02
4921000000.000000      6.920166000000000E-01      1.082959000000000E+01      2.284775000000000E-01     -1.695625000000000E+02
4922000000.000000      6.931458000000000E-01      1.076660000000000E+01      2.242203000000000E-01     -1.696640000000000E+02
4923000000.000000      6.934814000000000E-01      1.070752000000000E+01      2.211456000000000E-01     -1.698281000000000E+02
4924000000.000000      6.932983000000000E-01      1.053027000000000E+01      2.166519000000000E-01     -1.700938000000000E+02
4925000000.000000      6.927795000000000E-01      1.040088000000000E+01      2.131348000000000E-01     -1.703594000000000E+02
4926000000.000000      6.922913000000000E-01      1.017041000000000E+01      2.098160000000000E-01     -1.704219000000000E+02
4927000000.000000      6.961670000000000E-01      1.028857000000000E+01      2.050400000000000E-01     -1.707031000000000E+02
4928000000.000000      6.957703000000000E-01      1.025977000000000E+01      2.018051000000000E-01     -1.705859000000000E+02
4929000000.000000      6.949768000000000E-01      9.952148000000000E+00      1.979523000000000E-01     -1.708047000000000E+02
4930000000.000000      6.971436000000000E-01      9.965820000000000E+00      1.942291000000000E-01     -1.709063000000000E+02
4931000000.000000      6.968994000000000E-01      9.712891000000000E+00      1.911469000000000E-01     -1.709687000000000E+02
4932000000.000000      6.966248000000000E-01      9.762695000000000E+00      1.866760000000000E-01     -1.711641000000000E+02
4933000000.000000      6.985474000000000E-01      9.624023000000000E+00      1.827393000000000E-01     -1.706875000000000E+02
4934000000.000000      6.989746000000000E-01      9.553711000000000E+00      1.787338000000000E-01     -1.708125000000000E+02
4935000000.000000      7.004089000000000E-01      9.438477000000000E+00      1.758347000000000E-01     -1.706250000000000E+02
4936000000.000000      6.976013000000000E-01      9.405273000000000E+00      1.716537000000000E-01     -1.704531000000000E+02
4937000000.000000      6.992493000000000E-01      9.170410000000000E+00      1.679230000000000E-01     -1.703828000000000E+02
4938000000.000000      6.996460000000000E-01      9.286133000000000E+00      1.644974000000000E-01     -1.701172000000000E+02
4939000000.000000      6.997070000000000E-01      9.085449000000000E+00      1.606979000000000E-01     -1.696563000000000E+02
4940000000.000000      7.003784000000000E-01      9.029297000000000E+00      1.568298000000000E-01     -1.696484000000000E+02
4941000000.000000      7.004395000000000E-01      8.836914000000000E+00      1.533737000000000E-01     -1.691094000000000E+02
4942000000.000000      7.010803000000000E-01      8.816406000000000E+00      1.496048000000000E-01     -1.686094000000000E+02
4943000000.000000      7.027588000000000E-01      8.714844000000000E+00      1.465530000000000E-01     -1.681484000000000E+02
4944000000.000000      7.020569000000000E-01      8.539063000000000E+00      1.428986000000000E-01     -1.675234000000000E+02
4945000000.000000      7.032471000000000E-01      8.473145000000000E+00      1.391296000000000E-01     -1.667734000000000E+02
4946000000.000000      7.046509000000000E-01      8.414063000000000E+00      1.363068000000000E-01     -1.662734000000000E+02
4947000000.000000      7.044678000000000E-01      8.155762000000000E+00      1.329193000000000E-01     -1.655234000000000E+02
4948000000.000000      7.068481000000000E-01      8.086914000000000E+00      1.300049000000000E-01     -1.644375000000000E+02
4949000000.000000      7.037354000000000E-01      8.039063000000000E+00      1.270065000000000E-01     -1.630781000000000E+02
4950000000.000000      7.054749000000000E-01      8.145996000000000E+00      1.242409000000000E-01     -1.622734000000000E+02
4951000000.000000      7.055664000000000E-01      7.824951000000000E+00      1.218719000000000E-01     -1.612500000000000E+02
4952000000.000000      7.043457000000000E-01      7.748047000000000E+00      1.189880000000000E-01     -1.598906000000000E+02
4953000000.000000      7.052917000000000E-01      7.662842000000000E+00      1.167297000000000E-01     -1.584766000000000E+02
4954000000.000000      7.070313000000000E-01      7.719238000000000E+00      1.144791000000000E-01     -1.571250000000000E+02
