! Network Analyzer HP8722D
! Hewlett-Packard
! Data name: Linha & Wilkinson
! Saver's name: Rodrigo Anjos
! Comments: Teste da utilização de aquisição
continua pelo VNA HP8722D
! Time and date: 22/5/2025 10:08
!              Frequency                     S11                                                   S21                                                   S12                                                   S22
# HZ  S  MA R 50
4800000000.000000      6.467590000000000E-01      1.039404000000000E+01      4.766846000000000E-01     -9.392187000000000E+01
4801000000.000000      6.456299000000000E-01      1.045752000000000E+01      4.749451000000000E-01     -9.433203000000000E+01
4802000000.000000      6.430969000000000E-01      1.042578000000000E+01      4.775391000000000E-01     -9.525391000000000E+01
4803000000.000000      6.420288000000000E-01      1.039697000000000E+01      4.812927000000000E-01     -9.575390000000000E+01
4804000000.000000      6.403503000000000E-01      1.050293000000000E+01      4.812927000000000E-01     -9.658983000000000E+01
4805000000.000000      6.388855000000000E-01      1.043701000000000E+01      4.837341000000000E-01     -9.747265000000000E+01
4806000000.000000      6.374817000000000E-01      1.039404000000000E+01      4.839020000000000E-01     -9.812109000000000E+01
4807000000.000000      6.347351000000000E-01      1.045898000000000E+01      4.858246000000000E-01     -9.918358000000000E+01
4808000000.000000      6.324463000000000E-01      1.056299000000000E+01      4.869232000000000E-01     -9.977734000000000E+01
4809000000.000000      6.315308000000000E-01      1.067725000000000E+01      4.894867000000000E-01     -1.006172000000000E+02
4810000000.000000      6.301880000000000E-01      1.053564000000000E+01      4.915009000000000E-01     -1.012773000000000E+02
4811000000.000000      6.279907000000000E-01      1.060156000000000E+01      4.914703000000000E-01     -1.021680000000000E+02
4812000000.000000      6.307068000000000E-01      1.082275000000000E+01      4.925385000000000E-01     -1.028477000000000E+02
4813000000.000000      6.258240000000000E-01      1.078418000000000E+01      4.926453000000000E-01     -1.036133000000000E+02
4814000000.000000      6.249695000000000E-01      1.072656000000000E+01      4.941864000000000E-01     -1.042461000000000E+02
4815000000.000000      6.239014000000000E-01      1.092285000000000E+01      4.938507000000000E-01     -1.050469000000000E+02
4816000000.000000      6.225891000000000E-01      1.092725000000000E+01      4.962616000000000E-01     -1.057422000000000E+02
4817000000.000000      6.206970000000000E-01      1.108203000000000E+01      4.953461000000000E-01     -1.065898000000000E+02
4818000000.000000      6.203918000000000E-01      1.111670000000000E+01      4.969482000000000E-01     -1.074609000000000E+02
4819000000.000000      6.190796000000000E-01      1.125684000000000E+01      4.967346000000000E-01     -1.081875000000000E+02
4820000000.000000      6.171875000000000E-01      1.136670000000000E+01      4.968872000000000E-01     -1.086641000000000E+02
4821000000.000000      6.173706000000000E-01      1.136768000000000E+01      4.989166000000000E-01     -1.097070000000000E+02
4822000000.000000      6.141968000000000E-01      1.136914000000000E+01      4.989014000000000E-01     -1.102969000000000E+02
4823000000.000000      6.160889000000000E-01      1.148438000000000E+01      4.990387000000000E-01     -1.111406000000000E+02
4824000000.000000      6.145630000000000E-01      1.191162000000000E+01      4.994812000000000E-01     -1.117773000000000E+02
4825000000.000000      6.127014000000000E-01      1.177441000000000E+01      4.988556000000000E-01     -1.125664000000000E+02
4826000000.000000      6.141052000000000E-01      1.174805000000000E+01      5.002441000000000E-01     -1.135430000000000E+02
4827000000.000000      6.135864000000000E-01      1.192285000000000E+01      5.001831000000000E-01     -1.140547000000000E+02
4828000000.000000      6.135559000000000E-01      1.190479000000000E+01      5.005493000000000E-01     -1.147812000000000E+02
4829000000.000000      6.124268000000000E-01      1.221924000000000E+01      5.013733000000000E-01     -1.155664000000000E+02
4830000000.000000      6.128845000000000E-01      1.237158000000000E+01      5.000305000000000E-01     -1.163633000000000E+02
4831000000.000000      6.123352000000000E-01      1.230566000000000E+01      5.003357000000000E-01     -1.171289000000000E+02
4832000000.000000      6.126099000000000E-01      1.267090000000000E+01      4.995422000000000E-01     -1.178320000000000E+02
4833000000.000000      6.098328000000000E-01      1.265332000000000E+01      4.971161000000000E-01     -1.185938000000000E+02
4834000000.000000      6.116028000000000E-01      1.277832000000000E+01      4.991455000000000E-01     -1.193867000000000E+02
4835000000.000000      6.118164000000000E-01      1.278516000000000E+01      4.988251000000000E-01     -1.201289000000000E+02
4836000000.000000      6.125793000000000E-01      1.301025000000000E+01      4.970093000000000E-01     -1.210234000000000E+02
4837000000.000000      6.119995000000000E-01      1.321484000000000E+01      4.987793000000000E-01     -1.219062000000000E+02
4838000000.000000      6.111145000000000E-01      1.328223000000000E+01      4.983673000000000E-01     -1.224766000000000E+02
4839000000.000000      6.156311000000000E-01      1.349219000000000E+01      4.961548000000000E-01     -1.231953000000000E+02
4840000000.000000      6.145630000000000E-01      1.325635000000000E+01      4.967804000000000E-01     -1.240625000000000E+02
4841000000.000000      6.153870000000000E-01      1.363770000000000E+01      4.964905000000000E-01     -1.248359000000000E+02
4842000000.000000      6.139832000000000E-01      1.357910000000000E+01      4.953003000000000E-01     -1.257031000000000E+02
4843000000.000000      6.162109000000000E-01      1.348389000000000E+01      4.943848000000000E-01     -1.266406000000000E+02
4844000000.000000      6.179504000000000E-01      1.358594000000000E+01      4.922791000000000E-01     -1.275781000000000E+02
4845000000.000000      6.187134000000000E-01      1.394434000000000E+01      4.911041000000000E-01     -1.281328000000000E+02
4846000000.000000      6.172485000000000E-01      1.378467000000000E+01      4.902649000000000E-01     -1.291797000000000E+02
4847000000.000000      6.202393000000000E-01      1.404053000000000E+01      4.906311000000000E-01     -1.298437000000000E+02
4848000000.000000      6.190491000000000E-01      1.402637000000000E+01      4.864807000000000E-01     -1.308125000000000E+02
4849000000.000000      6.202698000000000E-01      1.409229000000000E+01      4.872894000000000E-01     -1.314219000000000E+02
4850000000.000000      6.199951000000000E-01      1.409521000000000E+01      4.838562000000000E-01     -1.323516000000000E+02
4851000000.000000      6.228638000000000E-01      1.426807000000000E+01      4.829712000000000E-01     -1.333203000000000E+02
4852000000.000000      6.216736000000000E-01      1.427393000000000E+01      4.808960000000000E-01     -1.341953000000000E+02
4853000000.000000      6.237183000000000E-01      1.430420000000000E+01      4.773560000000000E-01     -1.349844000000000E+02
4854000000.000000      6.246033000000000E-01      1.439893000000000E+01      4.759521000000000E-01     -1.359219000000000E+02
4855000000.000000      6.257324000000000E-01      1.432861000000000E+01      4.739838000000000E-01     -1.367578000000000E+02
4856000000.000000      6.262817000000000E-01      1.449463000000000E+01      4.703979000000000E-01     -1.375937000000000E+02
4857000000.000000      6.288757000000000E-01      1.445361000000000E+01      4.695282000000000E-01     -1.381875000000000E+02
4858000000.000000      6.296997000000000E-01      1.442871000000000E+01      4.661102000000000E-01     -1.391797000000000E+02
4859000000.000000      6.303101000000000E-01      1.447998000000000E+01      4.636383000000000E-01     -1.400938000000000E+02
4860000000.000000      6.333008000000000E-01      1.452246000000000E+01      4.602966000000000E-01     -1.408672000000000E+02
4861000000.000000      6.330566000000000E-01      1.480225000000000E+01      4.562378000000000E-01     -1.417969000000000E+02
4862000000.000000      6.335144000000000E-01      1.457324000000000E+01      4.535828000000000E-01     -1.423672000000000E+02
4863000000.000000      6.340942000000000E-01      1.469824000000000E+01      4.497986000000000E-01     -1.433984000000000E+02
4864000000.000000      6.374207000000000E-01      1.458154000000000E+01      4.454193000000000E-01     -1.440078000000000E+02
4865000000.000000      6.394653000000000E-01      1.460205000000000E+01      4.423828000000000E-01     -1.449609000000000E+02
4866000000.000000      6.401978000000000E-01      1.447559000000000E+01      4.385071000000000E-01     -1.456406000000000E+02
4867000000.000000      6.400146000000000E-01      1.449902000000000E+01      4.338226000000000E-01     -1.464219000000000E+02
4868000000.000000      6.415710000000000E-01      1.448535000000000E+01      4.316406000000000E-01     -1.474062000000000E+02
4869000000.000000      6.414185000000000E-01      1.452490000000000E+01      4.274597000000000E-01     -1.479922000000000E+02
4870000000.000000      6.425476000000000E-01      1.461182000000000E+01      4.232483000000000E-01     -1.486016000000000E+02
4871000000.000000      6.455994000000000E-01      1.434229000000000E+01      4.186096000000000E-01     -1.496250000000000E+02
4872000000.000000      6.486511000000000E-01      1.439307000000000E+01      4.137421000000000E-01     -1.500391000000000E+02
4873000000.000000      6.489868000000000E-01      1.435059000000000E+01      4.096375000000000E-01     -1.508672000000000E+02
4874000000.000000      6.464539000000000E-01      1.443164000000000E+01      4.043579000000000E-01     -1.515000000000000E+02
4875000000.000000      6.522522000000000E-01      1.416260000000000E+01      4.022217000000000E-01     -1.520937000000000E+02
4876000000.000000      6.523438000000000E-01      1.426025000000000E+01      3.978424000000000E-01     -1.527422000000000E+02
4877000000.000000      6.544189000000000E-01      1.411865000000000E+01      3.924103000000000E-01     -1.534062000000000E+02
4878000000.000000      6.540222000000000E-01      1.407715000000000E+01      3.878632000000000E-01     -1.540000000000000E+02
4879000000.000000      6.564026000000000E-01      1.422021000000000E+01      3.825836000000000E-01     -1.544453000000000E+02
4880000000.000000      6.582642000000000E-01      1.402637000000000E+01      3.792114000000000E-01     -1.552656000000000E+02
4881000000.000000      6.568298000000000E-01      1.399756000000000E+01      3.742676000000000E-01     -1.557422000000000E+02
4882000000.000000      6.616516000000000E-01      1.390137000000000E+01      3.706512000000000E-01     -1.564375000000000E+02
4883000000.000000      6.604919000000000E-01      1.376953000000000E+01      3.654633000000000E-01     -1.569922000000000E+02
4884000000.000000      6.601868000000000E-01      1.389063000000000E+01      3.609314000000000E-01     -1.573516000000000E+02
4885000000.000000      6.633606000000000E-01      1.373975000000000E+01      3.563690000000000E-01     -1.576250000000000E+02
4886000000.000000      6.645203000000000E-01      1.366943000000000E+01      3.532257000000000E-01     -1.581484000000000E+02
4887000000.000000      6.649780000000000E-01      1.368896000000000E+01      3.488159000000000E-01     -1.586875000000000E+02
4888000000.000000      6.663513000000000E-01      1.341943000000000E+01      3.445129000000000E-01     -1.593750000000000E+02
4889000000.000000      6.675415000000000E-01      1.341943000000000E+01      3.397217000000000E-01     -1.594766000000000E+02
4890000000.000000      6.656189000000000E-01      1.322998000000000E+01      3.350677000000000E-01     -1.603047000000000E+02
4891000000.000000      6.695862000000000E-01      1.335107000000000E+01      3.330536000000000E-01     -1.605234000000000E+02
4892000000.000000      6.693115000000000E-01      1.318359000000000E+01      3.286438000000000E-01     -1.608047000000000E+02
4893000000.000000      6.704712000000000E-01      1.321240000000000E+01      3.243561000000000E-01     -1.615937000000000E+02
4894000000.000000      6.731873000000000E-01      1.294873000000000E+01      3.195801000000000E-01     -1.615547000000000E+02
4895000000.000000      6.750183000000000E-01      1.293066000000000E+01      3.166962000000000E-01     -1.620234000000000E+02
4896000000.000000      6.746521000000000E-01      1.285254000000000E+01      3.121033000000000E-01     -1.624141000000000E+02
4897000000.000000      6.751709000000000E-01      1.288525000000000E+01      3.074646000000000E-01     -1.627812000000000E+02
4898000000.000000      6.766357000000000E-01      1.263135000000000E+01      3.042603000000000E-01     -1.631094000000000E+02
4899000000.000000      6.775513000000000E-01      1.251855000000000E+01      3.007507000000000E-01     -1.635000000000000E+02
4900000000.000000      6.777649000000000E-01      1.226465000000000E+01      2.970886000000000E-01     -1.637656000000000E+02
4901000000.000000      6.769714000000000E-01      1.229492000000000E+01      2.934723000000000E-01     -1.639766000000000E+02
4902000000.000000      6.813660000000000E-01      1.229639000000000E+01      2.906494000000000E-01     -1.643516000000000E+02
4903000000.000000      6.807556000000000E-01      1.216699000000000E+01      2.858276000000000E-01     -1.647656000000000E+02
4904000000.000000      6.818237000000000E-01      1.199805000000000E+01      2.827911000000000E-01     -1.650547000000000E+02
4905000000.000000      6.818542000000000E-01      1.187451000000000E+01      2.800751000000000E-01     -1.655000000000000E+02
4906000000.000000      6.815796000000000E-01      1.165234000000000E+01      2.761688000000000E-01     -1.655313000000000E+02
4907000000.000000      6.835327000000000E-01      1.172070000000000E+01      2.731323000000000E-01     -1.660859000000000E+02
4908000000.000000      6.838989000000000E-01      1.168213000000000E+01      2.699738000000000E-01     -1.664297000000000E+02
4909000000.000000      6.830750000000000E-01      1.150635000000000E+01      2.656097000000000E-01     -1.665078000000000E+02
4910000000.000000      6.840515000000000E-01      1.137451000000000E+01      2.618256000000000E-01     -1.668906000000000E+02
4911000000.000000      6.843872000000000E-01      1.137598000000000E+01      2.590790000000000E-01     -1.671094000000000E+02
4912000000.000000      6.848450000000000E-01      1.123877000000000E+01      2.550354000000000E-01     -1.674219000000000E+02
4913000000.000000      6.861877000000000E-01      1.106299000000000E+01      2.515869000000000E-01     -1.677578000000000E+02
4914000000.000000      6.865845000000000E-01      1.103809000000000E+01      2.478104000000000E-01     -1.680625000000000E+02
4915000000.000000      6.885071000000000E-01      1.100928000000000E+01      2.453079000000000E-01     -1.684687000000000E+02
4916000000.000000      6.904297000000000E-01      1.091211000000000E+01      2.411957000000000E-01     -1.687500000000000E+02
4917000000.000000      6.878357000000000E-01      1.061670000000000E+01      2.380142000000000E-01     -1.688047000000000E+02
4918000000.000000      6.884766000000000E-01      1.058105000000000E+01      2.335510000000000E-01     -1.691406000000000E+02
4919000000.000000      6.893921000000000E-01      1.049023000000000E+01      2.303467000000000E-01     -1.692266000000000E+02
4920000000.000000      6.889954000000000E-01      1.043408000000000E+01      2.263260000000000E-01     -1.698125000000000E+02
4921000000.000000      6.906738000000000E-01      1.041895000000000E+01      2.235489000000000E-01     -1.696172000000000E+02
4922000000.000000      6.901550000000000E-01      1.040771000000000E+01      2.193451000000000E-01     -1.699375000000000E+02
4923000000.000000      6.915283000000000E-01      1.035693000000000E+01      2.153854000000000E-01     -1.701875000000000E+02
4924000000.000000      6.915588000000000E-01      1.021973000000000E+01      2.115936000000000E-01     -1.705781000000000E+02
4925000000.000000      6.932373000000000E-01      9.971191000000000E+00      2.080078000000000E-01     -1.702656000000000E+02
4926000000.000000      6.937256000000000E-01      9.956055000000000E+00      2.048798000000000E-01     -1.706563000000000E+02
4927000000.000000      6.936035000000000E-01      9.680176000000000E+00      2.003784000000000E-01     -1.705547000000000E+02
4928000000.000000      6.943665000000000E-01      9.728027000000000E+00      1.968536000000000E-01     -1.707422000000000E+02
4929000000.000000      6.941223000000000E-01      9.608887000000000E+00      1.929092000000000E-01     -1.707734000000000E+02
4930000000.000000      6.942444000000000E-01      9.550781000000000E+00      1.897430000000000E-01     -1.707500000000000E+02
4931000000.000000      6.935730000000000E-01      9.448242000000000E+00      1.863098000000000E-01     -1.707734000000000E+02
4932000000.000000      6.958008000000000E-01      9.386230000000000E+00      1.819534000000000E-01     -1.705391000000000E+02
4933000000.000000      6.961365000000000E-01      9.005859000000000E+00      1.778336000000000E-01     -1.704687000000000E+02
4934000000.000000      6.987610000000000E-01      8.964844000000000E+00      1.740646000000000E-01     -1.704453000000000E+02
4935000000.000000      6.974487000000000E-01      8.935547000000000E+00      1.710892000000000E-01     -1.700859000000000E+02
4936000000.000000      6.976013000000000E-01      8.791504000000000E+00      1.670456000000000E-01     -1.700859000000000E+02
4937000000.000000      6.972961000000000E-01      8.846680000000000E+00      1.633301000000000E-01     -1.696953000000000E+02
4938000000.000000      6.982727000000000E-01      8.696777000000000E+00      1.599197000000000E-01     -1.693359000000000E+02
4939000000.000000      7.011719000000000E-01      8.666504000000000E+00      1.563339000000000E-01     -1.689844000000000E+02
4940000000.000000      6.997070000000000E-01      8.471680000000000E+00      1.520081000000000E-01     -1.688516000000000E+02
4941000000.000000      7.005005000000000E-01      8.330078000000000E+00      1.493607000000000E-01     -1.681015000000000E+02
4942000000.000000      6.984863000000000E-01      8.273926000000000E+00      1.460266000000000E-01     -1.676797000000000E+02
4943000000.000000      6.997681000000000E-01      8.286133000000000E+00      1.426468000000000E-01     -1.667656000000000E+02
4944000000.000000      7.005310000000000E-01      8.054199000000000E+00      1.385727000000000E-01     -1.663047000000000E+02
4945000000.000000      7.003784000000000E-01      7.956787000000000E+00      1.359024000000000E-01     -1.655781000000000E+02
4946000000.000000      7.026062000000000E-01      7.878418000000000E+00      1.330490000000000E-01     -1.646094000000000E+02
4947000000.000000      7.014160000000000E-01      7.675293000000000E+00      1.295700000000000E-01     -1.638203000000000E+02
4948000000.000000      7.050781000000000E-01      7.723389000000000E+00      1.273956000000000E-01     -1.625469000000000E+02
4949000000.000000      7.015991000000000E-01      7.647705000000000E+00      1.249084000000000E-01     -1.614687000000000E+02
4950000000.000000      7.043762000000000E-01      7.629883000000000E+00      1.218758000000000E-01     -1.603594000000000E+02
4951000000.000000      7.059326000000000E-01      7.491211000000000E+00      1.191521000000000E-01     -1.592969000000000E+02
4952000000.000000      7.052612000000000E-01      7.312744000000000E+00      1.169205000000000E-01     -1.579297000000000E+02
4953000000.000000      7.055969000000000E-01      7.185059000000000E+00      1.148033000000000E-01     -1.563125000000000E+02
4954000000.000000      7.062988000000000E-01      7.050293000000000E+00      1.127739000000000E-01     -1.549531000000000E+02
