! Network Analyzer HP8722D
! Hewlett-Packard
! Data name: Linha & Wilkinson
! Saver's name: Rodrigo Anjos
! Comments: Teste da utilização de aquisição
continua pelo VNA HP8722D
! Time and date: 22/5/2025 12:19
!              Frequency                     S11                                                   S21                                                   S12                                                   S22
# HZ  S  MA R 50
4800000000.000000      6.519165000000000E-01      1.070068000000000E+01      4.707336000000000E-01     -9.257421000000000E+01
4801000000.000000      6.483765000000000E-01      1.089551000000000E+01      4.738464000000000E-01     -9.315624000000000E+01
4802000000.000000      6.477661000000000E-01      1.085303000000000E+01      4.745331000000000E-01     -9.395311000000000E+01
4803000000.000000      6.457825000000000E-01      1.083350000000000E+01      4.785767000000000E-01     -9.478516000000000E+01
4804000000.000000      6.443481000000000E-01      1.074023000000000E+01      4.774323000000000E-01     -9.549219000000000E+01
4805000000.000000      6.454468000000000E-01      1.066602000000000E+01      4.806976000000000E-01     -9.614843000000000E+01
4806000000.000000      6.405334000000000E-01      1.070313000000000E+01      4.814301000000000E-01     -9.703514000000000E+01
4807000000.000000      6.396179000000000E-01      1.076514000000000E+01      4.816132000000000E-01     -9.771873000000000E+01
4808000000.000000      6.358948000000000E-01      1.084473000000000E+01      4.862061000000000E-01     -9.843750000000000E+01
4809000000.000000      6.355896000000000E-01      1.096826000000000E+01      4.857941000000000E-01     -9.936327000000000E+01
4810000000.000000      6.352539000000000E-01      1.098193000000000E+01      4.879761000000000E-01     -1.001250000000000E+02
4811000000.000000      6.338806000000000E-01      1.088574000000000E+01      4.910583000000000E-01     -1.010312000000000E+02
4812000000.000000      6.340637000000000E-01      1.103955000000000E+01      4.898376000000000E-01     -1.017305000000000E+02
4813000000.000000      6.311951000000000E-01      1.112500000000000E+01      4.909668000000000E-01     -1.022812000000000E+02
4814000000.000000      6.277466000000000E-01      1.103711000000000E+01      4.915924000000000E-01     -1.032227000000000E+02
4815000000.000000      6.266174000000000E-01      1.120996000000000E+01      4.928589000000000E-01     -1.038867000000000E+02
4816000000.000000      6.280823000000000E-01      1.116064000000000E+01      4.938965000000000E-01     -1.045078000000000E+02
4817000000.000000      6.260071000000000E-01      1.135840000000000E+01      4.936218000000000E-01     -1.054336000000000E+02
4818000000.000000      6.236267000000000E-01      1.137891000000000E+01      4.954834000000000E-01     -1.061445000000000E+02
4819000000.000000      6.235352000000000E-01      1.136377000000000E+01      4.959869000000000E-01     -1.068633000000000E+02
4820000000.000000      6.207886000000000E-01      1.164404000000000E+01      4.941254000000000E-01     -1.075078000000000E+02
4821000000.000000      6.210022000000000E-01      1.154785000000000E+01      4.968262000000000E-01     -1.083750000000000E+02
4822000000.000000      6.187439000000000E-01      1.162451000000000E+01      4.957275000000000E-01     -1.091523000000000E+02
4823000000.000000      6.190796000000000E-01      1.176318000000000E+01      4.977875000000000E-01     -1.099180000000000E+02
4824000000.000000      6.157837000000000E-01      1.189404000000000E+01      4.976807000000000E-01     -1.105351000000000E+02
4825000000.000000      6.179199000000000E-01      1.199268000000000E+01      4.982300000000000E-01     -1.112500000000000E+02
4826000000.000000      6.159973000000000E-01      1.189502000000000E+01      4.984589000000000E-01     -1.122266000000000E+02
4827000000.000000      6.166382000000000E-01      1.221924000000000E+01      4.990234000000000E-01     -1.126601000000000E+02
4828000000.000000      6.157532000000000E-01      1.225244000000000E+01      4.982300000000000E-01     -1.136016000000000E+02
4829000000.000000      6.156006000000000E-01      1.254883000000000E+01      4.992828000000000E-01     -1.142930000000000E+02
4830000000.000000      6.165161000000000E-01      1.239258000000000E+01      5.000916000000000E-01     -1.151563000000000E+02
4831000000.000000      6.137390000000000E-01      1.273291000000000E+01      4.980164000000000E-01     -1.160352000000000E+02
4832000000.000000      6.139832000000000E-01      1.284424000000000E+01      4.988556000000000E-01     -1.166367000000000E+02
4833000000.000000      6.136169000000000E-01      1.279883000000000E+01      5.000916000000000E-01     -1.173398000000000E+02
4834000000.000000      6.130676000000000E-01      1.299805000000000E+01      4.981384000000000E-01     -1.180859000000000E+02
4835000000.000000      6.139526000000000E-01      1.294727000000000E+01      5.007019000000000E-01     -1.190469000000000E+02
4836000000.000000      6.158447000000000E-01      1.332324000000000E+01      4.968719000000000E-01     -1.197930000000000E+02
4837000000.000000      6.128540000000000E-01      1.345410000000000E+01      4.972687000000000E-01     -1.207187000000000E+02
4838000000.000000      6.112061000000000E-01      1.330273000000000E+01      4.971161000000000E-01     -1.211445000000000E+02
4839000000.000000      6.166382000000000E-01      1.365967000000000E+01      4.979553000000000E-01     -1.221172000000000E+02
4840000000.000000      6.156311000000000E-01      1.359814000000000E+01      4.977264000000000E-01     -1.229531000000000E+02
4841000000.000000      6.155701000000000E-01      1.389063000000000E+01      4.961090000000000E-01     -1.236680000000000E+02
4842000000.000000      6.130676000000000E-01      1.398828000000000E+01      4.958649000000000E-01     -1.245117000000000E+02
4843000000.000000      6.195374000000000E-01      1.400195000000000E+01      4.960632000000000E-01     -1.253203000000000E+02
4844000000.000000      6.180420000000000E-01      1.388672000000000E+01      4.942169000000000E-01     -1.261328000000000E+02
4845000000.000000      6.179199000000000E-01      1.402539000000000E+01      4.927216000000000E-01     -1.267266000000000E+02
4846000000.000000      6.212769000000000E-01      1.412402000000000E+01      4.932709000000000E-01     -1.277266000000000E+02
4847000000.000000      6.216125000000000E-01      1.431348000000000E+01      4.923859000000000E-01     -1.286953000000000E+02
4848000000.000000      6.204529000000000E-01      1.427246000000000E+01      4.889984000000000E-01     -1.292734000000000E+02
4849000000.000000      6.191711000000000E-01      1.438770000000000E+01      4.883881000000000E-01     -1.302656000000000E+02
4850000000.000000      6.229553000000000E-01      1.449072000000000E+01      4.867554000000000E-01     -1.311094000000000E+02
4851000000.000000      6.239929000000000E-01      1.460205000000000E+01      4.851379000000000E-01     -1.321640000000000E+02
4852000000.000000      6.219177000000000E-01      1.469971000000000E+01      4.829865000000000E-01     -1.328516000000000E+02
4853000000.000000      6.243896000000000E-01      1.451270000000000E+01      4.797974000000000E-01     -1.336719000000000E+02
4854000000.000000      6.264954000000000E-01      1.460449000000000E+01      4.773254000000000E-01     -1.346953000000000E+02
4855000000.000000      6.259460000000000E-01      1.469385000000000E+01      4.755402000000000E-01     -1.354219000000000E+02
4856000000.000000      6.283569000000000E-01      1.465820000000000E+01      4.738922000000000E-01     -1.363672000000000E+02
4857000000.000000      6.301880000000000E-01      1.472949000000000E+01      4.715271000000000E-01     -1.370078000000000E+02
4858000000.000000      6.308594000000000E-01      1.491797000000000E+01      4.688568000000000E-01     -1.380859000000000E+02
4859000000.000000      6.330261000000000E-01      1.467627000000000E+01      4.679871000000000E-01     -1.389766000000000E+02
4860000000.000000      6.320496000000000E-01      1.478320000000000E+01      4.633484000000000E-01     -1.396719000000000E+02
4861000000.000000      6.345825000000000E-01      1.490283000000000E+01      4.593811000000000E-01     -1.405313000000000E+02
4862000000.000000      6.347351000000000E-01      1.503857000000000E+01      4.567261000000000E-01     -1.412422000000000E+02
4863000000.000000      6.365967000000000E-01      1.494531000000000E+01      4.529572000000000E-01     -1.422109000000000E+02
4864000000.000000      6.372375000000000E-01      1.485352000000000E+01      4.509888000000000E-01     -1.429844000000000E+02
4865000000.000000      6.377869000000000E-01      1.480664000000000E+01      4.458160000000000E-01     -1.434922000000000E+02
4866000000.000000      6.409607000000000E-01      1.489844000000000E+01      4.416199000000000E-01     -1.445391000000000E+02
4867000000.000000      6.405334000000000E-01      1.484229000000000E+01      4.384460000000000E-01     -1.454766000000000E+02
4868000000.000000      6.427307000000000E-01      1.486963000000000E+01      4.344177000000000E-01     -1.462188000000000E+02
4869000000.000000      6.443176000000000E-01      1.483545000000000E+01      4.303436000000000E-01     -1.471016000000000E+02
4870000000.000000      6.441650000000000E-01      1.480664000000000E+01      4.261627000000000E-01     -1.474688000000000E+02
4871000000.000000      6.447754000000000E-01      1.471338000000000E+01      4.220276000000000E-01     -1.483750000000000E+02
4872000000.000000      6.477661000000000E-01      1.472852000000000E+01      4.175415000000000E-01     -1.487500000000000E+02
4873000000.000000      6.486206000000000E-01      1.485059000000000E+01      4.137573000000000E-01     -1.497813000000000E+02
4874000000.000000      6.493225000000000E-01      1.486035000000000E+01      4.099274000000000E-01     -1.506797000000000E+02
4875000000.000000      6.509705000000000E-01      1.459375000000000E+01      4.050293000000000E-01     -1.511641000000000E+02
4876000000.000000      6.543884000000000E-01      1.473389000000000E+01      4.011078000000000E-01     -1.518281000000000E+02
4877000000.000000      6.539001000000000E-01      1.438086000000000E+01      3.971710000000000E-01     -1.526328000000000E+02
4878000000.000000      6.554260000000000E-01      1.463379000000000E+01      3.923035000000000E-01     -1.530391000000000E+02
4879000000.000000      6.553650000000000E-01      1.444141000000000E+01      3.871155000000000E-01     -1.537031000000000E+02
4880000000.000000      6.589661000000000E-01      1.447266000000000E+01      3.831329000000000E-01     -1.542500000000000E+02
4881000000.000000      6.580505000000000E-01      1.435352000000000E+01      3.787079000000000E-01     -1.547500000000000E+02
4882000000.000000      6.610107000000000E-01      1.446729000000000E+01      3.737640000000000E-01     -1.553047000000000E+02
4883000000.000000      6.622620000000000E-01      1.433984000000000E+01      3.690796000000000E-01     -1.559375000000000E+02
4884000000.000000      6.615295000000000E-01      1.431885000000000E+01      3.650970000000000E-01     -1.566484000000000E+02
4885000000.000000      6.618347000000000E-01      1.412549000000000E+01      3.603058000000000E-01     -1.567344000000000E+02
4886000000.000000      6.648560000000000E-01      1.411426000000000E+01      3.564758000000000E-01     -1.573125000000000E+02
4887000000.000000      6.658020000000000E-01      1.404053000000000E+01      3.534851000000000E-01     -1.578125000000000E+02
4888000000.000000      6.667175000000000E-01      1.384961000000000E+01      3.481750000000000E-01     -1.585547000000000E+02
4889000000.000000      6.678162000000000E-01      1.388672000000000E+01      3.432617000000000E-01     -1.589844000000000E+02
4890000000.000000      6.675720000000000E-01      1.361328000000000E+01      3.389587000000000E-01     -1.596172000000000E+02
4891000000.000000      6.697693000000000E-01      1.372559000000000E+01      3.349457000000000E-01     -1.597812000000000E+02
4892000000.000000      6.700439000000000E-01      1.359131000000000E+01      3.310394000000000E-01     -1.603437000000000E+02
4893000000.000000      6.739197000000000E-01      1.349365000000000E+01      3.275452000000000E-01     -1.605234000000000E+02
4894000000.000000      6.735535000000000E-01      1.351172000000000E+01      3.226318000000000E-01     -1.610078000000000E+02
4895000000.000000      6.738586000000000E-01      1.330273000000000E+01      3.209381000000000E-01     -1.612813000000000E+02
4896000000.000000      6.734314000000000E-01      1.317773000000000E+01      3.157501000000000E-01     -1.617109000000000E+02
4897000000.000000      6.744690000000000E-01      1.314063000000000E+01      3.121643000000000E-01     -1.621797000000000E+02
4898000000.000000      6.786194000000000E-01      1.314648000000000E+01      3.085327000000000E-01     -1.623828000000000E+02
4899000000.000000      6.773682000000000E-01      1.309961000000000E+01      3.052063000000000E-01     -1.629531000000000E+02
4900000000.000000      6.774292000000000E-01      1.287842000000000E+01      3.014374000000000E-01     -1.631875000000000E+02
4901000000.000000      6.786499000000000E-01      1.282080000000000E+01      2.972412000000000E-01     -1.634453000000000E+02
4902000000.000000      6.792908000000000E-01      1.266553000000000E+01      2.942963000000000E-01     -1.637969000000000E+02
4903000000.000000      6.801453000000000E-01      1.260938000000000E+01      2.894897000000000E-01     -1.641094000000000E+02
4904000000.000000      6.817017000000000E-01      1.237158000000000E+01      2.869568000000000E-01     -1.646016000000000E+02
4905000000.000000      6.824341000000000E-01      1.229199000000000E+01      2.839661000000000E-01     -1.648672000000000E+02
4906000000.000000      6.820679000000000E-01      1.223584000000000E+01      2.790833000000000E-01     -1.650547000000000E+02
4907000000.000000      6.863098000000000E-01      1.221094000000000E+01      2.763519000000000E-01     -1.655234000000000E+02
4908000000.000000      6.849365000000000E-01      1.202979000000000E+01      2.733002000000000E-01     -1.659453000000000E+02
4909000000.000000      6.842346000000000E-01      1.200244000000000E+01      2.691193000000000E-01     -1.660625000000000E+02
4910000000.000000      6.865540000000000E-01      1.198193000000000E+01      2.658691000000000E-01     -1.665313000000000E+02
4911000000.000000      6.859436000000000E-01      1.189404000000000E+01      2.622681000000000E-01     -1.667266000000000E+02
4912000000.000000      6.844788000000000E-01      1.167822000000000E+01      2.586670000000000E-01     -1.670859000000000E+02
4913000000.000000      6.877441000000000E-01      1.147363000000000E+01      2.554016000000000E-01     -1.674141000000000E+02
4914000000.000000      6.892395000000000E-01      1.133789000000000E+01      2.517700000000000E-01     -1.676797000000000E+02
4915000000.000000      6.867676000000000E-01      1.149561000000000E+01      2.487640000000000E-01     -1.680625000000000E+02
4916000000.000000      6.886597000000000E-01      1.131592000000000E+01      2.452774000000000E-01     -1.684141000000000E+02
4917000000.000000      6.890564000000000E-01      1.130859000000000E+01      2.412338000000000E-01     -1.684453000000000E+02
4918000000.000000      6.901855000000000E-01      1.113428000000000E+01      2.370758000000000E-01     -1.690625000000000E+02
4919000000.000000      6.890259000000000E-01      1.107422000000000E+01      2.339172000000000E-01     -1.689297000000000E+02
4920000000.000000      6.919250000000000E-01      1.087500000000000E+01      2.299194000000000E-01     -1.693750000000000E+02
4921000000.000000      6.909180000000000E-01      1.096533000000000E+01      2.263794000000000E-01     -1.696094000000000E+02
4922000000.000000      6.942444000000000E-01      1.076221000000000E+01      2.227173000000000E-01     -1.696640000000000E+02
4923000000.000000      6.923218000000000E-01      1.066064000000000E+01      2.195206000000000E-01     -1.698203000000000E+02
4924000000.000000      6.925964000000000E-01      1.043799000000000E+01      2.152023000000000E-01     -1.701641000000000E+02
4925000000.000000      6.945190000000000E-01      1.037207000000000E+01      2.118912000000000E-01     -1.703359000000000E+02
4926000000.000000      6.953735000000000E-01      1.037793000000000E+01      2.085571000000000E-01     -1.705781000000000E+02
4927000000.000000      6.961975000000000E-01      1.017188000000000E+01      2.039261000000000E-01     -1.706094000000000E+02
4928000000.000000      6.964722000000000E-01      1.010303000000000E+01      2.001801000000000E-01     -1.706719000000000E+02
4929000000.000000      6.956787000000000E-01      9.798340000000000E+00      1.966324000000000E-01     -1.706406000000000E+02
4930000000.000000      6.969910000000000E-01      9.996094000000000E+00      1.926270000000000E-01     -1.708125000000000E+02
4931000000.000000      6.960754000000000E-01      9.660645000000000E+00      1.891861000000000E-01     -1.706016000000000E+02
4932000000.000000      6.968689000000000E-01      9.724121000000000E+00      1.851578000000000E-01     -1.709609000000000E+02
4933000000.000000      6.971436000000000E-01      9.603027000000000E+00      1.805115000000000E-01     -1.706250000000000E+02
4934000000.000000      6.981812000000000E-01      9.483887000000000E+00      1.775131000000000E-01     -1.706640000000000E+02
4935000000.000000      6.982727000000000E-01      9.500000000000000E+00      1.748352000000000E-01     -1.704609000000000E+02
4936000000.000000      6.987610000000000E-01      9.301270000000000E+00      1.700668000000000E-01     -1.702969000000000E+02
4937000000.000000      6.983032000000000E-01      9.117188000000000E+00      1.665344000000000E-01     -1.701328000000000E+02
4938000000.000000      6.981812000000000E-01      9.018066000000000E+00      1.628647000000000E-01     -1.698516000000000E+02
4939000000.000000      6.978760000000000E-01      9.086914000000000E+00      1.588745000000000E-01     -1.696250000000000E+02
4940000000.000000      6.994629000000000E-01      8.872559000000000E+00      1.549454000000000E-01     -1.693750000000000E+02
4941000000.000000      7.019653000000000E-01      8.877930000000000E+00      1.520996000000000E-01     -1.686719000000000E+02
4942000000.000000      6.990356000000000E-01      8.774902000000000E+00      1.483307000000000E-01     -1.683516000000000E+02
4943000000.000000      7.008362000000000E-01      8.589844000000000E+00      1.449280000000000E-01     -1.676797000000000E+02
4944000000.000000      7.026978000000000E-01      8.466309000000000E+00      1.418991000000000E-01     -1.671328000000000E+02
4945000000.000000      7.019348000000000E-01      8.343750000000000E+00      1.384277000000000E-01     -1.664375000000000E+02
4946000000.000000      7.043457000000000E-01      8.287598000000000E+00      1.357574000000000E-01     -1.656172000000000E+02
4947000000.000000      7.040100000000000E-01      8.198242000000000E+00      1.313324000000000E-01     -1.649453000000000E+02
4948000000.000000      7.041016000000000E-01      8.247559000000000E+00      1.293106000000000E-01     -1.639219000000000E+02
4949000000.000000      7.048950000000000E-01      8.061035000000000E+00      1.263733000000000E-01     -1.626875000000000E+02
4950000000.000000      7.051086000000000E-01      8.015625000000000E+00      1.234970000000000E-01     -1.617969000000000E+02
4951000000.000000      7.068176000000000E-01      7.851074000000000E+00      1.210098000000000E-01     -1.608359000000000E+02
4952000000.000000      7.062378000000000E-01      7.812500000000000E+00      1.181641000000000E-01     -1.594219000000000E+02
4953000000.000000      7.055969000000000E-01      7.576416000000000E+00      1.159401000000000E-01     -1.580469000000000E+02
4954000000.000000      7.072449000000000E-01      7.656006000000000E+00      1.137695000000000E-01     -1.568047000000000E+02
