! Network Analyzer HP8722D
! Hewlett-Packard
! Data name: Linha & Wilkinson
! Saver's name: Rodrigo Anjos
! Comments: Teste da utilização de aquisição
continua pelo VNA HP8722D
! Time and date: 22/5/2025 09:46
!              Frequency                     S11                                                   S21                                                   S12                                                   S22
# HZ  S  MA R 50
4800000000.000000      6.471863000000000E-01      1.032422000000000E+01      4.736023000000000E-01     -9.383204000000000E+01
4801000000.000000      6.463013000000000E-01      1.050684000000000E+01      4.763031000000000E-01     -9.435938000000000E+01
4802000000.000000      6.435242000000000E-01      1.041895000000000E+01      4.772339000000000E-01     -9.532812000000000E+01
4803000000.000000      6.417236000000000E-01      1.038574000000000E+01      4.801178000000000E-01     -9.594530000000000E+01
4804000000.000000      6.389465000000000E-01      1.044482000000000E+01      4.815826000000000E-01     -9.666405000000000E+01
4805000000.000000      6.395874000000000E-01      1.041748000000000E+01      4.826965000000000E-01     -9.733202000000000E+01
4806000000.000000      6.371765000000000E-01      1.032568000000000E+01      4.838104000000000E-01     -9.830078000000000E+01
4807000000.000000      6.342163000000000E-01      1.037793000000000E+01      4.861603000000000E-01     -9.903906000000000E+01
4808000000.000000      6.312256000000000E-01      1.054932000000000E+01      4.870453000000000E-01     -9.974218000000000E+01
4809000000.000000      6.317749000000000E-01      1.063574000000000E+01      4.879913000000000E-01     -1.004805000000000E+02
4810000000.000000      6.300354000000000E-01      1.047949000000000E+01      4.908905000000000E-01     -1.011680000000000E+02
4811000000.000000      6.303101000000000E-01      1.057568000000000E+01      4.917145000000000E-01     -1.022461000000000E+02
4812000000.000000      6.279602000000000E-01      1.081982000000000E+01      4.918976000000000E-01     -1.027734000000000E+02
4813000000.000000      6.263428000000000E-01      1.087354000000000E+01      4.921112000000000E-01     -1.035781000000000E+02
4814000000.000000      6.257324000000000E-01      1.060547000000000E+01      4.960480000000000E-01     -1.042305000000000E+02
4815000000.000000      6.240540000000000E-01      1.078857000000000E+01      4.956055000000000E-01     -1.049297000000000E+02
4816000000.000000      6.230469000000000E-01      1.096533000000000E+01      4.963531000000000E-01     -1.058281000000000E+02
4817000000.000000      6.202393000000000E-01      1.098730000000000E+01      4.963226000000000E-01     -1.065469000000000E+02
4818000000.000000      6.206970000000000E-01      1.106445000000000E+01      4.969635000000000E-01     -1.073945000000000E+02
4819000000.000000      6.195679000000000E-01      1.120605000000000E+01      4.992371000000000E-01     -1.082109000000000E+02
4820000000.000000      6.168213000000000E-01      1.130859000000000E+01      4.974060000000000E-01     -1.087070000000000E+02
4821000000.000000      6.190796000000000E-01      1.130762000000000E+01      4.986267000000000E-01     -1.096055000000000E+02
4822000000.000000      6.159973000000000E-01      1.134570000000000E+01      4.975433000000000E-01     -1.103008000000000E+02
4823000000.000000      6.162720000000000E-01      1.147900000000000E+01      5.003967000000000E-01     -1.109961000000000E+02
4824000000.000000      6.139526000000000E-01      1.160938000000000E+01      4.994965000000000E-01     -1.117539000000000E+02
4825000000.000000      6.138916000000000E-01      1.186084000000000E+01      4.987030000000000E-01     -1.124922000000000E+02
4826000000.000000      6.127319000000000E-01      1.163281000000000E+01      5.004883000000000E-01     -1.132617000000000E+02
4827000000.000000      6.125488000000000E-01      1.190771000000000E+01      4.989929000000000E-01     -1.140469000000000E+02
4828000000.000000      6.124573000000000E-01      1.204639000000000E+01      4.992828000000000E-01     -1.148047000000000E+02
4829000000.000000      6.120911000000000E-01      1.224414000000000E+01      5.006714000000000E-01     -1.155976000000000E+02
4830000000.000000      6.139221000000000E-01      1.235547000000000E+01      5.001221000000000E-01     -1.164726000000000E+02
4831000000.000000      6.119385000000000E-01      1.233594000000000E+01      5.000305000000000E-01     -1.172539000000000E+02
4832000000.000000      6.116333000000000E-01      1.243750000000000E+01      4.986725000000000E-01     -1.178828000000000E+02
4833000000.000000      6.102905000000000E-01      1.264355000000000E+01      4.988708000000000E-01     -1.185976000000000E+02
4834000000.000000      6.099854000000000E-01      1.281250000000000E+01      4.996033000000000E-01     -1.195625000000000E+02
4835000000.000000      6.124268000000000E-01      1.270117000000000E+01      4.980469000000000E-01     -1.201875000000000E+02
4836000000.000000      6.114502000000000E-01      1.298291000000000E+01      4.984131000000000E-01     -1.209687000000000E+02
4837000000.000000      6.122131000000000E-01      1.308740000000000E+01      4.961548000000000E-01     -1.220078000000000E+02
4838000000.000000      6.105042000000000E-01      1.321631000000000E+01      4.976654000000000E-01     -1.223672000000000E+02
4839000000.000000      6.153564000000000E-01      1.331641000000000E+01      4.972839000000000E-01     -1.233828000000000E+02
4840000000.000000      6.139526000000000E-01      1.331396000000000E+01      4.989014000000000E-01     -1.239766000000000E+02
4841000000.000000      6.148376000000000E-01      1.349365000000000E+01      4.960327000000000E-01     -1.250625000000000E+02
4842000000.000000      6.152954000000000E-01      1.360352000000000E+01      4.950256000000000E-01     -1.256172000000000E+02
4843000000.000000      6.182556000000000E-01      1.351172000000000E+01      4.950714000000000E-01     -1.264766000000000E+02
4844000000.000000      6.185608000000000E-01      1.347998000000000E+01      4.923706000000000E-01     -1.274844000000000E+02
4845000000.000000      6.172180000000000E-01      1.380957000000000E+01      4.915161000000000E-01     -1.282812000000000E+02
4846000000.000000      6.187134000000000E-01      1.394824000000000E+01      4.911804000000000E-01     -1.288750000000000E+02
4847000000.000000      6.195068000000000E-01      1.389600000000000E+01      4.906769000000000E-01     -1.298125000000000E+02
4848000000.000000      6.180725000000000E-01      1.393066000000000E+01      4.867859000000000E-01     -1.306250000000000E+02
4849000000.000000      6.197815000000000E-01      1.396631000000000E+01      4.868469000000000E-01     -1.314844000000000E+02
4850000000.000000      6.200562000000000E-01      1.418994000000000E+01      4.847412000000000E-01     -1.323594000000000E+02
4851000000.000000      6.222839000000000E-01      1.433398000000000E+01      4.838715000000000E-01     -1.333359000000000E+02
4852000000.000000      6.239929000000000E-01      1.415576000000000E+01      4.811554000000000E-01     -1.340000000000000E+02
4853000000.000000      6.243591000000000E-01      1.434668000000000E+01      4.781342000000000E-01     -1.349609000000000E+02
4854000000.000000      6.239319000000000E-01      1.424512000000000E+01      4.754028000000000E-01     -1.358750000000000E+02
4855000000.000000      6.250610000000000E-01      1.425293000000000E+01      4.731598000000000E-01     -1.367344000000000E+02
4856000000.000000      6.270752000000000E-01      1.419824000000000E+01      4.714966000000000E-01     -1.374766000000000E+02
4857000000.000000      6.300659000000000E-01      1.448779000000000E+01      4.703979000000000E-01     -1.382187000000000E+02
4858000000.000000      6.296997000000000E-01      1.445508000000000E+01      4.660492000000000E-01     -1.393125000000000E+02
4859000000.000000      6.307678000000000E-01      1.437012000000000E+01      4.634399000000000E-01     -1.399297000000000E+02
4860000000.000000      6.319580000000000E-01      1.452246000000000E+01      4.605560000000000E-01     -1.407969000000000E+02
4861000000.000000      6.344604000000000E-01      1.447168000000000E+01      4.568176000000000E-01     -1.417734000000000E+02
4862000000.000000      6.340637000000000E-01      1.456055000000000E+01      4.528198000000000E-01     -1.424766000000000E+02
4863000000.000000      6.356812000000000E-01      1.462549000000000E+01      4.477386000000000E-01     -1.433984000000000E+02
4864000000.000000      6.381226000000000E-01      1.441943000000000E+01      4.460449000000000E-01     -1.439922000000000E+02
4865000000.000000      6.390381000000000E-01      1.450977000000000E+01      4.424438000000000E-01     -1.449375000000000E+02
4866000000.000000      6.395264000000000E-01      1.433838000000000E+01      4.372559000000000E-01     -1.458828000000000E+02
4867000000.000000      6.405029000000000E-01      1.440820000000000E+01      4.342957000000000E-01     -1.465156000000000E+02
4868000000.000000      6.429443000000000E-01      1.431885000000000E+01      4.297028000000000E-01     -1.472265000000000E+02
4869000000.000000      6.435242000000000E-01      1.436426000000000E+01      4.273987000000000E-01     -1.479375000000000E+02
4870000000.000000      6.431885000000000E-01      1.426563000000000E+01      4.236450000000000E-01     -1.485859000000000E+02
4871000000.000000      6.458435000000000E-01      1.435059000000000E+01      4.176025000000000E-01     -1.494297000000000E+02
4872000000.000000      6.487732000000000E-01      1.437109000000000E+01      4.142303000000000E-01     -1.501406000000000E+02
4873000000.000000      6.477051000000000E-01      1.446191000000000E+01      4.090424000000000E-01     -1.508984000000000E+02
4874000000.000000      6.496277000000000E-01      1.424609000000000E+01      4.058380000000000E-01     -1.515312000000000E+02
4875000000.000000      6.510315000000000E-01      1.426270000000000E+01      4.003906000000000E-01     -1.521172000000000E+02
4876000000.000000      6.528625000000000E-01      1.435498000000000E+01      3.964386000000000E-01     -1.526875000000000E+02
4877000000.000000      6.542053000000000E-01      1.402246000000000E+01      3.918304000000000E-01     -1.534688000000000E+02
4878000000.000000      6.553650000000000E-01      1.408447000000000E+01      3.879242000000000E-01     -1.539687000000000E+02
4879000000.000000      6.554871000000000E-01      1.401270000000000E+01      3.825378000000000E-01     -1.545000000000000E+02
4880000000.000000      6.589050000000000E-01      1.393311000000000E+01      3.797455000000000E-01     -1.550781000000000E+02
4881000000.000000      6.581421000000000E-01      1.390869000000000E+01      3.749084000000000E-01     -1.556015000000000E+02
4882000000.000000      6.610413000000000E-01      1.399902000000000E+01      3.704987000000000E-01     -1.563984000000000E+02
4883000000.000000      6.613464000000000E-01      1.387549000000000E+01      3.645782000000000E-01     -1.568594000000000E+02
4884000000.000000      6.636658000000000E-01      1.389063000000000E+01      3.618469000000000E-01     -1.573437000000000E+02
4885000000.000000      6.637573000000000E-01      1.377783000000000E+01      3.555145000000000E-01     -1.575469000000000E+02
4886000000.000000      6.631470000000000E-01      1.365967000000000E+01      3.526306000000000E-01     -1.581094000000000E+02
4887000000.000000      6.662598000000000E-01      1.354590000000000E+01      3.498993000000000E-01     -1.587578000000000E+02
4888000000.000000      6.675110000000000E-01      1.333447000000000E+01      3.440704000000000E-01     -1.591797000000000E+02
4889000000.000000      6.673279000000000E-01      1.339209000000000E+01      3.394623000000000E-01     -1.595781000000000E+02
4890000000.000000      6.664734000000000E-01      1.328906000000000E+01      3.346100000000000E-01     -1.602969000000000E+02
4891000000.000000      6.683350000000000E-01      1.309424000000000E+01      3.314514000000000E-01     -1.608750000000000E+02
4892000000.000000      6.705322000000000E-01      1.309814000000000E+01      3.274231000000000E-01     -1.606406000000000E+02
4893000000.000000      6.715088000000000E-01      1.301318000000000E+01      3.236542000000000E-01     -1.614297000000000E+02
4894000000.000000      6.724854000000000E-01      1.297754000000000E+01      3.189392000000000E-01     -1.616875000000000E+02
4895000000.000000      6.744385000000000E-01      1.285400000000000E+01      3.162079000000000E-01     -1.621250000000000E+02
4896000000.000000      6.754761000000000E-01      1.281543000000000E+01      3.120728000000000E-01     -1.623750000000000E+02
4897000000.000000      6.739807000000000E-01      1.267090000000000E+01      3.078918000000000E-01     -1.628515000000000E+02
4898000000.000000      6.772461000000000E-01      1.272607000000000E+01      3.049622000000000E-01     -1.629688000000000E+02
4899000000.000000      6.774292000000000E-01      1.266162000000000E+01      3.010254000000000E-01     -1.634687000000000E+02
4900000000.000000      6.784363000000000E-01      1.229736000000000E+01      2.973938000000000E-01     -1.637500000000000E+02
4901000000.000000      6.780701000000000E-01      1.215088000000000E+01      2.937775000000000E-01     -1.641406000000000E+02
4902000000.000000      6.812134000000000E-01      1.212744000000000E+01      2.905884000000000E-01     -1.642969000000000E+02
4903000000.000000      6.814880000000000E-01      1.221777000000000E+01      2.857971000000000E-01     -1.646250000000000E+02
4904000000.000000      6.812744000000000E-01      1.193896000000000E+01      2.834778000000000E-01     -1.652031000000000E+02
4905000000.000000      6.816406000000000E-01      1.189258000000000E+01      2.800293000000000E-01     -1.655234000000000E+02
4906000000.000000      6.828613000000000E-01      1.170020000000000E+01      2.760925000000000E-01     -1.654922000000000E+02
4907000000.000000      6.813965000000000E-01      1.169873000000000E+01      2.730103000000000E-01     -1.660469000000000E+02
4908000000.000000      6.828918000000000E-01      1.162598000000000E+01      2.695618000000000E-01     -1.663281000000000E+02
4909000000.000000      6.834717000000000E-01      1.149170000000000E+01      2.656250000000000E-01     -1.665390000000000E+02
4910000000.000000      6.857300000000000E-01      1.154102000000000E+01      2.622681000000000E-01     -1.668516000000000E+02
4911000000.000000      6.860352000000000E-01      1.131299000000000E+01      2.592621000000000E-01     -1.671250000000000E+02
4912000000.000000      6.853027000000000E-01      1.117676000000000E+01      2.553711000000000E-01     -1.675781000000000E+02
4913000000.000000      6.883545000000000E-01      1.108203000000000E+01      2.518005000000000E-01     -1.678437000000000E+02
4914000000.000000      6.866150000000000E-01      1.079541000000000E+01      2.484894000000000E-01     -1.678125000000000E+02
4915000000.000000      6.873779000000000E-01      1.101074000000000E+01      2.447510000000000E-01     -1.685234000000000E+02
4916000000.000000      6.862488000000000E-01      1.069336000000000E+01      2.409897000000000E-01     -1.687344000000000E+02
4917000000.000000      6.894836000000000E-01      1.063330000000000E+01      2.372589000000000E-01     -1.688203000000000E+02
4918000000.000000      6.897888000000000E-01      1.052344000000000E+01      2.336731000000000E-01     -1.692266000000000E+02
4919000000.000000      6.890564000000000E-01      1.050977000000000E+01      2.303314000000000E-01     -1.692422000000000E+02
4920000000.000000      6.907654000000000E-01      1.039844000000000E+01      2.259903000000000E-01     -1.696797000000000E+02
4921000000.000000      6.903687000000000E-01      1.034326000000000E+01      2.232971000000000E-01     -1.696719000000000E+02
4922000000.000000      6.910400000000000E-01      1.017041000000000E+01      2.189789000000000E-01     -1.699531000000000E+02
4923000000.000000      6.914368000000000E-01      1.020068000000000E+01      2.155609000000000E-01     -1.701094000000000E+02
4924000000.000000      6.920776000000000E-01      1.001953000000000E+01      2.115860000000000E-01     -1.702656000000000E+02
4925000000.000000      6.907349000000000E-01      1.001123000000000E+01      2.081985000000000E-01     -1.704062000000000E+02
4926000000.000000      6.923523000000000E-01      9.805176000000000E+00      2.047043000000000E-01     -1.706484000000000E+02
4927000000.000000      6.932373000000000E-01      9.605957000000000E+00      2.009659000000000E-01     -1.707031000000000E+02
4928000000.000000      6.943970000000000E-01      9.627930000000000E+00      1.968994000000000E-01     -1.706094000000000E+02
4929000000.000000      6.933594000000000E-01      9.542969000000000E+00      1.928864000000000E-01     -1.706797000000000E+02
4930000000.000000      6.959534000000000E-01      9.478027000000000E+00      1.893921000000000E-01     -1.708516000000000E+02
4931000000.000000      6.958313000000000E-01      9.308105000000000E+00      1.860352000000000E-01     -1.707187000000000E+02
4932000000.000000      6.978760000000000E-01      9.224121000000000E+00      1.817780000000000E-01     -1.706563000000000E+02
4933000000.000000      6.965027000000000E-01      9.046875000000000E+00      1.779099000000000E-01     -1.706094000000000E+02
4934000000.000000      6.994019000000000E-01      9.152832000000000E+00      1.747589000000000E-01     -1.705234000000000E+02
4935000000.000000      6.986694000000000E-01      8.971680000000000E+00      1.712799000000000E-01     -1.700703000000000E+02
4936000000.000000      6.969299000000000E-01      8.901367000000000E+00      1.669922000000000E-01     -1.699375000000000E+02
4937000000.000000      6.986694000000000E-01      8.762695000000000E+00      1.632385000000000E-01     -1.698516000000000E+02
4938000000.000000      6.990967000000000E-01      8.708984000000000E+00      1.596146000000000E-01     -1.692734000000000E+02
4939000000.000000      6.988220000000000E-01      8.591309000000000E+00      1.567764000000000E-01     -1.688906000000000E+02
4940000000.000000      6.995850000000000E-01      8.374023000000000E+00      1.527252000000000E-01     -1.688984000000000E+02
4941000000.000000      7.009888000000000E-01      8.170898000000000E+00      1.499557000000000E-01     -1.679219000000000E+02
4942000000.000000      6.987915000000000E-01      8.295898000000000E+00      1.463242000000000E-01     -1.675234000000000E+02
4943000000.000000      7.020874000000000E-01      8.270996000000000E+00      1.424713000000000E-01     -1.668906000000000E+02
4944000000.000000      7.004700000000000E-01      8.086914000000000E+00      1.396408000000000E-01     -1.662500000000000E+02
4945000000.000000      7.014465000000000E-01      8.122559000000000E+00      1.354904000000000E-01     -1.655625000000000E+02
4946000000.000000      7.033691000000000E-01      8.070801000000000E+00      1.330490000000000E-01     -1.645781000000000E+02
4947000000.000000      7.028198000000000E-01      7.782227000000000E+00      1.302185000000000E-01     -1.637266000000000E+02
4948000000.000000      7.030945000000000E-01      7.699951000000000E+00      1.271057000000000E-01     -1.629219000000000E+02
4949000000.000000      7.028503000000000E-01      7.664307000000000E+00      1.244583000000000E-01     -1.614219000000000E+02
4950000000.000000      7.041931000000000E-01      7.557129000000000E+00      1.220970000000000E-01     -1.603281000000000E+02
4951000000.000000      7.043762000000000E-01      7.367676000000000E+00      1.193466000000000E-01     -1.593359000000000E+02
4952000000.000000      7.041931000000000E-01      7.204102000000000E+00      1.171265000000000E-01     -1.580469000000000E+02
4953000000.000000      7.055359000000000E-01      7.254883000000000E+00      1.149635000000000E-01     -1.565234000000000E+02
4954000000.000000      7.061462000000000E-01      7.131348000000000E+00      1.128998000000000E-01     -1.550625000000000E+02
