! Network Analyzer HP8722D
! Hewlett-Packard
! Data name: Linha & Wilkinson
! Saver's name: Rodrigo Anjos
! Comments: Teste da utilização de aquisição
continua pelo VNA HP8722D
! Time and date: 22/5/2025 12:15
!              Frequency                     S11                                                   S21                                                   S12                                                   S22
# HZ  S  MA R 50
4800000000.000000      6.517639000000000E-01      1.070605000000000E+01      4.698792000000000E-01     -9.262499000000000E+01
4801000000.000000      6.510620000000000E-01      1.091455000000000E+01      4.718781000000000E-01     -9.305079000000000E+01
4802000000.000000      6.487427000000000E-01      1.078125000000000E+01      4.745178000000000E-01     -9.386328000000000E+01
4803000000.000000      6.464539000000000E-01      1.072803000000000E+01      4.780884000000000E-01     -9.455469000000000E+01
4804000000.000000      6.452637000000000E-01      1.075244000000000E+01      4.783936000000000E-01     -9.526953000000000E+01
4805000000.000000      6.429749000000000E-01      1.066602000000000E+01      4.793549000000000E-01     -9.613670000000000E+01
4806000000.000000      6.412659000000000E-01      1.075928000000000E+01      4.818268000000000E-01     -9.697266000000000E+01
4807000000.000000      6.391296000000000E-01      1.081445000000000E+01      4.828644000000000E-01     -9.767578000000000E+01
4808000000.000000      6.364441000000000E-01      1.062891000000000E+01      4.843597000000000E-01     -9.851563000000000E+01
4809000000.000000      6.364136000000000E-01      1.081445000000000E+01      4.858246000000000E-01     -9.927734000000000E+01
4810000000.000000      6.340942000000000E-01      1.106982000000000E+01      4.882813000000000E-01     -9.987890000000000E+01
4811000000.000000      6.335144000000000E-01      1.099561000000000E+01      4.902039000000000E-01     -1.008281000000000E+02
4812000000.000000      6.342163000000000E-01      1.104248000000000E+01      4.906769000000000E-01     -1.016719000000000E+02
4813000000.000000      6.319275000000000E-01      1.112598000000000E+01      4.897156000000000E-01     -1.023945000000000E+02
4814000000.000000      6.285706000000000E-01      1.116309000000000E+01      4.916382000000000E-01     -1.030508000000000E+02
4815000000.000000      6.269836000000000E-01      1.105615000000000E+01      4.925385000000000E-01     -1.037344000000000E+02
4816000000.000000      6.282349000000000E-01      1.128955000000000E+01      4.954834000000000E-01     -1.044023000000000E+02
4817000000.000000      6.265564000000000E-01      1.143262000000000E+01      4.940796000000000E-01     -1.053320000000000E+02
4818000000.000000      6.245422000000000E-01      1.139551000000000E+01      4.943237000000000E-01     -1.059336000000000E+02
4819000000.000000      6.229248000000000E-01      1.148340000000000E+01      4.957886000000000E-01     -1.068086000000000E+02
4820000000.000000      6.207581000000000E-01      1.151904000000000E+01      4.965668000000000E-01     -1.073945000000000E+02
4821000000.000000      6.211853000000000E-01      1.154492000000000E+01      4.977264000000000E-01     -1.083359000000000E+02
4822000000.000000      6.198730000000000E-01      1.172510000000000E+01      4.959717000000000E-01     -1.090195000000000E+02
4823000000.000000      6.189270000000000E-01      1.178662000000000E+01      4.986115000000000E-01     -1.097539000000000E+02
4824000000.000000      6.186523000000000E-01      1.203369000000000E+01      4.984131000000000E-01     -1.105234000000000E+02
4825000000.000000      6.169434000000000E-01      1.201172000000000E+01      4.973755000000000E-01     -1.112031000000000E+02
4826000000.000000      6.159668000000000E-01      1.193896000000000E+01      4.991913000000000E-01     -1.122930000000000E+02
4827000000.000000      6.175842000000000E-01      1.220264000000000E+01      4.976349000000000E-01     -1.127500000000000E+02
4828000000.000000      6.181030000000000E-01      1.220166000000000E+01      4.988251000000000E-01     -1.135547000000000E+02
4829000000.000000      6.143188000000000E-01      1.245264000000000E+01      5.003357000000000E-01     -1.141562000000000E+02
4830000000.000000      6.150513000000000E-01      1.247754000000000E+01      4.981842000000000E-01     -1.150859000000000E+02
4831000000.000000      6.150513000000000E-01      1.268506000000000E+01      4.998627000000000E-01     -1.158398000000000E+02
4832000000.000000      6.148376000000000E-01      1.296387000000000E+01      4.998016000000000E-01     -1.164883000000000E+02
4833000000.000000      6.122131000000000E-01      1.270264000000000E+01      4.976044000000000E-01     -1.172031000000000E+02
4834000000.000000      6.134949000000000E-01      1.297998000000000E+01      4.996948000000000E-01     -1.181172000000000E+02
4835000000.000000      6.143188000000000E-01      1.301025000000000E+01      4.994659000000000E-01     -1.188633000000000E+02
4836000000.000000      6.138916000000000E-01      1.319434000000000E+01      4.974823000000000E-01     -1.196172000000000E+02
4837000000.000000      6.152954000000000E-01      1.352539000000000E+01      4.978333000000000E-01     -1.207344000000000E+02
4838000000.000000      6.135559000000000E-01      1.348291000000000E+01      4.980774000000000E-01     -1.211484000000000E+02
4839000000.000000      6.175842000000000E-01      1.362012000000000E+01      4.980469000000000E-01     -1.219765000000000E+02
4840000000.000000      6.159058000000000E-01      1.354736000000000E+01      4.971161000000000E-01     -1.227578000000000E+02
4841000000.000000      6.160889000000000E-01      1.382324000000000E+01      4.964142000000000E-01     -1.236172000000000E+02
4842000000.000000      6.168823000000000E-01      1.387012000000000E+01      4.945831000000000E-01     -1.243516000000000E+02
4843000000.000000      6.188965000000000E-01      1.392920000000000E+01      4.956512000000000E-01     -1.253516000000000E+02
4844000000.000000      6.178589000000000E-01      1.383838000000000E+01      4.937134000000000E-01     -1.260820000000000E+02
4845000000.000000      6.181335000000000E-01      1.421338000000000E+01      4.934082000000000E-01     -1.268516000000000E+02
4846000000.000000      6.219482000000000E-01      1.413379000000000E+01      4.926300000000000E-01     -1.278359000000000E+02
4847000000.000000      6.205139000000000E-01      1.442871000000000E+01      4.900360000000000E-01     -1.285859000000000E+02
4848000000.000000      6.191406000000000E-01      1.439453000000000E+01      4.879150000000000E-01     -1.294375000000000E+02
4849000000.000000      6.202393000000000E-01      1.443701000000000E+01      4.884491000000000E-01     -1.300937000000000E+02
4850000000.000000      6.218872000000000E-01      1.442773000000000E+01      4.865417000000000E-01     -1.310313000000000E+02
4851000000.000000      6.231995000000000E-01      1.452637000000000E+01      4.856262000000000E-01     -1.320469000000000E+02
4852000000.000000      6.243286000000000E-01      1.461572000000000E+01      4.836426000000000E-01     -1.326562000000000E+02
4853000000.000000      6.251221000000000E-01      1.460352000000000E+01      4.802856000000000E-01     -1.336094000000000E+02
4854000000.000000      6.257019000000000E-01      1.484229000000000E+01      4.790649000000000E-01     -1.346172000000000E+02
4855000000.000000      6.271057000000000E-01      1.468311000000000E+01      4.769897000000000E-01     -1.354375000000000E+02
4856000000.000000      6.290894000000000E-01      1.480225000000000E+01      4.745789000000000E-01     -1.362344000000000E+02
4857000000.000000      6.325378000000000E-01      1.480225000000000E+01      4.730682000000000E-01     -1.370547000000000E+02
4858000000.000000      6.300964000000000E-01      1.480371000000000E+01      4.690094000000000E-01     -1.381562000000000E+02
4859000000.000000      6.303406000000000E-01      1.479297000000000E+01      4.658356000000000E-01     -1.388047000000000E+02
4860000000.000000      6.309814000000000E-01      1.494922000000000E+01      4.625092000000000E-01     -1.395391000000000E+02
4861000000.000000      6.327209000000000E-01      1.482422000000000E+01      4.606476000000000E-01     -1.405156000000000E+02
4862000000.000000      6.334534000000000E-01      1.497559000000000E+01      4.570313000000000E-01     -1.413750000000000E+02
4863000000.000000      6.373291000000000E-01      1.495898000000000E+01      4.535522000000000E-01     -1.422422000000000E+02
4864000000.000000      6.377869000000000E-01      1.487402000000000E+01      4.505463000000000E-01     -1.428047000000000E+02
4865000000.000000      6.395874000000000E-01      1.470898000000000E+01      4.473267000000000E-01     -1.435859000000000E+02
4866000000.000000      6.398926000000000E-01      1.493994000000000E+01      4.419861000000000E-01     -1.445937000000000E+02
4867000000.000000      6.407166000000000E-01      1.484766000000000E+01      4.394226000000000E-01     -1.454219000000000E+02
4868000000.000000      6.426392000000000E-01      1.485742000000000E+01      4.362030000000000E-01     -1.461875000000000E+02
4869000000.000000      6.438293000000000E-01      1.491357000000000E+01      4.322510000000000E-01     -1.469922000000000E+02
4870000000.000000      6.445618000000000E-01      1.478027000000000E+01      4.271698000000000E-01     -1.475625000000000E+02
4871000000.000000      6.461792000000000E-01      1.482568000000000E+01      4.229279000000000E-01     -1.482891000000000E+02
4872000000.000000      6.482849000000000E-01      1.472412000000000E+01      4.182434000000000E-01     -1.489609000000000E+02
4873000000.000000      6.492310000000000E-01      1.476123000000000E+01      4.149170000000000E-01     -1.499219000000000E+02
4874000000.000000      6.489563000000000E-01      1.471191000000000E+01      4.099884000000000E-01     -1.503828000000000E+02
4875000000.000000      6.494141000000000E-01      1.456494000000000E+01      4.049072000000000E-01     -1.511719000000000E+02
4876000000.000000      6.522522000000000E-01      1.476953000000000E+01      4.020081000000000E-01     -1.517266000000000E+02
4877000000.000000      6.549377000000000E-01      1.453076000000000E+01      3.971100000000000E-01     -1.524531000000000E+02
4878000000.000000      6.545715000000000E-01      1.452930000000000E+01      3.926849000000000E-01     -1.533203000000000E+02
4879000000.000000      6.566162000000000E-01      1.457324000000000E+01      3.876801000000000E-01     -1.533984000000000E+02
4880000000.000000      6.569824000000000E-01      1.441650000000000E+01      3.838196000000000E-01     -1.544922000000000E+02
4881000000.000000      6.582947000000000E-01      1.449365000000000E+01      3.798370000000000E-01     -1.547891000000000E+02
4882000000.000000      6.606445000000000E-01      1.432324000000000E+01      3.752747000000000E-01     -1.554062000000000E+02
4883000000.000000      6.595154000000000E-01      1.440137000000000E+01      3.695374000000000E-01     -1.558906000000000E+02
4884000000.000000      6.633301000000000E-01      1.430811000000000E+01      3.644867000000000E-01     -1.564219000000000E+02
4885000000.000000      6.647949000000000E-01      1.415967000000000E+01      3.624573000000000E-01     -1.566172000000000E+02
4886000000.000000      6.649170000000000E-01      1.422998000000000E+01      3.567505000000000E-01     -1.572109000000000E+02
4887000000.000000      6.644592000000000E-01      1.409668000000000E+01      3.532715000000000E-01     -1.577344000000000E+02
4888000000.000000      6.661377000000000E-01      1.389209000000000E+01      3.492737000000000E-01     -1.584375000000000E+02
4889000000.000000      6.659546000000000E-01      1.383838000000000E+01      3.442383000000000E-01     -1.587812000000000E+02
4890000000.000000      6.683044000000000E-01      1.374072000000000E+01      3.408966000000000E-01     -1.595781000000000E+02
4891000000.000000      6.701355000000000E-01      1.377539000000000E+01      3.359375000000000E-01     -1.598359000000000E+02
4892000000.000000      6.708679000000000E-01      1.362402000000000E+01      3.319855000000000E-01     -1.601563000000000E+02
4893000000.000000      6.732178000000000E-01      1.347314000000000E+01      3.278198000000000E-01     -1.606562000000000E+02
4894000000.000000      6.734314000000000E-01      1.330957000000000E+01      3.236694000000000E-01     -1.608828000000000E+02
4895000000.000000      6.758728000000000E-01      1.333447000000000E+01      3.198547000000000E-01     -1.614375000000000E+02
4896000000.000000      6.763611000000000E-01      1.341943000000000E+01      3.169556000000000E-01     -1.617266000000000E+02
4897000000.000000      6.744690000000000E-01      1.305859000000000E+01      3.124695000000000E-01     -1.621328000000000E+02
4898000000.000000      6.775818000000000E-01      1.310352000000000E+01      3.091583000000000E-01     -1.624375000000000E+02
4899000000.000000      6.790466000000000E-01      1.306934000000000E+01      3.055267000000000E-01     -1.629844000000000E+02
4900000000.000000      6.795654000000000E-01      1.295557000000000E+01      3.013458000000000E-01     -1.630625000000000E+02
4901000000.000000      6.789856000000000E-01      1.282227000000000E+01      2.979431000000000E-01     -1.635937000000000E+02
4902000000.000000      6.801758000000000E-01      1.283887000000000E+01      2.950439000000000E-01     -1.637031000000000E+02
4903000000.000000      6.806946000000000E-01      1.261768000000000E+01      2.902679000000000E-01     -1.641016000000000E+02
4904000000.000000      6.801147000000000E-01      1.256836000000000E+01      2.869110000000000E-01     -1.645234000000000E+02
4905000000.000000      6.823120000000000E-01      1.243213000000000E+01      2.843018000000000E-01     -1.649609000000000E+02
4906000000.000000      6.825867000000000E-01      1.225781000000000E+01      2.801514000000000E-01     -1.649688000000000E+02
4907000000.000000      6.855164000000000E-01      1.196094000000000E+01      2.773285000000000E-01     -1.654531000000000E+02
4908000000.000000      6.860962000000000E-01      1.203516000000000E+01      2.742462000000000E-01     -1.659609000000000E+02
4909000000.000000      6.842346000000000E-01      1.190918000000000E+01      2.702026000000000E-01     -1.662891000000000E+02
4910000000.000000      6.834412000000000E-01      1.182520000000000E+01      2.664490000000000E-01     -1.666172000000000E+02
4911000000.000000      6.860657000000000E-01      1.180029000000000E+01      2.628021000000000E-01     -1.666719000000000E+02
4912000000.000000      6.858521000000000E-01      1.173340000000000E+01      2.593536000000000E-01     -1.671641000000000E+02
4913000000.000000      6.865845000000000E-01      1.155322000000000E+01      2.558441000000000E-01     -1.674453000000000E+02
4914000000.000000      6.879883000000000E-01      1.157813000000000E+01      2.525177000000000E-01     -1.676250000000000E+02
4915000000.000000      6.894836000000000E-01      1.139795000000000E+01      2.481918000000000E-01     -1.680312000000000E+02
4916000000.000000      6.893005000000000E-01      1.125000000000000E+01      2.451096000000000E-01     -1.684531000000000E+02
4917000000.000000      6.890869000000000E-01      1.114014000000000E+01      2.415314000000000E-01     -1.684531000000000E+02
4918000000.000000      6.902466000000000E-01      1.111377000000000E+01      2.376785000000000E-01     -1.689141000000000E+02
4919000000.000000      6.893311000000000E-01      1.110156000000000E+01      2.344589000000000E-01     -1.688828000000000E+02
4920000000.000000      6.915283000000000E-01      1.097900000000000E+01      2.300110000000000E-01     -1.694219000000000E+02
4921000000.000000      6.904602000000000E-01      1.090088000000000E+01      2.271042000000000E-01     -1.694922000000000E+02
4922000000.000000      6.930847000000000E-01      1.070459000000000E+01      2.237167000000000E-01     -1.696719000000000E+02
4923000000.000000      6.919861000000000E-01      1.076660000000000E+01      2.194214000000000E-01     -1.700781000000000E+02
4924000000.000000      6.952820000000000E-01      1.053857000000000E+01      2.154083000000000E-01     -1.701797000000000E+02
4925000000.000000      6.932678000000000E-01      1.015820000000000E+01      2.116013000000000E-01     -1.701406000000000E+02
4926000000.000000      6.933594000000000E-01      1.022510000000000E+01      2.087250000000000E-01     -1.704687000000000E+02
4927000000.000000      6.939087000000000E-01      1.022266000000000E+01      2.040405000000000E-01     -1.708359000000000E+02
4928000000.000000      6.928101000000000E-01      1.001367000000000E+01      2.012634000000000E-01     -1.706172000000000E+02
4929000000.000000      6.949158000000000E-01      9.912109000000000E+00      1.966476000000000E-01     -1.707031000000000E+02
4930000000.000000      6.970520000000000E-01      9.957520000000000E+00      1.933060000000000E-01     -1.707578000000000E+02
4931000000.000000      6.977844000000000E-01      9.730957000000000E+00      1.903992000000000E-01     -1.707734000000000E+02
4932000000.000000      6.979065000000000E-01      9.721191000000000E+00      1.857910000000000E-01     -1.708359000000000E+02
4933000000.000000      6.978149000000000E-01      9.653809000000000E+00      1.816025000000000E-01     -1.706094000000000E+02
4934000000.000000      6.982422000000000E-01      9.593750000000000E+00      1.781769000000000E-01     -1.707578000000000E+02
4935000000.000000      7.009583000000000E-01      9.243164000000000E+00      1.746521000000000E-01     -1.703984000000000E+02
4936000000.000000      6.995850000000000E-01      9.332520000000000E+00      1.700974000000000E-01     -1.704219000000000E+02
4937000000.000000      7.006531000000000E-01      9.228516000000000E+00      1.671982000000000E-01     -1.703984000000000E+02
4938000000.000000      6.992798000000000E-01      9.281738000000000E+00      1.628494000000000E-01     -1.698750000000000E+02
4939000000.000000      6.991882000000000E-01      9.398438000000000E+00      1.595993000000000E-01     -1.696484000000000E+02
4940000000.000000      7.008057000000000E-01      8.975586000000000E+00      1.557617000000000E-01     -1.692969000000000E+02
4941000000.000000      7.019043000000000E-01      8.889160000000000E+00      1.525421000000000E-01     -1.689141000000000E+02
4942000000.000000      7.016907000000000E-01      8.861816000000000E+00      1.481094000000000E-01     -1.683594000000000E+02
4943000000.000000      7.016602000000000E-01      8.732422000000000E+00      1.454239000000000E-01     -1.676406000000000E+02
4944000000.000000      7.021484000000000E-01      8.580078000000000E+00      1.420364000000000E-01     -1.673125000000000E+02
4945000000.000000      7.036743000000000E-01      8.493652000000000E+00      1.385269000000000E-01     -1.665390000000000E+02
4946000000.000000      7.029419000000000E-01      8.409668000000000E+00      1.356049000000000E-01     -1.657422000000000E+02
4947000000.000000      7.023926000000000E-01      8.154297000000000E+00      1.322556000000000E-01     -1.649609000000000E+02
4948000000.000000      7.035217000000000E-01      8.114746000000000E+00      1.293259000000000E-01     -1.640312000000000E+02
4949000000.000000      7.050781000000000E-01      8.039063000000000E+00      1.266174000000000E-01     -1.627656000000000E+02
4950000000.000000      7.057190000000000E-01      8.140625000000000E+00      1.237564000000000E-01     -1.618047000000000E+02
4951000000.000000      7.075195000000000E-01      7.911377000000000E+00      1.208496000000000E-01     -1.610000000000000E+02
4952000000.000000      7.060242000000000E-01      7.864746000000000E+00      1.181030000000000E-01     -1.596094000000000E+02
4953000000.000000      7.056885000000000E-01      7.662842000000000E+00      1.163559000000000E-01     -1.581953000000000E+02
4954000000.000000      7.071228000000000E-01      7.592773000000000E+00      1.138115000000000E-01     -1.566875000000000E+02
