! Network Analyzer HP8722D
! Hewlett-Packard
! Data name: Linha & Wilkinson
! Saver's name: Rodrigo Anjos
! Comments: Teste da utilização de aquisição
continua pelo VNA HP8722D
! Time and date: 22/5/2025 09:03
!              Frequency                     S11                                                   S21                                                   S12                                                   S22
# HZ  S  MA R 50
4800000000.000000      6.470032000000000E-01      1.018408000000000E+01      4.746704000000000E-01     -9.386328000000000E+01
4801000000.000000      6.450500000000000E-01      1.041602000000000E+01      4.739075000000000E-01     -9.453125000000000E+01
4802000000.000000      6.441345000000000E-01      1.035156000000000E+01      4.775085000000000E-01     -9.515625000000000E+01
4803000000.000000      6.419067000000000E-01      1.037109000000000E+01      4.803467000000000E-01     -9.592968000000000E+01
4804000000.000000      6.393433000000000E-01      1.025684000000000E+01      4.815216000000000E-01     -9.675781000000000E+01
4805000000.000000      6.404114000000000E-01      1.020898000000000E+01      4.819489000000000E-01     -9.752342000000000E+01
4806000000.000000      6.360168000000000E-01      1.031201000000000E+01      4.848328000000000E-01     -9.807421000000000E+01
4807000000.000000      6.334534000000000E-01      1.011279000000000E+01      4.846344000000000E-01     -9.922264000000000E+01
4808000000.000000      6.316528000000000E-01      1.039404000000000E+01      4.874115000000000E-01     -9.974998000000000E+01
4809000000.000000      6.312561000000000E-01      1.052881000000000E+01      4.892883000000000E-01     -1.006680000000000E+02
4810000000.000000      6.292419000000000E-01      1.048096000000000E+01      4.911804000000000E-01     -1.012852000000000E+02
4811000000.000000      6.309204000000000E-01      1.046143000000000E+01      4.906769000000000E-01     -1.023438000000000E+02
4812000000.000000      6.294556000000000E-01      1.061670000000000E+01      4.928894000000000E-01     -1.027539000000000E+02
4813000000.000000      6.280823000000000E-01      1.069629000000000E+01      4.918671000000000E-01     -1.037226000000000E+02
4814000000.000000      6.252441000000000E-01      1.054541000000000E+01      4.940186000000000E-01     -1.043633000000000E+02
4815000000.000000      6.227112000000000E-01      1.070996000000000E+01      4.949493000000000E-01     -1.051914000000000E+02
4816000000.000000      6.232910000000000E-01      1.081299000000000E+01      4.955292000000000E-01     -1.058555000000000E+02
4817000000.000000      6.211548000000000E-01      1.086816000000000E+01      4.972534000000000E-01     -1.066133000000000E+02
4818000000.000000      6.196899000000000E-01      1.078955000000000E+01      4.977570000000000E-01     -1.075937000000000E+02
4819000000.000000      6.195984000000000E-01      1.103809000000000E+01      4.976349000000000E-01     -1.080781000000000E+02
4820000000.000000      6.184387000000000E-01      1.119775000000000E+01      4.987183000000000E-01     -1.087852000000000E+02
4821000000.000000      6.179504000000000E-01      1.125928000000000E+01      5.007019000000000E-01     -1.096914000000000E+02
4822000000.000000      6.145630000000000E-01      1.123193000000000E+01      4.971466000000000E-01     -1.102891000000000E+02
4823000000.000000      6.150513000000000E-01      1.124561000000000E+01      4.987030000000000E-01     -1.111328000000000E+02
4824000000.000000      6.133728000000000E-01      1.157129000000000E+01      4.977722000000000E-01     -1.118828000000000E+02
4825000000.000000      6.144714000000000E-01      1.160547000000000E+01      4.993439000000000E-01     -1.125937000000000E+02
4826000000.000000      6.125793000000000E-01      1.156006000000000E+01      5.001831000000000E-01     -1.135664000000000E+02
4827000000.000000      6.132202000000000E-01      1.173730000000000E+01      4.999542000000000E-01     -1.141562000000000E+02
4828000000.000000      6.140137000000000E-01      1.177441000000000E+01      5.009460000000000E-01     -1.147187000000000E+02
4829000000.000000      6.126099000000000E-01      1.220703000000000E+01      5.017090000000000E-01     -1.155391000000000E+02
4830000000.000000      6.137695000000000E-01      1.202002000000000E+01      5.004272000000000E-01     -1.164101000000000E+02
4831000000.000000      6.124878000000000E-01      1.209863000000000E+01      5.014954000000000E-01     -1.172930000000000E+02
4832000000.000000      6.123352000000000E-01      1.228369000000000E+01      5.001831000000000E-01     -1.177226000000000E+02
4833000000.000000      6.110229000000000E-01      1.247070000000000E+01      4.983368000000000E-01     -1.186719000000000E+02
4834000000.000000      6.105042000000000E-01      1.253369000000000E+01      5.002136000000000E-01     -1.195117000000000E+02
4835000000.000000      6.116028000000000E-01      1.286084000000000E+01      4.998016000000000E-01     -1.203594000000000E+02
4836000000.000000      6.112976000000000E-01      1.283447000000000E+01      4.977722000000000E-01     -1.210820000000000E+02
4837000000.000000      6.109314000000000E-01      1.307080000000000E+01      4.976196000000000E-01     -1.219336000000000E+02
4838000000.000000      6.098633000000000E-01      1.280566000000000E+01      4.985809000000000E-01     -1.225078000000000E+02
4839000000.000000      6.153564000000000E-01      1.321777000000000E+01      4.981537000000000E-01     -1.233672000000000E+02
4840000000.000000      6.133728000000000E-01      1.307373000000000E+01      4.971924000000000E-01     -1.240586000000000E+02
4841000000.000000      6.132507000000000E-01      1.341260000000000E+01      4.958191000000000E-01     -1.250039000000000E+02
4842000000.000000      6.153259000000000E-01      1.335498000000000E+01      4.935760000000000E-01     -1.258008000000000E+02
4843000000.000000      6.163330000000000E-01      1.337402000000000E+01      4.950714000000000E-01     -1.267109000000000E+02
4844000000.000000      6.168518000000000E-01      1.349121000000000E+01      4.926300000000000E-01     -1.275391000000000E+02
4845000000.000000      6.174316000000000E-01      1.374219000000000E+01      4.913330000000000E-01     -1.282656000000000E+02
4846000000.000000      6.180115000000000E-01      1.367236000000000E+01      4.913330000000000E-01     -1.291875000000000E+02
4847000000.000000      6.195068000000000E-01      1.372021000000000E+01      4.900970000000000E-01     -1.298828000000000E+02
4848000000.000000      6.181335000000000E-01      1.380566000000000E+01      4.875946000000000E-01     -1.307578000000000E+02
4849000000.000000      6.187744000000000E-01      1.388770000000000E+01      4.873657000000000E-01     -1.315938000000000E+02
4850000000.000000      6.199646000000000E-01      1.407324000000000E+01      4.844971000000000E-01     -1.325547000000000E+02
4851000000.000000      6.212463000000000E-01      1.410645000000000E+01      4.841156000000000E-01     -1.332734000000000E+02
4852000000.000000      6.221008000000000E-01      1.402930000000000E+01      4.806824000000000E-01     -1.341250000000000E+02
4853000000.000000      6.257935000000000E-01      1.406104000000000E+01      4.784241000000000E-01     -1.350234000000000E+02
4854000000.000000      6.253662000000000E-01      1.414453000000000E+01      4.755402000000000E-01     -1.360000000000000E+02
4855000000.000000      6.266174000000000E-01      1.426025000000000E+01      4.736786000000000E-01     -1.366875000000000E+02
4856000000.000000      6.282043000000000E-01      1.418848000000000E+01      4.718170000000000E-01     -1.375156000000000E+02
4857000000.000000      6.283569000000000E-01      1.444971000000000E+01      4.707489000000000E-01     -1.382344000000000E+02
4858000000.000000      6.293640000000000E-01      1.429297000000000E+01      4.660797000000000E-01     -1.393125000000000E+02
4859000000.000000      6.307678000000000E-01      1.427783000000000E+01      4.644012000000000E-01     -1.401328000000000E+02
4860000000.000000      6.300659000000000E-01      1.439746000000000E+01      4.597015000000000E-01     -1.406641000000000E+02
4861000000.000000      6.327820000000000E-01      1.427637000000000E+01      4.561920000000000E-01     -1.418516000000000E+02
4862000000.000000      6.338196000000000E-01      1.454297000000000E+01      4.535828000000000E-01     -1.424062000000000E+02
4863000000.000000      6.362305000000000E-01      1.456055000000000E+01      4.499207000000000E-01     -1.434375000000000E+02
4864000000.000000      6.370544000000000E-01      1.446338000000000E+01      4.461823000000000E-01     -1.441250000000000E+02
4865000000.000000      6.376343000000000E-01      1.437012000000000E+01      4.424133000000000E-01     -1.448672000000000E+02
4866000000.000000      6.395264000000000E-01      1.443701000000000E+01      4.374542000000000E-01     -1.458828000000000E+02
4867000000.000000      6.388550000000000E-01      1.440137000000000E+01      4.348755000000000E-01     -1.466641000000000E+02
4868000000.000000      6.427917000000000E-01      1.436182000000000E+01      4.323120000000000E-01     -1.473359000000000E+02
4869000000.000000      6.435852000000000E-01      1.440283000000000E+01      4.268494000000000E-01     -1.481719000000000E+02
4870000000.000000      6.438293000000000E-01      1.449219000000000E+01      4.232483000000000E-01     -1.485078000000000E+02
4871000000.000000      6.454773000000000E-01      1.425049000000000E+01      4.176025000000000E-01     -1.496094000000000E+02
4872000000.000000      6.485596000000000E-01      1.428906000000000E+01      4.143829000000000E-01     -1.499453000000000E+02
4873000000.000000      6.491394000000000E-01      1.427637000000000E+01      4.105377000000000E-01     -1.508203000000000E+02
4874000000.000000      6.494751000000000E-01      1.428906000000000E+01      4.048004000000000E-01     -1.515625000000000E+02
4875000000.000000      6.519470000000000E-01      1.401025000000000E+01      4.004211000000000E-01     -1.521953000000000E+02
4876000000.000000      6.511841000000000E-01      1.417480000000000E+01      3.979492000000000E-01     -1.527422000000000E+02
4877000000.000000      6.538391000000000E-01      1.399072000000000E+01      3.924713000000000E-01     -1.534062000000000E+02
4878000000.000000      6.535950000000000E-01      1.386865000000000E+01      3.877106000000000E-01     -1.540469000000000E+02
4879000000.000000      6.579285000000000E-01      1.399219000000000E+01      3.834686000000000E-01     -1.544765000000000E+02
4880000000.000000      6.585083000000000E-01      1.407617000000000E+01      3.792267000000000E-01     -1.553359000000000E+02
4881000000.000000      6.595459000000000E-01      1.379053000000000E+01      3.741760000000000E-01     -1.556719000000000E+02
4882000000.000000      6.607056000000000E-01      1.380957000000000E+01      3.706360000000000E-01     -1.564219000000000E+02
4883000000.000000      6.608582000000000E-01      1.356250000000000E+01      3.662872000000000E-01     -1.569844000000000E+02
4884000000.000000      6.645203000000000E-01      1.358691000000000E+01      3.618164000000000E-01     -1.573672000000000E+02
4885000000.000000      6.643066000000000E-01      1.374365000000000E+01      3.572693000000000E-01     -1.577500000000000E+02
4886000000.000000      6.656189000000000E-01      1.351318000000000E+01      3.534241000000000E-01     -1.580000000000000E+02
4887000000.000000      6.662903000000000E-01      1.339893000000000E+01      3.498993000000000E-01     -1.586641000000000E+02
4888000000.000000      6.672363000000000E-01      1.323291000000000E+01      3.449707000000000E-01     -1.592578000000000E+02
4889000000.000000      6.660156000000000E-01      1.338135000000000E+01      3.401031000000000E-01     -1.594766000000000E+02
4890000000.000000      6.676331000000000E-01      1.317627000000000E+01      3.349457000000000E-01     -1.604687000000000E+02
4891000000.000000      6.677856000000000E-01      1.314355000000000E+01      3.320313000000000E-01     -1.606797000000000E+02
4892000000.000000      6.705627000000000E-01      1.304199000000000E+01      3.274536000000000E-01     -1.608594000000000E+02
4893000000.000000      6.717224000000000E-01      1.286182000000000E+01      3.223572000000000E-01     -1.615391000000000E+02
4894000000.000000      6.713257000000000E-01      1.294873000000000E+01      3.199921000000000E-01     -1.617656000000000E+02
4895000000.000000      6.744995000000000E-01      1.298291000000000E+01      3.172913000000000E-01     -1.621484000000000E+02
4896000000.000000      6.760254000000000E-01      1.282910000000000E+01      3.130646000000000E-01     -1.623281000000000E+02
4897000000.000000      6.765442000000000E-01      1.267920000000000E+01      3.087158000000000E-01     -1.628515000000000E+02
4898000000.000000      6.788025000000000E-01      1.248584000000000E+01      3.052521000000000E-01     -1.630156000000000E+02
4899000000.000000      6.789551000000000E-01      1.236475000000000E+01      3.012848000000000E-01     -1.636172000000000E+02
4900000000.000000      6.786804000000000E-01      1.223438000000000E+01      2.974396000000000E-01     -1.637422000000000E+02
4901000000.000000      6.769104000000000E-01      1.217139000000000E+01      2.940063000000000E-01     -1.641953000000000E+02
4902000000.000000      6.804199000000000E-01      1.196094000000000E+01      2.900848000000000E-01     -1.643672000000000E+02
4903000000.000000      6.803894000000000E-01      1.201611000000000E+01      2.864685000000000E-01     -1.646875000000000E+02
4904000000.000000      6.817932000000000E-01      1.181836000000000E+01      2.828827000000000E-01     -1.652578000000000E+02
4905000000.000000      6.812134000000000E-01      1.171826000000000E+01      2.799988000000000E-01     -1.654063000000000E+02
4906000000.000000      6.799927000000000E-01      1.171387000000000E+01      2.763367000000000E-01     -1.656406000000000E+02
4907000000.000000      6.834106000000000E-01      1.171924000000000E+01      2.729187000000000E-01     -1.661094000000000E+02
4908000000.000000      6.836243000000000E-01      1.135840000000000E+01      2.697906000000000E-01     -1.664297000000000E+02
4909000000.000000      6.847229000000000E-01      1.146533000000000E+01      2.655792000000000E-01     -1.665937000000000E+02
4910000000.000000      6.857910000000000E-01      1.131445000000000E+01      2.622528000000000E-01     -1.670703000000000E+02
4911000000.000000      6.867981000000000E-01      1.116748000000000E+01      2.590942000000000E-01     -1.672656000000000E+02
4912000000.000000      6.864929000000000E-01      1.108350000000000E+01      2.553558000000000E-01     -1.676719000000000E+02
4913000000.000000      6.879883000000000E-01      1.084033000000000E+01      2.518921000000000E-01     -1.678516000000000E+02
4914000000.000000      6.898804000000000E-01      1.084863000000000E+01      2.490997000000000E-01     -1.680312000000000E+02
4915000000.000000      6.875000000000000E-01      1.085840000000000E+01      2.444992000000000E-01     -1.684531000000000E+02
4916000000.000000      6.882935000000000E-01      1.072656000000000E+01      2.409515000000000E-01     -1.687422000000000E+02
4917000000.000000      6.897278000000000E-01      1.054102000000000E+01      2.374115000000000E-01     -1.688437000000000E+02
4918000000.000000      6.904297000000000E-01      1.066748000000000E+01      2.336121000000000E-01     -1.694062000000000E+02
4919000000.000000      6.907349000000000E-01      1.043262000000000E+01      2.308884000000000E-01     -1.692656000000000E+02
4920000000.000000      6.893921000000000E-01      1.025684000000000E+01      2.262115000000000E-01     -1.697578000000000E+02
4921000000.000000      6.890869000000000E-01      1.023096000000000E+01      2.233887000000000E-01     -1.697422000000000E+02
4922000000.000000      6.929626000000000E-01      1.010303000000000E+01      2.192230000000000E-01     -1.699375000000000E+02
4923000000.000000      6.919250000000000E-01      1.008252000000000E+01      2.158585000000000E-01     -1.701797000000000E+02
4924000000.000000      6.925354000000000E-01      9.915039000000000E+00      2.118607000000000E-01     -1.703594000000000E+02
4925000000.000000      6.903076000000000E-01      9.771973000000000E+00      2.084122000000000E-01     -1.705312000000000E+02
4926000000.000000      6.938477000000000E-01      9.818848000000000E+00      2.054749000000000E-01     -1.704922000000000E+02
4927000000.000000      6.932373000000000E-01      9.592285000000000E+00      2.011261000000000E-01     -1.706640000000000E+02
4928000000.000000      6.940613000000000E-01      9.599121000000000E+00      1.972351000000000E-01     -1.707500000000000E+02
4929000000.000000      6.932373000000000E-01      9.417969000000000E+00      1.931076000000000E-01     -1.707813000000000E+02
4930000000.000000      6.949463000000000E-01      9.372559000000000E+00      1.896439000000000E-01     -1.709063000000000E+02
4931000000.000000      6.960449000000000E-01      9.247559000000000E+00      1.865311000000000E-01     -1.708672000000000E+02
4932000000.000000      6.962585000000000E-01      9.270996000000000E+00      1.821442000000000E-01     -1.707734000000000E+02
4933000000.000000      6.976318000000000E-01      9.040039000000000E+00      1.777725000000000E-01     -1.706484000000000E+02
4934000000.000000      6.972961000000000E-01      8.840820000000000E+00      1.747055000000000E-01     -1.706172000000000E+02
4935000000.000000      6.993103000000000E-01      8.939941000000000E+00      1.716385000000000E-01     -1.702109000000000E+02
4936000000.000000      6.959534000000000E-01      8.742188000000000E+00      1.673508000000000E-01     -1.699453000000000E+02
4937000000.000000      6.987000000000000E-01      8.468750000000000E+00      1.636429000000000E-01     -1.698516000000000E+02
4938000000.000000      6.953735000000000E-01      8.618652000000000E+00      1.605072000000000E-01     -1.693516000000000E+02
4939000000.000000      6.983032000000000E-01      8.483887000000000E+00      1.563339000000000E-01     -1.691250000000000E+02
4940000000.000000      6.987305000000000E-01      8.291504000000000E+00      1.527634000000000E-01     -1.689531000000000E+02
4941000000.000000      6.990051000000000E-01      8.374023000000000E+00      1.494293000000000E-01     -1.682578000000000E+02
4942000000.000000      6.994629000000000E-01      8.196777000000000E+00      1.457672000000000E-01     -1.676328000000000E+02
4943000000.000000      7.024231000000000E-01      8.048828000000000E+00      1.426392000000000E-01     -1.671250000000000E+02
4944000000.000000      7.018433000000000E-01      7.915527000000000E+00      1.393051000000000E-01     -1.662109000000000E+02
4945000000.000000      7.008667000000000E-01      7.818115000000000E+00      1.362381000000000E-01     -1.657969000000000E+02
4946000000.000000      7.034912000000000E-01      7.775391000000000E+00      1.328659000000000E-01     -1.647500000000000E+02
4947000000.000000      7.032471000000000E-01      7.801514000000000E+00      1.302948000000000E-01     -1.639297000000000E+02
4948000000.000000      7.023010000000000E-01      7.587402000000000E+00      1.274567000000000E-01     -1.626641000000000E+02
4949000000.000000      7.034912000000000E-01      7.509033000000000E+00      1.248016000000000E-01     -1.616250000000000E+02
4950000000.000000      7.031250000000000E-01      7.533691000000000E+00      1.218338000000000E-01     -1.605312000000000E+02
4951000000.000000      7.051392000000000E-01      7.367676000000000E+00      1.194878000000000E-01     -1.593906000000000E+02
4952000000.000000      7.036133000000000E-01      7.102539000000000E+00      1.168404000000000E-01     -1.580469000000000E+02
4953000000.000000      7.046814000000000E-01      7.161621000000000E+00      1.150703000000000E-01     -1.564687000000000E+02
4954000000.000000      7.058105000000000E-01      6.943359000000000E+00      1.128960000000000E-01     -1.552969000000000E+02
