! Network Analyzer HP8722D
! Hewlett-Packard
! Data name: Linha & Wilkinson
! Saver's name: Rodrigo Anjos
! Comments: Teste da utilização de aquisição
continua pelo VNA HP8722D
! Time and date: 22/5/2025 16:38
!              Frequency                     S11                                                   S21                                                   S12                                                   S22
# HZ  S  MA R 50
4800000000.000000      6.512146000000000E-01      1.105322000000000E+01      4.710083000000000E-01     -9.264063000000000E+01
4801000000.000000      6.488647000000000E-01      1.110303000000000E+01      4.735107000000000E-01     -9.294140000000000E+01
4802000000.000000      6.487732000000000E-01      1.097363000000000E+01      4.748993000000000E-01     -9.383204000000000E+01
4803000000.000000      6.452637000000000E-01      1.098633000000000E+01      4.772949000000000E-01     -9.482422000000000E+01
4804000000.000000      6.450195000000000E-01      1.105762000000000E+01      4.784393000000000E-01     -9.537889000000000E+01
4805000000.000000      6.444397000000000E-01      1.099023000000000E+01      4.811096000000000E-01     -9.630077000000000E+01
4806000000.000000      6.407166000000000E-01      1.096289000000000E+01      4.808350000000000E-01     -9.702343000000000E+01
4807000000.000000      6.390076000000000E-01      1.089258000000000E+01      4.831085000000000E-01     -9.779297000000000E+01
4808000000.000000      6.381226000000000E-01      1.116455000000000E+01      4.849701000000000E-01     -9.863281000000000E+01
4809000000.000000      6.349182000000000E-01      1.113184000000000E+01      4.852600000000000E-01     -9.929688000000000E+01
4810000000.000000      6.342163000000000E-01      1.096143000000000E+01      4.896088000000000E-01     -9.985155000000000E+01
4811000000.000000      6.320496000000000E-01      1.111523000000000E+01      4.894409000000000E-01     -1.009336000000000E+02
4812000000.000000      6.325684000000000E-01      1.122656000000000E+01      4.894714000000000E-01     -1.013789000000000E+02
4813000000.000000      6.301575000000000E-01      1.109619000000000E+01      4.919739000000000E-01     -1.025508000000000E+02
4814000000.000000      6.292419000000000E-01      1.117969000000000E+01      4.937744000000000E-01     -1.030898000000000E+02
4815000000.000000      6.280212000000000E-01      1.128662000000000E+01      4.925385000000000E-01     -1.036758000000000E+02
4816000000.000000      6.248474000000000E-01      1.149951000000000E+01      4.940338000000000E-01     -1.045703000000000E+02
4817000000.000000      6.239624000000000E-01      1.141846000000000E+01      4.947205000000000E-01     -1.052578000000000E+02
4818000000.000000      6.239624000000000E-01      1.148047000000000E+01      4.958801000000000E-01     -1.062539000000000E+02
4819000000.000000      6.239319000000000E-01      1.157227000000000E+01      4.956055000000000E-01     -1.069844000000000E+02
4820000000.000000      6.199951000000000E-01      1.190088000000000E+01      4.971619000000000E-01     -1.074258000000000E+02
4821000000.000000      6.210632000000000E-01      1.171387000000000E+01      4.986420000000000E-01     -1.084023000000000E+02
4822000000.000000      6.188354000000000E-01      1.182227000000000E+01      4.967194000000000E-01     -1.089805000000000E+02
4823000000.000000      6.169739000000000E-01      1.190771000000000E+01      4.983368000000000E-01     -1.098984000000000E+02
4824000000.000000      6.178284000000000E-01      1.213135000000000E+01      4.974976000000000E-01     -1.106562000000000E+02
4825000000.000000      6.177673000000000E-01      1.226318000000000E+01      4.976959000000000E-01     -1.114609000000000E+02
4826000000.000000      6.163940000000000E-01      1.215186000000000E+01      4.992371000000000E-01     -1.122734000000000E+02
4827000000.000000      6.148987000000000E-01      1.238818000000000E+01      4.990845000000000E-01     -1.128086000000000E+02
4828000000.000000      6.170044000000000E-01      1.256543000000000E+01      4.986267000000000E-01     -1.135898000000000E+02
4829000000.000000      6.165466000000000E-01      1.274658000000000E+01      4.989777000000000E-01     -1.143281000000000E+02
4830000000.000000      6.154480000000000E-01      1.267090000000000E+01      4.999084000000000E-01     -1.152695000000000E+02
4831000000.000000      6.146240000000000E-01      1.274805000000000E+01      5.000000000000000E-01     -1.160976000000000E+02
4832000000.000000      6.140442000000000E-01      1.306543000000000E+01      4.994965000000000E-01     -1.166406000000000E+02
4833000000.000000      6.135254000000000E-01      1.302246000000000E+01      4.982300000000000E-01     -1.171914000000000E+02
4834000000.000000      6.126404000000000E-01      1.301465000000000E+01      4.994965000000000E-01     -1.182461000000000E+02
4835000000.000000      6.148682000000000E-01      1.327002000000000E+01      4.990845000000000E-01     -1.189336000000000E+02
4836000000.000000      6.132813000000000E-01      1.355273000000000E+01      4.979858000000000E-01     -1.196484000000000E+02
4837000000.000000      6.137695000000000E-01      1.353906000000000E+01      4.969177000000000E-01     -1.205664000000000E+02
4838000000.000000      6.124268000000000E-01      1.343213000000000E+01      4.982300000000000E-01     -1.212734000000000E+02
4839000000.000000      6.165771000000000E-01      1.377686000000000E+01      4.977875000000000E-01     -1.219258000000000E+02
4840000000.000000      6.168518000000000E-01      1.374219000000000E+01      4.969330000000000E-01     -1.228555000000000E+02
4841000000.000000      6.165466000000000E-01      1.397998000000000E+01      4.967041000000000E-01     -1.236797000000000E+02
4842000000.000000      6.162415000000000E-01      1.389063000000000E+01      4.959717000000000E-01     -1.243867000000000E+02
4843000000.000000      6.181946000000000E-01      1.402637000000000E+01      4.964905000000000E-01     -1.252031000000000E+02
4844000000.000000      6.159363000000000E-01      1.420215000000000E+01      4.929047000000000E-01     -1.261992000000000E+02
4845000000.000000      6.192017000000000E-01      1.429150000000000E+01      4.923401000000000E-01     -1.268398000000000E+02
4846000000.000000      6.202393000000000E-01      1.441504000000000E+01      4.918823000000000E-01     -1.277617000000000E+02
4847000000.000000      6.194763000000000E-01      1.454443000000000E+01      4.918976000000000E-01     -1.284375000000000E+02
4848000000.000000      6.206055000000000E-01      1.449902000000000E+01      4.893188000000000E-01     -1.295859000000000E+02
4849000000.000000      6.208191000000000E-01      1.463086000000000E+01      4.880066000000000E-01     -1.303984000000000E+02
4850000000.000000      6.220398000000000E-01      1.461865000000000E+01      4.851685000000000E-01     -1.312266000000000E+02
4851000000.000000      6.220093000000000E-01      1.485889000000000E+01      4.850769000000000E-01     -1.318828000000000E+02
4852000000.000000      6.242981000000000E-01      1.475049000000000E+01      4.824829000000000E-01     -1.329375000000000E+02
4853000000.000000      6.259460000000000E-01      1.484375000000000E+01      4.792328000000000E-01     -1.336953000000000E+02
4854000000.000000      6.253967000000000E-01      1.483154000000000E+01      4.783478000000000E-01     -1.344687000000000E+02
4855000000.000000      6.260376000000000E-01      1.478027000000000E+01      4.765778000000000E-01     -1.353672000000000E+02
4856000000.000000      6.269226000000000E-01      1.480957000000000E+01      4.737396000000000E-01     -1.361406000000000E+02
4857000000.000000      6.278992000000000E-01      1.496338000000000E+01      4.714966000000000E-01     -1.370547000000000E+02
4858000000.000000      6.302795000000000E-01      1.510205000000000E+01      4.682007000000000E-01     -1.380312000000000E+02
4859000000.000000      6.319580000000000E-01      1.474609000000000E+01      4.654694000000000E-01     -1.388906000000000E+02
4860000000.000000      6.324463000000000E-01      1.495361000000000E+01      4.623871000000000E-01     -1.395781000000000E+02
4861000000.000000      6.336060000000000E-01      1.511426000000000E+01      4.578094000000000E-01     -1.407266000000000E+02
4862000000.000000      6.328125000000000E-01      1.509619000000000E+01      4.563293000000000E-01     -1.413437000000000E+02
4863000000.000000      6.365051000000000E-01      1.525684000000000E+01      4.512177000000000E-01     -1.421250000000000E+02
4864000000.000000      6.363220000000000E-01      1.510449000000000E+01      4.491730000000000E-01     -1.429297000000000E+02
4865000000.000000      6.367798000000000E-01      1.510059000000000E+01      4.447784000000000E-01     -1.436172000000000E+02
4866000000.000000      6.408081000000000E-01      1.514844000000000E+01      4.410706000000000E-01     -1.444844000000000E+02
4867000000.000000      6.377563000000000E-01      1.510986000000000E+01      4.386139000000000E-01     -1.454375000000000E+02
4868000000.000000      6.419373000000000E-01      1.494678000000000E+01      4.330139000000000E-01     -1.462734000000000E+02
4869000000.000000      6.421509000000000E-01      1.494238000000000E+01      4.304962000000000E-01     -1.468906000000000E+02
4870000000.000000      6.435852000000000E-01      1.498633000000000E+01      4.253845000000000E-01     -1.475547000000000E+02
4871000000.000000      6.459045000000000E-01      1.486133000000000E+01      4.214935000000000E-01     -1.483984000000000E+02
4872000000.000000      6.477051000000000E-01      1.504004000000000E+01      4.165344000000000E-01     -1.488594000000000E+02
4873000000.000000      6.477051000000000E-01      1.501270000000000E+01      4.129639000000000E-01     -1.498203000000000E+02
4874000000.000000      6.485901000000000E-01      1.500830000000000E+01      4.078217000000000E-01     -1.504219000000000E+02
4875000000.000000      6.518555000000000E-01      1.476270000000000E+01      4.045258000000000E-01     -1.510625000000000E+02
4876000000.000000      6.502075000000000E-01      1.500830000000000E+01      3.984070000000000E-01     -1.518437000000000E+02
4877000000.000000      6.533508000000000E-01      1.472705000000000E+01      3.960876000000000E-01     -1.523203000000000E+02
4878000000.000000      6.525879000000000E-01      1.470068000000000E+01      3.911591000000000E-01     -1.530937000000000E+02
4879000000.000000      6.559753000000000E-01      1.475146000000000E+01      3.856201000000000E-01     -1.534844000000000E+02
4880000000.000000      6.565857000000000E-01      1.458008000000000E+01      3.825073000000000E-01     -1.543125000000000E+02
4881000000.000000      6.584167000000000E-01      1.475977000000000E+01      3.777313000000000E-01     -1.546328000000000E+02
4882000000.000000      6.602478000000000E-01      1.459229000000000E+01      3.742981000000000E-01     -1.553281000000000E+02
4883000000.000000      6.593933000000000E-01      1.464746000000000E+01      3.675995000000000E-01     -1.559844000000000E+02
4884000000.000000      6.624146000000000E-01      1.461572000000000E+01      3.652954000000000E-01     -1.563828000000000E+02
4885000000.000000      6.632690000000000E-01      1.430127000000000E+01      3.600006000000000E-01     -1.569531000000000E+02
4886000000.000000      6.642456000000000E-01      1.436572000000000E+01      3.560028000000000E-01     -1.573281000000000E+02
4887000000.000000      6.643066000000000E-01      1.440283000000000E+01      3.516541000000000E-01     -1.577500000000000E+02
4888000000.000000      6.661377000000000E-01      1.408691000000000E+01      3.478699000000000E-01     -1.583906000000000E+02
4889000000.000000      6.687622000000000E-01      1.411182000000000E+01      3.442688000000000E-01     -1.586328000000000E+02
4890000000.000000      6.676025000000000E-01      1.381250000000000E+01      3.403473000000000E-01     -1.596875000000000E+02
4891000000.000000      6.692505000000000E-01      1.385498000000000E+01      3.347321000000000E-01     -1.596875000000000E+02
4892000000.000000      6.696777000000000E-01      1.370801000000000E+01      3.302612000000000E-01     -1.599688000000000E+02
4893000000.000000      6.717834000000000E-01      1.375879000000000E+01      3.269196000000000E-01     -1.606406000000000E+02
4894000000.000000      6.713867000000000E-01      1.367090000000000E+01      3.217926000000000E-01     -1.608125000000000E+02
4895000000.000000      6.736755000000000E-01      1.338135000000000E+01      3.206177000000000E-01     -1.612656000000000E+02
4896000000.000000      6.727905000000000E-01      1.340869000000000E+01      3.161469000000000E-01     -1.615781000000000E+02
4897000000.000000      6.746826000000000E-01      1.347168000000000E+01      3.114777000000000E-01     -1.620703000000000E+02
4898000000.000000      6.763000000000000E-01      1.336035000000000E+01      3.082428000000000E-01     -1.623203000000000E+02
4899000000.000000      6.761475000000000E-01      1.314746000000000E+01      3.042755000000000E-01     -1.628281000000000E+02
4900000000.000000      6.785583000000000E-01      1.287988000000000E+01      3.004913000000000E-01     -1.630938000000000E+02
4901000000.000000      6.792603000000000E-01      1.300342000000000E+01      2.972717000000000E-01     -1.634375000000000E+02
4902000000.000000      6.791077000000000E-01      1.288379000000000E+01      2.939148000000000E-01     -1.637031000000000E+02
4903000000.000000      6.813965000000000E-01      1.275488000000000E+01      2.894745000000000E-01     -1.640625000000000E+02
4904000000.000000      6.799316000000000E-01      1.270703000000000E+01      2.859497000000000E-01     -1.646406000000000E+02
4905000000.000000      6.827698000000000E-01      1.254492000000000E+01      2.828674000000000E-01     -1.648672000000000E+02
4906000000.000000      6.831360000000000E-01      1.249121000000000E+01      2.786865000000000E-01     -1.651016000000000E+02
4907000000.000000      6.832886000000000E-01      1.234717000000000E+01      2.768250000000000E-01     -1.654766000000000E+02
4908000000.000000      6.843872000000000E-01      1.193799000000000E+01      2.728577000000000E-01     -1.659141000000000E+02
4909000000.000000      6.836548000000000E-01      1.230322000000000E+01      2.688904000000000E-01     -1.660312000000000E+02
4910000000.000000      6.841736000000000E-01      1.209961000000000E+01      2.649841000000000E-01     -1.662969000000000E+02
4911000000.000000      6.861877000000000E-01      1.216309000000000E+01      2.621155000000000E-01     -1.666719000000000E+02
4912000000.000000      6.862488000000000E-01      1.194873000000000E+01      2.582550000000000E-01     -1.670938000000000E+02
4913000000.000000      6.864319000000000E-01      1.164404000000000E+01      2.551270000000000E-01     -1.673750000000000E+02
4914000000.000000      6.886292000000000E-01      1.164795000000000E+01      2.514801000000000E-01     -1.674844000000000E+02
4915000000.000000      6.877136000000000E-01      1.156982000000000E+01      2.476273000000000E-01     -1.678750000000000E+02
4916000000.000000      6.904602000000000E-01      1.135254000000000E+01      2.444000000000000E-01     -1.682031000000000E+02
4917000000.000000      6.884460000000000E-01      1.129102000000000E+01      2.409286000000000E-01     -1.683594000000000E+02
4918000000.000000      6.904907000000000E-01      1.127734000000000E+01      2.365570000000000E-01     -1.688203000000000E+02
4919000000.000000      6.886292000000000E-01      1.134717000000000E+01      2.335510000000000E-01     -1.687187000000000E+02
4920000000.000000      6.894226000000000E-01      1.106445000000000E+01      2.290421000000000E-01     -1.692188000000000E+02
4921000000.000000      6.897278000000000E-01      1.114258000000000E+01      2.263565000000000E-01     -1.694531000000000E+02
4922000000.000000      6.926880000000000E-01      1.086230000000000E+01      2.224731000000000E-01     -1.695469000000000E+02
4923000000.000000      6.902466000000000E-01      1.086230000000000E+01      2.186737000000000E-01     -1.695859000000000E+02
4924000000.000000      6.917419000000000E-01      1.064844000000000E+01      2.146530000000000E-01     -1.699844000000000E+02
4925000000.000000      6.914063000000000E-01      1.061133000000000E+01      2.111816000000000E-01     -1.702031000000000E+02
4926000000.000000      6.939087000000000E-01      1.057129000000000E+01      2.072754000000000E-01     -1.703125000000000E+02
4927000000.000000      6.939087000000000E-01      1.024316000000000E+01      2.035217000000000E-01     -1.706016000000000E+02
4928000000.000000      6.960144000000000E-01      1.012500000000000E+01      1.999817000000000E-01     -1.706719000000000E+02
4929000000.000000      6.955261000000000E-01      1.005762000000000E+01      1.959839000000000E-01     -1.705312000000000E+02
4930000000.000000      6.962891000000000E-01      1.016602000000000E+01      1.925507000000000E-01     -1.707734000000000E+02
4931000000.000000      6.956482000000000E-01      9.821777000000000E+00      1.890869000000000E-01     -1.705859000000000E+02
4932000000.000000      6.962891000000000E-01      9.817383000000000E+00      1.847000000000000E-01     -1.707187000000000E+02
4933000000.000000      6.981201000000000E-01      9.621094000000000E+00      1.805878000000000E-01     -1.703750000000000E+02
4934000000.000000      6.970520000000000E-01      9.788574000000000E+00      1.769562000000000E-01     -1.705000000000000E+02
4935000000.000000      6.989746000000000E-01      9.631836000000000E+00      1.742172000000000E-01     -1.701250000000000E+02
4936000000.000000      6.971436000000000E-01      9.490723000000000E+00      1.699219000000000E-01     -1.701172000000000E+02
4937000000.000000      6.981201000000000E-01      9.342285000000000E+00      1.665955000000000E-01     -1.700078000000000E+02
4938000000.000000      6.969910000000000E-01      9.200684000000000E+00      1.630630000000000E-01     -1.694844000000000E+02
4939000000.000000      7.005615000000000E-01      9.158203000000000E+00      1.586685000000000E-01     -1.692891000000000E+02
4940000000.000000      7.006226000000000E-01      9.031738000000000E+00      1.547623000000000E-01     -1.689844000000000E+02
4941000000.000000      7.021484000000000E-01      8.967285000000000E+00      1.517563000000000E-01     -1.684062000000000E+02
4942000000.000000      6.997070000000000E-01      8.840820000000000E+00      1.479645000000000E-01     -1.679844000000000E+02
4943000000.000000      7.013855000000000E-01      8.817871000000000E+00      1.448517000000000E-01     -1.673984000000000E+02
4944000000.000000      7.027893000000000E-01      8.548340000000000E+00      1.415405000000000E-01     -1.668203000000000E+02
4945000000.000000      7.020264000000000E-01      8.674805000000000E+00      1.377640000000000E-01     -1.662031000000000E+02
4946000000.000000      7.030334000000000E-01      8.461914000000000E+00      1.348495000000000E-01     -1.653594000000000E+02
4947000000.000000      7.039795000000000E-01      8.409668000000000E+00      1.317749000000000E-01     -1.645391000000000E+02
4948000000.000000      7.038879000000000E-01      8.385254000000000E+00      1.291962000000000E-01     -1.636406000000000E+02
4949000000.000000      7.026062000000000E-01      8.210449000000000E+00      1.259308000000000E-01     -1.622969000000000E+02
4950000000.000000      7.053528000000000E-01      8.145996000000000E+00      1.237946000000000E-01     -1.615391000000000E+02
4951000000.000000      7.056274000000000E-01      7.979980000000000E+00      1.207123000000000E-01     -1.605469000000000E+02
4952000000.000000      7.046204000000000E-01      7.951172000000000E+00      1.180000000000000E-01     -1.589922000000000E+02
4953000000.000000      7.063599000000000E-01      7.886719000000000E+00      1.160927000000000E-01     -1.576094000000000E+02
4954000000.000000      7.075195000000000E-01      7.680664000000000E+00      1.140289000000000E-01     -1.563437000000000E+02
