! Network Analyzer HP8722D
! Hewlett-Packard
! Data name: Linha & Wilkinson
! Saver's name: Rodrigo Anjos
! Comments: Teste da utilização de aquisição
continua pelo VNA HP8722D
! Time and date: 22/5/2025 08:56
!              Frequency                     S11                                                   S21                                                   S12                                                   S22
# HZ  S  MA R 50
4800000000.000000      6.466064000000000E-01      1.020215000000000E+01      4.743195000000000E-01     -9.395702000000000E+01
4801000000.000000      6.442261000000000E-01      1.044629000000000E+01      4.758759000000000E-01     -9.453516000000000E+01
4802000000.000000      6.434631000000000E-01      1.022412000000000E+01      4.780884000000000E-01     -9.519922000000000E+01
4803000000.000000      6.416321000000000E-01      1.026660000000000E+01      4.809418000000000E-01     -9.594530000000000E+01
4804000000.000000      6.401062000000000E-01      1.022510000000000E+01      4.813690000000000E-01     -9.669531000000000E+01
4805000000.000000      6.402893000000000E-01      1.023340000000000E+01      4.824066000000000E-01     -9.735155000000000E+01
4806000000.000000      6.373596000000000E-01      1.025977000000000E+01      4.842529000000000E-01     -9.826172000000000E+01
4807000000.000000      6.348572000000000E-01      1.035303000000000E+01      4.851990000000000E-01     -9.903906000000000E+01
4808000000.000000      6.336670000000000E-01      1.031299000000000E+01      4.876404000000000E-01     -9.983984000000000E+01
4809000000.000000      6.324463000000000E-01      1.048340000000000E+01      4.892578000000000E-01     -1.005898000000000E+02
4810000000.000000      6.308289000000000E-01      1.046826000000000E+01      4.909973000000000E-01     -1.012148000000000E+02
4811000000.000000      6.308899000000000E-01      1.041895000000000E+01      4.930420000000000E-01     -1.021445000000000E+02
4812000000.000000      6.283569000000000E-01      1.060303000000000E+01      4.938660000000000E-01     -1.027695000000000E+02
4813000000.000000      6.270447000000000E-01      1.061816000000000E+01      4.926453000000000E-01     -1.038984000000000E+02
4814000000.000000      6.260986000000000E-01      1.067285000000000E+01      4.949036000000000E-01     -1.043984000000000E+02
4815000000.000000      6.247864000000000E-01      1.087207000000000E+01      4.937286000000000E-01     -1.050195000000000E+02
4816000000.000000      6.227417000000000E-01      1.085156000000000E+01      4.975281000000000E-01     -1.057695000000000E+02
4817000000.000000      6.218872000000000E-01      1.094629000000000E+01      4.973755000000000E-01     -1.067109000000000E+02
4818000000.000000      6.207275000000000E-01      1.074463000000000E+01      4.967041000000000E-01     -1.073438000000000E+02
4819000000.000000      6.186523000000000E-01      1.115381000000000E+01      4.976501000000000E-01     -1.081758000000000E+02
4820000000.000000      6.181946000000000E-01      1.122070000000000E+01      4.997253000000000E-01     -1.087734000000000E+02
4821000000.000000      6.191711000000000E-01      1.125391000000000E+01      4.985504000000000E-01     -1.096562000000000E+02
4822000000.000000      6.159058000000000E-01      1.117578000000000E+01      4.978485000000000E-01     -1.104375000000000E+02
4823000000.000000      6.160583000000000E-01      1.130322000000000E+01      5.003967000000000E-01     -1.113008000000000E+02
4824000000.000000      6.145630000000000E-01      1.164795000000000E+01      4.994049000000000E-01     -1.119453000000000E+02
4825000000.000000      6.139221000000000E-01      1.166602000000000E+01      5.002136000000000E-01     -1.126445000000000E+02
4826000000.000000      6.126099000000000E-01      1.158350000000000E+01      5.012207000000000E-01     -1.134844000000000E+02
4827000000.000000      6.131897000000000E-01      1.176221000000000E+01      4.994507000000000E-01     -1.141250000000000E+02
4828000000.000000      6.147156000000000E-01      1.198193000000000E+01      5.005493000000000E-01     -1.147305000000000E+02
4829000000.000000      6.130981000000000E-01      1.209570000000000E+01      5.012207000000000E-01     -1.154805000000000E+02
4830000000.000000      6.127319000000000E-01      1.213428000000000E+01      4.996033000000000E-01     -1.164336000000000E+02
4831000000.000000      6.123047000000000E-01      1.212061000000000E+01      5.014954000000000E-01     -1.172890000000000E+02
4832000000.000000      6.113892000000000E-01      1.231152000000000E+01      4.998474000000000E-01     -1.177383000000000E+02
4833000000.000000      6.101379000000000E-01      1.250098000000000E+01      4.990997000000000E-01     -1.186016000000000E+02
4834000000.000000      6.123657000000000E-01      1.242529000000000E+01      5.011292000000000E-01     -1.195547000000000E+02
4835000000.000000      6.117249000000000E-01      1.259717000000000E+01      5.014648000000000E-01     -1.202812000000000E+02
4836000000.000000      6.114807000000000E-01      1.289795000000000E+01      4.978333000000000E-01     -1.208086000000000E+02
4837000000.000000      6.117859000000000E-01      1.301172000000000E+01      4.976959000000000E-01     -1.219805000000000E+02
4838000000.000000      6.118469000000000E-01      1.306104000000000E+01      4.974976000000000E-01     -1.225078000000000E+02
4839000000.000000      6.156921000000000E-01      1.319043000000000E+01      4.985962000000000E-01     -1.233633000000000E+02
4840000000.000000      6.149292000000000E-01      1.321631000000000E+01      4.971161000000000E-01     -1.241680000000000E+02
4841000000.000000      6.147156000000000E-01      1.348291000000000E+01      4.976349000000000E-01     -1.249297000000000E+02
4842000000.000000      6.142578000000000E-01      1.348145000000000E+01      4.943237000000000E-01     -1.257734000000000E+02
4843000000.000000      6.178894000000000E-01      1.325195000000000E+01      4.955444000000000E-01     -1.266914000000000E+02
4844000000.000000      6.151733000000000E-01      1.345264000000000E+01      4.940186000000000E-01     -1.275430000000000E+02
4845000000.000000      6.171570000000000E-01      1.350732000000000E+01      4.922028000000000E-01     -1.282891000000000E+02
4846000000.000000      6.178284000000000E-01      1.368994000000000E+01      4.920502000000000E-01     -1.290937000000000E+02
4847000000.000000      6.185303000000000E-01      1.400732000000000E+01      4.902039000000000E-01     -1.299453000000000E+02
4848000000.000000      6.185608000000000E-01      1.379883000000000E+01      4.864502000000000E-01     -1.307734000000000E+02
4849000000.000000      6.212463000000000E-01      1.396729000000000E+01      4.883728000000000E-01     -1.314609000000000E+02
4850000000.000000      6.229248000000000E-01      1.398389000000000E+01      4.834595000000000E-01     -1.323594000000000E+02
4851000000.000000      6.228943000000000E-01      1.412939000000000E+01      4.825592000000000E-01     -1.334297000000000E+02
4852000000.000000      6.231689000000000E-01      1.412842000000000E+01      4.810791000000000E-01     -1.340703000000000E+02
4853000000.000000      6.252136000000000E-01      1.422559000000000E+01      4.775391000000000E-01     -1.350781000000000E+02
4854000000.000000      6.270447000000000E-01      1.428076000000000E+01      4.764557000000000E-01     -1.359219000000000E+02
4855000000.000000      6.260986000000000E-01      1.440674000000000E+01      4.741669000000000E-01     -1.366484000000000E+02
4856000000.000000      6.296082000000000E-01      1.423682000000000E+01      4.710541000000000E-01     -1.376172000000000E+02
4857000000.000000      6.302490000000000E-01      1.449609000000000E+01      4.694366000000000E-01     -1.383672000000000E+02
4858000000.000000      6.300964000000000E-01      1.446729000000000E+01      4.671173000000000E-01     -1.393828000000000E+02
4859000000.000000      6.306763000000000E-01      1.427246000000000E+01      4.637909000000000E-01     -1.402344000000000E+02
4860000000.000000      6.324463000000000E-01      1.434814000000000E+01      4.605408000000000E-01     -1.407891000000000E+02
4861000000.000000      6.318665000000000E-01      1.433838000000000E+01      4.559937000000000E-01     -1.417109000000000E+02
4862000000.000000      6.343384000000000E-01      1.443994000000000E+01      4.539490000000000E-01     -1.425234000000000E+02
4863000000.000000      6.365662000000000E-01      1.449463000000000E+01      4.500427000000000E-01     -1.434062000000000E+02
4864000000.000000      6.363525000000000E-01      1.436279000000000E+01      4.473724000000000E-01     -1.441328000000000E+02
4865000000.000000      6.382141000000000E-01      1.434814000000000E+01      4.418640000000000E-01     -1.448203000000000E+02
4866000000.000000      6.391907000000000E-01      1.429834000000000E+01      4.386902000000000E-01     -1.457969000000000E+02
4867000000.000000      6.390686000000000E-01      1.435498000000000E+01      4.349976000000000E-01     -1.465547000000000E+02
4868000000.000000      6.423645000000000E-01      1.433154000000000E+01      4.305878000000000E-01     -1.474375000000000E+02
4869000000.000000      6.419983000000000E-01      1.423682000000000E+01      4.275055000000000E-01     -1.481406000000000E+02
4870000000.000000      6.438904000000000E-01      1.430957000000000E+01      4.247284000000000E-01     -1.484922000000000E+02
4871000000.000000      6.451416000000000E-01      1.414063000000000E+01      4.190369000000000E-01     -1.496484000000000E+02
4872000000.000000      6.471863000000000E-01      1.416797000000000E+01      4.146118000000000E-01     -1.500625000000000E+02
4873000000.000000      6.483765000000000E-01      1.416943000000000E+01      4.086609000000000E-01     -1.508594000000000E+02
4874000000.000000      6.489258000000000E-01      1.413525000000000E+01      4.056854000000000E-01     -1.516016000000000E+02
4875000000.000000      6.519470000000000E-01      1.396191000000000E+01      4.011841000000000E-01     -1.522734000000000E+02
4876000000.000000      6.529846000000000E-01      1.412256000000000E+01      3.973083000000000E-01     -1.527969000000000E+02
4877000000.000000      6.528320000000000E-01      1.388770000000000E+01      3.920441000000000E-01     -1.533516000000000E+02
4878000000.000000      6.531067000000000E-01      1.390967000000000E+01      3.886261000000000E-01     -1.540390000000000E+02
4879000000.000000      6.558228000000000E-01      1.403467000000000E+01      3.815155000000000E-01     -1.546094000000000E+02
4880000000.000000      6.587830000000000E-01      1.392773000000000E+01      3.798065000000000E-01     -1.552734000000000E+02
4881000000.000000      6.595154000000000E-01      1.375488000000000E+01      3.745422000000000E-01     -1.557734000000000E+02
4882000000.000000      6.612854000000000E-01      1.396338000000000E+01      3.709869000000000E-01     -1.562187000000000E+02
4883000000.000000      6.609497000000000E-01      1.350732000000000E+01      3.664703000000000E-01     -1.567812000000000E+02
4884000000.000000      6.613159000000000E-01      1.365186000000000E+01      3.615417000000000E-01     -1.573594000000000E+02
4885000000.000000      6.627502000000000E-01      1.350488000000000E+01      3.571625000000000E-01     -1.575859000000000E+02
4886000000.000000      6.667175000000000E-01      1.363672000000000E+01      3.517761000000000E-01     -1.581328000000000E+02
4887000000.000000      6.654358000000000E-01      1.341943000000000E+01      3.482971000000000E-01     -1.589062000000000E+02
4888000000.000000      6.661377000000000E-01      1.330273000000000E+01      3.453064000000000E-01     -1.592578000000000E+02
4889000000.000000      6.668396000000000E-01      1.317920000000000E+01      3.397369000000000E-01     -1.598984000000000E+02
4890000000.000000      6.676941000000000E-01      1.328516000000000E+01      3.346100000000000E-01     -1.604609000000000E+02
4891000000.000000      6.703186000000000E-01      1.313232000000000E+01      3.315277000000000E-01     -1.605234000000000E+02
4892000000.000000      6.718750000000000E-01      1.302148000000000E+01      3.274078000000000E-01     -1.605469000000000E+02
4893000000.000000      6.710815000000000E-01      1.293213000000000E+01      3.233337000000000E-01     -1.613437000000000E+02
4894000000.000000      6.709595000000000E-01      1.284668000000000E+01      3.203125000000000E-01     -1.616406000000000E+02
4895000000.000000      6.741638000000000E-01      1.256934000000000E+01      3.170776000000000E-01     -1.620781000000000E+02
4896000000.000000      6.750793000000000E-01      1.257910000000000E+01      3.126221000000000E-01     -1.622813000000000E+02
4897000000.000000      6.750793000000000E-01      1.252539000000000E+01      3.080750000000000E-01     -1.628203000000000E+02
4898000000.000000      6.754456000000000E-01      1.250635000000000E+01      3.049316000000000E-01     -1.630469000000000E+02
4899000000.000000      6.777954000000000E-01      1.239111000000000E+01      3.014221000000000E-01     -1.636328000000000E+02
4900000000.000000      6.768494000000000E-01      1.218359000000000E+01      2.973328000000000E-01     -1.638438000000000E+02
4901000000.000000      6.772156000000000E-01      1.209424000000000E+01      2.934570000000000E-01     -1.640547000000000E+02
4902000000.000000      6.799011000000000E-01      1.202686000000000E+01      2.908325000000000E-01     -1.643281000000000E+02
4903000000.000000      6.814270000000000E-01      1.197363000000000E+01      2.864075000000000E-01     -1.648594000000000E+02
4904000000.000000      6.809692000000000E-01      1.186230000000000E+01      2.831116000000000E-01     -1.652812000000000E+02
4905000000.000000      6.801147000000000E-01      1.176074000000000E+01      2.797089000000000E-01     -1.656641000000000E+02
4906000000.000000      6.819458000000000E-01      1.165332000000000E+01      2.762909000000000E-01     -1.655156000000000E+02
4907000000.000000      6.823425000000000E-01      1.176318000000000E+01      2.731934000000000E-01     -1.661406000000000E+02
4908000000.000000      6.852112000000000E-01      1.140625000000000E+01      2.698059000000000E-01     -1.664375000000000E+02
4909000000.000000      6.848145000000000E-01      1.142969000000000E+01      2.660828000000000E-01     -1.665859000000000E+02
4910000000.000000      6.846008000000000E-01      1.115918000000000E+01      2.621460000000000E-01     -1.670312000000000E+02
4911000000.000000      6.867371000000000E-01      1.120996000000000E+01      2.587433000000000E-01     -1.671562000000000E+02
4912000000.000000      6.851807000000000E-01      1.109326000000000E+01      2.559052000000000E-01     -1.677187000000000E+02
4913000000.000000      6.859741000000000E-01      1.098340000000000E+01      2.513580000000000E-01     -1.679297000000000E+02
4914000000.000000      6.899414000000000E-01      1.085986000000000E+01      2.484894000000000E-01     -1.680391000000000E+02
4915000000.000000      6.875305000000000E-01      1.080762000000000E+01      2.447586000000000E-01     -1.685469000000000E+02
4916000000.000000      6.886597000000000E-01      1.077441000000000E+01      2.413483000000000E-01     -1.688203000000000E+02
4917000000.000000      6.881714000000000E-01      1.077734000000000E+01      2.377472000000000E-01     -1.689453000000000E+02
4918000000.000000      6.906128000000000E-01      1.055371000000000E+01      2.333527000000000E-01     -1.692969000000000E+02
4919000000.000000      6.903687000000000E-01      1.057568000000000E+01      2.311935000000000E-01     -1.692188000000000E+02
4920000000.000000      6.890564000000000E-01      1.022119000000000E+01      2.261353000000000E-01     -1.696719000000000E+02
4921000000.000000      6.902466000000000E-01      1.029248000000000E+01      2.233887000000000E-01     -1.697891000000000E+02
4922000000.000000      6.893005000000000E-01      1.014307000000000E+01      2.195816000000000E-01     -1.698359000000000E+02
4923000000.000000      6.917725000000000E-01      1.014844000000000E+01      2.155762000000000E-01     -1.701797000000000E+02
4924000000.000000      6.927490000000000E-01      9.939453000000000E+00      2.116470000000000E-01     -1.702656000000000E+02
4925000000.000000      6.926270000000000E-01      9.869629000000000E+00      2.081451000000000E-01     -1.704844000000000E+02
4926000000.000000      6.932678000000000E-01      9.771973000000000E+00      2.047424000000000E-01     -1.705625000000000E+02
4927000000.000000      6.930237000000000E-01      9.426270000000000E+00      2.006683000000000E-01     -1.707969000000000E+02
4928000000.000000      6.939087000000000E-01      9.445313000000000E+00      1.970978000000000E-01     -1.707266000000000E+02
4929000000.000000      6.930542000000000E-01      9.360352000000000E+00      1.932678000000000E-01     -1.707969000000000E+02
4930000000.000000      6.955261000000000E-01      9.408203000000000E+00      1.897278000000000E-01     -1.708437000000000E+02
4931000000.000000      6.956787000000000E-01      9.085449000000000E+00      1.864777000000000E-01     -1.707031000000000E+02
4932000000.000000      6.959229000000000E-01      9.143066000000000E+00      1.823349000000000E-01     -1.707891000000000E+02
4933000000.000000      6.960144000000000E-01      9.045410000000000E+00      1.779251000000000E-01     -1.705781000000000E+02
4934000000.000000      6.974182000000000E-01      8.974121000000000E+00      1.743469000000000E-01     -1.705391000000000E+02
4935000000.000000      6.979370000000000E-01      8.883789000000000E+00      1.711807000000000E-01     -1.701953000000000E+02
4936000000.000000      6.974792000000000E-01      8.681641000000000E+00      1.670151000000000E-01     -1.700859000000000E+02
4937000000.000000      6.984863000000000E-01      8.519531000000000E+00      1.636124000000000E-01     -1.699062000000000E+02
4938000000.000000      6.986084000000000E-01      8.578613000000000E+00      1.599121000000000E-01     -1.693516000000000E+02
4939000000.000000      6.981812000000000E-01      8.554199000000000E+00      1.562729000000000E-01     -1.691250000000000E+02
4940000000.000000      6.997375000000000E-01      8.327637000000000E+00      1.529846000000000E-01     -1.686953000000000E+02
4941000000.000000      7.028198000000000E-01      8.320313000000000E+00      1.494904000000000E-01     -1.681094000000000E+02
4942000000.000000      6.992188000000000E-01      8.395996000000000E+00      1.455917000000000E-01     -1.678203000000000E+02
4943000000.000000      7.021179000000000E-01      8.155762000000000E+00      1.428452000000000E-01     -1.671719000000000E+02
4944000000.000000      7.010803000000000E-01      7.993896000000000E+00      1.397400000000000E-01     -1.665156000000000E+02
4945000000.000000      7.005615000000000E-01      7.833252000000000E+00      1.358719000000000E-01     -1.656016000000000E+02
4946000000.000000      7.015381000000000E-01      7.800293000000000E+00      1.332169000000000E-01     -1.647422000000000E+02
4947000000.000000      7.042236000000000E-01      7.654541000000000E+00      1.298523000000000E-01     -1.639609000000000E+02
4948000000.000000      7.066650000000000E-01      7.580566000000000E+00      1.272583000000000E-01     -1.628438000000000E+02
4949000000.000000      7.032166000000000E-01      7.562500000000000E+00      1.244698000000000E-01     -1.617109000000000E+02
4950000000.000000      7.038269000000000E-01      7.437744000000000E+00      1.219597000000000E-01     -1.604297000000000E+02
4951000000.000000      7.056580000000000E-01      7.414307000000000E+00      1.196480000000000E-01     -1.594141000000000E+02
4952000000.000000      7.047729000000000E-01      7.196045000000000E+00      1.170120000000000E-01     -1.580391000000000E+02
4953000000.000000      7.049561000000000E-01      7.116211000000000E+00      1.148872000000000E-01     -1.564766000000000E+02
4954000000.000000      7.066650000000000E-01      7.164307000000000E+00      1.130257000000000E-01     -1.552813000000000E+02
