! Network Analyzer HP8722D
! Hewlett-Packard
! Data name: Linha & Wilkinson
! Saver's name: Rodrigo Anjos
! Comments: Teste da utilização de aquisição
continua pelo VNA HP8722D
! Time and date: 22/5/2025 16:45
!              Frequency                     S11                                                   S21                                                   S12                                                   S22
# HZ  S  MA R 50
4800000000.000000      6.513977000000000E-01      1.088721000000000E+01      4.712830000000000E-01     -9.270702000000000E+01
4801000000.000000      6.470947000000000E-01      1.114551000000000E+01      4.728394000000000E-01     -9.340235000000000E+01
4802000000.000000      6.478271000000000E-01      1.088428000000000E+01      4.759521000000000E-01     -9.391016000000000E+01
4803000000.000000      6.453552000000000E-01      1.098730000000000E+01      4.784088000000000E-01     -9.489061000000000E+01
4804000000.000000      6.437683000000000E-01      1.092285000000000E+01      4.784698000000000E-01     -9.571875000000000E+01
4805000000.000000      6.433105000000000E-01      1.089844000000000E+01      4.818573000000000E-01     -9.641014000000000E+01
4806000000.000000      6.395569000000000E-01      1.103809000000000E+01      4.821014000000000E-01     -9.705467000000000E+01
4807000000.000000      6.381531000000000E-01      1.098486000000000E+01      4.830170000000000E-01     -9.800390000000000E+01
4808000000.000000      6.370544000000000E-01      1.095313000000000E+01      4.856873000000000E-01     -9.860937000000000E+01
4809000000.000000      6.337280000000000E-01      1.108496000000000E+01      4.858704000000000E-01     -9.956249000000000E+01
4810000000.000000      6.320801000000000E-01      1.118506000000000E+01      4.911804000000000E-01     -1.002930000000000E+02
4811000000.000000      6.325378000000000E-01      1.108350000000000E+01      4.889069000000000E-01     -1.009883000000000E+02
4812000000.000000      6.333008000000000E-01      1.128125000000000E+01      4.912872000000000E-01     -1.017226000000000E+02
4813000000.000000      6.303711000000000E-01      1.126904000000000E+01      4.911194000000000E-01     -1.023945000000000E+02
4814000000.000000      6.272583000000000E-01      1.130078000000000E+01      4.938965000000000E-01     -1.029922000000000E+02
4815000000.000000      6.266479000000000E-01      1.136914000000000E+01      4.942169000000000E-01     -1.039375000000000E+02
4816000000.000000      6.273193000000000E-01      1.132813000000000E+01      4.947052000000000E-01     -1.047305000000000E+02
4817000000.000000      6.241455000000000E-01      1.166016000000000E+01      4.945068000000000E-01     -1.055351000000000E+02
4818000000.000000      6.239929000000000E-01      1.151465000000000E+01      4.947662000000000E-01     -1.062422000000000E+02
4819000000.000000      6.228943000000000E-01      1.169043000000000E+01      4.948730000000000E-01     -1.068047000000000E+02
4820000000.000000      6.193848000000000E-01      1.188428000000000E+01      4.964294000000000E-01     -1.076211000000000E+02
4821000000.000000      6.212463000000000E-01      1.173877000000000E+01      4.984436000000000E-01     -1.084258000000000E+02
4822000000.000000      6.194153000000000E-01      1.191699000000000E+01      4.957886000000000E-01     -1.093437000000000E+02
4823000000.000000      6.198120000000000E-01      1.196777000000000E+01      4.992676000000000E-01     -1.100195000000000E+02
4824000000.000000      6.163330000000000E-01      1.214355000000000E+01      4.964294000000000E-01     -1.106641000000000E+02
4825000000.000000      6.170654000000000E-01      1.214111000000000E+01      4.974823000000000E-01     -1.114687000000000E+02
4826000000.000000      6.156006000000000E-01      1.214355000000000E+01      4.992065000000000E-01     -1.121992000000000E+02
4827000000.000000      6.155396000000000E-01      1.244727000000000E+01      4.975433000000000E-01     -1.128750000000000E+02
4828000000.000000      6.142273000000000E-01      1.256836000000000E+01      5.004883000000000E-01     -1.138008000000000E+02
4829000000.000000      6.161499000000000E-01      1.277148000000000E+01      4.997559000000000E-01     -1.143555000000000E+02
4830000000.000000      6.140442000000000E-01      1.275781000000000E+01      5.009155000000000E-01     -1.151953000000000E+02
4831000000.000000      6.140747000000000E-01      1.285400000000000E+01      4.994659000000000E-01     -1.161289000000000E+02
4832000000.000000      6.147461000000000E-01      1.305859000000000E+01      4.984131000000000E-01     -1.167695000000000E+02
4833000000.000000      6.133728000000000E-01      1.304443000000000E+01      4.989471000000000E-01     -1.174219000000000E+02
4834000000.000000      6.114807000000000E-01      1.314502000000000E+01      4.981384000000000E-01     -1.182344000000000E+02
4835000000.000000      6.134338000000000E-01      1.330957000000000E+01      5.009766000000000E-01     -1.189726000000000E+02
4836000000.000000      6.147766000000000E-01      1.348535000000000E+01      4.973297000000000E-01     -1.198008000000000E+02
4837000000.000000      6.115112000000000E-01      1.364893000000000E+01      4.980011000000000E-01     -1.210078000000000E+02
4838000000.000000      6.141968000000000E-01      1.363525000000000E+01      4.976654000000000E-01     -1.212695000000000E+02
4839000000.000000      6.158752000000000E-01      1.390137000000000E+01      4.975281000000000E-01     -1.220273000000000E+02
4840000000.000000      6.149902000000000E-01      1.369580000000000E+01      4.971466000000000E-01     -1.229336000000000E+02
4841000000.000000      6.159058000000000E-01      1.404150000000000E+01      4.970093000000000E-01     -1.238437000000000E+02
4842000000.000000      6.176758000000000E-01      1.398389000000000E+01      4.960480000000000E-01     -1.245430000000000E+02
4843000000.000000      6.195679000000000E-01      1.414600000000000E+01      4.944763000000000E-01     -1.254961000000000E+02
4844000000.000000      6.171570000000000E-01      1.407617000000000E+01      4.932861000000000E-01     -1.263711000000000E+02
4845000000.000000      6.170654000000000E-01      1.437939000000000E+01      4.935303000000000E-01     -1.271055000000000E+02
4846000000.000000      6.196594000000000E-01      1.457715000000000E+01      4.926910000000000E-01     -1.278828000000000E+02
4847000000.000000      6.216125000000000E-01      1.442480000000000E+01      4.905396000000000E-01     -1.287266000000000E+02
4848000000.000000      6.208191000000000E-01      1.461572000000000E+01      4.880981000000000E-01     -1.295078000000000E+02
4849000000.000000      6.207581000000000E-01      1.456201000000000E+01      4.877167000000000E-01     -1.304766000000000E+02
4850000000.000000      6.228333000000000E-01      1.466650000000000E+01      4.854279000000000E-01     -1.312891000000000E+02
4851000000.000000      6.220093000000000E-01      1.470898000000000E+01      4.850616000000000E-01     -1.322031000000000E+02
4852000000.000000      6.227112000000000E-01      1.485596000000000E+01      4.818726000000000E-01     -1.329844000000000E+02
4853000000.000000      6.243896000000000E-01      1.474219000000000E+01      4.789734000000000E-01     -1.338125000000000E+02
4854000000.000000      6.264038000000000E-01      1.503174000000000E+01      4.776154000000000E-01     -1.348828000000000E+02
4855000000.000000      6.257629000000000E-01      1.501270000000000E+01      4.754333000000000E-01     -1.354687000000000E+02
4856000000.000000      6.279907000000000E-01      1.505371000000000E+01      4.728241000000000E-01     -1.362344000000000E+02
4857000000.000000      6.298218000000000E-01      1.500293000000000E+01      4.719849000000000E-01     -1.373047000000000E+02
4858000000.000000      6.302795000000000E-01      1.498633000000000E+01      4.675598000000000E-01     -1.381953000000000E+02
4859000000.000000      6.323853000000000E-01      1.497803000000000E+01      4.662628000000000E-01     -1.389922000000000E+02
4860000000.000000      6.337891000000000E-01      1.489600000000000E+01      4.629974000000000E-01     -1.397422000000000E+02
4861000000.000000      6.329041000000000E-01      1.507178000000000E+01      4.586029000000000E-01     -1.407500000000000E+02
4862000000.000000      6.330261000000000E-01      1.503711000000000E+01      4.560089000000000E-01     -1.413984000000000E+02
4863000000.000000      6.354675000000000E-01      1.512793000000000E+01      4.511108000000000E-01     -1.422109000000000E+02
4864000000.000000      6.375122000000000E-01      1.521582000000000E+01      4.492950000000000E-01     -1.430781000000000E+02
4865000000.000000      6.378479000000000E-01      1.504297000000000E+01      4.444733000000000E-01     -1.437969000000000E+02
4866000000.000000      6.400146000000000E-01      1.504980000000000E+01      4.410553000000000E-01     -1.447578000000000E+02
4867000000.000000      6.383362000000000E-01      1.498242000000000E+01      4.377747000000000E-01     -1.455625000000000E+02
4868000000.000000      6.411743000000000E-01      1.505811000000000E+01      4.330444000000000E-01     -1.462265000000000E+02
4869000000.000000      6.438293000000000E-01      1.516357000000000E+01      4.300537000000000E-01     -1.471953000000000E+02
4870000000.000000      6.433716000000000E-01      1.500830000000000E+01      4.244995000000000E-01     -1.475859000000000E+02
4871000000.000000      6.454468000000000E-01      1.497705000000000E+01      4.201355000000000E-01     -1.485937000000000E+02
4872000000.000000      6.471863000000000E-01      1.505225000000000E+01      4.163055000000000E-01     -1.491250000000000E+02
4873000000.000000      6.479187000000000E-01      1.486572000000000E+01      4.127350000000000E-01     -1.498750000000000E+02
4874000000.000000      6.500244000000000E-01      1.496045000000000E+01      4.087524000000000E-01     -1.507813000000000E+02
4875000000.000000      6.498718000000000E-01      1.477490000000000E+01      4.032593000000000E-01     -1.511797000000000E+02
4876000000.000000      6.533203000000000E-01      1.499609000000000E+01      4.003296000000000E-01     -1.518906000000000E+02
4877000000.000000      6.544495000000000E-01      1.474902000000000E+01      3.934326000000000E-01     -1.525625000000000E+02
4878000000.000000      6.523438000000000E-01      1.460596000000000E+01      3.910217000000000E-01     -1.534062000000000E+02
4879000000.000000      6.572571000000000E-01      1.483936000000000E+01      3.859711000000000E-01     -1.535625000000000E+02
4880000000.000000      6.580505000000000E-01      1.461719000000000E+01      3.813934000000000E-01     -1.543984000000000E+02
4881000000.000000      6.581726000000000E-01      1.457568000000000E+01      3.771210000000000E-01     -1.549297000000000E+02
4882000000.000000      6.621399000000000E-01      1.459668000000000E+01      3.730927000000000E-01     -1.554609000000000E+02
4883000000.000000      6.589966000000000E-01      1.452637000000000E+01      3.683472000000000E-01     -1.560703000000000E+02
4884000000.000000      6.613159000000000E-01      1.445215000000000E+01      3.637848000000000E-01     -1.564609000000000E+02
4885000000.000000      6.631165000000000E-01      1.442090000000000E+01      3.589935000000000E-01     -1.569766000000000E+02
4886000000.000000      6.654358000000000E-01      1.439209000000000E+01      3.558197000000000E-01     -1.573828000000000E+02
4887000000.000000      6.662292000000000E-01      1.407715000000000E+01      3.508606000000000E-01     -1.579844000000000E+02
4888000000.000000      6.661682000000000E-01      1.404590000000000E+01      3.475800000000000E-01     -1.586562000000000E+02
4889000000.000000      6.679382000000000E-01      1.402393000000000E+01      3.424225000000000E-01     -1.588906000000000E+02
4890000000.000000      6.680603000000000E-01      1.380566000000000E+01      3.390503000000000E-01     -1.595547000000000E+02
4891000000.000000      6.701965000000000E-01      1.388086000000000E+01      3.349609000000000E-01     -1.597578000000000E+02
4892000000.000000      6.700745000000000E-01      1.363672000000000E+01      3.299255000000000E-01     -1.600469000000000E+02
4893000000.000000      6.707458000000000E-01      1.381494000000000E+01      3.262634000000000E-01     -1.607109000000000E+02
4894000000.000000      6.727600000000000E-01      1.365283000000000E+01      3.227844000000000E-01     -1.608750000000000E+02
4895000000.000000      6.744690000000000E-01      1.342090000000000E+01      3.191223000000000E-01     -1.611953000000000E+02
4896000000.000000      6.747437000000000E-01      1.336182000000000E+01      3.148804000000000E-01     -1.616484000000000E+02
4897000000.000000      6.761169000000000E-01      1.337695000000000E+01      3.108063000000000E-01     -1.621016000000000E+02
4898000000.000000      6.758423000000000E-01      1.331396000000000E+01      3.072968000000000E-01     -1.623359000000000E+02
4899000000.000000      6.759644000000000E-01      1.295557000000000E+01      3.036041000000000E-01     -1.628281000000000E+02
4900000000.000000      6.780090000000000E-01      1.288818000000000E+01      2.999878000000000E-01     -1.630312000000000E+02
4901000000.000000      6.802063000000000E-01      1.285107000000000E+01      2.963409000000000E-01     -1.635078000000000E+02
4902000000.000000      6.799927000000000E-01      1.272070000000000E+01      2.929993000000000E-01     -1.637500000000000E+02
4903000000.000000      6.809998000000000E-01      1.285938000000000E+01      2.888641000000000E-01     -1.640859000000000E+02
4904000000.000000      6.794434000000000E-01      1.263135000000000E+01      2.857819000000000E-01     -1.645703000000000E+02
4905000000.000000      6.809692000000000E-01      1.254199000000000E+01      2.820892000000000E-01     -1.648672000000000E+02
4906000000.000000      6.804199000000000E-01      1.241309000000000E+01      2.780762000000000E-01     -1.650938000000000E+02
4907000000.000000      6.842651000000000E-01      1.250342000000000E+01      2.753906000000000E-01     -1.653672000000000E+02
4908000000.000000      6.842651000000000E-01      1.227686000000000E+01      2.719574000000000E-01     -1.658125000000000E+02
4909000000.000000      6.848145000000000E-01      1.211230000000000E+01      2.680206000000000E-01     -1.661953000000000E+02
4910000000.000000      6.850586000000000E-01      1.200098000000000E+01      2.646332000000000E-01     -1.663047000000000E+02
4911000000.000000      6.849670000000000E-01      1.198193000000000E+01      2.610321000000000E-01     -1.666094000000000E+02
4912000000.000000      6.845093000000000E-01      1.186230000000000E+01      2.575073000000000E-01     -1.670859000000000E+02
4913000000.000000      6.851501000000000E-01      1.173193000000000E+01      2.540436000000000E-01     -1.671875000000000E+02
4914000000.000000      6.885681000000000E-01      1.164404000000000E+01      2.512207000000000E-01     -1.675156000000000E+02
4915000000.000000      6.874390000000000E-01      1.150244000000000E+01      2.467194000000000E-01     -1.679922000000000E+02
4916000000.000000      6.887817000000000E-01      1.144629000000000E+01      2.439499000000000E-01     -1.682266000000000E+02
4917000000.000000      6.877747000000000E-01      1.145459000000000E+01      2.394409000000000E-01     -1.684453000000000E+02
4918000000.000000      6.890564000000000E-01      1.126221000000000E+01      2.358780000000000E-01     -1.688203000000000E+02
4919000000.000000      6.888123000000000E-01      1.123047000000000E+01      2.328873000000000E-01     -1.689453000000000E+02
4920000000.000000      6.903381000000000E-01      1.106445000000000E+01      2.287521000000000E-01     -1.691641000000000E+02
4921000000.000000      6.905823000000000E-01      1.105078000000000E+01      2.257767000000000E-01     -1.691484000000000E+02
4922000000.000000      6.921387000000000E-01      1.082666000000000E+01      2.219086000000000E-01     -1.695078000000000E+02
4923000000.000000      6.916199000000000E-01      1.085693000000000E+01      2.180939000000000E-01     -1.697500000000000E+02
4924000000.000000      6.922607000000000E-01      1.085156000000000E+01      2.144012000000000E-01     -1.700156000000000E+02
4925000000.000000      6.920166000000000E-01      1.057813000000000E+01      2.099457000000000E-01     -1.701875000000000E+02
4926000000.000000      6.930847000000000E-01      1.047949000000000E+01      2.069626000000000E-01     -1.702734000000000E+02
4927000000.000000      6.936035000000000E-01      1.033105000000000E+01      2.029648000000000E-01     -1.703125000000000E+02
4928000000.000000      6.972656000000000E-01      1.017578000000000E+01      1.996078000000000E-01     -1.704297000000000E+02
4929000000.000000      6.926270000000000E-01      1.015527000000000E+01      1.952209000000000E-01     -1.705937000000000E+02
4930000000.000000      6.962585000000000E-01      9.836426000000000E+00      1.914520000000000E-01     -1.706094000000000E+02
4931000000.000000      6.965332000000000E-01      9.931641000000000E+00      1.881943000000000E-01     -1.707500000000000E+02
4932000000.000000      6.972656000000000E-01      9.875000000000000E+00      1.841736000000000E-01     -1.704844000000000E+02
4933000000.000000      6.980286000000000E-01      9.615723000000000E+00      1.797791000000000E-01     -1.702734000000000E+02
4934000000.000000      6.996460000000000E-01      9.636230000000000E+00      1.763000000000000E-01     -1.704531000000000E+02
4935000000.000000      6.991577000000000E-01      9.596191000000000E+00      1.738892000000000E-01     -1.700469000000000E+02
4936000000.000000      6.962280000000000E-01      9.404297000000000E+00      1.697998000000000E-01     -1.701094000000000E+02
4937000000.000000      6.994629000000000E-01      9.325684000000000E+00      1.657486000000000E-01     -1.697891000000000E+02
4938000000.000000      6.990356000000000E-01      9.339355000000000E+00      1.618652000000000E-01     -1.692969000000000E+02
4939000000.000000      6.995850000000000E-01      9.251465000000000E+00      1.581879000000000E-01     -1.689766000000000E+02
4940000000.000000      6.996155000000000E-01      9.100586000000000E+00      1.544800000000000E-01     -1.690078000000000E+02
4941000000.000000      7.015991000000000E-01      8.905762000000000E+00      1.518402000000000E-01     -1.682500000000000E+02
4942000000.000000      7.005615000000000E-01      8.908203000000000E+00      1.478729000000000E-01     -1.679531000000000E+02
4943000000.000000      6.999817000000000E-01      8.776367000000000E+00      1.442566000000000E-01     -1.673750000000000E+02
4944000000.000000      7.019653000000000E-01      8.648926000000000E+00      1.414490000000000E-01     -1.666406000000000E+02
4945000000.000000      7.021484000000000E-01      8.718750000000000E+00      1.373749000000000E-01     -1.659844000000000E+02
4946000000.000000      7.028503000000000E-01      8.563477000000000E+00      1.341934000000000E-01     -1.652187000000000E+02
4947000000.000000      7.027283000000000E-01      8.352051000000000E+00      1.311646000000000E-01     -1.645234000000000E+02
4948000000.000000      7.031555000000000E-01      8.433105000000000E+00      1.285934000000000E-01     -1.632891000000000E+02
4949000000.000000      7.033691000000000E-01      8.211914000000000E+00      1.257477000000000E-01     -1.620469000000000E+02
4950000000.000000      7.052917000000000E-01      8.124023000000000E+00      1.229172000000000E-01     -1.612500000000000E+02
4951000000.000000      7.044678000000000E-01      8.000488000000000E+00      1.206779000000000E-01     -1.600156000000000E+02
4952000000.000000      7.060242000000000E-01      7.879883000000000E+00      1.174355000000000E-01     -1.586484000000000E+02
4953000000.000000      7.056274000000000E-01      7.774170000000000E+00      1.156578000000000E-01     -1.573906000000000E+02
4954000000.000000      7.062683000000000E-01      7.785156000000000E+00      1.135788000000000E-01     -1.557188000000000E+02
