! Network Analyzer HP8722D
! Hewlett-Packard
! Data name: Linha & Wilkinson
! Saver's name: Rodrigo Anjos
! Comments: Teste da utilização de aquisição
continua pelo VNA HP8722D
! Time and date: 22/5/2025 09:30
!              Frequency                     S11                                                   S21                                                   S12                                                   S22
# HZ  S  MA R 50
4800000000.000000      6.460571000000000E-01      1.023486000000000E+01      4.742889000000000E-01     -9.385546000000000E+01
4801000000.000000      6.445923000000000E-01      1.042285000000000E+01      4.770813000000000E-01     -9.450390000000000E+01
4802000000.000000      6.429749000000000E-01      1.046680000000000E+01      4.775238000000000E-01     -9.510937000000000E+01
4803000000.000000      6.402283000000000E-01      1.047119000000000E+01      4.812622000000000E-01     -9.590235000000000E+01
4804000000.000000      6.403503000000000E-01      1.042969000000000E+01      4.819336000000000E-01     -9.674217000000000E+01
4805000000.000000      6.381836000000000E-01      1.028711000000000E+01      4.838867000000000E-01     -9.752342000000000E+01
4806000000.000000      6.368408000000000E-01      1.035693000000000E+01      4.874573000000000E-01     -9.830078000000000E+01
4807000000.000000      6.348267000000000E-01      1.036133000000000E+01      4.849243000000000E-01     -9.918358000000000E+01
4808000000.000000      6.332703000000000E-01      1.044385000000000E+01      4.879150000000000E-01     -9.969139000000000E+01
4809000000.000000      6.326599000000000E-01      1.053271000000000E+01      4.889984000000000E-01     -1.005664000000000E+02
4810000000.000000      6.298828000000000E-01      1.051758000000000E+01      4.918823000000000E-01     -1.012305000000000E+02
4811000000.000000      6.285706000000000E-01      1.067285000000000E+01      4.912415000000000E-01     -1.020625000000000E+02
4812000000.000000      6.303101000000000E-01      1.069238000000000E+01      4.930725000000000E-01     -1.028281000000000E+02
4813000000.000000      6.273804000000000E-01      1.063721000000000E+01      4.924164000000000E-01     -1.036523000000000E+02
4814000000.000000      6.240845000000000E-01      1.067969000000000E+01      4.944153000000000E-01     -1.043476000000000E+02
4815000000.000000      6.236267000000000E-01      1.064697000000000E+01      4.935303000000000E-01     -1.048789000000000E+02
4816000000.000000      6.235352000000000E-01      1.083789000000000E+01      4.957733000000000E-01     -1.057227000000000E+02
4817000000.000000      6.214600000000000E-01      1.109180000000000E+01      4.960175000000000E-01     -1.066328000000000E+02
4818000000.000000      6.199646000000000E-01      1.097510000000000E+01      4.960327000000000E-01     -1.074297000000000E+02
4819000000.000000      6.195984000000000E-01      1.116064000000000E+01      4.968719000000000E-01     -1.080547000000000E+02
4820000000.000000      6.183777000000000E-01      1.122217000000000E+01      4.969025000000000E-01     -1.087812000000000E+02
4821000000.000000      6.182861000000000E-01      1.135400000000000E+01      4.989624000000000E-01     -1.097031000000000E+02
4822000000.000000      6.172791000000000E-01      1.147363000000000E+01      4.960785000000000E-01     -1.102383000000000E+02
4823000000.000000      6.152344000000000E-01      1.139404000000000E+01      4.989471000000000E-01     -1.110000000000000E+02
4824000000.000000      6.149902000000000E-01      1.174023000000000E+01      4.981537000000000E-01     -1.119531000000000E+02
4825000000.000000      6.164551000000000E-01      1.168945000000000E+01      4.992523000000000E-01     -1.124609000000000E+02
4826000000.000000      6.139832000000000E-01      1.169043000000000E+01      4.996948000000000E-01     -1.135273000000000E+02
4827000000.000000      6.137390000000000E-01      1.199707000000000E+01      5.001526000000000E-01     -1.140469000000000E+02
4828000000.000000      6.140442000000000E-01      1.205566000000000E+01      5.001221000000000E-01     -1.148125000000000E+02
4829000000.000000      6.134644000000000E-01      1.223438000000000E+01      5.004578000000000E-01     -1.154688000000000E+02
4830000000.000000      6.138611000000000E-01      1.212158000000000E+01      5.009155000000000E-01     -1.162070000000000E+02
4831000000.000000      6.113281000000000E-01      1.237744000000000E+01      5.003357000000000E-01     -1.173516000000000E+02
4832000000.000000      6.115723000000000E-01      1.249805000000000E+01      5.000610000000000E-01     -1.178672000000000E+02
4833000000.000000      6.115112000000000E-01      1.264209000000000E+01      4.993439000000000E-01     -1.186172000000000E+02
4834000000.000000      6.112671000000000E-01      1.248975000000000E+01      4.994812000000000E-01     -1.194805000000000E+02
4835000000.000000      6.130371000000000E-01      1.284961000000000E+01      4.994507000000000E-01     -1.202226000000000E+02
4836000000.000000      6.109009000000000E-01      1.319287000000000E+01      4.995117000000000E-01     -1.208203000000000E+02
4837000000.000000      6.105042000000000E-01      1.316406000000000E+01      4.976654000000000E-01     -1.220664000000000E+02
4838000000.000000      6.111755000000000E-01      1.311621000000000E+01      4.985962000000000E-01     -1.224062000000000E+02
4839000000.000000      6.148682000000000E-01      1.341797000000000E+01      4.982605000000000E-01     -1.233242000000000E+02
4840000000.000000      6.143494000000000E-01      1.325732000000000E+01      4.986572000000000E-01     -1.239219000000000E+02
4841000000.000000      6.138611000000000E-01      1.341406000000000E+01      4.984283000000000E-01     -1.250742000000000E+02
4842000000.000000      6.153870000000000E-01      1.351416000000000E+01      4.943695000000000E-01     -1.257031000000000E+02
4843000000.000000      6.174622000000000E-01      1.338379000000000E+01      4.950867000000000E-01     -1.266016000000000E+02
4844000000.000000      6.166382000000000E-01      1.344287000000000E+01      4.938049000000000E-01     -1.275078000000000E+02
4845000000.000000      6.170654000000000E-01      1.378369000000000E+01      4.920654000000000E-01     -1.281250000000000E+02
4846000000.000000      6.193542000000000E-01      1.386865000000000E+01      4.907227000000000E-01     -1.289922000000000E+02
4847000000.000000      6.188965000000000E-01      1.406494000000000E+01      4.906158000000000E-01     -1.299375000000000E+02
4848000000.000000      6.192322000000000E-01      1.386572000000000E+01      4.868317000000000E-01     -1.307188000000000E+02
4849000000.000000      6.197205000000000E-01      1.397021000000000E+01      4.875031000000000E-01     -1.315156000000000E+02
4850000000.000000      6.212158000000000E-01      1.413623000000000E+01      4.834290000000000E-01     -1.322500000000000E+02
4851000000.000000      6.242676000000000E-01      1.420898000000000E+01      4.840546000000000E-01     -1.332109000000000E+02
4852000000.000000      6.239929000000000E-01      1.415283000000000E+01      4.813538000000000E-01     -1.340547000000000E+02
4853000000.000000      6.241760000000000E-01      1.410645000000000E+01      4.779663000000000E-01     -1.349531000000000E+02
4854000000.000000      6.248779000000000E-01      1.433008000000000E+01      4.756165000000000E-01     -1.358203000000000E+02
4855000000.000000      6.268921000000000E-01      1.423682000000000E+01      4.739990000000000E-01     -1.369219000000000E+02
4856000000.000000      6.259766000000000E-01      1.436572000000000E+01      4.710236000000000E-01     -1.373828000000000E+02
4857000000.000000      6.292725000000000E-01      1.438232000000000E+01      4.690094000000000E-01     -1.381562000000000E+02
4858000000.000000      6.289978000000000E-01      1.446191000000000E+01      4.663849000000000E-01     -1.391562000000000E+02
4859000000.000000      6.315613000000000E-01      1.432861000000000E+01      4.638977000000000E-01     -1.400859000000000E+02
4860000000.000000      6.313782000000000E-01      1.448389000000000E+01      4.593353000000000E-01     -1.407109000000000E+02
4861000000.000000      6.318054000000000E-01      1.449072000000000E+01      4.563293000000000E-01     -1.418125000000000E+02
4862000000.000000      6.341248000000000E-01      1.445361000000000E+01      4.539185000000000E-01     -1.422891000000000E+02
4863000000.000000      6.349487000000000E-01      1.446582000000000E+01      4.497070000000000E-01     -1.433672000000000E+02
4864000000.000000      6.372375000000000E-01      1.461426000000000E+01      4.460297000000000E-01     -1.440312000000000E+02
4865000000.000000      6.373291000000000E-01      1.445654000000000E+01      4.416504000000000E-01     -1.448906000000000E+02
4866000000.000000      6.390076000000000E-01      1.440283000000000E+01      4.384003000000000E-01     -1.458437000000000E+02
4867000000.000000      6.394348000000000E-01      1.444971000000000E+01      4.364014000000000E-01     -1.465937000000000E+02
4868000000.000000      6.399536000000000E-01      1.439600000000000E+01      4.311829000000000E-01     -1.472734000000000E+02
4869000000.000000      6.433716000000000E-01      1.436865000000000E+01      4.269104000000000E-01     -1.478984000000000E+02
4870000000.000000      6.438293000000000E-01      1.451123000000000E+01      4.235687000000000E-01     -1.485781000000000E+02
4871000000.000000      6.441345000000000E-01      1.422998000000000E+01      4.180298000000000E-01     -1.493047000000000E+02
4872000000.000000      6.477051000000000E-01      1.435352000000000E+01      4.143524000000000E-01     -1.499453000000000E+02
4873000000.000000      6.472778000000000E-01      1.431348000000000E+01      4.101715000000000E-01     -1.509844000000000E+02
4874000000.000000      6.497498000000000E-01      1.427100000000000E+01      4.038086000000000E-01     -1.515625000000000E+02
4875000000.000000      6.515198000000000E-01      1.419434000000000E+01      3.999634000000000E-01     -1.521328000000000E+02
4876000000.000000      6.509094000000000E-01      1.426270000000000E+01      3.958282000000000E-01     -1.526250000000000E+02
4877000000.000000      6.549988000000000E-01      1.401270000000000E+01      3.925171000000000E-01     -1.534688000000000E+02
4878000000.000000      6.536560000000000E-01      1.403906000000000E+01      3.877716000000000E-01     -1.540625000000000E+02
4879000000.000000      6.565857000000000E-01      1.401953000000000E+01      3.840027000000000E-01     -1.544844000000000E+02
4880000000.000000      6.583557000000000E-01      1.390723000000000E+01      3.781891000000000E-01     -1.551641000000000E+02
4881000000.000000      6.574707000000000E-01      1.380566000000000E+01      3.751984000000000E-01     -1.556094000000000E+02
4882000000.000000      6.614990000000000E-01      1.399365000000000E+01      3.700562000000000E-01     -1.563750000000000E+02
4883000000.000000      6.611633000000000E-01      1.361719000000000E+01      3.654633000000000E-01     -1.568750000000000E+02
4884000000.000000      6.642761000000000E-01      1.378760000000000E+01      3.610382000000000E-01     -1.572734000000000E+02
4885000000.000000      6.631470000000000E-01      1.380273000000000E+01      3.568573000000000E-01     -1.576797000000000E+02
4886000000.000000      6.655579000000000E-01      1.371191000000000E+01      3.528290000000000E-01     -1.580937000000000E+02
4887000000.000000      6.673279000000000E-01      1.359961000000000E+01      3.492279000000000E-01     -1.584531000000000E+02
4888000000.000000      6.671143000000000E-01      1.331250000000000E+01      3.462219000000000E-01     -1.592031000000000E+02
4889000000.000000      6.678162000000000E-01      1.321484000000000E+01      3.397217000000000E-01     -1.594063000000000E+02
4890000000.000000      6.667786000000000E-01      1.316406000000000E+01      3.358459000000000E-01     -1.603437000000000E+02
4891000000.000000      6.695251000000000E-01      1.308447000000000E+01      3.307648000000000E-01     -1.604219000000000E+02
4892000000.000000      6.691589000000000E-01      1.301025000000000E+01      3.273468000000000E-01     -1.608516000000000E+02
4893000000.000000      6.716309000000000E-01      1.302393000000000E+01      3.230591000000000E-01     -1.612656000000000E+02
4894000000.000000      6.720886000000000E-01      1.289893000000000E+01      3.185730000000000E-01     -1.614766000000000E+02
4895000000.000000      6.742249000000000E-01      1.283203000000000E+01      3.171539000000000E-01     -1.620391000000000E+02
4896000000.000000      6.750183000000000E-01      1.269434000000000E+01      3.121185000000000E-01     -1.624141000000000E+02
4897000000.000000      6.766968000000000E-01      1.256934000000000E+01      3.080750000000000E-01     -1.628828000000000E+02
4898000000.000000      6.760559000000000E-01      1.254199000000000E+01      3.053436000000000E-01     -1.631250000000000E+02
4899000000.000000      6.760559000000000E-01      1.250781000000000E+01      3.012695000000000E-01     -1.635469000000000E+02
4900000000.000000      6.787415000000000E-01      1.224121000000000E+01      2.979279000000000E-01     -1.638594000000000E+02
4901000000.000000      6.771240000000000E-01      1.236328000000000E+01      2.941589000000000E-01     -1.640547000000000E+02
4902000000.000000      6.801147000000000E-01      1.211621000000000E+01      2.907410000000000E-01     -1.643984000000000E+02
4903000000.000000      6.800232000000000E-01      1.217285000000000E+01      2.861481000000000E-01     -1.646797000000000E+02
4904000000.000000      6.817932000000000E-01      1.195410000000000E+01      2.821350000000000E-01     -1.651562000000000E+02
4905000000.000000      6.813660000000000E-01      1.181006000000000E+01      2.794037000000000E-01     -1.654922000000000E+02
4906000000.000000      6.818848000000000E-01      1.167529000000000E+01      2.758026000000000E-01     -1.653437000000000E+02
4907000000.000000      6.861267000000000E-01      1.163037000000000E+01      2.728271000000000E-01     -1.661953000000000E+02
4908000000.000000      6.846313000000000E-01      1.145850000000000E+01      2.696075000000000E-01     -1.663203000000000E+02
4909000000.000000      6.844177000000000E-01      1.157520000000000E+01      2.649384000000000E-01     -1.666484000000000E+02
4910000000.000000      6.862183000000000E-01      1.138965000000000E+01      2.627869000000000E-01     -1.669297000000000E+02
4911000000.000000      6.857300000000000E-01      1.134863000000000E+01      2.587280000000000E-01     -1.671094000000000E+02
4912000000.000000      6.869812000000000E-01      1.119092000000000E+01      2.553864000000000E-01     -1.676016000000000E+02
4913000000.000000      6.864929000000000E-01      1.098633000000000E+01      2.520599000000000E-01     -1.679141000000000E+02
4914000000.000000      6.871643000000000E-01      1.098730000000000E+01      2.487488000000000E-01     -1.681094000000000E+02
4915000000.000000      6.878357000000000E-01      1.097119000000000E+01      2.446747000000000E-01     -1.684453000000000E+02
4916000000.000000      6.899109000000000E-01      1.079395000000000E+01      2.409363000000000E-01     -1.687578000000000E+02
4917000000.000000      6.899414000000000E-01      1.066895000000000E+01      2.370071000000000E-01     -1.689141000000000E+02
4918000000.000000      6.891785000000000E-01      1.056299000000000E+01      2.335205000000000E-01     -1.692578000000000E+02
4919000000.000000      6.890564000000000E-01      1.051514000000000E+01      2.307587000000000E-01     -1.691797000000000E+02
4920000000.000000      6.913757000000000E-01      1.044629000000000E+01      2.262497000000000E-01     -1.695703000000000E+02
4921000000.000000      6.917725000000000E-01      1.028857000000000E+01      2.235794000000000E-01     -1.698672000000000E+02
4922000000.000000      6.908569000000000E-01      1.030518000000000E+01      2.193146000000000E-01     -1.698906000000000E+02
4923000000.000000      6.904297000000000E-01      1.029785000000000E+01      2.150879000000000E-01     -1.699844000000000E+02
4924000000.000000      6.917419000000000E-01      1.002734000000000E+01      2.120819000000000E-01     -1.704297000000000E+02
4925000000.000000      6.903992000000000E-01      9.896973000000000E+00      2.082443000000000E-01     -1.704297000000000E+02
4926000000.000000      6.936646000000000E-01      9.832520000000000E+00      2.045898000000000E-01     -1.706250000000000E+02
4927000000.000000      6.934509000000000E-01      9.648438000000000E+00      2.002182000000000E-01     -1.708516000000000E+02
4928000000.000000      6.961975000000000E-01      9.478027000000000E+00      1.969147000000000E-01     -1.706250000000000E+02
4929000000.000000      6.968079000000000E-01      9.458984000000000E+00      1.930008000000000E-01     -1.706016000000000E+02
4930000000.000000      6.958313000000000E-01      9.541504000000000E+00      1.893234000000000E-01     -1.708281000000000E+02
4931000000.000000      6.953125000000000E-01      9.456055000000000E+00      1.863022000000000E-01     -1.708125000000000E+02
4932000000.000000      6.962891000000000E-01      9.240723000000000E+00      1.817703000000000E-01     -1.705312000000000E+02
4933000000.000000      6.958008000000000E-01      8.937012000000000E+00      1.776810000000000E-01     -1.704141000000000E+02
4934000000.000000      6.974487000000000E-01      8.831543000000000E+00      1.744614000000000E-01     -1.705078000000000E+02
4935000000.000000      6.997986000000000E-01      8.972656000000000E+00      1.710587000000000E-01     -1.701953000000000E+02
4936000000.000000      6.979370000000000E-01      8.684570000000000E+00      1.675720000000000E-01     -1.700625000000000E+02
4937000000.000000      6.988831000000000E-01      8.645996000000000E+00      1.638107000000000E-01     -1.697500000000000E+02
4938000000.000000      6.996460000000000E-01      8.705078000000000E+00      1.600876000000000E-01     -1.694062000000000E+02
4939000000.000000      7.002563000000000E-01      8.642090000000000E+00      1.561661000000000E-01     -1.690000000000000E+02
4940000000.000000      7.005615000000000E-01      8.385254000000000E+00      1.525421000000000E-01     -1.688984000000000E+02
4941000000.000000      7.015076000000000E-01      8.341309000000000E+00      1.492538000000000E-01     -1.680078000000000E+02
4942000000.000000      6.980286000000000E-01      8.242188000000000E+00      1.458588000000000E-01     -1.675000000000000E+02
4943000000.000000      7.005615000000000E-01      8.262695000000000E+00      1.428223000000000E-01     -1.669453000000000E+02
4944000000.000000      6.997070000000000E-01      8.085938000000000E+00      1.395645000000000E-01     -1.662578000000000E+02
4945000000.000000      7.030029000000000E-01      7.846924000000000E+00      1.360779000000000E-01     -1.655469000000000E+02
4946000000.000000      7.024231000000000E-01      7.973145000000000E+00      1.330414000000000E-01     -1.646406000000000E+02
4947000000.000000      7.023315000000000E-01      7.672363000000000E+00      1.298904000000000E-01     -1.637266000000000E+02
4948000000.000000      7.058716000000000E-01      7.661377000000000E+00      1.275177000000000E-01     -1.628515000000000E+02
4949000000.000000      7.033691000000000E-01      7.646484000000000E+00      1.246338000000000E-01     -1.614687000000000E+02
4950000000.000000      7.045898000000000E-01      7.547607000000000E+00      1.217384000000000E-01     -1.602969000000000E+02
4951000000.000000      7.072144000000000E-01      7.267334000000000E+00      1.193466000000000E-01     -1.594766000000000E+02
4952000000.000000      7.062988000000000E-01      7.344238000000000E+00      1.171227000000000E-01     -1.579609000000000E+02
4953000000.000000      7.039795000000000E-01      7.161621000000000E+00      1.149406000000000E-01     -1.564531000000000E+02
4954000000.000000      7.065430000000000E-01      7.058594000000000E+00      1.131477000000000E-01     -1.551016000000000E+02
