! Network Analyzer HP8722D
! Hewlett-Packard
! Data name: Linha & Wilkinson
! Saver's name: Rodrigo Anjos
! Comments: Teste da utilização de aquisição
continua pelo VNA HP8722D
! Time and date: 22/5/2025 08:46
!              Frequency                     S11                                                   S21                                                   S12                                                   S22
# HZ  S  MA R 50
4800000000.000000      6.477356000000000E-01      1.033643000000000E+01      4.749603000000000E-01     -9.390234000000000E+01
4801000000.000000      6.441650000000000E-01      1.038330000000000E+01      4.769897000000000E-01     -9.432421000000000E+01
4802000000.000000      6.437988000000000E-01      1.028711000000000E+01      4.761200000000000E-01     -9.518358000000000E+01
4803000000.000000      6.422729000000000E-01      1.036523000000000E+01      4.810486000000000E-01     -9.596094000000000E+01
4804000000.000000      6.394653000000000E-01      1.006348000000000E+01      4.824677000000000E-01     -9.660936000000000E+01
4805000000.000000      6.398926000000000E-01      1.027344000000000E+01      4.857330000000000E-01     -9.751953000000000E+01
4806000000.000000      6.364441000000000E-01      1.025391000000000E+01      4.842072000000000E-01     -9.834373000000000E+01
4807000000.000000      6.340027000000000E-01      1.024463000000000E+01      4.853058000000000E-01     -9.911718000000000E+01
4808000000.000000      6.303406000000000E-01      1.030225000000000E+01      4.882660000000000E-01     -9.960938000000000E+01
4809000000.000000      6.322021000000000E-01      1.054395000000000E+01      4.887085000000000E-01     -1.007695000000000E+02
4810000000.000000      6.295471000000000E-01      1.046143000000000E+01      4.913940000000000E-01     -1.010976000000000E+02
4811000000.000000      6.292725000000000E-01      1.051904000000000E+01      4.923859000000000E-01     -1.021719000000000E+02
4812000000.000000      6.292725000000000E-01      1.066748000000000E+01      4.949036000000000E-01     -1.028008000000000E+02
4813000000.000000      6.276245000000000E-01      1.062744000000000E+01      4.940796000000000E-01     -1.036055000000000E+02
4814000000.000000      6.253662000000000E-01      1.055469000000000E+01      4.946899000000000E-01     -1.044414000000000E+02
4815000000.000000      6.226196000000000E-01      1.078564000000000E+01      4.957733000000000E-01     -1.050859000000000E+02
4816000000.000000      6.232910000000000E-01      1.069922000000000E+01      4.982605000000000E-01     -1.057813000000000E+02
4817000000.000000      6.211853000000000E-01      1.102197000000000E+01      4.970703000000000E-01     -1.064687000000000E+02
4818000000.000000      6.204224000000000E-01      1.101221000000000E+01      4.982605000000000E-01     -1.073555000000000E+02
4819000000.000000      6.177673000000000E-01      1.087646000000000E+01      4.980774000000000E-01     -1.082109000000000E+02
4820000000.000000      6.161499000000000E-01      1.114258000000000E+01      4.980927000000000E-01     -1.088086000000000E+02
4821000000.000000      6.173401000000000E-01      1.126465000000000E+01      4.987335000000000E-01     -1.096836000000000E+02
4822000000.000000      6.158752000000000E-01      1.123730000000000E+01      4.988403000000000E-01     -1.102383000000000E+02
4823000000.000000      6.159058000000000E-01      1.123877000000000E+01      4.997559000000000E-01     -1.111914000000000E+02
4824000000.000000      6.138000000000000E-01      1.144189000000000E+01      4.990387000000000E-01     -1.120664000000000E+02
4825000000.000000      6.140747000000000E-01      1.152832000000000E+01      4.999084000000000E-01     -1.125000000000000E+02
4826000000.000000      6.138306000000000E-01      1.150244000000000E+01      4.983215000000000E-01     -1.135508000000000E+02
4827000000.000000      6.141052000000000E-01      1.169727000000000E+01      4.990997000000000E-01     -1.140781000000000E+02
4828000000.000000      6.137695000000000E-01      1.177832000000000E+01      4.988708000000000E-01     -1.147617000000000E+02
4829000000.000000      6.126099000000000E-01      1.214648000000000E+01      4.998627000000000E-01     -1.155742000000000E+02
4830000000.000000      6.120300000000000E-01      1.208203000000000E+01      5.003967000000000E-01     -1.162930000000000E+02
4831000000.000000      6.113586000000000E-01      1.205029000000000E+01      5.001221000000000E-01     -1.172344000000000E+02
4832000000.000000      6.129150000000000E-01      1.246924000000000E+01      5.008545000000000E-01     -1.177109000000000E+02
4833000000.000000      6.098633000000000E-01      1.246533000000000E+01      4.995117000000000E-01     -1.186250000000000E+02
4834000000.000000      6.125793000000000E-01      1.257373000000000E+01      4.989471000000000E-01     -1.196445000000000E+02
4835000000.000000      6.143799000000000E-01      1.271240000000000E+01      4.991455000000000E-01     -1.202656000000000E+02
4836000000.000000      6.126709000000000E-01      1.299268000000000E+01      4.987488000000000E-01     -1.208047000000000E+02
4837000000.000000      6.113586000000000E-01      1.313232000000000E+01      4.977875000000000E-01     -1.219375000000000E+02
4838000000.000000      6.121216000000000E-01      1.313672000000000E+01      4.987030000000000E-01     -1.224844000000000E+02
4839000000.000000      6.152344000000000E-01      1.321240000000000E+01      4.988556000000000E-01     -1.232109000000000E+02
4840000000.000000      6.139526000000000E-01      1.309424000000000E+01      4.962311000000000E-01     -1.241211000000000E+02
4841000000.000000      6.148071000000000E-01      1.339355000000000E+01      4.961090000000000E-01     -1.249375000000000E+02
4842000000.000000      6.157532000000000E-01      1.341943000000000E+01      4.950104000000000E-01     -1.257578000000000E+02
4843000000.000000      6.167908000000000E-01      1.343994000000000E+01      4.962463000000000E-01     -1.266172000000000E+02
4844000000.000000      6.156921000000000E-01      1.333301000000000E+01      4.941559000000000E-01     -1.274648000000000E+02
4845000000.000000      6.174011000000000E-01      1.366113000000000E+01      4.924316000000000E-01     -1.282812000000000E+02
4846000000.000000      6.198120000000000E-01      1.369287000000000E+01      4.908600000000000E-01     -1.290625000000000E+02
4847000000.000000      6.198120000000000E-01      1.391260000000000E+01      4.908752000000000E-01     -1.297500000000000E+02
4848000000.000000      6.170654000000000E-01      1.379443000000000E+01      4.871368000000000E-01     -1.307578000000000E+02
4849000000.000000      6.213074000000000E-01      1.369971000000000E+01      4.871216000000000E-01     -1.314297000000000E+02
4850000000.000000      6.196594000000000E-01      1.396338000000000E+01      4.837189000000000E-01     -1.323203000000000E+02
4851000000.000000      6.222839000000000E-01      1.407178000000000E+01      4.845734000000000E-01     -1.334766000000000E+02
4852000000.000000      6.213379000000000E-01      1.402637000000000E+01      4.805908000000000E-01     -1.341641000000000E+02
4853000000.000000      6.242371000000000E-01      1.417334000000000E+01      4.781342000000000E-01     -1.349609000000000E+02
4854000000.000000      6.256714000000000E-01      1.424609000000000E+01      4.757385000000000E-01     -1.358750000000000E+02
4855000000.000000      6.271973000000000E-01      1.428320000000000E+01      4.745941000000000E-01     -1.367109000000000E+02
4856000000.000000      6.263733000000000E-01      1.446338000000000E+01      4.714203000000000E-01     -1.377266000000000E+02
4857000000.000000      6.289063000000000E-01      1.422559000000000E+01      4.699554000000000E-01     -1.385625000000000E+02
4858000000.000000      6.303711000000000E-01      1.427637000000000E+01      4.658508000000000E-01     -1.392187000000000E+02
4859000000.000000      6.295166000000000E-01      1.416650000000000E+01      4.641418000000000E-01     -1.400156000000000E+02
4860000000.000000      6.304626000000000E-01      1.440283000000000E+01      4.597931000000000E-01     -1.408047000000000E+02
4861000000.000000      6.316528000000000E-01      1.433838000000000E+01      4.575806000000000E-01     -1.417187000000000E+02
4862000000.000000      6.329041000000000E-01      1.436572000000000E+01      4.537048000000000E-01     -1.423750000000000E+02
4863000000.000000      6.355896000000000E-01      1.442871000000000E+01      4.499512000000000E-01     -1.433047000000000E+02
4864000000.000000      6.380005000000000E-01      1.444971000000000E+01      4.469147000000000E-01     -1.441953000000000E+02
4865000000.000000      6.380310000000000E-01      1.434668000000000E+01      4.429321000000000E-01     -1.447031000000000E+02
4866000000.000000      6.404724000000000E-01      1.431348000000000E+01      4.383087000000000E-01     -1.456094000000000E+02
4867000000.000000      6.384888000000000E-01      1.439600000000000E+01      4.342194000000000E-01     -1.464375000000000E+02
4868000000.000000      6.422729000000000E-01      1.421045000000000E+01      4.307251000000000E-01     -1.473359000000000E+02
4869000000.000000      6.428833000000000E-01      1.437793000000000E+01      4.275055000000000E-01     -1.479609000000000E+02
4870000000.000000      6.443481000000000E-01      1.426807000000000E+01      4.222565000000000E-01     -1.485391000000000E+02
4871000000.000000      6.445618000000000E-01      1.422852000000000E+01      4.188232000000000E-01     -1.496797000000000E+02
4872000000.000000      6.467896000000000E-01      1.422998000000000E+01      4.139709000000000E-01     -1.499219000000000E+02
4873000000.000000      6.487122000000000E-01      1.426025000000000E+01      4.102020000000000E-01     -1.507813000000000E+02
4874000000.000000      6.484070000000000E-01      1.422021000000000E+01      4.048309000000000E-01     -1.515078000000000E+02
4875000000.000000      6.500854000000000E-01      1.405127000000000E+01      3.990479000000000E-01     -1.520156000000000E+02
4876000000.000000      6.512451000000000E-01      1.421338000000000E+01      3.981323000000000E-01     -1.528281000000000E+02
4877000000.000000      6.540527000000000E-01      1.387842000000000E+01      3.919830000000000E-01     -1.534922000000000E+02
4878000000.000000      6.527100000000000E-01      1.397168000000000E+01      3.884735000000000E-01     -1.540390000000000E+02
4879000000.000000      6.550598000000000E-01      1.396631000000000E+01      3.828583000000000E-01     -1.544219000000000E+02
4880000000.000000      6.581421000000000E-01      1.388916000000000E+01      3.811035000000000E-01     -1.552891000000000E+02
4881000000.000000      6.585999000000000E-01      1.381348000000000E+01      3.748169000000000E-01     -1.556484000000000E+02
4882000000.000000      6.614075000000000E-01      1.379443000000000E+01      3.705597000000000E-01     -1.564219000000000E+02
4883000000.000000      6.607666000000000E-01      1.347607000000000E+01      3.662872000000000E-01     -1.567812000000000E+02
4884000000.000000      6.623840000000000E-01      1.370801000000000E+01      3.614502000000000E-01     -1.573047000000000E+02
4885000000.000000      6.655884000000000E-01      1.369287000000000E+01      3.577423000000000E-01     -1.576719000000000E+02
4886000000.000000      6.653442000000000E-01      1.345654000000000E+01      3.525696000000000E-01     -1.584219000000000E+02
4887000000.000000      6.651611000000000E-01      1.333008000000000E+01      3.502197000000000E-01     -1.585156000000000E+02
4888000000.000000      6.668701000000000E-01      1.328369000000000E+01      3.452911000000000E-01     -1.591953000000000E+02
4889000000.000000      6.678162000000000E-01      1.303516000000000E+01      3.401642000000000E-01     -1.594922000000000E+02
4890000000.000000      6.679077000000000E-01      1.299805000000000E+01      3.347168000000000E-01     -1.603281000000000E+02
4891000000.000000      6.697083000000000E-01      1.314209000000000E+01      3.308105000000000E-01     -1.607344000000000E+02
4892000000.000000      6.712952000000000E-01      1.292773000000000E+01      3.276825000000000E-01     -1.607891000000000E+02
4893000000.000000      6.730652000000000E-01      1.281396000000000E+01      3.242340000000000E-01     -1.614453000000000E+02
4894000000.000000      6.725159000000000E-01      1.276025000000000E+01      3.203583000000000E-01     -1.617031000000000E+02
4895000000.000000      6.761475000000000E-01      1.257373000000000E+01      3.169861000000000E-01     -1.619922000000000E+02
4896000000.000000      6.745911000000000E-01      1.261475000000000E+01      3.123932000000000E-01     -1.625000000000000E+02
4897000000.000000      6.757507000000000E-01      1.261328000000000E+01      3.083038000000000E-01     -1.628359000000000E+02
4898000000.000000      6.747131000000000E-01      1.231836000000000E+01      3.053131000000000E-01     -1.630781000000000E+02
4899000000.000000      6.752319000000000E-01      1.230859000000000E+01      3.010712000000000E-01     -1.636328000000000E+02
4900000000.000000      6.778564000000000E-01      1.201465000000000E+01      2.979279000000000E-01     -1.637812000000000E+02
4901000000.000000      6.802979000000000E-01      1.212598000000000E+01      2.940979000000000E-01     -1.640938000000000E+02
4902000000.000000      6.821899000000000E-01      1.207764000000000E+01      2.906036000000000E-01     -1.644063000000000E+02
4903000000.000000      6.819458000000000E-01      1.201172000000000E+01      2.866974000000000E-01     -1.647734000000000E+02
4904000000.000000      6.815491000000000E-01      1.186914000000000E+01      2.831421000000000E-01     -1.651562000000000E+02
4905000000.000000      6.818237000000000E-01      1.168115000000000E+01      2.803192000000000E-01     -1.654844000000000E+02
4906000000.000000      6.823120000000000E-01      1.172754000000000E+01      2.760620000000000E-01     -1.655703000000000E+02
4907000000.000000      6.843872000000000E-01      1.157227000000000E+01      2.733765000000000E-01     -1.660000000000000E+02
4908000000.000000      6.853638000000000E-01      1.136523000000000E+01      2.698212000000000E-01     -1.665313000000000E+02
4909000000.000000      6.809387000000000E-01      1.132813000000000E+01      2.654266000000000E-01     -1.666406000000000E+02
4910000000.000000      6.843262000000000E-01      1.117676000000000E+01      2.621307000000000E-01     -1.668984000000000E+02
4911000000.000000      6.864014000000000E-01      1.110840000000000E+01      2.589722000000000E-01     -1.671875000000000E+02
4912000000.000000      6.856995000000000E-01      1.110010000000000E+01      2.555542000000000E-01     -1.675781000000000E+02
4913000000.000000      6.874084000000000E-01      1.094922000000000E+01      2.520599000000000E-01     -1.678437000000000E+02
4914000000.000000      6.892700000000000E-01      1.075928000000000E+01      2.484665000000000E-01     -1.681406000000000E+02
4915000000.000000      6.880188000000000E-01      1.081592000000000E+01      2.449341000000000E-01     -1.685234000000000E+02
4916000000.000000      6.905518000000000E-01      1.062061000000000E+01      2.411423000000000E-01     -1.687813000000000E+02
4917000000.000000      6.901855000000000E-01      1.071143000000000E+01      2.378540000000000E-01     -1.688750000000000E+02
4918000000.000000      6.917419000000000E-01      1.056445000000000E+01      2.339249000000000E-01     -1.691797000000000E+02
4919000000.000000      6.892090000000000E-01      1.039160000000000E+01      2.307739000000000E-01     -1.693984000000000E+02
4920000000.000000      6.907654000000000E-01      1.021143000000000E+01      2.266998000000000E-01     -1.698750000000000E+02
4921000000.000000      6.912231000000000E-01      1.036133000000000E+01      2.235947000000000E-01     -1.698437000000000E+02
4922000000.000000      6.912842000000000E-01      1.035449000000000E+01      2.196426000000000E-01     -1.699609000000000E+02
4923000000.000000      6.915588000000000E-01      1.001660000000000E+01      2.152786000000000E-01     -1.700234000000000E+02
4924000000.000000      6.929321000000000E-01      9.969727000000000E+00      2.114563000000000E-01     -1.704766000000000E+02
4925000000.000000      6.914673000000000E-01      9.935547000000000E+00      2.081528000000000E-01     -1.703438000000000E+02
4926000000.000000      6.934509000000000E-01      9.896973000000000E+00      2.048492000000000E-01     -1.705781000000000E+02
4927000000.000000      6.935730000000000E-01      9.570313000000000E+00      2.010727000000000E-01     -1.706953000000000E+02
4928000000.000000      6.962280000000000E-01      9.482422000000000E+00      1.970978000000000E-01     -1.707734000000000E+02
4929000000.000000      6.942749000000000E-01      9.340820000000000E+00      1.936493000000000E-01     -1.706875000000000E+02
4930000000.000000      6.954346000000000E-01      9.364258000000000E+00      1.900940000000000E-01     -1.710000000000000E+02
4931000000.000000      6.972046000000000E-01      9.228516000000000E+00      1.865311000000000E-01     -1.707578000000000E+02
4932000000.000000      6.959229000000000E-01      9.270996000000000E+00      1.828461000000000E-01     -1.708750000000000E+02
4933000000.000000      6.956482000000000E-01      9.066406000000000E+00      1.776352000000000E-01     -1.705000000000000E+02
4934000000.000000      6.988525000000000E-01      8.968750000000000E+00      1.742554000000000E-01     -1.705859000000000E+02
4935000000.000000      6.997375000000000E-01      8.805176000000000E+00      1.713028000000000E-01     -1.702578000000000E+02
4936000000.000000      6.997375000000000E-01      8.811035000000000E+00      1.673203000000000E-01     -1.700469000000000E+02
4937000000.000000      6.990356000000000E-01      8.659668000000000E+00      1.635818000000000E-01     -1.697500000000000E+02
4938000000.000000      6.994019000000000E-01      8.544434000000000E+00      1.599350000000000E-01     -1.694297000000000E+02
4939000000.000000      6.986389000000000E-01      8.441406000000000E+00      1.562805000000000E-01     -1.691641000000000E+02
4940000000.000000      6.987915000000000E-01      8.455078000000000E+00      1.529541000000000E-01     -1.687734000000000E+02
4941000000.000000      7.005920000000000E-01      8.183105000000000E+00      1.495590000000000E-01     -1.682344000000000E+02
4942000000.000000      6.996155000000000E-01      8.242188000000000E+00      1.461563000000000E-01     -1.675703000000000E+02
4943000000.000000      7.037964000000000E-01      8.078613000000000E+00      1.428223000000000E-01     -1.670781000000000E+02
4944000000.000000      7.007751000000000E-01      8.000488000000000E+00      1.394806000000000E-01     -1.663984000000000E+02
4945000000.000000      7.004700000000000E-01      7.960938000000000E+00      1.364594000000000E-01     -1.655313000000000E+02
4946000000.000000      7.029419000000000E-01      7.840088000000000E+00      1.329575000000000E-01     -1.649688000000000E+02
4947000000.000000      7.040710000000000E-01      7.598389000000000E+00      1.298752000000000E-01     -1.638672000000000E+02
4948000000.000000      7.048645000000000E-01      7.647705000000000E+00      1.272888000000000E-01     -1.628203000000000E+02
4949000000.000000      7.033081000000000E-01      7.484375000000000E+00      1.246223000000000E-01     -1.616953000000000E+02
4950000000.000000      7.059631000000000E-01      7.351074000000000E+00      1.219254000000000E-01     -1.606250000000000E+02
4951000000.000000      7.038574000000000E-01      7.279785000000000E+00      1.196976000000000E-01     -1.594297000000000E+02
4952000000.000000      7.042236000000000E-01      7.106689000000000E+00      1.170578000000000E-01     -1.580547000000000E+02
4953000000.000000      7.041626000000000E-01      7.051758000000000E+00      1.150742000000000E-01     -1.565391000000000E+02
4954000000.000000      7.055969000000000E-01      6.859375000000000E+00      1.132774000000000E-01     -1.551719000000000E+02
