! Network Analyzer HP8722D
! Hewlett-Packard
! Data name: Linha & Wilkinson
! Saver's name: Rodrigo Anjos
! Comments: Teste da utilização de aquisição
continua pelo VNA HP8722D
! Time and date: 22/5/2025 08:24
!              Frequency                     S11                                                   S21                                                   S12                                                   S22
# HZ  S  MA R 50
4800000000.000000      6.473083000000000E-01      1.025537000000000E+01      4.757080000000000E-01     -9.387110000000000E+01
4801000000.000000      6.445923000000000E-01      1.031592000000000E+01      4.762726000000000E-01     -9.428905000000000E+01
4802000000.000000      6.441650000000000E-01      1.033643000000000E+01      4.760742000000000E-01     -9.541407000000000E+01
4803000000.000000      6.421204000000000E-01      1.021973000000000E+01      4.815979000000000E-01     -9.585546000000000E+01
4804000000.000000      6.398010000000000E-01      1.024170000000000E+01      4.819946000000000E-01     -9.661718000000000E+01
4805000000.000000      6.400757000000000E-01      1.005908000000000E+01      4.840393000000000E-01     -9.743359000000000E+01
4806000000.000000      6.369934000000000E-01      1.020313000000000E+01      4.857025000000000E-01     -9.825390000000000E+01
4807000000.000000      6.354980000000000E-01      1.029688000000000E+01      4.858246000000000E-01     -9.912109000000000E+01
4808000000.000000      6.325684000000000E-01      1.041064000000000E+01      4.883575000000000E-01     -9.975780000000000E+01
4809000000.000000      6.319275000000000E-01      1.031445000000000E+01      4.898682000000000E-01     -1.007539000000000E+02
4810000000.000000      6.303711000000000E-01      1.042871000000000E+01      4.909973000000000E-01     -1.013789000000000E+02
4811000000.000000      6.297607000000000E-01      1.035010000000000E+01      4.924622000000000E-01     -1.020156000000000E+02
4812000000.000000      6.308899000000000E-01      1.061377000000000E+01      4.931030000000000E-01     -1.027812000000000E+02
4813000000.000000      6.270447000000000E-01      1.060547000000000E+01      4.935303000000000E-01     -1.037500000000000E+02
4814000000.000000      6.250000000000000E-01      1.055615000000000E+01      4.958801000000000E-01     -1.042148000000000E+02
4815000000.000000      6.235657000000000E-01      1.062061000000000E+01      4.932861000000000E-01     -1.051055000000000E+02
4816000000.000000      6.242981000000000E-01      1.073193000000000E+01      4.963226000000000E-01     -1.058945000000000E+02
4817000000.000000      6.203308000000000E-01      1.085986000000000E+01      4.956970000000000E-01     -1.066289000000000E+02
4818000000.000000      6.204224000000000E-01      1.089844000000000E+01      4.973602000000000E-01     -1.074453000000000E+02
4819000000.000000      6.202393000000000E-01      1.093506000000000E+01      4.971771000000000E-01     -1.081172000000000E+02
4820000000.000000      6.187744000000000E-01      1.114551000000000E+01      4.982758000000000E-01     -1.087422000000000E+02
4821000000.000000      6.189270000000000E-01      1.118408000000000E+01      4.998779000000000E-01     -1.095781000000000E+02
4822000000.000000      6.162415000000000E-01      1.129395000000000E+01      4.986267000000000E-01     -1.102617000000000E+02
4823000000.000000      6.162720000000000E-01      1.128662000000000E+01      4.992371000000000E-01     -1.111055000000000E+02
4824000000.000000      6.134338000000000E-01      1.140479000000000E+01      4.995880000000000E-01     -1.118359000000000E+02
4825000000.000000      6.146240000000000E-01      1.173047000000000E+01      5.004578000000000E-01     -1.125039000000000E+02
4826000000.000000      6.139221000000000E-01      1.161621000000000E+01      4.998474000000000E-01     -1.134375000000000E+02
4827000000.000000      6.124878000000000E-01      1.168213000000000E+01      4.990234000000000E-01     -1.142031000000000E+02
4828000000.000000      6.139526000000000E-01      1.178955000000000E+01      5.005798000000000E-01     -1.148164000000000E+02
4829000000.000000      6.124878000000000E-01      1.209570000000000E+01      5.018921000000000E-01     -1.156797000000000E+02
4830000000.000000      6.121216000000000E-01      1.207910000000000E+01      5.007935000000000E-01     -1.163477000000000E+02
4831000000.000000      6.110229000000000E-01      1.216846000000000E+01      5.008850000000000E-01     -1.171797000000000E+02
4832000000.000000      6.135864000000000E-01      1.259277000000000E+01      4.986877000000000E-01     -1.179219000000000E+02
4833000000.000000      6.105042000000000E-01      1.233203000000000E+01      4.986725000000000E-01     -1.184766000000000E+02
4834000000.000000      6.117249000000000E-01      1.246240000000000E+01      5.001526000000000E-01     -1.193750000000000E+02
4835000000.000000      6.119385000000000E-01      1.262695000000000E+01      5.000916000000000E-01     -1.202539000000000E+02
4836000000.000000      6.110840000000000E-01      1.291553000000000E+01      4.992523000000000E-01     -1.210078000000000E+02
4837000000.000000      6.126709000000000E-01      1.294873000000000E+01      4.983978000000000E-01     -1.218516000000000E+02
4838000000.000000      6.125488000000000E-01      1.301563000000000E+01      4.987030000000000E-01     -1.223281000000000E+02
4839000000.000000      6.153259000000000E-01      1.308984000000000E+01      4.976959000000000E-01     -1.232891000000000E+02
4840000000.000000      6.157532000000000E-01      1.316846000000000E+01      4.982300000000000E-01     -1.241016000000000E+02
4841000000.000000      6.129761000000000E-01      1.340723000000000E+01      4.970703000000000E-01     -1.249141000000000E+02
4842000000.000000      6.148376000000000E-01      1.337012000000000E+01      4.949341000000000E-01     -1.256797000000000E+02
4843000000.000000      6.177368000000000E-01      1.344141000000000E+01      4.945526000000000E-01     -1.267305000000000E+02
4844000000.000000      6.167603000000000E-01      1.350488000000000E+01      4.933167000000000E-01     -1.274141000000000E+02
4845000000.000000      6.159668000000000E-01      1.377930000000000E+01      4.919891000000000E-01     -1.282812000000000E+02
4846000000.000000      6.186218000000000E-01      1.362695000000000E+01      4.912872000000000E-01     -1.290547000000000E+02
4847000000.000000      6.197815000000000E-01      1.366406000000000E+01      4.900208000000000E-01     -1.298203000000000E+02
4848000000.000000      6.201172000000000E-01      1.386865000000000E+01      4.864807000000000E-01     -1.307812000000000E+02
4849000000.000000      6.204834000000000E-01      1.390869000000000E+01      4.881287000000000E-01     -1.316015000000000E+02
4850000000.000000      6.204224000000000E-01      1.400195000000000E+01      4.846802000000000E-01     -1.323984000000000E+02
4851000000.000000      6.241455000000000E-01      1.402637000000000E+01      4.839935000000000E-01     -1.333359000000000E+02
4852000000.000000      6.222839000000000E-01      1.409229000000000E+01      4.806519000000000E-01     -1.340312000000000E+02
4853000000.000000      6.248474000000000E-01      1.424609000000000E+01      4.788055000000000E-01     -1.349141000000000E+02
4854000000.000000      6.259766000000000E-01      1.424512000000000E+01      4.756165000000000E-01     -1.359531000000000E+02
4855000000.000000      6.269836000000000E-01      1.420508000000000E+01      4.737701000000000E-01     -1.366016000000000E+02
4856000000.000000      6.290588000000000E-01      1.416504000000000E+01      4.704742000000000E-01     -1.373359000000000E+02
4857000000.000000      6.288757000000000E-01      1.427393000000000E+01      4.686584000000000E-01     -1.381875000000000E+02
4858000000.000000      6.291809000000000E-01      1.433838000000000E+01      4.670105000000000E-01     -1.390703000000000E+02
4859000000.000000      6.318359000000000E-01      1.434229000000000E+01      4.625244000000000E-01     -1.401094000000000E+02
4860000000.000000      6.317139000000000E-01      1.438770000000000E+01      4.599457000000000E-01     -1.408437000000000E+02
4861000000.000000      6.340942000000000E-01      1.436572000000000E+01      4.572449000000000E-01     -1.416328000000000E+02
4862000000.000000      6.343384000000000E-01      1.426953000000000E+01      4.546356000000000E-01     -1.424141000000000E+02
4863000000.000000      6.365967000000000E-01      1.434375000000000E+01      4.495239000000000E-01     -1.433125000000000E+02
4864000000.000000      6.385803000000000E-01      1.437695000000000E+01      4.471893000000000E-01     -1.441172000000000E+02
4865000000.000000      6.380005000000000E-01      1.452100000000000E+01      4.421234000000000E-01     -1.448203000000000E+02
4866000000.000000      6.390686000000000E-01      1.428906000000000E+01      4.376221000000000E-01     -1.456016000000000E+02
4867000000.000000      6.386719000000000E-01      1.430957000000000E+01      4.354401000000000E-01     -1.468203000000000E+02
4868000000.000000      6.424866000000000E-01      1.440576000000000E+01      4.306793000000000E-01     -1.473516000000000E+02
4869000000.000000      6.453247000000000E-01      1.419824000000000E+01      4.279633000000000E-01     -1.479922000000000E+02
4870000000.000000      6.442261000000000E-01      1.433398000000000E+01      4.223938000000000E-01     -1.485391000000000E+02
4871000000.000000      6.452026000000000E-01      1.415967000000000E+01      4.184723000000000E-01     -1.494688000000000E+02
4872000000.000000      6.473083000000000E-01      1.418164000000000E+01      4.141541000000000E-01     -1.500000000000000E+02
4873000000.000000      6.499329000000000E-01      1.424512000000000E+01      4.100647000000000E-01     -1.509219000000000E+02
4874000000.000000      6.504517000000000E-01      1.420361000000000E+01      4.058838000000000E-01     -1.515234000000000E+02
4875000000.000000      6.524353000000000E-01      1.401709000000000E+01      4.009399000000000E-01     -1.521484000000000E+02
4876000000.000000      6.548157000000000E-01      1.408008000000000E+01      3.968506000000000E-01     -1.527812000000000E+02
4877000000.000000      6.537781000000000E-01      1.395654000000000E+01      3.929901000000000E-01     -1.535781000000000E+02
4878000000.000000      6.548157000000000E-01      1.401709000000000E+01      3.865356000000000E-01     -1.541016000000000E+02
4879000000.000000      6.548157000000000E-01      1.381494000000000E+01      3.823853000000000E-01     -1.546250000000000E+02
4880000000.000000      6.577454000000000E-01      1.394971000000000E+01      3.795166000000000E-01     -1.551875000000000E+02
4881000000.000000      6.583252000000000E-01      1.374756000000000E+01      3.749237000000000E-01     -1.556328000000000E+02
4882000000.000000      6.596680000000000E-01      1.377393000000000E+01      3.703613000000000E-01     -1.561797000000000E+02
4883000000.000000      6.613159000000000E-01      1.351855000000000E+01      3.659973000000000E-01     -1.569453000000000E+02
4884000000.000000      6.625366000000000E-01      1.356104000000000E+01      3.615723000000000E-01     -1.573828000000000E+02
4885000000.000000      6.636047000000000E-01      1.349512000000000E+01      3.572540000000000E-01     -1.576875000000000E+02
4886000000.000000      6.638184000000000E-01      1.347705000000000E+01      3.527527000000000E-01     -1.580156000000000E+02
4887000000.000000      6.645813000000000E-01      1.343213000000000E+01      3.491058000000000E-01     -1.587344000000000E+02
4888000000.000000      6.664734000000000E-01      1.325049000000000E+01      3.447571000000000E-01     -1.595781000000000E+02
4889000000.000000      6.679077000000000E-01      1.328906000000000E+01      3.392181000000000E-01     -1.596562000000000E+02
4890000000.000000      6.667175000000000E-01      1.317627000000000E+01      3.360901000000000E-01     -1.603359000000000E+02
4891000000.000000      6.705933000000000E-01      1.297754000000000E+01      3.330231000000000E-01     -1.606641000000000E+02
4892000000.000000      6.704102000000000E-01      1.284961000000000E+01      3.271179000000000E-01     -1.607344000000000E+02
4893000000.000000      6.716309000000000E-01      1.290576000000000E+01      3.252563000000000E-01     -1.612578000000000E+02
4894000000.000000      6.713257000000000E-01      1.294873000000000E+01      3.202667000000000E-01     -1.618750000000000E+02
4895000000.000000      6.755676000000000E-01      1.282227000000000E+01      3.178253000000000E-01     -1.621094000000000E+02
4896000000.000000      6.759033000000000E-01      1.258057000000000E+01      3.124390000000000E-01     -1.624766000000000E+02
4897000000.000000      6.771240000000000E-01      1.253516000000000E+01      3.084869000000000E-01     -1.628281000000000E+02
4898000000.000000      6.763611000000000E-01      1.243066000000000E+01      3.050995000000000E-01     -1.629766000000000E+02
4899000000.000000      6.764526000000000E-01      1.238428000000000E+01      3.016510000000000E-01     -1.636172000000000E+02
4900000000.000000      6.790771000000000E-01      1.221094000000000E+01      2.974243000000000E-01     -1.637344000000000E+02
4901000000.000000      6.787415000000000E-01      1.214941000000000E+01      2.942200000000000E-01     -1.640625000000000E+02
4902000000.000000      6.793213000000000E-01      1.207227000000000E+01      2.909851000000000E-01     -1.643516000000000E+02
4903000000.000000      6.799316000000000E-01      1.209863000000000E+01      2.864227000000000E-01     -1.647500000000000E+02
4904000000.000000      6.826477000000000E-01      1.177148000000000E+01      2.830505000000000E-01     -1.651250000000000E+02
4905000000.000000      6.814575000000000E-01      1.167432000000000E+01      2.807770000000000E-01     -1.654063000000000E+02
4906000000.000000      6.838379000000000E-01      1.156445000000000E+01      2.759857000000000E-01     -1.655703000000000E+02
4907000000.000000      6.825256000000000E-01      1.151758000000000E+01      2.734985000000000E-01     -1.660625000000000E+02
4908000000.000000      6.840820000000000E-01      1.139551000000000E+01      2.693024000000000E-01     -1.663281000000000E+02
4909000000.000000      6.851807000000000E-01      1.138965000000000E+01      2.657928000000000E-01     -1.666953000000000E+02
4910000000.000000      6.840210000000000E-01      1.130176000000000E+01      2.627258000000000E-01     -1.669062000000000E+02
4911000000.000000      6.883850000000000E-01      1.122900000000000E+01      2.589874000000000E-01     -1.672266000000000E+02
4912000000.000000      6.839905000000000E-01      1.115918000000000E+01      2.553864000000000E-01     -1.676797000000000E+02
4913000000.000000      6.858215000000000E-01      1.075244000000000E+01      2.524414000000000E-01     -1.677969000000000E+02
4914000000.000000      6.875610000000000E-01      1.074854000000000E+01      2.487259000000000E-01     -1.680781000000000E+02
4915000000.000000      6.885376000000000E-01      1.075146000000000E+01      2.448502000000000E-01     -1.683828000000000E+02
4916000000.000000      6.874390000000000E-01      1.071680000000000E+01      2.411957000000000E-01     -1.687187000000000E+02
4917000000.000000      6.882324000000000E-01      1.057568000000000E+01      2.375565000000000E-01     -1.688516000000000E+02
4918000000.000000      6.906128000000000E-01      1.049463000000000E+01      2.336578000000000E-01     -1.692031000000000E+02
4919000000.000000      6.907654000000000E-01      1.046289000000000E+01      2.303085000000000E-01     -1.692500000000000E+02
4920000000.000000      6.921692000000000E-01      1.019775000000000E+01      2.264175000000000E-01     -1.697500000000000E+02
4921000000.000000      6.916504000000000E-01      1.023340000000000E+01      2.234039000000000E-01     -1.697344000000000E+02
4922000000.000000      6.909790000000000E-01      1.016064000000000E+01      2.197876000000000E-01     -1.698359000000000E+02
4923000000.000000      6.924133000000000E-01      9.978027000000000E+00      2.161713000000000E-01     -1.700469000000000E+02
4924000000.000000      6.935730000000000E-01      9.890137000000000E+00      2.122498000000000E-01     -1.703672000000000E+02
4925000000.000000      6.929016000000000E-01      9.521973000000000E+00      2.082901000000000E-01     -1.703203000000000E+02
4926000000.000000      6.953125000000000E-01      9.682617000000000E+00      2.047501000000000E-01     -1.705312000000000E+02
4927000000.000000      6.920166000000000E-01      9.536133000000000E+00      2.002945000000000E-01     -1.708516000000000E+02
4928000000.000000      6.930237000000000E-01      9.437012000000000E+00      1.975784000000000E-01     -1.708672000000000E+02
4929000000.000000      6.928101000000000E-01      9.415039000000000E+00      1.931610000000000E-01     -1.708281000000000E+02
4930000000.000000      6.960449000000000E-01      9.309082000000000E+00      1.899109000000000E-01     -1.708359000000000E+02
4931000000.000000      6.953735000000000E-01      9.161133000000000E+00      1.860580000000000E-01     -1.707031000000000E+02
4932000000.000000      6.956177000000000E-01      9.163574000000000E+00      1.820679000000000E-01     -1.707109000000000E+02
4933000000.000000      6.973572000000000E-01      8.970215000000000E+00      1.775208000000000E-01     -1.706250000000000E+02
4934000000.000000      6.976929000000000E-01      8.917969000000000E+00      1.747589000000000E-01     -1.705937000000000E+02
4935000000.000000      6.992798000000000E-01      8.823242000000000E+00      1.713104000000000E-01     -1.704453000000000E+02
4936000000.000000      6.969604000000000E-01      8.620117000000000E+00      1.670761000000000E-01     -1.700391000000000E+02
4937000000.000000      6.980896000000000E-01      8.486816000000000E+00      1.634674000000000E-01     -1.698594000000000E+02
4938000000.000000      6.976929000000000E-01      8.630859000000000E+00      1.599350000000000E-01     -1.695156000000000E+02
4939000000.000000      6.979370000000000E-01      8.536133000000000E+00      1.566925000000000E-01     -1.690625000000000E+02
4940000000.000000      6.989441000000000E-01      8.273926000000000E+00      1.530685000000000E-01     -1.688984000000000E+02
4941000000.000000      7.004089000000000E-01      8.231445000000000E+00      1.495743000000000E-01     -1.682109000000000E+02
4942000000.000000      7.003479000000000E-01      8.270996000000000E+00      1.460419000000000E-01     -1.678906000000000E+02
4943000000.000000      6.997681000000000E-01      8.183105000000000E+00      1.427460000000000E-01     -1.670156000000000E+02
4944000000.000000      7.019043000000000E-01      7.987061000000000E+00      1.398392000000000E-01     -1.663437000000000E+02
4945000000.000000      7.014465000000000E-01      7.835938000000000E+00      1.362000000000000E-01     -1.656563000000000E+02
4946000000.000000      7.020264000000000E-01      7.807129000000000E+00      1.330490000000000E-01     -1.647500000000000E+02
4947000000.000000      7.024841000000000E-01      7.598389000000000E+00      1.303406000000000E-01     -1.638750000000000E+02
4948000000.000000      7.043152000000000E-01      7.635498000000000E+00      1.272812000000000E-01     -1.627031000000000E+02
4949000000.000000      7.021484000000000E-01      7.400635000000000E+00      1.247025000000000E-01     -1.616328000000000E+02
4950000000.000000      7.062988000000000E-01      7.526855000000000E+00      1.219711000000000E-01     -1.606094000000000E+02
4951000000.000000      7.038879000000000E-01      7.349854000000000E+00      1.196785000000000E-01     -1.596250000000000E+02
4952000000.000000      7.048340000000000E-01      7.132813000000000E+00      1.171074000000000E-01     -1.582500000000000E+02
4953000000.000000      7.036133000000000E-01      6.977539000000000E+00      1.153374000000000E-01     -1.565703000000000E+02
4954000000.000000      7.081299000000000E-01      6.907471000000000E+00      1.130257000000000E-01     -1.551719000000000E+02
