! Network Analyzer HP8722D
! Hewlett-Packard
! Data name: Linha & Wilkinson
! Saver's name: Rodrigo Anjos
! Comments: Teste da utilização de aquisição
continua pelo VNA HP8722D
! Time and date: 22/5/2025 08:10
!              Frequency                     S11                                                   S21                                                   S12                                                   S22
# HZ  S  MA R 50
4800000000.000000      6.466370000000000E-01      1.032422000000000E+01      4.722443000000000E-01     -9.384766000000000E+01
4801000000.000000      6.461487000000000E-01      1.039990000000000E+01      4.750824000000000E-01     -9.459375000000000E+01
4802000000.000000      6.438293000000000E-01      1.027588000000000E+01      4.773712000000000E-01     -9.509375000000000E+01
4803000000.000000      6.421509000000000E-01      1.023926000000000E+01      4.802551000000000E-01     -9.576172000000000E+01
4804000000.000000      6.401062000000000E-01      1.016895000000000E+01      4.804993000000000E-01     -9.666016000000000E+01
4805000000.000000      6.411438000000000E-01      1.010010000000000E+01      4.828949000000000E-01     -9.735155000000000E+01
4806000000.000000      6.371460000000000E-01      1.021729000000000E+01      4.850616000000000E-01     -9.833593000000000E+01
4807000000.000000      6.342468000000000E-01      1.010449000000000E+01      4.861450000000000E-01     -9.925781000000000E+01
4808000000.000000      6.336365000000000E-01      1.024170000000000E+01      4.886475000000000E-01     -9.964062000000000E+01
4809000000.000000      6.309509000000000E-01      1.040918000000000E+01      4.882202000000000E-01     -1.005078000000000E+02
4810000000.000000      6.307678000000000E-01      1.050830000000000E+01      4.918518000000000E-01     -1.012226000000000E+02
4811000000.000000      6.288147000000000E-01      1.032129000000000E+01      4.921570000000000E-01     -1.020195000000000E+02
4812000000.000000      6.301575000000000E-01      1.055615000000000E+01      4.924927000000000E-01     -1.028984000000000E+02
4813000000.000000      6.253662000000000E-01      1.065527000000000E+01      4.937744000000000E-01     -1.037305000000000E+02
4814000000.000000      6.264954000000000E-01      1.067725000000000E+01      4.953766000000000E-01     -1.042656000000000E+02
4815000000.000000      6.233215000000000E-01      1.064697000000000E+01      4.952240000000000E-01     -1.052266000000000E+02
4816000000.000000      6.227417000000000E-01      1.084619000000000E+01      4.969635000000000E-01     -1.058242000000000E+02
4817000000.000000      6.212463000000000E-01      1.081445000000000E+01      4.963379000000000E-01     -1.067031000000000E+02
4818000000.000000      6.223755000000000E-01      1.085156000000000E+01      4.969788000000000E-01     -1.075195000000000E+02
4819000000.000000      6.196899000000000E-01      1.093945000000000E+01      4.974823000000000E-01     -1.082461000000000E+02
4820000000.000000      6.182861000000000E-01      1.121826000000000E+01      4.992218000000000E-01     -1.086016000000000E+02
4821000000.000000      6.173401000000000E-01      1.099023000000000E+01      4.989014000000000E-01     -1.096094000000000E+02
4822000000.000000      6.159058000000000E-01      1.113428000000000E+01      4.965820000000000E-01     -1.103125000000000E+02
4823000000.000000      6.156921000000000E-01      1.130078000000000E+01      4.995422000000000E-01     -1.112930000000000E+02
4824000000.000000      6.138306000000000E-01      1.159180000000000E+01      4.978790000000000E-01     -1.118203000000000E+02
4825000000.000000      6.142273000000000E-01      1.152295000000000E+01      4.998779000000000E-01     -1.126328000000000E+02
4826000000.000000      6.136169000000000E-01      1.142432000000000E+01      5.002441000000000E-01     -1.135352000000000E+02
4827000000.000000      6.132202000000000E-01      1.169873000000000E+01      4.998932000000000E-01     -1.139180000000000E+02
4828000000.000000      6.142578000000000E-01      1.185400000000000E+01      4.981995000000000E-01     -1.148984000000000E+02
4829000000.000000      6.114197000000000E-01      1.203809000000000E+01      5.012817000000000E-01     -1.156602000000000E+02
4830000000.000000      6.118774000000000E-01      1.200781000000000E+01      5.014343000000000E-01     -1.165508000000000E+02
4831000000.000000      6.119080000000000E-01      1.206152000000000E+01      5.007629000000000E-01     -1.170898000000000E+02
4832000000.000000      6.111450000000000E-01      1.250342000000000E+01      4.992676000000000E-01     -1.177734000000000E+02
4833000000.000000      6.102600000000000E-01      1.244336000000000E+01      4.998322000000000E-01     -1.185820000000000E+02
4834000000.000000      6.107788000000000E-01      1.250488000000000E+01      4.999084000000000E-01     -1.194414000000000E+02
4835000000.000000      6.128845000000000E-01      1.248584000000000E+01      4.990082000000000E-01     -1.201367000000000E+02
4836000000.000000      6.122437000000000E-01      1.284424000000000E+01      4.979095000000000E-01     -1.209141000000000E+02
4837000000.000000      6.113892000000000E-01      1.292383000000000E+01      4.976349000000000E-01     -1.220078000000000E+02
4838000000.000000      6.131592000000000E-01      1.302832000000000E+01      4.981842000000000E-01     -1.224844000000000E+02
4839000000.000000      6.162109000000000E-01      1.318750000000000E+01      4.967041000000000E-01     -1.231328000000000E+02
4840000000.000000      6.146545000000000E-01      1.307910000000000E+01      4.963837000000000E-01     -1.240625000000000E+02
4841000000.000000      6.143799000000000E-01      1.333301000000000E+01      4.958801000000000E-01     -1.248438000000000E+02
4842000000.000000      6.157837000000000E-01      1.340430000000000E+01      4.948578000000000E-01     -1.257227000000000E+02
4843000000.000000      6.182251000000000E-01      1.341113000000000E+01      4.944916000000000E-01     -1.267695000000000E+02
4844000000.000000      6.155701000000000E-01      1.339893000000000E+01      4.929810000000000E-01     -1.273555000000000E+02
4845000000.000000      6.178894000000000E-01      1.374658000000000E+01      4.926453000000000E-01     -1.283437000000000E+02
4846000000.000000      6.170349000000000E-01      1.370264000000000E+01      4.915314000000000E-01     -1.289844000000000E+02
4847000000.000000      6.192627000000000E-01      1.392920000000000E+01      4.908752000000000E-01     -1.299609000000000E+02
4848000000.000000      6.189575000000000E-01      1.379883000000000E+01      4.873047000000000E-01     -1.305938000000000E+02
4849000000.000000      6.199646000000000E-01      1.379590000000000E+01      4.871216000000000E-01     -1.315391000000000E+02
4850000000.000000      6.206360000000000E-01      1.390039000000000E+01      4.848175000000000E-01     -1.324375000000000E+02
4851000000.000000      6.217041000000000E-01      1.410889000000000E+01      4.838104000000000E-01     -1.333828000000000E+02
4852000000.000000      6.221313000000000E-01      1.409229000000000E+01      4.797821000000000E-01     -1.341094000000000E+02
4853000000.000000      6.246338000000000E-01      1.407324000000000E+01      4.771881000000000E-01     -1.347891000000000E+02
4854000000.000000      6.250916000000000E-01      1.418018000000000E+01      4.756012000000000E-01     -1.359766000000000E+02
4855000000.000000      6.272583000000000E-01      1.414063000000000E+01      4.737396000000000E-01     -1.368594000000000E+02
4856000000.000000      6.265564000000000E-01      1.401709000000000E+01      4.701691000000000E-01     -1.374844000000000E+02
4857000000.000000      6.277466000000000E-01      1.420801000000000E+01      4.697113000000000E-01     -1.383047000000000E+02
4858000000.000000      6.299744000000000E-01      1.432178000000000E+01      4.656982000000000E-01     -1.391953000000000E+02
4859000000.000000      6.309814000000000E-01      1.426709000000000E+01      4.642792000000000E-01     -1.400078000000000E+02
4860000000.000000      6.330261000000000E-01      1.443994000000000E+01      4.600220000000000E-01     -1.409688000000000E+02
4861000000.000000      6.322632000000000E-01      1.431787000000000E+01      4.566040000000000E-01     -1.417109000000000E+02
4862000000.000000      6.336670000000000E-01      1.452246000000000E+01      4.534454000000000E-01     -1.424219000000000E+02
4863000000.000000      6.347046000000000E-01      1.440674000000000E+01      4.487152000000000E-01     -1.434297000000000E+02
4864000000.000000      6.368103000000000E-01      1.432715000000000E+01      4.461975000000000E-01     -1.439375000000000E+02
4865000000.000000      6.369629000000000E-01      1.431201000000000E+01      4.423676000000000E-01     -1.448594000000000E+02
4866000000.000000      6.394653000000000E-01      1.424902000000000E+01      4.376678000000000E-01     -1.458516000000000E+02
4867000000.000000      6.383057000000000E-01      1.436279000000000E+01      4.346619000000000E-01     -1.464844000000000E+02
4868000000.000000      6.424561000000000E-01      1.410059000000000E+01      4.309082000000000E-01     -1.472188000000000E+02
4869000000.000000      6.445007000000000E-01      1.424512000000000E+01      4.264374000000000E-01     -1.479766000000000E+02
4870000000.000000      6.435242000000000E-01      1.439746000000000E+01      4.224548000000000E-01     -1.487109000000000E+02
4871000000.000000      6.456604000000000E-01      1.407617000000000E+01      4.187622000000000E-01     -1.495547000000000E+02
4872000000.000000      6.480103000000000E-01      1.430811000000000E+01      4.137726000000000E-01     -1.500234000000000E+02
4873000000.000000      6.493225000000000E-01      1.432324000000000E+01      4.093170000000000E-01     -1.508906000000000E+02
4874000000.000000      6.507263000000000E-01      1.432178000000000E+01      4.060211000000000E-01     -1.514531000000000E+02
4875000000.000000      6.535339000000000E-01      1.394824000000000E+01      3.990631000000000E-01     -1.522109000000000E+02
4876000000.000000      6.517029000000000E-01      1.412842000000000E+01      3.967133000000000E-01     -1.529375000000000E+02
4877000000.000000      6.536865000000000E-01      1.399512000000000E+01      3.911438000000000E-01     -1.533125000000000E+02
4878000000.000000      6.547546000000000E-01      1.390723000000000E+01      3.874664000000000E-01     -1.540078000000000E+02
4879000000.000000      6.570435000000000E-01      1.396484000000000E+01      3.818817000000000E-01     -1.545625000000000E+02
4880000000.000000      6.584473000000000E-01      1.391260000000000E+01      3.785095000000000E-01     -1.551875000000000E+02
4881000000.000000      6.576233000000000E-01      1.383984000000000E+01      3.748932000000000E-01     -1.556797000000000E+02
4882000000.000000      6.603394000000000E-01      1.363916000000000E+01      3.697357000000000E-01     -1.564922000000000E+02
4883000000.000000      6.605530000000000E-01      1.328613000000000E+01      3.656464000000000E-01     -1.569297000000000E+02
4884000000.000000      6.638489000000000E-01      1.347998000000000E+01      3.607635000000000E-01     -1.574766000000000E+02
4885000000.000000      6.639404000000000E-01      1.355811000000000E+01      3.567505000000000E-01     -1.576797000000000E+02
4886000000.000000      6.653137000000000E-01      1.360645000000000E+01      3.532257000000000E-01     -1.582656000000000E+02
4887000000.000000      6.664124000000000E-01      1.352100000000000E+01      3.489380000000000E-01     -1.587812000000000E+02
4888000000.000000      6.651306000000000E-01      1.312158000000000E+01      3.450012000000000E-01     -1.591953000000000E+02
4889000000.000000      6.680603000000000E-01      1.322461000000000E+01      3.410492000000000E-01     -1.594766000000000E+02
4890000000.000000      6.668701000000000E-01      1.319141000000000E+01      3.349609000000000E-01     -1.603516000000000E+02
4891000000.000000      6.699219000000000E-01      1.308154000000000E+01      3.315125000000000E-01     -1.605859000000000E+02
4892000000.000000      6.711731000000000E-01      1.282617000000000E+01      3.279419000000000E-01     -1.607500000000000E+02
4893000000.000000      6.734009000000000E-01      1.295117000000000E+01      3.236542000000000E-01     -1.614375000000000E+02
4894000000.000000      6.715698000000000E-01      1.267676000000000E+01      3.198242000000000E-01     -1.616328000000000E+02
4895000000.000000      6.738892000000000E-01      1.271094000000000E+01      3.172150000000000E-01     -1.620625000000000E+02
4896000000.000000      6.739502000000000E-01      1.273584000000000E+01      3.128204000000000E-01     -1.622969000000000E+02
4897000000.000000      6.750793000000000E-01      1.253662000000000E+01      3.080597000000000E-01     -1.628515000000000E+02
4898000000.000000      6.752319000000000E-01      1.265332000000000E+01      3.047638000000000E-01     -1.631406000000000E+02
4899000000.000000      6.779785000000000E-01      1.232080000000000E+01      3.010406000000000E-01     -1.636094000000000E+02
4900000000.000000      6.783447000000000E-01      1.213428000000000E+01      2.981110000000000E-01     -1.638438000000000E+02
4901000000.000000      6.801453000000000E-01      1.202295000000000E+01      2.943115000000000E-01     -1.640781000000000E+02
4902000000.000000      6.804810000000000E-01      1.202441000000000E+01      2.915955000000000E-01     -1.643906000000000E+02
4903000000.000000      6.797180000000000E-01      1.204639000000000E+01      2.860107000000000E-01     -1.647734000000000E+02
4904000000.000000      6.813354000000000E-01      1.177734000000000E+01      2.829590000000000E-01     -1.652891000000000E+02
4905000000.000000      6.806030000000000E-01      1.172363000000000E+01      2.800293000000000E-01     -1.655859000000000E+02
4906000000.000000      6.814575000000000E-01      1.165234000000000E+01      2.761383000000000E-01     -1.656563000000000E+02
4907000000.000000      6.827393000000000E-01      1.151465000000000E+01      2.736511000000000E-01     -1.661406000000000E+02
4908000000.000000      6.834717000000000E-01      1.140479000000000E+01      2.700195000000000E-01     -1.664141000000000E+02
4909000000.000000      6.839600000000000E-01      1.142676000000000E+01      2.658386000000000E-01     -1.668750000000000E+02
4910000000.000000      6.835022000000000E-01      1.143652000000000E+01      2.625427000000000E-01     -1.669531000000000E+02
4911000000.000000      6.861877000000000E-01      1.110010000000000E+01      2.593994000000000E-01     -1.672266000000000E+02
4912000000.000000      6.865234000000000E-01      1.107813000000000E+01      2.554321000000000E-01     -1.676250000000000E+02
4913000000.000000      6.871338000000000E-01      1.084863000000000E+01      2.523804000000000E-01     -1.676953000000000E+02
4914000000.000000      6.882935000000000E-01      1.071680000000000E+01      2.486496000000000E-01     -1.681094000000000E+02
4915000000.000000      6.870728000000000E-01      1.074561000000000E+01      2.444153000000000E-01     -1.683828000000000E+02
4916000000.000000      6.898804000000000E-01      1.077344000000000E+01      2.417374000000000E-01     -1.687969000000000E+02
4917000000.000000      6.911316000000000E-01      1.045459000000000E+01      2.372513000000000E-01     -1.690547000000000E+02
4918000000.000000      6.886902000000000E-01      1.051074000000000E+01      2.338715000000000E-01     -1.692266000000000E+02
4919000000.000000      6.887512000000000E-01      1.060303000000000E+01      2.306900000000000E-01     -1.691797000000000E+02
4920000000.000000      6.911621000000000E-01      1.022266000000000E+01      2.263794000000000E-01     -1.696719000000000E+02
4921000000.000000      6.903381000000000E-01      1.034326000000000E+01      2.232895000000000E-01     -1.697734000000000E+02
4922000000.000000      6.928406000000000E-01      1.007129000000000E+01      2.194366000000000E-01     -1.698750000000000E+02
4923000000.000000      6.917725000000000E-01      1.014697000000000E+01      2.153549000000000E-01     -1.700703000000000E+02
4924000000.000000      6.932678000000000E-01      9.871094000000000E+00      2.119141000000000E-01     -1.704375000000000E+02
4925000000.000000      6.929016000000000E-01      9.861328000000000E+00      2.081070000000000E-01     -1.703750000000000E+02
4926000000.000000      6.943054000000000E-01      9.710449000000000E+00      2.046814000000000E-01     -1.705234000000000E+02
4927000000.000000      6.912842000000000E-01      9.633301000000000E+00      2.007751000000000E-01     -1.707734000000000E+02
4928000000.000000      6.958923000000000E-01      9.396973000000000E+00      1.972198000000000E-01     -1.708281000000000E+02
4929000000.000000      6.944275000000000E-01      9.369629000000000E+00      1.932144000000000E-01     -1.707891000000000E+02
4930000000.000000      6.953430000000000E-01      9.235352000000000E+00      1.896057000000000E-01     -1.709063000000000E+02
4931000000.000000      6.961975000000000E-01      8.982422000000000E+00      1.863480000000000E-01     -1.706953000000000E+02
4932000000.000000      6.966553000000000E-01      9.108887000000000E+00      1.819382000000000E-01     -1.706172000000000E+02
4933000000.000000      6.953735000000000E-01      9.110352000000000E+00      1.774673000000000E-01     -1.706563000000000E+02
4934000000.000000      6.982727000000000E-01      8.657227000000000E+00      1.748123000000000E-01     -1.707187000000000E+02
4935000000.000000      6.994934000000000E-01      8.708984000000000E+00      1.714172000000000E-01     -1.702188000000000E+02
4936000000.000000      6.990356000000000E-01      8.732422000000000E+00      1.679459000000000E-01     -1.701172000000000E+02
4937000000.000000      6.991577000000000E-01      8.571777000000000E+00      1.638565000000000E-01     -1.700156000000000E+02
4938000000.000000      6.969910000000000E-01      8.527832000000000E+00      1.600952000000000E-01     -1.694687000000000E+02
4939000000.000000      6.975708000000000E-01      8.479980000000000E+00      1.562347000000000E-01     -1.691484000000000E+02
4940000000.000000      7.011414000000000E-01      8.232422000000000E+00      1.529617000000000E-01     -1.689062000000000E+02
4941000000.000000      7.006226000000000E-01      8.120117000000000E+00      1.496658000000000E-01     -1.682188000000000E+02
4942000000.000000      7.021484000000000E-01      8.195801000000000E+00      1.457062000000000E-01     -1.677266000000000E+02
4943000000.000000      7.013245000000000E-01      8.180664000000000E+00      1.431046000000000E-01     -1.671484000000000E+02
4944000000.000000      7.007446000000000E-01      7.794678000000000E+00      1.395264000000000E-01     -1.665000000000000E+02
4945000000.000000      7.021179000000000E-01      7.665527000000000E+00      1.362228000000000E-01     -1.657187000000000E+02
4946000000.000000      7.042542000000000E-01      7.634033000000000E+00      1.332626000000000E-01     -1.649219000000000E+02
4947000000.000000      7.043762000000000E-01      7.647705000000000E+00      1.299973000000000E-01     -1.637656000000000E+02
4948000000.000000      7.042542000000000E-01      7.555664000000000E+00      1.274719000000000E-01     -1.629062000000000E+02
4949000000.000000      7.060852000000000E-01      7.618896000000000E+00      1.244698000000000E-01     -1.615781000000000E+02
4950000000.000000      7.059021000000000E-01      7.466553000000000E+00      1.216621000000000E-01     -1.605547000000000E+02
4951000000.000000      7.046204000000000E-01      7.234375000000000E+00      1.198616000000000E-01     -1.594687000000000E+02
4952000000.000000      7.044373000000000E-01      7.106689000000000E+00      1.171341000000000E-01     -1.580156000000000E+02
4953000000.000000      7.059326000000000E-01      7.076416000000000E+00      1.150169000000000E-01     -1.568047000000000E+02
4954000000.000000      7.078552000000000E-01      6.900635000000000E+00      1.130753000000000E-01     -1.552266000000000E+02
