! Network Analyzer HP8722D
! Hewlett-Packard
! Data name: Linha & Wilkinson
! Saver's name: Rodrigo Anjos
! Comments: Teste da utilização de aquisição
continua pelo VNA HP8722D
! Time and date: 22/5/2025 07:15
!              Frequency                     S11                                                   S21                                                   S12                                                   S22
# HZ  S  MA R 50
4800000000.000000      6.372070000000000E-01      1.086377000000000E+01      4.670563000000000E-01     -9.368359000000000E+01
4801000000.000000      6.353760000000000E-01      1.093506000000000E+01      4.681854000000000E-01     -9.442186000000000E+01
4802000000.000000      6.347046000000000E-01      1.081592000000000E+01      4.706573000000000E-01     -9.501171000000000E+01
4803000000.000000      6.322937000000000E-01      1.075391000000000E+01      4.727325000000000E-01     -9.585546000000000E+01
4804000000.000000      6.307678000000000E-01      1.086133000000000E+01      4.744415000000000E-01     -9.642967000000000E+01
4805000000.000000      6.314087000000000E-01      1.077051000000000E+01      4.766083000000000E-01     -9.745312000000000E+01
4806000000.000000      6.266785000000000E-01      1.094482000000000E+01      4.762268000000000E-01     -9.816795000000000E+01
4807000000.000000      6.260071000000000E-01      1.071436000000000E+01      4.788818000000000E-01     -9.893749000000000E+01
4808000000.000000      6.223145000000000E-01      1.077881000000000E+01      4.796448000000000E-01     -9.957811000000000E+01
4809000000.000000      6.210327000000000E-01      1.097363000000000E+01      4.810486000000000E-01     -1.007187000000000E+02
4810000000.000000      6.218262000000000E-01      1.097900000000000E+01      4.822540000000000E-01     -1.009648000000000E+02
4811000000.000000      6.193848000000000E-01      1.096289000000000E+01      4.854431000000000E-01     -1.017891000000000E+02
4812000000.000000      6.192932000000000E-01      1.130469000000000E+01      4.847412000000000E-01     -1.025859000000000E+02
4813000000.000000      6.183167000000000E-01      1.126074000000000E+01      4.855957000000000E-01     -1.033437000000000E+02
4814000000.000000      6.151733000000000E-01      1.127295000000000E+01      4.863739000000000E-01     -1.041680000000000E+02
4815000000.000000      6.138916000000000E-01      1.131152000000000E+01      4.870453000000000E-01     -1.048867000000000E+02
4816000000.000000      6.143494000000000E-01      1.147217000000000E+01      4.891052000000000E-01     -1.055039000000000E+02
4817000000.000000      6.124878000000000E-01      1.149561000000000E+01      4.889221000000000E-01     -1.064414000000000E+02
4818000000.000000      6.097412000000000E-01      1.140771000000000E+01      4.891663000000000E-01     -1.070586000000000E+02
4819000000.000000      6.096802000000000E-01      1.152051000000000E+01      4.894562000000000E-01     -1.079492000000000E+02
4820000000.000000      6.077576000000000E-01      1.164404000000000E+01      4.905548000000000E-01     -1.085664000000000E+02
4821000000.000000      6.078796000000000E-01      1.172510000000000E+01      4.915161000000000E-01     -1.096133000000000E+02
4822000000.000000      6.061401000000000E-01      1.157129000000000E+01      4.889679000000000E-01     -1.101172000000000E+02
4823000000.000000      6.073914000000000E-01      1.179639000000000E+01      4.900818000000000E-01     -1.112852000000000E+02
4824000000.000000      6.038208000000000E-01      1.207910000000000E+01      4.913635000000000E-01     -1.118555000000000E+02
4825000000.000000      6.035461000000000E-01      1.212744000000000E+01      4.923096000000000E-01     -1.123359000000000E+02
4826000000.000000      6.049500000000000E-01      1.207227000000000E+01      4.926147000000000E-01     -1.131445000000000E+02
4827000000.000000      6.028137000000000E-01      1.230713000000000E+01      4.931946000000000E-01     -1.137812000000000E+02
4828000000.000000      6.026306000000000E-01      1.246631000000000E+01      4.919739000000000E-01     -1.147383000000000E+02
4829000000.000000      6.034546000000000E-01      1.267676000000000E+01      4.932251000000000E-01     -1.154961000000000E+02
4830000000.000000      6.036987000000000E-01      1.264795000000000E+01      4.920044000000000E-01     -1.161406000000000E+02
4831000000.000000      6.026306000000000E-01      1.265869000000000E+01      4.931030000000000E-01     -1.172422000000000E+02
4832000000.000000      6.007690000000000E-01      1.294434000000000E+01      4.925079000000000E-01     -1.176719000000000E+02
4833000000.000000      6.007080000000000E-01      1.292676000000000E+01      4.906311000000000E-01     -1.183398000000000E+02
4834000000.000000      6.019897000000000E-01      1.308447000000000E+01      4.917450000000000E-01     -1.192656000000000E+02
4835000000.000000      6.022034000000000E-01      1.309424000000000E+01      4.912109000000000E-01     -1.199492000000000E+02
4836000000.000000      6.024475000000000E-01      1.341699000000000E+01      4.908905000000000E-01     -1.209101000000000E+02
4837000000.000000      6.017151000000000E-01      1.364355000000000E+01      4.899139000000000E-01     -1.218125000000000E+02
4838000000.000000      6.028137000000000E-01      1.358447000000000E+01      4.905243000000000E-01     -1.223086000000000E+02
4839000000.000000      6.053772000000000E-01      1.369580000000000E+01      4.891663000000000E-01     -1.230547000000000E+02
4840000000.000000      6.045532000000000E-01      1.358594000000000E+01      4.889526000000000E-01     -1.239297000000000E+02
4841000000.000000      6.031494000000000E-01      1.388232000000000E+01      4.888458000000000E-01     -1.248984000000000E+02
4842000000.000000      6.040039000000000E-01      1.399365000000000E+01      4.879150000000000E-01     -1.255508000000000E+02
4843000000.000000      6.074219000000000E-01      1.407617000000000E+01      4.887543000000000E-01     -1.264570000000000E+02
4844000000.000000      6.044617000000000E-01      1.411865000000000E+01      4.861450000000000E-01     -1.273164000000000E+02
4845000000.000000      6.074524000000000E-01      1.425049000000000E+01      4.845581000000000E-01     -1.278906000000000E+02
4846000000.000000      6.071472000000000E-01      1.430420000000000E+01      4.833832000000000E-01     -1.289453000000000E+02
4847000000.000000      6.089478000000000E-01      1.434375000000000E+01      4.818726000000000E-01     -1.296875000000000E+02
4848000000.000000      6.079407000000000E-01      1.441504000000000E+01      4.810028000000000E-01     -1.306172000000000E+02
4849000000.000000      6.103516000000000E-01      1.446191000000000E+01      4.788361000000000E-01     -1.313281000000000E+02
4850000000.000000      6.111145000000000E-01      1.450977000000000E+01      4.773865000000000E-01     -1.322031000000000E+02
4851000000.000000      6.124268000000000E-01      1.463477000000000E+01      4.765778000000000E-01     -1.333203000000000E+02
4852000000.000000      6.137390000000000E-01      1.468555000000000E+01      4.734039000000000E-01     -1.339453000000000E+02
4853000000.000000      6.138000000000000E-01      1.468457000000000E+01      4.697723000000000E-01     -1.349375000000000E+02
4854000000.000000      6.153259000000000E-01      1.480957000000000E+01      4.680176000000000E-01     -1.354453000000000E+02
4855000000.000000      6.159973000000000E-01      1.469824000000000E+01      4.668884000000000E-01     -1.365547000000000E+02
4856000000.000000      6.189270000000000E-01      1.474463000000000E+01      4.623413000000000E-01     -1.374531000000000E+02
4857000000.000000      6.187134000000000E-01      1.491650000000000E+01      4.615631000000000E-01     -1.381250000000000E+02
4858000000.000000      6.203613000000000E-01      1.496338000000000E+01      4.598846000000000E-01     -1.391250000000000E+02
4859000000.000000      6.225891000000000E-01      1.471045000000000E+01      4.550781000000000E-01     -1.401094000000000E+02
4860000000.000000      6.219177000000000E-01      1.478467000000000E+01      4.519501000000000E-01     -1.406094000000000E+02
4861000000.000000      6.231995000000000E-01      1.493164000000000E+01      4.491577000000000E-01     -1.417031000000000E+02
4862000000.000000      6.231689000000000E-01      1.491650000000000E+01      4.468536000000000E-01     -1.423984000000000E+02
4863000000.000000      6.264343000000000E-01      1.495068000000000E+01      4.414673000000000E-01     -1.432969000000000E+02
4864000000.000000      6.268921000000000E-01      1.490137000000000E+01      4.394684000000000E-01     -1.439844000000000E+02
4865000000.000000      6.267700000000000E-01      1.490967000000000E+01      4.344177000000000E-01     -1.445547000000000E+02
4866000000.000000      6.285400000000000E-01      1.480371000000000E+01      4.312439000000000E-01     -1.457969000000000E+02
4867000000.000000      6.305542000000000E-01      1.491357000000000E+01      4.289703000000000E-01     -1.464688000000000E+02
4868000000.000000      6.313171000000000E-01      1.474365000000000E+01      4.250641000000000E-01     -1.470156000000000E+02
4869000000.000000      6.329346000000000E-01      1.477930000000000E+01      4.204102000000000E-01     -1.478750000000000E+02
4870000000.000000      6.344910000000000E-01      1.477344000000000E+01      4.158020000000000E-01     -1.485000000000000E+02
4871000000.000000      6.345520000000000E-01      1.461182000000000E+01      4.118347000000000E-01     -1.493047000000000E+02
4872000000.000000      6.365356000000000E-01      1.477246000000000E+01      4.081268000000000E-01     -1.498437000000000E+02
4873000000.000000      6.380310000000000E-01      1.478320000000000E+01      4.029846000000000E-01     -1.507500000000000E+02
4874000000.000000      6.387939000000000E-01      1.475439000000000E+01      3.983612000000000E-01     -1.512812000000000E+02
4875000000.000000      6.404114000000000E-01      1.450586000000000E+01      3.945313000000000E-01     -1.518906000000000E+02
4876000000.000000      6.400757000000000E-01      1.481348000000000E+01      3.916321000000000E-01     -1.526250000000000E+02
4877000000.000000      6.411133000000000E-01      1.430957000000000E+01      3.853302000000000E-01     -1.532891000000000E+02
4878000000.000000      6.439819000000000E-01      1.444531000000000E+01      3.822479000000000E-01     -1.539766000000000E+02
4879000000.000000      6.452942000000000E-01      1.446729000000000E+01      3.775177000000000E-01     -1.544219000000000E+02
4880000000.000000      6.473999000000000E-01      1.437256000000000E+01      3.732605000000000E-01     -1.549375000000000E+02
4881000000.000000      6.480408000000000E-01      1.428760000000000E+01      3.688507000000000E-01     -1.555547000000000E+02
4882000000.000000      6.491394000000000E-01      1.417334000000000E+01      3.649750000000000E-01     -1.561406000000000E+02
4883000000.000000      6.512451000000000E-01      1.409229000000000E+01      3.593750000000000E-01     -1.565859000000000E+02
4884000000.000000      6.520386000000000E-01      1.418701000000000E+01      3.551636000000000E-01     -1.571875000000000E+02
4885000000.000000      6.508789000000000E-01      1.414746000000000E+01      3.522034000000000E-01     -1.574609000000000E+02
4886000000.000000      6.548462000000000E-01      1.394434000000000E+01      3.480530000000000E-01     -1.581953000000000E+02
4887000000.000000      6.552734000000000E-01      1.390967000000000E+01      3.447876000000000E-01     -1.586562000000000E+02
4888000000.000000      6.562500000000000E-01      1.369971000000000E+01      3.395996000000000E-01     -1.590703000000000E+02
4889000000.000000      6.560974000000000E-01      1.359521000000000E+01      3.351593000000000E-01     -1.592578000000000E+02
4890000000.000000      6.554871000000000E-01      1.360791000000000E+01      3.308716000000000E-01     -1.602734000000000E+02
4891000000.000000      6.573181000000000E-01      1.363232000000000E+01      3.264465000000000E-01     -1.604219000000000E+02
4892000000.000000      6.581421000000000E-01      1.331104000000000E+01      3.229370000000000E-01     -1.606016000000000E+02
4893000000.000000      6.597900000000000E-01      1.327832000000000E+01      3.188171000000000E-01     -1.612734000000000E+02
4894000000.000000      6.596375000000000E-01      1.325342000000000E+01      3.132324000000000E-01     -1.614922000000000E+02
4895000000.000000      6.606750000000000E-01      1.306543000000000E+01      3.121796000000000E-01     -1.620625000000000E+02
4896000000.000000      6.655273000000000E-01      1.307373000000000E+01      3.078156000000000E-01     -1.622109000000000E+02
4897000000.000000      6.604614000000000E-01      1.316553000000000E+01      3.040619000000000E-01     -1.625703000000000E+02
4898000000.000000      6.657715000000000E-01      1.291162000000000E+01      3.001404000000000E-01     -1.628594000000000E+02
4899000000.000000      6.661682000000000E-01      1.287988000000000E+01      2.958984000000000E-01     -1.634219000000000E+02
4900000000.000000      6.661072000000000E-01      1.258740000000000E+01      2.928467000000000E-01     -1.636953000000000E+02
4901000000.000000      6.675720000000000E-01      1.263135000000000E+01      2.894440000000000E-01     -1.640781000000000E+02
4902000000.000000      6.661682000000000E-01      1.240039000000000E+01      2.866211000000000E-01     -1.641562000000000E+02
4903000000.000000      6.672363000000000E-01      1.247754000000000E+01      2.818298000000000E-01     -1.645234000000000E+02
4904000000.000000      6.690674000000000E-01      1.236768000000000E+01      2.789459000000000E-01     -1.650234000000000E+02
4905000000.000000      6.698303000000000E-01      1.231836000000000E+01      2.754517000000000E-01     -1.653516000000000E+02
4906000000.000000      6.714478000000000E-01      1.214355000000000E+01      2.713318000000000E-01     -1.654063000000000E+02
4907000000.000000      6.701965000000000E-01      1.216162000000000E+01      2.679596000000000E-01     -1.659375000000000E+02
4908000000.000000      6.696167000000000E-01      1.193213000000000E+01      2.663269000000000E-01     -1.663125000000000E+02
4909000000.000000      6.718445000000000E-01      1.185791000000000E+01      2.615509000000000E-01     -1.666172000000000E+02
4910000000.000000      6.743774000000000E-01      1.178418000000000E+01      2.583771000000000E-01     -1.668984000000000E+02
4911000000.000000      6.732483000000000E-01      1.176611000000000E+01      2.547607000000000E-01     -1.669922000000000E+02
4912000000.000000      6.737671000000000E-01      1.161621000000000E+01      2.512665000000000E-01     -1.674766000000000E+02
4913000000.000000      6.763000000000000E-01      1.153809000000000E+01      2.479935000000000E-01     -1.677578000000000E+02
4914000000.000000      6.742554000000000E-01      1.129785000000000E+01      2.443848000000000E-01     -1.679453000000000E+02
4915000000.000000      6.771240000000000E-01      1.123193000000000E+01      2.413101000000000E-01     -1.681719000000000E+02
4916000000.000000      6.770630000000000E-01      1.129639000000000E+01      2.375488000000000E-01     -1.688281000000000E+02
4917000000.000000      6.776123000000000E-01      1.119189000000000E+01      2.343292000000000E-01     -1.687656000000000E+02
4918000000.000000      6.787109000000000E-01      1.098877000000000E+01      2.301254000000000E-01     -1.690625000000000E+02
4919000000.000000      6.792603000000000E-01      1.103027000000000E+01      2.272415000000000E-01     -1.691015000000000E+02
4920000000.000000      6.792603000000000E-01      1.073730000000000E+01      2.233429000000000E-01     -1.696953000000000E+02
4921000000.000000      6.791077000000000E-01      1.070313000000000E+01      2.197418000000000E-01     -1.696406000000000E+02
4922000000.000000      6.790771000000000E-01      1.081836000000000E+01      2.164307000000000E-01     -1.698750000000000E+02
4923000000.000000      6.807251000000000E-01      1.042578000000000E+01      2.116165000000000E-01     -1.699531000000000E+02
4924000000.000000      6.846008000000000E-01      1.052490000000000E+01      2.087326000000000E-01     -1.702422000000000E+02
4925000000.000000      6.804199000000000E-01      1.033105000000000E+01      2.053452000000000E-01     -1.701797000000000E+02
4926000000.000000      6.834106000000000E-01      1.023340000000000E+01      2.021408000000000E-01     -1.703438000000000E+02
4927000000.000000      6.824341000000000E-01      1.001123000000000E+01      1.977081000000000E-01     -1.706328000000000E+02
4928000000.000000      6.851807000000000E-01      1.003857000000000E+01      1.940842000000000E-01     -1.706172000000000E+02
4929000000.000000      6.841125000000000E-01      9.916504000000000E+00      1.903763000000000E-01     -1.707500000000000E+02
4930000000.000000      6.870117000000000E-01      9.744629000000000E+00      1.868286000000000E-01     -1.706328000000000E+02
4931000000.000000      6.858521000000000E-01      9.756836000000000E+00      1.839142000000000E-01     -1.703438000000000E+02
4932000000.000000      6.847534000000000E-01      9.560547000000000E+00      1.792679000000000E-01     -1.706328000000000E+02
4933000000.000000      6.858215000000000E-01      9.549805000000000E+00      1.749420000000000E-01     -1.702344000000000E+02
4934000000.000000      6.891174000000000E-01      9.386230000000000E+00      1.724701000000000E-01     -1.703438000000000E+02
4935000000.000000      6.887817000000000E-01      9.308105000000000E+00      1.689987000000000E-01     -1.700234000000000E+02
4936000000.000000      6.860657000000000E-01      9.170410000000000E+00      1.648102000000000E-01     -1.698203000000000E+02
4937000000.000000      6.893921000000000E-01      8.964844000000000E+00      1.613007000000000E-01     -1.697109000000000E+02
4938000000.000000      6.870728000000000E-01      9.085449000000000E+00      1.579361000000000E-01     -1.692891000000000E+02
4939000000.000000      6.885986000000000E-01      8.858887000000000E+00      1.540298000000000E-01     -1.688281000000000E+02
4940000000.000000      6.896362000000000E-01      8.889160000000000E+00      1.502380000000000E-01     -1.687891000000000E+02
4941000000.000000      6.900635000000000E-01      8.701172000000000E+00      1.474762000000000E-01     -1.677656000000000E+02
4942000000.000000      6.893616000000000E-01      8.701172000000000E+00      1.437683000000000E-01     -1.674531000000000E+02
4943000000.000000      6.929321000000000E-01      8.395996000000000E+00      1.406021000000000E-01     -1.668359000000000E+02
4944000000.000000      6.897888000000000E-01      8.326172000000000E+00      1.374817000000000E-01     -1.661641000000000E+02
4945000000.000000      6.919861000000000E-01      8.398926000000000E+00      1.342697000000000E-01     -1.654766000000000E+02
4946000000.000000      6.938171000000000E-01      8.312500000000000E+00      1.312180000000000E-01     -1.646797000000000E+02
4947000000.000000      6.912842000000000E-01      8.010254000000000E+00      1.279221000000000E-01     -1.637500000000000E+02
4948000000.000000      6.934204000000000E-01      8.032227000000000E+00      1.257172000000000E-01     -1.627578000000000E+02
4949000000.000000      6.925659000000000E-01      7.979980000000000E+00      1.231308000000000E-01     -1.614844000000000E+02
4950000000.000000      6.927185000000000E-01      7.820801000000000E+00      1.206703000000000E-01     -1.604453000000000E+02
4951000000.000000      6.955872000000000E-01      7.712402000000000E+00      1.180344000000000E-01     -1.593906000000000E+02
4952000000.000000      6.947632000000000E-01      7.657471000000000E+00      1.151047000000000E-01     -1.580937000000000E+02
4953000000.000000      6.940918000000000E-01      7.561279000000000E+00      1.133385000000000E-01     -1.564687000000000E+02
4954000000.000000      6.977539000000000E-01      7.399170000000000E+00      1.118507000000000E-01     -1.548750000000000E+02
