! Network Analyzer HP8722D
! Hewlett-Packard
! Data name: Linha & Wilkinson
! Saver's name: Rodrigo Anjos
! Comments: Teste da utilização de aquisição
continua pelo VNA HP8722D
! Time and date: 22/5/2025 07:58
!              Frequency                     S11                                                   S21                                                   S12                                                   S22
# HZ  S  MA R 50
4800000000.000000      6.473389000000000E-01      1.029102000000000E+01      4.750061000000000E-01     -9.380859000000000E+01
4801000000.000000      6.461792000000000E-01      1.039404000000000E+01      4.763489000000000E-01     -9.446875000000000E+01
4802000000.000000      6.416626000000000E-01      1.033105000000000E+01      4.782257000000000E-01     -9.517969000000000E+01
4803000000.000000      6.411743000000000E-01      1.030762000000000E+01      4.817200000000000E-01     -9.591797000000000E+01
4804000000.000000      6.406860000000000E-01      1.019922000000000E+01      4.811707000000000E-01     -9.666016000000000E+01
4805000000.000000      6.406250000000000E-01      1.023926000000000E+01      4.838715000000000E-01     -9.756248000000000E+01
4806000000.000000      6.368103000000000E-01      1.018408000000000E+01      4.838104000000000E-01     -9.840233000000000E+01
4807000000.000000      6.341248000000000E-01      1.021143000000000E+01      4.861908000000000E-01     -9.924608000000000E+01
4808000000.000000      6.316223000000000E-01      1.010840000000000E+01      4.891663000000000E-01     -9.968359000000000E+01
4809000000.000000      6.313782000000000E-01      1.041895000000000E+01      4.893036000000000E-01     -1.004883000000000E+02
4810000000.000000      6.310730000000000E-01      1.026367000000000E+01      4.901581000000000E-01     -1.012656000000000E+02
4811000000.000000      6.296997000000000E-01      1.041895000000000E+01      4.908752000000000E-01     -1.021172000000000E+02
4812000000.000000      6.303711000000000E-01      1.073730000000000E+01      4.921570000000000E-01     -1.029023000000000E+02
4813000000.000000      6.260376000000000E-01      1.057568000000000E+01      4.924011000000000E-01     -1.036445000000000E+02
4814000000.000000      6.229858000000000E-01      1.072119000000000E+01      4.939575000000000E-01     -1.042226000000000E+02
4815000000.000000      6.223145000000000E-01      1.063574000000000E+01      4.956055000000000E-01     -1.050117000000000E+02
4816000000.000000      6.237793000000000E-01      1.074707000000000E+01      4.963379000000000E-01     -1.058008000000000E+02
4817000000.000000      6.220398000000000E-01      1.093262000000000E+01      4.958649000000000E-01     -1.065195000000000E+02
4818000000.000000      6.206665000000000E-01      1.077881000000000E+01      4.963531000000000E-01     -1.076914000000000E+02
4819000000.000000      6.190186000000000E-01      1.103271000000000E+01      4.977570000000000E-01     -1.082734000000000E+02
4820000000.000000      6.181030000000000E-01      1.107129000000000E+01      4.978790000000000E-01     -1.087812000000000E+02
4821000000.000000      6.191101000000000E-01      1.126904000000000E+01      4.994049000000000E-01     -1.095195000000000E+02
4822000000.000000      6.160278000000000E-01      1.118799000000000E+01      4.969330000000000E-01     -1.104023000000000E+02
4823000000.000000      6.166992000000000E-01      1.131445000000000E+01      4.997559000000000E-01     -1.110859000000000E+02
4824000000.000000      6.151123000000000E-01      1.151758000000000E+01      4.994202000000000E-01     -1.119492000000000E+02
4825000000.000000      6.154175000000000E-01      1.147754000000000E+01      4.994659000000000E-01     -1.126172000000000E+02
4826000000.000000      6.138000000000000E-01      1.160400000000000E+01      4.991455000000000E-01     -1.135430000000000E+02
4827000000.000000      6.128235000000000E-01      1.174268000000000E+01      4.997253000000000E-01     -1.140977000000000E+02
4828000000.000000      6.122437000000000E-01      1.199268000000000E+01      4.999237000000000E-01     -1.149141000000000E+02
4829000000.000000      6.130676000000000E-01      1.207520000000000E+01      5.001831000000000E-01     -1.155859000000000E+02
4830000000.000000      6.138306000000000E-01      1.206006000000000E+01      5.010071000000000E-01     -1.164687000000000E+02
4831000000.000000      6.128540000000000E-01      1.216699000000000E+01      5.003662000000000E-01     -1.171328000000000E+02
4832000000.000000      6.097717000000000E-01      1.237598000000000E+01      4.986877000000000E-01     -1.178320000000000E+02
4833000000.000000      6.115417000000000E-01      1.238428000000000E+01      4.990692000000000E-01     -1.186758000000000E+02
4834000000.000000      6.123352000000000E-01      1.237061000000000E+01      4.983673000000000E-01     -1.193633000000000E+02
4835000000.000000      6.125488000000000E-01      1.259717000000000E+01      4.984131000000000E-01     -1.201914000000000E+02
4836000000.000000      6.134949000000000E-01      1.284570000000000E+01      4.985504000000000E-01     -1.209492000000000E+02
4837000000.000000      6.119385000000000E-01      1.303760000000000E+01      4.968567000000000E-01     -1.218711000000000E+02
4838000000.000000      6.103516000000000E-01      1.310498000000000E+01      4.972992000000000E-01     -1.222930000000000E+02
4839000000.000000      6.147461000000000E-01      1.319141000000000E+01      4.964447000000000E-01     -1.234453000000000E+02
4840000000.000000      6.141968000000000E-01      1.293066000000000E+01      4.986877000000000E-01     -1.240977000000000E+02
4841000000.000000      6.127625000000000E-01      1.326025000000000E+01      4.978027000000000E-01     -1.251719000000000E+02
4842000000.000000      6.153870000000000E-01      1.335352000000000E+01      4.954681000000000E-01     -1.257539000000000E+02
4843000000.000000      6.179504000000000E-01      1.340332000000000E+01      4.951172000000000E-01     -1.265820000000000E+02
4844000000.000000      6.156006000000000E-01      1.335791000000000E+01      4.933167000000000E-01     -1.274492000000000E+02
4845000000.000000      6.175842000000000E-01      1.377246000000000E+01      4.915924000000000E-01     -1.282891000000000E+02
4846000000.000000      6.177979000000000E-01      1.363232000000000E+01      4.902649000000000E-01     -1.289766000000000E+02
4847000000.000000      6.185608000000000E-01      1.396631000000000E+01      4.899292000000000E-01     -1.298281000000000E+02
4848000000.000000      6.189270000000000E-01      1.391943000000000E+01      4.871826000000000E-01     -1.307500000000000E+02
4849000000.000000      6.195679000000000E-01      1.382861000000000E+01      4.871521000000000E-01     -1.316562000000000E+02
4850000000.000000      6.211548000000000E-01      1.390576000000000E+01      4.849396000000000E-01     -1.323906000000000E+02
4851000000.000000      6.217041000000000E-01      1.421191000000000E+01      4.836273000000000E-01     -1.331953000000000E+02
4852000000.000000      6.229858000000000E-01      1.418164000000000E+01      4.810486000000000E-01     -1.339688000000000E+02
4853000000.000000      6.247559000000000E-01      1.401270000000000E+01      4.775696000000000E-01     -1.350078000000000E+02
4854000000.000000      6.240234000000000E-01      1.418164000000000E+01      4.762421000000000E-01     -1.359062000000000E+02
4855000000.000000      6.255493000000000E-01      1.421484000000000E+01      4.738770000000000E-01     -1.367812000000000E+02
4856000000.000000      6.272888000000000E-01      1.422705000000000E+01      4.720917000000000E-01     -1.375078000000000E+02
4857000000.000000      6.288757000000000E-01      1.444287000000000E+01      4.692383000000000E-01     -1.383047000000000E+02
4858000000.000000      6.284485000000000E-01      1.426563000000000E+01      4.670258000000000E-01     -1.391484000000000E+02
4859000000.000000      6.318359000000000E-01      1.428760000000000E+01      4.635468000000000E-01     -1.400859000000000E+02
4860000000.000000      6.305847000000000E-01      1.443164000000000E+01      4.599457000000000E-01     -1.409219000000000E+02
4861000000.000000      6.320496000000000E-01      1.444531000000000E+01      4.568634000000000E-01     -1.417344000000000E+02
4862000000.000000      6.339722000000000E-01      1.454688000000000E+01      4.532471000000000E-01     -1.424141000000000E+02
4863000000.000000      6.358948000000000E-01      1.445215000000000E+01      4.504089000000000E-01     -1.433672000000000E+02
4864000000.000000      6.383667000000000E-01      1.436182000000000E+01      4.482117000000000E-01     -1.440938000000000E+02
4865000000.000000      6.371765000000000E-01      1.427100000000000E+01      4.419098000000000E-01     -1.448359000000000E+02
4866000000.000000      6.386414000000000E-01      1.425439000000000E+01      4.377899000000000E-01     -1.456640000000000E+02
4867000000.000000      6.387329000000000E-01      1.437695000000000E+01      4.347076000000000E-01     -1.466641000000000E+02
4868000000.000000      6.415100000000000E-01      1.431494000000000E+01      4.323273000000000E-01     -1.473906000000000E+02
4869000000.000000      6.437988000000000E-01      1.434912000000000E+01      4.279175000000000E-01     -1.480547000000000E+02
4870000000.000000      6.459351000000000E-01      1.424609000000000E+01      4.225311000000000E-01     -1.486406000000000E+02
4871000000.000000      6.441650000000000E-01      1.432715000000000E+01      4.192352000000000E-01     -1.495078000000000E+02
4872000000.000000      6.471863000000000E-01      1.421191000000000E+01      4.147339000000000E-01     -1.501719000000000E+02
4873000000.000000      6.484375000000000E-01      1.424512000000000E+01      4.103241000000000E-01     -1.509687000000000E+02
4874000000.000000      6.512146000000000E-01      1.422168000000000E+01      4.065857000000000E-01     -1.515000000000000E+02
4875000000.000000      6.508179000000000E-01      1.419824000000000E+01      4.013214000000000E-01     -1.519375000000000E+02
4876000000.000000      6.517944000000000E-01      1.421729000000000E+01      3.977966000000000E-01     -1.527656000000000E+02
4877000000.000000      6.536560000000000E-01      1.399219000000000E+01      3.929291000000000E-01     -1.533516000000000E+02
4878000000.000000      6.540833000000000E-01      1.393311000000000E+01      3.875885000000000E-01     -1.540937000000000E+02
4879000000.000000      6.555481000000000E-01      1.385645000000000E+01      3.830414000000000E-01     -1.544219000000000E+02
4880000000.000000      6.580200000000000E-01      1.368896000000000E+01      3.797607000000000E-01     -1.553047000000000E+02
4881000000.000000      6.573486000000000E-01      1.377686000000000E+01      3.753662000000000E-01     -1.557188000000000E+02
4882000000.000000      6.618347000000000E-01      1.372998000000000E+01      3.697510000000000E-01     -1.563672000000000E+02
4883000000.000000      6.582947000000000E-01      1.369971000000000E+01      3.642883000000000E-01     -1.568047000000000E+02
4884000000.000000      6.616211000000000E-01      1.380957000000000E+01      3.618469000000000E-01     -1.574062000000000E+02
4885000000.000000      6.633301000000000E-01      1.350195000000000E+01      3.579102000000000E-01     -1.576172000000000E+02
4886000000.000000      6.642761000000000E-01      1.356934000000000E+01      3.521576000000000E-01     -1.581719000000000E+02
4887000000.000000      6.655579000000000E-01      1.351709000000000E+01      3.495636000000000E-01     -1.586406000000000E+02
4888000000.000000      6.647339000000000E-01      1.329883000000000E+01      3.447876000000000E-01     -1.592656000000000E+02
4889000000.000000      6.665649000000000E-01      1.323535000000000E+01      3.399963000000000E-01     -1.595547000000000E+02
4890000000.000000      6.656494000000000E-01      1.301563000000000E+01      3.359680000000000E-01     -1.604141000000000E+02
4891000000.000000      6.704102000000000E-01      1.302246000000000E+01      3.320313000000000E-01     -1.605937000000000E+02
4892000000.000000      6.693420000000000E-01      1.287598000000000E+01      3.278351000000000E-01     -1.606641000000000E+02
4893000000.000000      6.712341000000000E-01      1.294043000000000E+01      3.238220000000000E-01     -1.612500000000000E+02
4894000000.000000      6.724548000000000E-01      1.275342000000000E+01      3.192596000000000E-01     -1.619062000000000E+02
4895000000.000000      6.748047000000000E-01      1.274805000000000E+01      3.170166000000000E-01     -1.620625000000000E+02
4896000000.000000      6.755066000000000E-01      1.255859000000000E+01      3.128204000000000E-01     -1.623437000000000E+02
4897000000.000000      6.737366000000000E-01      1.246631000000000E+01      3.086548000000000E-01     -1.628672000000000E+02
4898000000.000000      6.770020000000000E-01      1.244727000000000E+01      3.054504000000000E-01     -1.631719000000000E+02
4899000000.000000      6.784973000000000E-01      1.244873000000000E+01      3.021240000000000E-01     -1.636250000000000E+02
4900000000.000000      6.780701000000000E-01      1.215625000000000E+01      2.974854000000000E-01     -1.637969000000000E+02
4901000000.000000      6.781616000000000E-01      1.211475000000000E+01      2.934570000000000E-01     -1.641562000000000E+02
4902000000.000000      6.810913000000000E-01      1.206152000000000E+01      2.906799000000000E-01     -1.643750000000000E+02
4903000000.000000      6.798706000000000E-01      1.198877000000000E+01      2.857666000000000E-01     -1.647500000000000E+02
4904000000.000000      6.804810000000000E-01      1.181006000000000E+01      2.826996000000000E-01     -1.651719000000000E+02
4905000000.000000      6.821594000000000E-01      1.170703000000000E+01      2.802124000000000E-01     -1.655937000000000E+02
4906000000.000000      6.809692000000000E-01      1.172510000000000E+01      2.755280000000000E-01     -1.655547000000000E+02
4907000000.000000      6.842041000000000E-01      1.153662000000000E+01      2.740021000000000E-01     -1.661328000000000E+02
4908000000.000000      6.834717000000000E-01      1.133496000000000E+01      2.698517000000000E-01     -1.664297000000000E+02
4909000000.000000      6.828003000000000E-01      1.122803000000000E+01      2.654572000000000E-01     -1.666875000000000E+02
4910000000.000000      6.854248000000000E-01      1.129639000000000E+01      2.621155000000000E-01     -1.669844000000000E+02
4911000000.000000      6.858826000000000E-01      1.122363000000000E+01      2.593079000000000E-01     -1.672266000000000E+02
4912000000.000000      6.848450000000000E-01      1.111670000000000E+01      2.555389000000000E-01     -1.676953000000000E+02
4913000000.000000      6.880188000000000E-01      1.092969000000000E+01      2.524414000000000E-01     -1.678906000000000E+02
4914000000.000000      6.867371000000000E-01      1.074316000000000E+01      2.488327000000000E-01     -1.680703000000000E+02
4915000000.000000      6.880493000000000E-01      1.075830000000000E+01      2.449875000000000E-01     -1.684766000000000E+02
4916000000.000000      6.884155000000000E-01      1.076221000000000E+01      2.409439000000000E-01     -1.687500000000000E+02
4917000000.000000      6.895752000000000E-01      1.049707000000000E+01      2.376709000000000E-01     -1.689062000000000E+02
4918000000.000000      6.899109000000000E-01      1.016602000000000E+01      2.334366000000000E-01     -1.693281000000000E+02
4919000000.000000      6.902466000000000E-01      1.037891000000000E+01      2.304382000000000E-01     -1.692734000000000E+02
4920000000.000000      6.877441000000000E-01      1.033643000000000E+01      2.264709000000000E-01     -1.697031000000000E+02
4921000000.000000      6.907349000000000E-01      1.011133000000000E+01      2.235260000000000E-01     -1.698516000000000E+02
4922000000.000000      6.893921000000000E-01      1.012939000000000E+01      2.200775000000000E-01     -1.698594000000000E+02
4923000000.000000      6.904297000000000E-01      1.005078000000000E+01      2.153549000000000E-01     -1.701328000000000E+02
4924000000.000000      6.924744000000000E-01      9.890137000000000E+00      2.119446000000000E-01     -1.705391000000000E+02
4925000000.000000      6.931458000000000E-01      9.783203000000000E+00      2.080612000000000E-01     -1.704609000000000E+02
4926000000.000000      6.921997000000000E-01      9.752930000000000E+00      2.047424000000000E-01     -1.707734000000000E+02
4927000000.000000      6.939087000000000E-01      9.450684000000000E+00      2.007980000000000E-01     -1.708125000000000E+02
4928000000.000000      6.934204000000000E-01      9.607422000000000E+00      1.977310000000000E-01     -1.706953000000000E+02
4929000000.000000      6.941223000000000E-01      9.264160000000000E+00      1.930313000000000E-01     -1.707187000000000E+02
4930000000.000000      6.951294000000000E-01      9.395996000000000E+00      1.898727000000000E-01     -1.710000000000000E+02
4931000000.000000      6.919250000000000E-01      9.277832000000000E+00      1.864319000000000E-01     -1.708359000000000E+02
4932000000.000000      6.970520000000000E-01      9.178711000000000E+00      1.820908000000000E-01     -1.707656000000000E+02
4933000000.000000      6.970215000000000E-01      8.835449000000000E+00      1.779022000000000E-01     -1.704219000000000E+02
4934000000.000000      6.958618000000000E-01      8.931641000000000E+00      1.740875000000000E-01     -1.706563000000000E+02
4935000000.000000      6.983032000000000E-01      8.718750000000000E+00      1.715317000000000E-01     -1.702109000000000E+02
4936000000.000000      6.972351000000000E-01      8.621094000000000E+00      1.674194000000000E-01     -1.699531000000000E+02
4937000000.000000      6.994934000000000E-01      8.519531000000000E+00      1.632309000000000E-01     -1.700078000000000E+02
4938000000.000000      6.971436000000000E-01      8.632324000000000E+00      1.599045000000000E-01     -1.695156000000000E+02
4939000000.000000      6.997986000000000E-01      8.433105000000000E+00      1.569672000000000E-01     -1.690000000000000E+02
4940000000.000000      7.005920000000000E-01      8.395996000000000E+00      1.531830000000000E-01     -1.688828000000000E+02
4941000000.000000      6.990356000000000E-01      8.232422000000000E+00      1.498489000000000E-01     -1.682656000000000E+02
4942000000.000000      6.979370000000000E-01      8.284668000000000E+00      1.461029000000000E-01     -1.676250000000000E+02
4943000000.000000      7.023926000000000E-01      8.162598000000000E+00      1.422195000000000E-01     -1.670312000000000E+02
4944000000.000000      7.004089000000000E-01      7.794678000000000E+00      1.393738000000000E-01     -1.665937000000000E+02
4945000000.000000      7.005615000000000E-01      7.745361000000000E+00      1.360931000000000E-01     -1.655859000000000E+02
4946000000.000000      7.047729000000000E-01      7.801514000000000E+00      1.329727000000000E-01     -1.646953000000000E+02
4947000000.000000      7.009583000000000E-01      7.660156000000000E+00      1.295471000000000E-01     -1.638672000000000E+02
4948000000.000000      7.013855000000000E-01      7.554443000000000E+00      1.269760000000000E-01     -1.629844000000000E+02
4949000000.000000      7.031860000000000E-01      7.389648000000000E+00      1.245193000000000E-01     -1.615781000000000E+02
4950000000.000000      7.039185000000000E-01      7.410156000000000E+00      1.220055000000000E-01     -1.605625000000000E+02
4951000000.000000      7.056274000000000E-01      7.166992000000000E+00      1.194305000000000E-01     -1.596719000000000E+02
4952000000.000000      7.041931000000000E-01      7.201416000000000E+00      1.168213000000000E-01     -1.581406000000000E+02
4953000000.000000      7.040405000000000E-01      7.005127000000000E+00      1.151505000000000E-01     -1.565000000000000E+02
4954000000.000000      7.076111000000000E-01      6.913086000000000E+00      1.132011000000000E-01     -1.551094000000000E+02
