! Network Analyzer HP8722D
! Hewlett-Packard
! Data name: Linha & Wilkinson
! Saver's name: Rodrigo Anjos
! Comments: Teste da utilização de aquisição
continua pelo VNA HP8722D
! Time and date: 22/5/2025 09:55
!              Frequency                     S11                                                   S21                                                   S12                                                   S22
# HZ  S  MA R 50
4800000000.000000      6.476135000000000E-01      1.031982000000000E+01      4.749451000000000E-01     -9.375000000000000E+01
4801000000.000000      6.445007000000000E-01      1.058936000000000E+01      4.747620000000000E-01     -9.447266000000000E+01
4802000000.000000      6.432495000000000E-01      1.054785000000000E+01      4.766235000000000E-01     -9.516405000000000E+01
4803000000.000000      6.420288000000000E-01      1.047266000000000E+01      4.807892000000000E-01     -9.587891000000000E+01
4804000000.000000      6.402588000000000E-01      1.048193000000000E+01      4.818726000000000E-01     -9.667578000000000E+01
4805000000.000000      6.402588000000000E-01      1.040674000000000E+01      4.825287000000000E-01     -9.717968000000000E+01
4806000000.000000      6.364441000000000E-01      1.035303000000000E+01      4.835510000000000E-01     -9.833202000000000E+01
4807000000.000000      6.352539000000000E-01      1.052881000000000E+01      4.854126000000000E-01     -9.910545000000000E+01
4808000000.000000      6.329346000000000E-01      1.052344000000000E+01      4.880066000000000E-01     -9.958202000000000E+01
4809000000.000000      6.304016000000000E-01      1.052881000000000E+01      4.889679000000000E-01     -1.006680000000000E+02
4810000000.000000      6.297302000000000E-01      1.060010000000000E+01      4.906616000000000E-01     -1.012031000000000E+02
4811000000.000000      6.296692000000000E-01      1.071680000000000E+01      4.915771000000000E-01     -1.022031000000000E+02
4812000000.000000      6.290894000000000E-01      1.077734000000000E+01      4.917908000000000E-01     -1.026992000000000E+02
4813000000.000000      6.281433000000000E-01      1.068555000000000E+01      4.936066000000000E-01     -1.035898000000000E+02
4814000000.000000      6.265564000000000E-01      1.082422000000000E+01      4.944000000000000E-01     -1.043086000000000E+02
4815000000.000000      6.238403000000000E-01      1.092285000000000E+01      4.959869000000000E-01     -1.050664000000000E+02
4816000000.000000      6.231384000000000E-01      1.083252000000000E+01      4.954681000000000E-01     -1.058086000000000E+02
4817000000.000000      6.227722000000000E-01      1.118799000000000E+01      4.959259000000000E-01     -1.063945000000000E+02
4818000000.000000      6.209412000000000E-01      1.114697000000000E+01      4.963531000000000E-01     -1.071445000000000E+02
4819000000.000000      6.188965000000000E-01      1.109180000000000E+01      4.966888000000000E-01     -1.081055000000000E+02
4820000000.000000      6.169434000000000E-01      1.126074000000000E+01      4.991760000000000E-01     -1.086562000000000E+02
4821000000.000000      6.174622000000000E-01      1.145313000000000E+01      4.978943000000000E-01     -1.096211000000000E+02
4822000000.000000      6.162415000000000E-01      1.144775000000000E+01      4.968262000000000E-01     -1.102109000000000E+02
4823000000.000000      6.164246000000000E-01      1.141748000000000E+01      4.991150000000000E-01     -1.111953000000000E+02
4824000000.000000      6.139221000000000E-01      1.162207000000000E+01      4.982147000000000E-01     -1.118516000000000E+02
4825000000.000000      6.140137000000000E-01      1.157373000000000E+01      4.998016000000000E-01     -1.125664000000000E+02
4826000000.000000      6.124573000000000E-01      1.172510000000000E+01      4.997864000000000E-01     -1.134492000000000E+02
4827000000.000000      6.140137000000000E-01      1.191016000000000E+01      4.980774000000000E-01     -1.139297000000000E+02
4828000000.000000      6.124573000000000E-01      1.216016000000000E+01      4.996033000000000E-01     -1.147773000000000E+02
4829000000.000000      6.109619000000000E-01      1.224414000000000E+01      5.001221000000000E-01     -1.155195000000000E+02
4830000000.000000      6.130676000000000E-01      1.210693000000000E+01      4.991302000000000E-01     -1.163515000000000E+02
4831000000.000000      6.118774000000000E-01      1.235547000000000E+01      4.989777000000000E-01     -1.173828000000000E+02
4832000000.000000      6.111450000000000E-01      1.255029000000000E+01      4.998932000000000E-01     -1.176875000000000E+02
4833000000.000000      6.106873000000000E-01      1.262158000000000E+01      4.990082000000000E-01     -1.185234000000000E+02
4834000000.000000      6.094055000000000E-01      1.262988000000000E+01      4.990845000000000E-01     -1.195586000000000E+02
4835000000.000000      6.131592000000000E-01      1.288281000000000E+01      4.983673000000000E-01     -1.201758000000000E+02
4836000000.000000      6.110840000000000E-01      1.288818000000000E+01      4.971771000000000E-01     -1.209297000000000E+02
4837000000.000000      6.107788000000000E-01      1.318750000000000E+01      4.965363000000000E-01     -1.218398000000000E+02
4838000000.000000      6.108398000000000E-01      1.314063000000000E+01      4.976196000000000E-01     -1.224336000000000E+02
4839000000.000000      6.143188000000000E-01      1.330127000000000E+01      4.965668000000000E-01     -1.233320000000000E+02
4840000000.000000      6.136169000000000E-01      1.316016000000000E+01      4.964294000000000E-01     -1.239648000000000E+02
4841000000.000000      6.154480000000000E-01      1.356396000000000E+01      4.960327000000000E-01     -1.249180000000000E+02
4842000000.000000      6.160889000000000E-01      1.350879000000000E+01      4.953461000000000E-01     -1.257461000000000E+02
4843000000.000000      6.163940000000000E-01      1.357764000000000E+01      4.954529000000000E-01     -1.267109000000000E+02
4844000000.000000      6.171570000000000E-01      1.357080000000000E+01      4.932404000000000E-01     -1.273945000000000E+02
4845000000.000000      6.172485000000000E-01      1.384668000000000E+01      4.914551000000000E-01     -1.282500000000000E+02
4846000000.000000      6.190796000000000E-01      1.398535000000000E+01      4.905090000000000E-01     -1.289453000000000E+02
4847000000.000000      6.198120000000000E-01      1.392236000000000E+01      4.897919000000000E-01     -1.298828000000000E+02
4848000000.000000      6.199341000000000E-01      1.378223000000000E+01      4.865875000000000E-01     -1.306484000000000E+02
4849000000.000000      6.212158000000000E-01      1.402393000000000E+01      4.858246000000000E-01     -1.315000000000000E+02
4850000000.000000      6.212463000000000E-01      1.397705000000000E+01      4.839783000000000E-01     -1.323594000000000E+02
4851000000.000000      6.231689000000000E-01      1.418311000000000E+01      4.837799000000000E-01     -1.334063000000000E+02
4852000000.000000      6.230774000000000E-01      1.417480000000000E+01      4.812775000000000E-01     -1.340312000000000E+02
4853000000.000000      6.233826000000000E-01      1.441943000000000E+01      4.775238000000000E-01     -1.347344000000000E+02
4854000000.000000      6.258545000000000E-01      1.434912000000000E+01      4.756012000000000E-01     -1.359062000000000E+02
4855000000.000000      6.263733000000000E-01      1.432178000000000E+01      4.741821000000000E-01     -1.366406000000000E+02
4856000000.000000      6.278381000000000E-01      1.442090000000000E+01      4.698181000000000E-01     -1.375625000000000E+02
4857000000.000000      6.314697000000000E-01      1.449609000000000E+01      4.690857000000000E-01     -1.381641000000000E+02
4858000000.000000      6.292725000000000E-01      1.450439000000000E+01      4.665680000000000E-01     -1.391797000000000E+02
4859000000.000000      6.303101000000000E-01      1.444287000000000E+01      4.635162000000000E-01     -1.400703000000000E+02
4860000000.000000      6.322632000000000E-01      1.455127000000000E+01      4.602051000000000E-01     -1.407734000000000E+02
4861000000.000000      6.324158000000000E-01      1.442773000000000E+01      4.557037000000000E-01     -1.418672000000000E+02
4862000000.000000      6.352539000000000E-01      1.463086000000000E+01      4.525604000000000E-01     -1.424062000000000E+02
4863000000.000000      6.345215000000000E-01      1.462109000000000E+01      4.486847000000000E-01     -1.433750000000000E+02
4864000000.000000      6.367188000000000E-01      1.466650000000000E+01      4.469299000000000E-01     -1.441094000000000E+02
4865000000.000000      6.398315000000000E-01      1.458008000000000E+01      4.419403000000000E-01     -1.449063000000000E+02
4866000000.000000      6.405029000000000E-01      1.457178000000000E+01      4.374542000000000E-01     -1.457656000000000E+02
4867000000.000000      6.394653000000000E-01      1.448779000000000E+01      4.345093000000000E-01     -1.466484000000000E+02
4868000000.000000      6.390381000000000E-01      1.449609000000000E+01      4.301147000000000E-01     -1.472422000000000E+02
4869000000.000000      6.421204000000000E-01      1.452246000000000E+01      4.265747000000000E-01     -1.479531000000000E+02
4870000000.000000      6.454163000000000E-01      1.439453000000000E+01      4.226074000000000E-01     -1.485625000000000E+02
4871000000.000000      6.457825000000000E-01      1.441113000000000E+01      4.179535000000000E-01     -1.493906000000000E+02
4872000000.000000      6.476440000000000E-01      1.440283000000000E+01      4.133911000000000E-01     -1.499141000000000E+02
4873000000.000000      6.483765000000000E-01      1.445801000000000E+01      4.111633000000000E-01     -1.508516000000000E+02
4874000000.000000      6.493530000000000E-01      1.438477000000000E+01      4.037781000000000E-01     -1.514219000000000E+02
4875000000.000000      6.503601000000000E-01      1.420801000000000E+01      4.005737000000000E-01     -1.520391000000000E+02
4876000000.000000      6.516113000000000E-01      1.438232000000000E+01      3.983154000000000E-01     -1.527031000000000E+02
4877000000.000000      6.535034000000000E-01      1.412012000000000E+01      3.918610000000000E-01     -1.535703000000000E+02
4878000000.000000      6.525269000000000E-01      1.402783000000000E+01      3.853455000000000E-01     -1.540234000000000E+02
4879000000.000000      6.569519000000000E-01      1.418604000000000E+01      3.810577000000000E-01     -1.543828000000000E+02
4880000000.000000      6.608887000000000E-01      1.410205000000000E+01      3.780975000000000E-01     -1.551875000000000E+02
4881000000.000000      6.592712000000000E-01      1.403223000000000E+01      3.737640000000000E-01     -1.556953000000000E+02
4882000000.000000      6.605530000000000E-01      1.392480000000000E+01      3.699799000000000E-01     -1.561641000000000E+02
4883000000.000000      6.617126000000000E-01      1.386865000000000E+01      3.648682000000000E-01     -1.565703000000000E+02
4884000000.000000      6.621399000000000E-01      1.384961000000000E+01      3.612823000000000E-01     -1.571719000000000E+02
4885000000.000000      6.651611000000000E-01      1.385352000000000E+01      3.564758000000000E-01     -1.576250000000000E+02
4886000000.000000      6.664124000000000E-01      1.360791000000000E+01      3.529816000000000E-01     -1.581719000000000E+02
4887000000.000000      6.657104000000000E-01      1.363232000000000E+01      3.485870000000000E-01     -1.585625000000000E+02
4888000000.000000      6.678772000000000E-01      1.338672000000000E+01      3.442688000000000E-01     -1.591250000000000E+02
4889000000.000000      6.676025000000000E-01      1.346191000000000E+01      3.398895000000000E-01     -1.595078000000000E+02
4890000000.000000      6.655579000000000E-01      1.343066000000000E+01      3.361816000000000E-01     -1.602969000000000E+02
4891000000.000000      6.678772000000000E-01      1.320654000000000E+01      3.313904000000000E-01     -1.605312000000000E+02
4892000000.000000      6.699829000000000E-01      1.303760000000000E+01      3.283691000000000E-01     -1.606172000000000E+02
4893000000.000000      6.724854000000000E-01      1.295947000000000E+01      3.236694000000000E-01     -1.613984000000000E+02
4894000000.000000      6.705017000000000E-01      1.292920000000000E+01      3.194885000000000E-01     -1.616250000000000E+02
4895000000.000000      6.735535000000000E-01      1.286865000000000E+01      3.168640000000000E-01     -1.621172000000000E+02
4896000000.000000      6.739807000000000E-01      1.274805000000000E+01      3.118439000000000E-01     -1.624063000000000E+02
4897000000.000000      6.748657000000000E-01      1.284570000000000E+01      3.082428000000000E-01     -1.628515000000000E+02
4898000000.000000      6.768494000000000E-01      1.264893000000000E+01      3.050995000000000E-01     -1.629453000000000E+02
4899000000.000000      6.764832000000000E-01      1.246777000000000E+01      3.009338000000000E-01     -1.634844000000000E+02
4900000000.000000      6.787720000000000E-01      1.239355000000000E+01      2.974091000000000E-01     -1.635703000000000E+02
4901000000.000000      6.776733000000000E-01      1.226855000000000E+01      2.936707000000000E-01     -1.641094000000000E+02
4902000000.000000      6.806641000000000E-01      1.211621000000000E+01      2.905121000000000E-01     -1.643984000000000E+02
4903000000.000000      6.803589000000000E-01      1.223975000000000E+01      2.862244000000000E-01     -1.646797000000000E+02
4904000000.000000      6.813049000000000E-01      1.193359000000000E+01      2.823181000000000E-01     -1.650781000000000E+02
4905000000.000000      6.804504000000000E-01      1.204639000000000E+01      2.803802000000000E-01     -1.655313000000000E+02
4906000000.000000      6.830750000000000E-01      1.171680000000000E+01      2.757263000000000E-01     -1.655391000000000E+02
4907000000.000000      6.825867000000000E-01      1.158496000000000E+01      2.729797000000000E-01     -1.659844000000000E+02
4908000000.000000      6.849365000000000E-01      1.149023000000000E+01      2.693939000000000E-01     -1.664063000000000E+02
4909000000.000000      6.844788000000000E-01      1.146973000000000E+01      2.656097000000000E-01     -1.667734000000000E+02
4910000000.000000      6.846619000000000E-01      1.137451000000000E+01      2.624207000000000E-01     -1.669765000000000E+02
4911000000.000000      6.839600000000000E-01      1.140771000000000E+01      2.588806000000000E-01     -1.672188000000000E+02
4912000000.000000      6.864319000000000E-01      1.120459000000000E+01      2.558594000000000E-01     -1.675156000000000E+02
4913000000.000000      6.874390000000000E-01      1.114551000000000E+01      2.515106000000000E-01     -1.678594000000000E+02
4914000000.000000      6.889954000000000E-01      1.094482000000000E+01      2.480545000000000E-01     -1.680469000000000E+02
4915000000.000000      6.885986000000000E-01      1.092041000000000E+01      2.441254000000000E-01     -1.684219000000000E+02
4916000000.000000      6.886902000000000E-01      1.083643000000000E+01      2.412872000000000E-01     -1.686328000000000E+02
4917000000.000000      6.886902000000000E-01      1.071143000000000E+01      2.367401000000000E-01     -1.690000000000000E+02
4918000000.000000      6.883850000000000E-01      1.067578000000000E+01      2.330475000000000E-01     -1.692344000000000E+02
4919000000.000000      6.885681000000000E-01      1.047949000000000E+01      2.300873000000000E-01     -1.691406000000000E+02
4920000000.000000      6.907959000000000E-01      1.032422000000000E+01      2.263260000000000E-01     -1.697656000000000E+02
4921000000.000000      6.900940000000000E-01      1.035693000000000E+01      2.232971000000000E-01     -1.698203000000000E+02
4922000000.000000      6.913452000000000E-01      1.017871000000000E+01      2.186966000000000E-01     -1.698984000000000E+02
4923000000.000000      6.924133000000000E-01      1.015234000000000E+01      2.153702000000000E-01     -1.698594000000000E+02
4924000000.000000      6.926880000000000E-01      9.937012000000000E+00      2.117081000000000E-01     -1.702891000000000E+02
4925000000.000000      6.918640000000000E-01      9.976563000000000E+00      2.081299000000000E-01     -1.704062000000000E+02
4926000000.000000      6.926270000000000E-01      9.843750000000000E+00      2.047424000000000E-01     -1.705078000000000E+02
4927000000.000000      6.961670000000000E-01      9.791504000000000E+00      2.006149000000000E-01     -1.706875000000000E+02
4928000000.000000      6.958008000000000E-01      9.528809000000000E+00      1.972809000000000E-01     -1.706563000000000E+02
4929000000.000000      6.952820000000000E-01      9.531738000000000E+00      1.931839000000000E-01     -1.707578000000000E+02
4930000000.000000      6.947937000000000E-01      9.550781000000000E+00      1.895447000000000E-01     -1.707578000000000E+02
4931000000.000000      6.948853000000000E-01      9.251465000000000E+00      1.860809000000000E-01     -1.706328000000000E+02
4932000000.000000      6.968689000000000E-01      9.369629000000000E+00      1.817856000000000E-01     -1.705078000000000E+02
4933000000.000000      6.969910000000000E-01      9.239258000000000E+00      1.780472000000000E-01     -1.704219000000000E+02
4934000000.000000      6.976929000000000E-01      8.875488000000000E+00      1.742630000000000E-01     -1.704766000000000E+02
4935000000.000000      6.984863000000000E-01      8.967285000000000E+00      1.710663000000000E-01     -1.701797000000000E+02
4936000000.000000      6.942444000000000E-01      8.764160000000000E+00      1.669159000000000E-01     -1.698750000000000E+02
4937000000.000000      6.995544000000000E-01      8.711914000000000E+00      1.633759000000000E-01     -1.698047000000000E+02
4938000000.000000      6.970520000000000E-01      8.743652000000000E+00      1.602859000000000E-01     -1.692656000000000E+02
4939000000.000000      6.989441000000000E-01      8.655762000000000E+00      1.560211000000000E-01     -1.690781000000000E+02
4940000000.000000      6.995239000000000E-01      8.427734000000000E+00      1.530533000000000E-01     -1.686875000000000E+02
4941000000.000000      7.008362000000000E-01      8.301270000000000E+00      1.495743000000000E-01     -1.680469000000000E+02
4942000000.000000      6.993408000000000E-01      8.276367000000000E+00      1.457138000000000E-01     -1.676484000000000E+02
4943000000.000000      7.013855000000000E-01      8.232422000000000E+00      1.429062000000000E-01     -1.669531000000000E+02
4944000000.000000      7.009583000000000E-01      8.069336000000000E+00      1.391525000000000E-01     -1.660859000000000E+02
4945000000.000000      7.014771000000000E-01      7.992432000000000E+00      1.357651000000000E-01     -1.653906000000000E+02
4946000000.000000      7.007751000000000E-01      7.968994000000000E+00      1.330338000000000E-01     -1.644453000000000E+02
4947000000.000000      7.036743000000000E-01      7.846924000000000E+00      1.294250000000000E-01     -1.637344000000000E+02
4948000000.000000      7.023926000000000E-01      7.815186000000000E+00      1.273804000000000E-01     -1.628281000000000E+02
4949000000.000000      7.022705000000000E-01      7.695801000000000E+00      1.245842000000000E-01     -1.615859000000000E+02
4950000000.000000      7.033081000000000E-01      7.642334000000000E+00      1.219292000000000E-01     -1.602813000000000E+02
4951000000.000000      7.056580000000000E-01      7.414307000000000E+00      1.197205000000000E-01     -1.593281000000000E+02
4952000000.000000      7.048035000000000E-01      7.422607000000000E+00      1.169357000000000E-01     -1.580469000000000E+02
4953000000.000000      7.055664000000000E-01      7.109375000000000E+00      1.150360000000000E-01     -1.564219000000000E+02
4954000000.000000      7.064819000000000E-01      6.991211000000000E+00      1.135101000000000E-01     -1.550547000000000E+02
