! Network Analyzer HP8722D
! Hewlett-Packard
! Data name: Linha & Wilkinson
! Saver's name: Rodrigo Anjos
! Comments: Teste da utilização de aquisição
continua pelo VNA HP8722D
! Time and date: 22/5/2025 17:11
!              Frequency                     S11                                                   S21                                                   S12                                                   S22
# HZ  S  MA R 50
4800000000.000000      6.531677000000000E-01      1.093652000000000E+01      4.694366000000000E-01     -9.182421000000000E+01
4801000000.000000      6.517029000000000E-01      1.098340000000000E+01      4.716644000000000E-01     -9.250000000000000E+01
4802000000.000000      6.499329000000000E-01      1.092041000000000E+01      4.733582000000000E-01     -9.308985000000000E+01
4803000000.000000      6.476746000000000E-01      1.083496000000000E+01      4.766998000000000E-01     -9.388672000000000E+01
4804000000.000000      6.464844000000000E-01      1.089111000000000E+01      4.785309000000000E-01     -9.470703000000000E+01
4805000000.000000      6.469421000000000E-01      1.085156000000000E+01      4.792175000000000E-01     -9.554688000000000E+01
4806000000.000000      6.442871000000000E-01      1.091455000000000E+01      4.810028000000000E-01     -9.628515000000000E+01
4807000000.000000      6.395874000000000E-01      1.083496000000000E+01      4.813995000000000E-01     -9.709764000000000E+01
4808000000.000000      6.382446000000000E-01      1.095850000000000E+01      4.824066000000000E-01     -9.767578000000000E+01
4809000000.000000      6.372986000000000E-01      1.103418000000000E+01      4.870605000000000E-01     -9.866796000000000E+01
4810000000.000000      6.364136000000000E-01      1.099023000000000E+01      4.889832000000000E-01     -9.929688000000000E+01
4811000000.000000      6.350403000000000E-01      1.105615000000000E+01      4.897461000000000E-01     -1.001250000000000E+02
4812000000.000000      6.359863000000000E-01      1.110986000000000E+01      4.882813000000000E-01     -1.008555000000000E+02
4813000000.000000      6.318359000000000E-01      1.134180000000000E+01      4.902954000000000E-01     -1.014570000000000E+02
4814000000.000000      6.304016000000000E-01      1.122656000000000E+01      4.920349000000000E-01     -1.021914000000000E+02
4815000000.000000      6.289063000000000E-01      1.131006000000000E+01      4.928589000000000E-01     -1.028789000000000E+02
4816000000.000000      6.283875000000000E-01      1.125098000000000E+01      4.957428000000000E-01     -1.039453000000000E+02
4817000000.000000      6.257629000000000E-01      1.147070000000000E+01      4.933014000000000E-01     -1.046641000000000E+02
4818000000.000000      6.253967000000000E-01      1.141455000000000E+01      4.955902000000000E-01     -1.053047000000000E+02
4819000000.000000      6.249390000000000E-01      1.160156000000000E+01      4.949341000000000E-01     -1.058984000000000E+02
4820000000.000000      6.217651000000000E-01      1.171680000000000E+01      4.946747000000000E-01     -1.066992000000000E+02
4821000000.000000      6.217041000000000E-01      1.169043000000000E+01      4.975128000000000E-01     -1.075742000000000E+02
4822000000.000000      6.205444000000000E-01      1.167139000000000E+01      4.963074000000000E-01     -1.080859000000000E+02
4823000000.000000      6.196289000000000E-01      1.165479000000000E+01      4.997559000000000E-01     -1.090977000000000E+02
4824000000.000000      6.191101000000000E-01      1.197900000000000E+01      4.981232000000000E-01     -1.097852000000000E+02
4825000000.000000      6.183167000000000E-01      1.211621000000000E+01      4.982147000000000E-01     -1.105195000000000E+02
4826000000.000000      6.159058000000000E-01      1.211084000000000E+01      4.978485000000000E-01     -1.115898000000000E+02
4827000000.000000      6.168823000000000E-01      1.229199000000000E+01      4.987335000000000E-01     -1.119258000000000E+02
4828000000.000000      6.179810000000000E-01      1.242139000000000E+01      4.997101000000000E-01     -1.127226000000000E+02
4829000000.000000      6.150513000000000E-01      1.267236000000000E+01      4.992676000000000E-01     -1.135547000000000E+02
4830000000.000000      6.159668000000000E-01      1.266016000000000E+01      4.995728000000000E-01     -1.143750000000000E+02
4831000000.000000      6.145935000000000E-01      1.272607000000000E+01      5.007935000000000E-01     -1.151328000000000E+02
4832000000.000000      6.135254000000000E-01      1.284814000000000E+01      5.001831000000000E-01     -1.156953000000000E+02
4833000000.000000      6.138000000000000E-01      1.284131000000000E+01      4.991302000000000E-01     -1.164063000000000E+02
4834000000.000000      6.132202000000000E-01      1.305713000000000E+01      4.992981000000000E-01     -1.172930000000000E+02
4835000000.000000      6.138611000000000E-01      1.311865000000000E+01      4.990997000000000E-01     -1.181758000000000E+02
4836000000.000000      6.134033000000000E-01      1.334521000000000E+01      4.988098000000000E-01     -1.187226000000000E+02
4837000000.000000      6.134338000000000E-01      1.348828000000000E+01      4.988251000000000E-01     -1.200234000000000E+02
4838000000.000000      6.124268000000000E-01      1.363086000000000E+01      5.004272000000000E-01     -1.204062000000000E+02
4839000000.000000      6.156921000000000E-01      1.379443000000000E+01      4.993134000000000E-01     -1.211758000000000E+02
4840000000.000000      6.150818000000000E-01      1.364502000000000E+01      5.003967000000000E-01     -1.219922000000000E+02
4841000000.000000      6.153259000000000E-01      1.388525000000000E+01      4.979706000000000E-01     -1.227578000000000E+02
4842000000.000000      6.156616000000000E-01      1.414307000000000E+01      4.974976000000000E-01     -1.235781000000000E+02
4843000000.000000      6.181030000000000E-01      1.395508000000000E+01      4.971161000000000E-01     -1.244570000000000E+02
4844000000.000000      6.169434000000000E-01      1.414893000000000E+01      4.960327000000000E-01     -1.254102000000000E+02
4845000000.000000      6.171570000000000E-01      1.423389000000000E+01      4.949036000000000E-01     -1.260469000000000E+02
4846000000.000000      6.195984000000000E-01      1.441504000000000E+01      4.941101000000000E-01     -1.269844000000000E+02
4847000000.000000      6.178284000000000E-01      1.461572000000000E+01      4.945679000000000E-01     -1.275664000000000E+02
4848000000.000000      6.188660000000000E-01      1.438623000000000E+01      4.906006000000000E-01     -1.285312000000000E+02
4849000000.000000      6.204224000000000E-01      1.467871000000000E+01      4.912415000000000E-01     -1.294297000000000E+02
4850000000.000000      6.203003000000000E-01      1.459082000000000E+01      4.889526000000000E-01     -1.302266000000000E+02
4851000000.000000      6.226196000000000E-01      1.479688000000000E+01      4.878998000000000E-01     -1.310078000000000E+02
4852000000.000000      6.241760000000000E-01      1.481055000000000E+01      4.852295000000000E-01     -1.319062000000000E+02
4853000000.000000      6.246948000000000E-01      1.484375000000000E+01      4.821472000000000E-01     -1.327500000000000E+02
4854000000.000000      6.251221000000000E-01      1.492480000000000E+01      4.819946000000000E-01     -1.338828000000000E+02
4855000000.000000      6.258545000000000E-01      1.498535000000000E+01      4.794464000000000E-01     -1.346484000000000E+02
4856000000.000000      6.259766000000000E-01      1.495898000000000E+01      4.760132000000000E-01     -1.356641000000000E+02
4857000000.000000      6.267395000000000E-01      1.503174000000000E+01      4.749908000000000E-01     -1.363281000000000E+02
4858000000.000000      6.277161000000000E-01      1.485059000000000E+01      4.718323000000000E-01     -1.371875000000000E+02
4859000000.000000      6.296997000000000E-01      1.502100000000000E+01      4.698029000000000E-01     -1.379844000000000E+02
4860000000.000000      6.298523000000000E-01      1.511719000000000E+01      4.658051000000000E-01     -1.388281000000000E+02
4861000000.000000      6.297607000000000E-01      1.513330000000000E+01      4.627686000000000E-01     -1.397812000000000E+02
4862000000.000000      6.321716000000000E-01      1.504395000000000E+01      4.611511000000000E-01     -1.405469000000000E+02
4863000000.000000      6.357117000000000E-01      1.516504000000000E+01      4.558868000000000E-01     -1.413516000000000E+02
4864000000.000000      6.373901000000000E-01      1.524170000000000E+01      4.541321000000000E-01     -1.422031000000000E+02
4865000000.000000      6.379089000000000E-01      1.529395000000000E+01      4.491730000000000E-01     -1.428437000000000E+02
4866000000.000000      6.391907000000000E-01      1.499316000000000E+01      4.458771000000000E-01     -1.438125000000000E+02
4867000000.000000      6.389771000000000E-01      1.511719000000000E+01      4.429016000000000E-01     -1.447109000000000E+02
4868000000.000000      6.404724000000000E-01      1.496191000000000E+01      4.386597000000000E-01     -1.454687000000000E+02
4869000000.000000      6.418152000000000E-01      1.504541000000000E+01      4.352722000000000E-01     -1.460938000000000E+02
4870000000.000000      6.438293000000000E-01      1.508398000000000E+01      4.305573000000000E-01     -1.466797000000000E+02
4871000000.000000      6.445007000000000E-01      1.488086000000000E+01      4.250336000000000E-01     -1.478125000000000E+02
4872000000.000000      6.498718000000000E-01      1.501123000000000E+01      4.226990000000000E-01     -1.483203000000000E+02
4873000000.000000      6.467896000000000E-01      1.505127000000000E+01      4.184265000000000E-01     -1.491953000000000E+02
4874000000.000000      6.493530000000000E-01      1.518164000000000E+01      4.131775000000000E-01     -1.498047000000000E+02
4875000000.000000      6.487427000000000E-01      1.502344000000000E+01      4.100952000000000E-01     -1.503672000000000E+02
4876000000.000000      6.518860000000000E-01      1.501953000000000E+01      4.062653000000000E-01     -1.512187000000000E+02
4877000000.000000      6.522217000000000E-01      1.481738000000000E+01      3.996887000000000E-01     -1.517734000000000E+02
4878000000.000000      6.531372000000000E-01      1.465430000000000E+01      3.966980000000000E-01     -1.524609000000000E+02
4879000000.000000      6.537781000000000E-01      1.470654000000000E+01      3.908691000000000E-01     -1.531250000000000E+02
4880000000.000000      6.580200000000000E-01      1.478613000000000E+01      3.885345000000000E-01     -1.538047000000000E+02
4881000000.000000      6.581421000000000E-01      1.479150000000000E+01      3.831329000000000E-01     -1.541563000000000E+02
4882000000.000000      6.595459000000000E-01      1.464844000000000E+01      3.794861000000000E-01     -1.548359000000000E+02
4883000000.000000      6.596985000000000E-01      1.459082000000000E+01      3.724670000000000E-01     -1.553125000000000E+02
4884000000.000000      6.625366000000000E-01      1.440674000000000E+01      3.703003000000000E-01     -1.561172000000000E+02
4885000000.000000      6.629639000000000E-01      1.436719000000000E+01      3.648224000000000E-01     -1.564062000000000E+02
4886000000.000000      6.644287000000000E-01      1.421631000000000E+01      3.618317000000000E-01     -1.569609000000000E+02
4887000000.000000      6.643372000000000E-01      1.438086000000000E+01      3.579559000000000E-01     -1.574062000000000E+02
4888000000.000000      6.661987000000000E-01      1.405518000000000E+01      3.536072000000000E-01     -1.579141000000000E+02
4889000000.000000      6.663818000000000E-01      1.421338000000000E+01      3.481140000000000E-01     -1.583594000000000E+02
4890000000.000000      6.653137000000000E-01      1.416650000000000E+01      3.442078000000000E-01     -1.590234000000000E+02
4891000000.000000      6.684875000000000E-01      1.385205000000000E+01      3.400269000000000E-01     -1.594766000000000E+02
4892000000.000000      6.710205000000000E-01      1.379053000000000E+01      3.362885000000000E-01     -1.593828000000000E+02
4893000000.000000      6.686096000000000E-01      1.363672000000000E+01      3.314819000000000E-01     -1.601328000000000E+02
4894000000.000000      6.707458000000000E-01      1.361865000000000E+01      3.276978000000000E-01     -1.605703000000000E+02
4895000000.000000      6.738281000000000E-01      1.356250000000000E+01      3.246765000000000E-01     -1.609141000000000E+02
4896000000.000000      6.731567000000000E-01      1.359375000000000E+01      3.200836000000000E-01     -1.613359000000000E+02
4897000000.000000      6.754150000000000E-01      1.338818000000000E+01      3.159485000000000E-01     -1.618281000000000E+02
4898000000.000000      6.735535000000000E-01      1.346094000000000E+01      3.130493000000000E-01     -1.620547000000000E+02
4899000000.000000      6.775513000000000E-01      1.314063000000000E+01      3.085632000000000E-01     -1.624766000000000E+02
4900000000.000000      6.773682000000000E-01      1.314209000000000E+01      3.048248000000000E-01     -1.627578000000000E+02
4901000000.000000      6.779785000000000E-01      1.299805000000000E+01      3.013763000000000E-01     -1.631484000000000E+02
4902000000.000000      6.802673000000000E-01      1.283057000000000E+01      2.977448000000000E-01     -1.632813000000000E+02
4903000000.000000      6.793518000000000E-01      1.295264000000000E+01      2.936249000000000E-01     -1.638359000000000E+02
4904000000.000000      6.815186000000000E-01      1.270801000000000E+01      2.901306000000000E-01     -1.642031000000000E+02
4905000000.000000      6.813965000000000E-01      1.251025000000000E+01      2.882996000000000E-01     -1.646094000000000E+02
4906000000.000000      6.813354000000000E-01      1.247754000000000E+01      2.831879000000000E-01     -1.646641000000000E+02
4907000000.000000      6.857300000000000E-01      1.245703000000000E+01      2.808075000000000E-01     -1.652734000000000E+02
4908000000.000000      6.862183000000000E-01      1.232520000000000E+01      2.771301000000000E-01     -1.656172000000000E+02
4909000000.000000      6.840210000000000E-01      1.215088000000000E+01      2.729340000000000E-01     -1.658594000000000E+02
4910000000.000000      6.842957000000000E-01      1.215088000000000E+01      2.700806000000000E-01     -1.661328000000000E+02
4911000000.000000      6.853027000000000E-01      1.213135000000000E+01      2.660522000000000E-01     -1.664063000000000E+02
4912000000.000000      6.857605000000000E-01      1.200391000000000E+01      2.629395000000000E-01     -1.667266000000000E+02
4913000000.000000      6.872559000000000E-01      1.181396000000000E+01      2.593689000000000E-01     -1.672891000000000E+02
4914000000.000000      6.851501000000000E-01      1.150244000000000E+01      2.549591000000000E-01     -1.674219000000000E+02
4915000000.000000      6.881409000000000E-01      1.153418000000000E+01      2.518768000000000E-01     -1.677187000000000E+02
4916000000.000000      6.875916000000000E-01      1.146143000000000E+01      2.483521000000000E-01     -1.681797000000000E+02
4917000000.000000      6.881409000000000E-01      1.145850000000000E+01      2.449951000000000E-01     -1.683672000000000E+02
4918000000.000000      6.883850000000000E-01      1.127197000000000E+01      2.410889000000000E-01     -1.686484000000000E+02
4919000000.000000      6.897278000000000E-01      1.130322000000000E+01      2.371597000000000E-01     -1.686563000000000E+02
4920000000.000000      6.914978000000000E-01      1.120166000000000E+01      2.329712000000000E-01     -1.691484000000000E+02
4921000000.000000      6.905823000000000E-01      1.110303000000000E+01      2.307434000000000E-01     -1.694531000000000E+02
4922000000.000000      6.925659000000000E-01      1.072949000000000E+01      2.266769000000000E-01     -1.695625000000000E+02
4923000000.000000      6.922607000000000E-01      1.104395000000000E+01      2.224426000000000E-01     -1.697031000000000E+02
4924000000.000000      6.935425000000000E-01      1.075684000000000E+01      2.186356000000000E-01     -1.700938000000000E+02
4925000000.000000      6.917725000000000E-01      1.072266000000000E+01      2.151718000000000E-01     -1.702812000000000E+02
4926000000.000000      6.916504000000000E-01      1.062207000000000E+01      2.114563000000000E-01     -1.705234000000000E+02
4927000000.000000      6.943970000000000E-01      1.058789000000000E+01      2.073669000000000E-01     -1.707344000000000E+02
4928000000.000000      6.960754000000000E-01      1.038867000000000E+01      2.041855000000000E-01     -1.705547000000000E+02
4929000000.000000      6.958008000000000E-01      1.015381000000000E+01      2.000198000000000E-01     -1.708047000000000E+02
4930000000.000000      6.947327000000000E-01      1.025977000000000E+01      1.964340000000000E-01     -1.709531000000000E+02
4931000000.000000      6.950378000000000E-01      9.876465000000000E+00      1.933746000000000E-01     -1.710547000000000E+02
4932000000.000000      6.961060000000000E-01      1.004688000000000E+01      1.883774000000000E-01     -1.708672000000000E+02
4933000000.000000      6.941833000000000E-01      9.770508000000000E+00      1.842880000000000E-01     -1.706719000000000E+02
4934000000.000000      7.016907000000000E-01      9.711914000000000E+00      1.813583000000000E-01     -1.709687000000000E+02
4935000000.000000      7.011414000000000E-01      9.667969000000000E+00      1.780243000000000E-01     -1.708203000000000E+02
4936000000.000000      6.971130000000000E-01      9.523438000000000E+00      1.735229000000000E-01     -1.703984000000000E+02
4937000000.000000      6.987305000000000E-01      9.438477000000000E+00      1.703720000000000E-01     -1.704922000000000E+02
4938000000.000000      6.983337000000000E-01      9.367188000000000E+00      1.662064000000000E-01     -1.701484000000000E+02
4939000000.000000      6.987610000000000E-01      9.270996000000000E+00      1.623917000000000E-01     -1.698203000000000E+02
4940000000.000000      6.988525000000000E-01      9.225586000000000E+00      1.584473000000000E-01     -1.697578000000000E+02
4941000000.000000      7.015991000000000E-01      8.965820000000000E+00      1.551208000000000E-01     -1.692344000000000E+02
4942000000.000000      6.999817000000000E-01      8.968750000000000E+00      1.513519000000000E-01     -1.687891000000000E+02
4943000000.000000      7.029419000000000E-01      8.838379000000000E+00      1.479111000000000E-01     -1.684453000000000E+02
4944000000.000000      7.020264000000000E-01      8.852051000000000E+00      1.445541000000000E-01     -1.676875000000000E+02
4945000000.000000      7.023621000000000E-01      8.727051000000000E+00      1.409836000000000E-01     -1.672266000000000E+02
4946000000.000000      7.044067000000000E-01      8.708984000000000E+00      1.378098000000000E-01     -1.665703000000000E+02
4947000000.000000      7.029724000000000E-01      8.636230000000000E+00      1.340637000000000E-01     -1.658594000000000E+02
4948000000.000000      7.055054000000000E-01      8.471680000000000E+00      1.315231000000000E-01     -1.649453000000000E+02
4949000000.000000      7.038879000000000E-01      8.402832000000000E+00      1.289368000000000E-01     -1.638281000000000E+02
4950000000.000000      7.041931000000000E-01      8.419434000000000E+00      1.256714000000000E-01     -1.630859000000000E+02
4951000000.000000      7.063599000000000E-01      8.125488000000000E+00      1.227417000000000E-01     -1.618828000000000E+02
4952000000.000000      7.053528000000000E-01      8.045898000000000E+00      1.196747000000000E-01     -1.605781000000000E+02
4953000000.000000      7.058105000000000E-01      8.080078000000000E+00      1.173134000000000E-01     -1.592734000000000E+02
4954000000.000000      7.068481000000000E-01      7.775391000000000E+00      1.151695000000000E-01     -1.578516000000000E+02
