! Network Analyzer HP8722D
! Hewlett-Packard
! Data name: Linha & Wilkinson
! Saver's name: Rodrigo Anjos
! Comments: Teste da utilização de aquisição
continua pelo VNA HP8722D
! Time and date: 22/5/2025 15:34
!              Frequency                     S11                                                   S21                                                   S12                                                   S22
# HZ  S  MA R 50
4800000000.000000      6.522827000000000E-01      1.095703000000000E+01      4.702454000000000E-01     -9.210546000000000E+01
4801000000.000000      6.505737000000000E-01      1.109033000000000E+01      4.707794000000000E-01     -9.269140000000000E+01
4802000000.000000      6.481018000000000E-01      1.095703000000000E+01      4.741516000000000E-01     -9.352734000000000E+01
4803000000.000000      6.463318000000000E-01      1.078955000000000E+01      4.769592000000000E-01     -9.416407000000000E+01
4804000000.000000      6.460571000000000E-01      1.090625000000000E+01      4.779816000000000E-01     -9.489843000000000E+01
4805000000.000000      6.444397000000000E-01      1.093945000000000E+01      4.813995000000000E-01     -9.573437000000000E+01
4806000000.000000      6.423950000000000E-01      1.090625000000000E+01      4.836121000000000E-01     -9.645702000000000E+01
4807000000.000000      6.398926000000000E-01      1.096680000000000E+01      4.835205000000000E-01     -9.735546000000000E+01
4808000000.000000      6.380615000000000E-01      1.087207000000000E+01      4.847260000000000E-01     -9.791016000000000E+01
4809000000.000000      6.370544000000000E-01      1.106006000000000E+01      4.854431000000000E-01     -9.880468000000000E+01
4810000000.000000      6.357117000000000E-01      1.099707000000000E+01      4.876404000000000E-01     -9.945702000000000E+01
4811000000.000000      6.343994000000000E-01      1.099170000000000E+01      4.900208000000000E-01     -1.003711000000000E+02
4812000000.000000      6.337891000000000E-01      1.128125000000000E+01      4.907837000000000E-01     -1.010508000000000E+02
4813000000.000000      6.309814000000000E-01      1.108887000000000E+01      4.911652000000000E-01     -1.017969000000000E+02
4814000000.000000      6.292725000000000E-01      1.105322000000000E+01      4.931946000000000E-01     -1.025000000000000E+02
4815000000.000000      6.287231000000000E-01      1.126221000000000E+01      4.933014000000000E-01     -1.032539000000000E+02
4816000000.000000      6.288757000000000E-01      1.130469000000000E+01      4.939880000000000E-01     -1.040391000000000E+02
4817000000.000000      6.263123000000000E-01      1.151758000000000E+01      4.943542000000000E-01     -1.047422000000000E+02
4818000000.000000      6.245422000000000E-01      1.144775000000000E+01      4.960480000000000E-01     -1.056055000000000E+02
4819000000.000000      6.240845000000000E-01      1.152979000000000E+01      4.948883000000000E-01     -1.064648000000000E+02
4820000000.000000      6.234131000000000E-01      1.170850000000000E+01      4.972229000000000E-01     -1.069922000000000E+02
4821000000.000000      6.224060000000000E-01      1.169336000000000E+01      4.973297000000000E-01     -1.079219000000000E+02
4822000000.000000      6.182556000000000E-01      1.173340000000000E+01      4.974823000000000E-01     -1.084922000000000E+02
4823000000.000000      6.186218000000000E-01      1.179492000000000E+01      4.968567000000000E-01     -1.092930000000000E+02
4824000000.000000      6.183167000000000E-01      1.200391000000000E+01      4.969635000000000E-01     -1.102226000000000E+02
4825000000.000000      6.180115000000000E-01      1.205859000000000E+01      4.987030000000000E-01     -1.107383000000000E+02
4826000000.000000      6.182556000000000E-01      1.204492000000000E+01      4.991760000000000E-01     -1.117266000000000E+02
4827000000.000000      6.167297000000000E-01      1.225781000000000E+01      4.999542000000000E-01     -1.122227000000000E+02
4828000000.000000      6.152954000000000E-01      1.234570000000000E+01      4.993896000000000E-01     -1.128945000000000E+02
4829000000.000000      6.143188000000000E-01      1.267383000000000E+01      5.005798000000000E-01     -1.138008000000000E+02
4830000000.000000      6.149597000000000E-01      1.254639000000000E+01      4.995575000000000E-01     -1.146992000000000E+02
4831000000.000000      6.144104000000000E-01      1.280859000000000E+01      5.001221000000000E-01     -1.153828000000000E+02
4832000000.000000      6.150513000000000E-01      1.293213000000000E+01      4.993744000000000E-01     -1.159922000000000E+02
4833000000.000000      6.125183000000000E-01      1.277295000000000E+01      5.004883000000000E-01     -1.167695000000000E+02
4834000000.000000      6.119690000000000E-01      1.303076000000000E+01      4.993286000000000E-01     -1.175781000000000E+02
4835000000.000000      6.142578000000000E-01      1.313965000000000E+01      4.994202000000000E-01     -1.184648000000000E+02
4836000000.000000      6.136169000000000E-01      1.341699000000000E+01      4.985352000000000E-01     -1.190156000000000E+02
4837000000.000000      6.130676000000000E-01      1.360498000000000E+01      4.983826000000000E-01     -1.200234000000000E+02
4838000000.000000      6.123352000000000E-01      1.365967000000000E+01      4.995880000000000E-01     -1.206914000000000E+02
4839000000.000000      6.165161000000000E-01      1.380127000000000E+01      4.990082000000000E-01     -1.213984000000000E+02
4840000000.000000      6.158142000000000E-01      1.363086000000000E+01      4.989471000000000E-01     -1.223125000000000E+02
4841000000.000000      6.146240000000000E-01      1.387939000000000E+01      4.984894000000000E-01     -1.231367000000000E+02
4842000000.000000      6.170654000000000E-01      1.384814000000000E+01      4.964294000000000E-01     -1.236601000000000E+02
4843000000.000000      6.184692000000000E-01      1.394434000000000E+01      4.972687000000000E-01     -1.246484000000000E+02
4844000000.000000      6.154785000000000E-01      1.405957000000000E+01      4.965210000000000E-01     -1.255312000000000E+02
4845000000.000000      6.178589000000000E-01      1.412842000000000E+01      4.944000000000000E-01     -1.263281000000000E+02
4846000000.000000      6.173096000000000E-01      1.421338000000000E+01      4.928589000000000E-01     -1.272422000000000E+02
4847000000.000000      6.221313000000000E-01      1.437695000000000E+01      4.932556000000000E-01     -1.279258000000000E+02
4848000000.000000      6.199036000000000E-01      1.439063000000000E+01      4.899139000000000E-01     -1.290078000000000E+02
4849000000.000000      6.194153000000000E-01      1.435596000000000E+01      4.904785000000000E-01     -1.297500000000000E+02
4850000000.000000      6.204529000000000E-01      1.460742000000000E+01      4.885406000000000E-01     -1.305156000000000E+02
4851000000.000000      6.234741000000000E-01      1.478467000000000E+01      4.886017000000000E-01     -1.314531000000000E+02
4852000000.000000      6.237183000000000E-01      1.476660000000000E+01      4.848633000000000E-01     -1.322031000000000E+02
4853000000.000000      6.240540000000000E-01      1.466943000000000E+01      4.821167000000000E-01     -1.330937000000000E+02
4854000000.000000      6.253052000000000E-01      1.467480000000000E+01      4.801178000000000E-01     -1.338203000000000E+02
4855000000.000000      6.266174000000000E-01      1.482178000000000E+01      4.781647000000000E-01     -1.347891000000000E+02
4856000000.000000      6.258240000000000E-01      1.482178000000000E+01      4.757538000000000E-01     -1.357031000000000E+02
4857000000.000000      6.282654000000000E-01      1.504395000000000E+01      4.746246000000000E-01     -1.365078000000000E+02
4858000000.000000      6.293640000000000E-01      1.491113000000000E+01      4.715118000000000E-01     -1.373125000000000E+02
4859000000.000000      6.309204000000000E-01      1.499902000000000E+01      4.687042000000000E-01     -1.382266000000000E+02
4860000000.000000      6.315002000000000E-01      1.507422000000000E+01      4.646912000000000E-01     -1.390312000000000E+02
4861000000.000000      6.314087000000000E-01      1.505127000000000E+01      4.627991000000000E-01     -1.399609000000000E+02
4862000000.000000      6.324768000000000E-01      1.512793000000000E+01      4.604034000000000E-01     -1.408594000000000E+02
4863000000.000000      6.352844000000000E-01      1.528711000000000E+01      4.559174000000000E-01     -1.415390000000000E+02
4864000000.000000      6.380005000000000E-01      1.521191000000000E+01      4.531250000000000E-01     -1.424062000000000E+02
4865000000.000000      6.381226000000000E-01      1.504834000000000E+01      4.479370000000000E-01     -1.429688000000000E+02
4866000000.000000      6.397400000000000E-01      1.502783000000000E+01      4.445953000000000E-01     -1.441484000000000E+02
4867000000.000000      6.369629000000000E-01      1.502197000000000E+01      4.405670000000000E-01     -1.449141000000000E+02
4868000000.000000      6.421814000000000E-01      1.512793000000000E+01      4.385529000000000E-01     -1.457813000000000E+02
4869000000.000000      6.424866000000000E-01      1.498242000000000E+01      4.330750000000000E-01     -1.464844000000000E+02
4870000000.000000      6.434326000000000E-01      1.504395000000000E+01      4.281006000000000E-01     -1.468203000000000E+02
4871000000.000000      6.426086000000000E-01      1.484229000000000E+01      4.251709000000000E-01     -1.480391000000000E+02
4872000000.000000      6.462402000000000E-01      1.492188000000000E+01      4.212341000000000E-01     -1.486719000000000E+02
4873000000.000000      6.471558000000000E-01      1.490283000000000E+01      4.161835000000000E-01     -1.493281000000000E+02
4874000000.000000      6.498108000000000E-01      1.498242000000000E+01      4.119110000000000E-01     -1.502500000000000E+02
4875000000.000000      6.493530000000000E-01      1.477246000000000E+01      4.077759000000000E-01     -1.505938000000000E+02
4876000000.000000      6.505737000000000E-01      1.491357000000000E+01      4.041748000000000E-01     -1.512891000000000E+02
4877000000.000000      6.517944000000000E-01      1.472021000000000E+01      3.994293000000000E-01     -1.520937000000000E+02
4878000000.000000      6.516113000000000E-01      1.477637000000000E+01      3.949890000000000E-01     -1.528906000000000E+02
4879000000.000000      6.573792000000000E-01      1.473242000000000E+01      3.896179000000000E-01     -1.532187000000000E+02
4880000000.000000      6.574097000000000E-01      1.449463000000000E+01      3.862152000000000E-01     -1.540078000000000E+02
4881000000.000000      6.581116000000000E-01      1.469531000000000E+01      3.820496000000000E-01     -1.541797000000000E+02
4882000000.000000      6.614990000000000E-01      1.467627000000000E+01      3.776398000000000E-01     -1.548828000000000E+02
4883000000.000000      6.610718000000000E-01      1.458154000000000E+01      3.727417000000000E-01     -1.555312000000000E+02
4884000000.000000      6.612854000000000E-01      1.455518000000000E+01      3.683929000000000E-01     -1.561016000000000E+02
4885000000.000000      6.614380000000000E-01      1.441943000000000E+01      3.648224000000000E-01     -1.565859000000000E+02
4886000000.000000      6.632385000000000E-01      1.437012000000000E+01      3.594513000000000E-01     -1.570859000000000E+02
4887000000.000000      6.638489000000000E-01      1.432031000000000E+01      3.553314000000000E-01     -1.574453000000000E+02
4888000000.000000      6.653748000000000E-01      1.395801000000000E+01      3.522339000000000E-01     -1.580781000000000E+02
4889000000.000000      6.672058000000000E-01      1.424219000000000E+01      3.471832000000000E-01     -1.583750000000000E+02
4890000000.000000      6.672363000000000E-01      1.388770000000000E+01      3.421936000000000E-01     -1.592266000000000E+02
4891000000.000000      6.691895000000000E-01      1.395654000000000E+01      3.385773000000000E-01     -1.595000000000000E+02
4892000000.000000      6.680603000000000E-01      1.378369000000000E+01      3.348389000000000E-01     -1.596719000000000E+02
4893000000.000000      6.708374000000000E-01      1.384814000000000E+01      3.305817000000000E-01     -1.603984000000000E+02
4894000000.000000      6.709595000000000E-01      1.353906000000000E+01      3.263397000000000E-01     -1.606250000000000E+02
4895000000.000000      6.739502000000000E-01      1.347314000000000E+01      3.229370000000000E-01     -1.610547000000000E+02
4896000000.000000      6.744385000000000E-01      1.346924000000000E+01      3.187866000000000E-01     -1.614375000000000E+02
4897000000.000000      6.738892000000000E-01      1.349121000000000E+01      3.146362000000000E-01     -1.619531000000000E+02
4898000000.000000      6.766663000000000E-01      1.332617000000000E+01      3.117523000000000E-01     -1.621172000000000E+02
4899000000.000000      6.781311000000000E-01      1.324121000000000E+01      3.078003000000000E-01     -1.625859000000000E+02
4900000000.000000      6.780090000000000E-01      1.302246000000000E+01      3.044891000000000E-01     -1.630312000000000E+02
4901000000.000000      6.785583000000000E-01      1.293359000000000E+01      2.997894000000000E-01     -1.631875000000000E+02
4902000000.000000      6.807861000000000E-01      1.288379000000000E+01      2.970886000000000E-01     -1.633906000000000E+02
4903000000.000000      6.807556000000000E-01      1.296094000000000E+01      2.922821000000000E-01     -1.639453000000000E+02
4904000000.000000      6.824646000000000E-01      1.263672000000000E+01      2.891846000000000E-01     -1.643203000000000E+02
4905000000.000000      6.814575000000000E-01      1.252539000000000E+01      2.860565000000000E-01     -1.645625000000000E+02
4906000000.000000      6.822205000000000E-01      1.244727000000000E+01      2.825928000000000E-01     -1.648438000000000E+02
4907000000.000000      6.839600000000000E-01      1.244434000000000E+01      2.794647000000000E-01     -1.652656000000000E+02
4908000000.000000      6.849060000000000E-01      1.209863000000000E+01      2.761688000000000E-01     -1.658437000000000E+02
4909000000.000000      6.847229000000000E-01      1.215186000000000E+01      2.717896000000000E-01     -1.660156000000000E+02
4910000000.000000      6.836243000000000E-01      1.208740000000000E+01      2.685089000000000E-01     -1.661719000000000E+02
4911000000.000000      6.859741000000000E-01      1.212744000000000E+01      2.649994000000000E-01     -1.664141000000000E+02
4912000000.000000      6.860657000000000E-01      1.187305000000000E+01      2.611542000000000E-01     -1.669375000000000E+02
4913000000.000000      6.866150000000000E-01      1.181543000000000E+01      2.579193000000000E-01     -1.672031000000000E+02
4914000000.000000      6.888123000000000E-01      1.169629000000000E+01      2.544708000000000E-01     -1.673125000000000E+02
4915000000.000000      6.882019000000000E-01      1.137451000000000E+01      2.503357000000000E-01     -1.678437000000000E+02
4916000000.000000      6.882629000000000E-01      1.149170000000000E+01      2.469559000000000E-01     -1.682109000000000E+02
4917000000.000000      6.895142000000000E-01      1.151611000000000E+01      2.438126000000000E-01     -1.684687000000000E+02
4918000000.000000      6.905823000000000E-01      1.124414000000000E+01      2.390671000000000E-01     -1.687578000000000E+02
4919000000.000000      6.901550000000000E-01      1.123877000000000E+01      2.367706000000000E-01     -1.687891000000000E+02
4920000000.000000      6.914978000000000E-01      1.103418000000000E+01      2.325745000000000E-01     -1.692578000000000E+02
4921000000.000000      6.893921000000000E-01      1.103418000000000E+01      2.294006000000000E-01     -1.694453000000000E+02
4922000000.000000      6.928406000000000E-01      1.084473000000000E+01      2.254028000000000E-01     -1.695937000000000E+02
4923000000.000000      6.919861000000000E-01      1.077051000000000E+01      2.214355000000000E-01     -1.698516000000000E+02
4924000000.000000      6.931152000000000E-01      1.065088000000000E+01      2.177353000000000E-01     -1.700703000000000E+02
4925000000.000000      6.923218000000000E-01      1.067285000000000E+01      2.141800000000000E-01     -1.702109000000000E+02
4926000000.000000      6.932373000000000E-01      1.061816000000000E+01      2.105179000000000E-01     -1.702891000000000E+02
4927000000.000000      6.944580000000000E-01      1.034912000000000E+01      2.069931000000000E-01     -1.707109000000000E+02
4928000000.000000      6.965027000000000E-01      1.036816000000000E+01      2.037430000000000E-01     -1.705937000000000E+02
4929000000.000000      6.943359000000000E-01      1.012939000000000E+01      1.991043000000000E-01     -1.708828000000000E+02
4930000000.000000      6.955872000000000E-01      1.019775000000000E+01      1.948700000000000E-01     -1.708125000000000E+02
4931000000.000000      6.955261000000000E-01      1.005371000000000E+01      1.919632000000000E-01     -1.708203000000000E+02
4932000000.000000      6.976929000000000E-01      1.007959000000000E+01      1.878967000000000E-01     -1.709531000000000E+02
4933000000.000000      6.975403000000000E-01      9.896973000000000E+00      1.834946000000000E-01     -1.707187000000000E+02
4934000000.000000      6.983948000000000E-01      9.621094000000000E+00      1.799393000000000E-01     -1.708594000000000E+02
4935000000.000000      7.000732000000000E-01      9.560547000000000E+00      1.765518000000000E-01     -1.705781000000000E+02
4936000000.000000      6.997986000000000E-01      9.404297000000000E+00      1.729660000000000E-01     -1.704766000000000E+02
4937000000.000000      6.993408000000000E-01      9.428711000000000E+00      1.687546000000000E-01     -1.702969000000000E+02
4938000000.000000      6.983948000000000E-01      9.412109000000000E+00      1.651001000000000E-01     -1.701250000000000E+02
4939000000.000000      6.986389000000000E-01      9.335449000000000E+00      1.615982000000000E-01     -1.697578000000000E+02
4940000000.000000      7.005920000000000E-01      9.110352000000000E+00      1.571655000000000E-01     -1.695625000000000E+02
4941000000.000000      7.015381000000000E-01      9.049805000000000E+00      1.540527000000000E-01     -1.689922000000000E+02
4942000000.000000      7.005920000000000E-01      8.955078000000000E+00      1.505051000000000E-01     -1.685859000000000E+02
4943000000.000000      7.020569000000000E-01      8.864258000000000E+00      1.465302000000000E-01     -1.680234000000000E+02
4944000000.000000      7.023926000000000E-01      8.724121000000000E+00      1.432266000000000E-01     -1.675313000000000E+02
4945000000.000000      7.029419000000000E-01      8.585449000000000E+00      1.398621000000000E-01     -1.667969000000000E+02
4946000000.000000      7.021179000000000E-01      8.545898000000000E+00      1.371765000000000E-01     -1.662188000000000E+02
4947000000.000000      7.029419000000000E-01      8.430176000000000E+00      1.339340000000000E-01     -1.655469000000000E+02
4948000000.000000      7.031860000000000E-01      8.455078000000000E+00      1.304169000000000E-01     -1.643750000000000E+02
4949000000.000000      7.047729000000000E-01      8.272461000000000E+00      1.278305000000000E-01     -1.633516000000000E+02
4950000000.000000      7.055969000000000E-01      8.297363000000000E+00      1.253128000000000E-01     -1.625547000000000E+02
4951000000.000000      7.066345000000000E-01      7.951172000000000E+00      1.218529000000000E-01     -1.615234000000000E+02
4952000000.000000      7.044373000000000E-01      7.900391000000000E+00      1.191788000000000E-01     -1.603359000000000E+02
4953000000.000000      7.062683000000000E-01      7.829102000000000E+00      1.174507000000000E-01     -1.588828000000000E+02
4954000000.000000      7.077942000000000E-01      7.958008000000000E+00      1.148453000000000E-01     -1.575000000000000E+02
