! Network Analyzer HP8722D
! Hewlett-Packard
! Data name: Linha & Wilkinson
! Saver's name: Rodrigo Anjos
! Comments: Teste da utilização de aquisição
continua pelo VNA HP8722D
! Time and date: 22/5/2025 17:01
!              Frequency                     S11                                                   S21                                                   S12                                                   S22
# HZ  S  MA R 50
4800000000.000000      6.519775000000000E-01      1.095313000000000E+01      4.702148000000000E-01     -9.200390000000000E+01
4801000000.000000      6.507263000000000E-01      1.099707000000000E+01      4.724121000000000E-01     -9.253906000000000E+01
4802000000.000000      6.499939000000000E-01      1.106152000000000E+01      4.752502000000000E-01     -9.335155000000000E+01
4803000000.000000      6.471558000000000E-01      1.093506000000000E+01      4.766388000000000E-01     -9.395311000000000E+01
4804000000.000000      6.447754000000000E-01      1.081592000000000E+01      4.787598000000000E-01     -9.476563000000000E+01
4805000000.000000      6.445923000000000E-01      1.086816000000000E+01      4.795532000000000E-01     -9.575781000000000E+01
4806000000.000000      6.444092000000000E-01      1.089404000000000E+01      4.814301000000000E-01     -9.625780000000000E+01
4807000000.000000      6.394958000000000E-01      1.087061000000000E+01      4.822235000000000E-01     -9.724218000000000E+01
4808000000.000000      6.391296000000000E-01      1.098730000000000E+01      4.844666000000000E-01     -9.781639000000000E+01
4809000000.000000      6.378479000000000E-01      1.104102000000000E+01      4.853668000000000E-01     -9.870703000000000E+01
4810000000.000000      6.347656000000000E-01      1.109473000000000E+01      4.881592000000000E-01     -9.928123000000000E+01
4811000000.000000      6.350098000000000E-01      1.097803000000000E+01      4.877319000000000E-01     -1.002773000000000E+02
4812000000.000000      6.352539000000000E-01      1.122900000000000E+01      4.902649000000000E-01     -1.009414000000000E+02
4813000000.000000      6.323853000000000E-01      1.111523000000000E+01      4.900055000000000E-01     -1.018086000000000E+02
4814000000.000000      6.289673000000000E-01      1.116748000000000E+01      4.922333000000000E-01     -1.023281000000000E+02
4815000000.000000      6.265564000000000E-01      1.121143000000000E+01      4.918213000000000E-01     -1.031133000000000E+02
4816000000.000000      6.281738000000000E-01      1.138037000000000E+01      4.935303000000000E-01     -1.038828000000000E+02
4817000000.000000      6.244202000000000E-01      1.140479000000000E+01      4.951935000000000E-01     -1.048047000000000E+02
4818000000.000000      6.252747000000000E-01      1.153125000000000E+01      4.949799000000000E-01     -1.054688000000000E+02
4819000000.000000      6.251526000000000E-01      1.161377000000000E+01      4.956055000000000E-01     -1.062187000000000E+02
4820000000.000000      6.209717000000000E-01      1.170313000000000E+01      4.969482000000000E-01     -1.068633000000000E+02
4821000000.000000      6.217651000000000E-01      1.172363000000000E+01      4.967499000000000E-01     -1.076914000000000E+02
4822000000.000000      6.195374000000000E-01      1.158203000000000E+01      4.970551000000000E-01     -1.083008000000000E+02
4823000000.000000      6.195374000000000E-01      1.190918000000000E+01      4.985046000000000E-01     -1.092812000000000E+02
4824000000.000000      6.182861000000000E-01      1.206152000000000E+01      4.981689000000000E-01     -1.099687000000000E+02
4825000000.000000      6.165466000000000E-01      1.198877000000000E+01      4.972687000000000E-01     -1.105508000000000E+02
4826000000.000000      6.171875000000000E-01      1.209180000000000E+01      4.996948000000000E-01     -1.115195000000000E+02
4827000000.000000      6.176453000000000E-01      1.232373000000000E+01      4.988708000000000E-01     -1.121211000000000E+02
4828000000.000000      6.163940000000000E-01      1.243652000000000E+01      5.003662000000000E-01     -1.129375000000000E+02
4829000000.000000      6.154480000000000E-01      1.270557000000000E+01      5.000610000000000E-01     -1.137226000000000E+02
4830000000.000000      6.147766000000000E-01      1.269287000000000E+01      5.003052000000000E-01     -1.144844000000000E+02
4831000000.000000      6.138611000000000E-01      1.267822000000000E+01      5.006409000000000E-01     -1.152031000000000E+02
4832000000.000000      6.120300000000000E-01      1.287158000000000E+01      4.996338000000000E-01     -1.158594000000000E+02
4833000000.000000      6.131592000000000E-01      1.298682000000000E+01      4.990845000000000E-01     -1.166719000000000E+02
4834000000.000000      6.132507000000000E-01      1.312549000000000E+01      5.003662000000000E-01     -1.175586000000000E+02
4835000000.000000      6.142883000000000E-01      1.304736000000000E+01      4.998627000000000E-01     -1.183516000000000E+02
4836000000.000000      6.138306000000000E-01      1.344727000000000E+01      4.985962000000000E-01     -1.188515000000000E+02
4837000000.000000      6.135254000000000E-01      1.350586000000000E+01      4.977722000000000E-01     -1.199453000000000E+02
4838000000.000000      6.116943000000000E-01      1.348145000000000E+01      4.977570000000000E-01     -1.204140000000000E+02
4839000000.000000      6.170959000000000E-01      1.381787000000000E+01      4.989471000000000E-01     -1.213984000000000E+02
4840000000.000000      6.136169000000000E-01      1.351025000000000E+01      4.999237000000000E-01     -1.220742000000000E+02
4841000000.000000      6.146545000000000E-01      1.395654000000000E+01      4.983521000000000E-01     -1.230547000000000E+02
4842000000.000000      6.142883000000000E-01      1.395654000000000E+01      4.975128000000000E-01     -1.237187000000000E+02
4843000000.000000      6.168213000000000E-01      1.396191000000000E+01      4.974976000000000E-01     -1.246992000000000E+02
4844000000.000000      6.151428000000000E-01      1.407324000000000E+01      4.948578000000000E-01     -1.253945000000000E+02
4845000000.000000      6.163330000000000E-01      1.421191000000000E+01      4.959259000000000E-01     -1.262578000000000E+02
4846000000.000000      6.195679000000000E-01      1.456494000000000E+01      4.940796000000000E-01     -1.272070000000000E+02
4847000000.000000      6.194458000000000E-01      1.450977000000000E+01      4.927368000000000E-01     -1.278555000000000E+02
4848000000.000000      6.195679000000000E-01      1.443311000000000E+01      4.898224000000000E-01     -1.286641000000000E+02
4849000000.000000      6.221313000000000E-01      1.450586000000000E+01      4.904633000000000E-01     -1.293672000000000E+02
4850000000.000000      6.219482000000000E-01      1.453076000000000E+01      4.878082000000000E-01     -1.303984000000000E+02
4851000000.000000      6.221619000000000E-01      1.470654000000000E+01      4.879150000000000E-01     -1.311719000000000E+02
4852000000.000000      6.222229000000000E-01      1.474219000000000E+01      4.853210000000000E-01     -1.321875000000000E+02
4853000000.000000      6.236267000000000E-01      1.492041000000000E+01      4.824371000000000E-01     -1.331406000000000E+02
4854000000.000000      6.257019000000000E-01      1.490820000000000E+01      4.797516000000000E-01     -1.339531000000000E+02
4855000000.000000      6.268921000000000E-01      1.489844000000000E+01      4.781799000000000E-01     -1.347578000000000E+02
4856000000.000000      6.265564000000000E-01      1.495068000000000E+01      4.772034000000000E-01     -1.355000000000000E+02
4857000000.000000      6.271362000000000E-01      1.515283000000000E+01      4.739075000000000E-01     -1.364453000000000E+02
4858000000.000000      6.297302000000000E-01      1.502783000000000E+01      4.721375000000000E-01     -1.372656000000000E+02
4859000000.000000      6.310730000000000E-01      1.494141000000000E+01      4.688263000000000E-01     -1.383203000000000E+02
4860000000.000000      6.298828000000000E-01      1.514844000000000E+01      4.668884000000000E-01     -1.388672000000000E+02
4861000000.000000      6.322327000000000E-01      1.511963000000000E+01      4.629364000000000E-01     -1.399531000000000E+02
4862000000.000000      6.318970000000000E-01      1.517041000000000E+01      4.600830000000000E-01     -1.406250000000000E+02
4863000000.000000      6.346741000000000E-01      1.516211000000000E+01      4.567566000000000E-01     -1.415469000000000E+02
4864000000.000000      6.365967000000000E-01      1.518408000000000E+01      4.536591000000000E-01     -1.423125000000000E+02
4865000000.000000      6.370239000000000E-01      1.508545000000000E+01      4.493866000000000E-01     -1.430234000000000E+02
4866000000.000000      6.370544000000000E-01      1.514160000000000E+01      4.455719000000000E-01     -1.439531000000000E+02
4867000000.000000      6.390991000000000E-01      1.513623000000000E+01      4.410858000000000E-01     -1.449063000000000E+02
4868000000.000000      6.411438000000000E-01      1.526270000000000E+01      4.385376000000000E-01     -1.455703000000000E+02
4869000000.000000      6.416321000000000E-01      1.504297000000000E+01      4.336700000000000E-01     -1.462188000000000E+02
4870000000.000000      6.427917000000000E-01      1.518555000000000E+01      4.303741000000000E-01     -1.471016000000000E+02
4871000000.000000      6.440125000000000E-01      1.499316000000000E+01      4.259186000000000E-01     -1.477344000000000E+02
4872000000.000000      6.460876000000000E-01      1.498633000000000E+01      4.214783000000000E-01     -1.483438000000000E+02
4873000000.000000      6.462708000000000E-01      1.509082000000000E+01      4.164886000000000E-01     -1.493515000000000E+02
4874000000.000000      6.475525000000000E-01      1.497705000000000E+01      4.123535000000000E-01     -1.498516000000000E+02
4875000000.000000      6.504822000000000E-01      1.479150000000000E+01      4.079132000000000E-01     -1.504609000000000E+02
4876000000.000000      6.517639000000000E-01      1.497559000000000E+01      4.034729000000000E-01     -1.511797000000000E+02
4877000000.000000      6.541138000000000E-01      1.478760000000000E+01      3.995514000000000E-01     -1.520391000000000E+02
4878000000.000000      6.535034000000000E-01      1.468555000000000E+01      3.949585000000000E-01     -1.527656000000000E+02
4879000000.000000      6.558838000000000E-01      1.470215000000000E+01      3.911591000000000E-01     -1.530859000000000E+02
4880000000.000000      6.571350000000000E-01      1.482568000000000E+01      3.867645000000000E-01     -1.537344000000000E+02
4881000000.000000      6.604614000000000E-01      1.471875000000000E+01      3.822479000000000E-01     -1.541641000000000E+02
4882000000.000000      6.608887000000000E-01      1.463623000000000E+01      3.784180000000000E-01     -1.549141000000000E+02
4883000000.000000      6.595154000000000E-01      1.450439000000000E+01      3.718872000000000E-01     -1.554844000000000E+02
4884000000.000000      6.634827000000000E-01      1.457715000000000E+01      3.694611000000000E-01     -1.562422000000000E+02
4885000000.000000      6.624146000000000E-01      1.445361000000000E+01      3.640137000000000E-01     -1.564141000000000E+02
4886000000.000000      6.642456000000000E-01      1.441797000000000E+01      3.607635000000000E-01     -1.568906000000000E+02
4887000000.000000      6.650085000000000E-01      1.420117000000000E+01      3.559723000000000E-01     -1.575781000000000E+02
4888000000.000000      6.667786000000000E-01      1.410059000000000E+01      3.533020000000000E-01     -1.580625000000000E+02
4889000000.000000      6.671753000000000E-01      1.407617000000000E+01      3.464050000000000E-01     -1.584219000000000E+02
4890000000.000000      6.660461000000000E-01      1.393457000000000E+01      3.434753000000000E-01     -1.590547000000000E+02
4891000000.000000      6.684570000000000E-01      1.405957000000000E+01      3.379517000000000E-01     -1.591563000000000E+02
4892000000.000000      6.681519000000000E-01      1.391943000000000E+01      3.345642000000000E-01     -1.596641000000000E+02
4893000000.000000      6.719360000000000E-01      1.376953000000000E+01      3.305511000000000E-01     -1.603359000000000E+02
4894000000.000000      6.716309000000000E-01      1.367920000000000E+01      3.270111000000000E-01     -1.606406000000000E+02
4895000000.000000      6.733093000000000E-01      1.348389000000000E+01      3.244171000000000E-01     -1.610078000000000E+02
4896000000.000000      6.749573000000000E-01      1.343457000000000E+01      3.191681000000000E-01     -1.612422000000000E+02
4897000000.000000      6.748047000000000E-01      1.342920000000000E+01      3.151550000000000E-01     -1.618281000000000E+02
4898000000.000000      6.758118000000000E-01      1.327148000000000E+01      3.116913000000000E-01     -1.620625000000000E+02
4899000000.000000      6.780701000000000E-01      1.325732000000000E+01      3.079529000000000E-01     -1.626641000000000E+02
4900000000.000000      6.778259000000000E-01      1.301172000000000E+01      3.039246000000000E-01     -1.628750000000000E+02
4901000000.000000      6.763611000000000E-01      1.304053000000000E+01      3.012390000000000E-01     -1.631641000000000E+02
4902000000.000000      6.802673000000000E-01      1.297168000000000E+01      2.975922000000000E-01     -1.633828000000000E+02
4903000000.000000      6.795654000000000E-01      1.296387000000000E+01      2.933807000000000E-01     -1.638515000000000E+02
4904000000.000000      6.837158000000000E-01      1.284814000000000E+01      2.895355000000000E-01     -1.643047000000000E+02
4905000000.000000      6.834717000000000E-01      1.269727000000000E+01      2.864990000000000E-01     -1.646563000000000E+02
4906000000.000000      6.824341000000000E-01      1.258057000000000E+01      2.826691000000000E-01     -1.646641000000000E+02
4907000000.000000      6.832581000000000E-01      1.246240000000000E+01      2.794189000000000E-01     -1.652656000000000E+02
4908000000.000000      6.826477000000000E-01      1.240039000000000E+01      2.767639000000000E-01     -1.655703000000000E+02
4909000000.000000      6.838379000000000E-01      1.219336000000000E+01      2.719269000000000E-01     -1.660547000000000E+02
4910000000.000000      6.844177000000000E-01      1.213818000000000E+01      2.685394000000000E-01     -1.661562000000000E+02
4911000000.000000      6.866455000000000E-01      1.208203000000000E+01      2.655029000000000E-01     -1.663906000000000E+02
4912000000.000000      6.853943000000000E-01      1.210693000000000E+01      2.624969000000000E-01     -1.669453000000000E+02
4913000000.000000      6.874695000000000E-01      1.171680000000000E+01      2.584686000000000E-01     -1.671719000000000E+02
4914000000.000000      6.863098000000000E-01      1.169482000000000E+01      2.548370000000000E-01     -1.673906000000000E+02
4915000000.000000      6.878967000000000E-01      1.173340000000000E+01      2.509155000000000E-01     -1.678984000000000E+02
4916000000.000000      6.890259000000000E-01      1.158643000000000E+01      2.478790000000000E-01     -1.682188000000000E+02
4917000000.000000      6.885376000000000E-01      1.148584000000000E+01      2.449493000000000E-01     -1.683437000000000E+02
4918000000.000000      6.887817000000000E-01      1.152295000000000E+01      2.401276000000000E-01     -1.686641000000000E+02
4919000000.000000      6.891479000000000E-01      1.134863000000000E+01      2.371597000000000E-01     -1.687656000000000E+02
4920000000.000000      6.897278000000000E-01      1.104102000000000E+01      2.326736000000000E-01     -1.692422000000000E+02
4921000000.000000      6.922607000000000E-01      1.110400000000000E+01      2.302399000000000E-01     -1.693828000000000E+02
4922000000.000000      6.912231000000000E-01      1.098486000000000E+01      2.263641000000000E-01     -1.694609000000000E+02
4923000000.000000      6.924744000000000E-01      1.104932000000000E+01      2.226715000000000E-01     -1.697500000000000E+02
4924000000.000000      6.922913000000000E-01      1.081152000000000E+01      2.180634000000000E-01     -1.701172000000000E+02
4925000000.000000      6.912231000000000E-01      1.052881000000000E+01      2.148666000000000E-01     -1.701953000000000E+02
4926000000.000000      6.907349000000000E-01      1.045068000000000E+01      2.108994000000000E-01     -1.704062000000000E+02
4927000000.000000      6.918030000000000E-01      1.033936000000000E+01      2.068100000000000E-01     -1.705469000000000E+02
4928000000.000000      6.963501000000000E-01      1.033252000000000E+01      2.035446000000000E-01     -1.706094000000000E+02
4929000000.000000      6.947021000000000E-01      1.024463000000000E+01      1.992493000000000E-01     -1.706953000000000E+02
4930000000.000000      6.972351000000000E-01      1.015527000000000E+01      1.959305000000000E-01     -1.709063000000000E+02
4931000000.000000      6.962280000000000E-01      9.974121000000000E+00      1.928406000000000E-01     -1.708516000000000E+02
4932000000.000000      6.979370000000000E-01      9.961426000000000E+00      1.881561000000000E-01     -1.707187000000000E+02
4933000000.000000      6.966553000000000E-01      9.883301000000000E+00      1.832809000000000E-01     -1.707734000000000E+02
4934000000.000000      6.993713000000000E-01      9.614258000000000E+00      1.807327000000000E-01     -1.709063000000000E+02
4935000000.000000      6.976624000000000E-01      9.682617000000000E+00      1.771927000000000E-01     -1.703359000000000E+02
4936000000.000000      6.976318000000000E-01      9.527832000000000E+00      1.731415000000000E-01     -1.705391000000000E+02
4937000000.000000      6.959229000000000E-01      9.408203000000000E+00      1.692429000000000E-01     -1.705156000000000E+02
4938000000.000000      6.998291000000000E-01      9.465820000000000E+00      1.656113000000000E-01     -1.702266000000000E+02
4939000000.000000      6.987915000000000E-01      9.310547000000000E+00      1.622086000000000E-01     -1.698281000000000E+02
4940000000.000000      7.003784000000000E-01      9.274902000000000E+00      1.576843000000000E-01     -1.696328000000000E+02
4941000000.000000      7.006226000000000E-01      8.975586000000000E+00      1.547165000000000E-01     -1.690391000000000E+02
4942000000.000000      6.983948000000000E-01      8.990723000000000E+00      1.503983000000000E-01     -1.688047000000000E+02
4943000000.000000      7.024536000000000E-01      9.052734000000000E+00      1.471176000000000E-01     -1.682812000000000E+02
4944000000.000000      7.007141000000000E-01      8.783203000000000E+00      1.443481000000000E-01     -1.675859000000000E+02
4945000000.000000      7.021484000000000E-01      8.657227000000000E+00      1.405106000000000E-01     -1.669141000000000E+02
4946000000.000000      7.054443000000000E-01      8.517090000000000E+00      1.373062000000000E-01     -1.663516000000000E+02
4947000000.000000      7.003174000000000E-01      8.393555000000000E+00      1.337051000000000E-01     -1.656094000000000E+02
4948000000.000000      7.051086000000000E-01      8.414063000000000E+00      1.309814000000000E-01     -1.646094000000000E+02
4949000000.000000      7.026672000000000E-01      8.264160000000000E+00      1.284485000000000E-01     -1.634531000000000E+02
4950000000.000000      7.053833000000000E-01      8.301270000000000E+00      1.247215000000000E-01     -1.628438000000000E+02
4951000000.000000      7.049255000000000E-01      8.092773000000000E+00      1.226997000000000E-01     -1.617734000000000E+02
4952000000.000000      7.060547000000000E-01      8.010254000000000E+00      1.196709000000000E-01     -1.604453000000000E+02
4953000000.000000      7.052002000000000E-01      7.965088000000000E+00      1.177177000000000E-01     -1.589531000000000E+02
4954000000.000000      7.068787000000000E-01      7.682129000000000E+00      1.151886000000000E-01     -1.577422000000000E+02
