! Network Analyzer HP8722D
! Hewlett-Packard
! Data name: Linha & Wilkinson
! Saver's name: Rodrigo Anjos
! Comments: Teste da utilização de aquisição
continua pelo VNA HP8722D
! Time and date: 22/5/2025 14:08
!              Frequency                     S11                                                   S21                                                   S12                                                   S22
# HZ  S  MA R 50
4800000000.000000      6.521912000000000E-01      1.084717000000000E+01      4.716339000000000E-01     -9.223827000000000E+01
4801000000.000000      6.503601000000000E-01      1.097803000000000E+01      4.727173000000000E-01     -9.273046000000000E+01
4802000000.000000      6.493225000000000E-01      1.090088000000000E+01      4.740906000000000E-01     -9.359766000000000E+01
4803000000.000000      6.451111000000000E-01      1.090088000000000E+01      4.765320000000000E-01     -9.423437000000000E+01
4804000000.000000      6.448669000000000E-01      1.089697000000000E+01      4.771118000000000E-01     -9.524609000000000E+01
4805000000.000000      6.452026000000000E-01      1.081836000000000E+01      4.801025000000000E-01     -9.592577000000000E+01
4806000000.000000      6.419067000000000E-01      1.088428000000000E+01      4.807434000000000E-01     -9.655859000000000E+01
4807000000.000000      6.389465000000000E-01      1.086816000000000E+01      4.822388000000000E-01     -9.755468000000000E+01
4808000000.000000      6.372375000000000E-01      1.090918000000000E+01      4.850006000000000E-01     -9.811718000000000E+01
4809000000.000000      6.388855000000000E-01      1.111523000000000E+01      4.863281000000000E-01     -9.907421000000000E+01
4810000000.000000      6.362610000000000E-01      1.087354000000000E+01      4.876404000000000E-01     -9.964844000000000E+01
4811000000.000000      6.349487000000000E-01      1.105908000000000E+01      4.880219000000000E-01     -1.003594000000000E+02
4812000000.000000      6.341858000000000E-01      1.117285000000000E+01      4.891357000000000E-01     -1.010664000000000E+02
4813000000.000000      6.308594000000000E-01      1.123193000000000E+01      4.913177000000000E-01     -1.019297000000000E+02
4814000000.000000      6.303101000000000E-01      1.113184000000000E+01      4.927673000000000E-01     -1.025781000000000E+02
4815000000.000000      6.289063000000000E-01      1.128271000000000E+01      4.913635000000000E-01     -1.034453000000000E+02
4816000000.000000      6.274414000000000E-01      1.127441000000000E+01      4.945374000000000E-01     -1.040859000000000E+02
4817000000.000000      6.256104000000000E-01      1.147900000000000E+01      4.940491000000000E-01     -1.048828000000000E+02
4818000000.000000      6.259766000000000E-01      1.139258000000000E+01      4.941711000000000E-01     -1.056641000000000E+02
4819000000.000000      6.242065000000000E-01      1.150537000000000E+01      4.954834000000000E-01     -1.064961000000000E+02
4820000000.000000      6.223755000000000E-01      1.157373000000000E+01      4.963074000000000E-01     -1.070586000000000E+02
4821000000.000000      6.221008000000000E-01      1.162451000000000E+01      4.973450000000000E-01     -1.079258000000000E+02
4822000000.000000      6.206055000000000E-01      1.152734000000000E+01      4.948883000000000E-01     -1.085273000000000E+02
4823000000.000000      6.193237000000000E-01      1.178125000000000E+01      4.981689000000000E-01     -1.094765000000000E+02
4824000000.000000      6.180115000000000E-01      1.188135000000000E+01      4.980316000000000E-01     -1.101797000000000E+02
4825000000.000000      6.177368000000000E-01      1.215088000000000E+01      4.971619000000000E-01     -1.108516000000000E+02
4826000000.000000      6.161499000000000E-01      1.200244000000000E+01      4.985352000000000E-01     -1.116875000000000E+02
4827000000.000000      6.152954000000000E-01      1.240869000000000E+01      4.985962000000000E-01     -1.124219000000000E+02
4828000000.000000      6.167297000000000E-01      1.228369000000000E+01      4.981995000000000E-01     -1.130586000000000E+02
4829000000.000000      6.149597000000000E-01      1.268359000000000E+01      5.001221000000000E-01     -1.138515000000000E+02
4830000000.000000      6.148376000000000E-01      1.254346000000000E+01      5.003357000000000E-01     -1.146094000000000E+02
4831000000.000000      6.149902000000000E-01      1.260400000000000E+01      5.008240000000000E-01     -1.154766000000000E+02
4832000000.000000      6.133728000000000E-01      1.297754000000000E+01      4.975586000000000E-01     -1.160039000000000E+02
4833000000.000000      6.148682000000000E-01      1.285254000000000E+01      4.987183000000000E-01     -1.168711000000000E+02
4834000000.000000      6.147461000000000E-01      1.300342000000000E+01      4.997711000000000E-01     -1.176250000000000E+02
4835000000.000000      6.159973000000000E-01      1.327148000000000E+01      4.987488000000000E-01     -1.185117000000000E+02
4836000000.000000      6.145630000000000E-01      1.326172000000000E+01      4.973450000000000E-01     -1.191914000000000E+02
4837000000.000000      6.136780000000000E-01      1.334814000000000E+01      4.975891000000000E-01     -1.202656000000000E+02
4838000000.000000      6.135864000000000E-01      1.333154000000000E+01      4.981384000000000E-01     -1.207539000000000E+02
4839000000.000000      6.181641000000000E-01      1.358691000000000E+01      4.985962000000000E-01     -1.216211000000000E+02
4840000000.000000      6.142273000000000E-01      1.364893000000000E+01      4.990082000000000E-01     -1.223633000000000E+02
4841000000.000000      6.148682000000000E-01      1.401855000000000E+01      4.985199000000000E-01     -1.230859000000000E+02
4842000000.000000      6.161194000000000E-01      1.389600000000000E+01      4.970703000000000E-01     -1.239023000000000E+02
4843000000.000000      6.187439000000000E-01      1.386719000000000E+01      4.966736000000000E-01     -1.249687000000000E+02
4844000000.000000      6.183472000000000E-01      1.391797000000000E+01      4.949341000000000E-01     -1.257383000000000E+02
4845000000.000000      6.188049000000000E-01      1.410889000000000E+01      4.933929000000000E-01     -1.264063000000000E+02
4846000000.000000      6.197815000000000E-01      1.426807000000000E+01      4.920654000000000E-01     -1.272500000000000E+02
4847000000.000000      6.205750000000000E-01      1.441504000000000E+01      4.924164000000000E-01     -1.280078000000000E+02
4848000000.000000      6.229553000000000E-01      1.443457000000000E+01      4.890442000000000E-01     -1.289844000000000E+02
4849000000.000000      6.206360000000000E-01      1.448682000000000E+01      4.897003000000000E-01     -1.299141000000000E+02
4850000000.000000      6.224976000000000E-01      1.458838000000000E+01      4.880066000000000E-01     -1.306328000000000E+02
4851000000.000000      6.233521000000000E-01      1.461572000000000E+01      4.886169000000000E-01     -1.315469000000000E+02
4852000000.000000      6.231079000000000E-01      1.462256000000000E+01      4.839020000000000E-01     -1.323516000000000E+02
4853000000.000000      6.250916000000000E-01      1.474365000000000E+01      4.819946000000000E-01     -1.330859000000000E+02
4854000000.000000      6.260986000000000E-01      1.470215000000000E+01      4.800873000000000E-01     -1.340937000000000E+02
4855000000.000000      6.263123000000000E-01      1.461865000000000E+01      4.784698000000000E-01     -1.349922000000000E+02
4856000000.000000      6.282959000000000E-01      1.463770000000000E+01      4.753418000000000E-01     -1.358281000000000E+02
4857000000.000000      6.293640000000000E-01      1.496875000000000E+01      4.739532000000000E-01     -1.365547000000000E+02
4858000000.000000      6.303711000000000E-01      1.501660000000000E+01      4.698486000000000E-01     -1.375703000000000E+02
4859000000.000000      6.312866000000000E-01      1.485889000000000E+01      4.689941000000000E-01     -1.383984000000000E+02
4860000000.000000      6.297302000000000E-01      1.488232000000000E+01      4.651489000000000E-01     -1.392031000000000E+02
4861000000.000000      6.320190000000000E-01      1.504980000000000E+01      4.615631000000000E-01     -1.401953000000000E+02
4862000000.000000      6.343384000000000E-01      1.497949000000000E+01      4.594574000000000E-01     -1.408359000000000E+02
4863000000.000000      6.340027000000000E-01      1.497705000000000E+01      4.540253000000000E-01     -1.418125000000000E+02
4864000000.000000      6.372681000000000E-01      1.488477000000000E+01      4.519043000000000E-01     -1.423750000000000E+02
4865000000.000000      6.369019000000000E-01      1.499756000000000E+01      4.487915000000000E-01     -1.432812000000000E+02
4866000000.000000      6.394958000000000E-01      1.495752000000000E+01      4.437103000000000E-01     -1.441641000000000E+02
4867000000.000000      6.382141000000000E-01      1.506592000000000E+01      4.400787000000000E-01     -1.448906000000000E+02
4868000000.000000      6.409912000000000E-01      1.491650000000000E+01      4.375305000000000E-01     -1.457813000000000E+02
4869000000.000000      6.427917000000000E-01      1.496875000000000E+01      4.326019000000000E-01     -1.466641000000000E+02
4870000000.000000      6.436768000000000E-01      1.480811000000000E+01      4.300995000000000E-01     -1.471797000000000E+02
4871000000.000000      6.448364000000000E-01      1.484766000000000E+01      4.252014000000000E-01     -1.480625000000000E+02
4872000000.000000      6.462402000000000E-01      1.487402000000000E+01      4.200897000000000E-01     -1.487031000000000E+02
4873000000.000000      6.466064000000000E-01      1.498242000000000E+01      4.175110000000000E-01     -1.494531000000000E+02
4874000000.000000      6.484375000000000E-01      1.490527000000000E+01      4.125366000000000E-01     -1.502031000000000E+02
4875000000.000000      6.511230000000000E-01      1.473389000000000E+01      4.073029000000000E-01     -1.506797000000000E+02
4876000000.000000      6.515198000000000E-01      1.489453000000000E+01      4.041901000000000E-01     -1.515625000000000E+02
4877000000.000000      6.532288000000000E-01      1.471338000000000E+01      4.001617000000000E-01     -1.521016000000000E+02
4878000000.000000      6.539612000000000E-01      1.461426000000000E+01      3.955536000000000E-01     -1.529063000000000E+02
4879000000.000000      6.556396000000000E-01      1.480225000000000E+01      3.901672000000000E-01     -1.532266000000000E+02
4880000000.000000      6.575012000000000E-01      1.446191000000000E+01      3.862610000000000E-01     -1.538750000000000E+02
4881000000.000000      6.569214000000000E-01      1.452637000000000E+01      3.813782000000000E-01     -1.542812000000000E+02
4882000000.000000      6.611938000000000E-01      1.442627000000000E+01      3.773499000000000E-01     -1.551406000000000E+02
4883000000.000000      6.596985000000000E-01      1.449219000000000E+01      3.720856000000000E-01     -1.556953000000000E+02
4884000000.000000      6.619568000000000E-01      1.419678000000000E+01      3.682556000000000E-01     -1.562578000000000E+02
4885000000.000000      6.633301000000000E-01      1.415576000000000E+01      3.642120000000000E-01     -1.565391000000000E+02
4886000000.000000      6.634521000000000E-01      1.420508000000000E+01      3.597717000000000E-01     -1.568906000000000E+02
4887000000.000000      6.646423000000000E-01      1.415430000000000E+01      3.554077000000000E-01     -1.575781000000000E+02
4888000000.000000      6.657715000000000E-01      1.410645000000000E+01      3.510284000000000E-01     -1.583047000000000E+02
4889000000.000000      6.670532000000000E-01      1.389453000000000E+01      3.464355000000000E-01     -1.584375000000000E+02
4890000000.000000      6.661682000000000E-01      1.384277000000000E+01      3.405457000000000E-01     -1.591328000000000E+02
4891000000.000000      6.704407000000000E-01      1.379297000000000E+01      3.379669000000000E-01     -1.596484000000000E+02
4892000000.000000      6.691589000000000E-01      1.369287000000000E+01      3.344574000000000E-01     -1.598984000000000E+02
4893000000.000000      6.740417000000000E-01      1.368604000000000E+01      3.299713000000000E-01     -1.604141000000000E+02
4894000000.000000      6.707458000000000E-01      1.359277000000000E+01      3.254242000000000E-01     -1.610156000000000E+02
4895000000.000000      6.732788000000000E-01      1.357471000000000E+01      3.231049000000000E-01     -1.612187000000000E+02
4896000000.000000      6.742554000000000E-01      1.350488000000000E+01      3.189087000000000E-01     -1.614453000000000E+02
4897000000.000000      6.729736000000000E-01      1.318750000000000E+01      3.141632000000000E-01     -1.619453000000000E+02
4898000000.000000      6.740723000000000E-01      1.303516000000000E+01      3.108215000000000E-01     -1.622187000000000E+02
4899000000.000000      6.768799000000000E-01      1.310938000000000E+01      3.068390000000000E-01     -1.627891000000000E+02
4900000000.000000      6.785583000000000E-01      1.282764000000000E+01      3.035431000000000E-01     -1.629844000000000E+02
4901000000.000000      6.775208000000000E-01      1.276709000000000E+01      2.994843000000000E-01     -1.632344000000000E+02
4902000000.000000      6.811829000000000E-01      1.278516000000000E+01      2.961731000000000E-01     -1.636953000000000E+02
4903000000.000000      6.809692000000000E-01      1.275195000000000E+01      2.920074000000000E-01     -1.640703000000000E+02
4904000000.000000      6.802063000000000E-01      1.254199000000000E+01      2.883759000000000E-01     -1.644766000000000E+02
4905000000.000000      6.815186000000000E-01      1.259277000000000E+01      2.852631000000000E-01     -1.648281000000000E+02
4906000000.000000      6.794739000000000E-01      1.226758000000000E+01      2.817078000000000E-01     -1.647734000000000E+02
4907000000.000000      6.840820000000000E-01      1.236475000000000E+01      2.784271000000000E-01     -1.654531000000000E+02
4908000000.000000      6.866150000000000E-01      1.206152000000000E+01      2.748566000000000E-01     -1.657891000000000E+02
4909000000.000000      6.821289000000000E-01      1.224951000000000E+01      2.716522000000000E-01     -1.659609000000000E+02
4910000000.000000      6.847839000000000E-01      1.216553000000000E+01      2.679291000000000E-01     -1.662891000000000E+02
4911000000.000000      6.849365000000000E-01      1.182813000000000E+01      2.642975000000000E-01     -1.665234000000000E+02
4912000000.000000      6.849365000000000E-01      1.179492000000000E+01      2.607574000000000E-01     -1.671484000000000E+02
4913000000.000000      6.874695000000000E-01      1.182520000000000E+01      2.575684000000000E-01     -1.672891000000000E+02
4914000000.000000      6.876526000000000E-01      1.157129000000000E+01      2.540283000000000E-01     -1.675234000000000E+02
4915000000.000000      6.872864000000000E-01      1.152295000000000E+01      2.506104000000000E-01     -1.679531000000000E+02
4916000000.000000      6.895447000000000E-01      1.145703000000000E+01      2.467346000000000E-01     -1.682109000000000E+02
4917000000.000000      6.899719000000000E-01      1.125781000000000E+01      2.431335000000000E-01     -1.685078000000000E+02
4918000000.000000      6.885376000000000E-01      1.119775000000000E+01      2.386475000000000E-01     -1.687891000000000E+02
4919000000.000000      6.896667000000000E-01      1.128271000000000E+01      2.357407000000000E-01     -1.689219000000000E+02
4920000000.000000      6.900024000000000E-01      1.085156000000000E+01      2.317810000000000E-01     -1.693438000000000E+02
4921000000.000000      6.902161000000000E-01      1.095850000000000E+01      2.293243000000000E-01     -1.694922000000000E+02
4922000000.000000      6.909485000000000E-01      1.078857000000000E+01      2.251663000000000E-01     -1.694375000000000E+02
4923000000.000000      6.918030000000000E-01      1.068652000000000E+01      2.212601000000000E-01     -1.697734000000000E+02
4924000000.000000      6.914063000000000E-01      1.068555000000000E+01      2.173767000000000E-01     -1.700938000000000E+02
4925000000.000000      6.918030000000000E-01      1.057422000000000E+01      2.139282000000000E-01     -1.702812000000000E+02
4926000000.000000      6.934814000000000E-01      1.034766000000000E+01      2.100754000000000E-01     -1.704609000000000E+02
4927000000.000000      6.928711000000000E-01      1.041064000000000E+01      2.060547000000000E-01     -1.706953000000000E+02
4928000000.000000      6.946411000000000E-01      1.021143000000000E+01      2.025986000000000E-01     -1.706563000000000E+02
4929000000.000000      6.952209000000000E-01      1.021289000000000E+01      1.983032000000000E-01     -1.707578000000000E+02
4930000000.000000      6.953125000000000E-01      9.987793000000000E+00      1.944733000000000E-01     -1.708906000000000E+02
4931000000.000000      6.956787000000000E-01      9.809082000000000E+00      1.914368000000000E-01     -1.708281000000000E+02
4932000000.000000      6.960144000000000E-01      9.770508000000000E+00      1.873322000000000E-01     -1.709141000000000E+02
4933000000.000000      6.957703000000000E-01      9.700684000000000E+00      1.830292000000000E-01     -1.706953000000000E+02
4934000000.000000      6.989746000000000E-01      9.658203000000000E+00      1.797638000000000E-01     -1.710391000000000E+02
4935000000.000000      6.991272000000000E-01      9.685547000000000E+00      1.765900000000000E-01     -1.706250000000000E+02
4936000000.000000      6.972961000000000E-01      9.452148000000000E+00      1.722565000000000E-01     -1.705703000000000E+02
4937000000.000000      6.977234000000000E-01      9.342285000000000E+00      1.682739000000000E-01     -1.703672000000000E+02
4938000000.000000      6.977539000000000E-01      9.330078000000000E+00      1.649399000000000E-01     -1.700625000000000E+02
4939000000.000000      6.997375000000000E-01      9.193848000000000E+00      1.610641000000000E-01     -1.696563000000000E+02
4940000000.000000      6.998596000000000E-01      9.102051000000000E+00      1.571121000000000E-01     -1.694453000000000E+02
4941000000.000000      7.012329000000000E-01      9.026367000000000E+00      1.541443000000000E-01     -1.689609000000000E+02
4942000000.000000      7.002258000000000E-01      8.942871000000000E+00      1.498947000000000E-01     -1.686406000000000E+02
4943000000.000000      7.016907000000000E-01      8.919434000000000E+00      1.467819000000000E-01     -1.680781000000000E+02
4944000000.000000      7.028503000000000E-01      8.620117000000000E+00      1.432266000000000E-01     -1.675781000000000E+02
4945000000.000000      7.026367000000000E-01      8.541504000000000E+00      1.396255000000000E-01     -1.668047000000000E+02
4946000000.000000      7.039185000000000E-01      8.363281000000000E+00      1.365585000000000E-01     -1.662734000000000E+02
4947000000.000000      7.019958000000000E-01      8.471680000000000E+00      1.331635000000000E-01     -1.653437000000000E+02
4948000000.000000      7.042847000000000E-01      8.431641000000000E+00      1.303940000000000E-01     -1.646016000000000E+02
4949000000.000000      7.043457000000000E-01      8.129883000000000E+00      1.275177000000000E-01     -1.631875000000000E+02
4950000000.000000      7.062073000000000E-01      8.143555000000000E+00      1.248817000000000E-01     -1.625391000000000E+02
4951000000.000000      7.058105000000000E-01      8.128418000000000E+00      1.216431000000000E-01     -1.615000000000000E+02
4952000000.000000      7.062683000000000E-01      7.815186000000000E+00      1.192322000000000E-01     -1.602109000000000E+02
4953000000.000000      7.071228000000000E-01      7.649170000000000E+00      1.173210000000000E-01     -1.586953000000000E+02
4954000000.000000      7.067261000000000E-01      7.697266000000000E+00      1.148567000000000E-01     -1.573750000000000E+02
