! Network Analyzer HP8722D
! Hewlett-Packard
! Data name: Linha & Wilkinson
! Saver's name: Rodrigo Anjos
! Comments: Teste da utilização de aquisição
continua pelo VNA HP8722D
! Time and date: 22/5/2025 07:19
!              Frequency                     S11                                                   S21                                                   S12                                                   S22
# HZ  S  MA R 50
4800000000.000000      6.416931000000000E-01      1.058252000000000E+01      4.695129000000000E-01     -9.378515000000000E+01
4801000000.000000      6.378174000000000E-01      1.067041000000000E+01      4.710541000000000E-01     -9.441015000000000E+01
4802000000.000000      6.381836000000000E-01      1.061670000000000E+01      4.726868000000000E-01     -9.510546000000000E+01
4803000000.000000      6.356201000000000E-01      1.051758000000000E+01      4.752502000000000E-01     -9.583202000000000E+01
4804000000.000000      6.339417000000000E-01      1.065771000000000E+01      4.772491000000000E-01     -9.671093000000000E+01
4805000000.000000      6.338196000000000E-01      1.062646000000000E+01      4.778900000000000E-01     -9.733202000000000E+01
4806000000.000000      6.315918000000000E-01      1.051221000000000E+01      4.797516000000000E-01     -9.810547000000000E+01
4807000000.000000      6.288147000000000E-01      1.071436000000000E+01      4.824677000000000E-01     -9.907812000000000E+01
4808000000.000000      6.267090000000000E-01      1.055469000000000E+01      4.835968000000000E-01     -9.951172000000000E+01
4809000000.000000      6.241455000000000E-01      1.081836000000000E+01      4.838257000000000E-01     -1.004805000000000E+02
4810000000.000000      6.234131000000000E-01      1.065771000000000E+01      4.860077000000000E-01     -1.010078000000000E+02
4811000000.000000      6.245728000000000E-01      1.075928000000000E+01      4.872131000000000E-01     -1.021797000000000E+02
4812000000.000000      6.241455000000000E-01      1.092285000000000E+01      4.861450000000000E-01     -1.025977000000000E+02
4813000000.000000      6.210938000000000E-01      1.102197000000000E+01      4.874115000000000E-01     -1.034297000000000E+02
4814000000.000000      6.174011000000000E-01      1.094922000000000E+01      4.897461000000000E-01     -1.041094000000000E+02
4815000000.000000      6.172180000000000E-01      1.103564000000000E+01      4.899139000000000E-01     -1.048711000000000E+02
4816000000.000000      6.163025000000000E-01      1.106982000000000E+01      4.915161000000000E-01     -1.057734000000000E+02
4817000000.000000      6.160889000000000E-01      1.125928000000000E+01      4.911804000000000E-01     -1.066523000000000E+02
4818000000.000000      6.131897000000000E-01      1.127197000000000E+01      4.920197000000000E-01     -1.072695000000000E+02
4819000000.000000      6.143494000000000E-01      1.120459000000000E+01      4.921112000000000E-01     -1.079844000000000E+02
4820000000.000000      6.104431000000000E-01      1.144629000000000E+01      4.922638000000000E-01     -1.085586000000000E+02
4821000000.000000      6.115723000000000E-01      1.136084000000000E+01      4.925690000000000E-01     -1.095078000000000E+02
4822000000.000000      6.096497000000000E-01      1.165479000000000E+01      4.930420000000000E-01     -1.102891000000000E+02
4823000000.000000      6.118164000000000E-01      1.165088000000000E+01      4.945068000000000E-01     -1.109375000000000E+02
4824000000.000000      6.085510000000000E-01      1.188135000000000E+01      4.930878000000000E-01     -1.117266000000000E+02
4825000000.000000      6.073914000000000E-01      1.198438000000000E+01      4.945221000000000E-01     -1.125586000000000E+02
4826000000.000000      6.075745000000000E-01      1.185400000000000E+01      4.949036000000000E-01     -1.135547000000000E+02
4827000000.000000      6.045227000000000E-01      1.199414000000000E+01      4.948120000000000E-01     -1.140391000000000E+02
4828000000.000000      6.073303000000000E-01      1.219482000000000E+01      4.948730000000000E-01     -1.146797000000000E+02
4829000000.000000      6.060486000000000E-01      1.250635000000000E+01      4.956207000000000E-01     -1.155469000000000E+02
4830000000.000000      6.058044000000000E-01      1.257373000000000E+01      4.954071000000000E-01     -1.164258000000000E+02
4831000000.000000      6.047668000000000E-01      1.254199000000000E+01      4.957123000000000E-01     -1.170430000000000E+02
4832000000.000000      6.048889000000000E-01      1.281543000000000E+01      4.944153000000000E-01     -1.177187000000000E+02
4833000000.000000      6.025391000000000E-01      1.278076000000000E+01      4.946594000000000E-01     -1.184727000000000E+02
4834000000.000000      6.043091000000000E-01      1.291699000000000E+01      4.926910000000000E-01     -1.193125000000000E+02
4835000000.000000      6.049194000000000E-01      1.303760000000000E+01      4.955139000000000E-01     -1.202187000000000E+02
4836000000.000000      6.057434000000000E-01      1.309277000000000E+01      4.940491000000000E-01     -1.208476000000000E+02
4837000000.000000      6.045837000000000E-01      1.345264000000000E+01      4.927216000000000E-01     -1.218242000000000E+02
4838000000.000000      6.036377000000000E-01      1.332471000000000E+01      4.927826000000000E-01     -1.222383000000000E+02
4839000000.000000      6.099243000000000E-01      1.362305000000000E+01      4.924927000000000E-01     -1.233320000000000E+02
4840000000.000000      6.072693000000000E-01      1.351855000000000E+01      4.912415000000000E-01     -1.239805000000000E+02
4841000000.000000      6.070862000000000E-01      1.380957000000000E+01      4.914551000000000E-01     -1.248594000000000E+02
4842000000.000000      6.089478000000000E-01      1.361572000000000E+01      4.891663000000000E-01     -1.256914000000000E+02
4843000000.000000      6.098022000000000E-01      1.368164000000000E+01      4.907990000000000E-01     -1.266797000000000E+02
4844000000.000000      6.088257000000000E-01      1.364209000000000E+01      4.886169000000000E-01     -1.273945000000000E+02
4845000000.000000      6.104126000000000E-01      1.411426000000000E+01      4.888458000000000E-01     -1.281250000000000E+02
4846000000.000000      6.124573000000000E-01      1.424512000000000E+01      4.858551000000000E-01     -1.290703000000000E+02
4847000000.000000      6.123352000000000E-01      1.429297000000000E+01      4.850922000000000E-01     -1.297031000000000E+02
4848000000.000000      6.107178000000000E-01      1.413379000000000E+01      4.826202000000000E-01     -1.305391000000000E+02
4849000000.000000      6.124878000000000E-01      1.422705000000000E+01      4.820099000000000E-01     -1.315391000000000E+02
4850000000.000000      6.154785000000000E-01      1.446045000000000E+01      4.787140000000000E-01     -1.323125000000000E+02
4851000000.000000      6.161804000000000E-01      1.450049000000000E+01      4.786682000000000E-01     -1.332500000000000E+02
4852000000.000000      6.166077000000000E-01      1.449219000000000E+01      4.768982000000000E-01     -1.340000000000000E+02
4853000000.000000      6.185913000000000E-01      1.442773000000000E+01      4.725494000000000E-01     -1.349141000000000E+02
4854000000.000000      6.167603000000000E-01      1.456201000000000E+01      4.708405000000000E-01     -1.357266000000000E+02
4855000000.000000      6.190796000000000E-01      1.462402000000000E+01      4.684448000000000E-01     -1.366328000000000E+02
4856000000.000000      6.210022000000000E-01      1.460352000000000E+01      4.664307000000000E-01     -1.374531000000000E+02
4857000000.000000      6.210022000000000E-01      1.470752000000000E+01      4.653778000000000E-01     -1.382344000000000E+02
4858000000.000000      6.209106000000000E-01      1.463477000000000E+01      4.622955000000000E-01     -1.390938000000000E+02
4859000000.000000      6.218262000000000E-01      1.460596000000000E+01      4.592285000000000E-01     -1.400234000000000E+02
4860000000.000000      6.228638000000000E-01      1.472949000000000E+01      4.552765000000000E-01     -1.408437000000000E+02
4861000000.000000      6.248474000000000E-01      1.482715000000000E+01      4.521942000000000E-01     -1.416953000000000E+02
4862000000.000000      6.257935000000000E-01      1.468555000000000E+01      4.493561000000000E-01     -1.424219000000000E+02
4863000000.000000      6.275940000000000E-01      1.486963000000000E+01      4.450684000000000E-01     -1.431641000000000E+02
4864000000.000000      6.293640000000000E-01      1.470361000000000E+01      4.422913000000000E-01     -1.439062000000000E+02
4865000000.000000      6.308899000000000E-01      1.455518000000000E+01      4.377747000000000E-01     -1.448281000000000E+02
4866000000.000000      6.318054000000000E-01      1.462646000000000E+01      4.339294000000000E-01     -1.456250000000000E+02
4867000000.000000      6.314087000000000E-01      1.468457000000000E+01      4.304962000000000E-01     -1.463516000000000E+02
4868000000.000000      6.346436000000000E-01      1.449609000000000E+01      4.264526000000000E-01     -1.474141000000000E+02
4869000000.000000      6.358032000000000E-01      1.459229000000000E+01      4.228516000000000E-01     -1.479609000000000E+02
4870000000.000000      6.351929000000000E-01      1.464844000000000E+01      4.184418000000000E-01     -1.484844000000000E+02
4871000000.000000      6.367493000000000E-01      1.440283000000000E+01      4.149475000000000E-01     -1.493906000000000E+02
4872000000.000000      6.410522000000000E-01      1.460352000000000E+01      4.099731000000000E-01     -1.498594000000000E+02
4873000000.000000      6.402893000000000E-01      1.446729000000000E+01      4.059143000000000E-01     -1.507891000000000E+02
4874000000.000000      6.414490000000000E-01      1.454150000000000E+01      4.012909000000000E-01     -1.514453000000000E+02
4875000000.000000      6.445313000000000E-01      1.437256000000000E+01      3.961334000000000E-01     -1.520469000000000E+02
4876000000.000000      6.442261000000000E-01      1.448535000000000E+01      3.928986000000000E-01     -1.528437000000000E+02
4877000000.000000      6.466370000000000E-01      1.416113000000000E+01      3.876801000000000E-01     -1.533672000000000E+02
4878000000.000000      6.475830000000000E-01      1.421338000000000E+01      3.843842000000000E-01     -1.540781000000000E+02
4879000000.000000      6.492004000000000E-01      1.429150000000000E+01      3.791656000000000E-01     -1.544765000000000E+02
4880000000.000000      6.511841000000000E-01      1.413525000000000E+01      3.751526000000000E-01     -1.551563000000000E+02
4881000000.000000      6.506653000000000E-01      1.398242000000000E+01      3.703003000000000E-01     -1.556328000000000E+02
4882000000.000000      6.551514000000000E-01      1.398389000000000E+01      3.659668000000000E-01     -1.562891000000000E+02
4883000000.000000      6.544800000000000E-01      1.385742000000000E+01      3.624725000000000E-01     -1.567734000000000E+02
4884000000.000000      6.547241000000000E-01      1.396631000000000E+01      3.585815000000000E-01     -1.574297000000000E+02
4885000000.000000      6.566772000000000E-01      1.388770000000000E+01      3.531799000000000E-01     -1.575938000000000E+02
4886000000.000000      6.563416000000000E-01      1.379053000000000E+01      3.497162000000000E-01     -1.579844000000000E+02
4887000000.000000      6.581421000000000E-01      1.377100000000000E+01      3.456726000000000E-01     -1.586562000000000E+02
4888000000.000000      6.606445000000000E-01      1.354590000000000E+01      3.415833000000000E-01     -1.594687000000000E+02
4889000000.000000      6.601868000000000E-01      1.356396000000000E+01      3.369293000000000E-01     -1.594453000000000E+02
4890000000.000000      6.608276000000000E-01      1.334668000000000E+01      3.305511000000000E-01     -1.604844000000000E+02
4891000000.000000      6.615295000000000E-01      1.336475000000000E+01      3.286591000000000E-01     -1.606094000000000E+02
4892000000.000000      6.627502000000000E-01      1.334424000000000E+01      3.239441000000000E-01     -1.609297000000000E+02
4893000000.000000      6.646118000000000E-01      1.321338000000000E+01      3.203125000000000E-01     -1.614297000000000E+02
4894000000.000000      6.658020000000000E-01      1.313525000000000E+01      3.168335000000000E-01     -1.616641000000000E+02
4895000000.000000      6.670227000000000E-01      1.308057000000000E+01      3.136139000000000E-01     -1.617578000000000E+02
4896000000.000000      6.677856000000000E-01      1.292236000000000E+01      3.095703000000000E-01     -1.623672000000000E+02
4897000000.000000      6.691284000000000E-01      1.288281000000000E+01      3.053894000000000E-01     -1.626953000000000E+02
4898000000.000000      6.696167000000000E-01      1.267676000000000E+01      3.024445000000000E-01     -1.628906000000000E+02
4899000000.000000      6.676941000000000E-01      1.255713000000000E+01      2.982330000000000E-01     -1.635469000000000E+02
4900000000.000000      6.708069000000000E-01      1.251611000000000E+01      2.946930000000000E-01     -1.637422000000000E+02
4901000000.000000      6.713257000000000E-01      1.248145000000000E+01      2.914124000000000E-01     -1.640547000000000E+02
4902000000.000000      6.722107000000000E-01      1.230859000000000E+01      2.877960000000000E-01     -1.643125000000000E+02
4903000000.000000      6.741028000000000E-01      1.237988000000000E+01      2.837372000000000E-01     -1.647187000000000E+02
4904000000.000000      6.730347000000000E-01      1.219043000000000E+01      2.801819000000000E-01     -1.652109000000000E+02
4905000000.000000      6.745911000000000E-01      1.210791000000000E+01      2.774506000000000E-01     -1.656016000000000E+02
4906000000.000000      6.748962000000000E-01      1.182373000000000E+01      2.738647000000000E-01     -1.654844000000000E+02
4907000000.000000      6.772156000000000E-01      1.174707000000000E+01      2.706451000000000E-01     -1.660625000000000E+02
4908000000.000000      6.775818000000000E-01      1.163574000000000E+01      2.670135000000000E-01     -1.662891000000000E+02
4909000000.000000      6.760559000000000E-01      1.177002000000000E+01      2.630768000000000E-01     -1.666953000000000E+02
4910000000.000000      6.766052000000000E-01      1.169336000000000E+01      2.594604000000000E-01     -1.669453000000000E+02
4911000000.000000      6.788330000000000E-01      1.151367000000000E+01      2.565308000000000E-01     -1.671406000000000E+02
4912000000.000000      6.784058000000000E-01      1.140771000000000E+01      2.529297000000000E-01     -1.676797000000000E+02
4913000000.000000      6.799011000000000E-01      1.129492000000000E+01      2.490158000000000E-01     -1.678594000000000E+02
4914000000.000000      6.802979000000000E-01      1.113721000000000E+01      2.460098000000000E-01     -1.678594000000000E+02
4915000000.000000      6.822815000000000E-01      1.125000000000000E+01      2.425156000000000E-01     -1.683047000000000E+02
4916000000.000000      6.806030000000000E-01      1.096973000000000E+01      2.387772000000000E-01     -1.686172000000000E+02
4917000000.000000      6.813660000000000E-01      1.089941000000000E+01      2.350082000000000E-01     -1.688594000000000E+02
4918000000.000000      6.818848000000000E-01      1.086230000000000E+01      2.314301000000000E-01     -1.692109000000000E+02
4919000000.000000      6.807861000000000E-01      1.066602000000000E+01      2.281647000000000E-01     -1.692109000000000E+02
4920000000.000000      6.823425000000000E-01      1.047363000000000E+01      2.240372000000000E-01     -1.695703000000000E+02
4921000000.000000      6.838074000000000E-01      1.050146000000000E+01      2.213745000000000E-01     -1.697656000000000E+02
4922000000.000000      6.827087000000000E-01      1.038721000000000E+01      2.173157000000000E-01     -1.698906000000000E+02
4923000000.000000      6.843567000000000E-01      1.042725000000000E+01      2.134476000000000E-01     -1.701484000000000E+02
4924000000.000000      6.876831000000000E-01      1.006055000000000E+01      2.099457000000000E-01     -1.703750000000000E+02
4925000000.000000      6.858826000000000E-01      1.004541000000000E+01      2.065659000000000E-01     -1.703203000000000E+02
4926000000.000000      6.850281000000000E-01      1.001123000000000E+01      2.028351000000000E-01     -1.706328000000000E+02
4927000000.000000      6.867981000000000E-01      9.876465000000000E+00      1.985779000000000E-01     -1.706875000000000E+02
4928000000.000000      6.879272000000000E-01      9.793945000000000E+00      1.951447000000000E-01     -1.706016000000000E+02
4929000000.000000      6.873474000000000E-01      9.768066000000000E+00      1.912003000000000E-01     -1.708281000000000E+02
4930000000.000000      6.875305000000000E-01      9.581055000000000E+00      1.881790000000000E-01     -1.707813000000000E+02
4931000000.000000      6.888428000000000E-01      9.605957000000000E+00      1.845169000000000E-01     -1.707578000000000E+02
4932000000.000000      6.896973000000000E-01      9.387695000000000E+00      1.806717000000000E-01     -1.706875000000000E+02
4933000000.000000      6.890564000000000E-01      9.394531000000000E+00      1.761246000000000E-01     -1.705625000000000E+02
4934000000.000000      6.910706000000000E-01      9.221191000000000E+00      1.728363000000000E-01     -1.705937000000000E+02
4935000000.000000      6.928406000000000E-01      9.339355000000000E+00      1.697235000000000E-01     -1.701250000000000E+02
4936000000.000000      6.915894000000000E-01      9.103516000000000E+00      1.657181000000000E-01     -1.699687000000000E+02
4937000000.000000      6.929626000000000E-01      8.971680000000000E+00      1.619949000000000E-01     -1.697187000000000E+02
4938000000.000000      6.909790000000000E-01      8.956543000000000E+00      1.584167000000000E-01     -1.695313000000000E+02
4939000000.000000      6.916199000000000E-01      8.670898000000000E+00      1.548462000000000E-01     -1.690234000000000E+02
4940000000.000000      6.930237000000000E-01      8.764160000000000E+00      1.517944000000000E-01     -1.687344000000000E+02
4941000000.000000      6.949768000000000E-01      8.415527000000000E+00      1.480331000000000E-01     -1.681797000000000E+02
4942000000.000000      6.928101000000000E-01      8.479980000000000E+00      1.444244000000000E-01     -1.678437000000000E+02
4943000000.000000      6.959534000000000E-01      8.439941000000000E+00      1.414337000000000E-01     -1.669609000000000E+02
4944000000.000000      6.957703000000000E-01      8.277832000000000E+00      1.379852000000000E-01     -1.664844000000000E+02
4945000000.000000      6.940613000000000E-01      8.225586000000000E+00      1.349106000000000E-01     -1.657109000000000E+02
4946000000.000000      6.959839000000000E-01      8.042969000000000E+00      1.322021000000000E-01     -1.646719000000000E+02
4947000000.000000      6.957092000000000E-01      8.007324000000000E+00      1.284103000000000E-01     -1.638984000000000E+02
4948000000.000000      6.966858000000000E-01      7.948486000000000E+00      1.262589000000000E-01     -1.629688000000000E+02
4949000000.000000      6.965942000000000E-01      7.856445000000000E+00      1.234016000000000E-01     -1.617188000000000E+02
4950000000.000000      6.977234000000000E-01      7.708252000000000E+00      1.208763000000000E-01     -1.605703000000000E+02
4951000000.000000      6.996155000000000E-01      7.584473000000000E+00      1.185799000000000E-01     -1.594766000000000E+02
4952000000.000000      6.985168000000000E-01      7.353760000000000E+00      1.158447000000000E-01     -1.581250000000000E+02
4953000000.000000      6.976318000000000E-01      7.174072000000000E+00      1.137047000000000E-01     -1.565078000000000E+02
4954000000.000000      7.005005000000000E-01      7.337402000000000E+00      1.120529000000000E-01     -1.551797000000000E+02
