! Network Analyzer HP8722D
! Hewlett-Packard
! Data name: Linha & Wilkinson
! Saver's name: Rodrigo Anjos
! Comments: Teste da utilização de aquisição
continua pelo VNA HP8722D
! Time and date: 22/5/2025 13:23
!              Frequency                     S11                                                   S21                                                   S12                                                   S22
# HZ  S  MA R 50
4800000000.000000      6.523132000000000E-01      1.081055000000000E+01      4.706268000000000E-01     -9.232031000000000E+01
4801000000.000000      6.504211000000000E-01      1.087061000000000E+01      4.729919000000000E-01     -9.270311000000000E+01
4802000000.000000      6.477966000000000E-01      1.081982000000000E+01      4.737396000000000E-01     -9.356249000000000E+01
4803000000.000000      6.471558000000000E-01      1.076221000000000E+01      4.775848000000000E-01     -9.439453000000000E+01
4804000000.000000      6.453552000000000E-01      1.078418000000000E+01      4.767609000000000E-01     -9.514452000000000E+01
4805000000.000000      6.434631000000000E-01      1.072949000000000E+01      4.802551000000000E-01     -9.604296000000000E+01
4806000000.000000      6.416321000000000E-01      1.083643000000000E+01      4.810638000000000E-01     -9.670311000000000E+01
4807000000.000000      6.399841000000000E-01      1.069238000000000E+01      4.811707000000000E-01     -9.734764000000000E+01
4808000000.000000      6.370239000000000E-01      1.080615000000000E+01      4.832764000000000E-01     -9.828905000000000E+01
4809000000.000000      6.350403000000000E-01      1.098047000000000E+01      4.854279000000000E-01     -9.907812000000000E+01
4810000000.000000      6.347351000000000E-01      1.075146000000000E+01      4.873199000000000E-01     -9.962500000000000E+01
4811000000.000000      6.353455000000000E-01      1.090234000000000E+01      4.891357000000000E-01     -1.005391000000000E+02
4812000000.000000      6.358032000000000E-01      1.117139000000000E+01      4.896698000000000E-01     -1.011797000000000E+02
4813000000.000000      6.320190000000000E-01      1.100000000000000E+01      4.905548000000000E-01     -1.020430000000000E+02
4814000000.000000      6.289978000000000E-01      1.101367000000000E+01      4.930725000000000E-01     -1.026992000000000E+02
4815000000.000000      6.280518000000000E-01      1.112598000000000E+01      4.931946000000000E-01     -1.034492000000000E+02
4816000000.000000      6.274109000000000E-01      1.122363000000000E+01      4.946747000000000E-01     -1.043242000000000E+02
4817000000.000000      6.249695000000000E-01      1.127441000000000E+01      4.951935000000000E-01     -1.050234000000000E+02
4818000000.000000      6.252747000000000E-01      1.130176000000000E+01      4.954987000000000E-01     -1.057383000000000E+02
4819000000.000000      6.242065000000000E-01      1.133350000000000E+01      4.948273000000000E-01     -1.065859000000000E+02
4820000000.000000      6.211243000000000E-01      1.163135000000000E+01      4.968719000000000E-01     -1.068359000000000E+02
4821000000.000000      6.217041000000000E-01      1.166016000000000E+01      4.965820000000000E-01     -1.080664000000000E+02
4822000000.000000      6.192932000000000E-01      1.167285000000000E+01      4.957275000000000E-01     -1.086523000000000E+02
4823000000.000000      6.185913000000000E-01      1.179199000000000E+01      4.980774000000000E-01     -1.094922000000000E+02
4824000000.000000      6.173401000000000E-01      1.201611000000000E+01      4.972687000000000E-01     -1.101133000000000E+02
4825000000.000000      6.171875000000000E-01      1.192383000000000E+01      4.993896000000000E-01     -1.109258000000000E+02
4826000000.000000      6.170654000000000E-01      1.190918000000000E+01      4.976044000000000E-01     -1.118633000000000E+02
4827000000.000000      6.152344000000000E-01      1.225342000000000E+01      4.989319000000000E-01     -1.123125000000000E+02
4828000000.000000      6.159363000000000E-01      1.223291000000000E+01      4.990692000000000E-01     -1.131328000000000E+02
4829000000.000000      6.167603000000000E-01      1.256396000000000E+01      5.003967000000000E-01     -1.140664000000000E+02
4830000000.000000      6.140137000000000E-01      1.246387000000000E+01      4.999847000000000E-01     -1.147656000000000E+02
4831000000.000000      6.147461000000000E-01      1.259277000000000E+01      4.999237000000000E-01     -1.155976000000000E+02
4832000000.000000      6.142273000000000E-01      1.282617000000000E+01      4.994354000000000E-01     -1.160742000000000E+02
4833000000.000000      6.135254000000000E-01      1.264648000000000E+01      4.994507000000000E-01     -1.169883000000000E+02
4834000000.000000      6.120605000000000E-01      1.295557000000000E+01      4.997253000000000E-01     -1.177070000000000E+02
4835000000.000000      6.139526000000000E-01      1.314063000000000E+01      4.999542000000000E-01     -1.185390000000000E+02
4836000000.000000      6.148376000000000E-01      1.333594000000000E+01      4.988098000000000E-01     -1.192461000000000E+02
4837000000.000000      6.126099000000000E-01      1.345654000000000E+01      4.975281000000000E-01     -1.204258000000000E+02
4838000000.000000      6.120300000000000E-01      1.352002000000000E+01      4.982300000000000E-01     -1.206953000000000E+02
4839000000.000000      6.155090000000000E-01      1.350879000000000E+01      4.978485000000000E-01     -1.216328000000000E+02
4840000000.000000      6.148071000000000E-01      1.362695000000000E+01      4.973907000000000E-01     -1.226328000000000E+02
4841000000.000000      6.152344000000000E-01      1.381104000000000E+01      4.975739000000000E-01     -1.233242000000000E+02
4842000000.000000      6.156311000000000E-01      1.379297000000000E+01      4.977875000000000E-01     -1.239726000000000E+02
4843000000.000000      6.193237000000000E-01      1.382178000000000E+01      4.956360000000000E-01     -1.249180000000000E+02
4844000000.000000      6.177673000000000E-01      1.403760000000000E+01      4.947052000000000E-01     -1.259453000000000E+02
4845000000.000000      6.181335000000000E-01      1.419971000000000E+01      4.945374000000000E-01     -1.264648000000000E+02
4846000000.000000      6.183167000000000E-01      1.433838000000000E+01      4.932251000000000E-01     -1.274531000000000E+02
4847000000.000000      6.188660000000000E-01      1.429004000000000E+01      4.917603000000000E-01     -1.281406000000000E+02
4848000000.000000      6.191711000000000E-01      1.445508000000000E+01      4.900665000000000E-01     -1.290313000000000E+02
4849000000.000000      6.216431000000000E-01      1.437256000000000E+01      4.901123000000000E-01     -1.300078000000000E+02
4850000000.000000      6.205139000000000E-01      1.453076000000000E+01      4.864960000000000E-01     -1.306641000000000E+02
4851000000.000000      6.241760000000000E-01      1.482568000000000E+01      4.866180000000000E-01     -1.317344000000000E+02
4852000000.000000      6.239929000000000E-01      1.477246000000000E+01      4.841614000000000E-01     -1.325156000000000E+02
4853000000.000000      6.243896000000000E-01      1.485596000000000E+01      4.815826000000000E-01     -1.334141000000000E+02
4854000000.000000      6.259460000000000E-01      1.480664000000000E+01      4.796753000000000E-01     -1.342344000000000E+02
4855000000.000000      6.259460000000000E-01      1.481494000000000E+01      4.770355000000000E-01     -1.352109000000000E+02
4856000000.000000      6.279907000000000E-01      1.479541000000000E+01      4.765472000000000E-01     -1.359922000000000E+02
4857000000.000000      6.295471000000000E-01      1.482031000000000E+01      4.739838000000000E-01     -1.367578000000000E+02
4858000000.000000      6.280212000000000E-01      1.476416000000000E+01      4.702606000000000E-01     -1.374687000000000E+02
4859000000.000000      6.308289000000000E-01      1.483008000000000E+01      4.684753000000000E-01     -1.386094000000000E+02
4860000000.000000      6.302490000000000E-01      1.498242000000000E+01      4.631500000000000E-01     -1.392891000000000E+02
4861000000.000000      6.334839000000000E-01      1.500293000000000E+01      4.610443000000000E-01     -1.401328000000000E+02
4862000000.000000      6.337585000000000E-01      1.497949000000000E+01      4.586639000000000E-01     -1.408437000000000E+02
4863000000.000000      6.348877000000000E-01      1.506885000000000E+01      4.541321000000000E-01     -1.420000000000000E+02
4864000000.000000      6.367493000000000E-01      1.499463000000000E+01      4.523468000000000E-01     -1.426016000000000E+02
4865000000.000000      6.372375000000000E-01      1.497021000000000E+01      4.476624000000000E-01     -1.432969000000000E+02
4866000000.000000      6.390991000000000E-01      1.489453000000000E+01      4.438019000000000E-01     -1.441094000000000E+02
4867000000.000000      6.381531000000000E-01      1.513770000000000E+01      4.399872000000000E-01     -1.450625000000000E+02
4868000000.000000      6.411133000000000E-01      1.494238000000000E+01      4.377747000000000E-01     -1.460000000000000E+02
4869000000.000000      6.439209000000000E-01      1.493994000000000E+01      4.325714000000000E-01     -1.467656000000000E+02
4870000000.000000      6.445313000000000E-01      1.495068000000000E+01      4.294434000000000E-01     -1.471484000000000E+02
4871000000.000000      6.438293000000000E-01      1.472168000000000E+01      4.225464000000000E-01     -1.481406000000000E+02
4872000000.000000      6.459045000000000E-01      1.492480000000000E+01      4.193115000000000E-01     -1.485859000000000E+02
4873000000.000000      6.478882000000000E-01      1.494678000000000E+01      4.162445000000000E-01     -1.494922000000000E+02
4874000000.000000      6.498718000000000E-01      1.469678000000000E+01      4.111481000000000E-01     -1.500781000000000E+02
4875000000.000000      6.502686000000000E-01      1.460889000000000E+01      4.055176000000000E-01     -1.508594000000000E+02
4876000000.000000      6.507874000000000E-01      1.475586000000000E+01      4.030457000000000E-01     -1.515078000000000E+02
4877000000.000000      6.532288000000000E-01      1.447266000000000E+01      3.981628000000000E-01     -1.522812000000000E+02
4878000000.000000      6.546326000000000E-01      1.445215000000000E+01      3.937073000000000E-01     -1.527891000000000E+02
4879000000.000000      6.558838000000000E-01      1.451270000000000E+01      3.882446000000000E-01     -1.533750000000000E+02
4880000000.000000      6.586304000000000E-01      1.454980000000000E+01      3.845062000000000E-01     -1.539141000000000E+02
4881000000.000000      6.584167000000000E-01      1.439209000000000E+01      3.812714000000000E-01     -1.545469000000000E+02
4882000000.000000      6.612854000000000E-01      1.454150000000000E+01      3.770599000000000E-01     -1.551016000000000E+02
4883000000.000000      6.605530000000000E-01      1.433301000000000E+01      3.720551000000000E-01     -1.556641000000000E+02
4884000000.000000      6.625977000000000E-01      1.451953000000000E+01      3.671722000000000E-01     -1.562578000000000E+02
4885000000.000000      6.641541000000000E-01      1.433545000000000E+01      3.625946000000000E-01     -1.564766000000000E+02
4886000000.000000      6.666565000000000E-01      1.427100000000000E+01      3.584290000000000E-01     -1.571016000000000E+02
4887000000.000000      6.667786000000000E-01      1.399512000000000E+01      3.551483000000000E-01     -1.576719000000000E+02
4888000000.000000      6.666870000000000E-01      1.386865000000000E+01      3.513336000000000E-01     -1.583906000000000E+02
4889000000.000000      6.685791000000000E-01      1.396631000000000E+01      3.454590000000000E-01     -1.583750000000000E+02
4890000000.000000      6.680298000000000E-01      1.380127000000000E+01      3.415833000000000E-01     -1.592891000000000E+02
4891000000.000000      6.700134000000000E-01      1.366943000000000E+01      3.376617000000000E-01     -1.597969000000000E+02
4892000000.000000      6.705933000000000E-01      1.366553000000000E+01      3.342438000000000E-01     -1.597734000000000E+02
4893000000.000000      6.729126000000000E-01      1.365576000000000E+01      3.290253000000000E-01     -1.603359000000000E+02
4894000000.000000      6.713257000000000E-01      1.360498000000000E+01      3.259583000000000E-01     -1.610234000000000E+02
4895000000.000000      6.715088000000000E-01      1.350732000000000E+01      3.214722000000000E-01     -1.611484000000000E+02
4896000000.000000      6.759949000000000E-01      1.319971000000000E+01      3.184509000000000E-01     -1.615000000000000E+02
4897000000.000000      6.727905000000000E-01      1.327832000000000E+01      3.137817000000000E-01     -1.619531000000000E+02
4898000000.000000      6.761780000000000E-01      1.307471000000000E+01      3.106232000000000E-01     -1.622500000000000E+02
4899000000.000000      6.775513000000000E-01      1.312988000000000E+01      3.063354000000000E-01     -1.628359000000000E+02
4900000000.000000      6.795959000000000E-01      1.302686000000000E+01      3.031158000000000E-01     -1.630469000000000E+02
4901000000.000000      6.791077000000000E-01      1.289648000000000E+01      2.992554000000000E-01     -1.634140000000000E+02
4902000000.000000      6.797791000000000E-01      1.272998000000000E+01      2.963715000000000E-01     -1.634922000000000E+02
4903000000.000000      6.816711000000000E-01      1.282080000000000E+01      2.918091000000000E-01     -1.640234000000000E+02
4904000000.000000      6.813965000000000E-01      1.257617000000000E+01      2.885895000000000E-01     -1.644453000000000E+02
4905000000.000000      6.820679000000000E-01      1.246387000000000E+01      2.856445000000000E-01     -1.647656000000000E+02
4906000000.000000      6.838379000000000E-01      1.229199000000000E+01      2.814178000000000E-01     -1.649062000000000E+02
4907000000.000000      6.836548000000000E-01      1.221533000000000E+01      2.787323000000000E-01     -1.654063000000000E+02
4908000000.000000      6.838989000000000E-01      1.213428000000000E+01      2.754211000000000E-01     -1.657344000000000E+02
4909000000.000000      6.842041000000000E-01      1.198047000000000E+01      2.710571000000000E-01     -1.661172000000000E+02
4910000000.000000      6.864319000000000E-01      1.199561000000000E+01      2.674103000000000E-01     -1.663359000000000E+02
4911000000.000000      6.870422000000000E-01      1.188574000000000E+01      2.645111000000000E-01     -1.666094000000000E+02
4912000000.000000      6.867981000000000E-01      1.165234000000000E+01      2.612915000000000E-01     -1.670781000000000E+02
4913000000.000000      6.872253000000000E-01      1.170313000000000E+01      2.571869000000000E-01     -1.672266000000000E+02
4914000000.000000      6.867371000000000E-01      1.150098000000000E+01      2.536926000000000E-01     -1.674531000000000E+02
4915000000.000000      6.872253000000000E-01      1.155029000000000E+01      2.499924000000000E-01     -1.679219000000000E+02
4916000000.000000      6.894531000000000E-01      1.142676000000000E+01      2.466202000000000E-01     -1.682031000000000E+02
4917000000.000000      6.890869000000000E-01      1.130078000000000E+01      2.432022000000000E-01     -1.684687000000000E+02
4918000000.000000      6.901550000000000E-01      1.112598000000000E+01      2.386627000000000E-01     -1.687344000000000E+02
4919000000.000000      6.890564000000000E-01      1.118652000000000E+01      2.355576000000000E-01     -1.689922000000000E+02
4920000000.000000      6.924133000000000E-01      1.087207000000000E+01      2.316360000000000E-01     -1.693281000000000E+02
4921000000.000000      6.905518000000000E-01      1.099023000000000E+01      2.286758000000000E-01     -1.694922000000000E+02
4922000000.000000      6.905823000000000E-01      1.072656000000000E+01      2.246017000000000E-01     -1.695625000000000E+02
4923000000.000000      6.918640000000000E-01      1.070850000000000E+01      2.207336000000000E-01     -1.696797000000000E+02
4924000000.000000      6.930542000000000E-01      1.070605000000000E+01      2.173309000000000E-01     -1.701484000000000E+02
4925000000.000000      6.896362000000000E-01      1.056055000000000E+01      2.136612000000000E-01     -1.704453000000000E+02
4926000000.000000      6.938477000000000E-01      1.052588000000000E+01      2.098160000000000E-01     -1.704844000000000E+02
4927000000.000000      6.931152000000000E-01      1.019629000000000E+01      2.057953000000000E-01     -1.707031000000000E+02
4928000000.000000      6.963806000000000E-01      1.008398000000000E+01      2.020721000000000E-01     -1.706484000000000E+02
4929000000.000000      6.942444000000000E-01      1.003564000000000E+01      1.981049000000000E-01     -1.708516000000000E+02
4930000000.000000      6.947021000000000E-01      1.009619000000000E+01      1.948624000000000E-01     -1.707891000000000E+02
4931000000.000000      6.958313000000000E-01      9.832520000000000E+00      1.917419000000000E-01     -1.710391000000000E+02
4932000000.000000      6.968384000000000E-01      9.835449000000000E+00      1.872177000000000E-01     -1.710000000000000E+02
4933000000.000000      6.962585000000000E-01      9.708984000000000E+00      1.829453000000000E-01     -1.707734000000000E+02
4934000000.000000      6.996155000000000E-01      9.625000000000000E+00      1.793289000000000E-01     -1.708594000000000E+02
4935000000.000000      6.992188000000000E-01      9.545410000000000E+00      1.763916000000000E-01     -1.705000000000000E+02
4936000000.000000      6.990356000000000E-01      9.279297000000000E+00      1.718826000000000E-01     -1.704375000000000E+02
4937000000.000000      6.995850000000000E-01      9.191406000000000E+00      1.678925000000000E-01     -1.702969000000000E+02
4938000000.000000      6.979980000000000E-01      9.331055000000000E+00      1.648102000000000E-01     -1.700234000000000E+02
4939000000.000000      6.983032000000000E-01      9.147461000000000E+00      1.607056000000000E-01     -1.695625000000000E+02
4940000000.000000      6.996460000000000E-01      8.905762000000000E+00      1.569214000000000E-01     -1.695547000000000E+02
4941000000.000000      7.002258000000000E-01      8.827148000000000E+00      1.536865000000000E-01     -1.691172000000000E+02
4942000000.000000      6.997986000000000E-01      8.816406000000000E+00      1.497955000000000E-01     -1.685234000000000E+02
4943000000.000000      7.026978000000000E-01      8.681641000000000E+00      1.467819000000000E-01     -1.680703000000000E+02
4944000000.000000      7.025757000000000E-01      8.695313000000000E+00      1.430359000000000E-01     -1.674766000000000E+02
4945000000.000000      7.012024000000000E-01      8.607422000000000E+00      1.397629000000000E-01     -1.669141000000000E+02
4946000000.000000      7.034912000000000E-01      8.520996000000000E+00      1.365128000000000E-01     -1.662734000000000E+02
4947000000.000000      7.028809000000000E-01      8.511230000000000E+00      1.333923000000000E-01     -1.653828000000000E+02
4948000000.000000      7.064209000000000E-01      8.201172000000000E+00      1.300583000000000E-01     -1.643984000000000E+02
4949000000.000000      7.036743000000000E-01      8.174805000000000E+00      1.272812000000000E-01     -1.632656000000000E+02
4950000000.000000      7.056885000000000E-01      8.048828000000000E+00      1.244316000000000E-01     -1.623437000000000E+02
4951000000.000000      7.064209000000000E-01      8.145996000000000E+00      1.215591000000000E-01     -1.612969000000000E+02
4952000000.000000      7.064819000000000E-01      7.948486000000000E+00      1.194916000000000E-01     -1.599219000000000E+02
4953000000.000000      7.055359000000000E-01      7.823486000000000E+00      1.165352000000000E-01     -1.587656000000000E+02
4954000000.000000      7.073059000000000E-01      7.702637000000000E+00      1.142693000000000E-01     -1.572969000000000E+02
