! Network Analyzer HP8722D
! Hewlett-Packard
! Data name: Linha & Wilkinson
! Saver's name: Rodrigo Anjos
! Comments: Teste da utilização de aquisição
continua pelo VNA HP8722D
! Time and date: 22/5/2025 08:38
!              Frequency                     S11                                                   S21                                                   S12                                                   S22
# HZ  S  MA R 50
4800000000.000000      6.472778000000000E-01      1.023486000000000E+01      4.734955000000000E-01     -9.385546000000000E+01
4801000000.000000      6.458740000000000E-01      1.032568000000000E+01      4.747162000000000E-01     -9.454687000000000E+01
4802000000.000000      6.437378000000000E-01      1.031885000000000E+01      4.775848000000000E-01     -9.519140000000000E+01
4803000000.000000      6.417847000000000E-01      1.034766000000000E+01      4.826813000000000E-01     -9.591015000000000E+01
4804000000.000000      6.391907000000000E-01      1.032129000000000E+01      4.802856000000000E-01     -9.674999000000000E+01
4805000000.000000      6.390991000000000E-01      1.013330000000000E+01      4.827881000000000E-01     -9.761328000000000E+01
4806000000.000000      6.379700000000000E-01      1.018018000000000E+01      4.845123000000000E-01     -9.836718000000000E+01
4807000000.000000      6.351624000000000E-01      1.023633000000000E+01      4.863281000000000E-01     -9.907812000000000E+01
4808000000.000000      6.335754000000000E-01      1.035449000000000E+01      4.873505000000000E-01     -9.972656000000000E+01
4809000000.000000      6.313477000000000E-01      1.034180000000000E+01      4.880524000000000E-01     -1.006758000000000E+02
4810000000.000000      6.294861000000000E-01      1.027881000000000E+01      4.898529000000000E-01     -1.012695000000000E+02
4811000000.000000      6.301880000000000E-01      1.043408000000000E+01      4.927521000000000E-01     -1.019961000000000E+02
4812000000.000000      6.300049000000000E-01      1.074463000000000E+01      4.919281000000000E-01     -1.029492000000000E+02
4813000000.000000      6.273193000000000E-01      1.068555000000000E+01      4.939575000000000E-01     -1.036758000000000E+02
4814000000.000000      6.239929000000000E-01      1.058350000000000E+01      4.940948000000000E-01     -1.042617000000000E+02
4815000000.000000      6.227722000000000E-01      1.069092000000000E+01      4.961395000000000E-01     -1.051328000000000E+02
4816000000.000000      6.244202000000000E-01      1.078125000000000E+01      4.968414000000000E-01     -1.056953000000000E+02
4817000000.000000      6.221313000000000E-01      1.086230000000000E+01      4.953613000000000E-01     -1.066484000000000E+02
4818000000.000000      6.212158000000000E-01      1.094775000000000E+01      4.976501000000000E-01     -1.073633000000000E+02
4819000000.000000      6.193542000000000E-01      1.107813000000000E+01      4.972687000000000E-01     -1.080625000000000E+02
4820000000.000000      6.173401000000000E-01      1.114258000000000E+01      4.989319000000000E-01     -1.087031000000000E+02
4821000000.000000      6.177979000000000E-01      1.116309000000000E+01      4.988251000000000E-01     -1.095117000000000E+02
4822000000.000000      6.155396000000000E-01      1.127881000000000E+01      4.977112000000000E-01     -1.100469000000000E+02
4823000000.000000      6.165161000000000E-01      1.131982000000000E+01      4.998016000000000E-01     -1.112734000000000E+02
4824000000.000000      6.148376000000000E-01      1.161377000000000E+01      4.983673000000000E-01     -1.118164000000000E+02
4825000000.000000      6.145020000000000E-01      1.151221000000000E+01      4.983826000000000E-01     -1.125820000000000E+02
4826000000.000000      6.135559000000000E-01      1.168652000000000E+01      5.001831000000000E-01     -1.134727000000000E+02
4827000000.000000      6.156616000000000E-01      1.174268000000000E+01      5.002441000000000E-01     -1.141367000000000E+02
4828000000.000000      6.144104000000000E-01      1.182373000000000E+01      5.008850000000000E-01     -1.146133000000000E+02
4829000000.000000      6.121826000000000E-01      1.206396000000000E+01      5.010071000000000E-01     -1.155430000000000E+02
4830000000.000000      6.140442000000000E-01      1.205566000000000E+01      5.008850000000000E-01     -1.164492000000000E+02
4831000000.000000      6.113586000000000E-01      1.215625000000000E+01      5.009766000000000E-01     -1.173398000000000E+02
4832000000.000000      6.116638000000000E-01      1.244043000000000E+01      4.999695000000000E-01     -1.176406000000000E+02
4833000000.000000      6.101685000000000E-01      1.243213000000000E+01      4.990997000000000E-01     -1.185742000000000E+02
4834000000.000000      6.131592000000000E-01      1.245264000000000E+01      5.003357000000000E-01     -1.193086000000000E+02
4835000000.000000      6.117249000000000E-01      1.266699000000000E+01      5.001526000000000E-01     -1.204961000000000E+02
4836000000.000000      6.137085000000000E-01      1.285645000000000E+01      4.976349000000000E-01     -1.209766000000000E+02
4837000000.000000      6.102600000000000E-01      1.296777000000000E+01      4.978180000000000E-01     -1.218672000000000E+02
4838000000.000000      6.116638000000000E-01      1.284131000000000E+01      4.974976000000000E-01     -1.223711000000000E+02
4839000000.000000      6.153870000000000E-01      1.322021000000000E+01      4.974365000000000E-01     -1.230937000000000E+02
4840000000.000000      6.170654000000000E-01      1.309277000000000E+01      4.968719000000000E-01     -1.240391000000000E+02
4841000000.000000      6.138306000000000E-01      1.332471000000000E+01      4.973602000000000E-01     -1.249414000000000E+02
4842000000.000000      6.135254000000000E-01      1.349219000000000E+01      4.947815000000000E-01     -1.257422000000000E+02
4843000000.000000      6.182556000000000E-01      1.352100000000000E+01      4.957428000000000E-01     -1.266875000000000E+02
4844000000.000000      6.154480000000000E-01      1.334961000000000E+01      4.934998000000000E-01     -1.275273000000000E+02
4845000000.000000      6.173706000000000E-01      1.354590000000000E+01      4.920959000000000E-01     -1.281172000000000E+02
4846000000.000000      6.177368000000000E-01      1.378076000000000E+01      4.916077000000000E-01     -1.291563000000000E+02
4847000000.000000      6.170044000000000E-01      1.394824000000000E+01      4.900970000000000E-01     -1.298750000000000E+02
4848000000.000000      6.191711000000000E-01      1.368066000000000E+01      4.866180000000000E-01     -1.305859000000000E+02
4849000000.000000      6.207275000000000E-01      1.375879000000000E+01      4.868469000000000E-01     -1.317734000000000E+02
4850000000.000000      6.217651000000000E-01      1.393311000000000E+01      4.843140000000000E-01     -1.322969000000000E+02
4851000000.000000      6.223450000000000E-01      1.413916000000000E+01      4.838562000000000E-01     -1.332969000000000E+02
4852000000.000000      6.231689000000000E-01      1.411719000000000E+01      4.806976000000000E-01     -1.340000000000000E+02
4853000000.000000      6.258850000000000E-01      1.410498000000000E+01      4.781342000000000E-01     -1.349531000000000E+02
4854000000.000000      6.248169000000000E-01      1.418018000000000E+01      4.749908000000000E-01     -1.357500000000000E+02
4855000000.000000      6.272583000000000E-01      1.406934000000000E+01      4.735870000000000E-01     -1.367734000000000E+02
4856000000.000000      6.278992000000000E-01      1.429004000000000E+01      4.715576000000000E-01     -1.376250000000000E+02
4857000000.000000      6.277771000000000E-01      1.429980000000000E+01      4.704132000000000E-01     -1.382109000000000E+02
4858000000.000000      6.296082000000000E-01      1.435596000000000E+01      4.664307000000000E-01     -1.393047000000000E+02
4859000000.000000      6.307678000000000E-01      1.417334000000000E+01      4.635468000000000E-01     -1.401641000000000E+02
4860000000.000000      6.323242000000000E-01      1.430273000000000E+01      4.593964000000000E-01     -1.408750000000000E+02
4861000000.000000      6.315002000000000E-01      1.436426000000000E+01      4.570770000000000E-01     -1.416328000000000E+02
4862000000.000000      6.331787000000000E-01      1.433984000000000E+01      4.528961000000000E-01     -1.424922000000000E+02
4863000000.000000      6.360779000000000E-01      1.460449000000000E+01      4.490814000000000E-01     -1.435391000000000E+02
4864000000.000000      6.376343000000000E-01      1.428076000000000E+01      4.460754000000000E-01     -1.440391000000000E+02
4865000000.000000      6.366882000000000E-01      1.422168000000000E+01      4.422760000000000E-01     -1.447969000000000E+02
4866000000.000000      6.396484000000000E-01      1.429834000000000E+01      4.380493000000000E-01     -1.459141000000000E+02
4867000000.000000      6.392822000000000E-01      1.441113000000000E+01      4.345856000000000E-01     -1.465859000000000E+02
4868000000.000000      6.413879000000000E-01      1.423682000000000E+01      4.312592000000000E-01     -1.474141000000000E+02
4869000000.000000      6.427917000000000E-01      1.408838000000000E+01      4.256744000000000E-01     -1.479375000000000E+02
4870000000.000000      6.451721000000000E-01      1.425732000000000E+01      4.224854000000000E-01     -1.485781000000000E+02
4871000000.000000      6.452637000000000E-01      1.425879000000000E+01      4.184723000000000E-01     -1.496016000000000E+02
4872000000.000000      6.485901000000000E-01      1.417480000000000E+01      4.135590000000000E-01     -1.500937000000000E+02
4873000000.000000      6.450806000000000E-01      1.416113000000000E+01      4.100647000000000E-01     -1.510781000000000E+02
4874000000.000000      6.495972000000000E-01      1.409814000000000E+01      4.039459000000000E-01     -1.513984000000000E+02
4875000000.000000      6.511230000000000E-01      1.403906000000000E+01      3.997955000000000E-01     -1.520234000000000E+02
4876000000.000000      6.516113000000000E-01      1.412842000000000E+01      3.975830000000000E-01     -1.527812000000000E+02
4877000000.000000      6.537781000000000E-01      1.393994000000000E+01      3.905334000000000E-01     -1.534922000000000E+02
4878000000.000000      6.539307000000000E-01      1.383447000000000E+01      3.872833000000000E-01     -1.541328000000000E+02
4879000000.000000      6.574402000000000E-01      1.386328000000000E+01      3.831329000000000E-01     -1.544062000000000E+02
4880000000.000000      6.573486000000000E-01      1.380957000000000E+01      3.788910000000000E-01     -1.551250000000000E+02
4881000000.000000      6.573486000000000E-01      1.378223000000000E+01      3.748169000000000E-01     -1.556875000000000E+02
4882000000.000000      6.612244000000000E-01      1.361865000000000E+01      3.708038000000000E-01     -1.564297000000000E+02
4883000000.000000      6.618042000000000E-01      1.357910000000000E+01      3.652802000000000E-01     -1.567578000000000E+02
4884000000.000000      6.618347000000000E-01      1.343750000000000E+01      3.622589000000000E-01     -1.572969000000000E+02
4885000000.000000      6.647949000000000E-01      1.360645000000000E+01      3.573914000000000E-01     -1.576875000000000E+02
4886000000.000000      6.643372000000000E-01      1.350732000000000E+01      3.517609000000000E-01     -1.581797000000000E+02
4887000000.000000      6.649170000000000E-01      1.352539000000000E+01      3.484497000000000E-01     -1.587109000000000E+02
4888000000.000000      6.660156000000000E-01      1.321631000000000E+01      3.449097000000000E-01     -1.591953000000000E+02
4889000000.000000      6.666565000000000E-01      1.324121000000000E+01      3.393555000000000E-01     -1.594375000000000E+02
4890000000.000000      6.696167000000000E-01      1.298584000000000E+01      3.362274000000000E-01     -1.601641000000000E+02
4891000000.000000      6.706848000000000E-01      1.323291000000000E+01      3.313446000000000E-01     -1.607500000000000E+02
4892000000.000000      6.688538000000000E-01      1.306787000000000E+01      3.267670000000000E-01     -1.608438000000000E+02
4893000000.000000      6.726685000000000E-01      1.284814000000000E+01      3.233795000000000E-01     -1.614453000000000E+02
4894000000.000000      6.710205000000000E-01      1.274951000000000E+01      3.200378000000000E-01     -1.618906000000000E+02
4895000000.000000      6.751709000000000E-01      1.281396000000000E+01      3.166199000000000E-01     -1.620859000000000E+02
4896000000.000000      6.746826000000000E-01      1.254053000000000E+01      3.127747000000000E-01     -1.624844000000000E+02
4897000000.000000      6.751404000000000E-01      1.270557000000000E+01      3.086853000000000E-01     -1.628047000000000E+02
4898000000.000000      6.769714000000000E-01      1.259961000000000E+01      3.050842000000000E-01     -1.631719000000000E+02
4899000000.000000      6.766663000000000E-01      1.228271000000000E+01      3.015289000000000E-01     -1.636562000000000E+02
4900000000.000000      6.784363000000000E-01      1.205469000000000E+01      2.977600000000000E-01     -1.638125000000000E+02
4901000000.000000      6.792297000000000E-01      1.202441000000000E+01      2.942657000000000E-01     -1.640547000000000E+02
4902000000.000000      6.813965000000000E-01      1.217529000000000E+01      2.905121000000000E-01     -1.644297000000000E+02
4903000000.000000      6.794739000000000E-01      1.196387000000000E+01      2.866211000000000E-01     -1.647422000000000E+02
4904000000.000000      6.805420000000000E-01      1.189795000000000E+01      2.831421000000000E-01     -1.652031000000000E+02
4905000000.000000      6.814880000000000E-01      1.177148000000000E+01      2.801514000000000E-01     -1.654609000000000E+02
4906000000.000000      6.818848000000000E-01      1.169629000000000E+01      2.760468000000000E-01     -1.655000000000000E+02
4907000000.000000      6.838074000000000E-01      1.151904000000000E+01      2.728882000000000E-01     -1.661016000000000E+02
4908000000.000000      6.860657000000000E-01      1.140234000000000E+01      2.697449000000000E-01     -1.664766000000000E+02
4909000000.000000      6.858215000000000E-01      1.121973000000000E+01      2.660370000000000E-01     -1.666953000000000E+02
4910000000.000000      6.862793000000000E-01      1.135010000000000E+01      2.621460000000000E-01     -1.669531000000000E+02
4911000000.000000      6.839294000000000E-01      1.123877000000000E+01      2.595215000000000E-01     -1.672969000000000E+02
4912000000.000000      6.854248000000000E-01      1.102295000000000E+01      2.556763000000000E-01     -1.676641000000000E+02
4913000000.000000      6.873474000000000E-01      1.084717000000000E+01      2.516937000000000E-01     -1.678516000000000E+02
4914000000.000000      6.878967000000000E-01      1.071436000000000E+01      2.483902000000000E-01     -1.680391000000000E+02
4915000000.000000      6.878662000000000E-01      1.085986000000000E+01      2.446365000000000E-01     -1.685078000000000E+02
4916000000.000000      6.883545000000000E-01      1.078955000000000E+01      2.414246000000000E-01     -1.686719000000000E+02
4917000000.000000      6.911011000000000E-01      1.050000000000000E+01      2.376633000000000E-01     -1.690156000000000E+02
4918000000.000000      6.902466000000000E-01      1.047949000000000E+01      2.336960000000000E-01     -1.691406000000000E+02
4919000000.000000      6.887512000000000E-01      1.038574000000000E+01      2.304230000000000E-01     -1.692656000000000E+02
4920000000.000000      6.912842000000000E-01      1.015137000000000E+01      2.262497000000000E-01     -1.697969000000000E+02
4921000000.000000      6.916199000000000E-01      1.034473000000000E+01      2.232590000000000E-01     -1.698047000000000E+02
4922000000.000000      6.911011000000000E-01      1.013184000000000E+01      2.196808000000000E-01     -1.699219000000000E+02
4923000000.000000      6.928711000000000E-01      1.007959000000000E+01      2.157288000000000E-01     -1.699531000000000E+02
4924000000.000000      6.915588000000000E-01      9.893066000000000E+00      2.114868000000000E-01     -1.704687000000000E+02
4925000000.000000      6.935120000000000E-01      9.625000000000000E+00      2.085266000000000E-01     -1.704844000000000E+02
4926000000.000000      6.925659000000000E-01      9.631836000000000E+00      2.051773000000000E-01     -1.706016000000000E+02
4927000000.000000      6.945496000000000E-01      9.609863000000000E+00      2.011948000000000E-01     -1.708281000000000E+02
4928000000.000000      6.953430000000000E-01      9.426270000000000E+00      1.977997000000000E-01     -1.707500000000000E+02
4929000000.000000      6.951904000000000E-01      9.239258000000000E+00      1.929932000000000E-01     -1.707734000000000E+02
4930000000.000000      6.951294000000000E-01      9.389160000000000E+00      1.893921000000000E-01     -1.707969000000000E+02
4931000000.000000      6.959839000000000E-01      8.997559000000000E+00      1.863556000000000E-01     -1.707891000000000E+02
4932000000.000000      6.982117000000000E-01      9.214355000000000E+00      1.822968000000000E-01     -1.706563000000000E+02
4933000000.000000      6.952515000000000E-01      8.886230000000000E+00      1.777267000000000E-01     -1.705469000000000E+02
4934000000.000000      6.982422000000000E-01      8.858887000000000E+00      1.746292000000000E-01     -1.706406000000000E+02
4935000000.000000      6.986694000000000E-01      8.879395000000000E+00      1.716309000000000E-01     -1.701328000000000E+02
4936000000.000000      6.971130000000000E-01      8.698242000000000E+00      1.671371000000000E-01     -1.701094000000000E+02
4937000000.000000      6.990356000000000E-01      8.624023000000000E+00      1.636505000000000E-01     -1.699609000000000E+02
4938000000.000000      6.985779000000000E-01      8.490723000000000E+00      1.601715000000000E-01     -1.694141000000000E+02
4939000000.000000      6.984863000000000E-01      8.511230000000000E+00      1.566696000000000E-01     -1.690547000000000E+02
4940000000.000000      6.996765000000000E-01      8.251953000000000E+00      1.528473000000000E-01     -1.689609000000000E+02
4941000000.000000      7.011414000000000E-01      8.126953000000000E+00      1.494217000000000E-01     -1.682500000000000E+02
4942000000.000000      7.009888000000000E-01      8.161133000000000E+00      1.463547000000000E-01     -1.676563000000000E+02
4943000000.000000      7.015686000000000E-01      8.039063000000000E+00      1.425858000000000E-01     -1.668672000000000E+02
4944000000.000000      7.010193000000000E-01      7.938965000000000E+00      1.394348000000000E-01     -1.664844000000000E+02
4945000000.000000      7.007751000000000E-01      7.735596000000000E+00      1.360855000000000E-01     -1.657891000000000E+02
4946000000.000000      7.040100000000000E-01      7.679443000000000E+00      1.333084000000000E-01     -1.647109000000000E+02
4947000000.000000      7.036438000000000E-01      7.546143000000000E+00      1.296997000000000E-01     -1.638125000000000E+02
4948000000.000000      7.049255000000000E-01      7.727295000000000E+00      1.273270000000000E-01     -1.628125000000000E+02
4949000000.000000      7.031250000000000E-01      7.449951000000000E+00      1.249199000000000E-01     -1.618438000000000E+02
4950000000.000000      7.037659000000000E-01      7.551514000000000E+00      1.220589000000000E-01     -1.604766000000000E+02
4951000000.000000      7.041626000000000E-01      7.297607000000000E+00      1.196213000000000E-01     -1.593984000000000E+02
4952000000.000000      7.030945000000000E-01      7.208252000000000E+00      1.173973000000000E-01     -1.582500000000000E+02
4953000000.000000      7.086487000000000E-01      7.018799000000000E+00      1.153488000000000E-01     -1.567031000000000E+02
4954000000.000000      7.056274000000000E-01      6.937744000000000E+00      1.128693000000000E-01     -1.550390000000000E+02
