! Network Analyzer HP8722D
! Hewlett-Packard
! Data name: Linha & Wilkinson
! Saver's name: Rodrigo Anjos
! Comments: Teste da utilização de aquisição
continua pelo VNA HP8722D
! Time and date: 22/5/2025 14:47
!              Frequency                     S11                                                   S21                                                   S12                                                   S22
# HZ  S  MA R 50
4800000000.000000      6.530457000000000E-01      1.088184000000000E+01      4.708099000000000E-01     -9.203125000000000E+01
4801000000.000000      6.501465000000000E-01      1.091455000000000E+01      4.725494000000000E-01     -9.258204000000000E+01
4802000000.000000      6.481934000000000E-01      1.103271000000000E+01      4.736786000000000E-01     -9.324999000000000E+01
4803000000.000000      6.478882000000000E-01      1.091064000000000E+01      4.770660000000000E-01     -9.393749000000000E+01
4804000000.000000      6.455078000000000E-01      1.080322000000000E+01      4.780121000000000E-01     -9.501171000000000E+01
4805000000.000000      6.449585000000000E-01      1.091211000000000E+01      4.798889000000000E-01     -9.590235000000000E+01
4806000000.000000      6.424255000000000E-01      1.079639000000000E+01      4.820862000000000E-01     -9.630077000000000E+01
4807000000.000000      6.399536000000000E-01      1.080615000000000E+01      4.821777000000000E-01     -9.733593000000000E+01
4808000000.000000      6.375732000000000E-01      1.083105000000000E+01      4.848938000000000E-01     -9.799217000000000E+01
4809000000.000000      6.381531000000000E-01      1.092725000000000E+01      4.869537000000000E-01     -9.863281000000000E+01
4810000000.000000      6.346741000000000E-01      1.107129000000000E+01      4.886322000000000E-01     -9.944139000000000E+01
4811000000.000000      6.340027000000000E-01      1.090918000000000E+01      4.892426000000000E-01     -1.002226000000000E+02
4812000000.000000      6.344299000000000E-01      1.116064000000000E+01      4.896545000000000E-01     -1.010820000000000E+02
4813000000.000000      6.318665000000000E-01      1.115771000000000E+01      4.902344000000000E-01     -1.017617000000000E+02
4814000000.000000      6.301270000000000E-01      1.112354000000000E+01      4.932098000000000E-01     -1.024414000000000E+02
4815000000.000000      6.289368000000000E-01      1.115625000000000E+01      4.939423000000000E-01     -1.032969000000000E+02
4816000000.000000      6.291809000000000E-01      1.144189000000000E+01      4.955139000000000E-01     -1.041016000000000E+02
4817000000.000000      6.249390000000000E-01      1.138281000000000E+01      4.942017000000000E-01     -1.048438000000000E+02
4818000000.000000      6.258545000000000E-01      1.142432000000000E+01      4.947052000000000E-01     -1.056484000000000E+02
4819000000.000000      6.244812000000000E-01      1.159717000000000E+01      4.959106000000000E-01     -1.063398000000000E+02
4820000000.000000      6.216431000000000E-01      1.157666000000000E+01      4.962158000000000E-01     -1.069492000000000E+02
4821000000.000000      6.234436000000000E-01      1.174805000000000E+01      4.983826000000000E-01     -1.078164000000000E+02
4822000000.000000      6.211243000000000E-01      1.176318000000000E+01      4.962921000000000E-01     -1.084687000000000E+02
4823000000.000000      6.199951000000000E-01      1.182520000000000E+01      4.995117000000000E-01     -1.092539000000000E+02
4824000000.000000      6.180115000000000E-01      1.195996000000000E+01      4.975128000000000E-01     -1.100781000000000E+02
4825000000.000000      6.169434000000000E-01      1.194336000000000E+01      4.986115000000000E-01     -1.106328000000000E+02
4826000000.000000      6.176147000000000E-01      1.198438000000000E+01      4.987030000000000E-01     -1.115625000000000E+02
4827000000.000000      6.180725000000000E-01      1.221680000000000E+01      4.981842000000000E-01     -1.121601000000000E+02
4828000000.000000      6.155396000000000E-01      1.229736000000000E+01      4.989624000000000E-01     -1.128984000000000E+02
4829000000.000000      6.160583000000000E-01      1.262842000000000E+01      4.996338000000000E-01     -1.136797000000000E+02
4830000000.000000      6.162720000000000E-01      1.258594000000000E+01      4.999390000000000E-01     -1.144687000000000E+02
4831000000.000000      6.144714000000000E-01      1.269043000000000E+01      5.006409000000000E-01     -1.153359000000000E+02
4832000000.000000      6.138000000000000E-01      1.300049000000000E+01      4.998016000000000E-01     -1.159805000000000E+02
4833000000.000000      6.118774000000000E-01      1.293604000000000E+01      4.990692000000000E-01     -1.168867000000000E+02
4834000000.000000      6.134644000000000E-01      1.302539000000000E+01      4.994812000000000E-01     -1.175820000000000E+02
4835000000.000000      6.145020000000000E-01      1.303516000000000E+01      5.007935000000000E-01     -1.184101000000000E+02
4836000000.000000      6.141968000000000E-01      1.340723000000000E+01      4.988861000000000E-01     -1.189883000000000E+02
4837000000.000000      6.147461000000000E-01      1.359668000000000E+01      4.983673000000000E-01     -1.201758000000000E+02
4838000000.000000      6.144104000000000E-01      1.351709000000000E+01      4.982300000000000E-01     -1.206602000000000E+02
4839000000.000000      6.163940000000000E-01      1.371338000000000E+01      4.971924000000000E-01     -1.214883000000000E+02
4840000000.000000      6.166382000000000E-01      1.360352000000000E+01      5.002747000000000E-01     -1.222266000000000E+02
4841000000.000000      6.153870000000000E-01      1.385205000000000E+01      4.976501000000000E-01     -1.231250000000000E+02
4842000000.000000      6.157532000000000E-01      1.393750000000000E+01      4.968719000000000E-01     -1.237969000000000E+02
4843000000.000000      6.196289000000000E-01      1.390039000000000E+01      4.978790000000000E-01     -1.246758000000000E+02
4844000000.000000      6.163635000000000E-01      1.382324000000000E+01      4.955444000000000E-01     -1.256289000000000E+02
4845000000.000000      6.199341000000000E-01      1.421191000000000E+01      4.934082000000000E-01     -1.265117000000000E+02
4846000000.000000      6.173401000000000E-01      1.432617000000000E+01      4.938507000000000E-01     -1.271055000000000E+02
4847000000.000000      6.209106000000000E-01      1.446875000000000E+01      4.927673000000000E-01     -1.279062000000000E+02
4848000000.000000      6.194458000000000E-01      1.440674000000000E+01      4.910583000000000E-01     -1.289609000000000E+02
4849000000.000000      6.219482000000000E-01      1.433691000000000E+01      4.903564000000000E-01     -1.297812000000000E+02
4850000000.000000      6.209717000000000E-01      1.457178000000000E+01      4.873962000000000E-01     -1.306953000000000E+02
4851000000.000000      6.231384000000000E-01      1.446729000000000E+01      4.862823000000000E-01     -1.315000000000000E+02
4852000000.000000      6.247864000000000E-01      1.463232000000000E+01      4.844360000000000E-01     -1.323672000000000E+02
4853000000.000000      6.253662000000000E-01      1.468164000000000E+01      4.823761000000000E-01     -1.330234000000000E+02
4854000000.000000      6.258545000000000E-01      1.475049000000000E+01      4.800568000000000E-01     -1.340078000000000E+02
4855000000.000000      6.261902000000000E-01      1.480225000000000E+01      4.781342000000000E-01     -1.349375000000000E+02
4856000000.000000      6.271057000000000E-01      1.481641000000000E+01      4.755096000000000E-01     -1.357422000000000E+02
4857000000.000000      6.293640000000000E-01      1.486963000000000E+01      4.739838000000000E-01     -1.366016000000000E+02
4858000000.000000      6.295166000000000E-01      1.493018000000000E+01      4.708557000000000E-01     -1.373359000000000E+02
4859000000.000000      6.297302000000000E-01      1.488477000000000E+01      4.674072000000000E-01     -1.381797000000000E+02
4860000000.000000      6.301575000000000E-01      1.497266000000000E+01      4.644928000000000E-01     -1.390781000000000E+02
4861000000.000000      6.322632000000000E-01      1.501514000000000E+01      4.624786000000000E-01     -1.401406000000000E+02
4862000000.000000      6.328125000000000E-01      1.500977000000000E+01      4.593506000000000E-01     -1.405937000000000E+02
4863000000.000000      6.342163000000000E-01      1.531494000000000E+01      4.551239000000000E-01     -1.416094000000000E+02
4864000000.000000      6.363220000000000E-01      1.505127000000000E+01      4.526978000000000E-01     -1.421953000000000E+02
4865000000.000000      6.367798000000000E-01      1.504004000000000E+01      4.482727000000000E-01     -1.432891000000000E+02
4866000000.000000      6.381836000000000E-01      1.498096000000000E+01      4.444122000000000E-01     -1.440391000000000E+02
4867000000.000000      6.396484000000000E-01      1.506738000000000E+01      4.400635000000000E-01     -1.450547000000000E+02
4868000000.000000      6.414185000000000E-01      1.508398000000000E+01      4.377136000000000E-01     -1.456719000000000E+02
4869000000.000000      6.425171000000000E-01      1.500977000000000E+01      4.337311000000000E-01     -1.464141000000000E+02
4870000000.000000      6.434021000000000E-01      1.504297000000000E+01      4.301910000000000E-01     -1.469922000000000E+02
4871000000.000000      6.438904000000000E-01      1.503613000000000E+01      4.258575000000000E-01     -1.479922000000000E+02
4872000000.000000      6.473694000000000E-01      1.495752000000000E+01      4.205017000000000E-01     -1.485000000000000E+02
4873000000.000000      6.479187000000000E-01      1.490430000000000E+01      4.165649000000000E-01     -1.494141000000000E+02
4874000000.000000      6.475525000000000E-01      1.496045000000000E+01      4.111023000000000E-01     -1.501875000000000E+02
4875000000.000000      6.502075000000000E-01      1.483154000000000E+01      4.078522000000000E-01     -1.506094000000000E+02
4876000000.000000      6.519775000000000E-01      1.488232000000000E+01      4.035339000000000E-01     -1.513438000000000E+02
4877000000.000000      6.526794000000000E-01      1.479004000000000E+01      3.990173000000000E-01     -1.522031000000000E+02
4878000000.000000      6.540833000000000E-01      1.479688000000000E+01      3.934784000000000E-01     -1.526172000000000E+02
4879000000.000000      6.560364000000000E-01      1.469141000000000E+01      3.905792000000000E-01     -1.532344000000000E+02
4880000000.000000      6.562805000000000E-01      1.466504000000000E+01      3.852386000000000E-01     -1.541953000000000E+02
4881000000.000000      6.569519000000000E-01      1.464746000000000E+01      3.816833000000000E-01     -1.542500000000000E+02
4882000000.000000      6.604614000000000E-01      1.469971000000000E+01      3.779602000000000E-01     -1.549922000000000E+02
4883000000.000000      6.590881000000000E-01      1.437939000000000E+01      3.726044000000000E-01     -1.558281000000000E+02
4884000000.000000      6.625061000000000E-01      1.437256000000000E+01      3.684845000000000E-01     -1.561172000000000E+02
4885000000.000000      6.641846000000000E-01      1.437793000000000E+01      3.631592000000000E-01     -1.567422000000000E+02
4886000000.000000      6.641846000000000E-01      1.422559000000000E+01      3.594971000000000E-01     -1.568359000000000E+02
4887000000.000000      6.643372000000000E-01      1.418604000000000E+01      3.551636000000000E-01     -1.575703000000000E+02
4888000000.000000      6.665649000000000E-01      1.417773000000000E+01      3.509979000000000E-01     -1.581406000000000E+02
4889000000.000000      6.663818000000000E-01      1.404150000000000E+01      3.470764000000000E-01     -1.582734000000000E+02
4890000000.000000      6.671143000000000E-01      1.379883000000000E+01      3.414764000000000E-01     -1.594219000000000E+02
4891000000.000000      6.684875000000000E-01      1.389600000000000E+01      3.377075000000000E-01     -1.593828000000000E+02
4892000000.000000      6.697998000000000E-01      1.385498000000000E+01      3.342285000000000E-01     -1.596484000000000E+02
4893000000.000000      6.717529000000000E-01      1.365576000000000E+01      3.298340000000000E-01     -1.603672000000000E+02
4894000000.000000      6.723022000000000E-01      1.376172000000000E+01      3.247223000000000E-01     -1.606719000000000E+02
4895000000.000000      6.751709000000000E-01      1.354443000000000E+01      3.232117000000000E-01     -1.610391000000000E+02
4896000000.000000      6.753235000000000E-01      1.344580000000000E+01      3.186798000000000E-01     -1.615703000000000E+02
4897000000.000000      6.745300000000000E-01      1.335498000000000E+01      3.146057000000000E-01     -1.617109000000000E+02
4898000000.000000      6.744690000000000E-01      1.332764000000000E+01      3.119965000000000E-01     -1.622031000000000E+02
4899000000.000000      6.766052000000000E-01      1.333838000000000E+01      3.076019000000000E-01     -1.625703000000000E+02
4900000000.000000      6.777649000000000E-01      1.301709000000000E+01      3.041382000000000E-01     -1.628672000000000E+02
4901000000.000000      6.777344000000000E-01      1.305029000000000E+01      2.998352000000000E-01     -1.632266000000000E+02
4902000000.000000      6.777039000000000E-01      1.286084000000000E+01      2.974548000000000E-01     -1.635625000000000E+02
4903000000.000000      6.773376000000000E-01      1.277686000000000E+01      2.920685000000000E-01     -1.638594000000000E+02
4904000000.000000      6.796570000000000E-01      1.264795000000000E+01      2.891541000000000E-01     -1.644922000000000E+02
4905000000.000000      6.822815000000000E-01      1.252002000000000E+01      2.863312000000000E-01     -1.647266000000000E+02
4906000000.000000      6.820068000000000E-01      1.252832000000000E+01      2.821045000000000E-01     -1.647344000000000E+02
4907000000.000000      6.820374000000000E-01      1.239648000000000E+01      2.792664000000000E-01     -1.653125000000000E+02
4908000000.000000      6.853943000000000E-01      1.218066000000000E+01      2.760620000000000E-01     -1.657422000000000E+02
4909000000.000000      6.835022000000000E-01      1.225635000000000E+01      2.714539000000000E-01     -1.659531000000000E+02
4910000000.000000      6.841431000000000E-01      1.211914000000000E+01      2.682953000000000E-01     -1.662031000000000E+02
4911000000.000000      6.849365000000000E-01      1.212598000000000E+01      2.649384000000000E-01     -1.665390000000000E+02
4912000000.000000      6.849060000000000E-01      1.194336000000000E+01      2.612762000000000E-01     -1.669531000000000E+02
4913000000.000000      6.860657000000000E-01      1.181396000000000E+01      2.583008000000000E-01     -1.672500000000000E+02
4914000000.000000      6.882324000000000E-01      1.162061000000000E+01      2.541656000000000E-01     -1.673672000000000E+02
4915000000.000000      6.872559000000000E-01      1.165625000000000E+01      2.504425000000000E-01     -1.679453000000000E+02
4916000000.000000      6.908264000000000E-01      1.147070000000000E+01      2.467422000000000E-01     -1.682188000000000E+02
4917000000.000000      6.882629000000000E-01      1.143652000000000E+01      2.438583000000000E-01     -1.683672000000000E+02
4918000000.000000      6.910706000000000E-01      1.135547000000000E+01      2.397614000000000E-01     -1.687266000000000E+02
4919000000.000000      6.895142000000000E-01      1.129492000000000E+01      2.364426000000000E-01     -1.687109000000000E+02
4920000000.000000      6.903381000000000E-01      1.099561000000000E+01      2.325974000000000E-01     -1.693516000000000E+02
4921000000.000000      6.885376000000000E-01      1.096289000000000E+01      2.293320000000000E-01     -1.694141000000000E+02
4922000000.000000      6.903381000000000E-01      1.085693000000000E+01      2.254486000000000E-01     -1.695313000000000E+02
4923000000.000000      6.917419000000000E-01      1.088867000000000E+01      2.211304000000000E-01     -1.698906000000000E+02
4924000000.000000      6.921082000000000E-01      1.068799000000000E+01      2.174530000000000E-01     -1.700312000000000E+02
4925000000.000000      6.929932000000000E-01      1.065234000000000E+01      2.141571000000000E-01     -1.702422000000000E+02
4926000000.000000      6.934204000000000E-01      1.069922000000000E+01      2.102203000000000E-01     -1.705937000000000E+02
4927000000.000000      6.932373000000000E-01      1.042578000000000E+01      2.067871000000000E-01     -1.706250000000000E+02
4928000000.000000      6.944275000000000E-01      1.029248000000000E+01      2.025070000000000E-01     -1.706172000000000E+02
4929000000.000000      6.945190000000000E-01      1.001660000000000E+01      1.987000000000000E-01     -1.707422000000000E+02
4930000000.000000      6.971741000000000E-01      1.017188000000000E+01      1.952515000000000E-01     -1.709063000000000E+02
4931000000.000000      6.952515000000000E-01      9.934082000000000E+00      1.915359000000000E-01     -1.708672000000000E+02
4932000000.000000      6.956482000000000E-01      9.827148000000000E+00      1.875153000000000E-01     -1.708516000000000E+02
4933000000.000000      6.964722000000000E-01      9.915039000000000E+00      1.833496000000000E-01     -1.705625000000000E+02
4934000000.000000      6.993408000000000E-01      9.625000000000000E+00      1.801147000000000E-01     -1.708672000000000E+02
4935000000.000000      6.997375000000000E-01      9.641602000000000E+00      1.770096000000000E-01     -1.705625000000000E+02
4936000000.000000      6.975098000000000E-01      9.700684000000000E+00      1.722336000000000E-01     -1.704609000000000E+02
4937000000.000000      6.990967000000000E-01      9.439941000000000E+00      1.689987000000000E-01     -1.705156000000000E+02
4938000000.000000      6.993713000000000E-01      9.343750000000000E+00      1.652298000000000E-01     -1.700000000000000E+02
4939000000.000000      6.996765000000000E-01      9.225586000000000E+00      1.611710000000000E-01     -1.697266000000000E+02
4940000000.000000      6.997986000000000E-01      9.125488000000000E+00      1.572037000000000E-01     -1.697500000000000E+02
4941000000.000000      7.028198000000000E-01      8.955078000000000E+00      1.540146000000000E-01     -1.689844000000000E+02
4942000000.000000      7.013245000000000E-01      8.956543000000000E+00      1.504593000000000E-01     -1.687344000000000E+02
4943000000.000000      7.005920000000000E-01      8.946777000000000E+00      1.466980000000000E-01     -1.680703000000000E+02
4944000000.000000      7.032166000000000E-01      8.784668000000000E+00      1.437225000000000E-01     -1.675078000000000E+02
4945000000.000000      7.029114000000000E-01      8.654297000000000E+00      1.399078000000000E-01     -1.670703000000000E+02
4946000000.000000      7.023926000000000E-01      8.576172000000000E+00      1.366959000000000E-01     -1.662031000000000E+02
4947000000.000000      7.021484000000000E-01      8.378418000000000E+00      1.336288000000000E-01     -1.653203000000000E+02
4948000000.000000      7.034302000000000E-01      8.444336000000000E+00      1.304245000000000E-01     -1.645937000000000E+02
4949000000.000000      7.042542000000000E-01      8.306641000000000E+00      1.278381000000000E-01     -1.634531000000000E+02
4950000000.000000      7.065125000000000E-01      8.321777000000000E+00      1.249237000000000E-01     -1.625781000000000E+02
4951000000.000000      7.053528000000000E-01      8.103516000000000E+00      1.221771000000000E-01     -1.614609000000000E+02
4952000000.000000      7.048035000000000E-01      7.886719000000000E+00      1.193657000000000E-01     -1.601328000000000E+02
4953000000.000000      7.048950000000000E-01      7.772705000000000E+00      1.170197000000000E-01     -1.586641000000000E+02
4954000000.000000      7.059937000000000E-01      7.838623000000000E+00      1.146660000000000E-01     -1.574844000000000E+02
