! Network Analyzer HP8722D
! Hewlett-Packard
! Data name: Linha & Wilkinson
! Saver's name: Rodrigo Anjos
! Comments: Teste da utilização de aquisição
continua pelo VNA HP8722D
! Time and date: 22/5/2025 16:36
!              Frequency                     S11                                                   S21                                                   S12                                                   S22
# HZ  S  MA R 50
4800000000.000000      6.518860000000000E-01      1.104932000000000E+01      4.714355000000000E-01     -9.244921000000000E+01
4801000000.000000      6.502075000000000E-01      1.095996000000000E+01      4.707642000000000E-01     -9.308203000000000E+01
4802000000.000000      6.466980000000000E-01      1.114941000000000E+01      4.742432000000000E-01     -9.385937000000000E+01
4803000000.000000      6.458435000000000E-01      1.101221000000000E+01      4.772034000000000E-01     -9.441797000000000E+01
4804000000.000000      6.438904000000000E-01      1.100000000000000E+01      4.788055000000000E-01     -9.525000000000000E+01
4805000000.000000      6.445923000000000E-01      1.093262000000000E+01      4.800262000000000E-01     -9.598436000000000E+01
4806000000.000000      6.411438000000000E-01      1.096436000000000E+01      4.822693000000000E-01     -9.692968000000000E+01
4807000000.000000      6.410828000000000E-01      1.093262000000000E+01      4.830170000000000E-01     -9.775780000000000E+01
4808000000.000000      6.355286000000000E-01      1.101611000000000E+01      4.851227000000000E-01     -9.824219000000000E+01
4809000000.000000      6.361389000000000E-01      1.095313000000000E+01      4.872284000000000E-01     -9.917187000000000E+01
4810000000.000000      6.342468000000000E-01      1.109033000000000E+01      4.884949000000000E-01     -9.987108000000000E+01
4811000000.000000      6.343079000000000E-01      1.105469000000000E+01      4.890442000000000E-01     -1.009766000000000E+02
4812000000.000000      6.343384000000000E-01      1.133887000000000E+01      4.904327000000000E-01     -1.014297000000000E+02
4813000000.000000      6.309814000000000E-01      1.124170000000000E+01      4.920197000000000E-01     -1.023281000000000E+02
4814000000.000000      6.280518000000000E-01      1.120605000000000E+01      4.911957000000000E-01     -1.028594000000000E+02
4815000000.000000      6.281738000000000E-01      1.127197000000000E+01      4.933624000000000E-01     -1.036836000000000E+02
4816000000.000000      6.286011000000000E-01      1.156543000000000E+01      4.949951000000000E-01     -1.043203000000000E+02
4817000000.000000      6.246033000000000E-01      1.161768000000000E+01      4.947205000000000E-01     -1.051797000000000E+02
4818000000.000000      6.250305000000000E-01      1.150244000000000E+01      4.945374000000000E-01     -1.060703000000000E+02
4819000000.000000      6.231384000000000E-01      1.158203000000000E+01      4.943085000000000E-01     -1.067812000000000E+02
4820000000.000000      6.220703000000000E-01      1.185010000000000E+01      4.973907000000000E-01     -1.074101000000000E+02
4821000000.000000      6.213684000000000E-01      1.175928000000000E+01      4.975128000000000E-01     -1.083945000000000E+02
4822000000.000000      6.175232000000000E-01      1.183887000000000E+01      4.969177000000000E-01     -1.088594000000000E+02
4823000000.000000      6.190491000000000E-01      1.191016000000000E+01      4.987640000000000E-01     -1.097461000000000E+02
4824000000.000000      6.172180000000000E-01      1.202979000000000E+01      4.969788000000000E-01     -1.104570000000000E+02
4825000000.000000      6.173706000000000E-01      1.216699000000000E+01      4.977264000000000E-01     -1.111406000000000E+02
4826000000.000000      6.149292000000000E-01      1.208057000000000E+01      4.968414000000000E-01     -1.122187000000000E+02
4827000000.000000      6.146240000000000E-01      1.227441000000000E+01      4.981079000000000E-01     -1.127344000000000E+02
4828000000.000000      6.158447000000000E-01      1.252539000000000E+01      4.994659000000000E-01     -1.133750000000000E+02
4829000000.000000      6.153564000000000E-01      1.262305000000000E+01      4.989929000000000E-01     -1.141680000000000E+02
4830000000.000000      6.131897000000000E-01      1.266309000000000E+01      5.001526000000000E-01     -1.150312000000000E+02
4831000000.000000      6.130371000000000E-01      1.272754000000000E+01      4.998169000000000E-01     -1.157813000000000E+02
4832000000.000000      6.137085000000000E-01      1.304346000000000E+01      4.989014000000000E-01     -1.164219000000000E+02
4833000000.000000      6.129456000000000E-01      1.285254000000000E+01      4.992218000000000E-01     -1.171211000000000E+02
4834000000.000000      6.135254000000000E-01      1.298828000000000E+01      4.991455000000000E-01     -1.179805000000000E+02
4835000000.000000      6.152649000000000E-01      1.301855000000000E+01      4.990540000000000E-01     -1.189258000000000E+02
4836000000.000000      6.148376000000000E-01      1.362012000000000E+01      4.985199000000000E-01     -1.196719000000000E+02
4837000000.000000      6.138306000000000E-01      1.364063000000000E+01      4.974365000000000E-01     -1.206250000000000E+02
4838000000.000000      6.147156000000000E-01      1.351855000000000E+01      4.997406000000000E-01     -1.209727000000000E+02
4839000000.000000      6.158752000000000E-01      1.376416000000000E+01      4.972992000000000E-01     -1.218398000000000E+02
4840000000.000000      6.166992000000000E-01      1.362549000000000E+01      4.972382000000000E-01     -1.227226000000000E+02
4841000000.000000      6.151428000000000E-01      1.400586000000000E+01      4.967804000000000E-01     -1.235352000000000E+02
4842000000.000000      6.168823000000000E-01      1.408008000000000E+01      4.954224000000000E-01     -1.241875000000000E+02
4843000000.000000      6.188354000000000E-01      1.406104000000000E+01      4.965210000000000E-01     -1.252500000000000E+02
4844000000.000000      6.167908000000000E-01      1.422852000000000E+01      4.939117000000000E-01     -1.261484000000000E+02
4845000000.000000      6.186523000000000E-01      1.426270000000000E+01      4.942322000000000E-01     -1.269219000000000E+02
4846000000.000000      6.183167000000000E-01      1.435205000000000E+01      4.928741000000000E-01     -1.277148000000000E+02
4847000000.000000      6.196594000000000E-01      1.455371000000000E+01      4.909210000000000E-01     -1.285234000000000E+02
4848000000.000000      6.206970000000000E-01      1.451416000000000E+01      4.884796000000000E-01     -1.293594000000000E+02
4849000000.000000      6.201172000000000E-01      1.445801000000000E+01      4.885712000000000E-01     -1.301484000000000E+02
4850000000.000000      6.228638000000000E-01      1.455957000000000E+01      4.854889000000000E-01     -1.309766000000000E+02
4851000000.000000      6.226807000000000E-01      1.477783000000000E+01      4.862823000000000E-01     -1.319844000000000E+02
4852000000.000000      6.234131000000000E-01      1.485352000000000E+01      4.817047000000000E-01     -1.327578000000000E+02
4853000000.000000      6.254578000000000E-01      1.476270000000000E+01      4.793701000000000E-01     -1.336094000000000E+02
4854000000.000000      6.248474000000000E-01      1.495215000000000E+01      4.779816000000000E-01     -1.346094000000000E+02
4855000000.000000      6.254883000000000E-01      1.499316000000000E+01      4.762573000000000E-01     -1.353672000000000E+02
4856000000.000000      6.283569000000000E-01      1.478467000000000E+01      4.735107000000000E-01     -1.360312000000000E+02
4857000000.000000      6.288452000000000E-01      1.514453000000000E+01      4.715729000000000E-01     -1.370312000000000E+02
4858000000.000000      6.288147000000000E-01      1.509375000000000E+01      4.676819000000000E-01     -1.378750000000000E+02
4859000000.000000      6.308594000000000E-01      1.503467000000000E+01      4.664459000000000E-01     -1.386563000000000E+02
4860000000.000000      6.311340000000000E-01      1.508936000000000E+01      4.624939000000000E-01     -1.393828000000000E+02
4861000000.000000      6.329346000000000E-01      1.499072000000000E+01      4.604492000000000E-01     -1.405313000000000E+02
4862000000.000000      6.330566000000000E-01      1.522949000000000E+01      4.571075000000000E-01     -1.411797000000000E+02
4863000000.000000      6.342163000000000E-01      1.524170000000000E+01      4.518433000000000E-01     -1.420234000000000E+02
4864000000.000000      6.382141000000000E-01      1.511279000000000E+01      4.502106000000000E-01     -1.428672000000000E+02
4865000000.000000      6.365051000000000E-01      1.501514000000000E+01      4.460297000000000E-01     -1.435781000000000E+02
4866000000.000000      6.397705000000000E-01      1.477100000000000E+01      4.411774000000000E-01     -1.446016000000000E+02
4867000000.000000      6.377258000000000E-01      1.511963000000000E+01      4.375610000000000E-01     -1.453438000000000E+02
4868000000.000000      6.421509000000000E-01      1.501807000000000E+01      4.345551000000000E-01     -1.459609000000000E+02
4869000000.000000      6.434326000000000E-01      1.506885000000000E+01      4.298553000000000E-01     -1.469219000000000E+02
4870000000.000000      6.437073000000000E-01      1.503467000000000E+01      4.270782000000000E-01     -1.474531000000000E+02
4871000000.000000      6.443481000000000E-01      1.487402000000000E+01      4.226532000000000E-01     -1.482734000000000E+02
4872000000.000000      6.474304000000000E-01      1.496875000000000E+01      4.176025000000000E-01     -1.488203000000000E+02
4873000000.000000      6.476440000000000E-01      1.505225000000000E+01      4.134369000000000E-01     -1.497422000000000E+02
4874000000.000000      6.500244000000000E-01      1.492480000000000E+01      4.088593000000000E-01     -1.505312000000000E+02
4875000000.000000      6.493835000000000E-01      1.484766000000000E+01      4.052582000000000E-01     -1.510391000000000E+02
4876000000.000000      6.505127000000000E-01      1.505908000000000E+01      4.009247000000000E-01     -1.516953000000000E+02
4877000000.000000      6.527405000000000E-01      1.478613000000000E+01      3.975677000000000E-01     -1.524297000000000E+02
4878000000.000000      6.535034000000000E-01      1.470508000000000E+01      3.914642000000000E-01     -1.530000000000000E+02
4879000000.000000      6.552124000000000E-01      1.479297000000000E+01      3.876801000000000E-01     -1.535469000000000E+02
4880000000.000000      6.566772000000000E-01      1.456348000000000E+01      3.827515000000000E-01     -1.540469000000000E+02
4881000000.000000      6.582642000000000E-01      1.453467000000000E+01      3.784485000000000E-01     -1.546953000000000E+02
4882000000.000000      6.592102000000000E-01      1.464063000000000E+01      3.751526000000000E-01     -1.552344000000000E+02
4883000000.000000      6.593628000000000E-01      1.423389000000000E+01      3.699188000000000E-01     -1.558437000000000E+02
4884000000.000000      6.629944000000000E-01      1.450586000000000E+01      3.645935000000000E-01     -1.565078000000000E+02
4885000000.000000      6.632080000000000E-01      1.438916000000000E+01      3.610077000000000E-01     -1.567188000000000E+02
4886000000.000000      6.636658000000000E-01      1.435742000000000E+01      3.563843000000000E-01     -1.572891000000000E+02
4887000000.000000      6.661682000000000E-01      1.420215000000000E+01      3.532104000000000E-01     -1.579297000000000E+02
4888000000.000000      6.653748000000000E-01      1.395801000000000E+01      3.480835000000000E-01     -1.583125000000000E+02
4889000000.000000      6.667786000000000E-01      1.406494000000000E+01      3.442078000000000E-01     -1.587344000000000E+02
4890000000.000000      6.686707000000000E-01      1.397852000000000E+01      3.390350000000000E-01     -1.594609000000000E+02
4891000000.000000      6.694031000000000E-01      1.393750000000000E+01      3.353882000000000E-01     -1.598984000000000E+02
4892000000.000000      6.706238000000000E-01      1.372998000000000E+01      3.309937000000000E-01     -1.599609000000000E+02
4893000000.000000      6.724854000000000E-01      1.368457000000000E+01      3.281403000000000E-01     -1.606328000000000E+02
4894000000.000000      6.726379000000000E-01      1.353760000000000E+01      3.241272000000000E-01     -1.609375000000000E+02
4895000000.000000      6.747131000000000E-01      1.357324000000000E+01      3.202972000000000E-01     -1.612344000000000E+02
4896000000.000000      6.737976000000000E-01      1.338379000000000E+01      3.164978000000000E-01     -1.615703000000000E+02
4897000000.000000      6.747742000000000E-01      1.338818000000000E+01      3.117981000000000E-01     -1.619922000000000E+02
4898000000.000000      6.761169000000000E-01      1.337988000000000E+01      3.091125000000000E-01     -1.623672000000000E+02
4899000000.000000      6.770935000000000E-01      1.324805000000000E+01      3.052979000000000E-01     -1.627656000000000E+02
4900000000.000000      6.775208000000000E-01      1.310254000000000E+01      3.013153000000000E-01     -1.630469000000000E+02
4901000000.000000      6.780396000000000E-01      1.297070000000000E+01      2.973938000000000E-01     -1.633750000000000E+02
4902000000.000000      6.802368000000000E-01      1.286621000000000E+01      2.940216000000000E-01     -1.636172000000000E+02
4903000000.000000      6.806946000000000E-01      1.277002000000000E+01      2.896118000000000E-01     -1.640859000000000E+02
4904000000.000000      6.811523000000000E-01      1.245410000000000E+01      2.866669000000000E-01     -1.643906000000000E+02
4905000000.000000      6.834106000000000E-01      1.268506000000000E+01      2.833862000000000E-01     -1.648281000000000E+02
4906000000.000000      6.844177000000000E-01      1.236475000000000E+01      2.791748000000000E-01     -1.649062000000000E+02
4907000000.000000      6.836243000000000E-01      1.246094000000000E+01      2.769623000000000E-01     -1.655234000000000E+02
4908000000.000000      6.853027000000000E-01      1.212158000000000E+01      2.732697000000000E-01     -1.656563000000000E+02
4909000000.000000      6.850281000000000E-01      1.210107000000000E+01      2.691650000000000E-01     -1.659453000000000E+02
4910000000.000000      6.837158000000000E-01      1.211084000000000E+01      2.659149000000000E-01     -1.662422000000000E+02
4911000000.000000      6.885986000000000E-01      1.210400000000000E+01      2.624207000000000E-01     -1.665234000000000E+02
4912000000.000000      6.843872000000000E-01      1.193213000000000E+01      2.589722000000000E-01     -1.671172000000000E+02
4913000000.000000      6.856689000000000E-01      1.173438000000000E+01      2.559204000000000E-01     -1.674219000000000E+02
4914000000.000000      6.878967000000000E-01      1.167432000000000E+01      2.519684000000000E-01     -1.674141000000000E+02
4915000000.000000      6.864624000000000E-01      1.154248000000000E+01      2.480927000000000E-01     -1.680234000000000E+02
4916000000.000000      6.887817000000000E-01      1.154932000000000E+01      2.448273000000000E-01     -1.682891000000000E+02
4917000000.000000      6.888733000000000E-01      1.147754000000000E+01      2.412109000000000E-01     -1.684844000000000E+02
4918000000.000000      6.889954000000000E-01      1.120459000000000E+01      2.368088000000000E-01     -1.687813000000000E+02
4919000000.000000      6.891479000000000E-01      1.125537000000000E+01      2.338791000000000E-01     -1.686953000000000E+02
4920000000.000000      6.907654000000000E-01      1.095313000000000E+01      2.299805000000000E-01     -1.691875000000000E+02
4921000000.000000      6.905518000000000E-01      1.111377000000000E+01      2.271881000000000E-01     -1.693750000000000E+02
4922000000.000000      6.919861000000000E-01      1.094336000000000E+01      2.228165000000000E-01     -1.695000000000000E+02
4923000000.000000      6.925049000000000E-01      1.065234000000000E+01      2.189407000000000E-01     -1.697969000000000E+02
4924000000.000000      6.945190000000000E-01      1.055762000000000E+01      2.155228000000000E-01     -1.701406000000000E+02
4925000000.000000      6.927490000000000E-01      1.058496000000000E+01      2.115402000000000E-01     -1.702812000000000E+02
4926000000.000000      6.946106000000000E-01      1.045898000000000E+01      2.080307000000000E-01     -1.704062000000000E+02
4927000000.000000      6.941833000000000E-01      1.040088000000000E+01      2.036362000000000E-01     -1.705781000000000E+02
4928000000.000000      6.966553000000000E-01      1.036523000000000E+01      2.004623000000000E-01     -1.705156000000000E+02
4929000000.000000      6.948547000000000E-01      1.014697000000000E+01      1.968765000000000E-01     -1.705156000000000E+02
4930000000.000000      6.957092000000000E-01      1.011426000000000E+01      1.929092000000000E-01     -1.706484000000000E+02
4931000000.000000      6.948242000000000E-01      9.920410000000000E+00      1.895752000000000E-01     -1.706953000000000E+02
4932000000.000000      6.975403000000000E-01      9.954590000000000E+00      1.852264000000000E-01     -1.706250000000000E+02
4933000000.000000      6.955261000000000E-01      9.815918000000000E+00      1.807175000000000E-01     -1.704687000000000E+02
4934000000.000000      6.985168000000000E-01      9.631836000000000E+00      1.772995000000000E-01     -1.704687000000000E+02
4935000000.000000      6.981201000000000E-01      9.581055000000000E+00      1.740417000000000E-01     -1.700781000000000E+02
4936000000.000000      6.982727000000000E-01      9.458984000000000E+00      1.704178000000000E-01     -1.701797000000000E+02
4937000000.000000      6.992188000000000E-01      9.296875000000000E+00      1.664505000000000E-01     -1.700703000000000E+02
4938000000.000000      6.989136000000000E-01      9.420410000000000E+00      1.629562000000000E-01     -1.695078000000000E+02
4939000000.000000      7.001343000000000E-01      9.235352000000000E+00      1.592255000000000E-01     -1.694062000000000E+02
4940000000.000000      6.988831000000000E-01      9.033203000000000E+00      1.554947000000000E-01     -1.692344000000000E+02
4941000000.000000      7.002563000000000E-01      9.110352000000000E+00      1.522980000000000E-01     -1.685625000000000E+02
4942000000.000000      7.004395000000000E-01      8.847656000000000E+00      1.483231000000000E-01     -1.680312000000000E+02
4943000000.000000      7.003784000000000E-01      8.986816000000000E+00      1.453018000000000E-01     -1.677109000000000E+02
4944000000.000000      7.004395000000000E-01      8.801270000000000E+00      1.416016000000000E-01     -1.668672000000000E+02
4945000000.000000      7.024231000000000E-01      8.640625000000000E+00      1.380920000000000E-01     -1.663047000000000E+02
4946000000.000000      7.029114000000000E-01      8.475586000000000E+00      1.350708000000000E-01     -1.655703000000000E+02
4947000000.000000      7.037354000000000E-01      8.400391000000000E+00      1.320572000000000E-01     -1.647344000000000E+02
4948000000.000000      7.036133000000000E-01      8.504395000000000E+00      1.293182000000000E-01     -1.637891000000000E+02
4949000000.000000      7.056274000000000E-01      8.275391000000000E+00      1.264038000000000E-01     -1.626328000000000E+02
4950000000.000000      7.061462000000000E-01      8.231445000000000E+00      1.233864000000000E-01     -1.616562000000000E+02
4951000000.000000      7.046814000000000E-01      7.979980000000000E+00      1.208611000000000E-01     -1.606016000000000E+02
4952000000.000000      7.047424000000000E-01      7.992432000000000E+00      1.178856000000000E-01     -1.592969000000000E+02
4953000000.000000      7.054749000000000E-01      7.699951000000000E+00      1.163445000000000E-01     -1.579062000000000E+02
4954000000.000000      7.067871000000000E-01      7.759033000000000E+00      1.139107000000000E-01     -1.563906000000000E+02
