! Network Analyzer HP8722D
! Hewlett-Packard
! Data name: Linha & Wilkinson
! Saver's name: Rodrigo Anjos
! Comments: Teste da utilização de aquisição
continua pelo VNA HP8722D
! Time and date: 22/5/2025 14:34
!              Frequency                     S11                                                   S21                                                   S12                                                   S22
# HZ  S  MA R 50
4800000000.000000      6.526794000000000E-01      1.092578000000000E+01      4.685822000000000E-01     -9.191797000000000E+01
4801000000.000000      6.502380000000000E-01      1.108789000000000E+01      4.724731000000000E-01     -9.262499000000000E+01
4802000000.000000      6.488037000000000E-01      1.090088000000000E+01      4.732666000000000E-01     -9.364843000000000E+01
4803000000.000000      6.466675000000000E-01      1.084180000000000E+01      4.770508000000000E-01     -9.416016000000000E+01
4804000000.000000      6.463928000000000E-01      1.079932000000000E+01      4.795380000000000E-01     -9.479687000000000E+01
4805000000.000000      6.455688000000000E-01      1.081592000000000E+01      4.793549000000000E-01     -9.581640000000000E+01
4806000000.000000      6.432495000000000E-01      1.085840000000000E+01      4.802704000000000E-01     -9.649218000000000E+01
4807000000.000000      6.406860000000000E-01      1.082666000000000E+01      4.818573000000000E-01     -9.735155000000000E+01
4808000000.000000      6.388855000000000E-01      1.084473000000000E+01      4.845276000000000E-01     -9.784374000000000E+01
4809000000.000000      6.369629000000000E-01      1.100537000000000E+01      4.854126000000000E-01     -9.885937000000000E+01
4810000000.000000      6.367798000000000E-01      1.090381000000000E+01      4.879150000000000E-01     -9.947655000000000E+01
4811000000.000000      6.360779000000000E-01      1.087354000000000E+01      4.890594000000000E-01     -1.004258000000000E+02
4812000000.000000      6.346130000000000E-01      1.117578000000000E+01      4.896851000000000E-01     -1.010273000000000E+02
4813000000.000000      6.316528000000000E-01      1.108887000000000E+01      4.913025000000000E-01     -1.017344000000000E+02
4814000000.000000      6.291809000000000E-01      1.106689000000000E+01      4.934692000000000E-01     -1.023516000000000E+02
4815000000.000000      6.298218000000000E-01      1.132813000000000E+01      4.934387000000000E-01     -1.032656000000000E+02
4816000000.000000      6.278992000000000E-01      1.122656000000000E+01      4.949188000000000E-01     -1.039180000000000E+02
4817000000.000000      6.266174000000000E-01      1.146533000000000E+01      4.944458000000000E-01     -1.047852000000000E+02
4818000000.000000      6.249695000000000E-01      1.150244000000000E+01      4.951019000000000E-01     -1.055273000000000E+02
4819000000.000000      6.242981000000000E-01      1.154346000000000E+01      4.941864000000000E-01     -1.063633000000000E+02
4820000000.000000      6.221313000000000E-01      1.173877000000000E+01      4.966278000000000E-01     -1.068633000000000E+02
4821000000.000000      6.218262000000000E-01      1.185400000000000E+01      4.963837000000000E-01     -1.077930000000000E+02
4822000000.000000      6.209717000000000E-01      1.170313000000000E+01      4.952545000000000E-01     -1.082578000000000E+02
4823000000.000000      6.196594000000000E-01      1.174561000000000E+01      4.979095000000000E-01     -1.091484000000000E+02
4824000000.000000      6.187439000000000E-01      1.202979000000000E+01      4.962463000000000E-01     -1.101211000000000E+02
4825000000.000000      6.160889000000000E-01      1.205322000000000E+01      4.977722000000000E-01     -1.106328000000000E+02
4826000000.000000      6.156616000000000E-01      1.210254000000000E+01      4.982605000000000E-01     -1.115820000000000E+02
4827000000.000000      6.168213000000000E-01      1.231396000000000E+01      4.990845000000000E-01     -1.121367000000000E+02
4828000000.000000      6.158752000000000E-01      1.232520000000000E+01      4.988861000000000E-01     -1.129961000000000E+02
4829000000.000000      6.156921000000000E-01      1.266553000000000E+01      5.006714000000000E-01     -1.137266000000000E+02
4830000000.000000      6.156616000000000E-01      1.263672000000000E+01      4.989014000000000E-01     -1.146523000000000E+02
4831000000.000000      6.155701000000000E-01      1.273828000000000E+01      5.002136000000000E-01     -1.154336000000000E+02
4832000000.000000      6.118164000000000E-01      1.300635000000000E+01      4.978333000000000E-01     -1.160273000000000E+02
4833000000.000000      6.127625000000000E-01      1.283740000000000E+01      5.002441000000000E-01     -1.167773000000000E+02
4834000000.000000      6.141968000000000E-01      1.295117000000000E+01      4.994659000000000E-01     -1.173984000000000E+02
4835000000.000000      6.145935000000000E-01      1.317383000000000E+01      4.993744000000000E-01     -1.183594000000000E+02
4836000000.000000      6.138916000000000E-01      1.346094000000000E+01      4.977875000000000E-01     -1.189687000000000E+02
4837000000.000000      6.141052000000000E-01      1.362305000000000E+01      4.976044000000000E-01     -1.200742000000000E+02
4838000000.000000      6.121216000000000E-01      1.353516000000000E+01      4.995575000000000E-01     -1.205195000000000E+02
4839000000.000000      6.182556000000000E-01      1.359668000000000E+01      4.991608000000000E-01     -1.213281000000000E+02
4840000000.000000      6.147461000000000E-01      1.360791000000000E+01      4.985809000000000E-01     -1.222852000000000E+02
4841000000.000000      6.156006000000000E-01      1.382617000000000E+01      4.980469000000000E-01     -1.232539000000000E+02
4842000000.000000      6.163940000000000E-01      1.389063000000000E+01      4.965668000000000E-01     -1.238555000000000E+02
4843000000.000000      6.173096000000000E-01      1.378076000000000E+01      4.971924000000000E-01     -1.246680000000000E+02
4844000000.000000      6.192017000000000E-01      1.403760000000000E+01      4.954376000000000E-01     -1.256172000000000E+02
4845000000.000000      6.180420000000000E-01      1.416943000000000E+01      4.938049000000000E-01     -1.263789000000000E+02
4846000000.000000      6.190186000000000E-01      1.426709000000000E+01      4.937592000000000E-01     -1.271289000000000E+02
4847000000.000000      6.205750000000000E-01      1.440967000000000E+01      4.941559000000000E-01     -1.278203000000000E+02
4848000000.000000      6.190796000000000E-01      1.447168000000000E+01      4.899139000000000E-01     -1.289063000000000E+02
4849000000.000000      6.211548000000000E-01      1.443311000000000E+01      4.900208000000000E-01     -1.295938000000000E+02
4850000000.000000      6.215820000000000E-01      1.463086000000000E+01      4.871826000000000E-01     -1.303594000000000E+02
4851000000.000000      6.227722000000000E-01      1.476123000000000E+01      4.878540000000000E-01     -1.315156000000000E+02
4852000000.000000      6.220703000000000E-01      1.462402000000000E+01      4.855499000000000E-01     -1.322187000000000E+02
4853000000.000000      6.237183000000000E-01      1.454150000000000E+01      4.817810000000000E-01     -1.329844000000000E+02
4854000000.000000      6.235657000000000E-01      1.481494000000000E+01      4.806671000000000E-01     -1.341875000000000E+02
4855000000.000000      6.274414000000000E-01      1.484229000000000E+01      4.784851000000000E-01     -1.348906000000000E+02
4856000000.000000      6.294556000000000E-01      1.475830000000000E+01      4.754944000000000E-01     -1.357344000000000E+02
4857000000.000000      6.281738000000000E-01      1.503467000000000E+01      4.731293000000000E-01     -1.364453000000000E+02
4858000000.000000      6.295166000000000E-01      1.485742000000000E+01      4.706116000000000E-01     -1.373906000000000E+02
4859000000.000000      6.303711000000000E-01      1.492725000000000E+01      4.689331000000000E-01     -1.382578000000000E+02
4860000000.000000      6.320190000000000E-01      1.501807000000000E+01      4.647675000000000E-01     -1.390469000000000E+02
4861000000.000000      6.322937000000000E-01      1.507861000000000E+01      4.615631000000000E-01     -1.398203000000000E+02
4862000000.000000      6.329651000000000E-01      1.507568000000000E+01      4.596710000000000E-01     -1.406250000000000E+02
4863000000.000000      6.354065000000000E-01      1.492627000000000E+01      4.542236000000000E-01     -1.417500000000000E+02
4864000000.000000      6.359253000000000E-01      1.514014000000000E+01      4.521942000000000E-01     -1.423594000000000E+02
4865000000.000000      6.364746000000000E-01      1.513184000000000E+01      4.470215000000000E-01     -1.430625000000000E+02
4866000000.000000      6.392212000000000E-01      1.504980000000000E+01      4.440308000000000E-01     -1.440859000000000E+02
4867000000.000000      6.389771000000000E-01      1.489453000000000E+01      4.403229000000000E-01     -1.449375000000000E+02
4868000000.000000      6.421814000000000E-01      1.500830000000000E+01      4.374390000000000E-01     -1.457734000000000E+02
4869000000.000000      6.435852000000000E-01      1.503711000000000E+01      4.332733000000000E-01     -1.465234000000000E+02
4870000000.000000      6.430664000000000E-01      1.518164000000000E+01      4.288177000000000E-01     -1.469297000000000E+02
4871000000.000000      6.423950000000000E-01      1.495898000000000E+01      4.249268000000000E-01     -1.477969000000000E+02
4872000000.000000      6.458130000000000E-01      1.500977000000000E+01      4.214935000000000E-01     -1.485391000000000E+02
4873000000.000000      6.475830000000000E-01      1.500977000000000E+01      4.172211000000000E-01     -1.494062000000000E+02
4874000000.000000      6.491394000000000E-01      1.485352000000000E+01      4.122467000000000E-01     -1.500547000000000E+02
4875000000.000000      6.504211000000000E-01      1.484229000000000E+01      4.080353000000000E-01     -1.506641000000000E+02
4876000000.000000      6.511536000000000E-01      1.494238000000000E+01      4.038239000000000E-01     -1.514297000000000E+02
4877000000.000000      6.525574000000000E-01      1.460449000000000E+01      3.988647000000000E-01     -1.521172000000000E+02
4878000000.000000      6.523132000000000E-01      1.476563000000000E+01      3.943634000000000E-01     -1.526094000000000E+02
4879000000.000000      6.553955000000000E-01      1.473242000000000E+01      3.898621000000000E-01     -1.532422000000000E+02
4880000000.000000      6.564026000000000E-01      1.451123000000000E+01      3.867188000000000E-01     -1.537500000000000E+02
4881000000.000000      6.571960000000000E-01      1.462256000000000E+01      3.823547000000000E-01     -1.543516000000000E+02
4882000000.000000      6.616516000000000E-01      1.450977000000000E+01      3.781738000000000E-01     -1.551797000000000E+02
4883000000.000000      6.585083000000000E-01      1.440137000000000E+01      3.728485000000000E-01     -1.557422000000000E+02
4884000000.000000      6.631165000000000E-01      1.450439000000000E+01      3.684540000000000E-01     -1.561016000000000E+02
4885000000.000000      6.631165000000000E-01      1.422852000000000E+01      3.638916000000000E-01     -1.565781000000000E+02
4886000000.000000      6.659546000000000E-01      1.426709000000000E+01      3.600769000000000E-01     -1.571250000000000E+02
4887000000.000000      6.669617000000000E-01      1.410742000000000E+01      3.562012000000000E-01     -1.575781000000000E+02
4888000000.000000      6.643982000000000E-01      1.408691000000000E+01      3.511810000000000E-01     -1.581016000000000E+02
4889000000.000000      6.682434000000000E-01      1.405273000000000E+01      3.479767000000000E-01     -1.585156000000000E+02
4890000000.000000      6.678162000000000E-01      1.393164000000000E+01      3.425598000000000E-01     -1.592891000000000E+02
4891000000.000000      6.697388000000000E-01      1.387939000000000E+01      3.382721000000000E-01     -1.595625000000000E+02
4892000000.000000      6.693726000000000E-01      1.370801000000000E+01      3.350983000000000E-01     -1.597812000000000E+02
4893000000.000000      6.720581000000000E-01      1.358691000000000E+01      3.300323000000000E-01     -1.604141000000000E+02
4894000000.000000      6.719971000000000E-01      1.365039000000000E+01      3.252563000000000E-01     -1.607422000000000E+02
4895000000.000000      6.748047000000000E-01      1.339063000000000E+01      3.231659000000000E-01     -1.610156000000000E+02
4896000000.000000      6.747437000000000E-01      1.355420000000000E+01      3.175964000000000E-01     -1.614453000000000E+02
4897000000.000000      6.740417000000000E-01      1.336621000000000E+01      3.149872000000000E-01     -1.619453000000000E+02
4898000000.000000      6.749268000000000E-01      1.315576000000000E+01      3.119354000000000E-01     -1.621172000000000E+02
4899000000.000000      6.783447000000000E-01      1.327930000000000E+01      3.078613000000000E-01     -1.626172000000000E+02
4900000000.000000      6.799316000000000E-01      1.292529000000000E+01      3.035736000000000E-01     -1.628203000000000E+02
4901000000.000000      6.790161000000000E-01      1.299121000000000E+01      3.013916000000000E-01     -1.631250000000000E+02
4902000000.000000      6.790466000000000E-01      1.295557000000000E+01      2.973328000000000E-01     -1.633203000000000E+02
4903000000.000000      6.795959000000000E-01      1.275488000000000E+01      2.921448000000000E-01     -1.639688000000000E+02
4904000000.000000      6.813660000000000E-01      1.262158000000000E+01      2.887115000000000E-01     -1.642969000000000E+02
4905000000.000000      6.817627000000000E-01      1.282471000000000E+01      2.858582000000000E-01     -1.646172000000000E+02
4906000000.000000      6.813965000000000E-01      1.260791000000000E+01      2.825928000000000E-01     -1.648281000000000E+02
4907000000.000000      6.833191000000000E-01      1.230469000000000E+01      2.790833000000000E-01     -1.653516000000000E+02
4908000000.000000      6.863403000000000E-01      1.222363000000000E+01      2.762909000000000E-01     -1.656641000000000E+02
4909000000.000000      6.845398000000000E-01      1.225098000000000E+01      2.715607000000000E-01     -1.658906000000000E+02
4910000000.000000      6.849060000000000E-01      1.205566000000000E+01      2.682800000000000E-01     -1.661953000000000E+02
4911000000.000000      6.864319000000000E-01      1.190088000000000E+01      2.653961000000000E-01     -1.665547000000000E+02
4912000000.000000      6.861877000000000E-01      1.205713000000000E+01      2.611237000000000E-01     -1.670547000000000E+02
4913000000.000000      6.865234000000000E-01      1.169482000000000E+01      2.577362000000000E-01     -1.671641000000000E+02
4914000000.000000      6.871338000000000E-01      1.169873000000000E+01      2.549744000000000E-01     -1.676094000000000E+02
4915000000.000000      6.872559000000000E-01      1.153662000000000E+01      2.509766000000000E-01     -1.679219000000000E+02
4916000000.000000      6.898193000000000E-01      1.136377000000000E+01      2.475891000000000E-01     -1.680938000000000E+02
4917000000.000000      6.886597000000000E-01      1.134180000000000E+01      2.443466000000000E-01     -1.684531000000000E+02
4918000000.000000      6.905212000000000E-01      1.140918000000000E+01      2.397766000000000E-01     -1.687344000000000E+02
4919000000.000000      6.887817000000000E-01      1.130322000000000E+01      2.364349000000000E-01     -1.688594000000000E+02
4920000000.000000      6.915588000000000E-01      1.111816000000000E+01      2.324982000000000E-01     -1.693594000000000E+02
4921000000.000000      6.908264000000000E-01      1.092041000000000E+01      2.293854000000000E-01     -1.694922000000000E+02
4922000000.000000      6.921387000000000E-01      1.096143000000000E+01      2.256622000000000E-01     -1.695781000000000E+02
4923000000.000000      6.903992000000000E-01      1.081445000000000E+01      2.213821000000000E-01     -1.697500000000000E+02
4924000000.000000      6.917419000000000E-01      1.072363000000000E+01      2.174988000000000E-01     -1.700938000000000E+02
4925000000.000000      6.910400000000000E-01      1.061377000000000E+01      2.140274000000000E-01     -1.702266000000000E+02
4926000000.000000      6.926270000000000E-01      1.053955000000000E+01      2.106552000000000E-01     -1.704219000000000E+02
4927000000.000000      6.940308000000000E-01      1.038574000000000E+01      2.067413000000000E-01     -1.706328000000000E+02
4928000000.000000      6.925354000000000E-01      1.017871000000000E+01      2.034683000000000E-01     -1.705859000000000E+02
4929000000.000000      6.947937000000000E-01      1.019385000000000E+01      1.992722000000000E-01     -1.706328000000000E+02
4930000000.000000      6.949158000000000E-01      1.009766000000000E+01      1.954727000000000E-01     -1.708047000000000E+02
4931000000.000000      6.957703000000000E-01      9.927246000000000E+00      1.922531000000000E-01     -1.708906000000000E+02
4932000000.000000      6.973267000000000E-01      9.908203000000000E+00      1.872635000000000E-01     -1.708281000000000E+02
4933000000.000000      6.965637000000000E-01      9.761230000000000E+00      1.834641000000000E-01     -1.707031000000000E+02
4934000000.000000      6.974792000000000E-01      9.689941000000000E+00      1.801987000000000E-01     -1.709219000000000E+02
4935000000.000000      6.984863000000000E-01      9.524902000000000E+00      1.768417000000000E-01     -1.706719000000000E+02
4936000000.000000      6.972961000000000E-01      9.570313000000000E+00      1.729202000000000E-01     -1.703047000000000E+02
4937000000.000000      6.995239000000000E-01      9.467285000000000E+00      1.685486000000000E-01     -1.703281000000000E+02
4938000000.000000      7.002869000000000E-01      9.361328000000000E+00      1.646500000000000E-01     -1.700938000000000E+02
4939000000.000000      6.982422000000000E-01      9.314941000000000E+00      1.617889000000000E-01     -1.697344000000000E+02
4940000000.000000      6.998291000000000E-01      9.074707000000000E+00      1.578827000000000E-01     -1.696563000000000E+02
4941000000.000000      7.001648000000000E-01      9.095215000000000E+00      1.544495000000000E-01     -1.690391000000000E+02
4942000000.000000      6.999817000000000E-01      8.971680000000000E+00      1.502533000000000E-01     -1.687578000000000E+02
4943000000.000000      7.028198000000000E-01      8.942871000000000E+00      1.471634000000000E-01     -1.682344000000000E+02
4944000000.000000      7.012939000000000E-01      8.757324000000000E+00      1.438065000000000E-01     -1.677344000000000E+02
4945000000.000000      7.028809000000000E-01      8.604980000000000E+00      1.400375000000000E-01     -1.671562000000000E+02
4946000000.000000      7.039490000000000E-01      8.520996000000000E+00      1.369705000000000E-01     -1.663359000000000E+02
4947000000.000000      7.032776000000000E-01      8.534668000000000E+00      1.337433000000000E-01     -1.655547000000000E+02
4948000000.000000      7.040405000000000E-01      8.350586000000000E+00      1.310883000000000E-01     -1.645781000000000E+02
4949000000.000000      7.037048000000000E-01      8.312500000000000E+00      1.279068000000000E-01     -1.633437000000000E+02
4950000000.000000      7.058105000000000E-01      8.162598000000000E+00      1.247292000000000E-01     -1.625625000000000E+02
4951000000.000000      7.060852000000000E-01      8.023926000000000E+00      1.222801000000000E-01     -1.615078000000000E+02
4952000000.000000      7.061157000000000E-01      7.797363000000000E+00      1.194077000000000E-01     -1.603828000000000E+02
4953000000.000000      7.062073000000000E-01      7.750732000000000E+00      1.173248000000000E-01     -1.589766000000000E+02
4954000000.000000      7.050171000000000E-01      7.746582000000000E+00      1.148949000000000E-01     -1.576406000000000E+02
