! Network Analyzer HP8722D
! Hewlett-Packard
! Data name: Linha & Wilkinson
! Saver's name: Rodrigo Anjos
! Comments: Teste da utilização de aquisição
continua pelo VNA HP8722D
! Time and date: 22/5/2025 16:09
!              Frequency                     S11                                                   S21                                                   S12                                                   S22
# HZ  S  MA R 50
4800000000.000000      6.515808000000000E-01      1.100684000000000E+01      4.723358000000000E-01     -9.242188000000000E+01
4801000000.000000      6.489258000000000E-01      1.096826000000000E+01      4.728699000000000E-01     -9.293749000000000E+01
4802000000.000000      6.476746000000000E-01      1.112207000000000E+01      4.762878000000000E-01     -9.391405000000000E+01
4803000000.000000      6.467285000000000E-01      1.101367000000000E+01      4.786072000000000E-01     -9.446484000000000E+01
4804000000.000000      6.456604000000000E-01      1.084180000000000E+01      4.777985000000000E-01     -9.545313000000000E+01
4805000000.000000      6.441650000000000E-01      1.099170000000000E+01      4.822845000000000E-01     -9.610937000000000E+01
4806000000.000000      6.419373000000000E-01      1.079541000000000E+01      4.821320000000000E-01     -9.673046000000000E+01
4807000000.000000      6.394653000000000E-01      1.095703000000000E+01      4.828796000000000E-01     -9.785156000000000E+01
4808000000.000000      6.378174000000000E-01      1.095703000000000E+01      4.850311000000000E-01     -9.833984000000000E+01
4809000000.000000      6.355896000000000E-01      1.106689000000000E+01      4.864044000000000E-01     -9.930468000000000E+01
4810000000.000000      6.350403000000000E-01      1.104492000000000E+01      4.882507000000000E-01     -9.983984000000000E+01
4811000000.000000      6.330872000000000E-01      1.111377000000000E+01      4.890289000000000E-01     -1.007187000000000E+02
4812000000.000000      6.333923000000000E-01      1.133350000000000E+01      4.893188000000000E-01     -1.014101000000000E+02
4813000000.000000      6.318359000000000E-01      1.125928000000000E+01      4.902344000000000E-01     -1.021719000000000E+02
4814000000.000000      6.286621000000000E-01      1.126367000000000E+01      4.931335000000000E-01     -1.028281000000000E+02
4815000000.000000      6.267395000000000E-01      1.140625000000000E+01      4.940796000000000E-01     -1.037226000000000E+02
4816000000.000000      6.273804000000000E-01      1.133203000000000E+01      4.964752000000000E-01     -1.042266000000000E+02
4817000000.000000      6.253662000000000E-01      1.143799000000000E+01      4.950256000000000E-01     -1.052266000000000E+02
4818000000.000000      6.240845000000000E-01      1.144482000000000E+01      4.936371000000000E-01     -1.060664000000000E+02
4819000000.000000      6.227722000000000E-01      1.164648000000000E+01      4.962311000000000E-01     -1.067148000000000E+02
4820000000.000000      6.205139000000000E-01      1.180469000000000E+01      4.955902000000000E-01     -1.075703000000000E+02
4821000000.000000      6.211853000000000E-01      1.177441000000000E+01      4.978943000000000E-01     -1.082305000000000E+02
4822000000.000000      6.191711000000000E-01      1.177295000000000E+01      4.957428000000000E-01     -1.089766000000000E+02
4823000000.000000      6.184082000000000E-01      1.173877000000000E+01      4.985657000000000E-01     -1.098555000000000E+02
4824000000.000000      6.175537000000000E-01      1.214795000000000E+01      4.962769000000000E-01     -1.106250000000000E+02
4825000000.000000      6.175232000000000E-01      1.212305000000000E+01      4.984589000000000E-01     -1.110586000000000E+02
4826000000.000000      6.170044000000000E-01      1.211084000000000E+01      4.986420000000000E-01     -1.121992000000000E+02
4827000000.000000      6.169739000000000E-01      1.234033000000000E+01      4.976807000000000E-01     -1.127070000000000E+02
4828000000.000000      6.148071000000000E-01      1.248291000000000E+01      5.005798000000000E-01     -1.134727000000000E+02
4829000000.000000      6.146851000000000E-01      1.253516000000000E+01      4.991760000000000E-01     -1.140430000000000E+02
4830000000.000000      6.149597000000000E-01      1.270703000000000E+01      5.004883000000000E-01     -1.151133000000000E+02
4831000000.000000      6.152039000000000E-01      1.275781000000000E+01      4.996796000000000E-01     -1.156758000000000E+02
4832000000.000000      6.139526000000000E-01      1.291162000000000E+01      4.998016000000000E-01     -1.165039000000000E+02
4833000000.000000      6.123657000000000E-01      1.298145000000000E+01      4.993896000000000E-01     -1.171875000000000E+02
4834000000.000000      6.135559000000000E-01      1.305859000000000E+01      5.002747000000000E-01     -1.180312000000000E+02
4835000000.000000      6.154785000000000E-01      1.327686000000000E+01      5.003357000000000E-01     -1.187383000000000E+02
4836000000.000000      6.140137000000000E-01      1.344287000000000E+01      4.978485000000000E-01     -1.194141000000000E+02
4837000000.000000      6.132507000000000E-01      1.348975000000000E+01      4.986420000000000E-01     -1.206836000000000E+02
4838000000.000000      6.139832000000000E-01      1.362842000000000E+01      4.981079000000000E-01     -1.210820000000000E+02
4839000000.000000      6.177368000000000E-01      1.382764000000000E+01      4.981384000000000E-01     -1.217969000000000E+02
4840000000.000000      6.154480000000000E-01      1.389600000000000E+01      4.982147000000000E-01     -1.228008000000000E+02
4841000000.000000      6.152344000000000E-01      1.387842000000000E+01      4.969330000000000E-01     -1.235234000000000E+02
4842000000.000000      6.154480000000000E-01      1.390283000000000E+01      4.964752000000000E-01     -1.242695000000000E+02
4843000000.000000      6.171265000000000E-01      1.403906000000000E+01      4.958954000000000E-01     -1.251289000000000E+02
4844000000.000000      6.183167000000000E-01      1.410498000000000E+01      4.954681000000000E-01     -1.261094000000000E+02
4845000000.000000      6.177979000000000E-01      1.441504000000000E+01      4.938660000000000E-01     -1.267461000000000E+02
4846000000.000000      6.203308000000000E-01      1.438379000000000E+01      4.931030000000000E-01     -1.277851000000000E+02
4847000000.000000      6.205444000000000E-01      1.448682000000000E+01      4.917145000000000E-01     -1.283906000000000E+02
4848000000.000000      6.201477000000000E-01      1.443164000000000E+01      4.881592000000000E-01     -1.292422000000000E+02
4849000000.000000      6.217041000000000E-01      1.454980000000000E+01      4.881287000000000E-01     -1.301328000000000E+02
4850000000.000000      6.206055000000000E-01      1.465674000000000E+01      4.861755000000000E-01     -1.308984000000000E+02
4851000000.000000      6.231995000000000E-01      1.483008000000000E+01      4.863739000000000E-01     -1.317031000000000E+02
4852000000.000000      6.230774000000000E-01      1.478320000000000E+01      4.828339000000000E-01     -1.326797000000000E+02
4853000000.000000      6.253662000000000E-01      1.480957000000000E+01      4.803162000000000E-01     -1.334844000000000E+02
4854000000.000000      6.259766000000000E-01      1.485449000000000E+01      4.786072000000000E-01     -1.345469000000000E+02
4855000000.000000      6.267395000000000E-01      1.489990000000000E+01      4.763794000000000E-01     -1.353984000000000E+02
4856000000.000000      6.275940000000000E-01      1.497412000000000E+01      4.737854000000000E-01     -1.360469000000000E+02
4857000000.000000      6.283875000000000E-01      1.510205000000000E+01      4.726105000000000E-01     -1.369844000000000E+02
4858000000.000000      6.289063000000000E-01      1.495605000000000E+01      4.699402000000000E-01     -1.379688000000000E+02
4859000000.000000      6.304321000000000E-01      1.482715000000000E+01      4.671478000000000E-01     -1.386719000000000E+02
4860000000.000000      6.318665000000000E-01      1.501416000000000E+01      4.638977000000000E-01     -1.396172000000000E+02
4861000000.000000      6.325989000000000E-01      1.508691000000000E+01      4.594116000000000E-01     -1.406172000000000E+02
4862000000.000000      6.331482000000000E-01      1.515381000000000E+01      4.561310000000000E-01     -1.411875000000000E+02
4863000000.000000      6.358643000000000E-01      1.530762000000000E+01      4.526367000000000E-01     -1.419609000000000E+02
4864000000.000000      6.359253000000000E-01      1.508398000000000E+01      4.508209000000000E-01     -1.427031000000000E+02
4865000000.000000      6.374512000000000E-01      1.516650000000000E+01      4.463959000000000E-01     -1.435391000000000E+02
4866000000.000000      6.390991000000000E-01      1.490283000000000E+01      4.418488000000000E-01     -1.444922000000000E+02
4867000000.000000      6.382446000000000E-01      1.501807000000000E+01      4.375305000000000E-01     -1.452422000000000E+02
4868000000.000000      6.411743000000000E-01      1.501660000000000E+01      4.344788000000000E-01     -1.462422000000000E+02
4869000000.000000      6.423645000000000E-01      1.515674000000000E+01      4.311218000000000E-01     -1.469063000000000E+02
4870000000.000000      6.437073000000000E-01      1.509375000000000E+01      4.261627000000000E-01     -1.474766000000000E+02
4871000000.000000      6.453552000000000E-01      1.499609000000000E+01      4.227295000000000E-01     -1.482109000000000E+02
4872000000.000000      6.478271000000000E-01      1.507422000000000E+01      4.182892000000000E-01     -1.487734000000000E+02
4873000000.000000      6.475525000000000E-01      1.477246000000000E+01      4.136047000000000E-01     -1.497031000000000E+02
4874000000.000000      6.497192000000000E-01      1.510059000000000E+01      4.095917000000000E-01     -1.504375000000000E+02
4875000000.000000      6.508484000000000E-01      1.464063000000000E+01      4.039307000000000E-01     -1.509922000000000E+02
4876000000.000000      6.510010000000000E-01      1.488770000000000E+01      4.005737000000000E-01     -1.518125000000000E+02
4877000000.000000      6.540833000000000E-01      1.472949000000000E+01      3.967896000000000E-01     -1.523906000000000E+02
4878000000.000000      6.540222000000000E-01      1.465674000000000E+01      3.919830000000000E-01     -1.530078000000000E+02
4879000000.000000      6.574402000000000E-01      1.467188000000000E+01      3.879395000000000E-01     -1.534375000000000E+02
4880000000.000000      6.583557000000000E-01      1.451660000000000E+01      3.837433000000000E-01     -1.542656000000000E+02
4881000000.000000      6.584167000000000E-01      1.466113000000000E+01      3.784485000000000E-01     -1.547969000000000E+02
4882000000.000000      6.612549000000000E-01      1.453320000000000E+01      3.737335000000000E-01     -1.552344000000000E+02
4883000000.000000      6.591492000000000E-01      1.443311000000000E+01      3.690948000000000E-01     -1.558516000000000E+02
4884000000.000000      6.629639000000000E-01      1.452783000000000E+01      3.652649000000000E-01     -1.564141000000000E+02
4885000000.000000      6.636353000000000E-01      1.433545000000000E+01      3.609009000000000E-01     -1.565859000000000E+02
4886000000.000000      6.634521000000000E-01      1.421191000000000E+01      3.563690000000000E-01     -1.573437000000000E+02
4887000000.000000      6.654358000000000E-01      1.418604000000000E+01      3.541260000000000E-01     -1.579297000000000E+02
4888000000.000000      6.657715000000000E-01      1.404150000000000E+01      3.478088000000000E-01     -1.585859000000000E+02
4889000000.000000      6.669312000000000E-01      1.406934000000000E+01      3.446655000000000E-01     -1.584922000000000E+02
4890000000.000000      6.679382000000000E-01      1.404590000000000E+01      3.389282000000000E-01     -1.594375000000000E+02
4891000000.000000      6.703186000000000E-01      1.378613000000000E+01      3.349304000000000E-01     -1.596953000000000E+02
4892000000.000000      6.685181000000000E-01      1.372168000000000E+01      3.316345000000000E-01     -1.598125000000000E+02
4893000000.000000      6.713257000000000E-01      1.378223000000000E+01      3.276520000000000E-01     -1.605000000000000E+02
4894000000.000000      6.712036000000000E-01      1.373682000000000E+01      3.248749000000000E-01     -1.609375000000000E+02
4895000000.000000      6.732483000000000E-01      1.345947000000000E+01      3.193359000000000E-01     -1.610234000000000E+02
4896000000.000000      6.738892000000000E-01      1.341113000000000E+01      3.166962000000000E-01     -1.616406000000000E+02
4897000000.000000      6.749268000000000E-01      1.337988000000000E+01      3.120575000000000E-01     -1.620625000000000E+02
4898000000.000000      6.763306000000000E-01      1.334961000000000E+01      3.090210000000000E-01     -1.623437000000000E+02
4899000000.000000      6.770325000000000E-01      1.321777000000000E+01      3.050232000000000E-01     -1.628672000000000E+02
4900000000.000000      6.782227000000000E-01      1.292920000000000E+01      3.009949000000000E-01     -1.631641000000000E+02
4901000000.000000      6.778870000000000E-01      1.276172000000000E+01      2.980347000000000E-01     -1.633047000000000E+02
4902000000.000000      6.788025000000000E-01      1.294434000000000E+01      2.942657000000000E-01     -1.637656000000000E+02
4903000000.000000      6.799316000000000E-01      1.293359000000000E+01      2.902527000000000E-01     -1.640859000000000E+02
4904000000.000000      6.791077000000000E-01      1.254736000000000E+01      2.868195000000000E-01     -1.644687000000000E+02
4905000000.000000      6.822205000000000E-01      1.272070000000000E+01      2.837219000000000E-01     -1.648047000000000E+02
4906000000.000000      6.814880000000000E-01      1.238281000000000E+01      2.802429000000000E-01     -1.649219000000000E+02
4907000000.000000      6.839600000000000E-01      1.241846000000000E+01      2.772980000000000E-01     -1.654766000000000E+02
4908000000.000000      6.838379000000000E-01      1.220947000000000E+01      2.735443000000000E-01     -1.657969000000000E+02
4909000000.000000      6.851501000000000E-01      1.210693000000000E+01      2.697144000000000E-01     -1.661406000000000E+02
4910000000.000000      6.850281000000000E-01      1.210791000000000E+01      2.661743000000000E-01     -1.663125000000000E+02
4911000000.000000      6.843567000000000E-01      1.198193000000000E+01      2.633209000000000E-01     -1.665703000000000E+02
4912000000.000000      6.853943000000000E-01      1.199268000000000E+01      2.593842000000000E-01     -1.670781000000000E+02
4913000000.000000      6.861572000000000E-01      1.181543000000000E+01      2.558746000000000E-01     -1.672734000000000E+02
4914000000.000000      6.905212000000000E-01      1.167285000000000E+01      2.519531000000000E-01     -1.675234000000000E+02
4915000000.000000      6.878967000000000E-01      1.164795000000000E+01      2.488174000000000E-01     -1.678984000000000E+02
4916000000.000000      6.868896000000000E-01      1.148340000000000E+01      2.447510000000000E-01     -1.683203000000000E+02
4917000000.000000      6.887817000000000E-01      1.130615000000000E+01      2.422104000000000E-01     -1.684062000000000E+02
4918000000.000000      6.888123000000000E-01      1.125244000000000E+01      2.376328000000000E-01     -1.686719000000000E+02
4919000000.000000      6.886597000000000E-01      1.120850000000000E+01      2.344589000000000E-01     -1.686719000000000E+02
4920000000.000000      6.899414000000000E-01      1.107959000000000E+01      2.306137000000000E-01     -1.693203000000000E+02
4921000000.000000      6.901550000000000E-01      1.106006000000000E+01      2.270966000000000E-01     -1.693750000000000E+02
4922000000.000000      6.929321000000000E-01      1.091064000000000E+01      2.229767000000000E-01     -1.696172000000000E+02
4923000000.000000      6.921387000000000E-01      1.082959000000000E+01      2.193909000000000E-01     -1.695859000000000E+02
4924000000.000000      6.932678000000000E-01      1.082275000000000E+01      2.154083000000000E-01     -1.701328000000000E+02
4925000000.000000      6.930847000000000E-01      1.055371000000000E+01      2.122498000000000E-01     -1.701953000000000E+02
4926000000.000000      6.925354000000000E-01      1.035693000000000E+01      2.083511000000000E-01     -1.703672000000000E+02
4927000000.000000      6.935425000000000E-01      1.037207000000000E+01      2.045517000000000E-01     -1.706094000000000E+02
4928000000.000000      6.966553000000000E-01      1.033105000000000E+01      2.006683000000000E-01     -1.705469000000000E+02
4929000000.000000      6.939697000000000E-01      1.010156000000000E+01      1.969376000000000E-01     -1.705312000000000E+02
4930000000.000000      6.955566000000000E-01      1.006592000000000E+01      1.931458000000000E-01     -1.707266000000000E+02
4931000000.000000      6.955566000000000E-01      9.884766000000000E+00      1.900101000000000E-01     -1.708203000000000E+02
4932000000.000000      6.984558000000000E-01      9.840820000000000E+00      1.857986000000000E-01     -1.707500000000000E+02
4933000000.000000      6.945190000000000E-01      9.656738000000000E+00      1.814499000000000E-01     -1.703750000000000E+02
4934000000.000000      6.980591000000000E-01      9.718750000000000E+00      1.780243000000000E-01     -1.705469000000000E+02
4935000000.000000      6.981812000000000E-01      9.465820000000000E+00      1.749878000000000E-01     -1.701328000000000E+02
4936000000.000000      6.979065000000000E-01      9.347656000000000E+00      1.705475000000000E-01     -1.702188000000000E+02
4937000000.000000      6.976929000000000E-01      9.358887000000000E+00      1.667862000000000E-01     -1.700391000000000E+02
4938000000.000000      6.976013000000000E-01      9.339355000000000E+00      1.634369000000000E-01     -1.695547000000000E+02
4939000000.000000      6.987305000000000E-01      9.288574000000000E+00      1.591263000000000E-01     -1.694687000000000E+02
4940000000.000000      6.995239000000000E-01      9.027832000000000E+00      1.556702000000000E-01     -1.691875000000000E+02
4941000000.000000      7.006226000000000E-01      8.950684000000000E+00      1.523590000000000E-01     -1.687734000000000E+02
4942000000.000000      7.013550000000000E-01      9.016602000000000E+00      1.490555000000000E-01     -1.682656000000000E+02
4943000000.000000      7.032776000000000E-01      8.858887000000000E+00      1.454697000000000E-01     -1.674844000000000E+02
4944000000.000000      7.021484000000000E-01      8.721680000000000E+00      1.420212000000000E-01     -1.670000000000000E+02
4945000000.000000      7.022095000000000E-01      8.522461000000000E+00      1.385269000000000E-01     -1.664531000000000E+02
4946000000.000000      7.027588000000000E-01      8.504395000000000E+00      1.354599000000000E-01     -1.656953000000000E+02
4947000000.000000      7.019348000000000E-01      8.313477000000000E+00      1.319351000000000E-01     -1.646797000000000E+02
4948000000.000000      7.048950000000000E-01      8.534668000000000E+00      1.289597000000000E-01     -1.638906000000000E+02
4949000000.000000      7.013245000000000E-01      8.348145000000000E+00      1.264572000000000E-01     -1.626875000000000E+02
4950000000.000000      7.050171000000000E-01      8.309570000000000E+00      1.231918000000000E-01     -1.618828000000000E+02
4951000000.000000      7.037964000000000E-01      7.976074000000000E+00      1.210365000000000E-01     -1.608125000000000E+02
4952000000.000000      7.038574000000000E-01      8.017090000000000E+00      1.181526000000000E-01     -1.594766000000000E+02
4953000000.000000      7.063293000000000E-01      7.775391000000000E+00      1.163597000000000E-01     -1.580078000000000E+02
4954000000.000000      7.063293000000000E-01      7.749268000000000E+00      1.139488000000000E-01     -1.566015000000000E+02
