! Network Analyzer HP8722D
! Hewlett-Packard
! Data name: Linha & Wilkinson
! Saver's name: Rodrigo Anjos
! Comments: Teste da utilização de aquisição
continua pelo VNA HP8722D
! Time and date: 22/5/2025 07:58
!              Frequency                     S11                                                   S21                                                   S12                                                   S22
# HZ  S  MA R 50
4800000000.000000      6.476440000000000E-01      1.022266000000000E+01      4.735107000000000E-01     -9.382421000000000E+01
4801000000.000000      6.448364000000000E-01      1.035986000000000E+01      4.753418000000000E-01     -9.453125000000000E+01
4802000000.000000      6.445618000000000E-01      1.037793000000000E+01      4.768982000000000E-01     -9.500391000000000E+01
4803000000.000000      6.416321000000000E-01      1.020313000000000E+01      4.810944000000000E-01     -9.591406000000000E+01
4804000000.000000      6.410522000000000E-01      1.032422000000000E+01      4.813690000000000E-01     -9.669922000000000E+01
4805000000.000000      6.390381000000000E-01      1.025146000000000E+01      4.846039000000000E-01     -9.750000000000000E+01
4806000000.000000      6.369019000000000E-01      1.019922000000000E+01      4.842987000000000E-01     -9.822266000000000E+01
4807000000.000000      6.344910000000000E-01      1.029688000000000E+01      4.857941000000000E-01     -9.914063000000000E+01
4808000000.000000      6.335449000000000E-01      1.016504000000000E+01      4.872742000000000E-01     -9.957811000000000E+01
4809000000.000000      6.321411000000000E-01      1.043408000000000E+01      4.899139000000000E-01     -1.006367000000000E+02
4810000000.000000      6.304016000000000E-01      1.042969000000000E+01      4.915619000000000E-01     -1.012578000000000E+02
4811000000.000000      6.286011000000000E-01      1.045459000000000E+01      4.914551000000000E-01     -1.020234000000000E+02
4812000000.000000      6.304626000000000E-01      1.072510000000000E+01      4.925537000000000E-01     -1.029609000000000E+02
4813000000.000000      6.275635000000000E-01      1.059766000000000E+01      4.935913000000000E-01     -1.035390000000000E+02
4814000000.000000      6.254272000000000E-01      1.067969000000000E+01      4.938049000000000E-01     -1.041797000000000E+02
4815000000.000000      6.228943000000000E-01      1.071143000000000E+01      4.960022000000000E-01     -1.051289000000000E+02
4816000000.000000      6.236267000000000E-01      1.088721000000000E+01      4.952240000000000E-01     -1.058086000000000E+02
4817000000.000000      6.216431000000000E-01      1.085303000000000E+01      4.949341000000000E-01     -1.065078000000000E+02
4818000000.000000      6.206055000000000E-01      1.086670000000000E+01      4.963226000000000E-01     -1.073008000000000E+02
4819000000.000000      6.204224000000000E-01      1.107520000000000E+01      4.969482000000000E-01     -1.081719000000000E+02
4820000000.000000      6.167908000000000E-01      1.109033000000000E+01      4.974213000000000E-01     -1.087148000000000E+02
4821000000.000000      6.166687000000000E-01      1.110010000000000E+01      5.001526000000000E-01     -1.095156000000000E+02
4822000000.000000      6.147766000000000E-01      1.107422000000000E+01      4.970551000000000E-01     -1.102812000000000E+02
4823000000.000000      6.165466000000000E-01      1.136914000000000E+01      4.987640000000000E-01     -1.111172000000000E+02
4824000000.000000      6.145325000000000E-01      1.144629000000000E+01      4.992523000000000E-01     -1.119141000000000E+02
4825000000.000000      6.139526000000000E-01      1.147656000000000E+01      4.983063000000000E-01     -1.125977000000000E+02
4826000000.000000      6.127014000000000E-01      1.156689000000000E+01      5.006409000000000E-01     -1.132813000000000E+02
4827000000.000000      6.127625000000000E-01      1.190088000000000E+01      4.998474000000000E-01     -1.140898000000000E+02
4828000000.000000      6.140137000000000E-01      1.180615000000000E+01      4.997864000000000E-01     -1.148242000000000E+02
4829000000.000000      6.105042000000000E-01      1.212988000000000E+01      4.992371000000000E-01     -1.156016000000000E+02
4830000000.000000      6.122437000000000E-01      1.221533000000000E+01      4.999237000000000E-01     -1.163711000000000E+02
4831000000.000000      6.120300000000000E-01      1.219580000000000E+01      4.987640000000000E-01     -1.171836000000000E+02
4832000000.000000      6.106567000000000E-01      1.244580000000000E+01      4.997101000000000E-01     -1.177383000000000E+02
4833000000.000000      6.107483000000000E-01      1.246240000000000E+01      4.986725000000000E-01     -1.185703000000000E+02
4834000000.000000      6.121521000000000E-01      1.248584000000000E+01      5.000610000000000E-01     -1.192461000000000E+02
4835000000.000000      6.122437000000000E-01      1.266846000000000E+01      4.995117000000000E-01     -1.201523000000000E+02
4836000000.000000      6.126709000000000E-01      1.282471000000000E+01      4.983521000000000E-01     -1.208476000000000E+02
4837000000.000000      6.116333000000000E-01      1.297070000000000E+01      4.965973000000000E-01     -1.220625000000000E+02
4838000000.000000      6.107483000000000E-01      1.292529000000000E+01      4.984283000000000E-01     -1.223359000000000E+02
4839000000.000000      6.139526000000000E-01      1.317236000000000E+01      4.972839000000000E-01     -1.232344000000000E+02
4840000000.000000      6.138916000000000E-01      1.315186000000000E+01      4.980316000000000E-01     -1.239063000000000E+02
4841000000.000000      6.133728000000000E-01      1.327246000000000E+01      4.965668000000000E-01     -1.249726000000000E+02
4842000000.000000      6.134644000000000E-01      1.335645000000000E+01      4.950104000000000E-01     -1.257227000000000E+02
4843000000.000000      6.177368000000000E-01      1.339893000000000E+01      4.947662000000000E-01     -1.266797000000000E+02
4844000000.000000      6.173706000000000E-01      1.335791000000000E+01      4.935150000000000E-01     -1.275156000000000E+02
4845000000.000000      6.184387000000000E-01      1.373389000000000E+01      4.922638000000000E-01     -1.283516000000000E+02
4846000000.000000      6.187439000000000E-01      1.368994000000000E+01      4.907837000000000E-01     -1.290234000000000E+02
4847000000.000000      6.195068000000000E-01      1.387158000000000E+01      4.906769000000000E-01     -1.297969000000000E+02
4848000000.000000      6.188965000000000E-01      1.383301000000000E+01      4.867859000000000E-01     -1.306015000000000E+02
4849000000.000000      6.184998000000000E-01      1.390869000000000E+01      4.871674000000000E-01     -1.315781000000000E+02
4850000000.000000      6.203308000000000E-01      1.376416000000000E+01      4.846649000000000E-01     -1.323750000000000E+02
4851000000.000000      6.218262000000000E-01      1.418311000000000E+01      4.840240000000000E-01     -1.332813000000000E+02
4852000000.000000      6.242981000000000E-01      1.401025000000000E+01      4.805756000000000E-01     -1.340781000000000E+02
4853000000.000000      6.243591000000000E-01      1.406787000000000E+01      4.783936000000000E-01     -1.349844000000000E+02
4854000000.000000      6.260681000000000E-01      1.418018000000000E+01      4.761200000000000E-01     -1.358281000000000E+02
4855000000.000000      6.262817000000000E-01      1.414746000000000E+01      4.742126000000000E-01     -1.366562000000000E+02
4856000000.000000      6.276855000000000E-01      1.421484000000000E+01      4.711304000000000E-01     -1.376250000000000E+02
4857000000.000000      6.278687000000000E-01      1.439063000000000E+01      4.694672000000000E-01     -1.382500000000000E+02
4858000000.000000      6.292419000000000E-01      1.422168000000000E+01      4.667511000000000E-01     -1.389375000000000E+02
4859000000.000000      6.315308000000000E-01      1.433154000000000E+01      4.630737000000000E-01     -1.401484000000000E+02
4860000000.000000      6.315002000000000E-01      1.446484000000000E+01      4.605865000000000E-01     -1.409453000000000E+02
4861000000.000000      6.325378000000000E-01      1.440576000000000E+01      4.558716000000000E-01     -1.418359000000000E+02
4862000000.000000      6.324768000000000E-01      1.445361000000000E+01      4.532776000000000E-01     -1.425703000000000E+02
4863000000.000000      6.348572000000000E-01      1.455664000000000E+01      4.498901000000000E-01     -1.434453000000000E+02
4864000000.000000      6.361084000000000E-01      1.425293000000000E+01      4.472198000000000E-01     -1.442031000000000E+02
4865000000.000000      6.369019000000000E-01      1.435596000000000E+01      4.413757000000000E-01     -1.446719000000000E+02
4866000000.000000      6.386719000000000E-01      1.427246000000000E+01      4.382324000000000E-01     -1.458594000000000E+02
4867000000.000000      6.408691000000000E-01      1.435742000000000E+01      4.347992000000000E-01     -1.465156000000000E+02
4868000000.000000      6.419678000000000E-01      1.426025000000000E+01      4.313354000000000E-01     -1.472891000000000E+02
4869000000.000000      6.430969000000000E-01      1.426270000000000E+01      4.263458000000000E-01     -1.480313000000000E+02
4870000000.000000      6.463318000000000E-01      1.433008000000000E+01      4.230194000000000E-01     -1.485312000000000E+02
4871000000.000000      6.455688000000000E-01      1.412842000000000E+01      4.180450000000000E-01     -1.494531000000000E+02
4872000000.000000      6.468201000000000E-01      1.412842000000000E+01      4.145660000000000E-01     -1.499297000000000E+02
4873000000.000000      6.476746000000000E-01      1.423242000000000E+01      4.093933000000000E-01     -1.508359000000000E+02
4874000000.000000      6.502686000000000E-01      1.416260000000000E+01      4.050598000000000E-01     -1.514844000000000E+02
4875000000.000000      6.502991000000000E-01      1.401563000000000E+01      3.999329000000000E-01     -1.521094000000000E+02
4876000000.000000      6.523132000000000E-01      1.408447000000000E+01      3.966370000000000E-01     -1.526953000000000E+02
4877000000.000000      6.542664000000000E-01      1.392334000000000E+01      3.922272000000000E-01     -1.534453000000000E+02
4878000000.000000      6.517334000000000E-01      1.389063000000000E+01      3.870697000000000E-01     -1.540000000000000E+02
4879000000.000000      6.555176000000000E-01      1.391113000000000E+01      3.821411000000000E-01     -1.542891000000000E+02
4880000000.000000      6.586304000000000E-01      1.381787000000000E+01      3.793488000000000E-01     -1.549687000000000E+02
4881000000.000000      6.574402000000000E-01      1.387939000000000E+01      3.752594000000000E-01     -1.557031000000000E+02
4882000000.000000      6.608276000000000E-01      1.371875000000000E+01      3.711090000000000E-01     -1.563359000000000E+02
4883000000.000000      6.616516000000000E-01      1.369678000000000E+01      3.646851000000000E-01     -1.567734000000000E+02
4884000000.000000      6.621704000000000E-01      1.350049000000000E+01      3.603058000000000E-01     -1.574609000000000E+02
4885000000.000000      6.636047000000000E-01      1.361719000000000E+01      3.578796000000000E-01     -1.577344000000000E+02
4886000000.000000      6.636353000000000E-01      1.357324000000000E+01      3.541412000000000E-01     -1.581484000000000E+02
4887000000.000000      6.653137000000000E-01      1.345801000000000E+01      3.495178000000000E-01     -1.587265000000000E+02
4888000000.000000      6.674194000000000E-01      1.330713000000000E+01      3.460999000000000E-01     -1.592031000000000E+02
4889000000.000000      6.668701000000000E-01      1.331250000000000E+01      3.396912000000000E-01     -1.595000000000000E+02
4890000000.000000      6.676025000000000E-01      1.313379000000000E+01      3.357086000000000E-01     -1.602031000000000E+02
4891000000.000000      6.702271000000000E-01      1.320947000000000E+01      3.331604000000000E-01     -1.606016000000000E+02
4892000000.000000      6.698608000000000E-01      1.301025000000000E+01      3.286743000000000E-01     -1.606328000000000E+02
4893000000.000000      6.719666000000000E-01      1.286475000000000E+01      3.247070000000000E-01     -1.613906000000000E+02
4894000000.000000      6.705627000000000E-01      1.276855000000000E+01      3.194275000000000E-01     -1.617344000000000E+02
4895000000.000000      6.743774000000000E-01      1.256250000000000E+01      3.170776000000000E-01     -1.620391000000000E+02
4896000000.000000      6.748657000000000E-01      1.270264000000000E+01      3.125763000000000E-01     -1.622813000000000E+02
4897000000.000000      6.753235000000000E-01      1.255566000000000E+01      3.081970000000000E-01     -1.628125000000000E+02
4898000000.000000      6.739807000000000E-01      1.256250000000000E+01      3.054657000000000E-01     -1.631016000000000E+02
4899000000.000000      6.778564000000000E-01      1.230029000000000E+01      3.017273000000000E-01     -1.636484000000000E+02
4900000000.000000      6.772156000000000E-01      1.218506000000000E+01      2.976379000000000E-01     -1.637109000000000E+02
4901000000.000000      6.802063000000000E-01      1.229346000000000E+01      2.944336000000000E-01     -1.641484000000000E+02
4902000000.000000      6.799622000000000E-01      1.217383000000000E+01      2.910461000000000E-01     -1.643516000000000E+02
4903000000.000000      6.784668000000000E-01      1.204883000000000E+01      2.859344000000000E-01     -1.647656000000000E+02
4904000000.000000      6.809082000000000E-01      1.202441000000000E+01      2.831268000000000E-01     -1.651641000000000E+02
4905000000.000000      6.815491000000000E-01      1.177832000000000E+01      2.802887000000000E-01     -1.655156000000000E+02
4906000000.000000      6.816406000000000E-01      1.167969000000000E+01      2.757721000000000E-01     -1.655781000000000E+02
4907000000.000000      6.827087000000000E-01      1.155322000000000E+01      2.736053000000000E-01     -1.660938000000000E+02
4908000000.000000      6.837463000000000E-01      1.147656000000000E+01      2.693634000000000E-01     -1.663516000000000E+02
4909000000.000000      6.855469000000000E-01      1.137354000000000E+01      2.649536000000000E-01     -1.666875000000000E+02
4910000000.000000      6.864014000000000E-01      1.149707000000000E+01      2.625122000000000E-01     -1.669531000000000E+02
4911000000.000000      6.861572000000000E-01      1.112061000000000E+01      2.589569000000000E-01     -1.672109000000000E+02
4912000000.000000      6.852722000000000E-01      1.122363000000000E+01      2.553406000000000E-01     -1.676406000000000E+02
4913000000.000000      6.888123000000000E-01      1.087744000000000E+01      2.519226000000000E-01     -1.678047000000000E+02
4914000000.000000      6.890869000000000E-01      1.090527000000000E+01      2.488174000000000E-01     -1.681953000000000E+02
4915000000.000000      6.889038000000000E-01      1.095459000000000E+01      2.448425000000000E-01     -1.684609000000000E+02
4916000000.000000      6.887207000000000E-01      1.061377000000000E+01      2.408600000000000E-01     -1.688516000000000E+02
4917000000.000000      6.896057000000000E-01      1.056055000000000E+01      2.376862000000000E-01     -1.688516000000000E+02
4918000000.000000      6.919250000000000E-01      1.060693000000000E+01      2.335434000000000E-01     -1.691719000000000E+02
4919000000.000000      6.875000000000000E-01      1.040771000000000E+01      2.306900000000000E-01     -1.694062000000000E+02
4920000000.000000      6.909790000000000E-01      1.030371000000000E+01      2.262573000000000E-01     -1.698047000000000E+02
4921000000.000000      6.926575000000000E-01      1.027490000000000E+01      2.233353000000000E-01     -1.698281000000000E+02
4922000000.000000      6.923523000000000E-01      1.018945000000000E+01      2.197876000000000E-01     -1.699062000000000E+02
4923000000.000000      6.918030000000000E-01      1.003320000000000E+01      2.153549000000000E-01     -1.701172000000000E+02
4924000000.000000      6.903076000000000E-01      9.822754000000000E+00      2.120514000000000E-01     -1.703750000000000E+02
4925000000.000000      6.927795000000000E-01      9.693848000000000E+00      2.087784000000000E-01     -1.705469000000000E+02
4926000000.000000      6.943054000000000E-01      9.812012000000000E+00      2.048492000000000E-01     -1.706094000000000E+02
4927000000.000000      6.943665000000000E-01      9.603027000000000E+00      2.007446000000000E-01     -1.708437000000000E+02
4928000000.000000      6.948547000000000E-01      9.296875000000000E+00      1.975937000000000E-01     -1.709453000000000E+02
4929000000.000000      6.945190000000000E-01      9.428711000000000E+00      1.929779000000000E-01     -1.707187000000000E+02
4930000000.000000      6.947327000000000E-01      9.246094000000000E+00      1.895065000000000E-01     -1.710000000000000E+02
4931000000.000000      6.986389000000000E-01      9.044434000000000E+00      1.863937000000000E-01     -1.707891000000000E+02
4932000000.000000      6.973572000000000E-01      9.099121000000000E+00      1.824265000000000E-01     -1.707500000000000E+02
4933000000.000000      6.950989000000000E-01      9.093750000000000E+00      1.780777000000000E-01     -1.704766000000000E+02
4934000000.000000      6.977234000000000E-01      8.886230000000000E+00      1.739883000000000E-01     -1.706640000000000E+02
4935000000.000000      6.989746000000000E-01      8.680176000000000E+00      1.715775000000000E-01     -1.700938000000000E+02
4936000000.000000      6.965027000000000E-01      8.708008000000000E+00      1.669312000000000E-01     -1.701719000000000E+02
4937000000.000000      6.987000000000000E-01      8.455078000000000E+00      1.639404000000000E-01     -1.699297000000000E+02
4938000000.000000      6.974182000000000E-01      8.570313000000000E+00      1.599731000000000E-01     -1.695703000000000E+02
4939000000.000000      6.988220000000000E-01      8.444336000000000E+00      1.569366000000000E-01     -1.691094000000000E+02
4940000000.000000      7.001038000000000E-01      8.341309000000000E+00      1.524277000000000E-01     -1.688516000000000E+02
4941000000.000000      6.999512000000000E-01      8.198242000000000E+00      1.497421000000000E-01     -1.681953000000000E+02
4942000000.000000      7.016296000000000E-01      8.054199000000000E+00      1.459198000000000E-01     -1.678047000000000E+02
4943000000.000000      7.018127000000000E-01      8.063965000000000E+00      1.428528000000000E-01     -1.670469000000000E+02
4944000000.000000      7.017212000000000E-01      8.066406000000000E+00      1.396561000000000E-01     -1.663906000000000E+02
4945000000.000000      7.010803000000000E-01      7.867432000000000E+00      1.359863000000000E-01     -1.656563000000000E+02
4946000000.000000      7.017822000000000E-01      7.900391000000000E+00      1.333542000000000E-01     -1.649062000000000E+02
4947000000.000000      7.026062000000000E-01      7.745361000000000E+00      1.303711000000000E-01     -1.638750000000000E+02
4948000000.000000      7.040100000000000E-01      7.658691000000000E+00      1.273117000000000E-01     -1.628828000000000E+02
4949000000.000000      7.045288000000000E-01      7.504883000000000E+00      1.249542000000000E-01     -1.616328000000000E+02
4950000000.000000      7.057190000000000E-01      7.335938000000000E+00      1.218224000000000E-01     -1.605937000000000E+02
4951000000.000000      7.070618000000000E-01      7.290771000000000E+00      1.190147000000000E-01     -1.595625000000000E+02
4952000000.000000      7.054138000000000E-01      7.143799000000000E+00      1.172485000000000E-01     -1.581563000000000E+02
4953000000.000000      7.062683000000000E-01      6.995361000000000E+00      1.148720000000000E-01     -1.567422000000000E+02
4954000000.000000      7.072449000000000E-01      6.913086000000000E+00      1.129036000000000E-01     -1.552813000000000E+02
