! Network Analyzer HP8722D
! Hewlett-Packard
! Data name: Linha & Wilkinson
! Saver's name: Rodrigo Anjos
! Comments: Teste da utilização de aquisição
continua pelo VNA HP8722D
! Time and date: 22/5/2025 14:05
!              Frequency                     S11                                                   S21                                                   S12                                                   S22
# HZ  S  MA R 50
4800000000.000000      6.508179000000000E-01      1.093506000000000E+01      4.709930000000000E-01     -9.233984000000000E+01
4801000000.000000      6.501770000000000E-01      1.098486000000000E+01      4.710388000000000E-01     -9.263672000000000E+01
4802000000.000000      6.491089000000000E-01      1.078857000000000E+01      4.730835000000000E-01     -9.354687000000000E+01
4803000000.000000      6.470947000000000E-01      1.082813000000000E+01      4.766846000000000E-01     -9.417187000000000E+01
4804000000.000000      6.433411000000000E-01      1.092285000000000E+01      4.780884000000000E-01     -9.485546000000000E+01
4805000000.000000      6.434631000000000E-01      1.076904000000000E+01      4.798737000000000E-01     -9.601952000000000E+01
4806000000.000000      6.422119000000000E-01      1.074316000000000E+01      4.822845000000000E-01     -9.678905000000000E+01
4807000000.000000      6.403198000000000E-01      1.083936000000000E+01      4.828949000000000E-01     -9.748436000000000E+01
4808000000.000000      6.372070000000000E-01      1.084717000000000E+01      4.835968000000000E-01     -9.796875000000000E+01
4809000000.000000      6.368713000000000E-01      1.091455000000000E+01      4.870605000000000E-01     -9.915625000000000E+01
4810000000.000000      6.358337000000000E-01      1.100098000000000E+01      4.876862000000000E-01     -9.950781000000000E+01
4811000000.000000      6.349487000000000E-01      1.095166000000000E+01      4.890289000000000E-01     -1.005234000000000E+02
4812000000.000000      6.340027000000000E-01      1.115088000000000E+01      4.901276000000000E-01     -1.011016000000000E+02
4813000000.000000      6.310730000000000E-01      1.102197000000000E+01      4.907837000000000E-01     -1.019961000000000E+02
4814000000.000000      6.298828000000000E-01      1.110547000000000E+01      4.932556000000000E-01     -1.026015000000000E+02
4815000000.000000      6.282349000000000E-01      1.130078000000000E+01      4.923553000000000E-01     -1.034727000000000E+02
4816000000.000000      6.282959000000000E-01      1.128662000000000E+01      4.954071000000000E-01     -1.041719000000000E+02
4817000000.000000      6.229553000000000E-01      1.144336000000000E+01      4.929047000000000E-01     -1.050234000000000E+02
4818000000.000000      6.258240000000000E-01      1.141309000000000E+01      4.946899000000000E-01     -1.057461000000000E+02
4819000000.000000      6.237183000000000E-01      1.142285000000000E+01      4.956360000000000E-01     -1.064531000000000E+02
4820000000.000000      6.210327000000000E-01      1.164551000000000E+01      4.965973000000000E-01     -1.070898000000000E+02
4821000000.000000      6.215820000000000E-01      1.160693000000000E+01      4.985809000000000E-01     -1.080000000000000E+02
4822000000.000000      6.181335000000000E-01      1.162598000000000E+01      4.945831000000000E-01     -1.087383000000000E+02
4823000000.000000      6.218567000000000E-01      1.176318000000000E+01      4.982910000000000E-01     -1.093281000000000E+02
4824000000.000000      6.173706000000000E-01      1.190332000000000E+01      4.970398000000000E-01     -1.101015000000000E+02
4825000000.000000      6.171875000000000E-01      1.186230000000000E+01      4.969788000000000E-01     -1.110273000000000E+02
4826000000.000000      6.175232000000000E-01      1.211768000000000E+01      4.989929000000000E-01     -1.117695000000000E+02
4827000000.000000      6.159668000000000E-01      1.229053000000000E+01      4.991608000000000E-01     -1.124180000000000E+02
4828000000.000000      6.160889000000000E-01      1.212891000000000E+01      4.992828000000000E-01     -1.132695000000000E+02
4829000000.000000      6.126099000000000E-01      1.259570000000000E+01      5.004883000000000E-01     -1.139375000000000E+02
4830000000.000000      6.145020000000000E-01      1.248975000000000E+01      4.990234000000000E-01     -1.147109000000000E+02
4831000000.000000      6.148071000000000E-01      1.283887000000000E+01      4.995728000000000E-01     -1.156211000000000E+02
4832000000.000000      6.116028000000000E-01      1.308301000000000E+01      4.988251000000000E-01     -1.162461000000000E+02
4833000000.000000      6.129761000000000E-01      1.288525000000000E+01      4.991760000000000E-01     -1.167344000000000E+02
4834000000.000000      6.141968000000000E-01      1.297607000000000E+01      4.989929000000000E-01     -1.178008000000000E+02
4835000000.000000      6.142273000000000E-01      1.320410000000000E+01      4.995728000000000E-01     -1.185039000000000E+02
4836000000.000000      6.136475000000000E-01      1.327686000000000E+01      4.987488000000000E-01     -1.193476000000000E+02
4837000000.000000      6.130981000000000E-01      1.347168000000000E+01      4.987488000000000E-01     -1.201680000000000E+02
4838000000.000000      6.124573000000000E-01      1.349219000000000E+01      4.991760000000000E-01     -1.208359000000000E+02
4839000000.000000      6.157837000000000E-01      1.371094000000000E+01      4.988403000000000E-01     -1.215391000000000E+02
4840000000.000000      6.159668000000000E-01      1.365967000000000E+01      4.998932000000000E-01     -1.224648000000000E+02
4841000000.000000      6.143494000000000E-01      1.401709000000000E+01      4.957275000000000E-01     -1.233281000000000E+02
4842000000.000000      6.158447000000000E-01      1.397021000000000E+01      4.973907000000000E-01     -1.239336000000000E+02
4843000000.000000      6.169128000000000E-01      1.388672000000000E+01      4.967194000000000E-01     -1.248555000000000E+02
4844000000.000000      6.162109000000000E-01      1.391113000000000E+01      4.938965000000000E-01     -1.257734000000000E+02
4845000000.000000      6.180725000000000E-01      1.429980000000000E+01      4.945984000000000E-01     -1.263203000000000E+02
4846000000.000000      6.181030000000000E-01      1.433691000000000E+01      4.925079000000000E-01     -1.274961000000000E+02
4847000000.000000      6.200256000000000E-01      1.430664000000000E+01      4.924011000000000E-01     -1.279883000000000E+02
4848000000.000000      6.196289000000000E-01      1.450977000000000E+01      4.892120000000000E-01     -1.287578000000000E+02
4849000000.000000      6.216125000000000E-01      1.443164000000000E+01      4.893188000000000E-01     -1.297578000000000E+02
4850000000.000000      6.223145000000000E-01      1.453760000000000E+01      4.863586000000000E-01     -1.305781000000000E+02
4851000000.000000      6.217041000000000E-01      1.474609000000000E+01      4.867859000000000E-01     -1.314687000000000E+02
4852000000.000000      6.232300000000000E-01      1.456787000000000E+01      4.846497000000000E-01     -1.324844000000000E+02
4853000000.000000      6.247864000000000E-01      1.472168000000000E+01      4.807129000000000E-01     -1.332734000000000E+02
4854000000.000000      6.255798000000000E-01      1.472559000000000E+01      4.795380000000000E-01     -1.341172000000000E+02
4855000000.000000      6.254272000000000E-01      1.473779000000000E+01      4.795837000000000E-01     -1.349219000000000E+02
4856000000.000000      6.270752000000000E-01      1.483691000000000E+01      4.752197000000000E-01     -1.358984000000000E+02
4857000000.000000      6.295471000000000E-01      1.486133000000000E+01      4.752502000000000E-01     -1.365781000000000E+02
4858000000.000000      6.291809000000000E-01      1.471729000000000E+01      4.708862000000000E-01     -1.376172000000000E+02
4859000000.000000      6.298828000000000E-01      1.472852000000000E+01      4.679260000000000E-01     -1.384844000000000E+02
4860000000.000000      6.312561000000000E-01      1.489014000000000E+01      4.646912000000000E-01     -1.391094000000000E+02
4861000000.000000      6.323242000000000E-01      1.482178000000000E+01      4.611816000000000E-01     -1.401562000000000E+02
4862000000.000000      6.331787000000000E-01      1.496436000000000E+01      4.597321000000000E-01     -1.408047000000000E+02
4863000000.000000      6.352844000000000E-01      1.508398000000000E+01      4.557953000000000E-01     -1.418203000000000E+02
4864000000.000000      6.367493000000000E-01      1.499219000000000E+01      4.526978000000000E-01     -1.426406000000000E+02
4865000000.000000      6.372681000000000E-01      1.500830000000000E+01      4.485474000000000E-01     -1.433281000000000E+02
4866000000.000000      6.400452000000000E-01      1.494238000000000E+01      4.433594000000000E-01     -1.441797000000000E+02
4867000000.000000      6.403503000000000E-01      1.506738000000000E+01      4.402466000000000E-01     -1.450078000000000E+02
4868000000.000000      6.424561000000000E-01      1.500146000000000E+01      4.366150000000000E-01     -1.458906000000000E+02
4869000000.000000      6.420898000000000E-01      1.492480000000000E+01      4.324341000000000E-01     -1.464453000000000E+02
4870000000.000000      6.427612000000000E-01      1.494385000000000E+01      4.288940000000000E-01     -1.471250000000000E+02
4871000000.000000      6.427612000000000E-01      1.480664000000000E+01      4.249268000000000E-01     -1.480313000000000E+02
4872000000.000000      6.460876000000000E-01      1.480127000000000E+01      4.195709000000000E-01     -1.485859000000000E+02
4873000000.000000      6.474304000000000E-01      1.497119000000000E+01      4.160309000000000E-01     -1.495625000000000E+02
4874000000.000000      6.473999000000000E-01      1.487256000000000E+01      4.116058000000000E-01     -1.502031000000000E+02
4875000000.000000      6.496582000000000E-01      1.469238000000000E+01      4.070587000000000E-01     -1.509219000000000E+02
4876000000.000000      6.530151000000000E-01      1.484912000000000E+01      4.029846000000000E-01     -1.516094000000000E+02
4877000000.000000      6.544189000000000E-01      1.450977000000000E+01      3.980865000000000E-01     -1.520469000000000E+02
4878000000.000000      6.523743000000000E-01      1.467773000000000E+01      3.939362000000000E-01     -1.528672000000000E+02
4879000000.000000      6.556091000000000E-01      1.455127000000000E+01      3.890228000000000E-01     -1.532266000000000E+02
4880000000.000000      6.567688000000000E-01      1.460742000000000E+01      3.853455000000000E-01     -1.538984000000000E+02
4881000000.000000      6.572876000000000E-01      1.449463000000000E+01      3.809814000000000E-01     -1.544453000000000E+02
4882000000.000000      6.605225000000000E-01      1.469238000000000E+01      3.771515000000000E-01     -1.552813000000000E+02
4883000000.000000      6.598206000000000E-01      1.412842000000000E+01      3.717041000000000E-01     -1.559141000000000E+02
4884000000.000000      6.623535000000000E-01      1.428320000000000E+01      3.672028000000000E-01     -1.561563000000000E+02
4885000000.000000      6.626892000000000E-01      1.431641000000000E+01      3.631439000000000E-01     -1.565312000000000E+02
4886000000.000000      6.630859000000000E-01      1.431494000000000E+01      3.581543000000000E-01     -1.570625000000000E+02
4887000000.000000      6.632080000000000E-01      1.411865000000000E+01      3.552856000000000E-01     -1.577969000000000E+02
4888000000.000000      6.652832000000000E-01      1.397852000000000E+01      3.511505000000000E-01     -1.581172000000000E+02
4889000000.000000      6.667786000000000E-01      1.382764000000000E+01      3.454285000000000E-01     -1.583828000000000E+02
4890000000.000000      6.643982000000000E-01      1.373975000000000E+01      3.417816000000000E-01     -1.593281000000000E+02
4891000000.000000      6.683960000000000E-01      1.385645000000000E+01      3.378906000000000E-01     -1.597656000000000E+02
4892000000.000000      6.685791000000000E-01      1.373291000000000E+01      3.323517000000000E-01     -1.598047000000000E+02
4893000000.000000      6.701965000000000E-01      1.354443000000000E+01      3.294373000000000E-01     -1.602422000000000E+02
4894000000.000000      6.738586000000000E-01      1.346338000000000E+01      3.264008000000000E-01     -1.606641000000000E+02
4895000000.000000      6.731873000000000E-01      1.338818000000000E+01      3.223267000000000E-01     -1.613359000000000E+02
4896000000.000000      6.746521000000000E-01      1.325488000000000E+01      3.182678000000000E-01     -1.614922000000000E+02
4897000000.000000      6.739807000000000E-01      1.320654000000000E+01      3.135071000000000E-01     -1.620937000000000E+02
4898000000.000000      6.748657000000000E-01      1.310645000000000E+01      3.107452000000000E-01     -1.621953000000000E+02
4899000000.000000      6.763916000000000E-01      1.307373000000000E+01      3.067780000000000E-01     -1.627969000000000E+02
4900000000.000000      6.776123000000000E-01      1.299951000000000E+01      3.033295000000000E-01     -1.628984000000000E+02
4901000000.000000      6.784973000000000E-01      1.298291000000000E+01      2.999268000000000E-01     -1.633672000000000E+02
4902000000.000000      6.788940000000000E-01      1.279736000000000E+01      2.968750000000000E-01     -1.635469000000000E+02
4903000000.000000      6.789551000000000E-01      1.291553000000000E+01      2.918091000000000E-01     -1.641953000000000E+02
4904000000.000000      6.797485000000000E-01      1.244873000000000E+01      2.883759000000000E-01     -1.643672000000000E+02
4905000000.000000      6.801758000000000E-01      1.250928000000000E+01      2.855072000000000E-01     -1.648047000000000E+02
4906000000.000000      6.804199000000000E-01      1.250342000000000E+01      2.815247000000000E-01     -1.647500000000000E+02
4907000000.000000      6.832581000000000E-01      1.230322000000000E+01      2.782898000000000E-01     -1.654140000000000E+02
4908000000.000000      6.841431000000000E-01      1.209277000000000E+01      2.755432000000000E-01     -1.657578000000000E+02
4909000000.000000      6.852417000000000E-01      1.218506000000000E+01      2.711029000000000E-01     -1.659297000000000E+02
4910000000.000000      6.854553000000000E-01      1.201465000000000E+01      2.673950000000000E-01     -1.663984000000000E+02
4911000000.000000      6.869202000000000E-01      1.203125000000000E+01      2.645874000000000E-01     -1.664375000000000E+02
4912000000.000000      6.858521000000000E-01      1.186230000000000E+01      2.613678000000000E-01     -1.670078000000000E+02
4913000000.000000      6.868896000000000E-01      1.168506000000000E+01      2.572632000000000E-01     -1.671641000000000E+02
4914000000.000000      6.882324000000000E-01      1.145459000000000E+01      2.536774000000000E-01     -1.674766000000000E+02
4915000000.000000      6.883850000000000E-01      1.163281000000000E+01      2.497559000000000E-01     -1.678906000000000E+02
4916000000.000000      6.900330000000000E-01      1.149170000000000E+01      2.469406000000000E-01     -1.682578000000000E+02
4917000000.000000      6.884460000000000E-01      1.140625000000000E+01      2.433243000000000E-01     -1.684844000000000E+02
4918000000.000000      6.920776000000000E-01      1.122510000000000E+01      2.393875000000000E-01     -1.688359000000000E+02
4919000000.000000      6.877441000000000E-01      1.101074000000000E+01      2.364655000000000E-01     -1.687969000000000E+02
4920000000.000000      6.887512000000000E-01      1.103711000000000E+01      2.317581000000000E-01     -1.693750000000000E+02
4921000000.000000      6.894531000000000E-01      1.089941000000000E+01      2.290115000000000E-01     -1.695000000000000E+02
4922000000.000000      6.903381000000000E-01      1.076660000000000E+01      2.246170000000000E-01     -1.695781000000000E+02
4923000000.000000      6.939392000000000E-01      1.066455000000000E+01      2.209625000000000E-01     -1.696875000000000E+02
4924000000.000000      6.961365000000000E-01      1.075000000000000E+01      2.168350000000000E-01     -1.702109000000000E+02
4925000000.000000      6.931763000000000E-01      1.053418000000000E+01      2.137756000000000E-01     -1.702031000000000E+02
4926000000.000000      6.936035000000000E-01      1.054248000000000E+01      2.099075000000000E-01     -1.704219000000000E+02
4927000000.000000      6.934204000000000E-01      1.037354000000000E+01      2.058945000000000E-01     -1.706719000000000E+02
4928000000.000000      6.940613000000000E-01      1.013867000000000E+01      2.023392000000000E-01     -1.706797000000000E+02
4929000000.000000      6.954956000000000E-01      1.015527000000000E+01      1.983871000000000E-01     -1.707422000000000E+02
4930000000.000000      6.970825000000000E-01      1.017188000000000E+01      1.942062000000000E-01     -1.710156000000000E+02
4931000000.000000      6.968384000000000E-01      9.952148000000000E+00      1.912994000000000E-01     -1.706953000000000E+02
4932000000.000000      6.964417000000000E-01      9.930176000000000E+00      1.871796000000000E-01     -1.708516000000000E+02
4933000000.000000      6.972656000000000E-01      9.788574000000000E+00      1.828690000000000E-01     -1.708047000000000E+02
4934000000.000000      6.973572000000000E-01      9.604492000000000E+00      1.794128000000000E-01     -1.709141000000000E+02
4935000000.000000      6.988525000000000E-01      9.590820000000000E+00      1.763229000000000E-01     -1.704219000000000E+02
4936000000.000000      6.978455000000000E-01      9.514160000000000E+00      1.719513000000000E-01     -1.704453000000000E+02
4937000000.000000      7.002869000000000E-01      9.346191000000000E+00      1.687851000000000E-01     -1.703906000000000E+02
4938000000.000000      6.993713000000000E-01      9.151367000000000E+00      1.646652000000000E-01     -1.700703000000000E+02
4939000000.000000      6.991272000000000E-01      9.192383000000000E+00      1.609879000000000E-01     -1.696016000000000E+02
4940000000.000000      6.995239000000000E-01      9.053711000000000E+00      1.569138000000000E-01     -1.696016000000000E+02
4941000000.000000      7.012939000000000E-01      8.942871000000000E+00      1.537704000000000E-01     -1.689219000000000E+02
4942000000.000000      7.007446000000000E-01      8.935547000000000E+00      1.503220000000000E-01     -1.688125000000000E+02
4943000000.000000      7.000427000000000E-01      8.740723000000000E+00      1.465607000000000E-01     -1.680391000000000E+02
4944000000.000000      7.014160000000000E-01      8.764160000000000E+00      1.434021000000000E-01     -1.674297000000000E+02
4945000000.000000      7.027893000000000E-01      8.492188000000000E+00      1.397400000000000E-01     -1.668047000000000E+02
4946000000.000000      7.033386000000000E-01      8.523926000000000E+00      1.361313000000000E-01     -1.660078000000000E+02
4947000000.000000      7.027283000000000E-01      8.400391000000000E+00      1.334763000000000E-01     -1.653359000000000E+02
4948000000.000000      7.036743000000000E-01      8.398926000000000E+00      1.306152000000000E-01     -1.644844000000000E+02
4949000000.000000      7.023926000000000E-01      8.154297000000000E+00      1.273270000000000E-01     -1.633125000000000E+02
4950000000.000000      7.041931000000000E-01      8.111816000000000E+00      1.244202000000000E-01     -1.622890000000000E+02
4951000000.000000      7.056885000000000E-01      8.056641000000000E+00      1.220436000000000E-01     -1.614219000000000E+02
4952000000.000000      7.061462000000000E-01      7.934814000000000E+00      1.193657000000000E-01     -1.601094000000000E+02
4953000000.000000      7.047424000000000E-01      7.767334000000000E+00      1.170616000000000E-01     -1.586875000000000E+02
4954000000.000000      7.070618000000000E-01      7.656006000000000E+00      1.147308000000000E-01     -1.573281000000000E+02
