! Network Analyzer HP8722D
! Hewlett-Packard
! Data name: Linha & Wilkinson
! Saver's name: Rodrigo Anjos
! Comments: Teste da utilização de aquisição
continua pelo VNA HP8722D
! Time and date: 22/5/2025 15:52
!              Frequency                     S11                                                   S21                                                   S12                                                   S22
# HZ  S  MA R 50
4800000000.000000      6.534424000000000E-01      1.094922000000000E+01      4.704590000000000E-01     -9.166796000000000E+01
4801000000.000000      6.501160000000000E-01      1.105322000000000E+01      4.710083000000000E-01     -9.245703000000000E+01
4802000000.000000      6.507874000000000E-01      1.097119000000000E+01      4.734344000000000E-01     -9.306250000000000E+01
4803000000.000000      6.478882000000000E-01      1.086670000000000E+01      4.779510000000000E-01     -9.387110000000000E+01
4804000000.000000      6.439514000000000E-01      1.077441000000000E+01      4.787292000000000E-01     -9.467968000000000E+01
4805000000.000000      6.461792000000000E-01      1.091895000000000E+01      4.800568000000000E-01     -9.523438000000000E+01
4806000000.000000      6.437683000000000E-01      1.085156000000000E+01      4.802551000000000E-01     -9.607811000000000E+01
4807000000.000000      6.393738000000000E-01      1.082520000000000E+01      4.814453000000000E-01     -9.711327000000000E+01
4808000000.000000      6.373596000000000E-01      1.088721000000000E+01      4.830017000000000E-01     -9.758984000000000E+01
4809000000.000000      6.376343000000000E-01      1.104248000000000E+01      4.866333000000000E-01     -9.843359000000000E+01
4810000000.000000      6.357727000000000E-01      1.096436000000000E+01      4.876556000000000E-01     -9.901953000000000E+01
4811000000.000000      6.356201000000000E-01      1.101904000000000E+01      4.880676000000000E-01     -1.002344000000000E+02
4812000000.000000      6.344604000000000E-01      1.114258000000000E+01      4.898529000000000E-01     -1.008281000000000E+02
4813000000.000000      6.331787000000000E-01      1.119092000000000E+01      4.896698000000000E-01     -1.016680000000000E+02
4814000000.000000      6.306152000000000E-01      1.123877000000000E+01      4.923096000000000E-01     -1.021328000000000E+02
4815000000.000000      6.286316000000000E-01      1.121973000000000E+01      4.914703000000000E-01     -1.031289000000000E+02
4816000000.000000      6.294556000000000E-01      1.116455000000000E+01      4.944305000000000E-01     -1.035273000000000E+02
4817000000.000000      6.261597000000000E-01      1.150928000000000E+01      4.943695000000000E-01     -1.044648000000000E+02
4818000000.000000      6.259155000000000E-01      1.145703000000000E+01      4.939117000000000E-01     -1.052891000000000E+02
4819000000.000000      6.245422000000000E-01      1.140234000000000E+01      4.955902000000000E-01     -1.060352000000000E+02
4820000000.000000      6.219788000000000E-01      1.158740000000000E+01      4.979248000000000E-01     -1.066250000000000E+02
4821000000.000000      6.235352000000000E-01      1.167285000000000E+01      4.975281000000000E-01     -1.075273000000000E+02
4822000000.000000      6.187134000000000E-01      1.149951000000000E+01      4.962311000000000E-01     -1.081680000000000E+02
4823000000.000000      6.194763000000000E-01      1.181006000000000E+01      4.983673000000000E-01     -1.090234000000000E+02
4824000000.000000      6.164246000000000E-01      1.201758000000000E+01      4.971161000000000E-01     -1.097031000000000E+02
4825000000.000000      6.189880000000000E-01      1.201611000000000E+01      4.989014000000000E-01     -1.102969000000000E+02
4826000000.000000      6.175537000000000E-01      1.196924000000000E+01      4.998932000000000E-01     -1.113555000000000E+02
4827000000.000000      6.159668000000000E-01      1.217529000000000E+01      4.990234000000000E-01     -1.119805000000000E+02
4828000000.000000      6.165771000000000E-01      1.225244000000000E+01      4.985352000000000E-01     -1.126445000000000E+02
4829000000.000000      6.159973000000000E-01      1.257764000000000E+01      4.987946000000000E-01     -1.135547000000000E+02
4830000000.000000      6.142578000000000E-01      1.243652000000000E+01      5.004272000000000E-01     -1.142148000000000E+02
4831000000.000000      6.151733000000000E-01      1.265869000000000E+01      4.996796000000000E-01     -1.150234000000000E+02
4832000000.000000      6.132507000000000E-01      1.284570000000000E+01      5.008850000000000E-01     -1.156484000000000E+02
4833000000.000000      6.130676000000000E-01      1.288379000000000E+01      5.008545000000000E-01     -1.165351000000000E+02
4834000000.000000      6.139526000000000E-01      1.298291000000000E+01      5.003357000000000E-01     -1.173008000000000E+02
4835000000.000000      6.126099000000000E-01      1.310498000000000E+01      5.003967000000000E-01     -1.180625000000000E+02
4836000000.000000      6.149597000000000E-01      1.343066000000000E+01      4.993439000000000E-01     -1.187852000000000E+02
4837000000.000000      6.145630000000000E-01      1.344824000000000E+01      4.987793000000000E-01     -1.198086000000000E+02
4838000000.000000      6.118774000000000E-01      1.333838000000000E+01      4.998169000000000E-01     -1.203828000000000E+02
4839000000.000000      6.176758000000000E-01      1.383447000000000E+01      4.995880000000000E-01     -1.213320000000000E+02
4840000000.000000      6.148071000000000E-01      1.367090000000000E+01      4.993134000000000E-01     -1.220469000000000E+02
4841000000.000000      6.169128000000000E-01      1.396875000000000E+01      4.984283000000000E-01     -1.226836000000000E+02
4842000000.000000      6.141663000000000E-01      1.403906000000000E+01      4.983063000000000E-01     -1.234570000000000E+02
4843000000.000000      6.185303000000000E-01      1.378223000000000E+01      4.971619000000000E-01     -1.245937000000000E+02
4844000000.000000      6.156311000000000E-01      1.413232000000000E+01      4.962616000000000E-01     -1.252266000000000E+02
4845000000.000000      6.175842000000000E-01      1.437256000000000E+01      4.953156000000000E-01     -1.259648000000000E+02
4846000000.000000      6.189270000000000E-01      1.419824000000000E+01      4.954834000000000E-01     -1.268476000000000E+02
4847000000.000000      6.204224000000000E-01      1.450049000000000E+01      4.938354000000000E-01     -1.275352000000000E+02
4848000000.000000      6.204224000000000E-01      1.445215000000000E+01      4.917450000000000E-01     -1.284453000000000E+02
4849000000.000000      6.206970000000000E-01      1.447559000000000E+01      4.916229000000000E-01     -1.295938000000000E+02
4850000000.000000      6.213379000000000E-01      1.466260000000000E+01      4.892883000000000E-01     -1.303125000000000E+02
4851000000.000000      6.234436000000000E-01      1.473389000000000E+01      4.892731000000000E-01     -1.310937000000000E+02
4852000000.000000      6.234741000000000E-01      1.470068000000000E+01      4.855194000000000E-01     -1.318516000000000E+02
4853000000.000000      6.265564000000000E-01      1.485596000000000E+01      4.817963000000000E-01     -1.328594000000000E+02
4854000000.000000      6.242065000000000E-01      1.480518000000000E+01      4.819336000000000E-01     -1.337969000000000E+02
4855000000.000000      6.273804000000000E-01      1.504004000000000E+01      4.789581000000000E-01     -1.345625000000000E+02
4856000000.000000      6.266785000000000E-01      1.487793000000000E+01      4.768829000000000E-01     -1.355234000000000E+02
4857000000.000000      6.289673000000000E-01      1.499902000000000E+01      4.756317000000000E-01     -1.363125000000000E+02
4858000000.000000      6.278687000000000E-01      1.485059000000000E+01      4.734497000000000E-01     -1.371016000000000E+02
4859000000.000000      6.312256000000000E-01      1.487256000000000E+01      4.692078000000000E-01     -1.379609000000000E+02
4860000000.000000      6.331177000000000E-01      1.518555000000000E+01      4.657898000000000E-01     -1.387656000000000E+02
4861000000.000000      6.356812000000000E-01      1.498633000000000E+01      4.630432000000000E-01     -1.395391000000000E+02
4862000000.000000      6.332397000000000E-01      1.503467000000000E+01      4.619293000000000E-01     -1.404609000000000E+02
4863000000.000000      6.355286000000000E-01      1.504150000000000E+01      4.575195000000000E-01     -1.413984000000000E+02
4864000000.000000      6.364441000000000E-01      1.517041000000000E+01      4.547424000000000E-01     -1.419844000000000E+02
4865000000.000000      6.368103000000000E-01      1.511572000000000E+01      4.504395000000000E-01     -1.429688000000000E+02
4866000000.000000      6.392517000000000E-01      1.500293000000000E+01      4.464111000000000E-01     -1.437109000000000E+02
4867000000.000000      6.387024000000000E-01      1.512256000000000E+01      4.417877000000000E-01     -1.447422000000000E+02
4868000000.000000      6.411438000000000E-01      1.509229000000000E+01      4.394379000000000E-01     -1.454453000000000E+02
4869000000.000000      6.427307000000000E-01      1.518701000000000E+01      4.351654000000000E-01     -1.461797000000000E+02
4870000000.000000      6.441345000000000E-01      1.506592000000000E+01      4.320679000000000E-01     -1.468672000000000E+02
4871000000.000000      6.445007000000000E-01      1.489990000000000E+01      4.275970000000000E-01     -1.476953000000000E+02
4872000000.000000      6.468811000000000E-01      1.493994000000000E+01      4.224854000000000E-01     -1.481484000000000E+02
4873000000.000000      6.471863000000000E-01      1.491943000000000E+01      4.187012000000000E-01     -1.490234000000000E+02
4874000000.000000      6.480408000000000E-01      1.501270000000000E+01      4.136810000000000E-01     -1.499531000000000E+02
4875000000.000000      6.489563000000000E-01      1.487646000000000E+01      4.095459000000000E-01     -1.505859000000000E+02
4876000000.000000      6.527405000000000E-01      1.491943000000000E+01      4.053650000000000E-01     -1.510937000000000E+02
4877000000.000000      6.520081000000000E-01      1.473926000000000E+01      4.006195000000000E-01     -1.517812000000000E+02
4878000000.000000      6.531982000000000E-01      1.495361000000000E+01      3.963318000000000E-01     -1.524375000000000E+02
4879000000.000000      6.560669000000000E-01      1.485352000000000E+01      3.916626000000000E-01     -1.530859000000000E+02
4880000000.000000      6.553650000000000E-01      1.473926000000000E+01      3.882294000000000E-01     -1.536562000000000E+02
4881000000.000000      6.574707000000000E-01      1.471338000000000E+01      3.840485000000000E-01     -1.541484000000000E+02
4882000000.000000      6.600342000000000E-01      1.473926000000000E+01      3.790283000000000E-01     -1.547578000000000E+02
4883000000.000000      6.605225000000000E-01      1.439990000000000E+01      3.731842000000000E-01     -1.553906000000000E+02
4884000000.000000      6.613464000000000E-01      1.448242000000000E+01      3.695374000000000E-01     -1.558516000000000E+02
4885000000.000000      6.628418000000000E-01      1.444678000000000E+01      3.654938000000000E-01     -1.564922000000000E+02
4886000000.000000      6.643982000000000E-01      1.444971000000000E+01      3.618317000000000E-01     -1.569219000000000E+02
4887000000.000000      6.659241000000000E-01      1.420801000000000E+01      3.577118000000000E-01     -1.574062000000000E+02
4888000000.000000      6.667480000000000E-01      1.410645000000000E+01      3.527679000000000E-01     -1.581484000000000E+02
4889000000.000000      6.661682000000000E-01      1.416943000000000E+01      3.490906000000000E-01     -1.582187000000000E+02
4890000000.000000      6.647949000000000E-01      1.396484000000000E+01      3.441010000000000E-01     -1.590859000000000E+02
4891000000.000000      6.685791000000000E-01      1.383984000000000E+01      3.403320000000000E-01     -1.592031000000000E+02
4892000000.000000      6.690369000000000E-01      1.390283000000000E+01      3.357239000000000E-01     -1.595234000000000E+02
4893000000.000000      6.720886000000000E-01      1.366943000000000E+01      3.307953000000000E-01     -1.602578000000000E+02
4894000000.000000      6.707458000000000E-01      1.355811000000000E+01      3.286591000000000E-01     -1.605781000000000E+02
4895000000.000000      6.744080000000000E-01      1.374219000000000E+01      3.250122000000000E-01     -1.607734000000000E+02
4896000000.000000      6.742249000000000E-01      1.349219000000000E+01      3.203278000000000E-01     -1.614141000000000E+02
4897000000.000000      6.743469000000000E-01      1.338818000000000E+01      3.163910000000000E-01     -1.617344000000000E+02
4898000000.000000      6.764221000000000E-01      1.339600000000000E+01      3.134155000000000E-01     -1.619453000000000E+02
4899000000.000000      6.744385000000000E-01      1.315723000000000E+01      3.091431000000000E-01     -1.625313000000000E+02
4900000000.000000      6.773987000000000E-01      1.298291000000000E+01      3.056488000000000E-01     -1.627344000000000E+02
4901000000.000000      6.773682000000000E-01      1.299951000000000E+01      3.014069000000000E-01     -1.631406000000000E+02
4902000000.000000      6.803589000000000E-01      1.301172000000000E+01      2.984161000000000E-01     -1.634609000000000E+02
4903000000.000000      6.806030000000000E-01      1.297070000000000E+01      2.938385000000000E-01     -1.637266000000000E+02
4904000000.000000      6.811218000000000E-01      1.272070000000000E+01      2.898560000000000E-01     -1.642734000000000E+02
4905000000.000000      6.817322000000000E-01      1.265625000000000E+01      2.875214000000000E-01     -1.645000000000000E+02
4906000000.000000      6.806335000000000E-01      1.255566000000000E+01      2.834015000000000E-01     -1.646250000000000E+02
4907000000.000000      6.822815000000000E-01      1.227686000000000E+01      2.803802000000000E-01     -1.651797000000000E+02
4908000000.000000      6.839294000000000E-01      1.221533000000000E+01      2.771759000000000E-01     -1.655313000000000E+02
4909000000.000000      6.823120000000000E-01      1.219873000000000E+01      2.732544000000000E-01     -1.658203000000000E+02
4910000000.000000      6.843567000000000E-01      1.216162000000000E+01      2.700958000000000E-01     -1.662266000000000E+02
4911000000.000000      6.862183000000000E-01      1.202979000000000E+01      2.664795000000000E-01     -1.663594000000000E+02
4912000000.000000      6.873169000000000E-01      1.190625000000000E+01      2.625122000000000E-01     -1.667187000000000E+02
4913000000.000000      6.875610000000000E-01      1.173584000000000E+01      2.595825000000000E-01     -1.671094000000000E+02
4914000000.000000      6.862793000000000E-01      1.162354000000000E+01      2.556305000000000E-01     -1.674687000000000E+02
4915000000.000000      6.875000000000000E-01      1.170166000000000E+01      2.519379000000000E-01     -1.677031000000000E+02
4916000000.000000      6.888733000000000E-01      1.158203000000000E+01      2.484665000000000E-01     -1.681875000000000E+02
4917000000.000000      6.878052000000000E-01      1.140771000000000E+01      2.449341000000000E-01     -1.683125000000000E+02
4918000000.000000      6.902771000000000E-01      1.126758000000000E+01      2.410355000000000E-01     -1.686172000000000E+02
4919000000.000000      6.898804000000000E-01      1.127734000000000E+01      2.381668000000000E-01     -1.687891000000000E+02
4920000000.000000      6.902466000000000E-01      1.125781000000000E+01      2.338181000000000E-01     -1.692891000000000E+02
4921000000.000000      6.913452000000000E-01      1.110840000000000E+01      2.312317000000000E-01     -1.693906000000000E+02
4922000000.000000      6.926880000000000E-01      1.099854000000000E+01      2.269135000000000E-01     -1.696016000000000E+02
4923000000.000000      6.914978000000000E-01      1.092725000000000E+01      2.229080000000000E-01     -1.697813000000000E+02
4924000000.000000      6.925964000000000E-01      1.080762000000000E+01      2.188568000000000E-01     -1.699219000000000E+02
4925000000.000000      6.930237000000000E-01      1.055762000000000E+01      2.154236000000000E-01     -1.702734000000000E+02
4926000000.000000      6.937256000000000E-01      1.051074000000000E+01      2.119904000000000E-01     -1.705078000000000E+02
4927000000.000000      6.954346000000000E-01      1.037891000000000E+01      2.079544000000000E-01     -1.705937000000000E+02
4928000000.000000      6.952515000000000E-01      1.028418000000000E+01      2.043076000000000E-01     -1.707578000000000E+02
4929000000.000000      6.959534000000000E-01      1.002490000000000E+01      1.998444000000000E-01     -1.706484000000000E+02
4930000000.000000      6.958618000000000E-01      1.029932000000000E+01      1.962891000000000E-01     -1.708437000000000E+02
4931000000.000000      6.972351000000000E-01      1.012793000000000E+01      1.928253000000000E-01     -1.707891000000000E+02
4932000000.000000      6.962280000000000E-01      9.949219000000000E+00      1.889038000000000E-01     -1.709687000000000E+02
4933000000.000000      6.974487000000000E-01      9.847656000000000E+00      1.844330000000000E-01     -1.707891000000000E+02
4934000000.000000      6.990356000000000E-01      9.750000000000000E+00      1.814194000000000E-01     -1.708750000000000E+02
4935000000.000000      6.998596000000000E-01      9.798340000000000E+00      1.780014000000000E-01     -1.706328000000000E+02
4936000000.000000      6.995544000000000E-01      9.622559000000000E+00      1.736679000000000E-01     -1.705859000000000E+02
4937000000.000000      6.983643000000000E-01      9.389160000000000E+00      1.698074000000000E-01     -1.705937000000000E+02
4938000000.000000      6.981812000000000E-01      9.506836000000000E+00      1.659775000000000E-01     -1.701328000000000E+02
4939000000.000000      6.985168000000000E-01      9.369629000000000E+00      1.625595000000000E-01     -1.699609000000000E+02
4940000000.000000      7.004089000000000E-01      9.252930000000000E+00      1.588211000000000E-01     -1.697891000000000E+02
4941000000.000000      7.018738000000000E-01      8.972656000000000E+00      1.556168000000000E-01     -1.692656000000000E+02
4942000000.000000      7.008667000000000E-01      8.967285000000000E+00      1.517563000000000E-01     -1.690156000000000E+02
4943000000.000000      7.015686000000000E-01      8.880859000000000E+00      1.482697000000000E-01     -1.684219000000000E+02
4944000000.000000      7.011719000000000E-01      8.630859000000000E+00      1.447067000000000E-01     -1.678281000000000E+02
4945000000.000000      7.032471000000000E-01      8.635254000000000E+00      1.408920000000000E-01     -1.673047000000000E+02
4946000000.000000      7.044067000000000E-01      8.649902000000000E+00      1.380234000000000E-01     -1.665781000000000E+02
4947000000.000000      7.044067000000000E-01      8.392090000000000E+00      1.343307000000000E-01     -1.658828000000000E+02
4948000000.000000      7.053223000000000E-01      8.574707000000000E+00      1.315155000000000E-01     -1.649453000000000E+02
4949000000.000000      7.064819000000000E-01      8.297363000000000E+00      1.286316000000000E-01     -1.636953000000000E+02
4950000000.000000      7.049255000000000E-01      8.398926000000000E+00      1.260376000000000E-01     -1.629062000000000E+02
4951000000.000000      7.053223000000000E-01      8.173828000000000E+00      1.229591000000000E-01     -1.619375000000000E+02
4952000000.000000      7.056580000000000E-01      7.916992000000000E+00      1.199226000000000E-01     -1.607031000000000E+02
4953000000.000000      7.052917000000000E-01      7.820801000000000E+00      1.177101000000000E-01     -1.593047000000000E+02
4954000000.000000      7.079468000000000E-01      7.761719000000000E+00      1.153984000000000E-01     -1.580937000000000E+02
