! Network Analyzer HP8722D
! Hewlett-Packard
! Data name: Linha & Wilkinson
! Saver's name: Rodrigo Anjos
! Comments: Teste da utilização de aquisição
continua pelo VNA HP8722D
! Time and date: 22/5/2025 09:12
!              Frequency                     S11                                                   S21                                                   S12                                                   S22
# HZ  S  MA R 50
4800000000.000000      6.470337000000000E-01      1.035986000000000E+01      4.740143000000000E-01     -9.379297000000000E+01
4801000000.000000      6.453857000000000E-01      1.044092000000000E+01      4.759827000000000E-01     -9.446093000000000E+01
4802000000.000000      6.432190000000000E-01      1.044092000000000E+01      4.770355000000000E-01     -9.523046000000000E+01
4803000000.000000      6.418762000000000E-01      1.027490000000000E+01      4.822998000000000E-01     -9.589062000000000E+01
4804000000.000000      6.393738000000000E-01      1.020459000000000E+01      4.835205000000000E-01     -9.670702000000000E+01
4805000000.000000      6.395874000000000E-01      1.035010000000000E+01      4.833984000000000E-01     -9.744921000000000E+01
4806000000.000000      6.372375000000000E-01      1.031445000000000E+01      4.851227000000000E-01     -9.816795000000000E+01
4807000000.000000      6.338196000000000E-01      1.013184000000000E+01      4.861298000000000E-01     -9.906639000000000E+01
4808000000.000000      6.349792000000000E-01      1.032568000000000E+01      4.866791000000000E-01     -9.965233000000000E+01
4809000000.000000      6.302795000000000E-01      1.052490000000000E+01      4.884186000000000E-01     -1.007851000000000E+02
4810000000.000000      6.290588000000000E-01      1.041895000000000E+01      4.891205000000000E-01     -1.011758000000000E+02
4811000000.000000      6.296997000000000E-01      1.054688000000000E+01      4.917603000000000E-01     -1.021250000000000E+02
4812000000.000000      6.299133000000000E-01      1.068408000000000E+01      4.923553000000000E-01     -1.029570000000000E+02
4813000000.000000      6.273804000000000E-01      1.070605000000000E+01      4.936981000000000E-01     -1.036601000000000E+02
4814000000.000000      6.250305000000000E-01      1.069629000000000E+01      4.946136000000000E-01     -1.042969000000000E+02
4815000000.000000      6.231384000000000E-01      1.074170000000000E+01      4.951019000000000E-01     -1.051211000000000E+02
4816000000.000000      6.223450000000000E-01      1.078418000000000E+01      4.954529000000000E-01     -1.058516000000000E+02
4817000000.000000      6.205750000000000E-01      1.103271000000000E+01      4.965973000000000E-01     -1.068242000000000E+02
4818000000.000000      6.196899000000000E-01      1.090527000000000E+01      4.968719000000000E-01     -1.074570000000000E+02
4819000000.000000      6.189575000000000E-01      1.106299000000000E+01      4.976654000000000E-01     -1.080859000000000E+02
4820000000.000000      6.170044000000000E-01      1.120166000000000E+01      4.994202000000000E-01     -1.087344000000000E+02
4821000000.000000      6.171875000000000E-01      1.120996000000000E+01      4.990845000000000E-01     -1.096172000000000E+02
4822000000.000000      6.156616000000000E-01      1.128125000000000E+01      4.992981000000000E-01     -1.103320000000000E+02
4823000000.000000      6.163940000000000E-01      1.134033000000000E+01      4.994354000000000E-01     -1.111445000000000E+02
4824000000.000000      6.149292000000000E-01      1.177002000000000E+01      4.975281000000000E-01     -1.120117000000000E+02
4825000000.000000      6.156311000000000E-01      1.175391000000000E+01      5.001831000000000E-01     -1.125937000000000E+02
4826000000.000000      6.130371000000000E-01      1.148193000000000E+01      5.000305000000000E-01     -1.135547000000000E+02
4827000000.000000      6.119385000000000E-01      1.187305000000000E+01      4.994049000000000E-01     -1.140156000000000E+02
4828000000.000000      6.135254000000000E-01      1.192676000000000E+01      5.009460000000000E-01     -1.149219000000000E+02
4829000000.000000      6.113892000000000E-01      1.219482000000000E+01      4.993134000000000E-01     -1.155898000000000E+02
4830000000.000000      6.117554000000000E-01      1.195557000000000E+01      5.004272000000000E-01     -1.163984000000000E+02
4831000000.000000      6.127625000000000E-01      1.230029000000000E+01      5.000916000000000E-01     -1.173672000000000E+02
4832000000.000000      6.132202000000000E-01      1.270557000000000E+01      4.996643000000000E-01     -1.178125000000000E+02
4833000000.000000      6.104126000000000E-01      1.263281000000000E+01      4.995728000000000E-01     -1.185273000000000E+02
4834000000.000000      6.104126000000000E-01      1.247754000000000E+01      4.987640000000000E-01     -1.194297000000000E+02
4835000000.000000      6.113892000000000E-01      1.262988000000000E+01      4.999390000000000E-01     -1.201992000000000E+02
4836000000.000000      6.124878000000000E-01      1.278809000000000E+01      4.984741000000000E-01     -1.209492000000000E+02
4837000000.000000      6.111755000000000E-01      1.320410000000000E+01      4.972992000000000E-01     -1.219180000000000E+02
4838000000.000000      6.112366000000000E-01      1.300879000000000E+01      4.985046000000000E-01     -1.224609000000000E+02
4839000000.000000      6.152649000000000E-01      1.321338000000000E+01      4.976654000000000E-01     -1.232773000000000E+02
4840000000.000000      6.141052000000000E-01      1.328076000000000E+01      4.964600000000000E-01     -1.241016000000000E+02
4841000000.000000      6.148987000000000E-01      1.350879000000000E+01      4.965668000000000E-01     -1.249101000000000E+02
4842000000.000000      6.163330000000000E-01      1.343604000000000E+01      4.958954000000000E-01     -1.258516000000000E+02
4843000000.000000      6.155090000000000E-01      1.358447000000000E+01      4.951019000000000E-01     -1.265273000000000E+02
4844000000.000000      6.148376000000000E-01      1.364063000000000E+01      4.927521000000000E-01     -1.275469000000000E+02
4845000000.000000      6.178894000000000E-01      1.391406000000000E+01      4.914093000000000E-01     -1.280313000000000E+02
4846000000.000000      6.182251000000000E-01      1.381494000000000E+01      4.920197000000000E-01     -1.291406000000000E+02
4847000000.000000      6.190186000000000E-01      1.392334000000000E+01      4.898529000000000E-01     -1.298906000000000E+02
4848000000.000000      6.182556000000000E-01      1.398145000000000E+01      4.868317000000000E-01     -1.306015000000000E+02
4849000000.000000      6.199951000000000E-01      1.402246000000000E+01      4.862213000000000E-01     -1.317109000000000E+02
4850000000.000000      6.205139000000000E-01      1.408301000000000E+01      4.848633000000000E-01     -1.324766000000000E+02
4851000000.000000      6.224670000000000E-01      1.419434000000000E+01      4.842987000000000E-01     -1.331640000000000E+02
4852000000.000000      6.240234000000000E-01      1.411182000000000E+01      4.806671000000000E-01     -1.341250000000000E+02
4853000000.000000      6.232300000000000E-01      1.414453000000000E+01      4.777527000000000E-01     -1.349766000000000E+02
4854000000.000000      6.246948000000000E-01      1.415137000000000E+01      4.765472000000000E-01     -1.359297000000000E+02
4855000000.000000      6.266785000000000E-01      1.421729000000000E+01      4.738007000000000E-01     -1.368438000000000E+02
4856000000.000000      6.282959000000000E-01      1.433838000000000E+01      4.713593000000000E-01     -1.375078000000000E+02
4857000000.000000      6.283569000000000E-01      1.441504000000000E+01      4.694824000000000E-01     -1.383203000000000E+02
4858000000.000000      6.288452000000000E-01      1.427393000000000E+01      4.656067000000000E-01     -1.390938000000000E+02
4859000000.000000      6.300354000000000E-01      1.424902000000000E+01      4.637299000000000E-01     -1.400703000000000E+02
4860000000.000000      6.324768000000000E-01      1.441504000000000E+01      4.597168000000000E-01     -1.408125000000000E+02
4861000000.000000      6.331787000000000E-01      1.449609000000000E+01      4.554749000000000E-01     -1.418984000000000E+02
4862000000.000000      6.330872000000000E-01      1.431641000000000E+01      4.538574000000000E-01     -1.425234000000000E+02
4863000000.000000      6.358337000000000E-01      1.438086000000000E+01      4.496307000000000E-01     -1.434219000000000E+02
4864000000.000000      6.375427000000000E-01      1.432324000000000E+01      4.466248000000000E-01     -1.440781000000000E+02
4865000000.000000      6.383972000000000E-01      1.431885000000000E+01      4.433136000000000E-01     -1.447031000000000E+02
4866000000.000000      6.385803000000000E-01      1.422412000000000E+01      4.389801000000000E-01     -1.459297000000000E+02
4867000000.000000      6.378784000000000E-01      1.444971000000000E+01      4.342346000000000E-01     -1.464453000000000E+02
4868000000.000000      6.416931000000000E-01      1.442871000000000E+01      4.314423000000000E-01     -1.472500000000000E+02
4869000000.000000      6.425171000000000E-01      1.432031000000000E+01      4.273529000000000E-01     -1.479453000000000E+02
4870000000.000000      6.434937000000000E-01      1.443311000000000E+01      4.219971000000000E-01     -1.486719000000000E+02
4871000000.000000      6.473083000000000E-01      1.429297000000000E+01      4.188995000000000E-01     -1.495312000000000E+02
4872000000.000000      6.477051000000000E-01      1.420654000000000E+01      4.141235000000000E-01     -1.500391000000000E+02
4873000000.000000      6.495361000000000E-01      1.415430000000000E+01      4.092560000000000E-01     -1.508828000000000E+02
4874000000.000000      6.499634000000000E-01      1.422705000000000E+01      4.056549000000000E-01     -1.515234000000000E+02
4875000000.000000      6.518860000000000E-01      1.400879000000000E+01      4.001923000000000E-01     -1.521719000000000E+02
4876000000.000000      6.523132000000000E-01      1.423096000000000E+01      3.983917000000000E-01     -1.526406000000000E+02
4877000000.000000      6.557922000000000E-01      1.388232000000000E+01      3.936920000000000E-01     -1.535547000000000E+02
4878000000.000000      6.528015000000000E-01      1.393604000000000E+01      3.881531000000000E-01     -1.539453000000000E+02
4879000000.000000      6.573792000000000E-01      1.394971000000000E+01      3.823395000000000E-01     -1.545234000000000E+02
4880000000.000000      6.585388000000000E-01      1.363916000000000E+01      3.786011000000000E-01     -1.552500000000000E+02
4881000000.000000      6.561890000000000E-01      1.378906000000000E+01      3.750000000000000E-01     -1.558281000000000E+02
4882000000.000000      6.596375000000000E-01      1.392236000000000E+01      3.709106000000000E-01     -1.561641000000000E+02
4883000000.000000      6.602173000000000E-01      1.353076000000000E+01      3.666992000000000E-01     -1.568516000000000E+02
4884000000.000000      6.633911000000000E-01      1.381494000000000E+01      3.618774000000000E-01     -1.573437000000000E+02
4885000000.000000      6.629333000000000E-01      1.368066000000000E+01      3.579559000000000E-01     -1.576875000000000E+02
4886000000.000000      6.646729000000000E-01      1.358154000000000E+01      3.536530000000000E-01     -1.580391000000000E+02
4887000000.000000      6.635742000000000E-01      1.339893000000000E+01      3.492279000000000E-01     -1.585938000000000E+02
4888000000.000000      6.673279000000000E-01      1.335107000000000E+01      3.445740000000000E-01     -1.590859000000000E+02
4889000000.000000      6.665039000000000E-01      1.327686000000000E+01      3.405304000000000E-01     -1.596094000000000E+02
4890000000.000000      6.656189000000000E-01      1.325195000000000E+01      3.356476000000000E-01     -1.603203000000000E+02
4891000000.000000      6.708374000000000E-01      1.306104000000000E+01      3.313599000000000E-01     -1.605547000000000E+02
4892000000.000000      6.707458000000000E-01      1.307471000000000E+01      3.298035000000000E-01     -1.607188000000000E+02
4893000000.000000      6.714478000000000E-01      1.300635000000000E+01      3.246307000000000E-01     -1.612266000000000E+02
4894000000.000000      6.716614000000000E-01      1.282227000000000E+01      3.188934000000000E-01     -1.616562000000000E+02
4895000000.000000      6.744080000000000E-01      1.273828000000000E+01      3.168335000000000E-01     -1.619688000000000E+02
4896000000.000000      6.739807000000000E-01      1.266846000000000E+01      3.128662000000000E-01     -1.624219000000000E+02
4897000000.000000      6.742249000000000E-01      1.264502000000000E+01      3.077393000000000E-01     -1.628281000000000E+02
4898000000.000000      6.768799000000000E-01      1.245020000000000E+01      3.043671000000000E-01     -1.630391000000000E+02
4899000000.000000      6.763306000000000E-01      1.262158000000000E+01      3.015289000000000E-01     -1.635234000000000E+02
4900000000.000000      6.773376000000000E-01      1.216553000000000E+01      2.976837000000000E-01     -1.637656000000000E+02
4901000000.000000      6.789856000000000E-01      1.214941000000000E+01      2.940674000000000E-01     -1.641172000000000E+02
4902000000.000000      6.797485000000000E-01      1.215625000000000E+01      2.906494000000000E-01     -1.643203000000000E+02
4903000000.000000      6.798706000000000E-01      1.206543000000000E+01      2.861938000000000E-01     -1.647812000000000E+02
4904000000.000000      6.841125000000000E-01      1.193115000000000E+01      2.829437000000000E-01     -1.650469000000000E+02
4905000000.000000      6.814575000000000E-01      1.156543000000000E+01      2.796326000000000E-01     -1.655625000000000E+02
4906000000.000000      6.812744000000000E-01      1.172754000000000E+01      2.762146000000000E-01     -1.655703000000000E+02
4907000000.000000      6.833801000000000E-01      1.167822000000000E+01      2.730713000000000E-01     -1.661094000000000E+02
4908000000.000000      6.848450000000000E-01      1.145850000000000E+01      2.693329000000000E-01     -1.664531000000000E+02
4909000000.000000      6.849365000000000E-01      1.128662000000000E+01      2.658844000000000E-01     -1.666719000000000E+02
4910000000.000000      6.846008000000000E-01      1.133887000000000E+01      2.628632000000000E-01     -1.668047000000000E+02
4911000000.000000      6.845703000000000E-01      1.123340000000000E+01      2.589569000000000E-01     -1.672969000000000E+02
4912000000.000000      6.861267000000000E-01      1.117578000000000E+01      2.549896000000000E-01     -1.675156000000000E+02
4913000000.000000      6.881714000000000E-01      1.088330000000000E+01      2.521820000000000E-01     -1.679141000000000E+02
4914000000.000000      6.881409000000000E-01      1.104395000000000E+01      2.482071000000000E-01     -1.681015000000000E+02
4915000000.000000      6.870117000000000E-01      1.064844000000000E+01      2.442474000000000E-01     -1.685625000000000E+02
4916000000.000000      6.880798000000000E-01      1.079639000000000E+01      2.411804000000000E-01     -1.687422000000000E+02
4917000000.000000      6.889954000000000E-01      1.057813000000000E+01      2.372894000000000E-01     -1.689297000000000E+02
4918000000.000000      6.888428000000000E-01      1.044922000000000E+01      2.335739000000000E-01     -1.692344000000000E+02
4919000000.000000      6.893616000000000E-01      1.050537000000000E+01      2.307358000000000E-01     -1.693281000000000E+02
4920000000.000000      6.923523000000000E-01      1.032813000000000E+01      2.262650000000000E-01     -1.698125000000000E+02
4921000000.000000      6.905212000000000E-01      1.026660000000000E+01      2.231369000000000E-01     -1.698125000000000E+02
4922000000.000000      6.940002000000000E-01      1.019775000000000E+01      2.196808000000000E-01     -1.699219000000000E+02
4923000000.000000      6.922302000000000E-01      1.020215000000000E+01      2.152100000000000E-01     -1.700547000000000E+02
4924000000.000000      6.933594000000000E-01      9.928711000000000E+00      2.116928000000000E-01     -1.702891000000000E+02
4925000000.000000      6.897583000000000E-01      9.688477000000000E+00      2.086639000000000E-01     -1.704766000000000E+02
4926000000.000000      6.940918000000000E-01      9.905273000000000E+00      2.051086000000000E-01     -1.704844000000000E+02
4927000000.000000      6.931458000000000E-01      9.678711000000000E+00      2.004318000000000E-01     -1.707187000000000E+02
4928000000.000000      6.951904000000000E-01      9.504395000000000E+00      1.971512000000000E-01     -1.706797000000000E+02
4929000000.000000      6.947632000000000E-01      9.406738000000000E+00      1.928177000000000E-01     -1.707266000000000E+02
4930000000.000000      6.935425000000000E-01      9.404297000000000E+00      1.897354000000000E-01     -1.708437000000000E+02
4931000000.000000      6.951294000000000E-01      9.352051000000000E+00      1.866684000000000E-01     -1.707813000000000E+02
4932000000.000000      6.954651000000000E-01      9.000488000000000E+00      1.818771000000000E-01     -1.707891000000000E+02
4933000000.000000      6.971436000000000E-01      9.062012000000000E+00      1.778488000000000E-01     -1.705703000000000E+02
4934000000.000000      6.995239000000000E-01      8.886230000000000E+00      1.744308000000000E-01     -1.706172000000000E+02
4935000000.000000      6.990967000000000E-01      8.955078000000000E+00      1.712723000000000E-01     -1.702031000000000E+02
4936000000.000000      6.983948000000000E-01      8.773926000000000E+00      1.670914000000000E-01     -1.699687000000000E+02
4937000000.000000      7.001343000000000E-01      8.607422000000000E+00      1.631470000000000E-01     -1.697344000000000E+02
4938000000.000000      6.972046000000000E-01      8.698242000000000E+00      1.599045000000000E-01     -1.695000000000000E+02
4939000000.000000      6.985168000000000E-01      8.417969000000000E+00      1.563416000000000E-01     -1.690391000000000E+02
4940000000.000000      6.998901000000000E-01      8.398926000000000E+00      1.528397000000000E-01     -1.688516000000000E+02
4941000000.000000      7.012024000000000E-01      8.276367000000000E+00      1.494141000000000E-01     -1.681406000000000E+02
4942000000.000000      6.999207000000000E-01      8.206543000000000E+00      1.456451000000000E-01     -1.676563000000000E+02
4943000000.000000      7.010803000000000E-01      8.114746000000000E+00      1.427231000000000E-01     -1.668672000000000E+02
4944000000.000000      6.999512000000000E-01      8.049805000000000E+00      1.393433000000000E-01     -1.663672000000000E+02
4945000000.000000      7.003784000000000E-01      7.851074000000000E+00      1.361923000000000E-01     -1.657266000000000E+02
4946000000.000000      7.028198000000000E-01      7.745361000000000E+00      1.330795000000000E-01     -1.647734000000000E+02
4947000000.000000      7.040405000000000E-01      7.757568000000000E+00      1.299057000000000E-01     -1.638047000000000E+02
4948000000.000000      7.035522000000000E-01      7.596924000000000E+00      1.274261000000000E-01     -1.625859000000000E+02
4949000000.000000      7.046509000000000E-01      7.614746000000000E+00      1.245384000000000E-01     -1.614609000000000E+02
4950000000.000000      7.055664000000000E-01      7.426758000000000E+00      1.219826000000000E-01     -1.604766000000000E+02
4951000000.000000      7.047424000000000E-01      7.241211000000000E+00      1.192551000000000E-01     -1.593437000000000E+02
4952000000.000000      7.049866000000000E-01      7.270020000000000E+00      1.170578000000000E-01     -1.578828000000000E+02
4953000000.000000      7.060242000000000E-01      7.205566000000000E+00      1.150208000000000E-01     -1.562422000000000E+02
4954000000.000000      7.063599000000000E-01      6.981689000000000E+00      1.129494000000000E-01     -1.549766000000000E+02
