! Network Analyzer HP8722D
! Hewlett-Packard
! Data name: Linha & Wilkinson
! Saver's name: Rodrigo Anjos
! Comments: Teste da utilização de aquisição
continua pelo VNA HP8722D
! Time and date: 22/5/2025 16:18
!              Frequency                     S11                                                   S21                                                   S12                                                   S22
# HZ  S  MA R 50
4800000000.000000      6.524353000000000E-01      1.093262000000000E+01      4.709473000000000E-01     -9.201563000000000E+01
4801000000.000000      6.514587000000000E-01      1.091602000000000E+01      4.714661000000000E-01     -9.239061000000000E+01
4802000000.000000      6.509094000000000E-01      1.105322000000000E+01      4.716797000000000E-01     -9.328125000000000E+01
4803000000.000000      6.487427000000000E-01      1.085303000000000E+01      4.777679000000000E-01     -9.400000000000000E+01
4804000000.000000      6.457825000000000E-01      1.099170000000000E+01      4.779663000000000E-01     -9.474218000000000E+01
4805000000.000000      6.453857000000000E-01      1.075537000000000E+01      4.786987000000000E-01     -9.562109000000000E+01
4806000000.000000      6.433716000000000E-01      1.091309000000000E+01      4.814606000000000E-01     -9.639061000000000E+01
4807000000.000000      6.405334000000000E-01      1.082959000000000E+01      4.827118000000000E-01     -9.712109000000000E+01
4808000000.000000      6.389160000000000E-01      1.090234000000000E+01      4.835510000000000E-01     -9.771873000000000E+01
4809000000.000000      6.363831000000000E-01      1.080078000000000E+01      4.862061000000000E-01     -9.860937000000000E+01
4810000000.000000      6.341553000000000E-01      1.099023000000000E+01      4.885101000000000E-01     -9.941406000000000E+01
4811000000.000000      6.335754000000000E-01      1.098633000000000E+01      4.897003000000000E-01     -1.002812000000000E+02
4812000000.000000      6.351318000000000E-01      1.116064000000000E+01      4.904785000000000E-01     -1.007500000000000E+02
4813000000.000000      6.331177000000000E-01      1.129102000000000E+01      4.903564000000000E-01     -1.018281000000000E+02
4814000000.000000      6.286011000000000E-01      1.123047000000000E+01      4.923248000000000E-01     -1.025391000000000E+02
4815000000.000000      6.289673000000000E-01      1.136670000000000E+01      4.924774000000000E-01     -1.032539000000000E+02
4816000000.000000      6.282043000000000E-01      1.127881000000000E+01      4.943542000000000E-01     -1.039414000000000E+02
4817000000.000000      6.256714000000000E-01      1.154102000000000E+01      4.946899000000000E-01     -1.047266000000000E+02
4818000000.000000      6.240540000000000E-01      1.143359000000000E+01      4.954681000000000E-01     -1.053867000000000E+02
4819000000.000000      6.247864000000000E-01      1.159717000000000E+01      4.955139000000000E-01     -1.061562000000000E+02
4820000000.000000      6.229858000000000E-01      1.162451000000000E+01      4.974060000000000E-01     -1.068398000000000E+02
4821000000.000000      6.232910000000000E-01      1.179102000000000E+01      4.980621000000000E-01     -1.078633000000000E+02
4822000000.000000      6.202087000000000E-01      1.175244000000000E+01      4.949341000000000E-01     -1.084570000000000E+02
4823000000.000000      6.220398000000000E-01      1.182910000000000E+01      4.986572000000000E-01     -1.092969000000000E+02
4824000000.000000      6.183472000000000E-01      1.204199000000000E+01      4.973907000000000E-01     -1.099570000000000E+02
4825000000.000000      6.158752000000000E-01      1.215625000000000E+01      4.982758000000000E-01     -1.104766000000000E+02
4826000000.000000      6.183472000000000E-01      1.210938000000000E+01      5.004272000000000E-01     -1.115625000000000E+02
4827000000.000000      6.157227000000000E-01      1.240039000000000E+01      4.996490000000000E-01     -1.120547000000000E+02
4828000000.000000      6.174011000000000E-01      1.237158000000000E+01      4.986725000000000E-01     -1.128633000000000E+02
4829000000.000000      6.166077000000000E-01      1.253369000000000E+01      5.005188000000000E-01     -1.136367000000000E+02
4830000000.000000      6.153870000000000E-01      1.261621000000000E+01      5.000916000000000E-01     -1.144570000000000E+02
4831000000.000000      6.147156000000000E-01      1.269727000000000E+01      5.008850000000000E-01     -1.152187000000000E+02
4832000000.000000      6.132202000000000E-01      1.302148000000000E+01      4.995117000000000E-01     -1.159336000000000E+02
4833000000.000000      6.136169000000000E-01      1.298682000000000E+01      4.995117000000000E-01     -1.166172000000000E+02
4834000000.000000      6.145325000000000E-01      1.299658000000000E+01      5.009766000000000E-01     -1.174141000000000E+02
4835000000.000000      6.132507000000000E-01      1.342236000000000E+01      5.003967000000000E-01     -1.183047000000000E+02
4836000000.000000      6.138000000000000E-01      1.339209000000000E+01      4.987183000000000E-01     -1.190000000000000E+02
4837000000.000000      6.132507000000000E-01      1.351563000000000E+01      4.986115000000000E-01     -1.199375000000000E+02
4838000000.000000      6.134644000000000E-01      1.347314000000000E+01      5.000610000000000E-01     -1.203945000000000E+02
4839000000.000000      6.163940000000000E-01      1.383154000000000E+01      4.989014000000000E-01     -1.214805000000000E+02
4840000000.000000      6.151123000000000E-01      1.376270000000000E+01      4.993286000000000E-01     -1.221719000000000E+02
4841000000.000000      6.156616000000000E-01      1.394141000000000E+01      4.969482000000000E-01     -1.231094000000000E+02
4842000000.000000      6.136780000000000E-01      1.395801000000000E+01      4.968567000000000E-01     -1.237578000000000E+02
4843000000.000000      6.185608000000000E-01      1.381348000000000E+01      4.976654000000000E-01     -1.247734000000000E+02
4844000000.000000      6.166687000000000E-01      1.408545000000000E+01      4.958649000000000E-01     -1.255469000000000E+02
4845000000.000000      6.173401000000000E-01      1.422412000000000E+01      4.961395000000000E-01     -1.261250000000000E+02
4846000000.000000      6.185303000000000E-01      1.431885000000000E+01      4.934845000000000E-01     -1.270625000000000E+02
4847000000.000000      6.202087000000000E-01      1.450049000000000E+01      4.918365000000000E-01     -1.277539000000000E+02
4848000000.000000      6.194458000000000E-01      1.440674000000000E+01      4.906464000000000E-01     -1.286641000000000E+02
4849000000.000000      6.211243000000000E-01      1.449219000000000E+01      4.895020000000000E-01     -1.296406000000000E+02
4850000000.000000      6.199341000000000E-01      1.457568000000000E+01      4.882660000000000E-01     -1.303516000000000E+02
4851000000.000000      6.213989000000000E-01      1.477783000000000E+01      4.875031000000000E-01     -1.312813000000000E+02
4852000000.000000      6.238403000000000E-01      1.476807000000000E+01      4.860077000000000E-01     -1.320234000000000E+02
4853000000.000000      6.237183000000000E-01      1.494385000000000E+01      4.821167000000000E-01     -1.329922000000000E+02
4854000000.000000      6.254578000000000E-01      1.485596000000000E+01      4.809875000000000E-01     -1.336953000000000E+02
4855000000.000000      6.250610000000000E-01      1.489453000000000E+01      4.791718000000000E-01     -1.348203000000000E+02
4856000000.000000      6.274109000000000E-01      1.502344000000000E+01      4.766541000000000E-01     -1.356094000000000E+02
4857000000.000000      6.293335000000000E-01      1.512256000000000E+01      4.753265000000000E-01     -1.362969000000000E+02
4858000000.000000      6.298218000000000E-01      1.510059000000000E+01      4.715729000000000E-01     -1.373594000000000E+02
4859000000.000000      6.307983000000000E-01      1.479541000000000E+01      4.685822000000000E-01     -1.382109000000000E+02
4860000000.000000      6.312866000000000E-01      1.507568000000000E+01      4.653778000000000E-01     -1.390391000000000E+02
4861000000.000000      6.333313000000000E-01      1.510059000000000E+01      4.640198000000000E-01     -1.399609000000000E+02
4862000000.000000      6.329041000000000E-01      1.509619000000000E+01      4.595032000000000E-01     -1.406016000000000E+02
4863000000.000000      6.347656000000000E-01      1.515674000000000E+01      4.553680000000000E-01     -1.416094000000000E+02
4864000000.000000      6.364136000000000E-01      1.510889000000000E+01      4.534454000000000E-01     -1.423125000000000E+02
4865000000.000000      6.366272000000000E-01      1.517871000000000E+01      4.495544000000000E-01     -1.431094000000000E+02
4866000000.000000      6.389771000000000E-01      1.502344000000000E+01      4.463348000000000E-01     -1.440547000000000E+02
4867000000.000000      6.394653000000000E-01      1.516211000000000E+01      4.408264000000000E-01     -1.448984000000000E+02
4868000000.000000      6.409607000000000E-01      1.498535000000000E+01      4.396973000000000E-01     -1.457109000000000E+02
4869000000.000000      6.419678000000000E-01      1.498633000000000E+01      4.344330000000000E-01     -1.463281000000000E+02
4870000000.000000      6.421509000000000E-01      1.511133000000000E+01      4.303741000000000E-01     -1.470078000000000E+02
4871000000.000000      6.450195000000000E-01      1.503467000000000E+01      4.265747000000000E-01     -1.478672000000000E+02
4872000000.000000      6.483459000000000E-01      1.503320000000000E+01      4.207764000000000E-01     -1.483750000000000E+02
4873000000.000000      6.470032000000000E-01      1.491797000000000E+01      4.173126000000000E-01     -1.492656000000000E+02
4874000000.000000      6.482849000000000E-01      1.488477000000000E+01      4.130707000000000E-01     -1.499922000000000E+02
4875000000.000000      6.500854000000000E-01      1.476660000000000E+01      4.080963000000000E-01     -1.506484000000000E+02
4876000000.000000      6.526489000000000E-01      1.494678000000000E+01      4.049683000000000E-01     -1.512422000000000E+02
4877000000.000000      6.536865000000000E-01      1.465820000000000E+01      3.998260000000000E-01     -1.520313000000000E+02
4878000000.000000      6.542358000000000E-01      1.477344000000000E+01      3.961639000000000E-01     -1.527422000000000E+02
4879000000.000000      6.565552000000000E-01      1.473389000000000E+01      3.901825000000000E-01     -1.531563000000000E+02
4880000000.000000      6.592102000000000E-01      1.455518000000000E+01      3.858337000000000E-01     -1.536797000000000E+02
4881000000.000000      6.576843000000000E-01      1.459521000000000E+01      3.829193000000000E-01     -1.542266000000000E+02
4882000000.000000      6.602173000000000E-01      1.472168000000000E+01      3.787231000000000E-01     -1.548750000000000E+02
4883000000.000000      6.596985000000000E-01      1.436279000000000E+01      3.726044000000000E-01     -1.555000000000000E+02
4884000000.000000      6.617737000000000E-01      1.461182000000000E+01      3.684845000000000E-01     -1.559687000000000E+02
4885000000.000000      6.621704000000000E-01      1.453174000000000E+01      3.645935000000000E-01     -1.564922000000000E+02
4886000000.000000      6.644897000000000E-01      1.442090000000000E+01      3.607483000000000E-01     -1.570859000000000E+02
4887000000.000000      6.649475000000000E-01      1.425879000000000E+01      3.562012000000000E-01     -1.575547000000000E+02
4888000000.000000      6.658020000000000E-01      1.404053000000000E+01      3.530884000000000E-01     -1.581875000000000E+02
4889000000.000000      6.671448000000000E-01      1.410645000000000E+01      3.466644000000000E-01     -1.582500000000000E+02
4890000000.000000      6.659241000000000E-01      1.389063000000000E+01      3.435364000000000E-01     -1.591406000000000E+02
4891000000.000000      6.699524000000000E-01      1.398828000000000E+01      3.385315000000000E-01     -1.595234000000000E+02
4892000000.000000      6.692810000000000E-01      1.383008000000000E+01      3.335571000000000E-01     -1.596797000000000E+02
4893000000.000000      6.711121000000000E-01      1.369824000000000E+01      3.308716000000000E-01     -1.604063000000000E+02
4894000000.000000      6.722717000000000E-01      1.366260000000000E+01      3.275299000000000E-01     -1.606797000000000E+02
4895000000.000000      6.746216000000000E-01      1.358301000000000E+01      3.235321000000000E-01     -1.609844000000000E+02
4896000000.000000      6.751404000000000E-01      1.345508000000000E+01      3.198395000000000E-01     -1.615391000000000E+02
4897000000.000000      6.740112000000000E-01      1.360352000000000E+01      3.155975000000000E-01     -1.617734000000000E+02
4898000000.000000      6.766357000000000E-01      1.335107000000000E+01      3.124390000000000E-01     -1.620547000000000E+02
4899000000.000000      6.785583000000000E-01      1.328076000000000E+01      3.083649000000000E-01     -1.625859000000000E+02
4900000000.000000      6.757813000000000E-01      1.296924000000000E+01      3.037567000000000E-01     -1.628750000000000E+02
4901000000.000000      6.761169000000000E-01      1.305859000000000E+01      3.007355000000000E-01     -1.631797000000000E+02
4902000000.000000      6.778564000000000E-01      1.289893000000000E+01      2.975616000000000E-01     -1.634140000000000E+02
4903000000.000000      6.785889000000000E-01      1.289795000000000E+01      2.925110000000000E-01     -1.638281000000000E+02
4904000000.000000      6.834106000000000E-01      1.278223000000000E+01      2.899017000000000E-01     -1.643516000000000E+02
4905000000.000000      6.810303000000000E-01      1.268066000000000E+01      2.861938000000000E-01     -1.646328000000000E+02
4906000000.000000      6.823120000000000E-01      1.248584000000000E+01      2.825928000000000E-01     -1.647500000000000E+02
4907000000.000000      6.820374000000000E-01      1.241455000000000E+01      2.800293000000000E-01     -1.652500000000000E+02
4908000000.000000      6.849365000000000E-01      1.225928000000000E+01      2.762604000000000E-01     -1.657266000000000E+02
4909000000.000000      6.839905000000000E-01      1.217969000000000E+01      2.720947000000000E-01     -1.659453000000000E+02
4910000000.000000      6.864014000000000E-01      1.224561000000000E+01      2.688904000000000E-01     -1.661172000000000E+02
4911000000.000000      6.835938000000000E-01      1.200928000000000E+01      2.653961000000000E-01     -1.663359000000000E+02
4912000000.000000      6.856384000000000E-01      1.208496000000000E+01      2.624664000000000E-01     -1.668828000000000E+02
4913000000.000000      6.871033000000000E-01      1.187744000000000E+01      2.583923000000000E-01     -1.671484000000000E+02
4914000000.000000      6.858521000000000E-01      1.169727000000000E+01      2.550964000000000E-01     -1.673750000000000E+02
4915000000.000000      6.871033000000000E-01      1.178662000000000E+01      2.519379000000000E-01     -1.677969000000000E+02
4916000000.000000      6.892395000000000E-01      1.157520000000000E+01      2.482452000000000E-01     -1.681250000000000E+02
4917000000.000000      6.879272000000000E-01      1.147656000000000E+01      2.444687000000000E-01     -1.682031000000000E+02
4918000000.000000      6.906433000000000E-01      1.144629000000000E+01      2.401886000000000E-01     -1.686406000000000E+02
4919000000.000000      6.891785000000000E-01      1.144189000000000E+01      2.370148000000000E-01     -1.688672000000000E+02
4920000000.000000      6.892395000000000E-01      1.110156000000000E+01      2.328873000000000E-01     -1.692734000000000E+02
4921000000.000000      6.897278000000000E-01      1.104932000000000E+01      2.302094000000000E-01     -1.693594000000000E+02
4922000000.000000      6.900940000000000E-01      1.090918000000000E+01      2.261124000000000E-01     -1.695313000000000E+02
4923000000.000000      6.927795000000000E-01      1.093506000000000E+01      2.220688000000000E-01     -1.698125000000000E+02
4924000000.000000      6.929932000000000E-01      1.080322000000000E+01      2.179260000000000E-01     -1.702500000000000E+02
4925000000.000000      6.922913000000000E-01      1.055371000000000E+01      2.146225000000000E-01     -1.702188000000000E+02
4926000000.000000      6.930237000000000E-01      1.064941000000000E+01      2.112732000000000E-01     -1.703672000000000E+02
4927000000.000000      6.932678000000000E-01      1.035693000000000E+01      2.071686000000000E-01     -1.704531000000000E+02
4928000000.000000      6.951599000000000E-01      1.017334000000000E+01      2.037201000000000E-01     -1.706250000000000E+02
4929000000.000000      6.942749000000000E-01      1.026367000000000E+01      1.993484000000000E-01     -1.708672000000000E+02
4930000000.000000      6.951904000000000E-01      1.032959000000000E+01      1.964645000000000E-01     -1.709453000000000E+02
4931000000.000000      6.939087000000000E-01      1.003027000000000E+01      1.929779000000000E-01     -1.707734000000000E+02
4932000000.000000      6.950989000000000E-01      9.937012000000000E+00      1.880112000000000E-01     -1.708516000000000E+02
4933000000.000000      6.964111000000000E-01      9.909668000000000E+00      1.837387000000000E-01     -1.706953000000000E+02
4934000000.000000      6.968689000000000E-01      9.700684000000000E+00      1.803818000000000E-01     -1.709063000000000E+02
4935000000.000000      7.006226000000000E-01      9.739258000000000E+00      1.770935000000000E-01     -1.705391000000000E+02
4936000000.000000      6.990356000000000E-01      9.567383000000000E+00      1.729660000000000E-01     -1.705859000000000E+02
4937000000.000000      6.993103000000000E-01      9.324219000000000E+00      1.690140000000000E-01     -1.704297000000000E+02
4938000000.000000      6.968079000000000E-01      9.431641000000000E+00      1.660843000000000E-01     -1.701641000000000E+02
4939000000.000000      6.976013000000000E-01      9.316406000000000E+00      1.621399000000000E-01     -1.698047000000000E+02
4940000000.000000      7.007141000000000E-01      9.206543000000000E+00      1.575317000000000E-01     -1.697969000000000E+02
4941000000.000000      7.021179000000000E-01      9.134766000000000E+00      1.547089000000000E-01     -1.690391000000000E+02
4942000000.000000      6.999207000000000E-01      9.058105000000000E+00      1.510773000000000E-01     -1.686641000000000E+02
4943000000.000000      7.021484000000000E-01      9.083984000000000E+00      1.476822000000000E-01     -1.682422000000000E+02
4944000000.000000      7.024231000000000E-01      8.755859000000000E+00      1.438217000000000E-01     -1.675234000000000E+02
4945000000.000000      7.044067000000000E-01      8.573242000000000E+00      1.404343000000000E-01     -1.670938000000000E+02
4946000000.000000      7.023010000000000E-01      8.645996000000000E+00      1.372147000000000E-01     -1.663672000000000E+02
4947000000.000000      7.028198000000000E-01      8.552734000000000E+00      1.339340000000000E-01     -1.655703000000000E+02
4948000000.000000      7.044983000000000E-01      8.433105000000000E+00      1.307678000000000E-01     -1.647031000000000E+02
4949000000.000000      7.049255000000000E-01      8.211914000000000E+00      1.282578000000000E-01     -1.635313000000000E+02
4950000000.000000      7.050171000000000E-01      8.221680000000000E+00      1.249542000000000E-01     -1.625391000000000E+02
4951000000.000000      7.048035000000000E-01      8.096680000000000E+00      1.227112000000000E-01     -1.617109000000000E+02
4952000000.000000      7.064209000000000E-01      8.143555000000000E+00      1.196404000000000E-01     -1.605000000000000E+02
4953000000.000000      7.051697000000000E-01      7.982910000000000E+00      1.174202000000000E-01     -1.590078000000000E+02
4954000000.000000      7.075195000000000E-01      7.900391000000000E+00      1.150055000000000E-01     -1.578359000000000E+02
