! Network Analyzer HP8722D
! Hewlett-Packard
! Data name: Linha & Wilkinson
! Saver's name: Rodrigo Anjos
! Comments: Teste da utilização de aquisição
continua pelo VNA HP8722D
! Time and date: 22/5/2025 16:40
!              Frequency                     S11                                                   S21                                                   S12                                                   S22
# HZ  S  MA R 50
4800000000.000000      6.491699000000000E-01      1.095313000000000E+01      4.709320000000000E-01     -9.276562000000000E+01
4801000000.000000      6.495667000000000E-01      1.114258000000000E+01      4.734802000000000E-01     -9.313671000000000E+01
4802000000.000000      6.484070000000000E-01      1.105615000000000E+01      4.763184000000000E-01     -9.412109000000000E+01
4803000000.000000      6.444397000000000E-01      1.088721000000000E+01      4.781494000000000E-01     -9.467968000000000E+01
4804000000.000000      6.444092000000000E-01      1.093799000000000E+01      4.796448000000000E-01     -9.539063000000000E+01
4805000000.000000      6.439209000000000E-01      1.078857000000000E+01      4.821320000000000E-01     -9.637108000000000E+01
4806000000.000000      6.407166000000000E-01      1.095166000000000E+01      4.824219000000000E-01     -9.704687000000000E+01
4807000000.000000      6.367188000000000E-01      1.088721000000000E+01      4.833221000000000E-01     -9.799217000000000E+01
4808000000.000000      6.371460000000000E-01      1.111670000000000E+01      4.849701000000000E-01     -9.846483000000000E+01
4809000000.000000      6.352844000000000E-01      1.114111000000000E+01      4.880981000000000E-01     -9.945702000000000E+01
4810000000.000000      6.329956000000000E-01      1.107520000000000E+01      4.881744000000000E-01     -1.000547000000000E+02
4811000000.000000      6.323242000000000E-01      1.108203000000000E+01      4.904938000000000E-01     -1.009453000000000E+02
4812000000.000000      6.346741000000000E-01      1.129639000000000E+01      4.906158000000000E-01     -1.016797000000000E+02
4813000000.000000      6.302185000000000E-01      1.124414000000000E+01      4.912262000000000E-01     -1.024375000000000E+02
4814000000.000000      6.299438000000000E-01      1.136523000000000E+01      4.918518000000000E-01     -1.029375000000000E+02
4815000000.000000      6.267700000000000E-01      1.136670000000000E+01      4.934845000000000E-01     -1.038633000000000E+02
4816000000.000000      6.257629000000000E-01      1.149414000000000E+01      4.936829000000000E-01     -1.045859000000000E+02
4817000000.000000      6.242371000000000E-01      1.151611000000000E+01      4.970093000000000E-01     -1.053398000000000E+02
4818000000.000000      6.256104000000000E-01      1.145703000000000E+01      4.949799000000000E-01     -1.061445000000000E+02
4819000000.000000      6.239319000000000E-01      1.162451000000000E+01      4.950409000000000E-01     -1.069375000000000E+02
4820000000.000000      6.233521000000000E-01      1.172754000000000E+01      4.982147000000000E-01     -1.073867000000000E+02
4821000000.000000      6.203613000000000E-01      1.192822000000000E+01      4.979858000000000E-01     -1.084883000000000E+02
4822000000.000000      6.177979000000000E-01      1.181006000000000E+01      4.965363000000000E-01     -1.090469000000000E+02
4823000000.000000      6.197510000000000E-01      1.185938000000000E+01      4.980316000000000E-01     -1.100117000000000E+02
4824000000.000000      6.147156000000000E-01      1.200488000000000E+01      4.982758000000000E-01     -1.104961000000000E+02
4825000000.000000      6.171265000000000E-01      1.215186000000000E+01      4.975739000000000E-01     -1.113867000000000E+02
4826000000.000000      6.157532000000000E-01      1.205322000000000E+01      4.986267000000000E-01     -1.121719000000000E+02
4827000000.000000      6.151123000000000E-01      1.239502000000000E+01      4.974670000000000E-01     -1.128398000000000E+02
4828000000.000000      6.155396000000000E-01      1.257227000000000E+01      4.999847000000000E-01     -1.135781000000000E+02
4829000000.000000      6.143494000000000E-01      1.269580000000000E+01      5.006104000000000E-01     -1.141953000000000E+02
4830000000.000000      6.157837000000000E-01      1.274658000000000E+01      4.987640000000000E-01     -1.152031000000000E+02
4831000000.000000      6.135254000000000E-01      1.286865000000000E+01      4.995270000000000E-01     -1.160352000000000E+02
4832000000.000000      6.139526000000000E-01      1.316406000000000E+01      4.997711000000000E-01     -1.165742000000000E+02
4833000000.000000      6.120605000000000E-01      1.305176000000000E+01      4.979248000000000E-01     -1.173555000000000E+02
4834000000.000000      6.142273000000000E-01      1.312305000000000E+01      4.990082000000000E-01     -1.182305000000000E+02
4835000000.000000      6.152649000000000E-01      1.322314000000000E+01      4.978027000000000E-01     -1.190273000000000E+02
4836000000.000000      6.150513000000000E-01      1.364502000000000E+01      4.975281000000000E-01     -1.196055000000000E+02
4837000000.000000      6.145020000000000E-01      1.389893000000000E+01      4.987183000000000E-01     -1.207617000000000E+02
4838000000.000000      6.126709000000000E-01      1.358154000000000E+01      4.976196000000000E-01     -1.211523000000000E+02
4839000000.000000      6.186218000000000E-01      1.390039000000000E+01      4.970856000000000E-01     -1.221094000000000E+02
4840000000.000000      6.149902000000000E-01      1.376172000000000E+01      4.978027000000000E-01     -1.227891000000000E+02
4841000000.000000      6.142883000000000E-01      1.412842000000000E+01      4.962463000000000E-01     -1.238515000000000E+02
4842000000.000000      6.163330000000000E-01      1.406104000000000E+01      4.959106000000000E-01     -1.245508000000000E+02
4843000000.000000      6.183167000000000E-01      1.415430000000000E+01      4.961853000000000E-01     -1.253711000000000E+02
4844000000.000000      6.176453000000000E-01      1.410352000000000E+01      4.933472000000000E-01     -1.263125000000000E+02
4845000000.000000      6.170349000000000E-01      1.431885000000000E+01      4.932251000000000E-01     -1.270625000000000E+02
4846000000.000000      6.199951000000000E-01      1.440820000000000E+01      4.915924000000000E-01     -1.278125000000000E+02
4847000000.000000      6.217651000000000E-01      1.455371000000000E+01      4.909515000000000E-01     -1.285703000000000E+02
4848000000.000000      6.188965000000000E-01      1.455664000000000E+01      4.888000000000000E-01     -1.293672000000000E+02
4849000000.000000      6.210938000000000E-01      1.472021000000000E+01      4.882050000000000E-01     -1.303906000000000E+02
4850000000.000000      6.207581000000000E-01      1.477246000000000E+01      4.857788000000000E-01     -1.312422000000000E+02
4851000000.000000      6.233826000000000E-01      1.472266000000000E+01      4.863281000000000E-01     -1.318203000000000E+02
4852000000.000000      6.246948000000000E-01      1.480664000000000E+01      4.828644000000000E-01     -1.327188000000000E+02
4853000000.000000      6.254578000000000E-01      1.485352000000000E+01      4.786987000000000E-01     -1.339062000000000E+02
4854000000.000000      6.259460000000000E-01      1.487402000000000E+01      4.779510000000000E-01     -1.346094000000000E+02
4855000000.000000      6.265564000000000E-01      1.490967000000000E+01      4.756775000000000E-01     -1.355391000000000E+02
4856000000.000000      6.266785000000000E-01      1.500977000000000E+01      4.729614000000000E-01     -1.364297000000000E+02
4857000000.000000      6.307678000000000E-01      1.498926000000000E+01      4.708557000000000E-01     -1.372344000000000E+02
4858000000.000000      6.287537000000000E-01      1.497412000000000E+01      4.691620000000000E-01     -1.379922000000000E+02
4859000000.000000      6.318054000000000E-01      1.504150000000000E+01      4.648743000000000E-01     -1.390156000000000E+02
4860000000.000000      6.322327000000000E-01      1.513623000000000E+01      4.617462000000000E-01     -1.396484000000000E+02
4861000000.000000      6.319885000000000E-01      1.515381000000000E+01      4.590149000000000E-01     -1.406172000000000E+02
4862000000.000000      6.325684000000000E-01      1.529395000000000E+01      4.565582000000000E-01     -1.413906000000000E+02
4863000000.000000      6.364136000000000E-01      1.506055000000000E+01      4.526825000000000E-01     -1.421875000000000E+02
4864000000.000000      6.381836000000000E-01      1.497266000000000E+01      4.494019000000000E-01     -1.430156000000000E+02
4865000000.000000      6.393738000000000E-01      1.511426000000000E+01      4.450989000000000E-01     -1.436484000000000E+02
4866000000.000000      6.386719000000000E-01      1.506494000000000E+01      4.414673000000000E-01     -1.445000000000000E+02
4867000000.000000      6.404114000000000E-01      1.506055000000000E+01      4.384460000000000E-01     -1.451719000000000E+02
4868000000.000000      6.403809000000000E-01      1.502637000000000E+01      4.343872000000000E-01     -1.460703000000000E+02
4869000000.000000      6.430664000000000E-01      1.503027000000000E+01      4.288788000000000E-01     -1.470312000000000E+02
4870000000.000000      6.450806000000000E-01      1.500977000000000E+01      4.257813000000000E-01     -1.474062000000000E+02
4871000000.000000      6.448059000000000E-01      1.498633000000000E+01      4.213867000000000E-01     -1.484219000000000E+02
4872000000.000000      6.474609000000000E-01      1.493408000000000E+01      4.177551000000000E-01     -1.489609000000000E+02
4873000000.000000      6.482849000000000E-01      1.485352000000000E+01      4.136963000000000E-01     -1.499531000000000E+02
4874000000.000000      6.479492000000000E-01      1.506738000000000E+01      4.087677000000000E-01     -1.505312000000000E+02
4875000000.000000      6.513672000000000E-01      1.483398000000000E+01      4.035339000000000E-01     -1.512031000000000E+02
4876000000.000000      6.538086000000000E-01      1.496045000000000E+01      4.002380000000000E-01     -1.518281000000000E+02
4877000000.000000      6.537170000000000E-01      1.454443000000000E+01      3.950500000000000E-01     -1.525781000000000E+02
4878000000.000000      6.537170000000000E-01      1.480225000000000E+01      3.908386000000000E-01     -1.530234000000000E+02
4879000000.000000      6.573792000000000E-01      1.476953000000000E+01      3.861084000000000E-01     -1.536328000000000E+02
4880000000.000000      6.593933000000000E-01      1.462793000000000E+01      3.819733000000000E-01     -1.542656000000000E+02
4881000000.000000      6.581421000000000E-01      1.449219000000000E+01      3.784943000000000E-01     -1.547266000000000E+02
4882000000.000000      6.608276000000000E-01      1.445801000000000E+01      3.745270000000000E-01     -1.552891000000000E+02
4883000000.000000      6.611633000000000E-01      1.433984000000000E+01      3.686676000000000E-01     -1.559297000000000E+02
4884000000.000000      6.629944000000000E-01      1.447266000000000E+01      3.639221000000000E-01     -1.563750000000000E+02
4885000000.000000      6.645508000000000E-01      1.433838000000000E+01      3.596649000000000E-01     -1.569609000000000E+02
4886000000.000000      6.636963000000000E-01      1.426709000000000E+01      3.553009000000000E-01     -1.571484000000000E+02
4887000000.000000      6.666565000000000E-01      1.417334000000000E+01      3.522491000000000E-01     -1.577891000000000E+02
4888000000.000000      6.675110000000000E-01      1.404980000000000E+01      3.480835000000000E-01     -1.585781000000000E+02
4889000000.000000      6.685181000000000E-01      1.406250000000000E+01      3.431396000000000E-01     -1.587031000000000E+02
4890000000.000000      6.677246000000000E-01      1.401855000000000E+01      3.397217000000000E-01     -1.595703000000000E+02
4891000000.000000      6.696777000000000E-01      1.387549000000000E+01      3.340454000000000E-01     -1.597578000000000E+02
4892000000.000000      6.703491000000000E-01      1.380811000000000E+01      3.297424000000000E-01     -1.599297000000000E+02
4893000000.000000      6.727295000000000E-01      1.372852000000000E+01      3.277130000000000E-01     -1.606641000000000E+02
4894000000.000000      6.703796000000000E-01      1.360791000000000E+01      3.222809000000000E-01     -1.608828000000000E+02
4895000000.000000      6.744995000000000E-01      1.353906000000000E+01      3.188019000000000E-01     -1.611094000000000E+02
4896000000.000000      6.750488000000000E-01      1.336865000000000E+01      3.160706000000000E-01     -1.616719000000000E+02
4897000000.000000      6.739197000000000E-01      1.332764000000000E+01      3.110809000000000E-01     -1.620937000000000E+02
4898000000.000000      6.746826000000000E-01      1.318457000000000E+01      3.081970000000000E-01     -1.624453000000000E+02
4899000000.000000      6.788330000000000E-01      1.315576000000000E+01      3.048401000000000E-01     -1.627969000000000E+02
4900000000.000000      6.774292000000000E-01      1.289209000000000E+01      3.003235000000000E-01     -1.629531000000000E+02
4901000000.000000      6.800537000000000E-01      1.298584000000000E+01      2.967987000000000E-01     -1.635234000000000E+02
4902000000.000000      6.822815000000000E-01      1.278223000000000E+01      2.942047000000000E-01     -1.636875000000000E+02
4903000000.000000      6.805115000000000E-01      1.279492000000000E+01      2.890015000000000E-01     -1.640547000000000E+02
4904000000.000000      6.803894000000000E-01      1.265869000000000E+01      2.863770000000000E-01     -1.644375000000000E+02
4905000000.000000      6.821899000000000E-01      1.262842000000000E+01      2.829437000000000E-01     -1.648281000000000E+02
4906000000.000000      6.815491000000000E-01      1.245264000000000E+01      2.787476000000000E-01     -1.647812000000000E+02
4907000000.000000      6.841736000000000E-01      1.247461000000000E+01      2.765350000000000E-01     -1.654531000000000E+02
4908000000.000000      6.869507000000000E-01      1.227002000000000E+01      2.725525000000000E-01     -1.658594000000000E+02
4909000000.000000      6.843262000000000E-01      1.206836000000000E+01      2.682648000000000E-01     -1.661797000000000E+02
4910000000.000000      6.855164000000000E-01      1.207373000000000E+01      2.655792000000000E-01     -1.663359000000000E+02
4911000000.000000      6.867371000000000E-01      1.194336000000000E+01      2.616425000000000E-01     -1.667344000000000E+02
4912000000.000000      6.859741000000000E-01      1.194580000000000E+01      2.575684000000000E-01     -1.670625000000000E+02
4913000000.000000      6.874390000000000E-01      1.173047000000000E+01      2.546387000000000E-01     -1.674219000000000E+02
4914000000.000000      6.871643000000000E-01      1.163574000000000E+01      2.513123000000000E-01     -1.674297000000000E+02
4915000000.000000      6.871033000000000E-01      1.160938000000000E+01      2.480927000000000E-01     -1.680234000000000E+02
4916000000.000000      6.883545000000000E-01      1.149170000000000E+01      2.450104000000000E-01     -1.682266000000000E+02
4917000000.000000      6.892395000000000E-01      1.136523000000000E+01      2.407608000000000E-01     -1.683750000000000E+02
4918000000.000000      6.909485000000000E-01      1.116309000000000E+01      2.364883000000000E-01     -1.688047000000000E+02
4919000000.000000      6.904602000000000E-01      1.125244000000000E+01      2.333679000000000E-01     -1.687734000000000E+02
4920000000.000000      6.907959000000000E-01      1.080615000000000E+01      2.291946000000000E-01     -1.691953000000000E+02
4921000000.000000      6.885376000000000E-01      1.101514000000000E+01      2.264099000000000E-01     -1.693594000000000E+02
4922000000.000000      6.908875000000000E-01      1.082422000000000E+01      2.218933000000000E-01     -1.695313000000000E+02
4923000000.000000      6.922302000000000E-01      1.077734000000000E+01      2.183609000000000E-01     -1.697422000000000E+02
4924000000.000000      6.936951000000000E-01      1.056982000000000E+01      2.141113000000000E-01     -1.700547000000000E+02
4925000000.000000      6.908569000000000E-01      1.060449000000000E+01      2.107010000000000E-01     -1.700078000000000E+02
4926000000.000000      6.929321000000000E-01      1.047119000000000E+01      2.076721000000000E-01     -1.703203000000000E+02
4927000000.000000      6.955261000000000E-01      1.037109000000000E+01      2.031937000000000E-01     -1.704844000000000E+02
4928000000.000000      6.955566000000000E-01      1.031592000000000E+01      2.000046000000000E-01     -1.704922000000000E+02
4929000000.000000      6.937866000000000E-01      1.014307000000000E+01      1.959610000000000E-01     -1.703984000000000E+02
4930000000.000000      6.961365000000000E-01      1.013184000000000E+01      1.924820000000000E-01     -1.708047000000000E+02
4931000000.000000      6.951599000000000E-01      1.000684000000000E+01      1.886978000000000E-01     -1.708125000000000E+02
4932000000.000000      6.962585000000000E-01      9.822754000000000E+00      1.845322000000000E-01     -1.705234000000000E+02
4933000000.000000      6.980896000000000E-01      9.599121000000000E+00      1.802902000000000E-01     -1.702656000000000E+02
4934000000.000000      6.980896000000000E-01      9.653809000000000E+00      1.773911000000000E-01     -1.704766000000000E+02
4935000000.000000      6.974487000000000E-01      9.605957000000000E+00      1.740646000000000E-01     -1.703750000000000E+02
4936000000.000000      6.968689000000000E-01      9.408203000000000E+00      1.693649000000000E-01     -1.698672000000000E+02
4937000000.000000      6.983032000000000E-01      9.309082000000000E+00      1.661758000000000E-01     -1.699141000000000E+02
4938000000.000000      6.998596000000000E-01      9.203613000000000E+00      1.621933000000000E-01     -1.696640000000000E+02
4939000000.000000      6.973572000000000E-01      9.210449000000000E+00      1.587830000000000E-01     -1.690703000000000E+02
4940000000.000000      7.014465000000000E-01      9.020996000000000E+00      1.550522000000000E-01     -1.687187000000000E+02
4941000000.000000      7.031860000000000E-01      8.993652000000000E+00      1.518478000000000E-01     -1.684687000000000E+02
4942000000.000000      7.005920000000000E-01      9.036133000000000E+00      1.476822000000000E-01     -1.681172000000000E+02
4943000000.000000      7.002563000000000E-01      8.985352000000000E+00      1.446609000000000E-01     -1.674062000000000E+02
4944000000.000000      7.038574000000000E-01      8.674805000000000E+00      1.414490000000000E-01     -1.668828000000000E+02
4945000000.000000      7.026978000000000E-01      8.618652000000000E+00      1.380997000000000E-01     -1.660234000000000E+02
4946000000.000000      7.019043000000000E-01      8.478516000000000E+00      1.347961000000000E-01     -1.653047000000000E+02
4947000000.000000      7.041931000000000E-01      8.309570000000000E+00      1.315002000000000E-01     -1.644375000000000E+02
4948000000.000000      7.044373000000000E-01      8.358887000000000E+00      1.287003000000000E-01     -1.634609000000000E+02
4949000000.000000      7.040405000000000E-01      8.233887000000000E+00      1.260910000000000E-01     -1.623594000000000E+02
4950000000.000000      7.054749000000000E-01      8.196777000000000E+00      1.230888000000000E-01     -1.612656000000000E+02
4951000000.000000      7.048950000000000E-01      8.067871000000000E+00      1.204605000000000E-01     -1.601797000000000E+02
4952000000.000000      7.036438000000000E-01      7.949951000000000E+00      1.179008000000000E-01     -1.588125000000000E+02
4953000000.000000      7.064819000000000E-01      7.907227000000000E+00      1.159401000000000E-01     -1.575156000000000E+02
4954000000.000000      7.083740000000000E-01      7.656006000000000E+00      1.139755000000000E-01     -1.561328000000000E+02
