! Network Analyzer HP8722D
! Hewlett-Packard
! Data name: Linha & Wilkinson
! Saver's name: Rodrigo Anjos
! Comments: Teste da utilização de aquisição
continua pelo VNA HP8722D
! Time and date: 22/5/2025 16:41
!              Frequency                     S11                                                   S21                                                   S12                                                   S22
# HZ  S  MA R 50
4800000000.000000      6.497498000000000E-01      1.100830000000000E+01      4.727173000000000E-01     -9.262110000000000E+01
4801000000.000000      6.476135000000000E-01      1.108350000000000E+01      4.724579000000000E-01     -9.333202000000000E+01
4802000000.000000      6.473389000000000E-01      1.097803000000000E+01      4.745636000000000E-01     -9.409765000000000E+01
4803000000.000000      6.449280000000000E-01      1.094336000000000E+01      4.790955000000000E-01     -9.473047000000000E+01
4804000000.000000      6.448364000000000E-01      1.079785000000000E+01      4.801636000000000E-01     -9.549219000000000E+01
4805000000.000000      6.444092000000000E-01      1.086914000000000E+01      4.821930000000000E-01     -9.627733000000000E+01
4806000000.000000      6.390991000000000E-01      1.088184000000000E+01      4.834900000000000E-01     -9.721874000000000E+01
4807000000.000000      6.374512000000000E-01      1.090234000000000E+01      4.837036000000000E-01     -9.805859000000000E+01
4808000000.000000      6.354980000000000E-01      1.093408000000000E+01      4.844055000000000E-01     -9.842968000000000E+01
4809000000.000000      6.356201000000000E-01      1.114941000000000E+01      4.870605000000000E-01     -9.946875000000000E+01
4810000000.000000      6.330566000000000E-01      1.108643000000000E+01      4.884186000000000E-01     -1.001484000000000E+02
4811000000.000000      6.318359000000000E-01      1.107959000000000E+01      4.887695000000000E-01     -1.008672000000000E+02
4812000000.000000      6.327209000000000E-01      1.116992000000000E+01      4.906006000000000E-01     -1.016836000000000E+02
4813000000.000000      6.302185000000000E-01      1.127441000000000E+01      4.912872000000000E-01     -1.023359000000000E+02
4814000000.000000      6.275330000000000E-01      1.111914000000000E+01      4.914551000000000E-01     -1.030859000000000E+02
4815000000.000000      6.275635000000000E-01      1.132373000000000E+01      4.930573000000000E-01     -1.038984000000000E+02
4816000000.000000      6.262512000000000E-01      1.143262000000000E+01      4.944153000000000E-01     -1.045430000000000E+02
4817000000.000000      6.243896000000000E-01      1.152979000000000E+01      4.936829000000000E-01     -1.054102000000000E+02
4818000000.000000      6.241150000000000E-01      1.162598000000000E+01      4.946442000000000E-01     -1.064141000000000E+02
4819000000.000000      6.215820000000000E-01      1.158350000000000E+01      4.953461000000000E-01     -1.068086000000000E+02
4820000000.000000      6.195374000000000E-01      1.178809000000000E+01      4.961853000000000E-01     -1.076015000000000E+02
4821000000.000000      6.208801000000000E-01      1.179785000000000E+01      4.967499000000000E-01     -1.084609000000000E+02
4822000000.000000      6.185608000000000E-01      1.198047000000000E+01      4.969940000000000E-01     -1.092148000000000E+02
4823000000.000000      6.185913000000000E-01      1.193506000000000E+01      4.972382000000000E-01     -1.098086000000000E+02
4824000000.000000      6.179504000000000E-01      1.222754000000000E+01      4.975739000000000E-01     -1.107305000000000E+02
4825000000.000000      6.168518000000000E-01      1.209863000000000E+01      4.967499000000000E-01     -1.113281000000000E+02
4826000000.000000      6.165771000000000E-01      1.225488000000000E+01      4.992828000000000E-01     -1.122852000000000E+02
4827000000.000000      6.161499000000000E-01      1.239502000000000E+01      4.983673000000000E-01     -1.129766000000000E+02
4828000000.000000      6.163940000000000E-01      1.261621000000000E+01      4.992065000000000E-01     -1.136367000000000E+02
4829000000.000000      6.143494000000000E-01      1.272607000000000E+01      5.010071000000000E-01     -1.144765000000000E+02
4830000000.000000      6.140747000000000E-01      1.268750000000000E+01      5.002136000000000E-01     -1.151250000000000E+02
4831000000.000000      6.146851000000000E-01      1.301855000000000E+01      4.988251000000000E-01     -1.159570000000000E+02
4832000000.000000      6.135254000000000E-01      1.300879000000000E+01      4.987640000000000E-01     -1.166250000000000E+02
4833000000.000000      6.125488000000000E-01      1.306250000000000E+01      4.993591000000000E-01     -1.172969000000000E+02
4834000000.000000      6.126404000000000E-01      1.326025000000000E+01      4.987030000000000E-01     -1.182813000000000E+02
4835000000.000000      6.126099000000000E-01      1.321240000000000E+01      4.989014000000000E-01     -1.191797000000000E+02
4836000000.000000      6.139832000000000E-01      1.353076000000000E+01      4.981384000000000E-01     -1.197422000000000E+02
4837000000.000000      6.139832000000000E-01      1.357471000000000E+01      4.965973000000000E-01     -1.205820000000000E+02
4838000000.000000      6.118469000000000E-01      1.388672000000000E+01      4.969025000000000E-01     -1.212383000000000E+02
4839000000.000000      6.172180000000000E-01      1.382178000000000E+01      4.967804000000000E-01     -1.220703000000000E+02
4840000000.000000      6.130371000000000E-01      1.381348000000000E+01      4.970856000000000E-01     -1.229609000000000E+02
4841000000.000000      6.160889000000000E-01      1.399072000000000E+01      4.966125000000000E-01     -1.236406000000000E+02
4842000000.000000      6.165771000000000E-01      1.387939000000000E+01      4.954376000000000E-01     -1.246211000000000E+02
4843000000.000000      6.187439000000000E-01      1.408447000000000E+01      4.955597000000000E-01     -1.256133000000000E+02
4844000000.000000      6.173706000000000E-01      1.415967000000000E+01      4.948883000000000E-01     -1.262383000000000E+02
4845000000.000000      6.178894000000000E-01      1.439453000000000E+01      4.937439000000000E-01     -1.270156000000000E+02
4846000000.000000      6.192627000000000E-01      1.430811000000000E+01      4.925690000000000E-01     -1.277891000000000E+02
4847000000.000000      6.206360000000000E-01      1.453320000000000E+01      4.901733000000000E-01     -1.284609000000000E+02
4848000000.000000      6.211548000000000E-01      1.454443000000000E+01      4.878540000000000E-01     -1.295312000000000E+02
4849000000.000000      6.196899000000000E-01      1.459375000000000E+01      4.875641000000000E-01     -1.303750000000000E+02
4850000000.000000      6.223145000000000E-01      1.449902000000000E+01      4.857178000000000E-01     -1.310625000000000E+02
4851000000.000000      6.235352000000000E-01      1.494922000000000E+01      4.851990000000000E-01     -1.321640000000000E+02
4852000000.000000      6.244202000000000E-01      1.475977000000000E+01      4.820709000000000E-01     -1.329531000000000E+02
4853000000.000000      6.234741000000000E-01      1.494238000000000E+01      4.793396000000000E-01     -1.336406000000000E+02
4854000000.000000      6.265869000000000E-01      1.488086000000000E+01      4.787292000000000E-01     -1.347031000000000E+02
4855000000.000000      6.265869000000000E-01      1.486035000000000E+01      4.752502000000000E-01     -1.355156000000000E+02
4856000000.000000      6.280823000000000E-01      1.488477000000000E+01      4.722595000000000E-01     -1.364219000000000E+02
4857000000.000000      6.317139000000000E-01      1.508691000000000E+01      4.701080000000000E-01     -1.370469000000000E+02
4858000000.000000      6.294556000000000E-01      1.496338000000000E+01      4.694672000000000E-01     -1.380781000000000E+02
4859000000.000000      6.309814000000000E-01      1.501270000000000E+01      4.664154000000000E-01     -1.390156000000000E+02
4860000000.000000      6.324158000000000E-01      1.510059000000000E+01      4.611053000000000E-01     -1.395391000000000E+02
4861000000.000000      6.337280000000000E-01      1.503174000000000E+01      4.591370000000000E-01     -1.407344000000000E+02
4862000000.000000      6.321106000000000E-01      1.509912000000000E+01      4.556427000000000E-01     -1.413281000000000E+02
4863000000.000000      6.372986000000000E-01      1.522119000000000E+01      4.518127000000000E-01     -1.423125000000000E+02
4864000000.000000      6.365967000000000E-01      1.519531000000000E+01      4.490967000000000E-01     -1.429609000000000E+02
4865000000.000000      6.390381000000000E-01      1.520605000000000E+01      4.449768000000000E-01     -1.437266000000000E+02
4866000000.000000      6.390991000000000E-01      1.504395000000000E+01      4.408112000000000E-01     -1.446016000000000E+02
4867000000.000000      6.383972000000000E-01      1.522266000000000E+01      4.374695000000000E-01     -1.454844000000000E+02
4868000000.000000      6.414490000000000E-01      1.504150000000000E+01      4.320679000000000E-01     -1.463438000000000E+02
4869000000.000000      6.445007000000000E-01      1.500146000000000E+01      4.288177000000000E-01     -1.470312000000000E+02
4870000000.000000      6.458435000000000E-01      1.516797000000000E+01      4.246368000000000E-01     -1.475234000000000E+02
4871000000.000000      6.439819000000000E-01      1.492480000000000E+01      4.216461000000000E-01     -1.483516000000000E+02
4872000000.000000      6.492004000000000E-01      1.501270000000000E+01      4.165649000000000E-01     -1.490234000000000E+02
4873000000.000000      6.482239000000000E-01      1.499219000000000E+01      4.121094000000000E-01     -1.497969000000000E+02
4874000000.000000      6.503601000000000E-01      1.491943000000000E+01      4.079285000000000E-01     -1.506016000000000E+02
4875000000.000000      6.513977000000000E-01      1.482568000000000E+01      4.042358000000000E-01     -1.510313000000000E+02
4876000000.000000      6.523132000000000E-01      1.497705000000000E+01      3.991852000000000E-01     -1.518594000000000E+02
4877000000.000000      6.527405000000000E-01      1.471729000000000E+01      3.958282000000000E-01     -1.525469000000000E+02
4878000000.000000      6.541748000000000E-01      1.469824000000000E+01      3.906250000000000E-01     -1.531875000000000E+02
4879000000.000000      6.551208000000000E-01      1.467334000000000E+01      3.859406000000000E-01     -1.534531000000000E+02
4880000000.000000      6.591492000000000E-01      1.464746000000000E+01      3.824768000000000E-01     -1.543281000000000E+02
4881000000.000000      6.590576000000000E-01      1.438232000000000E+01      3.787842000000000E-01     -1.547500000000000E+02
4882000000.000000      6.597595000000000E-01      1.456348000000000E+01      3.742371000000000E-01     -1.553672000000000E+02
4883000000.000000      6.614990000000000E-01      1.454980000000000E+01      3.686829000000000E-01     -1.559922000000000E+02
4884000000.000000      6.611938000000000E-01      1.441650000000000E+01      3.647156000000000E-01     -1.565078000000000E+02
4885000000.000000      6.651001000000000E-01      1.420654000000000E+01      3.606415000000000E-01     -1.569687000000000E+02
4886000000.000000      6.660461000000000E-01      1.438916000000000E+01      3.561554000000000E-01     -1.573203000000000E+02
4887000000.000000      6.662292000000000E-01      1.423926000000000E+01      3.522491000000000E-01     -1.578438000000000E+02
4888000000.000000      6.681824000000000E-01      1.403760000000000E+01      3.474426000000000E-01     -1.583750000000000E+02
4889000000.000000      6.684570000000000E-01      1.388232000000000E+01      3.428345000000000E-01     -1.587578000000000E+02
4890000000.000000      6.679382000000000E-01      1.378906000000000E+01      3.393402000000000E-01     -1.596719000000000E+02
4891000000.000000      6.689148000000000E-01      1.392773000000000E+01      3.346252000000000E-01     -1.598672000000000E+02
4892000000.000000      6.705627000000000E-01      1.373291000000000E+01      3.295135000000000E-01     -1.600547000000000E+02
4893000000.000000      6.726685000000000E-01      1.363672000000000E+01      3.265076000000000E-01     -1.606641000000000E+02
4894000000.000000      6.724243000000000E-01      1.359375000000000E+01      3.231812000000000E-01     -1.609844000000000E+02
4895000000.000000      6.753845000000000E-01      1.344824000000000E+01      3.192596000000000E-01     -1.614219000000000E+02
4896000000.000000      6.743164000000000E-01      1.328516000000000E+01      3.157806000000000E-01     -1.617109000000000E+02
4897000000.000000      6.746521000000000E-01      1.329443000000000E+01      3.113403000000000E-01     -1.620156000000000E+02
4898000000.000000      6.753235000000000E-01      1.337695000000000E+01      3.079529000000000E-01     -1.623203000000000E+02
4899000000.000000      6.771851000000000E-01      1.330273000000000E+01      3.037567000000000E-01     -1.628594000000000E+02
4900000000.000000      6.776428000000000E-01      1.290332000000000E+01      2.999115000000000E-01     -1.630625000000000E+02
4901000000.000000      6.798096000000000E-01      1.278809000000000E+01      2.962646000000000E-01     -1.634766000000000E+02
4902000000.000000      6.802979000000000E-01      1.288379000000000E+01      2.936096000000000E-01     -1.637109000000000E+02
4903000000.000000      6.809082000000000E-01      1.283447000000000E+01      2.890778000000000E-01     -1.641328000000000E+02
4904000000.000000      6.805420000000000E-01      1.257080000000000E+01      2.858124000000000E-01     -1.643984000000000E+02
4905000000.000000      6.817932000000000E-01      1.263672000000000E+01      2.826233000000000E-01     -1.649765000000000E+02
4906000000.000000      6.827087000000000E-01      1.260645000000000E+01      2.788086000000000E-01     -1.648203000000000E+02
4907000000.000000      6.831970000000000E-01      1.240869000000000E+01      2.760773000000000E-01     -1.654219000000000E+02
4908000000.000000      6.859131000000000E-01      1.218896000000000E+01      2.720184000000000E-01     -1.658516000000000E+02
4909000000.000000      6.842346000000000E-01      1.215186000000000E+01      2.685547000000000E-01     -1.660625000000000E+02
4910000000.000000      6.847839000000000E-01      1.216553000000000E+01      2.646790000000000E-01     -1.663594000000000E+02
4911000000.000000      6.849060000000000E-01      1.198877000000000E+01      2.619781000000000E-01     -1.666094000000000E+02
4912000000.000000      6.862488000000000E-01      1.181299000000000E+01      2.581635000000000E-01     -1.669297000000000E+02
4913000000.000000      6.872253000000000E-01      1.166992000000000E+01      2.543488000000000E-01     -1.673828000000000E+02
4914000000.000000      6.858521000000000E-01      1.151904000000000E+01      2.511444000000000E-01     -1.675547000000000E+02
4915000000.000000      6.890564000000000E-01      1.156006000000000E+01      2.474213000000000E-01     -1.678203000000000E+02
4916000000.000000      6.874084000000000E-01      1.150244000000000E+01      2.439499000000000E-01     -1.681562000000000E+02
4917000000.000000      6.892395000000000E-01      1.122803000000000E+01      2.403717000000000E-01     -1.685234000000000E+02
4918000000.000000      6.909485000000000E-01      1.108350000000000E+01      2.364655000000000E-01     -1.688594000000000E+02
4919000000.000000      6.889954000000000E-01      1.104492000000000E+01      2.328339000000000E-01     -1.686953000000000E+02
4920000000.000000      6.904907000000000E-01      1.091064000000000E+01      2.294006000000000E-01     -1.691484000000000E+02
4921000000.000000      6.913757000000000E-01      1.117139000000000E+01      2.262344000000000E-01     -1.692578000000000E+02
4922000000.000000      6.921387000000000E-01      1.082275000000000E+01      2.222443000000000E-01     -1.694531000000000E+02
4923000000.000000      6.925049000000000E-01      1.069922000000000E+01      2.178650000000000E-01     -1.697187000000000E+02
4924000000.000000      6.926270000000000E-01      1.079639000000000E+01      2.140808000000000E-01     -1.700547000000000E+02
4925000000.000000      6.931763000000000E-01      1.067285000000000E+01      2.103500000000000E-01     -1.701250000000000E+02
4926000000.000000      6.917419000000000E-01      1.058936000000000E+01      2.070313000000000E-01     -1.702031000000000E+02
4927000000.000000      6.926270000000000E-01      1.034180000000000E+01      2.033844000000000E-01     -1.704687000000000E+02
4928000000.000000      6.947021000000000E-01      1.019385000000000E+01      1.998138000000000E-01     -1.705000000000000E+02
4929000000.000000      6.948547000000000E-01      1.021973000000000E+01      1.957092000000000E-01     -1.704297000000000E+02
4930000000.000000      6.960144000000000E-01      9.990234000000000E+00      1.925735000000000E-01     -1.705234000000000E+02
4931000000.000000      6.965027000000000E-01      9.855957000000000E+00      1.886749000000000E-01     -1.705703000000000E+02
4932000000.000000      6.948547000000000E-01      9.925781000000000E+00      1.842422000000000E-01     -1.705234000000000E+02
4933000000.000000      6.956482000000000E-01      9.755859000000000E+00      1.799774000000000E-01     -1.703906000000000E+02
4934000000.000000      6.993713000000000E-01      9.611328000000000E+00      1.768799000000000E-01     -1.705469000000000E+02
4935000000.000000      6.979370000000000E-01      9.670410000000000E+00      1.738205000000000E-01     -1.702266000000000E+02
4936000000.000000      6.979065000000000E-01      9.446777000000000E+00      1.696472000000000E-01     -1.700469000000000E+02
4937000000.000000      6.985168000000000E-01      9.268066000000000E+00      1.656876000000000E-01     -1.699141000000000E+02
4938000000.000000      6.992493000000000E-01      9.350586000000000E+00      1.621704000000000E-01     -1.695000000000000E+02
4939000000.000000      6.970825000000000E-01      9.161133000000000E+00      1.586838000000000E-01     -1.691484000000000E+02
4940000000.000000      6.991272000000000E-01      9.075684000000000E+00      1.549377000000000E-01     -1.690312000000000E+02
4941000000.000000      7.012939000000000E-01      8.986816000000000E+00      1.516342000000000E-01     -1.684297000000000E+02
4942000000.000000      6.986084000000000E-01      8.830078000000000E+00      1.480408000000000E-01     -1.679688000000000E+02
4943000000.000000      7.025452000000000E-01      8.880859000000000E+00      1.445236000000000E-01     -1.673281000000000E+02
4944000000.000000      7.015991000000000E-01      8.556641000000000E+00      1.413345000000000E-01     -1.668750000000000E+02
4945000000.000000      7.015991000000000E-01      8.625488000000000E+00      1.375504000000000E-01     -1.660625000000000E+02
4946000000.000000      7.041321000000000E-01      8.526367000000000E+00      1.343536000000000E-01     -1.651562000000000E+02
4947000000.000000      7.036133000000000E-01      8.208008000000000E+00      1.317368000000000E-01     -1.644531000000000E+02
4948000000.000000      7.042542000000000E-01      8.367188000000000E+00      1.286697000000000E-01     -1.634766000000000E+02
4949000000.000000      7.023010000000000E-01      8.203613000000000E+00      1.255188000000000E-01     -1.622656000000000E+02
4950000000.000000      7.037964000000000E-01      8.283691000000000E+00      1.225281000000000E-01     -1.613047000000000E+02
4951000000.000000      7.062683000000000E-01      8.107910000000000E+00      1.206970000000000E-01     -1.603984000000000E+02
4952000000.000000      7.057800000000000E-01      7.885254000000000E+00      1.176949000000000E-01     -1.589531000000000E+02
4953000000.000000      7.064819000000000E-01      7.715088000000000E+00      1.159248000000000E-01     -1.575469000000000E+02
4954000000.000000      7.075195000000000E-01      7.754883000000000E+00      1.136436000000000E-01     -1.559922000000000E+02
