! Network Analyzer HP8722D
! Hewlett-Packard
! Data name: Linha & Wilkinson
! Saver's name: Rodrigo Anjos
! Comments: Teste da utilização de aquisição
continua pelo VNA HP8722D
! Time and date: 22/5/2025 11:42
!              Frequency                     S11                                                   S21                                                   S12                                                   S22
# HZ  S  MA R 50
4800000000.000000      6.510010000000000E-01      1.079248000000000E+01      4.720612000000000E-01     -9.249609000000000E+01
4801000000.000000      6.490784000000000E-01      1.085547000000000E+01      4.727631000000000E-01     -9.333202000000000E+01
4802000000.000000      6.491394000000000E-01      1.067041000000000E+01      4.734497000000000E-01     -9.382421000000000E+01
4803000000.000000      6.461487000000000E-01      1.077588000000000E+01      4.765625000000000E-01     -9.455469000000000E+01
4804000000.000000      6.448975000000000E-01      1.062891000000000E+01      4.772949000000000E-01     -9.535547000000000E+01
4805000000.000000      6.443787000000000E-01      1.071436000000000E+01      4.794312000000000E-01     -9.622265000000000E+01
4806000000.000000      6.419067000000000E-01      1.070068000000000E+01      4.822083000000000E-01     -9.692577000000000E+01
4807000000.000000      6.391907000000000E-01      1.062744000000000E+01      4.810791000000000E-01     -9.786718000000000E+01
4808000000.000000      6.359863000000000E-01      1.075830000000000E+01      4.839630000000000E-01     -9.842186000000000E+01
4809000000.000000      6.376953000000000E-01      1.088428000000000E+01      4.859467000000000E-01     -9.928905000000000E+01
4810000000.000000      6.336365000000000E-01      1.084863000000000E+01      4.880066000000000E-01     -9.998436000000000E+01
4811000000.000000      6.342468000000000E-01      1.082959000000000E+01      4.885254000000000E-01     -1.007422000000000E+02
4812000000.000000      6.340027000000000E-01      1.106836000000000E+01      4.891663000000000E-01     -1.013633000000000E+02
4813000000.000000      6.312866000000000E-01      1.098486000000000E+01      4.897308000000000E-01     -1.023555000000000E+02
4814000000.000000      6.281738000000000E-01      1.097119000000000E+01      4.922180000000000E-01     -1.031523000000000E+02
4815000000.000000      6.265869000000000E-01      1.107959000000000E+01      4.916840000000000E-01     -1.038984000000000E+02
4816000000.000000      6.261597000000000E-01      1.119482000000000E+01      4.936981000000000E-01     -1.044492000000000E+02
4817000000.000000      6.270447000000000E-01      1.123047000000000E+01      4.934082000000000E-01     -1.054258000000000E+02
4818000000.000000      6.243591000000000E-01      1.122217000000000E+01      4.944000000000000E-01     -1.061641000000000E+02
4819000000.000000      6.250916000000000E-01      1.144873000000000E+01      4.965363000000000E-01     -1.069023000000000E+02
4820000000.000000      6.211853000000000E-01      1.142969000000000E+01      4.975586000000000E-01     -1.074258000000000E+02
4821000000.000000      6.201782000000000E-01      1.156445000000000E+01      4.988861000000000E-01     -1.083125000000000E+02
4822000000.000000      6.197815000000000E-01      1.156836000000000E+01      4.953156000000000E-01     -1.090273000000000E+02
4823000000.000000      6.196899000000000E-01      1.149854000000000E+01      4.985199000000000E-01     -1.098867000000000E+02
4824000000.000000      6.181335000000000E-01      1.190771000000000E+01      4.974365000000000E-01     -1.105117000000000E+02
4825000000.000000      6.159363000000000E-01      1.207666000000000E+01      4.972534000000000E-01     -1.112148000000000E+02
4826000000.000000      6.169434000000000E-01      1.193506000000000E+01      4.996490000000000E-01     -1.121836000000000E+02
4827000000.000000      6.175232000000000E-01      1.208496000000000E+01      4.998322000000000E-01     -1.126914000000000E+02
4828000000.000000      6.157227000000000E-01      1.225781000000000E+01      4.992981000000000E-01     -1.134922000000000E+02
4829000000.000000      6.155396000000000E-01      1.244189000000000E+01      5.000916000000000E-01     -1.141094000000000E+02
4830000000.000000      6.146545000000000E-01      1.239648000000000E+01      5.007019000000000E-01     -1.150273000000000E+02
4831000000.000000      6.140137000000000E-01      1.264209000000000E+01      5.000916000000000E-01     -1.157695000000000E+02
4832000000.000000      6.127625000000000E-01      1.282373000000000E+01      4.986115000000000E-01     -1.166406000000000E+02
4833000000.000000      6.115417000000000E-01      1.271094000000000E+01      4.991150000000000E-01     -1.172852000000000E+02
4834000000.000000      6.133728000000000E-01      1.295654000000000E+01      4.978638000000000E-01     -1.180742000000000E+02
4835000000.000000      6.139221000000000E-01      1.295654000000000E+01      4.992065000000000E-01     -1.189023000000000E+02
4836000000.000000      6.118164000000000E-01      1.334521000000000E+01      4.966888000000000E-01     -1.194414000000000E+02
4837000000.000000      6.134644000000000E-01      1.327686000000000E+01      4.962311000000000E-01     -1.207265000000000E+02
4838000000.000000      6.131287000000000E-01      1.339209000000000E+01      4.980774000000000E-01     -1.209687000000000E+02
4839000000.000000      6.186218000000000E-01      1.369971000000000E+01      4.974060000000000E-01     -1.219531000000000E+02
4840000000.000000      6.151428000000000E-01      1.347021000000000E+01      4.977417000000000E-01     -1.227734000000000E+02
4841000000.000000      6.146545000000000E-01      1.380664000000000E+01      4.969788000000000E-01     -1.236211000000000E+02
4842000000.000000      6.168518000000000E-01      1.385498000000000E+01      4.961090000000000E-01     -1.244492000000000E+02
4843000000.000000      6.195068000000000E-01      1.370801000000000E+01      4.971313000000000E-01     -1.254102000000000E+02
4844000000.000000      6.174011000000000E-01      1.389893000000000E+01      4.924927000000000E-01     -1.260195000000000E+02
4845000000.000000      6.177368000000000E-01      1.399365000000000E+01      4.925385000000000E-01     -1.268594000000000E+02
4846000000.000000      6.201172000000000E-01      1.407471000000000E+01      4.919586000000000E-01     -1.278008000000000E+02
4847000000.000000      6.193237000000000E-01      1.415430000000000E+01      4.919128000000000E-01     -1.283828000000000E+02
4848000000.000000      6.192932000000000E-01      1.430420000000000E+01      4.893188000000000E-01     -1.292656000000000E+02
4849000000.000000      6.196899000000000E-01      1.432617000000000E+01      4.887695000000000E-01     -1.302187000000000E+02
4850000000.000000      6.224060000000000E-01      1.452930000000000E+01      4.867554000000000E-01     -1.310781000000000E+02
4851000000.000000      6.224670000000000E-01      1.466650000000000E+01      4.856110000000000E-01     -1.318750000000000E+02
4852000000.000000      6.250916000000000E-01      1.426807000000000E+01      4.837952000000000E-01     -1.327500000000000E+02
4853000000.000000      6.256409000000000E-01      1.476416000000000E+01      4.799042000000000E-01     -1.335078000000000E+02
4854000000.000000      6.257935000000000E-01      1.458154000000000E+01      4.782410000000000E-01     -1.346484000000000E+02
4855000000.000000      6.264343000000000E-01      1.462939000000000E+01      4.764862000000000E-01     -1.353672000000000E+02
4856000000.000000      6.285400000000000E-01      1.470361000000000E+01      4.731750000000000E-01     -1.362422000000000E+02
4857000000.000000      6.283264000000000E-01      1.480371000000000E+01      4.729309000000000E-01     -1.370391000000000E+02
4858000000.000000      6.302185000000000E-01      1.471729000000000E+01      4.704285000000000E-01     -1.377969000000000E+02
4859000000.000000      6.306458000000000E-01      1.472168000000000E+01      4.671783000000000E-01     -1.389609000000000E+02
4860000000.000000      6.305237000000000E-01      1.483838000000000E+01      4.634552000000000E-01     -1.393516000000000E+02
4861000000.000000      6.348572000000000E-01      1.471045000000000E+01      4.592133000000000E-01     -1.405313000000000E+02
4862000000.000000      6.337891000000000E-01      1.464746000000000E+01      4.574738000000000E-01     -1.411016000000000E+02
4863000000.000000      6.374207000000000E-01      1.490283000000000E+01      4.534454000000000E-01     -1.422578000000000E+02
4864000000.000000      6.373901000000000E-01      1.474756000000000E+01      4.504242000000000E-01     -1.428047000000000E+02
4865000000.000000      6.406555000000000E-01      1.494385000000000E+01      4.468994000000000E-01     -1.436563000000000E+02
4866000000.000000      6.384277000000000E-01      1.491797000000000E+01      4.427948000000000E-01     -1.444297000000000E+02
4867000000.000000      6.398621000000000E-01      1.480518000000000E+01      4.378052000000000E-01     -1.455547000000000E+02
4868000000.000000      6.401062000000000E-01      1.478857000000000E+01      4.348755000000000E-01     -1.461328000000000E+02
4869000000.000000      6.435242000000000E-01      1.477490000000000E+01      4.320984000000000E-01     -1.469531000000000E+02
4870000000.000000      6.427002000000000E-01      1.467480000000000E+01      4.256744000000000E-01     -1.473984000000000E+02
4871000000.000000      6.448975000000000E-01      1.469971000000000E+01      4.229736000000000E-01     -1.483750000000000E+02
4872000000.000000      6.488647000000000E-01      1.466113000000000E+01      4.177704000000000E-01     -1.489531000000000E+02
4873000000.000000      6.491394000000000E-01      1.461572000000000E+01      4.142456000000000E-01     -1.499766000000000E+02
4874000000.000000      6.492920000000000E-01      1.461963000000000E+01      4.090118000000000E-01     -1.506406000000000E+02
4875000000.000000      6.513672000000000E-01      1.452637000000000E+01      4.048615000000000E-01     -1.510859000000000E+02
4876000000.000000      6.519165000000000E-01      1.469971000000000E+01      4.015045000000000E-01     -1.516562000000000E+02
4877000000.000000      6.534424000000000E-01      1.437402000000000E+01      3.961334000000000E-01     -1.526953000000000E+02
4878000000.000000      6.545105000000000E-01      1.448779000000000E+01      3.933716000000000E-01     -1.529687000000000E+02
4879000000.000000      6.582336000000000E-01      1.447021000000000E+01      3.871460000000000E-01     -1.535703000000000E+02
4880000000.000000      6.578979000000000E-01      1.439063000000000E+01      3.835907000000000E-01     -1.540625000000000E+02
4881000000.000000      6.571655000000000E-01      1.446729000000000E+01      3.788605000000000E-01     -1.545625000000000E+02
4882000000.000000      6.618347000000000E-01      1.433008000000000E+01      3.748779000000000E-01     -1.555547000000000E+02
4883000000.000000      6.623535000000000E-01      1.426416000000000E+01      3.695679000000000E-01     -1.560156000000000E+02
4884000000.000000      6.616211000000000E-01      1.439453000000000E+01      3.657532000000000E-01     -1.566094000000000E+02
4885000000.000000      6.636963000000000E-01      1.414307000000000E+01      3.616791000000000E-01     -1.567891000000000E+02
4886000000.000000      6.650391000000000E-01      1.411865000000000E+01      3.582764000000000E-01     -1.572422000000000E+02
4887000000.000000      6.663513000000000E-01      1.399756000000000E+01      3.536224000000000E-01     -1.579141000000000E+02
4888000000.000000      6.673889000000000E-01      1.368164000000000E+01      3.491058000000000E-01     -1.584063000000000E+02
4889000000.000000      6.685791000000000E-01      1.377246000000000E+01      3.441010000000000E-01     -1.585938000000000E+02
4890000000.000000      6.687622000000000E-01      1.370654000000000E+01      3.398438000000000E-01     -1.595625000000000E+02
4891000000.000000      6.693726000000000E-01      1.373975000000000E+01      3.357239000000000E-01     -1.596719000000000E+02
4892000000.000000      6.694031000000000E-01      1.358008000000000E+01      3.314056000000000E-01     -1.600703000000000E+02
4893000000.000000      6.729431000000000E-01      1.362402000000000E+01      3.288116000000000E-01     -1.606641000000000E+02
4894000000.000000      6.734009000000000E-01      1.333008000000000E+01      3.235779000000000E-01     -1.610234000000000E+02
4895000000.000000      6.753540000000000E-01      1.328906000000000E+01      3.215942000000000E-01     -1.613672000000000E+02
4896000000.000000      6.738281000000000E-01      1.308154000000000E+01      3.165436000000000E-01     -1.617344000000000E+02
4897000000.000000      6.761475000000000E-01      1.314063000000000E+01      3.117828000000000E-01     -1.622656000000000E+02
4898000000.000000      6.760559000000000E-01      1.311328000000000E+01      3.094025000000000E-01     -1.622890000000000E+02
4899000000.000000      6.771851000000000E-01      1.312988000000000E+01      3.058472000000000E-01     -1.628906000000000E+02
4900000000.000000      6.786804000000000E-01      1.281396000000000E+01      3.017578000000000E-01     -1.631641000000000E+02
4901000000.000000      6.791382000000000E-01      1.272217000000000E+01      2.977295000000000E-01     -1.635625000000000E+02
4902000000.000000      6.800842000000000E-01      1.261328000000000E+01      2.949677000000000E-01     -1.637656000000000E+02
4903000000.000000      6.813660000000000E-01      1.254199000000000E+01      2.907715000000000E-01     -1.641875000000000E+02
4904000000.000000      6.821289000000000E-01      1.247070000000000E+01      2.871552000000000E-01     -1.646328000000000E+02
4905000000.000000      6.825256000000000E-01      1.230859000000000E+01      2.848816000000000E-01     -1.648750000000000E+02
4906000000.000000      6.834106000000000E-01      1.218213000000000E+01      2.799530000000000E-01     -1.650000000000000E+02
4907000000.000000      6.829224000000000E-01      1.223291000000000E+01      2.774353000000000E-01     -1.655781000000000E+02
4908000000.000000      6.839600000000000E-01      1.193213000000000E+01      2.738800000000000E-01     -1.659453000000000E+02
4909000000.000000      6.823425000000000E-01      1.199561000000000E+01      2.697296000000000E-01     -1.661797000000000E+02
4910000000.000000      6.856079000000000E-01      1.207227000000000E+01      2.666016000000000E-01     -1.665469000000000E+02
4911000000.000000      6.854553000000000E-01      1.187061000000000E+01      2.630157000000000E-01     -1.667500000000000E+02
4912000000.000000      6.854858000000000E-01      1.170410000000000E+01      2.593536000000000E-01     -1.672578000000000E+02
4913000000.000000      6.875000000000000E-01      1.139111000000000E+01      2.557831000000000E-01     -1.674609000000000E+02
4914000000.000000      6.873169000000000E-01      1.141846000000000E+01      2.527466000000000E-01     -1.675469000000000E+02
4915000000.000000      6.884155000000000E-01      1.148438000000000E+01      2.487717000000000E-01     -1.681641000000000E+02
4916000000.000000      6.887512000000000E-01      1.122070000000000E+01      2.450562000000000E-01     -1.682109000000000E+02
4917000000.000000      6.894836000000000E-01      1.112744000000000E+01      2.419128000000000E-01     -1.685000000000000E+02
4918000000.000000      6.904907000000000E-01      1.112207000000000E+01      2.381058000000000E-01     -1.688516000000000E+02
4919000000.000000      6.896362000000000E-01      1.101221000000000E+01      2.344284000000000E-01     -1.688516000000000E+02
4920000000.000000      6.888123000000000E-01      1.072656000000000E+01      2.306442000000000E-01     -1.695000000000000E+02
4921000000.000000      6.906128000000000E-01      1.084180000000000E+01      2.278214000000000E-01     -1.693828000000000E+02
4922000000.000000      6.921997000000000E-01      1.069922000000000E+01      2.240982000000000E-01     -1.697187000000000E+02
4923000000.000000      6.931152000000000E-01      1.052197000000000E+01      2.192993000000000E-01     -1.699453000000000E+02
4924000000.000000      6.924438000000000E-01      1.056055000000000E+01      2.160110000000000E-01     -1.702031000000000E+02
4925000000.000000      6.944885000000000E-01      1.024463000000000E+01      2.122574000000000E-01     -1.703984000000000E+02
4926000000.000000      6.939392000000000E-01      1.026660000000000E+01      2.089920000000000E-01     -1.704062000000000E+02
4927000000.000000      6.944580000000000E-01      1.022656000000000E+01      2.042084000000000E-01     -1.706172000000000E+02
4928000000.000000      6.961975000000000E-01      1.006201000000000E+01      2.016296000000000E-01     -1.706172000000000E+02
4929000000.000000      6.964111000000000E-01      9.918945000000000E+00      1.970596000000000E-01     -1.707813000000000E+02
4930000000.000000      6.948853000000000E-01      9.759766000000000E+00      1.935501000000000E-01     -1.708828000000000E+02
4931000000.000000      6.972351000000000E-01      9.724121000000000E+00      1.899185000000000E-01     -1.708281000000000E+02
4932000000.000000      6.968079000000000E-01      9.681641000000000E+00      1.861038000000000E-01     -1.709297000000000E+02
4933000000.000000      6.954346000000000E-01      9.515137000000000E+00      1.816406000000000E-01     -1.706250000000000E+02
4934000000.000000      6.977539000000000E-01      9.446777000000000E+00      1.781540000000000E-01     -1.708594000000000E+02
4935000000.000000      7.009888000000000E-01      9.299805000000000E+00      1.751938000000000E-01     -1.705000000000000E+02
4936000000.000000      6.979065000000000E-01      9.342285000000000E+00      1.710510000000000E-01     -1.703672000000000E+02
4937000000.000000      7.006531000000000E-01      9.018066000000000E+00      1.672134000000000E-01     -1.702500000000000E+02
4938000000.000000      7.000732000000000E-01      9.207520000000000E+00      1.634445000000000E-01     -1.699141000000000E+02
4939000000.000000      6.991272000000000E-01      9.020996000000000E+00      1.599808000000000E-01     -1.695937000000000E+02
4940000000.000000      7.005005000000000E-01      8.908203000000000E+00      1.557922000000000E-01     -1.694922000000000E+02
4941000000.000000      7.005615000000000E-01      8.736816000000000E+00      1.528320000000000E-01     -1.688047000000000E+02
4942000000.000000      6.995850000000000E-01      8.862793000000000E+00      1.490097000000000E-01     -1.685234000000000E+02
4943000000.000000      7.008057000000000E-01      8.677734000000000E+00      1.455536000000000E-01     -1.678125000000000E+02
4944000000.000000      7.013855000000000E-01      8.541504000000000E+00      1.424255000000000E-01     -1.672109000000000E+02
4945000000.000000      7.023926000000000E-01      8.350586000000000E+00      1.385651000000000E-01     -1.665234000000000E+02
4946000000.000000      7.041321000000000E-01      8.345215000000000E+00      1.357346000000000E-01     -1.657422000000000E+02
4947000000.000000      7.016907000000000E-01      8.246582000000000E+00      1.320877000000000E-01     -1.649453000000000E+02
4948000000.000000      7.069092000000000E-01      8.196777000000000E+00      1.296463000000000E-01     -1.641953000000000E+02
4949000000.000000      7.026672000000000E-01      8.144531000000000E+00      1.269836000000000E-01     -1.630781000000000E+02
4950000000.000000      7.058105000000000E-01      7.904541000000000E+00      1.236496000000000E-01     -1.620703000000000E+02
4951000000.000000      7.049561000000000E-01      7.853760000000000E+00      1.214142000000000E-01     -1.610078000000000E+02
4952000000.000000      7.071838000000000E-01      7.812500000000000E+00      1.184273000000000E-01     -1.595781000000000E+02
4953000000.000000      7.060852000000000E-01      7.649170000000000E+00      1.161423000000000E-01     -1.579609000000000E+02
4954000000.000000      7.065430000000000E-01      7.563965000000000E+00      1.140594000000000E-01     -1.569141000000000E+02
