! Network Analyzer HP8722D
! Hewlett-Packard
! Data name: Linha & Wilkinson
! Saver's name: Rodrigo Anjos
! Comments: Teste da utilização de aquisição
continua pelo VNA HP8722D
! Time and date: 22/5/2025 16:06
!              Frequency                     S11                                                   S21                                                   S12                                                   S22
# HZ  S  MA R 50
4800000000.000000      6.520386000000000E-01      1.085840000000000E+01      4.712067000000000E-01     -9.242579000000000E+01
4801000000.000000      6.487732000000000E-01      1.099707000000000E+01      4.729919000000000E-01     -9.310156000000000E+01
4802000000.000000      6.479187000000000E-01      1.101514000000000E+01      4.747620000000000E-01     -9.380468000000000E+01
4803000000.000000      6.458435000000000E-01      1.095459000000000E+01      4.759521000000000E-01     -9.456640000000000E+01
4804000000.000000      6.461792000000000E-01      1.090527000000000E+01      4.793549000000000E-01     -9.516796000000000E+01
4805000000.000000      6.439819000000000E-01      1.100537000000000E+01      4.792328000000000E-01     -9.619921000000000E+01
4806000000.000000      6.409607000000000E-01      1.102734000000000E+01      4.813080000000000E-01     -9.682812000000000E+01
4807000000.000000      6.371765000000000E-01      1.090088000000000E+01      4.832458000000000E-01     -9.782812000000000E+01
4808000000.000000      6.366577000000000E-01      1.095996000000000E+01      4.859314000000000E-01     -9.821875000000000E+01
4809000000.000000      6.363525000000000E-01      1.104492000000000E+01      4.858856000000000E-01     -9.908983000000000E+01
4810000000.000000      6.355286000000000E-01      1.092725000000000E+01      4.888458000000000E-01     -9.982031000000000E+01
4811000000.000000      6.337891000000000E-01      1.103027000000000E+01      4.888611000000000E-01     -1.006758000000000E+02
4812000000.000000      6.339722000000000E-01      1.126611000000000E+01      4.910126000000000E-01     -1.014219000000000E+02
4813000000.000000      6.298828000000000E-01      1.121289000000000E+01      4.921265000000000E-01     -1.022148000000000E+02
4814000000.000000      6.296082000000000E-01      1.123047000000000E+01      4.923706000000000E-01     -1.029453000000000E+02
4815000000.000000      6.288147000000000E-01      1.132373000000000E+01      4.934082000000000E-01     -1.035234000000000E+02
4816000000.000000      6.275940000000000E-01      1.140234000000000E+01      4.947510000000000E-01     -1.045547000000000E+02
4817000000.000000      6.240234000000000E-01      1.144629000000000E+01      4.950409000000000E-01     -1.051523000000000E+02
4818000000.000000      6.247253000000000E-01      1.147900000000000E+01      4.952240000000000E-01     -1.059101000000000E+02
4819000000.000000      6.248169000000000E-01      1.165918000000000E+01      4.967041000000000E-01     -1.067695000000000E+02
4820000000.000000      6.211243000000000E-01      1.174121000000000E+01      4.953308000000000E-01     -1.073359000000000E+02
4821000000.000000      6.208496000000000E-01      1.178125000000000E+01      4.970551000000000E-01     -1.082344000000000E+02
4822000000.000000      6.202698000000000E-01      1.168945000000000E+01      4.959869000000000E-01     -1.088750000000000E+02
4823000000.000000      6.203308000000000E-01      1.186914000000000E+01      4.978485000000000E-01     -1.097109000000000E+02
4824000000.000000      6.160583000000000E-01      1.198975000000000E+01      4.981689000000000E-01     -1.103516000000000E+02
4825000000.000000      6.159973000000000E-01      1.211914000000000E+01      4.980927000000000E-01     -1.111562000000000E+02
4826000000.000000      6.168823000000000E-01      1.211914000000000E+01      5.002136000000000E-01     -1.121016000000000E+02
4827000000.000000      6.159668000000000E-01      1.225928000000000E+01      4.985657000000000E-01     -1.124687000000000E+02
4828000000.000000      6.170349000000000E-01      1.239111000000000E+01      5.002747000000000E-01     -1.132813000000000E+02
4829000000.000000      6.150818000000000E-01      1.256543000000000E+01      4.988708000000000E-01     -1.141484000000000E+02
4830000000.000000      6.163940000000000E-01      1.267920000000000E+01      4.985046000000000E-01     -1.149844000000000E+02
4831000000.000000      6.132813000000000E-01      1.285645000000000E+01      5.001526000000000E-01     -1.158047000000000E+02
4832000000.000000      6.130676000000000E-01      1.293604000000000E+01      4.989777000000000E-01     -1.164297000000000E+02
4833000000.000000      6.134033000000000E-01      1.292676000000000E+01      4.979706000000000E-01     -1.170547000000000E+02
4834000000.000000      6.128540000000000E-01      1.325195000000000E+01      4.994202000000000E-01     -1.179375000000000E+02
4835000000.000000      6.126099000000000E-01      1.324951000000000E+01      4.997864000000000E-01     -1.188398000000000E+02
4836000000.000000      6.135254000000000E-01      1.327246000000000E+01      4.981384000000000E-01     -1.193945000000000E+02
4837000000.000000      6.134338000000000E-01      1.359131000000000E+01      4.975433000000000E-01     -1.205000000000000E+02
4838000000.000000      6.136169000000000E-01      1.364746000000000E+01      4.988708000000000E-01     -1.209023000000000E+02
4839000000.000000      6.160583000000000E-01      1.387939000000000E+01      4.985199000000000E-01     -1.219336000000000E+02
4840000000.000000      6.151733000000000E-01      1.350488000000000E+01      4.971161000000000E-01     -1.228125000000000E+02
4841000000.000000      6.159668000000000E-01      1.416260000000000E+01      4.966278000000000E-01     -1.235195000000000E+02
4842000000.000000      6.160278000000000E-01      1.407178000000000E+01      4.977722000000000E-01     -1.242930000000000E+02
4843000000.000000      6.176758000000000E-01      1.404736000000000E+01      4.969635000000000E-01     -1.251719000000000E+02
4844000000.000000      6.162415000000000E-01      1.404590000000000E+01      4.925690000000000E-01     -1.258516000000000E+02
4845000000.000000      6.195984000000000E-01      1.429980000000000E+01      4.945984000000000E-01     -1.268476000000000E+02
4846000000.000000      6.184998000000000E-01      1.441943000000000E+01      4.928741000000000E-01     -1.276601000000000E+02
4847000000.000000      6.210632000000000E-01      1.455811000000000E+01      4.918518000000000E-01     -1.284688000000000E+02
4848000000.000000      6.184692000000000E-01      1.439893000000000E+01      4.908142000000000E-01     -1.293672000000000E+02
4849000000.000000      6.195984000000000E-01      1.447412000000000E+01      4.890289000000000E-01     -1.299922000000000E+02
4850000000.000000      6.208801000000000E-01      1.449609000000000E+01      4.857483000000000E-01     -1.310156000000000E+02
4851000000.000000      6.219482000000000E-01      1.479541000000000E+01      4.859619000000000E-01     -1.317422000000000E+02
4852000000.000000      6.253357000000000E-01      1.463916000000000E+01      4.836426000000000E-01     -1.326953000000000E+02
4853000000.000000      6.256104000000000E-01      1.485742000000000E+01      4.804230000000000E-01     -1.335938000000000E+02
4854000000.000000      6.262207000000000E-01      1.491797000000000E+01      4.783783000000000E-01     -1.345156000000000E+02
4855000000.000000      6.275024000000000E-01      1.487646000000000E+01      4.758148000000000E-01     -1.354141000000000E+02
4856000000.000000      6.283569000000000E-01      1.484619000000000E+01      4.755096000000000E-01     -1.360703000000000E+02
4857000000.000000      6.298523000000000E-01      1.505664000000000E+01      4.733582000000000E-01     -1.367734000000000E+02
4858000000.000000      6.300659000000000E-01      1.507422000000000E+01      4.697876000000000E-01     -1.377344000000000E+02
4859000000.000000      6.311951000000000E-01      1.501270000000000E+01      4.673462000000000E-01     -1.386875000000000E+02
4860000000.000000      6.331787000000000E-01      1.520508000000000E+01      4.635162000000000E-01     -1.394922000000000E+02
4861000000.000000      6.322021000000000E-01      1.511963000000000E+01      4.604492000000000E-01     -1.403359000000000E+02
4862000000.000000      6.325073000000000E-01      1.503857000000000E+01      4.577332000000000E-01     -1.411250000000000E+02
4863000000.000000      6.366272000000000E-01      1.508008000000000E+01      4.523926000000000E-01     -1.419688000000000E+02
4864000000.000000      6.361694000000000E-01      1.513184000000000E+01      4.502563000000000E-01     -1.428203000000000E+02
4865000000.000000      6.372070000000000E-01      1.508105000000000E+01      4.457855000000000E-01     -1.434453000000000E+02
4866000000.000000      6.377258000000000E-01      1.496045000000000E+01      4.426117000000000E-01     -1.444766000000000E+02
4867000000.000000      6.380615000000000E-01      1.512793000000000E+01      4.383087000000000E-01     -1.453203000000000E+02
4868000000.000000      6.404419000000000E-01      1.487402000000000E+01      4.355011000000000E-01     -1.460703000000000E+02
4869000000.000000      6.421204000000000E-01      1.515967000000000E+01      4.323883000000000E-01     -1.468203000000000E+02
4870000000.000000      6.440125000000000E-01      1.514844000000000E+01      4.262085000000000E-01     -1.473516000000000E+02
4871000000.000000      6.440430000000000E-01      1.486719000000000E+01      4.230499000000000E-01     -1.482891000000000E+02
4872000000.000000      6.472168000000000E-01      1.495361000000000E+01      4.179077000000000E-01     -1.488516000000000E+02
4873000000.000000      6.480103000000000E-01      1.491650000000000E+01      4.138336000000000E-01     -1.497734000000000E+02
4874000000.000000      6.506042000000000E-01      1.471338000000000E+01      4.089203000000000E-01     -1.503906000000000E+02
4875000000.000000      6.509399000000000E-01      1.486133000000000E+01      4.044952000000000E-01     -1.510234000000000E+02
4876000000.000000      6.511536000000000E-01      1.491211000000000E+01      4.019012000000000E-01     -1.516016000000000E+02
4877000000.000000      6.529541000000000E-01      1.486133000000000E+01      3.970795000000000E-01     -1.523672000000000E+02
4878000000.000000      6.542664000000000E-01      1.476416000000000E+01      3.922272000000000E-01     -1.529375000000000E+02
4879000000.000000      6.562805000000000E-01      1.472412000000000E+01      3.865967000000000E-01     -1.532812000000000E+02
4880000000.000000      6.565247000000000E-01      1.444824000000000E+01      3.826141000000000E-01     -1.539219000000000E+02
4881000000.000000      6.575012000000000E-01      1.461035000000000E+01      3.787537000000000E-01     -1.545000000000000E+02
4882000000.000000      6.591187000000000E-01      1.460352000000000E+01      3.751984000000000E-01     -1.553203000000000E+02
4883000000.000000      6.604004000000000E-01      1.441260000000000E+01      3.699341000000000E-01     -1.556875000000000E+02
4884000000.000000      6.612854000000000E-01      1.443457000000000E+01      3.659668000000000E-01     -1.565859000000000E+02
4885000000.000000      6.649170000000000E-01      1.438623000000000E+01      3.612366000000000E-01     -1.566719000000000E+02
4886000000.000000      6.643982000000000E-01      1.427393000000000E+01      3.566284000000000E-01     -1.570781000000000E+02
4887000000.000000      6.654663000000000E-01      1.417236000000000E+01      3.533325000000000E-01     -1.577891000000000E+02
4888000000.000000      6.666565000000000E-01      1.392920000000000E+01      3.492889000000000E-01     -1.584141000000000E+02
4889000000.000000      6.664124000000000E-01      1.393604000000000E+01      3.445129000000000E-01     -1.587344000000000E+02
4890000000.000000      6.677551000000000E-01      1.405957000000000E+01      3.390808000000000E-01     -1.592578000000000E+02
4891000000.000000      6.698303000000000E-01      1.394287000000000E+01      3.351898000000000E-01     -1.598516000000000E+02
4892000000.000000      6.711731000000000E-01      1.374658000000000E+01      3.318634000000000E-01     -1.599766000000000E+02
4893000000.000000      6.724548000000000E-01      1.377783000000000E+01      3.277130000000000E-01     -1.605781000000000E+02
4894000000.000000      6.741638000000000E-01      1.355811000000000E+01      3.230896000000000E-01     -1.607734000000000E+02
4895000000.000000      6.730957000000000E-01      1.340576000000000E+01      3.221130000000000E-01     -1.612266000000000E+02
4896000000.000000      6.759949000000000E-01      1.329736000000000E+01      3.165283000000000E-01     -1.616641000000000E+02
4897000000.000000      6.745300000000000E-01      1.330566000000000E+01      3.122253000000000E-01     -1.619844000000000E+02
4898000000.000000      6.775818000000000E-01      1.322852000000000E+01      3.092041000000000E-01     -1.623203000000000E+02
4899000000.000000      6.760864000000000E-01      1.331934000000000E+01      3.052826000000000E-01     -1.628125000000000E+02
4900000000.000000      6.773682000000000E-01      1.303369000000000E+01      3.016815000000000E-01     -1.630547000000000E+02
4901000000.000000      6.782532000000000E-01      1.293604000000000E+01      2.974548000000000E-01     -1.633047000000000E+02
4902000000.000000      6.797180000000000E-01      1.298438000000000E+01      2.947083000000000E-01     -1.636953000000000E+02
4903000000.000000      6.812744000000000E-01      1.288525000000000E+01      2.899780000000000E-01     -1.639688000000000E+02
4904000000.000000      6.824951000000000E-01      1.261084000000000E+01      2.874146000000000E-01     -1.644297000000000E+02
4905000000.000000      6.799622000000000E-01      1.254199000000000E+01      2.840271000000000E-01     -1.647344000000000E+02
4906000000.000000      6.805420000000000E-01      1.238672000000000E+01      2.794342000000000E-01     -1.648281000000000E+02
4907000000.000000      6.843567000000000E-01      1.243896000000000E+01      2.767792000000000E-01     -1.655313000000000E+02
4908000000.000000      6.853638000000000E-01      1.206152000000000E+01      2.736359000000000E-01     -1.658828000000000E+02
4909000000.000000      6.839294000000000E-01      1.216699000000000E+01      2.690430000000000E-01     -1.660234000000000E+02
4910000000.000000      6.852722000000000E-01      1.208594000000000E+01      2.660980000000000E-01     -1.663516000000000E+02
4911000000.000000      6.879578000000000E-01      1.200635000000000E+01      2.630157000000000E-01     -1.665703000000000E+02
4912000000.000000      6.856384000000000E-01      1.185547000000000E+01      2.595520000000000E-01     -1.670859000000000E+02
4913000000.000000      6.872253000000000E-01      1.165625000000000E+01      2.559357000000000E-01     -1.673125000000000E+02
4914000000.000000      6.862488000000000E-01      1.161084000000000E+01      2.524414000000000E-01     -1.675078000000000E+02
4915000000.000000      6.878662000000000E-01      1.151074000000000E+01      2.483749000000000E-01     -1.679688000000000E+02
4916000000.000000      6.898804000000000E-01      1.155322000000000E+01      2.455063000000000E-01     -1.682656000000000E+02
4917000000.000000      6.883240000000000E-01      1.122803000000000E+01      2.418518000000000E-01     -1.684687000000000E+02
4918000000.000000      6.892395000000000E-01      1.128662000000000E+01      2.381668000000000E-01     -1.687344000000000E+02
4919000000.000000      6.873779000000000E-01      1.122217000000000E+01      2.346115000000000E-01     -1.687109000000000E+02
4920000000.000000      6.916504000000000E-01      1.102051000000000E+01      2.305298000000000E-01     -1.692109000000000E+02
4921000000.000000      6.932068000000000E-01      1.098193000000000E+01      2.270737000000000E-01     -1.693828000000000E+02
4922000000.000000      6.918030000000000E-01      1.083252000000000E+01      2.237930000000000E-01     -1.694062000000000E+02
4923000000.000000      6.912537000000000E-01      1.092725000000000E+01      2.198257000000000E-01     -1.696719000000000E+02
4924000000.000000      6.916504000000000E-01      1.073047000000000E+01      2.153549000000000E-01     -1.701172000000000E+02
4925000000.000000      6.919861000000000E-01      1.037500000000000E+01      2.122421000000000E-01     -1.700391000000000E+02
4926000000.000000      6.920776000000000E-01      1.042188000000000E+01      2.086334000000000E-01     -1.702422000000000E+02
4927000000.000000      6.930847000000000E-01      1.036377000000000E+01      2.045288000000000E-01     -1.706172000000000E+02
4928000000.000000      6.951294000000000E-01      1.015918000000000E+01      2.006836000000000E-01     -1.704453000000000E+02
4929000000.000000      6.938171000000000E-01      1.019385000000000E+01      1.968384000000000E-01     -1.706016000000000E+02
4930000000.000000      6.938171000000000E-01      1.029248000000000E+01      1.935196000000000E-01     -1.707500000000000E+02
4931000000.000000      6.981812000000000E-01      9.908203000000000E+00      1.899338000000000E-01     -1.708047000000000E+02
4932000000.000000      6.970215000000000E-01      9.880371000000000E+00      1.861496000000000E-01     -1.707344000000000E+02
4933000000.000000      6.966248000000000E-01      9.833984000000000E+00      1.810837000000000E-01     -1.705000000000000E+02
4934000000.000000      7.003174000000000E-01      9.681641000000000E+00      1.774979000000000E-01     -1.706563000000000E+02
4935000000.000000      6.995239000000000E-01      9.472656000000000E+00      1.745224000000000E-01     -1.702891000000000E+02
4936000000.000000      6.971436000000000E-01      9.625000000000000E+00      1.710968000000000E-01     -1.701797000000000E+02
4937000000.000000      6.992493000000000E-01      9.265137000000000E+00      1.668091000000000E-01     -1.700469000000000E+02
4938000000.000000      6.953125000000000E-01      9.240723000000000E+00      1.635590000000000E-01     -1.697500000000000E+02
4939000000.000000      6.994019000000000E-01      9.206543000000000E+00      1.594315000000000E-01     -1.693828000000000E+02
4940000000.000000      7.005920000000000E-01      9.250488000000000E+00      1.555557000000000E-01     -1.693906000000000E+02
4941000000.000000      7.008972000000000E-01      9.007324000000000E+00      1.520081000000000E-01     -1.687344000000000E+02
4942000000.000000      7.007446000000000E-01      8.898926000000000E+00      1.483612000000000E-01     -1.682969000000000E+02
4943000000.000000      6.996460000000000E-01      8.821777000000000E+00      1.456909000000000E-01     -1.677344000000000E+02
4944000000.000000      7.006836000000000E-01      8.651367000000000E+00      1.418457000000000E-01     -1.670234000000000E+02
4945000000.000000      7.005310000000000E-01      8.559570000000000E+00      1.386871000000000E-01     -1.663906000000000E+02
4946000000.000000      7.038574000000000E-01      8.429199000000000E+00      1.353683000000000E-01     -1.657891000000000E+02
4947000000.000000      7.032471000000000E-01      8.313477000000000E+00      1.321793000000000E-01     -1.646797000000000E+02
4948000000.000000      7.047119000000000E-01      8.365723000000000E+00      1.293793000000000E-01     -1.638515000000000E+02
4949000000.000000      7.032776000000000E-01      8.269531000000000E+00      1.265182000000000E-01     -1.626250000000000E+02
4950000000.000000      7.073059000000000E-01      8.211914000000000E+00      1.233177000000000E-01     -1.619297000000000E+02
4951000000.000000      7.060242000000000E-01      8.044434000000000E+00      1.211853000000000E-01     -1.607188000000000E+02
4952000000.000000      7.057800000000000E-01      7.930664000000000E+00      1.182098000000000E-01     -1.592813000000000E+02
4953000000.000000      7.040100000000000E-01      7.870117000000000E+00      1.160965000000000E-01     -1.580156000000000E+02
4954000000.000000      7.074280000000000E-01      7.721924000000000E+00      1.138077000000000E-01     -1.564453000000000E+02
