! Network Analyzer HP8722D
! Hewlett-Packard
! Data name: Linha & Wilkinson
! Saver's name: Rodrigo Anjos
! Comments: Teste da utilização de aquisição
continua pelo VNA HP8722D
! Time and date: 22/5/2025 16:44
!              Frequency                     S11                                                   S21                                                   S12                                                   S22
# HZ  S  MA R 50
4800000000.000000      6.493835000000000E-01      1.081152000000000E+01      4.725800000000000E-01     -9.267969000000000E+01
4801000000.000000      6.483459000000000E-01      1.096973000000000E+01      4.746552000000000E-01     -9.319139000000000E+01
4802000000.000000      6.452026000000000E-01      1.097363000000000E+01      4.752197000000000E-01     -9.417969000000000E+01
4803000000.000000      6.452637000000000E-01      1.101611000000000E+01      4.784241000000000E-01     -9.478516000000000E+01
4804000000.000000      6.429749000000000E-01      1.099854000000000E+01      4.798737000000000E-01     -9.555468000000000E+01
4805000000.000000      6.448364000000000E-01      1.095996000000000E+01      4.802246000000000E-01     -9.634766000000000E+01
4806000000.000000      6.397705000000000E-01      1.093799000000000E+01      4.830475000000000E-01     -9.709373000000000E+01
4807000000.000000      6.383362000000000E-01      1.096826000000000E+01      4.837036000000000E-01     -9.800390000000000E+01
4808000000.000000      6.348267000000000E-01      1.107959000000000E+01      4.844971000000000E-01     -9.850389000000000E+01
4809000000.000000      6.358948000000000E-01      1.096826000000000E+01      4.864044000000000E-01     -9.949219000000000E+01
4810000000.000000      6.356506000000000E-01      1.112598000000000E+01      4.883423000000000E-01     -1.002070000000000E+02
4811000000.000000      6.343994000000000E-01      1.111523000000000E+01      4.897461000000000E-01     -1.010586000000000E+02
4812000000.000000      6.342163000000000E-01      1.138281000000000E+01      4.909668000000000E-01     -1.016094000000000E+02
4813000000.000000      6.309204000000000E-01      1.129102000000000E+01      4.915466000000000E-01     -1.026250000000000E+02
4814000000.000000      6.284180000000000E-01      1.129102000000000E+01      4.935760000000000E-01     -1.031172000000000E+02
4815000000.000000      6.270752000000000E-01      1.135547000000000E+01      4.934540000000000E-01     -1.040234000000000E+02
4816000000.000000      6.278687000000000E-01      1.149951000000000E+01      4.935303000000000E-01     -1.045391000000000E+02
4817000000.000000      6.241760000000000E-01      1.159180000000000E+01      4.951935000000000E-01     -1.056172000000000E+02
4818000000.000000      6.225891000000000E-01      1.145020000000000E+01      4.950256000000000E-01     -1.062187000000000E+02
4819000000.000000      6.230774000000000E-01      1.164111000000000E+01      4.963379000000000E-01     -1.068984000000000E+02
4820000000.000000      6.189270000000000E-01      1.181689000000000E+01      4.963379000000000E-01     -1.075664000000000E+02
4821000000.000000      6.203003000000000E-01      1.184326000000000E+01      4.967041000000000E-01     -1.084922000000000E+02
4822000000.000000      6.184998000000000E-01      1.177441000000000E+01      4.968262000000000E-01     -1.091523000000000E+02
4823000000.000000      6.180725000000000E-01      1.195313000000000E+01      4.985504000000000E-01     -1.100469000000000E+02
4824000000.000000      6.171570000000000E-01      1.217969000000000E+01      4.979248000000000E-01     -1.108359000000000E+02
4825000000.000000      6.165466000000000E-01      1.212598000000000E+01      4.971008000000000E-01     -1.116016000000000E+02
4826000000.000000      6.162109000000000E-01      1.209717000000000E+01      4.980927000000000E-01     -1.124297000000000E+02
4827000000.000000      6.154480000000000E-01      1.235645000000000E+01      4.984589000000000E-01     -1.129922000000000E+02
4828000000.000000      6.152039000000000E-01      1.254492000000000E+01      4.984741000000000E-01     -1.138867000000000E+02
4829000000.000000      6.151123000000000E-01      1.271484000000000E+01      5.000000000000000E-01     -1.143125000000000E+02
4830000000.000000      6.144104000000000E-01      1.265625000000000E+01      4.998627000000000E-01     -1.152305000000000E+02
4831000000.000000      6.150818000000000E-01      1.290869000000000E+01      4.995422000000000E-01     -1.161172000000000E+02
4832000000.000000      6.138306000000000E-01      1.318066000000000E+01      4.978333000000000E-01     -1.166289000000000E+02
4833000000.000000      6.131897000000000E-01      1.308154000000000E+01      4.985657000000000E-01     -1.174883000000000E+02
4834000000.000000      6.129150000000000E-01      1.317773000000000E+01      4.977112000000000E-01     -1.180469000000000E+02
4835000000.000000      6.148071000000000E-01      1.335498000000000E+01      4.992523000000000E-01     -1.192070000000000E+02
4836000000.000000      6.142578000000000E-01      1.350488000000000E+01      4.983673000000000E-01     -1.196601000000000E+02
4837000000.000000      6.139221000000000E-01      1.362012000000000E+01      4.970856000000000E-01     -1.208516000000000E+02
4838000000.000000      6.132507000000000E-01      1.368604000000000E+01      4.969177000000000E-01     -1.213164000000000E+02
4839000000.000000      6.156616000000000E-01      1.394531000000000E+01      4.965515000000000E-01     -1.221445000000000E+02
4840000000.000000      6.157532000000000E-01      1.388086000000000E+01      4.968719000000000E-01     -1.229102000000000E+02
4841000000.000000      6.149902000000000E-01      1.421191000000000E+01      4.953461000000000E-01     -1.239570000000000E+02
4842000000.000000      6.162109000000000E-01      1.394141000000000E+01      4.950714000000000E-01     -1.245664000000000E+02
4843000000.000000      6.187439000000000E-01      1.424902000000000E+01      4.950714000000000E-01     -1.255508000000000E+02
4844000000.000000      6.179504000000000E-01      1.402393000000000E+01      4.943695000000000E-01     -1.261523000000000E+02
4845000000.000000      6.196899000000000E-01      1.437256000000000E+01      4.923553000000000E-01     -1.270117000000000E+02
4846000000.000000      6.203003000000000E-01      1.447998000000000E+01      4.923248000000000E-01     -1.280313000000000E+02
4847000000.000000      6.215210000000000E-01      1.459668000000000E+01      4.897461000000000E-01     -1.285547000000000E+02
4848000000.000000      6.204834000000000E-01      1.458008000000000E+01      4.880829000000000E-01     -1.295547000000000E+02
4849000000.000000      6.199646000000000E-01      1.461426000000000E+01      4.872589000000000E-01     -1.305000000000000E+02
4850000000.000000      6.219177000000000E-01      1.459375000000000E+01      4.846649000000000E-01     -1.313906000000000E+02
4851000000.000000      6.227722000000000E-01      1.488086000000000E+01      4.844055000000000E-01     -1.322891000000000E+02
4852000000.000000      6.237793000000000E-01      1.491357000000000E+01      4.821777000000000E-01     -1.330703000000000E+02
4853000000.000000      6.255188000000000E-01      1.479297000000000E+01      4.781647000000000E-01     -1.337344000000000E+02
4854000000.000000      6.255188000000000E-01      1.481641000000000E+01      4.770813000000000E-01     -1.347109000000000E+02
4855000000.000000      6.279297000000000E-01      1.488477000000000E+01      4.755402000000000E-01     -1.355234000000000E+02
4856000000.000000      6.290283000000000E-01      1.498242000000000E+01      4.736938000000000E-01     -1.364531000000000E+02
4857000000.000000      6.300964000000000E-01      1.517725000000000E+01      4.705811000000000E-01     -1.371719000000000E+02
4858000000.000000      6.291809000000000E-01      1.492627000000000E+01      4.664307000000000E-01     -1.381328000000000E+02
4859000000.000000      6.322327000000000E-01      1.486816000000000E+01      4.652863000000000E-01     -1.389453000000000E+02
4860000000.000000      6.318665000000000E-01      1.504297000000000E+01      4.614410000000000E-01     -1.397656000000000E+02
4861000000.000000      6.336670000000000E-01      1.512402000000000E+01      4.589233000000000E-01     -1.406641000000000E+02
4862000000.000000      6.329651000000000E-01      1.506055000000000E+01      4.552002000000000E-01     -1.414687000000000E+02
4863000000.000000      6.362915000000000E-01      1.523389000000000E+01      4.506073000000000E-01     -1.423984000000000E+02
4864000000.000000      6.384583000000000E-01      1.506494000000000E+01      4.491730000000000E-01     -1.431797000000000E+02
4865000000.000000      6.389771000000000E-01      1.508936000000000E+01      4.454498000000000E-01     -1.437969000000000E+02
4866000000.000000      6.398926000000000E-01      1.500830000000000E+01      4.389954000000000E-01     -1.446563000000000E+02
4867000000.000000      6.402283000000000E-01      1.506494000000000E+01      4.354858000000000E-01     -1.454531000000000E+02
4868000000.000000      6.415710000000000E-01      1.514600000000000E+01      4.332733000000000E-01     -1.462656000000000E+02
4869000000.000000      6.423645000000000E-01      1.505225000000000E+01      4.287872000000000E-01     -1.470781000000000E+02
4870000000.000000      6.446228000000000E-01      1.510059000000000E+01      4.245300000000000E-01     -1.476328000000000E+02
4871000000.000000      6.440430000000000E-01      1.501270000000000E+01      4.213409000000000E-01     -1.483906000000000E+02
4872000000.000000      6.471558000000000E-01      1.502197000000000E+01      4.170532000000000E-01     -1.489375000000000E+02
4873000000.000000      6.491089000000000E-01      1.492871000000000E+01      4.119720000000000E-01     -1.499375000000000E+02
4874000000.000000      6.489868000000000E-01      1.483691000000000E+01      4.084625000000000E-01     -1.506719000000000E+02
4875000000.000000      6.501465000000000E-01      1.493555000000000E+01      4.030457000000000E-01     -1.511953000000000E+02
4876000000.000000      6.524048000000000E-01      1.487646000000000E+01      3.990021000000000E-01     -1.518359000000000E+02
4877000000.000000      6.538696000000000E-01      1.482568000000000E+01      3.945770000000000E-01     -1.525391000000000E+02
4878000000.000000      6.538086000000000E-01      1.461426000000000E+01      3.907318000000000E-01     -1.531172000000000E+02
4879000000.000000      6.560364000000000E-01      1.463086000000000E+01      3.849487000000000E-01     -1.537266000000000E+02
4880000000.000000      6.585999000000000E-01      1.465674000000000E+01      3.816986000000000E-01     -1.543984000000000E+02
4881000000.000000      6.570740000000000E-01      1.466113000000000E+01      3.771362000000000E-01     -1.548281000000000E+02
4882000000.000000      6.605835000000000E-01      1.437695000000000E+01      3.730774000000000E-01     -1.553516000000000E+02
4883000000.000000      6.598511000000000E-01      1.449609000000000E+01      3.679810000000000E-01     -1.559766000000000E+02
4884000000.000000      6.623230000000000E-01      1.433301000000000E+01      3.642120000000000E-01     -1.565859000000000E+02
4885000000.000000      6.640015000000000E-01      1.430420000000000E+01      3.591766000000000E-01     -1.568594000000000E+02
4886000000.000000      6.640930000000000E-01      1.441113000000000E+01      3.547058000000000E-01     -1.573906000000000E+02
4887000000.000000      6.647644000000000E-01      1.407861000000000E+01      3.518524000000000E-01     -1.580547000000000E+02
4888000000.000000      6.664734000000000E-01      1.401416000000000E+01      3.471832000000000E-01     -1.586016000000000E+02
4889000000.000000      6.674805000000000E-01      1.410205000000000E+01      3.426208000000000E-01     -1.587969000000000E+02
4890000000.000000      6.670837000000000E-01      1.371484000000000E+01      3.378906000000000E-01     -1.596484000000000E+02
4891000000.000000      6.704407000000000E-01      1.387842000000000E+01      3.340454000000000E-01     -1.600469000000000E+02
4892000000.000000      6.677551000000000E-01      1.386328000000000E+01      3.289490000000000E-01     -1.600391000000000E+02
4893000000.000000      6.723328000000000E-01      1.361475000000000E+01      3.271027000000000E-01     -1.606328000000000E+02
4894000000.000000      6.723022000000000E-01      1.359375000000000E+01      3.219452000000000E-01     -1.609531000000000E+02
4895000000.000000      6.742554000000000E-01      1.349658000000000E+01      3.184967000000000E-01     -1.613906000000000E+02
4896000000.000000      6.746521000000000E-01      1.348145000000000E+01      3.151093000000000E-01     -1.616641000000000E+02
4897000000.000000      6.744385000000000E-01      1.319824000000000E+01      3.102112000000000E-01     -1.621406000000000E+02
4898000000.000000      6.779175000000000E-01      1.306543000000000E+01      3.073578000000000E-01     -1.624609000000000E+02
4899000000.000000      6.762085000000000E-01      1.327246000000000E+01      3.040466000000000E-01     -1.627422000000000E+02
4900000000.000000      6.785583000000000E-01      1.290723000000000E+01      2.998810000000000E-01     -1.630312000000000E+02
4901000000.000000      6.800232000000000E-01      1.294189000000000E+01      2.961426000000000E-01     -1.633984000000000E+02
4902000000.000000      6.791077000000000E-01      1.275635000000000E+01      2.930298000000000E-01     -1.637812000000000E+02
4903000000.000000      6.821899000000000E-01      1.269043000000000E+01      2.882233000000000E-01     -1.641562000000000E+02
4904000000.000000      6.799622000000000E-01      1.253809000000000E+01      2.855377000000000E-01     -1.645234000000000E+02
4905000000.000000      6.830750000000000E-01      1.255322000000000E+01      2.823792000000000E-01     -1.649062000000000E+02
4906000000.000000      6.829529000000000E-01      1.227979000000000E+01      2.786407000000000E-01     -1.650469000000000E+02
4907000000.000000      6.828613000000000E-01      1.227295000000000E+01      2.753754000000000E-01     -1.654297000000000E+02
4908000000.000000      6.832275000000000E-01      1.224414000000000E+01      2.722321000000000E-01     -1.657812000000000E+02
4909000000.000000      6.842957000000000E-01      1.200635000000000E+01      2.677155000000000E-01     -1.660859000000000E+02
4910000000.000000      6.873169000000000E-01      1.205469000000000E+01      2.649384000000000E-01     -1.664063000000000E+02
4911000000.000000      6.865540000000000E-01      1.203369000000000E+01      2.611847000000000E-01     -1.666719000000000E+02
4912000000.000000      6.877441000000000E-01      1.184180000000000E+01      2.578278000000000E-01     -1.668828000000000E+02
4913000000.000000      6.881104000000000E-01      1.175781000000000E+01      2.540283000000000E-01     -1.673047000000000E+02
4914000000.000000      6.882629000000000E-01      1.144189000000000E+01      2.510834000000000E-01     -1.675937000000000E+02
4915000000.000000      6.880493000000000E-01      1.162207000000000E+01      2.466202000000000E-01     -1.680625000000000E+02
4916000000.000000      6.885986000000000E-01      1.146533000000000E+01      2.435989000000000E-01     -1.683359000000000E+02
4917000000.000000      6.897278000000000E-01      1.145313000000000E+01      2.407227000000000E-01     -1.684062000000000E+02
4918000000.000000      6.905212000000000E-01      1.120703000000000E+01      2.362213000000000E-01     -1.685859000000000E+02
4919000000.000000      6.888428000000000E-01      1.124854000000000E+01      2.330551000000000E-01     -1.688281000000000E+02
4920000000.000000      6.893921000000000E-01      1.106299000000000E+01      2.282944000000000E-01     -1.693359000000000E+02
4921000000.000000      6.909485000000000E-01      1.092432000000000E+01      2.255936000000000E-01     -1.694609000000000E+02
4922000000.000000      6.921997000000000E-01      1.079395000000000E+01      2.216873000000000E-01     -1.693672000000000E+02
4923000000.000000      6.938477000000000E-01      1.082666000000000E+01      2.176819000000000E-01     -1.696953000000000E+02
4924000000.000000      6.928101000000000E-01      1.078564000000000E+01      2.135773000000000E-01     -1.700547000000000E+02
4925000000.000000      6.926575000000000E-01      1.053027000000000E+01      2.108383000000000E-01     -1.701719000000000E+02
4926000000.000000      6.926270000000000E-01      1.061523000000000E+01      2.067871000000000E-01     -1.703438000000000E+02
4927000000.000000      6.920776000000000E-01      1.038184000000000E+01      2.029419000000000E-01     -1.705000000000000E+02
4928000000.000000      6.942139000000000E-01      1.009619000000000E+01      1.994171000000000E-01     -1.704453000000000E+02
4929000000.000000      6.951294000000000E-01      1.014160000000000E+01      1.954041000000000E-01     -1.704375000000000E+02
4930000000.000000      6.956482000000000E-01      1.013623000000000E+01      1.912460000000000E-01     -1.706640000000000E+02
4931000000.000000      6.953125000000000E-01      9.857422000000000E+00      1.884079000000000E-01     -1.706016000000000E+02
4932000000.000000      6.973877000000000E-01      9.865723000000000E+00      1.846619000000000E-01     -1.705625000000000E+02
4933000000.000000      6.966553000000000E-01      9.828613000000000E+00      1.800003000000000E-01     -1.702812000000000E+02
4934000000.000000      6.996765000000000E-01      9.696777000000000E+00      1.765900000000000E-01     -1.705469000000000E+02
4935000000.000000      6.990967000000000E-01      9.531738000000000E+00      1.733398000000000E-01     -1.701250000000000E+02
4936000000.000000      6.990662000000000E-01      9.534668000000000E+00      1.689377000000000E-01     -1.700156000000000E+02
4937000000.000000      6.998901000000000E-01      9.162598000000000E+00      1.654053000000000E-01     -1.698281000000000E+02
4938000000.000000      6.958618000000000E-01      9.286133000000000E+00      1.620331000000000E-01     -1.693516000000000E+02
4939000000.000000      6.979370000000000E-01      9.265137000000000E+00      1.580734000000000E-01     -1.691328000000000E+02
4940000000.000000      7.005615000000000E-01      8.996094000000000E+00      1.547165000000000E-01     -1.688828000000000E+02
4941000000.000000      6.999207000000000E-01      8.901367000000000E+00      1.512833000000000E-01     -1.683828000000000E+02
4942000000.000000      7.008362000000000E-01      8.917969000000000E+00      1.473846000000000E-01     -1.680000000000000E+02
4943000000.000000      6.999207000000000E-01      8.894531000000000E+00      1.444702000000000E-01     -1.670938000000000E+02
4944000000.000000      7.009583000000000E-01      8.598145000000000E+00      1.413727000000000E-01     -1.666719000000000E+02
4945000000.000000      7.012634000000000E-01      8.412598000000000E+00      1.372833000000000E-01     -1.660391000000000E+02
4946000000.000000      7.034302000000000E-01      8.420898000000000E+00      1.347656000000000E-01     -1.653359000000000E+02
4947000000.000000      7.051697000000000E-01      8.407227000000000E+00      1.310806000000000E-01     -1.643203000000000E+02
4948000000.000000      7.050476000000000E-01      8.404297000000000E+00      1.283722000000000E-01     -1.635000000000000E+02
4949000000.000000      7.030029000000000E-01      8.107910000000000E+00      1.256256000000000E-01     -1.622031000000000E+02
4950000000.000000      7.052612000000000E-01      8.169434000000000E+00      1.226768000000000E-01     -1.612344000000000E+02
4951000000.000000      7.050476000000000E-01      7.963623000000000E+00      1.203041000000000E-01     -1.602734000000000E+02
4952000000.000000      7.057190000000000E-01      7.903076000000000E+00      1.178017000000000E-01     -1.586484000000000E+02
4953000000.000000      7.049561000000000E-01      7.737061000000000E+00      1.159439000000000E-01     -1.572578000000000E+02
4954000000.000000      7.069702000000000E-01      7.639404000000000E+00      1.136322000000000E-01     -1.558906000000000E+02
