! Network Analyzer HP8722D
! Hewlett-Packard
! Data name: Linha & Wilkinson
! Saver's name: Rodrigo Anjos
! Comments: Teste da utilização de aquisição
continua pelo VNA HP8722D
! Time and date: 22/5/2025 12:27
!              Frequency                     S11                                                   S21                                                   S12                                                   S22
# HZ  S  MA R 50
4800000000.000000      6.522522000000000E-01      1.094775000000000E+01      4.703522000000000E-01     -9.252344000000000E+01
4801000000.000000      6.499329000000000E-01      1.090088000000000E+01      4.731445000000000E-01     -9.328905000000000E+01
4802000000.000000      6.481018000000000E-01      1.085840000000000E+01      4.747314000000000E-01     -9.377344000000000E+01
4803000000.000000      6.455383000000000E-01      1.089404000000000E+01      4.785461000000000E-01     -9.478516000000000E+01
4804000000.000000      6.441956000000000E-01      1.091064000000000E+01      4.779663000000000E-01     -9.547266000000000E+01
4805000000.000000      6.439819000000000E-01      1.081055000000000E+01      4.798737000000000E-01     -9.632421000000000E+01
4806000000.000000      6.416321000000000E-01      1.070313000000000E+01      4.817657000000000E-01     -9.714453000000000E+01
4807000000.000000      6.385803000000000E-01      1.069629000000000E+01      4.836884000000000E-01     -9.794531000000000E+01
4808000000.000000      6.359558000000000E-01      1.082520000000000E+01      4.823914000000000E-01     -9.858593000000000E+01
4809000000.000000      6.343079000000000E-01      1.100830000000000E+01      4.839630000000000E-01     -9.949219000000000E+01
4810000000.000000      6.341858000000000E-01      1.068408000000000E+01      4.881287000000000E-01     -1.001523000000000E+02
4811000000.000000      6.337585000000000E-01      1.094775000000000E+01      4.904938000000000E-01     -1.008945000000000E+02
4812000000.000000      6.333923000000000E-01      1.105469000000000E+01      4.902649000000000E-01     -1.016328000000000E+02
4813000000.000000      6.290588000000000E-01      1.104102000000000E+01      4.908142000000000E-01     -1.025352000000000E+02
4814000000.000000      6.280823000000000E-01      1.107520000000000E+01      4.927826000000000E-01     -1.030000000000000E+02
4815000000.000000      6.260376000000000E-01      1.134033000000000E+01      4.927826000000000E-01     -1.038828000000000E+02
4816000000.000000      6.273193000000000E-01      1.116309000000000E+01      4.932556000000000E-01     -1.045351000000000E+02
4817000000.000000      6.260071000000000E-01      1.154639000000000E+01      4.931488000000000E-01     -1.054766000000000E+02
4818000000.000000      6.250000000000000E-01      1.143945000000000E+01      4.956207000000000E-01     -1.061758000000000E+02
4819000000.000000      6.237183000000000E-01      1.144629000000000E+01      4.938965000000000E-01     -1.069414000000000E+02
4820000000.000000      6.214600000000000E-01      1.163721000000000E+01      4.957123000000000E-01     -1.075234000000000E+02
4821000000.000000      6.208801000000000E-01      1.168213000000000E+01      4.973450000000000E-01     -1.082461000000000E+02
4822000000.000000      6.198120000000000E-01      1.164551000000000E+01      4.960327000000000E-01     -1.092344000000000E+02
4823000000.000000      6.192932000000000E-01      1.164648000000000E+01      4.983063000000000E-01     -1.099375000000000E+02
4824000000.000000      6.162720000000000E-01      1.189258000000000E+01      4.969482000000000E-01     -1.106992000000000E+02
4825000000.000000      6.174927000000000E-01      1.187207000000000E+01      4.978180000000000E-01     -1.113633000000000E+02
4826000000.000000      6.176147000000000E-01      1.197607000000000E+01      4.991913000000000E-01     -1.122109000000000E+02
4827000000.000000      6.159363000000000E-01      1.210547000000000E+01      4.987335000000000E-01     -1.129140000000000E+02
4828000000.000000      6.159363000000000E-01      1.231250000000000E+01      4.988861000000000E-01     -1.135664000000000E+02
4829000000.000000      6.154480000000000E-01      1.244043000000000E+01      4.998932000000000E-01     -1.144180000000000E+02
4830000000.000000      6.156006000000000E-01      1.241992000000000E+01      5.006714000000000E-01     -1.151367000000000E+02
4831000000.000000      6.135254000000000E-01      1.255322000000000E+01      4.986267000000000E-01     -1.160820000000000E+02
4832000000.000000      6.124573000000000E-01      1.272754000000000E+01      4.993591000000000E-01     -1.168047000000000E+02
4833000000.000000      6.138916000000000E-01      1.274121000000000E+01      4.989471000000000E-01     -1.173438000000000E+02
4834000000.000000      6.126709000000000E-01      1.297461000000000E+01      4.981537000000000E-01     -1.182461000000000E+02
4835000000.000000      6.151428000000000E-01      1.293359000000000E+01      4.999084000000000E-01     -1.190351000000000E+02
4836000000.000000      6.142883000000000E-01      1.335498000000000E+01      4.975586000000000E-01     -1.196406000000000E+02
4837000000.000000      6.138306000000000E-01      1.328369000000000E+01      4.974365000000000E-01     -1.208516000000000E+02
4838000000.000000      6.130066000000000E-01      1.328516000000000E+01      4.976501000000000E-01     -1.213398000000000E+02
4839000000.000000      6.171265000000000E-01      1.361035000000000E+01      4.962921000000000E-01     -1.221601000000000E+02
4840000000.000000      6.143188000000000E-01      1.356787000000000E+01      4.981232000000000E-01     -1.229531000000000E+02
4841000000.000000      6.157837000000000E-01      1.365967000000000E+01      4.963837000000000E-01     -1.239141000000000E+02
4842000000.000000      6.160583000000000E-01      1.375342000000000E+01      4.960632000000000E-01     -1.244141000000000E+02
4843000000.000000      6.176147000000000E-01      1.366260000000000E+01      4.960480000000000E-01     -1.253633000000000E+02
4844000000.000000      6.160278000000000E-01      1.389453000000000E+01      4.942322000000000E-01     -1.263906000000000E+02
4845000000.000000      6.181030000000000E-01      1.401123000000000E+01      4.920959000000000E-01     -1.270664000000000E+02
4846000000.000000      6.206665000000000E-01      1.414063000000000E+01      4.921722000000000E-01     -1.278516000000000E+02
4847000000.000000      6.207275000000000E-01      1.433301000000000E+01      4.921265000000000E-01     -1.286562000000000E+02
4848000000.000000      6.199951000000000E-01      1.433008000000000E+01      4.892883000000000E-01     -1.295078000000000E+02
4849000000.000000      6.220398000000000E-01      1.445361000000000E+01      4.875031000000000E-01     -1.304688000000000E+02
4850000000.000000      6.226807000000000E-01      1.447021000000000E+01      4.860229000000000E-01     -1.311797000000000E+02
4851000000.000000      6.227722000000000E-01      1.449219000000000E+01      4.861908000000000E-01     -1.321250000000000E+02
4852000000.000000      6.249695000000000E-01      1.459229000000000E+01      4.824371000000000E-01     -1.330312000000000E+02
4853000000.000000      6.258545000000000E-01      1.458252000000000E+01      4.800720000000000E-01     -1.337344000000000E+02
4854000000.000000      6.258850000000000E-01      1.468311000000000E+01      4.776001000000000E-01     -1.347891000000000E+02
4855000000.000000      6.271057000000000E-01      1.472021000000000E+01      4.761505000000000E-01     -1.355234000000000E+02
4856000000.000000      6.283264000000000E-01      1.482031000000000E+01      4.724426000000000E-01     -1.363828000000000E+02
4857000000.000000      6.307068000000000E-01      1.477246000000000E+01      4.726715000000000E-01     -1.371484000000000E+02
4858000000.000000      6.295471000000000E-01      1.486133000000000E+01      4.680634000000000E-01     -1.379609000000000E+02
4859000000.000000      6.303711000000000E-01      1.480225000000000E+01      4.664764000000000E-01     -1.389062000000000E+02
4860000000.000000      6.328735000000000E-01      1.493164000000000E+01      4.623413000000000E-01     -1.397187000000000E+02
4861000000.000000      6.332703000000000E-01      1.490820000000000E+01      4.596100000000000E-01     -1.407031000000000E+02
4862000000.000000      6.342468000000000E-01      1.493555000000000E+01      4.577637000000000E-01     -1.414375000000000E+02
4863000000.000000      6.369629000000000E-01      1.492041000000000E+01      4.530792000000000E-01     -1.423125000000000E+02
4864000000.000000      6.372986000000000E-01      1.491357000000000E+01      4.497986000000000E-01     -1.428750000000000E+02
4865000000.000000      6.372070000000000E-01      1.490430000000000E+01      4.461975000000000E-01     -1.437031000000000E+02
4866000000.000000      6.390076000000000E-01      1.495215000000000E+01      4.421692000000000E-01     -1.446250000000000E+02
4867000000.000000      6.406250000000000E-01      1.494824000000000E+01      4.378662000000000E-01     -1.455937000000000E+02
4868000000.000000      6.407776000000000E-01      1.476660000000000E+01      4.352722000000000E-01     -1.463203000000000E+02
4869000000.000000      6.432800000000000E-01      1.486816000000000E+01      4.308777000000000E-01     -1.469766000000000E+02
4870000000.000000      6.438293000000000E-01      1.484619000000000E+01      4.261017000000000E-01     -1.475547000000000E+02
4871000000.000000      6.453857000000000E-01      1.472021000000000E+01      4.219360000000000E-01     -1.484922000000000E+02
4872000000.000000      6.468506000000000E-01      1.491797000000000E+01      4.174194000000000E-01     -1.491094000000000E+02
4873000000.000000      6.467896000000000E-01      1.482178000000000E+01      4.149780000000000E-01     -1.498672000000000E+02
4874000000.000000      6.478882000000000E-01      1.461182000000000E+01      4.095917000000000E-01     -1.507656000000000E+02
4875000000.000000      6.518555000000000E-01      1.468994000000000E+01      4.053192000000000E-01     -1.511328000000000E+02
4876000000.000000      6.510010000000000E-01      1.486816000000000E+01      4.003754000000000E-01     -1.519140000000000E+02
4877000000.000000      6.531372000000000E-01      1.450293000000000E+01      3.956604000000000E-01     -1.527187000000000E+02
4878000000.000000      6.536560000000000E-01      1.448242000000000E+01      3.925018000000000E-01     -1.532812000000000E+02
4879000000.000000      6.562500000000000E-01      1.446729000000000E+01      3.876648000000000E-01     -1.536797000000000E+02
4880000000.000000      6.590881000000000E-01      1.449219000000000E+01      3.833466000000000E-01     -1.543906000000000E+02
4881000000.000000      6.586304000000000E-01      1.438623000000000E+01      3.792572000000000E-01     -1.549219000000000E+02
4882000000.000000      6.600037000000000E-01      1.436426000000000E+01      3.741302000000000E-01     -1.556406000000000E+02
4883000000.000000      6.609802000000000E-01      1.415576000000000E+01      3.692169000000000E-01     -1.559141000000000E+02
4884000000.000000      6.620178000000000E-01      1.423682000000000E+01      3.650818000000000E-01     -1.566562000000000E+02
4885000000.000000      6.613159000000000E-01      1.424365000000000E+01      3.605499000000000E-01     -1.568359000000000E+02
4886000000.000000      6.645813000000000E-01      1.406104000000000E+01      3.572083000000000E-01     -1.575469000000000E+02
4887000000.000000      6.653137000000000E-01      1.398535000000000E+01      3.517456000000000E-01     -1.577969000000000E+02
4888000000.000000      6.666565000000000E-01      1.393750000000000E+01      3.488159000000000E-01     -1.586016000000000E+02
4889000000.000000      6.668701000000000E-01      1.394971000000000E+01      3.446655000000000E-01     -1.588906000000000E+02
4890000000.000000      6.678162000000000E-01      1.355420000000000E+01      3.380890000000000E-01     -1.596719000000000E+02
4891000000.000000      6.710815000000000E-01      1.362305000000000E+01      3.345642000000000E-01     -1.599531000000000E+02
4892000000.000000      6.698303000000000E-01      1.370361000000000E+01      3.320923000000000E-01     -1.600312000000000E+02
4893000000.000000      6.721497000000000E-01      1.357910000000000E+01      3.271027000000000E-01     -1.607734000000000E+02
4894000000.000000      6.724854000000000E-01      1.361865000000000E+01      3.227081000000000E-01     -1.611562000000000E+02
4895000000.000000      6.754456000000000E-01      1.342773000000000E+01      3.203125000000000E-01     -1.613047000000000E+02
4896000000.000000      6.741943000000000E-01      1.328760000000000E+01      3.159485000000000E-01     -1.618359000000000E+02
4897000000.000000      6.766052000000000E-01      1.338525000000000E+01      3.117065000000000E-01     -1.622109000000000E+02
4898000000.000000      6.745605000000000E-01      1.295801000000000E+01      3.086853000000000E-01     -1.623203000000000E+02
4899000000.000000      6.757202000000000E-01      1.323828000000000E+01      3.046417000000000E-01     -1.629609000000000E+02
4900000000.000000      6.780090000000000E-01      1.306934000000000E+01      3.005524000000000E-01     -1.631562000000000E+02
4901000000.000000      6.780090000000000E-01      1.261621000000000E+01      2.972717000000000E-01     -1.634609000000000E+02
4902000000.000000      6.824646000000000E-01      1.272607000000000E+01      2.946014000000000E-01     -1.638203000000000E+02
4903000000.000000      6.815796000000000E-01      1.254639000000000E+01      2.895355000000000E-01     -1.640938000000000E+02
4904000000.000000      6.805420000000000E-01      1.249805000000000E+01      2.859039000000000E-01     -1.646484000000000E+02
4905000000.000000      6.829834000000000E-01      1.228369000000000E+01      2.837372000000000E-01     -1.650000000000000E+02
4906000000.000000      6.824951000000000E-01      1.235938000000000E+01      2.790680000000000E-01     -1.651094000000000E+02
4907000000.000000      6.814270000000000E-01      1.226611000000000E+01      2.769165000000000E-01     -1.655078000000000E+02
4908000000.000000      6.855774000000000E-01      1.209863000000000E+01      2.728424000000000E-01     -1.659141000000000E+02
4909000000.000000      6.846313000000000E-01      1.209570000000000E+01      2.696838000000000E-01     -1.661562000000000E+02
4910000000.000000      6.860657000000000E-01      1.187891000000000E+01      2.661591000000000E-01     -1.664609000000000E+02
4911000000.000000      6.875610000000000E-01      1.178809000000000E+01      2.625885000000000E-01     -1.667578000000000E+02
4912000000.000000      6.849365000000000E-01      1.188428000000000E+01      2.584991000000000E-01     -1.671484000000000E+02
4913000000.000000      6.871643000000000E-01      1.164404000000000E+01      2.555389000000000E-01     -1.673828000000000E+02
4914000000.000000      6.882629000000000E-01      1.159424000000000E+01      2.520447000000000E-01     -1.676250000000000E+02
4915000000.000000      6.874695000000000E-01      1.140479000000000E+01      2.485199000000000E-01     -1.680859000000000E+02
4916000000.000000      6.880493000000000E-01      1.126611000000000E+01      2.443390000000000E-01     -1.682969000000000E+02
4917000000.000000      6.875916000000000E-01      1.136670000000000E+01      2.406387000000000E-01     -1.686328000000000E+02
4918000000.000000      6.910095000000000E-01      1.102588000000000E+01      2.368774000000000E-01     -1.688984000000000E+02
4919000000.000000      6.912231000000000E-01      1.109717000000000E+01      2.340164000000000E-01     -1.689297000000000E+02
4920000000.000000      6.907959000000000E-01      1.092432000000000E+01      2.296448000000000E-01     -1.695000000000000E+02
4921000000.000000      6.911926000000000E-01      1.067871000000000E+01      2.260895000000000E-01     -1.695703000000000E+02
4922000000.000000      6.917725000000000E-01      1.079541000000000E+01      2.228622000000000E-01     -1.696094000000000E+02
4923000000.000000      6.915283000000000E-01      1.057813000000000E+01      2.191162000000000E-01     -1.697578000000000E+02
4924000000.000000      6.925049000000000E-01      1.050537000000000E+01      2.144241000000000E-01     -1.701875000000000E+02
4925000000.000000      6.925354000000000E-01      1.037646000000000E+01      2.114792000000000E-01     -1.702344000000000E+02
4926000000.000000      6.928406000000000E-01      1.029932000000000E+01      2.079620000000000E-01     -1.704141000000000E+02
4927000000.000000      6.948547000000000E-01      1.009326000000000E+01      2.042389000000000E-01     -1.706719000000000E+02
4928000000.000000      6.944275000000000E-01      1.007422000000000E+01      2.008057000000000E-01     -1.705547000000000E+02
4929000000.000000      6.948242000000000E-01      9.876465000000000E+00      1.962585000000000E-01     -1.707031000000000E+02
4930000000.000000      6.965027000000000E-01      9.759766000000000E+00      1.927567000000000E-01     -1.709063000000000E+02
4931000000.000000      6.953430000000000E-01      9.774902000000000E+00      1.897964000000000E-01     -1.706875000000000E+02
4932000000.000000      6.984558000000000E-01      9.674805000000000E+00      1.850128000000000E-01     -1.707813000000000E+02
4933000000.000000      6.973267000000000E-01      9.560547000000000E+00      1.810760000000000E-01     -1.706406000000000E+02
4934000000.000000      6.992798000000000E-01      9.336914000000000E+00      1.774216000000000E-01     -1.708516000000000E+02
4935000000.000000      6.998596000000000E-01      9.531738000000000E+00      1.740875000000000E-01     -1.704766000000000E+02
4936000000.000000      6.963501000000000E-01      9.346191000000000E+00      1.701889000000000E-01     -1.702812000000000E+02
4937000000.000000      6.985474000000000E-01      9.152832000000000E+00      1.663895000000000E-01     -1.701719000000000E+02
4938000000.000000      6.996460000000000E-01      9.243164000000000E+00      1.625137000000000E-01     -1.698672000000000E+02
4939000000.000000      6.991577000000000E-01      9.085449000000000E+00      1.589508000000000E-01     -1.694531000000000E+02
4940000000.000000      7.015381000000000E-01      9.031738000000000E+00      1.551743000000000E-01     -1.693594000000000E+02
4941000000.000000      7.015381000000000E-01      8.843750000000000E+00      1.521454000000000E-01     -1.687031000000000E+02
4942000000.000000      6.995239000000000E-01      8.673340000000000E+00      1.483002000000000E-01     -1.682344000000000E+02
4943000000.000000      6.994019000000000E-01      8.698242000000000E+00      1.449814000000000E-01     -1.675859000000000E+02
4944000000.000000      7.001648000000000E-01      8.520996000000000E+00      1.414261000000000E-01     -1.671953000000000E+02
4945000000.000000      7.022400000000000E-01      8.375488000000000E+00      1.380768000000000E-01     -1.663984000000000E+02
4946000000.000000      7.028503000000000E-01      8.357422000000000E+00      1.352234000000000E-01     -1.656406000000000E+02
4947000000.000000      7.033386000000000E-01      8.218750000000000E+00      1.316376000000000E-01     -1.648125000000000E+02
4948000000.000000      7.059937000000000E-01      8.257324000000000E+00      1.294098000000000E-01     -1.638047000000000E+02
4949000000.000000      7.039490000000000E-01      8.051270000000000E+00      1.259689000000000E-01     -1.627422000000000E+02
4950000000.000000      7.059021000000000E-01      8.092773000000000E+00      1.234665000000000E-01     -1.615781000000000E+02
4951000000.000000      7.048950000000000E-01      7.845459000000000E+00      1.208649000000000E-01     -1.606328000000000E+02
4952000000.000000      7.051086000000000E-01      7.770020000000000E+00      1.178818000000000E-01     -1.593750000000000E+02
4953000000.000000      7.051697000000000E-01      7.649170000000000E+00      1.159973000000000E-01     -1.578359000000000E+02
4954000000.000000      7.090454000000000E-01      7.617432000000000E+00      1.135406000000000E-01     -1.564766000000000E+02
