! Network Analyzer HP8722D
! Hewlett-Packard
! Data name: Linha & Wilkinson
! Saver's name: Rodrigo Anjos
! Comments: Teste da utilização de aquisição
continua pelo VNA HP8722D
! Time and date: 22/5/2025 11:28
!              Frequency                     S11                                                   S21                                                   S12                                                   S22
# HZ  S  MA R 50
4800000000.000000      6.528015000000000E-01      1.083350000000000E+01      4.721069000000000E-01     -9.245703000000000E+01
4801000000.000000      6.483765000000000E-01      1.083643000000000E+01      4.726410000000000E-01     -9.310547000000000E+01
4802000000.000000      6.481934000000000E-01      1.087646000000000E+01      4.740601000000000E-01     -9.393749000000000E+01
4803000000.000000      6.467285000000000E-01      1.065674000000000E+01      4.769897000000000E-01     -9.460546000000000E+01
4804000000.000000      6.448975000000000E-01      1.063184000000000E+01      4.783020000000000E-01     -9.535156000000000E+01
4805000000.000000      6.461487000000000E-01      1.076758000000000E+01      4.793091000000000E-01     -9.614452000000000E+01
4806000000.000000      6.420288000000000E-01      1.067969000000000E+01      4.810333000000000E-01     -9.700781000000000E+01
4807000000.000000      6.387634000000000E-01      1.061523000000000E+01      4.821930000000000E-01     -9.773827000000000E+01
4808000000.000000      6.365967000000000E-01      1.079102000000000E+01      4.840240000000000E-01     -9.837109000000000E+01
4809000000.000000      6.364441000000000E-01      1.082666000000000E+01      4.859619000000000E-01     -9.928123000000000E+01
4810000000.000000      6.358032000000000E-01      1.062646000000000E+01      4.881287000000000E-01     -9.981640000000000E+01
4811000000.000000      6.333313000000000E-01      1.078027000000000E+01      4.891052000000000E-01     -1.007305000000000E+02
4812000000.000000      6.336975000000000E-01      1.095850000000000E+01      4.889679000000000E-01     -1.014687000000000E+02
4813000000.000000      6.310425000000000E-01      1.102295000000000E+01      4.902802000000000E-01     -1.023984000000000E+02
4814000000.000000      6.300049000000000E-01      1.092822000000000E+01      4.928589000000000E-01     -1.029102000000000E+02
4815000000.000000      6.281433000000000E-01      1.105225000000000E+01      4.913635000000000E-01     -1.037461000000000E+02
4816000000.000000      6.275330000000000E-01      1.105225000000000E+01      4.933472000000000E-01     -1.044883000000000E+02
4817000000.000000      6.255188000000000E-01      1.133789000000000E+01      4.931335000000000E-01     -1.052266000000000E+02
4818000000.000000      6.252747000000000E-01      1.116064000000000E+01      4.947968000000000E-01     -1.059180000000000E+02
4819000000.000000      6.237488000000000E-01      1.138281000000000E+01      4.950714000000000E-01     -1.067851000000000E+02
4820000000.000000      6.213074000000000E-01      1.154248000000000E+01      4.959106000000000E-01     -1.075508000000000E+02
4821000000.000000      6.215210000000000E-01      1.166992000000000E+01      4.964752000000000E-01     -1.083242000000000E+02
4822000000.000000      6.186829000000000E-01      1.149707000000000E+01      4.947510000000000E-01     -1.089141000000000E+02
4823000000.000000      6.201172000000000E-01      1.155029000000000E+01      4.975739000000000E-01     -1.096953000000000E+02
4824000000.000000      6.166992000000000E-01      1.175928000000000E+01      4.980469000000000E-01     -1.105312000000000E+02
4825000000.000000      6.165771000000000E-01      1.177002000000000E+01      4.975281000000000E-01     -1.112578000000000E+02
4826000000.000000      6.168213000000000E-01      1.175537000000000E+01      4.989471000000000E-01     -1.120664000000000E+02
4827000000.000000      6.163635000000000E-01      1.208350000000000E+01      4.980774000000000E-01     -1.126250000000000E+02
4828000000.000000      6.149902000000000E-01      1.205713000000000E+01      4.995880000000000E-01     -1.135234000000000E+02
4829000000.000000      6.159973000000000E-01      1.254883000000000E+01      5.002136000000000E-01     -1.141602000000000E+02
4830000000.000000      6.153564000000000E-01      1.222754000000000E+01      4.992371000000000E-01     -1.150078000000000E+02
4831000000.000000      6.138611000000000E-01      1.252832000000000E+01      4.990387000000000E-01     -1.156758000000000E+02
4832000000.000000      6.134949000000000E-01      1.273828000000000E+01      4.995880000000000E-01     -1.163515000000000E+02
4833000000.000000      6.134033000000000E-01      1.274805000000000E+01      4.994812000000000E-01     -1.172266000000000E+02
4834000000.000000      6.135254000000000E-01      1.289209000000000E+01      4.983673000000000E-01     -1.179726000000000E+02
4835000000.000000      6.137390000000000E-01      1.294043000000000E+01      4.992676000000000E-01     -1.188359000000000E+02
4836000000.000000      6.130676000000000E-01      1.322754000000000E+01      4.989166000000000E-01     -1.195976000000000E+02
4837000000.000000      6.141357000000000E-01      1.332910000000000E+01      4.984131000000000E-01     -1.205781000000000E+02
4838000000.000000      6.129761000000000E-01      1.342773000000000E+01      4.986420000000000E-01     -1.210547000000000E+02
4839000000.000000      6.165466000000000E-01      1.354980000000000E+01      4.991608000000000E-01     -1.219180000000000E+02
4840000000.000000      6.146545000000000E-01      1.341113000000000E+01      4.979706000000000E-01     -1.227695000000000E+02
4841000000.000000      6.153259000000000E-01      1.360352000000000E+01      4.983978000000000E-01     -1.235039000000000E+02
4842000000.000000      6.141663000000000E-01      1.360645000000000E+01      4.954681000000000E-01     -1.243359000000000E+02
4843000000.000000      6.179810000000000E-01      1.388770000000000E+01      4.962311000000000E-01     -1.252539000000000E+02
4844000000.000000      6.165161000000000E-01      1.393994000000000E+01      4.944305000000000E-01     -1.259453000000000E+02
4845000000.000000      6.177673000000000E-01      1.410889000000000E+01      4.932861000000000E-01     -1.267891000000000E+02
4846000000.000000      6.205750000000000E-01      1.421191000000000E+01      4.931335000000000E-01     -1.277344000000000E+02
4847000000.000000      6.199951000000000E-01      1.421729000000000E+01      4.917755000000000E-01     -1.283516000000000E+02
4848000000.000000      6.203613000000000E-01      1.420361000000000E+01      4.900818000000000E-01     -1.292344000000000E+02
4849000000.000000      6.195679000000000E-01      1.423242000000000E+01      4.891663000000000E-01     -1.301328000000000E+02
4850000000.000000      6.227417000000000E-01      1.433838000000000E+01      4.859924000000000E-01     -1.311172000000000E+02
4851000000.000000      6.239624000000000E-01      1.444531000000000E+01      4.863434000000000E-01     -1.317656000000000E+02
4852000000.000000      6.231995000000000E-01      1.452637000000000E+01      4.833069000000000E-01     -1.327891000000000E+02
4853000000.000000      6.248779000000000E-01      1.446484000000000E+01      4.812775000000000E-01     -1.336250000000000E+02
4854000000.000000      6.241760000000000E-01      1.466943000000000E+01      4.794159000000000E-01     -1.344766000000000E+02
4855000000.000000      6.268005000000000E-01      1.474463000000000E+01      4.785156000000000E-01     -1.352890000000000E+02
4856000000.000000      6.278992000000000E-01      1.443164000000000E+01      4.738770000000000E-01     -1.362109000000000E+02
4857000000.000000      6.286621000000000E-01      1.477930000000000E+01      4.726563000000000E-01     -1.368750000000000E+02
4858000000.000000      6.284485000000000E-01      1.484375000000000E+01      4.701996000000000E-01     -1.379141000000000E+02
4859000000.000000      6.298218000000000E-01      1.479004000000000E+01      4.671631000000000E-01     -1.386406000000000E+02
4860000000.000000      6.321716000000000E-01      1.490430000000000E+01      4.644165000000000E-01     -1.395156000000000E+02
4861000000.000000      6.326599000000000E-01      1.483154000000000E+01      4.614563000000000E-01     -1.404609000000000E+02
4862000000.000000      6.328125000000000E-01      1.501416000000000E+01      4.584656000000000E-01     -1.411641000000000E+02
4863000000.000000      6.380005000000000E-01      1.484619000000000E+01      4.534760000000000E-01     -1.421016000000000E+02
4864000000.000000      6.381531000000000E-01      1.483398000000000E+01      4.523926000000000E-01     -1.427969000000000E+02
4865000000.000000      6.384888000000000E-01      1.483154000000000E+01      4.480743000000000E-01     -1.435234000000000E+02
4866000000.000000      6.383667000000000E-01      1.465283000000000E+01      4.429932000000000E-01     -1.444766000000000E+02
4867000000.000000      6.394653000000000E-01      1.479688000000000E+01      4.402313000000000E-01     -1.453906000000000E+02
4868000000.000000      6.420593000000000E-01      1.475049000000000E+01      4.358826000000000E-01     -1.460469000000000E+02
4869000000.000000      6.427307000000000E-01      1.473389000000000E+01      4.315796000000000E-01     -1.469375000000000E+02
4870000000.000000      6.445313000000000E-01      1.482324000000000E+01      4.281616000000000E-01     -1.473438000000000E+02
4871000000.000000      6.448669000000000E-01      1.477344000000000E+01      4.226532000000000E-01     -1.482188000000000E+02
4872000000.000000      6.478271000000000E-01      1.472412000000000E+01      4.193115000000000E-01     -1.489141000000000E+02
4873000000.000000      6.478271000000000E-01      1.476416000000000E+01      4.152527000000000E-01     -1.496875000000000E+02
4874000000.000000      6.486206000000000E-01      1.477246000000000E+01      4.106750000000000E-01     -1.503515000000000E+02
4875000000.000000      6.501770000000000E-01      1.452490000000000E+01      4.047241000000000E-01     -1.509375000000000E+02
4876000000.000000      6.525879000000000E-01      1.462402000000000E+01      4.020996000000000E-01     -1.517266000000000E+02
4877000000.000000      6.532288000000000E-01      1.452246000000000E+01      3.983154000000000E-01     -1.524219000000000E+02
4878000000.000000      6.550293000000000E-01      1.454590000000000E+01      3.936310000000000E-01     -1.529140000000000E+02
4879000000.000000      6.559143000000000E-01      1.444287000000000E+01      3.876648000000000E-01     -1.535391000000000E+02
4880000000.000000      6.559753000000000E-01      1.442480000000000E+01      3.843536000000000E-01     -1.543047000000000E+02
4881000000.000000      6.583252000000000E-01      1.426563000000000E+01      3.798981000000000E-01     -1.547109000000000E+02
4882000000.000000      6.610718000000000E-01      1.440137000000000E+01      3.751373000000000E-01     -1.556172000000000E+02
4883000000.000000      6.606750000000000E-01      1.416504000000000E+01      3.703766000000000E-01     -1.558281000000000E+02
4884000000.000000      6.633606000000000E-01      1.420654000000000E+01      3.676910000000000E-01     -1.566875000000000E+02
4885000000.000000      6.643982000000000E-01      1.414307000000000E+01      3.618927000000000E-01     -1.566484000000000E+02
4886000000.000000      6.657104000000000E-01      1.396338000000000E+01      3.577271000000000E-01     -1.571640000000000E+02
4887000000.000000      6.675720000000000E-01      1.395654000000000E+01      3.544006000000000E-01     -1.578828000000000E+02
4888000000.000000      6.677856000000000E-01      1.396729000000000E+01      3.500214000000000E-01     -1.584609000000000E+02
4889000000.000000      6.681824000000000E-01      1.376563000000000E+01      3.459625000000000E-01     -1.589844000000000E+02
4890000000.000000      6.700134000000000E-01      1.367236000000000E+01      3.396149000000000E-01     -1.595391000000000E+02
4891000000.000000      6.706848000000000E-01      1.375732000000000E+01      3.368530000000000E-01     -1.598828000000000E+02
4892000000.000000      6.714783000000000E-01      1.349219000000000E+01      3.326569000000000E-01     -1.601016000000000E+02
4893000000.000000      6.720581000000000E-01      1.341699000000000E+01      3.287048000000000E-01     -1.607265000000000E+02
4894000000.000000      6.727905000000000E-01      1.340430000000000E+01      3.248749000000000E-01     -1.609141000000000E+02
4895000000.000000      6.734009000000000E-01      1.332471000000000E+01      3.212280000000000E-01     -1.613281000000000E+02
4896000000.000000      6.766357000000000E-01      1.306396000000000E+01      3.175812000000000E-01     -1.617109000000000E+02
4897000000.000000      6.737366000000000E-01      1.300342000000000E+01      3.131561000000000E-01     -1.620781000000000E+02
4898000000.000000      6.757202000000000E-01      1.309277000000000E+01      3.099365000000000E-01     -1.624297000000000E+02
4899000000.000000      6.781311000000000E-01      1.302393000000000E+01      3.062439000000000E-01     -1.628906000000000E+02
4900000000.000000      6.790161000000000E-01      1.274951000000000E+01      3.023834000000000E-01     -1.631562000000000E+02
4901000000.000000      6.796875000000000E-01      1.265625000000000E+01      2.982941000000000E-01     -1.635391000000000E+02
4902000000.000000      6.798706000000000E-01      1.253125000000000E+01      2.954102000000000E-01     -1.638906000000000E+02
4903000000.000000      6.803894000000000E-01      1.262305000000000E+01      2.909393000000000E-01     -1.642812000000000E+02
4904000000.000000      6.811218000000000E-01      1.237305000000000E+01      2.876282000000000E-01     -1.646250000000000E+02
4905000000.000000      6.821289000000000E-01      1.234961000000000E+01      2.840881000000000E-01     -1.648281000000000E+02
4906000000.000000      6.844788000000000E-01      1.220020000000000E+01      2.813110000000000E-01     -1.649688000000000E+02
4907000000.000000      6.832886000000000E-01      1.205713000000000E+01      2.775879000000000E-01     -1.655625000000000E+02
4908000000.000000      6.846313000000000E-01      1.195850000000000E+01      2.732391000000000E-01     -1.658984000000000E+02
4909000000.000000      6.851807000000000E-01      1.177002000000000E+01      2.699890000000000E-01     -1.661719000000000E+02
4910000000.000000      6.848755000000000E-01      1.177148000000000E+01      2.668915000000000E-01     -1.665156000000000E+02
4911000000.000000      6.853943000000000E-01      1.188281000000000E+01      2.639771000000000E-01     -1.668437000000000E+02
4912000000.000000      6.875916000000000E-01      1.171387000000000E+01      2.599792000000000E-01     -1.671953000000000E+02
4913000000.000000      6.893311000000000E-01      1.149414000000000E+01      2.567902000000000E-01     -1.673672000000000E+02
4914000000.000000      6.877441000000000E-01      1.135400000000000E+01      2.528992000000000E-01     -1.676094000000000E+02
4915000000.000000      6.881714000000000E-01      1.132813000000000E+01      2.494125000000000E-01     -1.681172000000000E+02
4916000000.000000      6.890259000000000E-01      1.115918000000000E+01      2.464218000000000E-01     -1.683906000000000E+02
4917000000.000000      6.891174000000000E-01      1.121680000000000E+01      2.420807000000000E-01     -1.685234000000000E+02
4918000000.000000      6.898804000000000E-01      1.116895000000000E+01      2.381134000000000E-01     -1.688359000000000E+02
4919000000.000000      6.905823000000000E-01      1.108496000000000E+01      2.348175000000000E-01     -1.688984000000000E+02
4920000000.000000      6.914978000000000E-01      1.088867000000000E+01      2.308273000000000E-01     -1.694687000000000E+02
4921000000.000000      6.893616000000000E-01      1.079639000000000E+01      2.280350000000000E-01     -1.696016000000000E+02
4922000000.000000      6.926270000000000E-01      1.071436000000000E+01      2.240677000000000E-01     -1.695859000000000E+02
4923000000.000000      6.937561000000000E-01      1.077197000000000E+01      2.204208000000000E-01     -1.697734000000000E+02
4924000000.000000      6.943970000000000E-01      1.054932000000000E+01      2.162170000000000E-01     -1.701953000000000E+02
4925000000.000000      6.912231000000000E-01      1.045752000000000E+01      2.122726000000000E-01     -1.705469000000000E+02
4926000000.000000      6.929932000000000E-01      1.031885000000000E+01      2.091141000000000E-01     -1.706016000000000E+02
4927000000.000000      6.933594000000000E-01      1.004688000000000E+01      2.051849000000000E-01     -1.707109000000000E+02
4928000000.000000      6.966858000000000E-01      1.010303000000000E+01      2.014771000000000E-01     -1.707578000000000E+02
4929000000.000000      6.958008000000000E-01      1.006885000000000E+01      1.973953000000000E-01     -1.708594000000000E+02
4930000000.000000      6.964722000000000E-01      9.795410000000000E+00      1.937943000000000E-01     -1.708437000000000E+02
4931000000.000000      6.959839000000000E-01      9.806641000000000E+00      1.906204000000000E-01     -1.709375000000000E+02
4932000000.000000      6.949463000000000E-01      9.692383000000000E+00      1.867371000000000E-01     -1.708984000000000E+02
4933000000.000000      6.969604000000000E-01      9.575684000000000E+00      1.814804000000000E-01     -1.707266000000000E+02
4934000000.000000      7.000122000000000E-01      9.440918000000000E+00      1.784439000000000E-01     -1.709141000000000E+02
4935000000.000000      6.983337000000000E-01      9.372559000000000E+00      1.753159000000000E-01     -1.707109000000000E+02
4936000000.000000      6.955872000000000E-01      9.303711000000000E+00      1.713562000000000E-01     -1.704766000000000E+02
4937000000.000000      7.000732000000000E-01      9.174805000000000E+00      1.676636000000000E-01     -1.703047000000000E+02
4938000000.000000      6.983337000000000E-01      9.154297000000000E+00      1.639786000000000E-01     -1.699453000000000E+02
4939000000.000000      6.998291000000000E-01      9.180176000000000E+00      1.602478000000000E-01     -1.696094000000000E+02
4940000000.000000      7.014465000000000E-01      8.946777000000000E+00      1.560440000000000E-01     -1.695313000000000E+02
4941000000.000000      7.019348000000000E-01      8.720215000000000E+00      1.531372000000000E-01     -1.689844000000000E+02
4942000000.000000      6.990662000000000E-01      8.725586000000000E+00      1.492844000000000E-01     -1.686016000000000E+02
4943000000.000000      7.015076000000000E-01      8.608887000000000E+00      1.461411000000000E-01     -1.678594000000000E+02
4944000000.000000      7.016296000000000E-01      8.409668000000000E+00      1.425781000000000E-01     -1.674297000000000E+02
4945000000.000000      7.034912000000000E-01      8.348145000000000E+00      1.388474000000000E-01     -1.667500000000000E+02
4946000000.000000      7.025452000000000E-01      8.367188000000000E+00      1.361237000000000E-01     -1.659453000000000E+02
4947000000.000000      7.054443000000000E-01      8.166504000000000E+00      1.323318000000000E-01     -1.652422000000000E+02
4948000000.000000      7.047119000000000E-01      8.064941000000000E+00      1.293564000000000E-01     -1.643672000000000E+02
4949000000.000000      7.023621000000000E-01      7.968994000000000E+00      1.265869000000000E-01     -1.631484000000000E+02
4950000000.000000      7.055359000000000E-01      7.936035000000000E+00      1.236420000000000E-01     -1.622031000000000E+02
4951000000.000000      7.060547000000000E-01      7.884033000000000E+00      1.212769000000000E-01     -1.611875000000000E+02
4952000000.000000      7.053833000000000E-01      7.739746000000000E+00      1.187172000000000E-01     -1.599922000000000E+02
4953000000.000000      7.064514000000000E-01      7.642334000000000E+00      1.164017000000000E-01     -1.584687000000000E+02
4954000000.000000      7.071228000000000E-01      7.507568000000000E+00      1.146355000000000E-01     -1.572109000000000E+02
