! Network Analyzer HP8722D
! Hewlett-Packard
! Data name: Linha & Wilkinson
! Saver's name: Rodrigo Anjos
! Comments: Teste da utilização de aquisição
continua pelo VNA HP8722D
! Time and date: 22/5/2025 13:18
!              Frequency                     S11                                                   S21                                                   S12                                                   S22
# HZ  S  MA R 50
4800000000.000000      6.519775000000000E-01      1.083643000000000E+01      4.704132000000000E-01     -9.223436000000000E+01
4801000000.000000      6.499329000000000E-01      1.091748000000000E+01      4.725494000000000E-01     -9.296875000000000E+01
4802000000.000000      6.478882000000000E-01      1.093799000000000E+01      4.743195000000000E-01     -9.366405000000000E+01
4803000000.000000      6.451111000000000E-01      1.075830000000000E+01      4.777527000000000E-01     -9.451952000000000E+01
4804000000.000000      6.452942000000000E-01      1.085547000000000E+01      4.803009000000000E-01     -9.531641000000000E+01
4805000000.000000      6.449585000000000E-01      1.067432000000000E+01      4.794617000000000E-01     -9.587500000000000E+01
4806000000.000000      6.422729000000000E-01      1.074707000000000E+01      4.813995000000000E-01     -9.666796000000000E+01
4807000000.000000      6.407166000000000E-01      1.081152000000000E+01      4.842682000000000E-01     -9.747656000000000E+01
4808000000.000000      6.376953000000000E-01      1.081445000000000E+01      4.837952000000000E-01     -9.813280000000000E+01
4809000000.000000      6.369324000000000E-01      1.094775000000000E+01      4.845886000000000E-01     -9.900391000000000E+01
4810000000.000000      6.352844000000000E-01      1.098486000000000E+01      4.876556000000000E-01     -9.973436000000000E+01
4811000000.000000      6.348572000000000E-01      1.110693000000000E+01      4.892883000000000E-01     -1.006289000000000E+02
4812000000.000000      6.335449000000000E-01      1.096143000000000E+01      4.899445000000000E-01     -1.011992000000000E+02
4813000000.000000      6.304626000000000E-01      1.097363000000000E+01      4.903412000000000E-01     -1.021992000000000E+02
4814000000.000000      6.300659000000000E-01      1.107422000000000E+01      4.916229000000000E-01     -1.026953000000000E+02
4815000000.000000      6.282043000000000E-01      1.105078000000000E+01      4.927216000000000E-01     -1.034687000000000E+02
4816000000.000000      6.268311000000000E-01      1.127441000000000E+01      4.941406000000000E-01     -1.043086000000000E+02
4817000000.000000      6.235046000000000E-01      1.140479000000000E+01      4.927216000000000E-01     -1.050195000000000E+02
4818000000.000000      6.234436000000000E-01      1.132520000000000E+01      4.947815000000000E-01     -1.058867000000000E+02
4819000000.000000      6.239319000000000E-01      1.149414000000000E+01      4.960175000000000E-01     -1.066758000000000E+02
4820000000.000000      6.206360000000000E-01      1.155469000000000E+01      4.956665000000000E-01     -1.071992000000000E+02
4821000000.000000      6.218567000000000E-01      1.167529000000000E+01      4.967651000000000E-01     -1.081133000000000E+02
4822000000.000000      6.197815000000000E-01      1.151758000000000E+01      4.963226000000000E-01     -1.087383000000000E+02
4823000000.000000      6.187744000000000E-01      1.175537000000000E+01      4.992828000000000E-01     -1.096836000000000E+02
4824000000.000000      6.170654000000000E-01      1.185107000000000E+01      4.988861000000000E-01     -1.101914000000000E+02
4825000000.000000      6.174316000000000E-01      1.201172000000000E+01      4.972076000000000E-01     -1.111133000000000E+02
4826000000.000000      6.178589000000000E-01      1.195166000000000E+01      4.985352000000000E-01     -1.118750000000000E+02
4827000000.000000      6.153259000000000E-01      1.212891000000000E+01      4.991608000000000E-01     -1.122890000000000E+02
4828000000.000000      6.160889000000000E-01      1.217676000000000E+01      4.989471000000000E-01     -1.132148000000000E+02
4829000000.000000      6.157837000000000E-01      1.242529000000000E+01      5.001221000000000E-01     -1.138984000000000E+02
4830000000.000000      6.138306000000000E-01      1.251709000000000E+01      5.003967000000000E-01     -1.148242000000000E+02
4831000000.000000      6.136780000000000E-01      1.251465000000000E+01      4.997559000000000E-01     -1.156484000000000E+02
4832000000.000000      6.148071000000000E-01      1.288525000000000E+01      4.986572000000000E-01     -1.162344000000000E+02
4833000000.000000      6.125183000000000E-01      1.282910000000000E+01      4.989471000000000E-01     -1.168828000000000E+02
4834000000.000000      6.118469000000000E-01      1.286328000000000E+01      4.983978000000000E-01     -1.180156000000000E+02
4835000000.000000      6.149292000000000E-01      1.320947000000000E+01      5.005188000000000E-01     -1.186445000000000E+02
4836000000.000000      6.130066000000000E-01      1.333154000000000E+01      4.984436000000000E-01     -1.192656000000000E+02
4837000000.000000      6.129150000000000E-01      1.337988000000000E+01      4.974823000000000E-01     -1.203164000000000E+02
4838000000.000000      6.142883000000000E-01      1.351855000000000E+01      4.990692000000000E-01     -1.208594000000000E+02
4839000000.000000      6.151123000000000E-01      1.359668000000000E+01      4.984131000000000E-01     -1.216914000000000E+02
4840000000.000000      6.139832000000000E-01      1.344287000000000E+01      4.975586000000000E-01     -1.225781000000000E+02
4841000000.000000      6.143494000000000E-01      1.376270000000000E+01      4.971924000000000E-01     -1.233555000000000E+02
4842000000.000000      6.169739000000000E-01      1.378076000000000E+01      4.971924000000000E-01     -1.241640000000000E+02
4843000000.000000      6.179504000000000E-01      1.396484000000000E+01      4.973145000000000E-01     -1.250312000000000E+02
4844000000.000000      6.166077000000000E-01      1.397461000000000E+01      4.945374000000000E-01     -1.259766000000000E+02
4845000000.000000      6.174011000000000E-01      1.413232000000000E+01      4.941406000000000E-01     -1.266406000000000E+02
4846000000.000000      6.185608000000000E-01      1.417773000000000E+01      4.922180000000000E-01     -1.275430000000000E+02
4847000000.000000      6.199951000000000E-01      1.436865000000000E+01      4.917297000000000E-01     -1.282031000000000E+02
4848000000.000000      6.181030000000000E-01      1.440137000000000E+01      4.883728000000000E-01     -1.291484000000000E+02
4849000000.000000      6.218872000000000E-01      1.436426000000000E+01      4.902802000000000E-01     -1.299297000000000E+02
4850000000.000000      6.210938000000000E-01      1.451953000000000E+01      4.875946000000000E-01     -1.307812000000000E+02
4851000000.000000      6.233215000000000E-01      1.452637000000000E+01      4.855499000000000E-01     -1.317031000000000E+02
4852000000.000000      6.250305000000000E-01      1.464844000000000E+01      4.846497000000000E-01     -1.322969000000000E+02
4853000000.000000      6.254272000000000E-01      1.458398000000000E+01      4.807892000000000E-01     -1.333906000000000E+02
4854000000.000000      6.248779000000000E-01      1.455957000000000E+01      4.796600000000000E-01     -1.342109000000000E+02
4855000000.000000      6.265869000000000E-01      1.481738000000000E+01      4.779205000000000E-01     -1.351875000000000E+02
4856000000.000000      6.280518000000000E-01      1.467188000000000E+01      4.738159000000000E-01     -1.359141000000000E+02
4857000000.000000      6.265869000000000E-01      1.482861000000000E+01      4.723816000000000E-01     -1.368125000000000E+02
4858000000.000000      6.278687000000000E-01      1.482324000000000E+01      4.711304000000000E-01     -1.377969000000000E+02
4859000000.000000      6.297607000000000E-01      1.472949000000000E+01      4.685211000000000E-01     -1.385703000000000E+02
4860000000.000000      6.309814000000000E-01      1.499219000000000E+01      4.638062000000000E-01     -1.392891000000000E+02
4861000000.000000      6.336670000000000E-01      1.486133000000000E+01      4.613647000000000E-01     -1.403672000000000E+02
4862000000.000000      6.316223000000000E-01      1.499316000000000E+01      4.590149000000000E-01     -1.409688000000000E+02
4863000000.000000      6.350403000000000E-01      1.505664000000000E+01      4.544525000000000E-01     -1.419219000000000E+02
4864000000.000000      6.358948000000000E-01      1.499902000000000E+01      4.515228000000000E-01     -1.427578000000000E+02
4865000000.000000      6.372070000000000E-01      1.486572000000000E+01      4.474030000000000E-01     -1.433359000000000E+02
4866000000.000000      6.380005000000000E-01      1.492871000000000E+01      4.430389000000000E-01     -1.442812000000000E+02
4867000000.000000      6.378479000000000E-01      1.511572000000000E+01      4.400024000000000E-01     -1.451641000000000E+02
4868000000.000000      6.420593000000000E-01      1.495752000000000E+01      4.366302000000000E-01     -1.458047000000000E+02
4869000000.000000      6.406860000000000E-01      1.493164000000000E+01      4.306335000000000E-01     -1.466172000000000E+02
4870000000.000000      6.427917000000000E-01      1.466260000000000E+01      4.284058000000000E-01     -1.472422000000000E+02
4871000000.000000      6.457520000000000E-01      1.499219000000000E+01      4.256439000000000E-01     -1.482266000000000E+02
4872000000.000000      6.475525000000000E-01      1.484375000000000E+01      4.196625000000000E-01     -1.487969000000000E+02
4873000000.000000      6.478577000000000E-01      1.484229000000000E+01      4.153442000000000E-01     -1.496719000000000E+02
4874000000.000000      6.480713000000000E-01      1.470508000000000E+01      4.103546000000000E-01     -1.503047000000000E+02
4875000000.000000      6.502380000000000E-01      1.481055000000000E+01      4.062958000000000E-01     -1.508906000000000E+02
4876000000.000000      6.508484000000000E-01      1.476270000000000E+01      4.032593000000000E-01     -1.516094000000000E+02
4877000000.000000      6.521912000000000E-01      1.465674000000000E+01      3.977814000000000E-01     -1.520937000000000E+02
4878000000.000000      6.533508000000000E-01      1.464160000000000E+01      3.932343000000000E-01     -1.531094000000000E+02
4879000000.000000      6.564331000000000E-01      1.449072000000000E+01      3.892822000000000E-01     -1.534219000000000E+02
4880000000.000000      6.577148000000000E-01      1.461572000000000E+01      3.843231000000000E-01     -1.539922000000000E+02
4881000000.000000      6.577454000000000E-01      1.448926000000000E+01      3.795624000000000E-01     -1.544609000000000E+02
4882000000.000000      6.589966000000000E-01      1.442334000000000E+01      3.766785000000000E-01     -1.551797000000000E+02
4883000000.000000      6.610718000000000E-01      1.436572000000000E+01      3.709717000000000E-01     -1.558906000000000E+02
4884000000.000000      6.614990000000000E-01      1.435596000000000E+01      3.664551000000000E-01     -1.562734000000000E+02
4885000000.000000      6.609802000000000E-01      1.420654000000000E+01      3.624573000000000E-01     -1.565859000000000E+02
4886000000.000000      6.642456000000000E-01      1.423096000000000E+01      3.592224000000000E-01     -1.570234000000000E+02
4887000000.000000      6.662292000000000E-01      1.419287000000000E+01      3.547516000000000E-01     -1.578203000000000E+02
4888000000.000000      6.674194000000000E-01      1.392773000000000E+01      3.505859000000000E-01     -1.583359000000000E+02
4889000000.000000      6.687317000000000E-01      1.386035000000000E+01      3.460388000000000E-01     -1.586484000000000E+02
4890000000.000000      6.666870000000000E-01      1.370508000000000E+01      3.421021000000000E-01     -1.593828000000000E+02
4891000000.000000      6.700745000000000E-01      1.376709000000000E+01      3.372345000000000E-01     -1.596172000000000E+02
4892000000.000000      6.689453000000000E-01      1.359961000000000E+01      3.324585000000000E-01     -1.600625000000000E+02
4893000000.000000      6.712341000000000E-01      1.362305000000000E+01      3.285370000000000E-01     -1.606094000000000E+02
4894000000.000000      6.739502000000000E-01      1.350586000000000E+01      3.234253000000000E-01     -1.606484000000000E+02
4895000000.000000      6.752319000000000E-01      1.329883000000000E+01      3.215637000000000E-01     -1.612031000000000E+02
4896000000.000000      6.743774000000000E-01      1.345264000000000E+01      3.177643000000000E-01     -1.616484000000000E+02
4897000000.000000      6.759033000000000E-01      1.315332000000000E+01      3.139038000000000E-01     -1.620156000000000E+02
4898000000.000000      6.750793000000000E-01      1.296631000000000E+01      3.103333000000000E-01     -1.623047000000000E+02
4899000000.000000      6.766357000000000E-01      1.303760000000000E+01      3.065948000000000E-01     -1.627500000000000E+02
4900000000.000000      6.781006000000000E-01      1.280176000000000E+01      3.031921000000000E-01     -1.630859000000000E+02
4901000000.000000      6.777649000000000E-01      1.282227000000000E+01      2.993317000000000E-01     -1.633594000000000E+02
4902000000.000000      6.815796000000000E-01      1.273828000000000E+01      2.961578000000000E-01     -1.636719000000000E+02
4903000000.000000      6.797485000000000E-01      1.251709000000000E+01      2.909546000000000E-01     -1.640781000000000E+02
4904000000.000000      6.814575000000000E-01      1.241846000000000E+01      2.882080000000000E-01     -1.645313000000000E+02
4905000000.000000      6.820984000000000E-01      1.246240000000000E+01      2.848969000000000E-01     -1.647656000000000E+02
4906000000.000000      6.811523000000000E-01      1.236768000000000E+01      2.811584000000000E-01     -1.649219000000000E+02
4907000000.000000      6.846008000000000E-01      1.234717000000000E+01      2.779694000000000E-01     -1.653906000000000E+02
4908000000.000000      6.828918000000000E-01      1.214258000000000E+01      2.743225000000000E-01     -1.658516000000000E+02
4909000000.000000      6.835327000000000E-01      1.192383000000000E+01      2.703247000000000E-01     -1.661328000000000E+02
4910000000.000000      6.846008000000000E-01      1.199707000000000E+01      2.673035000000000E-01     -1.664531000000000E+02
4911000000.000000      6.859741000000000E-01      1.188574000000000E+01      2.640533000000000E-01     -1.666641000000000E+02
4912000000.000000      6.882629000000000E-01      1.184570000000000E+01      2.606812000000000E-01     -1.671172000000000E+02
4913000000.000000      6.891785000000000E-01      1.165332000000000E+01      2.565765000000000E-01     -1.674219000000000E+02
4914000000.000000      6.867676000000000E-01      1.145703000000000E+01      2.534637000000000E-01     -1.675390000000000E+02
4915000000.000000      6.870728000000000E-01      1.157666000000000E+01      2.499313000000000E-01     -1.679766000000000E+02
4916000000.000000      6.875610000000000E-01      1.124854000000000E+01      2.461166000000000E-01     -1.683125000000000E+02
4917000000.000000      6.900940000000000E-01      1.135840000000000E+01      2.425079000000000E-01     -1.686250000000000E+02
4918000000.000000      6.908569000000000E-01      1.107959000000000E+01      2.387695000000000E-01     -1.688359000000000E+02
4919000000.000000      6.877136000000000E-01      1.123193000000000E+01      2.356186000000000E-01     -1.687578000000000E+02
4920000000.000000      6.907959000000000E-01      1.096680000000000E+01      2.320633000000000E-01     -1.693203000000000E+02
4921000000.000000      6.911316000000000E-01      1.077197000000000E+01      2.282028000000000E-01     -1.695547000000000E+02
4922000000.000000      6.944885000000000E-01      1.067041000000000E+01      2.251892000000000E-01     -1.696172000000000E+02
4923000000.000000      6.925049000000000E-01      1.070313000000000E+01      2.210159000000000E-01     -1.697656000000000E+02
4924000000.000000      6.920166000000000E-01      1.067871000000000E+01      2.164993000000000E-01     -1.702188000000000E+02
4925000000.000000      6.925659000000000E-01      1.058496000000000E+01      2.132874000000000E-01     -1.702734000000000E+02
4926000000.000000      6.934814000000000E-01      1.063184000000000E+01      2.096405000000000E-01     -1.704766000000000E+02
4927000000.000000      6.928406000000000E-01      1.013623000000000E+01      2.055435000000000E-01     -1.706172000000000E+02
4928000000.000000      6.966858000000000E-01      1.010449000000000E+01      2.020569000000000E-01     -1.707578000000000E+02
4929000000.000000      6.960449000000000E-01      9.910645000000000E+00      1.980362000000000E-01     -1.707734000000000E+02
4930000000.000000      6.958923000000000E-01      1.011963000000000E+01      1.948242000000000E-01     -1.708281000000000E+02
4931000000.000000      6.961975000000000E-01      9.913574000000000E+00      1.911621000000000E-01     -1.709219000000000E+02
4932000000.000000      6.952820000000000E-01      9.743164000000000E+00      1.868134000000000E-01     -1.709141000000000E+02
4933000000.000000      6.950073000000000E-01      9.571777000000000E+00      1.825333000000000E-01     -1.707813000000000E+02
4934000000.000000      6.988831000000000E-01      9.575684000000000E+00      1.790695000000000E-01     -1.709141000000000E+02
4935000000.000000      6.995544000000000E-01      9.524902000000000E+00      1.755219000000000E-01     -1.705312000000000E+02
4936000000.000000      6.979980000000000E-01      9.582520000000000E+00      1.716766000000000E-01     -1.703984000000000E+02
4937000000.000000      6.996765000000000E-01      9.255859000000000E+00      1.679459000000000E-01     -1.702812000000000E+02
4938000000.000000      6.979370000000000E-01      9.103516000000000E+00      1.641846000000000E-01     -1.700469000000000E+02
4939000000.000000      6.989441000000000E-01      9.127930000000000E+00      1.605988000000000E-01     -1.696016000000000E+02
4940000000.000000      7.001038000000000E-01      9.207520000000000E+00      1.562729000000000E-01     -1.695234000000000E+02
4941000000.000000      7.007141000000000E-01      8.928711000000000E+00      1.536942000000000E-01     -1.690234000000000E+02
4942000000.000000      6.987915000000000E-01      8.833008000000000E+00      1.502075000000000E-01     -1.684687000000000E+02
4943000000.000000      7.014771000000000E-01      8.869629000000000E+00      1.463547000000000E-01     -1.680312000000000E+02
4944000000.000000      7.016296000000000E-01      8.551270000000000E+00      1.431885000000000E-01     -1.675547000000000E+02
4945000000.000000      7.038879000000000E-01      8.571777000000000E+00      1.397095000000000E-01     -1.668047000000000E+02
4946000000.000000      7.034607000000000E-01      8.343750000000000E+00      1.361694000000000E-01     -1.660234000000000E+02
4947000000.000000      7.040710000000000E-01      8.228516000000000E+00      1.330948000000000E-01     -1.651875000000000E+02
4948000000.000000      7.030334000000000E-01      8.199707000000000E+00      1.302719000000000E-01     -1.644531000000000E+02
4949000000.000000      7.051392000000000E-01      8.229980000000000E+00      1.271591000000000E-01     -1.631484000000000E+02
4950000000.000000      7.058716000000000E-01      8.176270000000000E+00      1.242523000000000E-01     -1.624453000000000E+02
4951000000.000000      7.045593000000000E-01      7.987061000000000E+00      1.217422000000000E-01     -1.612734000000000E+02
4952000000.000000      7.053528000000000E-01      8.045898000000000E+00      1.187363000000000E-01     -1.600937000000000E+02
4953000000.000000      7.053528000000000E-01      7.767334000000000E+00      1.169624000000000E-01     -1.585938000000000E+02
4954000000.000000      7.075500000000000E-01      7.852295000000000E+00      1.145287000000000E-01     -1.573437000000000E+02
