! Network Analyzer HP8722D
! Hewlett-Packard
! Data name: Linha & Wilkinson
! Saver's name: Rodrigo Anjos
! Comments: Teste da utilização de aquisição
continua pelo VNA HP8722D
! Time and date: 22/5/2025 14:52
!              Frequency                     S11                                                   S21                                                   S12                                                   S22
# HZ  S  MA R 50
4800000000.000000      6.531982000000000E-01      1.097363000000000E+01      4.700775000000000E-01     -9.202343000000000E+01
4801000000.000000      6.503906000000000E-01      1.104932000000000E+01      4.724579000000000E-01     -9.276953000000000E+01
4802000000.000000      6.492920000000000E-01      1.088184000000000E+01      4.737549000000000E-01     -9.333984000000000E+01
4803000000.000000      6.463318000000000E-01      1.088330000000000E+01      4.781952000000000E-01     -9.428514000000000E+01
4804000000.000000      6.466370000000000E-01      1.091309000000000E+01      4.781952000000000E-01     -9.487890000000000E+01
4805000000.000000      6.455078000000000E-01      1.095166000000000E+01      4.797516000000000E-01     -9.577343000000000E+01
4806000000.000000      6.419678000000000E-01      1.083252000000000E+01      4.798889000000000E-01     -9.659765000000000E+01
4807000000.000000      6.412048000000000E-01      1.091211000000000E+01      4.831390000000000E-01     -9.742577000000000E+01
4808000000.000000      6.383057000000000E-01      1.085693000000000E+01      4.847565000000000E-01     -9.793358000000000E+01
4809000000.000000      6.366272000000000E-01      1.104248000000000E+01      4.861145000000000E-01     -9.884766000000000E+01
4810000000.000000      6.352539000000000E-01      1.086523000000000E+01      4.878082000000000E-01     -9.958202000000000E+01
4811000000.000000      6.345520000000000E-01      1.119336000000000E+01      4.893036000000000E-01     -1.001484000000000E+02
4812000000.000000      6.361694000000000E-01      1.124414000000000E+01      4.906006000000000E-01     -1.010859000000000E+02
4813000000.000000      6.318359000000000E-01      1.134180000000000E+01      4.907532000000000E-01     -1.017578000000000E+02
4814000000.000000      6.316833000000000E-01      1.120850000000000E+01      4.914551000000000E-01     -1.024453000000000E+02
4815000000.000000      6.282654000000000E-01      1.130469000000000E+01      4.935608000000000E-01     -1.033203000000000E+02
4816000000.000000      6.283875000000000E-01      1.125098000000000E+01      4.939880000000000E-01     -1.040977000000000E+02
4817000000.000000      6.255188000000000E-01      1.161768000000000E+01      4.929657000000000E-01     -1.048789000000000E+02
4818000000.000000      6.250916000000000E-01      1.141602000000000E+01      4.949646000000000E-01     -1.055234000000000E+02
4819000000.000000      6.247559000000000E-01      1.162598000000000E+01      4.958649000000000E-01     -1.063203000000000E+02
4820000000.000000      6.222534000000000E-01      1.171387000000000E+01      4.972534000000000E-01     -1.069805000000000E+02
4821000000.000000      6.231384000000000E-01      1.158740000000000E+01      4.965363000000000E-01     -1.078242000000000E+02
4822000000.000000      6.214905000000000E-01      1.167432000000000E+01      4.980621000000000E-01     -1.083945000000000E+02
4823000000.000000      6.206970000000000E-01      1.173438000000000E+01      4.972076000000000E-01     -1.092812000000000E+02
4824000000.000000      6.181030000000000E-01      1.204492000000000E+01      4.989014000000000E-01     -1.099961000000000E+02
4825000000.000000      6.171265000000000E-01      1.208203000000000E+01      4.984589000000000E-01     -1.107617000000000E+02
4826000000.000000      6.154480000000000E-01      1.203955000000000E+01      4.991608000000000E-01     -1.117070000000000E+02
4827000000.000000      6.165161000000000E-01      1.247900000000000E+01      4.991913000000000E-01     -1.122422000000000E+02
4828000000.000000      6.154480000000000E-01      1.231689000000000E+01      5.008850000000000E-01     -1.131367000000000E+02
4829000000.000000      6.153259000000000E-01      1.278369000000000E+01      5.000916000000000E-01     -1.137695000000000E+02
4830000000.000000      6.154785000000000E-01      1.258594000000000E+01      5.002441000000000E-01     -1.146133000000000E+02
4831000000.000000      6.155090000000000E-01      1.254053000000000E+01      5.000000000000000E-01     -1.154023000000000E+02
4832000000.000000      6.126404000000000E-01      1.283447000000000E+01      5.001526000000000E-01     -1.159531000000000E+02
4833000000.000000      6.123657000000000E-01      1.306104000000000E+01      4.980927000000000E-01     -1.166875000000000E+02
4834000000.000000      6.144104000000000E-01      1.301318000000000E+01      5.000000000000000E-01     -1.174922000000000E+02
4835000000.000000      6.143799000000000E-01      1.322461000000000E+01      4.988861000000000E-01     -1.184766000000000E+02
4836000000.000000      6.151733000000000E-01      1.340430000000000E+01      4.993439000000000E-01     -1.190117000000000E+02
4837000000.000000      6.141357000000000E-01      1.346094000000000E+01      4.978790000000000E-01     -1.201641000000000E+02
4838000000.000000      6.146240000000000E-01      1.349658000000000E+01      4.995575000000000E-01     -1.206914000000000E+02
4839000000.000000      6.178284000000000E-01      1.371631000000000E+01      4.987030000000000E-01     -1.213984000000000E+02
4840000000.000000      6.167603000000000E-01      1.372021000000000E+01      4.987793000000000E-01     -1.221562000000000E+02
4841000000.000000      6.152344000000000E-01      1.390283000000000E+01      4.985352000000000E-01     -1.230586000000000E+02
4842000000.000000      6.178589000000000E-01      1.396729000000000E+01      4.977112000000000E-01     -1.238477000000000E+02
4843000000.000000      6.180115000000000E-01      1.389355000000000E+01      4.977112000000000E-01     -1.247539000000000E+02
4844000000.000000      6.164551000000000E-01      1.384668000000000E+01      4.961548000000000E-01     -1.255312000000000E+02
4845000000.000000      6.162720000000000E-01      1.433154000000000E+01      4.956512000000000E-01     -1.265000000000000E+02
4846000000.000000      6.199646000000000E-01      1.442480000000000E+01      4.937897000000000E-01     -1.271797000000000E+02
4847000000.000000      6.206970000000000E-01      1.440967000000000E+01      4.922485000000000E-01     -1.278633000000000E+02
4848000000.000000      6.201782000000000E-01      1.456055000000000E+01      4.902954000000000E-01     -1.287578000000000E+02
4849000000.000000      6.205444000000000E-01      1.448682000000000E+01      4.899750000000000E-01     -1.296406000000000E+02
4850000000.000000      6.213684000000000E-01      1.451807000000000E+01      4.879913000000000E-01     -1.304609000000000E+02
4851000000.000000      6.232605000000000E-01      1.487109000000000E+01      4.882202000000000E-01     -1.313984000000000E+02
4852000000.000000      6.235046000000000E-01      1.479541000000000E+01      4.848328000000000E-01     -1.321094000000000E+02
4853000000.000000      6.247864000000000E-01      1.461719000000000E+01      4.825592000000000E-01     -1.331406000000000E+02
4854000000.000000      6.244507000000000E-01      1.486279000000000E+01      4.806824000000000E-01     -1.341641000000000E+02
4855000000.000000      6.273193000000000E-01      1.472705000000000E+01      4.780884000000000E-01     -1.350391000000000E+02
4856000000.000000      6.273193000000000E-01      1.484766000000000E+01      4.763489000000000E-01     -1.356250000000000E+02
4857000000.000000      6.285400000000000E-01      1.500586000000000E+01      4.742889000000000E-01     -1.365156000000000E+02
4858000000.000000      6.292419000000000E-01      1.487402000000000E+01      4.716797000000000E-01     -1.372813000000000E+02
4859000000.000000      6.308289000000000E-01      1.499609000000000E+01      4.684143000000000E-01     -1.383203000000000E+02
4860000000.000000      6.330566000000000E-01      1.496191000000000E+01      4.654236000000000E-01     -1.390000000000000E+02
4861000000.000000      6.317139000000000E-01      1.511963000000000E+01      4.618225000000000E-01     -1.400391000000000E+02
4862000000.000000      6.322021000000000E-01      1.509375000000000E+01      4.594574000000000E-01     -1.407031000000000E+02
4863000000.000000      6.336670000000000E-01      1.512646000000000E+01      4.559631000000000E-01     -1.415781000000000E+02
4864000000.000000      6.380005000000000E-01      1.510986000000000E+01      4.520874000000000E-01     -1.424062000000000E+02
4865000000.000000      6.360779000000000E-01      1.514014000000000E+01      4.497223000000000E-01     -1.430469000000000E+02
4866000000.000000      6.376953000000000E-01      1.479980000000000E+01      4.452820000000000E-01     -1.440312000000000E+02
4867000000.000000      6.386719000000000E-01      1.513330000000000E+01      4.410553000000000E-01     -1.449063000000000E+02
4868000000.000000      6.404114000000000E-01      1.493848000000000E+01      4.378662000000000E-01     -1.457187000000000E+02
4869000000.000000      6.423035000000000E-01      1.501416000000000E+01      4.341431000000000E-01     -1.463594000000000E+02
4870000000.000000      6.437378000000000E-01      1.497949000000000E+01      4.297333000000000E-01     -1.468828000000000E+02
4871000000.000000      6.462097000000000E-01      1.483252000000000E+01      4.258118000000000E-01     -1.479687000000000E+02
4872000000.000000      6.466370000000000E-01      1.508252000000000E+01      4.207153000000000E-01     -1.484453000000000E+02
4873000000.000000      6.468201000000000E-01      1.500586000000000E+01      4.169464000000000E-01     -1.494453000000000E+02
4874000000.000000      6.480103000000000E-01      1.478174000000000E+01      4.120789000000000E-01     -1.499609000000000E+02
4875000000.000000      6.500854000000000E-01      1.485352000000000E+01      4.071350000000000E-01     -1.505938000000000E+02
4876000000.000000      6.523132000000000E-01      1.492041000000000E+01      4.046631000000000E-01     -1.514141000000000E+02
4877000000.000000      6.531067000000000E-01      1.461963000000000E+01      4.009399000000000E-01     -1.520547000000000E+02
4878000000.000000      6.527710000000000E-01      1.471582000000000E+01      3.944550000000000E-01     -1.528281000000000E+02
4879000000.000000      6.554565000000000E-01      1.493018000000000E+01      3.884430000000000E-01     -1.532969000000000E+02
4880000000.000000      6.571045000000000E-01      1.451270000000000E+01      3.865967000000000E-01     -1.539219000000000E+02
4881000000.000000      6.583557000000000E-01      1.461572000000000E+01      3.807983000000000E-01     -1.544141000000000E+02
4882000000.000000      6.589355000000000E-01      1.469385000000000E+01      3.785248000000000E-01     -1.550781000000000E+02
4883000000.000000      6.590881000000000E-01      1.442871000000000E+01      3.730164000000000E-01     -1.556797000000000E+02
4884000000.000000      6.629333000000000E-01      1.450439000000000E+01      3.683014000000000E-01     -1.559531000000000E+02
4885000000.000000      6.640930000000000E-01      1.429150000000000E+01      3.635712000000000E-01     -1.562344000000000E+02
4886000000.000000      6.651917000000000E-01      1.430957000000000E+01      3.608398000000000E-01     -1.571328000000000E+02
4887000000.000000      6.654053000000000E-01      1.418994000000000E+01      3.560181000000000E-01     -1.574922000000000E+02
4888000000.000000      6.660767000000000E-01      1.415576000000000E+01      3.512421000000000E-01     -1.581016000000000E+02
4889000000.000000      6.664124000000000E-01      1.407324000000000E+01      3.460541000000000E-01     -1.583437000000000E+02
4890000000.000000      6.663818000000000E-01      1.386475000000000E+01      3.426361000000000E-01     -1.594453000000000E+02
4891000000.000000      6.682739000000000E-01      1.385645000000000E+01      3.384705000000000E-01     -1.594922000000000E+02
4892000000.000000      6.684570000000000E-01      1.365283000000000E+01      3.350067000000000E-01     -1.597265000000000E+02
4893000000.000000      6.708984000000000E-01      1.383545000000000E+01      3.303528000000000E-01     -1.601641000000000E+02
4894000000.000000      6.727905000000000E-01      1.359131000000000E+01      3.265991000000000E-01     -1.605937000000000E+02
4895000000.000000      6.741943000000000E-01      1.346338000000000E+01      3.236237000000000E-01     -1.611250000000000E+02
4896000000.000000      6.735535000000000E-01      1.343213000000000E+01      3.197937000000000E-01     -1.614687000000000E+02
4897000000.000000      6.732178000000000E-01      1.336328000000000E+01      3.145599000000000E-01     -1.619688000000000E+02
4898000000.000000      6.752930000000000E-01      1.338232000000000E+01      3.113861000000000E-01     -1.621797000000000E+02
4899000000.000000      6.770630000000000E-01      1.318359000000000E+01      3.072357000000000E-01     -1.626641000000000E+02
4900000000.000000      6.777649000000000E-01      1.289648000000000E+01      3.033752000000000E-01     -1.629453000000000E+02
4901000000.000000      6.796570000000000E-01      1.290479000000000E+01      2.999115000000000E-01     -1.631562000000000E+02
4902000000.000000      6.785889000000000E-01      1.300195000000000E+01      2.970428000000000E-01     -1.635078000000000E+02
4903000000.000000      6.800232000000000E-01      1.279736000000000E+01      2.922668000000000E-01     -1.640156000000000E+02
4904000000.000000      6.788940000000000E-01      1.267822000000000E+01      2.897949000000000E-01     -1.643750000000000E+02
4905000000.000000      6.830139000000000E-01      1.246631000000000E+01      2.856903000000000E-01     -1.646719000000000E+02
4906000000.000000      6.818237000000000E-01      1.244434000000000E+01      2.824249000000000E-01     -1.647344000000000E+02
4907000000.000000      6.835022000000000E-01      1.247070000000000E+01      2.792053000000000E-01     -1.653125000000000E+02
4908000000.000000      6.845398000000000E-01      1.232910000000000E+01      2.757111000000000E-01     -1.657109000000000E+02
4909000000.000000      6.836548000000000E-01      1.214111000000000E+01      2.715759000000000E-01     -1.658672000000000E+02
4910000000.000000      6.843872000000000E-01      1.205176000000000E+01      2.681580000000000E-01     -1.662500000000000E+02
4911000000.000000      6.854248000000000E-01      1.205713000000000E+01      2.648315000000000E-01     -1.665156000000000E+02
4912000000.000000      6.848755000000000E-01      1.176611000000000E+01      2.616425000000000E-01     -1.669141000000000E+02
4913000000.000000      6.870422000000000E-01      1.178125000000000E+01      2.579498000000000E-01     -1.672422000000000E+02
4914000000.000000      6.885376000000000E-01      1.176074000000000E+01      2.540436000000000E-01     -1.675000000000000E+02
4915000000.000000      6.880798000000000E-01      1.162598000000000E+01      2.507324000000000E-01     -1.679297000000000E+02
4916000000.000000      6.893005000000000E-01      1.155322000000000E+01      2.475815000000000E-01     -1.681719000000000E+02
4917000000.000000      6.879578000000000E-01      1.134033000000000E+01      2.437973000000000E-01     -1.683984000000000E+02
4918000000.000000      6.895447000000000E-01      1.126465000000000E+01      2.397919000000000E-01     -1.686719000000000E+02
4919000000.000000      6.880798000000000E-01      1.119775000000000E+01      2.366333000000000E-01     -1.688203000000000E+02
4920000000.000000      6.914978000000000E-01      1.120850000000000E+01      2.326355000000000E-01     -1.693281000000000E+02
4921000000.000000      6.902161000000000E-01      1.098193000000000E+01      2.292252000000000E-01     -1.695625000000000E+02
4922000000.000000      6.920776000000000E-01      1.106006000000000E+01      2.254181000000000E-01     -1.696563000000000E+02
4923000000.000000      6.918640000000000E-01      1.081152000000000E+01      2.212372000000000E-01     -1.696328000000000E+02
4924000000.000000      6.923523000000000E-01      1.072363000000000E+01      2.172775000000000E-01     -1.702266000000000E+02
4925000000.000000      6.913147000000000E-01      1.061670000000000E+01      2.145004000000000E-01     -1.702812000000000E+02
4926000000.000000      6.943970000000000E-01      1.049023000000000E+01      2.102432000000000E-01     -1.704219000000000E+02
4927000000.000000      6.940918000000000E-01      1.012207000000000E+01      2.066956000000000E-01     -1.705859000000000E+02
4928000000.000000      6.950378000000000E-01      1.042285000000000E+01      2.028503000000000E-01     -1.705781000000000E+02
4929000000.000000      6.965942000000000E-01      1.020898000000000E+01      1.983566000000000E-01     -1.706719000000000E+02
4930000000.000000      6.969299000000000E-01      1.017334000000000E+01      1.952591000000000E-01     -1.710781000000000E+02
4931000000.000000      6.953430000000000E-01      9.982422000000000E+00      1.919632000000000E-01     -1.708984000000000E+02
4932000000.000000      6.957092000000000E-01      9.884766000000000E+00      1.879654000000000E-01     -1.708516000000000E+02
4933000000.000000      6.972351000000000E-01      9.751465000000000E+00      1.833496000000000E-01     -1.707109000000000E+02
4934000000.000000      6.975403000000000E-01      9.663574000000000E+00      1.798706000000000E-01     -1.709922000000000E+02
4935000000.000000      7.002869000000000E-01      9.475586000000000E+00      1.768570000000000E-01     -1.707656000000000E+02
4936000000.000000      6.981812000000000E-01      9.504395000000000E+00      1.726456000000000E-01     -1.705234000000000E+02
4937000000.000000      6.989746000000000E-01      9.247559000000000E+00      1.686172000000000E-01     -1.704375000000000E+02
4938000000.000000      7.002258000000000E-01      9.313477000000000E+00      1.648788000000000E-01     -1.700547000000000E+02
4939000000.000000      6.990051000000000E-01      9.261230000000000E+00      1.611786000000000E-01     -1.696875000000000E+02
4940000000.000000      7.014160000000000E-01      9.026367000000000E+00      1.575394000000000E-01     -1.695547000000000E+02
4941000000.000000      6.999207000000000E-01      8.986816000000000E+00      1.540527000000000E-01     -1.691797000000000E+02
4942000000.000000      7.008057000000000E-01      8.950684000000000E+00      1.503983000000000E-01     -1.686953000000000E+02
4943000000.000000      6.998291000000000E-01      8.842285000000000E+00      1.470718000000000E-01     -1.680547000000000E+02
4944000000.000000      7.015686000000000E-01      8.645996000000000E+00      1.438904000000000E-01     -1.675469000000000E+02
4945000000.000000      7.023315000000000E-01      8.625488000000000E+00      1.396255000000000E-01     -1.669688000000000E+02
4946000000.000000      7.032471000000000E-01      8.683105000000000E+00      1.368103000000000E-01     -1.660938000000000E+02
4947000000.000000      7.040710000000000E-01      8.393555000000000E+00      1.330719000000000E-01     -1.653594000000000E+02
4948000000.000000      7.047119000000000E-01      8.392090000000000E+00      1.306915000000000E-01     -1.644375000000000E+02
4949000000.000000      7.042542000000000E-01      8.250488000000000E+00      1.279068000000000E-01     -1.634063000000000E+02
4950000000.000000      7.051697000000000E-01      8.187500000000000E+00      1.251297000000000E-01     -1.625469000000000E+02
4951000000.000000      7.052917000000000E-01      8.099609000000000E+00      1.223450000000000E-01     -1.614141000000000E+02
4952000000.000000      7.058716000000000E-01      8.103516000000000E+00      1.193695000000000E-01     -1.603594000000000E+02
4953000000.000000      7.046204000000000E-01      7.720459000000000E+00      1.168709000000000E-01     -1.587656000000000E+02
4954000000.000000      7.068176000000000E-01      7.713623000000000E+00      1.149025000000000E-01     -1.576328000000000E+02
