! Network Analyzer HP8722D
! Hewlett-Packard
! Data name: Linha & Wilkinson
! Saver's name: Rodrigo Anjos
! Comments: Teste da utilização de aquisição
continua pelo VNA HP8722D
! Time and date: 22/5/2025 17:05
!              Frequency                     S11                                                   S21                                                   S12                                                   S22
# HZ  S  MA R 50
4800000000.000000      6.532288000000000E-01      1.089111000000000E+01      4.697113000000000E-01     -9.204296000000000E+01
4801000000.000000      6.506348000000000E-01      1.108643000000000E+01      4.706573000000000E-01     -9.234766000000000E+01
4802000000.000000      6.497498000000000E-01      1.105225000000000E+01      4.732971000000000E-01     -9.329687000000000E+01
4803000000.000000      6.470642000000000E-01      1.087354000000000E+01      4.772949000000000E-01     -9.402735000000000E+01
4804000000.000000      6.456909000000000E-01      1.102051000000000E+01      4.774323000000000E-01     -9.463282000000000E+01
4805000000.000000      6.458435000000000E-01      1.089111000000000E+01      4.810638000000000E-01     -9.553905000000000E+01
4806000000.000000      6.430359000000000E-01      1.089014000000000E+01      4.812927000000000E-01     -9.641014000000000E+01
4807000000.000000      6.400452000000000E-01      1.082959000000000E+01      4.836273000000000E-01     -9.702734000000000E+01
4808000000.000000      6.379700000000000E-01      1.093506000000000E+01      4.860992000000000E-01     -9.773438000000000E+01
4809000000.000000      6.366272000000000E-01      1.098047000000000E+01      4.859467000000000E-01     -9.867188000000000E+01
4810000000.000000      6.351318000000000E-01      1.097510000000000E+01      4.884033000000000E-01     -9.942968000000000E+01
4811000000.000000      6.349182000000000E-01      1.109717000000000E+01      4.889984000000000E-01     -1.001289000000000E+02
4812000000.000000      6.357727000000000E-01      1.121680000000000E+01      4.909821000000000E-01     -1.008164000000000E+02
4813000000.000000      6.317444000000000E-01      1.120459000000000E+01      4.903870000000000E-01     -1.015977000000000E+02
4814000000.000000      6.292725000000000E-01      1.116211000000000E+01      4.929504000000000E-01     -1.022734000000000E+02
4815000000.000000      6.282959000000000E-01      1.140088000000000E+01      4.920502000000000E-01     -1.030117000000000E+02
4816000000.000000      6.278687000000000E-01      1.130078000000000E+01      4.929810000000000E-01     -1.037969000000000E+02
4817000000.000000      6.253967000000000E-01      1.149561000000000E+01      4.944916000000000E-01     -1.044687000000000E+02
4818000000.000000      6.251526000000000E-01      1.152832000000000E+01      4.946136000000000E-01     -1.053203000000000E+02
4819000000.000000      6.246948000000000E-01      1.143359000000000E+01      4.951782000000000E-01     -1.061758000000000E+02
4820000000.000000      6.220703000000000E-01      1.174561000000000E+01      4.958038000000000E-01     -1.067930000000000E+02
4821000000.000000      6.212158000000000E-01      1.164795000000000E+01      4.973450000000000E-01     -1.075586000000000E+02
4822000000.000000      6.190796000000000E-01      1.180322000000000E+01      4.956665000000000E-01     -1.082656000000000E+02
4823000000.000000      6.196289000000000E-01      1.173193000000000E+01      4.982147000000000E-01     -1.091758000000000E+02
4824000000.000000      6.197205000000000E-01      1.203271000000000E+01      4.977722000000000E-01     -1.099961000000000E+02
4825000000.000000      6.145020000000000E-01      1.200244000000000E+01      4.981842000000000E-01     -1.104883000000000E+02
4826000000.000000      6.165771000000000E-01      1.181689000000000E+01      4.999695000000000E-01     -1.114453000000000E+02
4827000000.000000      6.163940000000000E-01      1.227148000000000E+01      4.986572000000000E-01     -1.120820000000000E+02
4828000000.000000      6.166992000000000E-01      1.253662000000000E+01      4.992218000000000E-01     -1.126953000000000E+02
4829000000.000000      6.184998000000000E-01      1.260400000000000E+01      5.005188000000000E-01     -1.135586000000000E+02
4830000000.000000      6.158752000000000E-01      1.262598000000000E+01      4.987183000000000E-01     -1.142695000000000E+02
4831000000.000000      6.162109000000000E-01      1.278223000000000E+01      5.008850000000000E-01     -1.153672000000000E+02
4832000000.000000      6.128540000000000E-01      1.298584000000000E+01      4.992981000000000E-01     -1.156562000000000E+02
4833000000.000000      6.115417000000000E-01      1.292529000000000E+01      4.997864000000000E-01     -1.164023000000000E+02
4834000000.000000      6.122437000000000E-01      1.298682000000000E+01      4.996338000000000E-01     -1.173672000000000E+02
4835000000.000000      6.145020000000000E-01      1.307471000000000E+01      5.000000000000000E-01     -1.181562000000000E+02
4836000000.000000      6.148071000000000E-01      1.351855000000000E+01      4.984436000000000E-01     -1.190742000000000E+02
4837000000.000000      6.127625000000000E-01      1.352100000000000E+01      4.975433000000000E-01     -1.200312000000000E+02
4838000000.000000      6.122742000000000E-01      1.354297000000000E+01      4.983215000000000E-01     -1.203711000000000E+02
4839000000.000000      6.157532000000000E-01      1.364893000000000E+01      4.996338000000000E-01     -1.211680000000000E+02
4840000000.000000      6.133118000000000E-01      1.367627000000000E+01      4.988556000000000E-01     -1.220547000000000E+02
4841000000.000000      6.138306000000000E-01      1.402539000000000E+01      4.996796000000000E-01     -1.229688000000000E+02
4842000000.000000      6.141357000000000E-01      1.399756000000000E+01      4.971619000000000E-01     -1.236328000000000E+02
4843000000.000000      6.172791000000000E-01      1.403613000000000E+01      4.966431000000000E-01     -1.245586000000000E+02
4844000000.000000      6.161804000000000E-01      1.400342000000000E+01      4.959564000000000E-01     -1.255430000000000E+02
4845000000.000000      6.178894000000000E-01      1.429980000000000E+01      4.947205000000000E-01     -1.260976000000000E+02
4846000000.000000      6.181946000000000E-01      1.428223000000000E+01      4.938507000000000E-01     -1.269883000000000E+02
4847000000.000000      6.193542000000000E-01      1.447998000000000E+01      4.928589000000000E-01     -1.277422000000000E+02
4848000000.000000      6.192932000000000E-01      1.442334000000000E+01      4.912109000000000E-01     -1.287500000000000E+02
4849000000.000000      6.206665000000000E-01      1.460205000000000E+01      4.905243000000000E-01     -1.295859000000000E+02
4850000000.000000      6.203918000000000E-01      1.469385000000000E+01      4.880066000000000E-01     -1.303594000000000E+02
4851000000.000000      6.217957000000000E-01      1.483398000000000E+01      4.877625000000000E-01     -1.313125000000000E+02
4852000000.000000      6.225586000000000E-01      1.483154000000000E+01      4.851379000000000E-01     -1.321406000000000E+02
4853000000.000000      6.250000000000000E-01      1.484619000000000E+01      4.814606000000000E-01     -1.330469000000000E+02
4854000000.000000      6.252747000000000E-01      1.486963000000000E+01      4.803162000000000E-01     -1.339219000000000E+02
4855000000.000000      6.254272000000000E-01      1.492334000000000E+01      4.787750000000000E-01     -1.347344000000000E+02
4856000000.000000      6.283264000000000E-01      1.499316000000000E+01      4.761353000000000E-01     -1.353594000000000E+02
4857000000.000000      6.272888000000000E-01      1.505664000000000E+01      4.746552000000000E-01     -1.361484000000000E+02
4858000000.000000      6.286011000000000E-01      1.500732000000000E+01      4.705811000000000E-01     -1.371797000000000E+02
4859000000.000000      6.297607000000000E-01      1.489600000000000E+01      4.706879000000000E-01     -1.382344000000000E+02
4860000000.000000      6.305237000000000E-01      1.515820000000000E+01      4.653320000000000E-01     -1.387891000000000E+02
4861000000.000000      6.314392000000000E-01      1.521875000000000E+01      4.636841000000000E-01     -1.399219000000000E+02
4862000000.000000      6.311646000000000E-01      1.502490000000000E+01      4.600830000000000E-01     -1.407109000000000E+02
4863000000.000000      6.343689000000000E-01      1.514697000000000E+01      4.554596000000000E-01     -1.414141000000000E+02
4864000000.000000      6.359253000000000E-01      1.511816000000000E+01      4.532013000000000E-01     -1.422031000000000E+02
4865000000.000000      6.372375000000000E-01      1.500439000000000E+01      4.491119000000000E-01     -1.429297000000000E+02
4866000000.000000      6.378784000000000E-01      1.523242000000000E+01      4.441833000000000E-01     -1.439062000000000E+02
4867000000.000000      6.391602000000000E-01      1.518164000000000E+01      4.409637000000000E-01     -1.447187000000000E+02
4868000000.000000      6.410522000000000E-01      1.518311000000000E+01      4.380798000000000E-01     -1.455000000000000E+02
4869000000.000000      6.430969000000000E-01      1.521875000000000E+01      4.343567000000000E-01     -1.462344000000000E+02
4870000000.000000      6.424255000000000E-01      1.502783000000000E+01      4.307098000000000E-01     -1.468359000000000E+02
4871000000.000000      6.437988000000000E-01      1.503857000000000E+01      4.258118000000000E-01     -1.477344000000000E+02
4872000000.000000      6.461792000000000E-01      1.489990000000000E+01      4.213257000000000E-01     -1.484688000000000E+02
4873000000.000000      6.466980000000000E-01      1.497412000000000E+01      4.165039000000000E-01     -1.493203000000000E+02
4874000000.000000      6.484680000000000E-01      1.491650000000000E+01      4.122009000000000E-01     -1.499141000000000E+02
4875000000.000000      6.504211000000000E-01      1.489844000000000E+01      4.086304000000000E-01     -1.504844000000000E+02
4876000000.000000      6.522217000000000E-01      1.496191000000000E+01      4.047089000000000E-01     -1.512266000000000E+02
4877000000.000000      6.540833000000000E-01      1.495605000000000E+01      4.005890000000000E-01     -1.517812000000000E+02
4878000000.000000      6.539307000000000E-01      1.475146000000000E+01      3.954773000000000E-01     -1.525156000000000E+02
4879000000.000000      6.565552000000000E-01      1.476953000000000E+01      3.911743000000000E-01     -1.528984000000000E+02
4880000000.000000      6.560669000000000E-01      1.470654000000000E+01      3.871307000000000E-01     -1.539844000000000E+02
4881000000.000000      6.570740000000000E-01      1.459668000000000E+01      3.827515000000000E-01     -1.542109000000000E+02
4882000000.000000      6.596680000000000E-01      1.463232000000000E+01      3.780975000000000E-01     -1.548516000000000E+02
4883000000.000000      6.596069000000000E-01      1.437695000000000E+01      3.736115000000000E-01     -1.555000000000000E+02
4884000000.000000      6.605835000000000E-01      1.454004000000000E+01      3.692474000000000E-01     -1.561406000000000E+02
4885000000.000000      6.623535000000000E-01      1.430518000000000E+01      3.651581000000000E-01     -1.563594000000000E+02
4886000000.000000      6.639099000000000E-01      1.434082000000000E+01      3.613892000000000E-01     -1.568047000000000E+02
4887000000.000000      6.642456000000000E-01      1.416260000000000E+01      3.571320000000000E-01     -1.573281000000000E+02
4888000000.000000      6.653748000000000E-01      1.416260000000000E+01      3.526764000000000E-01     -1.580312000000000E+02
4889000000.000000      6.673889000000000E-01      1.413232000000000E+01      3.468475000000000E-01     -1.583906000000000E+02
4890000000.000000      6.670837000000000E-01      1.387549000000000E+01      3.439941000000000E-01     -1.590781000000000E+02
4891000000.000000      6.698914000000000E-01      1.388525000000000E+01      3.389587000000000E-01     -1.594219000000000E+02
4892000000.000000      6.687622000000000E-01      1.368457000000000E+01      3.347473000000000E-01     -1.596797000000000E+02
4893000000.000000      6.718445000000000E-01      1.378760000000000E+01      3.314667000000000E-01     -1.600469000000000E+02
4894000000.000000      6.709595000000000E-01      1.359961000000000E+01      3.278351000000000E-01     -1.606562000000000E+02
4895000000.000000      6.741943000000000E-01      1.342383000000000E+01      3.227997000000000E-01     -1.607578000000000E+02
4896000000.000000      6.732483000000000E-01      1.350195000000000E+01      3.201752000000000E-01     -1.613594000000000E+02
4897000000.000000      6.749268000000000E-01      1.362988000000000E+01      3.156891000000000E-01     -1.618594000000000E+02
4898000000.000000      6.758423000000000E-01      1.344580000000000E+01      3.122406000000000E-01     -1.620156000000000E+02
4899000000.000000      6.765747000000000E-01      1.322998000000000E+01      3.082886000000000E-01     -1.625781000000000E+02
4900000000.000000      6.777344000000000E-01      1.294971000000000E+01      3.044281000000000E-01     -1.628281000000000E+02
4901000000.000000      6.797180000000000E-01      1.313818000000000E+01      3.013458000000000E-01     -1.632344000000000E+02
4902000000.000000      6.794128000000000E-01      1.306641000000000E+01      2.978363000000000E-01     -1.634140000000000E+02
4903000000.000000      6.801758000000000E-01      1.294727000000000E+01      2.930298000000000E-01     -1.638281000000000E+02
4904000000.000000      6.813049000000000E-01      1.270703000000000E+01      2.899323000000000E-01     -1.643281000000000E+02
4905000000.000000      6.811829000000000E-01      1.249121000000000E+01      2.875366000000000E-01     -1.645547000000000E+02
4906000000.000000      6.824341000000000E-01      1.250635000000000E+01      2.827148000000000E-01     -1.645937000000000E+02
4907000000.000000      6.823425000000000E-01      1.243213000000000E+01      2.800446000000000E-01     -1.652031000000000E+02
4908000000.000000      6.830750000000000E-01      1.218750000000000E+01      2.772369000000000E-01     -1.656016000000000E+02
4909000000.000000      6.814270000000000E-01      1.208740000000000E+01      2.723846000000000E-01     -1.659375000000000E+02
4910000000.000000      6.834106000000000E-01      1.198291000000000E+01      2.694855000000000E-01     -1.661094000000000E+02
4911000000.000000      6.844788000000000E-01      1.200098000000000E+01      2.661438000000000E-01     -1.664141000000000E+02
4912000000.000000      6.849976000000000E-01      1.191162000000000E+01      2.627563000000000E-01     -1.669062000000000E+02
4913000000.000000      6.881714000000000E-01      1.191992000000000E+01      2.587738000000000E-01     -1.671484000000000E+02
4914000000.000000      6.868286000000000E-01      1.168945000000000E+01      2.550049000000000E-01     -1.674531000000000E+02
4915000000.000000      6.879272000000000E-01      1.176611000000000E+01      2.515717000000000E-01     -1.677656000000000E+02
4916000000.000000      6.885376000000000E-01      1.149854000000000E+01      2.478180000000000E-01     -1.683203000000000E+02
4917000000.000000      6.888733000000000E-01      1.152979000000000E+01      2.446671000000000E-01     -1.683125000000000E+02
4918000000.000000      6.904907000000000E-01      1.142676000000000E+01      2.402420000000000E-01     -1.687187000000000E+02
4919000000.000000      6.894226000000000E-01      1.135400000000000E+01      2.372818000000000E-01     -1.686563000000000E+02
4920000000.000000      6.896362000000000E-01      1.093945000000000E+01      2.332535000000000E-01     -1.692422000000000E+02
4921000000.000000      6.896057000000000E-01      1.110840000000000E+01      2.301636000000000E-01     -1.693359000000000E+02
4922000000.000000      6.905212000000000E-01      1.093799000000000E+01      2.265472000000000E-01     -1.694844000000000E+02
4923000000.000000      6.926575000000000E-01      1.088867000000000E+01      2.223434000000000E-01     -1.698672000000000E+02
4924000000.000000      6.926880000000000E-01      1.086230000000000E+01      2.186356000000000E-01     -1.700469000000000E+02
4925000000.000000      6.898499000000000E-01      1.069629000000000E+01      2.150040000000000E-01     -1.701328000000000E+02
4926000000.000000      6.926270000000000E-01      1.064258000000000E+01      2.114410000000000E-01     -1.703750000000000E+02
4927000000.000000      6.940002000000000E-01      1.049023000000000E+01      2.069778000000000E-01     -1.706094000000000E+02
4928000000.000000      6.972961000000000E-01      1.028027000000000E+01      2.033539000000000E-01     -1.707500000000000E+02
4929000000.000000      6.958923000000000E-01      1.012939000000000E+01      1.996918000000000E-01     -1.707187000000000E+02
4930000000.000000      6.941528000000000E-01      1.027051000000000E+01      1.964111000000000E-01     -1.707891000000000E+02
4931000000.000000      6.934204000000000E-01      1.011133000000000E+01      1.925201000000000E-01     -1.708359000000000E+02
4932000000.000000      6.965027000000000E-01      1.007275000000000E+01      1.883698000000000E-01     -1.709766000000000E+02
4933000000.000000      6.972656000000000E-01      9.800781000000000E+00      1.842270000000000E-01     -1.708359000000000E+02
4934000000.000000      6.982117000000000E-01      9.927246000000000E+00      1.810150000000000E-01     -1.709063000000000E+02
4935000000.000000      6.999207000000000E-01      9.553711000000000E+00      1.770706000000000E-01     -1.706328000000000E+02
4936000000.000000      6.971436000000000E-01      9.585449000000000E+00      1.730347000000000E-01     -1.704531000000000E+02
4937000000.000000      7.011108000000000E-01      9.335449000000000E+00      1.690750000000000E-01     -1.705000000000000E+02
4938000000.000000      6.980591000000000E-01      9.523438000000000E+00      1.654816000000000E-01     -1.702500000000000E+02
4939000000.000000      6.993103000000000E-01      9.399902000000000E+00      1.623764000000000E-01     -1.698750000000000E+02
4940000000.000000      6.995239000000000E-01      9.203613000000000E+00      1.579971000000000E-01     -1.697578000000000E+02
4941000000.000000      6.994324000000000E-01      9.056641000000000E+00      1.548233000000000E-01     -1.690156000000000E+02
4942000000.000000      6.987000000000000E-01      9.107422000000000E+00      1.507645000000000E-01     -1.687813000000000E+02
4943000000.000000      7.016296000000000E-01      8.955078000000000E+00      1.476059000000000E-01     -1.682812000000000E+02
4944000000.000000      7.016602000000000E-01      9.053711000000000E+00      1.439972000000000E-01     -1.677422000000000E+02
4945000000.000000      7.019348000000000E-01      8.633789000000000E+00      1.406174000000000E-01     -1.671562000000000E+02
4946000000.000000      7.031860000000000E-01      8.591309000000000E+00      1.374664000000000E-01     -1.663828000000000E+02
4947000000.000000      7.024841000000000E-01      8.586914000000000E+00      1.336975000000000E-01     -1.656563000000000E+02
4948000000.000000      7.036743000000000E-01      8.602051000000000E+00      1.313400000000000E-01     -1.647266000000000E+02
4949000000.000000      7.038269000000000E-01      8.323242000000000E+00      1.281891000000000E-01     -1.635000000000000E+02
4950000000.000000      7.033386000000000E-01      8.308105000000000E+00      1.249390000000000E-01     -1.627891000000000E+02
4951000000.000000      7.066650000000000E-01      7.945801000000000E+00      1.224632000000000E-01     -1.618672000000000E+02
4952000000.000000      7.053833000000000E-01      7.958008000000000E+00      1.195068000000000E-01     -1.605000000000000E+02
4953000000.000000      7.048035000000000E-01      7.879883000000000E+00      1.173286000000000E-01     -1.591484000000000E+02
4954000000.000000      7.075806000000000E-01      7.682129000000000E+00      1.150093000000000E-01     -1.577578000000000E+02
