! Network Analyzer HP8722D
! Hewlett-Packard
! Data name: Linha & Wilkinson
! Saver's name: Rodrigo Anjos
! Comments: Teste da utilização de aquisição
continua pelo VNA HP8722D
! Time and date: 22/5/2025 13:35
!              Frequency                     S11                                                   S21                                                   S12                                                   S22
# HZ  S  MA R 50
4800000000.000000      6.502991000000000E-01      1.083496000000000E+01      4.720459000000000E-01     -9.280859000000000E+01
4801000000.000000      6.495667000000000E-01      1.106299000000000E+01      4.735718000000000E-01     -9.365625000000000E+01
4802000000.000000      6.479797000000000E-01      1.093945000000000E+01      4.759369000000000E-01     -9.409765000000000E+01
4803000000.000000      6.444702000000000E-01      1.094775000000000E+01      4.781036000000000E-01     -9.475780000000000E+01
4804000000.000000      6.428223000000000E-01      1.071826000000000E+01      4.796295000000000E-01     -9.566406000000000E+01
4805000000.000000      6.433411000000000E-01      1.087061000000000E+01      4.808044000000000E-01     -9.642967000000000E+01
4806000000.000000      6.402588000000000E-01      1.086523000000000E+01      4.818115000000000E-01     -9.714062000000000E+01
4807000000.000000      6.382751000000000E-01      1.091895000000000E+01      4.842682000000000E-01     -9.803905000000000E+01
4808000000.000000      6.346741000000000E-01      1.087500000000000E+01      4.837646000000000E-01     -9.863670000000000E+01
4809000000.000000      6.347961000000000E-01      1.109473000000000E+01      4.860535000000000E-01     -9.962891000000000E+01
4810000000.000000      6.334839000000000E-01      1.101904000000000E+01      4.880066000000000E-01     -1.001680000000000E+02
4811000000.000000      6.318970000000000E-01      1.102441000000000E+01      4.898682000000000E-01     -1.009883000000000E+02
4812000000.000000      6.324463000000000E-01      1.105225000000000E+01      4.900513000000000E-01     -1.016914000000000E+02
4813000000.000000      6.297913000000000E-01      1.107129000000000E+01      4.914551000000000E-01     -1.026719000000000E+02
4814000000.000000      6.296692000000000E-01      1.120605000000000E+01      4.942322000000000E-01     -1.032227000000000E+02
4815000000.000000      6.261902000000000E-01      1.138281000000000E+01      4.932251000000000E-01     -1.041484000000000E+02
4816000000.000000      6.257019000000000E-01      1.144336000000000E+01      4.944153000000000E-01     -1.048789000000000E+02
4817000000.000000      6.239014000000000E-01      1.133887000000000E+01      4.942322000000000E-01     -1.055820000000000E+02
4818000000.000000      6.234131000000000E-01      1.147510000000000E+01      4.937592000000000E-01     -1.064141000000000E+02
4819000000.000000      6.217651000000000E-01      1.146533000000000E+01      4.960632000000000E-01     -1.072500000000000E+02
4820000000.000000      6.215515000000000E-01      1.159424000000000E+01      4.958954000000000E-01     -1.076641000000000E+02
4821000000.000000      6.197815000000000E-01      1.166602000000000E+01      4.977264000000000E-01     -1.087930000000000E+02
4822000000.000000      6.186829000000000E-01      1.159717000000000E+01      4.969025000000000E-01     -1.093047000000000E+02
4823000000.000000      6.179810000000000E-01      1.183887000000000E+01      4.977112000000000E-01     -1.099844000000000E+02
4824000000.000000      6.184692000000000E-01      1.181299000000000E+01      4.977875000000000E-01     -1.107851000000000E+02
4825000000.000000      6.176147000000000E-01      1.211230000000000E+01      4.967346000000000E-01     -1.115664000000000E+02
4826000000.000000      6.160278000000000E-01      1.207373000000000E+01      4.982910000000000E-01     -1.123281000000000E+02
4827000000.000000      6.153564000000000E-01      1.230322000000000E+01      4.971466000000000E-01     -1.130000000000000E+02
4828000000.000000      6.150513000000000E-01      1.230176000000000E+01      4.998932000000000E-01     -1.136250000000000E+02
4829000000.000000      6.152344000000000E-01      1.267822000000000E+01      4.992218000000000E-01     -1.145000000000000E+02
4830000000.000000      6.158447000000000E-01      1.248145000000000E+01      4.996490000000000E-01     -1.154023000000000E+02
4831000000.000000      6.127319000000000E-01      1.277148000000000E+01      5.006104000000000E-01     -1.160078000000000E+02
4832000000.000000      6.144104000000000E-01      1.304590000000000E+01      4.984436000000000E-01     -1.168008000000000E+02
4833000000.000000      6.122131000000000E-01      1.292920000000000E+01      4.979401000000000E-01     -1.176601000000000E+02
4834000000.000000      6.133423000000000E-01      1.303662000000000E+01      4.978333000000000E-01     -1.183242000000000E+02
4835000000.000000      6.141663000000000E-01      1.306250000000000E+01      4.985199000000000E-01     -1.191055000000000E+02
4836000000.000000      6.144714000000000E-01      1.333838000000000E+01      4.970551000000000E-01     -1.199219000000000E+02
4837000000.000000      6.134644000000000E-01      1.349121000000000E+01      4.963379000000000E-01     -1.209219000000000E+02
4838000000.000000      6.112671000000000E-01      1.351709000000000E+01      4.983215000000000E-01     -1.213672000000000E+02
4839000000.000000      6.162720000000000E-01      1.361182000000000E+01      4.968109000000000E-01     -1.222266000000000E+02
4840000000.000000      6.154480000000000E-01      1.358984000000000E+01      4.967499000000000E-01     -1.229492000000000E+02
4841000000.000000      6.157227000000000E-01      1.388232000000000E+01      4.971008000000000E-01     -1.238828000000000E+02
4842000000.000000      6.162415000000000E-01      1.369141000000000E+01      4.956665000000000E-01     -1.247578000000000E+02
4843000000.000000      6.177979000000000E-01      1.398389000000000E+01      4.953003000000000E-01     -1.256016000000000E+02
4844000000.000000      6.163635000000000E-01      1.403320000000000E+01      4.940796000000000E-01     -1.261758000000000E+02
4845000000.000000      6.175842000000000E-01      1.429150000000000E+01      4.930420000000000E-01     -1.272422000000000E+02
4846000000.000000      6.213379000000000E-01      1.429004000000000E+01      4.913635000000000E-01     -1.281094000000000E+02
4847000000.000000      6.217957000000000E-01      1.429980000000000E+01      4.909668000000000E-01     -1.288125000000000E+02
4848000000.000000      6.182251000000000E-01      1.437549000000000E+01      4.881134000000000E-01     -1.296562000000000E+02
4849000000.000000      6.223450000000000E-01      1.438232000000000E+01      4.871826000000000E-01     -1.303359000000000E+02
4850000000.000000      6.209717000000000E-01      1.466260000000000E+01      4.853516000000000E-01     -1.313984000000000E+02
4851000000.000000      6.243591000000000E-01      1.462402000000000E+01      4.852142000000000E-01     -1.320000000000000E+02
4852000000.000000      6.241760000000000E-01      1.463770000000000E+01      4.819946000000000E-01     -1.330391000000000E+02
4853000000.000000      6.248169000000000E-01      1.455273000000000E+01      4.783630000000000E-01     -1.338906000000000E+02
4854000000.000000      6.289978000000000E-01      1.467773000000000E+01      4.776611000000000E-01     -1.348047000000000E+02
4855000000.000000      6.267090000000000E-01      1.481055000000000E+01      4.749451000000000E-01     -1.355937000000000E+02
4856000000.000000      6.291504000000000E-01      1.481494000000000E+01      4.724274000000000E-01     -1.365156000000000E+02
4857000000.000000      6.319580000000000E-01      1.491797000000000E+01      4.714661000000000E-01     -1.373125000000000E+02
4858000000.000000      6.286011000000000E-01      1.490283000000000E+01      4.688110000000000E-01     -1.382266000000000E+02
4859000000.000000      6.314392000000000E-01      1.489600000000000E+01      4.652100000000000E-01     -1.389922000000000E+02
4860000000.000000      6.324158000000000E-01      1.492627000000000E+01      4.611969000000000E-01     -1.399375000000000E+02
4861000000.000000      6.340027000000000E-01      1.496875000000000E+01      4.580383000000000E-01     -1.407109000000000E+02
4862000000.000000      6.333923000000000E-01      1.497705000000000E+01      4.560699000000000E-01     -1.414844000000000E+02
4863000000.000000      6.372681000000000E-01      1.508252000000000E+01      4.514465000000000E-01     -1.422656000000000E+02
4864000000.000000      6.390381000000000E-01      1.501123000000000E+01      4.487000000000000E-01     -1.431875000000000E+02
4865000000.000000      6.390991000000000E-01      1.499609000000000E+01      4.454651000000000E-01     -1.439219000000000E+02
4866000000.000000      6.402588000000000E-01      1.514014000000000E+01      4.407349000000000E-01     -1.447344000000000E+02
4867000000.000000      6.401978000000000E-01      1.505225000000000E+01      4.375000000000000E-01     -1.455781000000000E+02
4868000000.000000      6.427002000000000E-01      1.495752000000000E+01      4.331207000000000E-01     -1.461953000000000E+02
4869000000.000000      6.439209000000000E-01      1.489453000000000E+01      4.294891000000000E-01     -1.470312000000000E+02
4870000000.000000      6.459351000000000E-01      1.489453000000000E+01      4.254761000000000E-01     -1.476797000000000E+02
4871000000.000000      6.453857000000000E-01      1.471338000000000E+01      4.196625000000000E-01     -1.485859000000000E+02
4872000000.000000      6.475220000000000E-01      1.467627000000000E+01      4.168549000000000E-01     -1.490313000000000E+02
4873000000.000000      6.502991000000000E-01      1.482568000000000E+01      4.120636000000000E-01     -1.499063000000000E+02
4874000000.000000      6.482544000000000E-01      1.484619000000000E+01      4.093475000000000E-01     -1.508281000000000E+02
4875000000.000000      6.502380000000000E-01      1.473242000000000E+01      4.034729000000000E-01     -1.513047000000000E+02
4876000000.000000      6.528931000000000E-01      1.475146000000000E+01      3.989868000000000E-01     -1.519687000000000E+02
4877000000.000000      6.545410000000000E-01      1.452930000000000E+01      3.950653000000000E-01     -1.526406000000000E+02
4878000000.000000      6.531982000000000E-01      1.464746000000000E+01      3.914032000000000E-01     -1.531016000000000E+02
4879000000.000000      6.552734000000000E-01      1.456787000000000E+01      3.853912000000000E-01     -1.536250000000000E+02
4880000000.000000      6.581116000000000E-01      1.462646000000000E+01      3.814240000000000E-01     -1.544062000000000E+02
4881000000.000000      6.593018000000000E-01      1.439893000000000E+01      3.768921000000000E-01     -1.549219000000000E+02
4882000000.000000      6.578064000000000E-01      1.461719000000000E+01      3.747559000000000E-01     -1.554297000000000E+02
4883000000.000000      6.614380000000000E-01      1.430518000000000E+01      3.678131000000000E-01     -1.560937000000000E+02
4884000000.000000      6.628418000000000E-01      1.428320000000000E+01      3.638000000000000E-01     -1.566250000000000E+02
4885000000.000000      6.654053000000000E-01      1.412402000000000E+01      3.598633000000000E-01     -1.568828000000000E+02
4886000000.000000      6.681519000000000E-01      1.411035000000000E+01      3.551178000000000E-01     -1.574219000000000E+02
4887000000.000000      6.664124000000000E-01      1.412109000000000E+01      3.505402000000000E-01     -1.579609000000000E+02
4888000000.000000      6.677856000000000E-01      1.376709000000000E+01      3.479614000000000E-01     -1.586562000000000E+02
4889000000.000000      6.683655000000000E-01      1.384375000000000E+01      3.433533000000000E-01     -1.589219000000000E+02
4890000000.000000      6.684265000000000E-01      1.381104000000000E+01      3.380890000000000E-01     -1.596797000000000E+02
4891000000.000000      6.697693000000000E-01      1.384375000000000E+01      3.348694000000000E-01     -1.597188000000000E+02
4892000000.000000      6.694946000000000E-01      1.377246000000000E+01      3.300934000000000E-01     -1.602031000000000E+02
4893000000.000000      6.737976000000000E-01      1.349219000000000E+01      3.257904000000000E-01     -1.607031000000000E+02
4894000000.000000      6.742859000000000E-01      1.346777000000000E+01      3.207855000000000E-01     -1.609219000000000E+02
4895000000.000000      6.743469000000000E-01      1.345801000000000E+01      3.197021000000000E-01     -1.614297000000000E+02
4896000000.000000      6.752014000000000E-01      1.348389000000000E+01      3.148956000000000E-01     -1.617578000000000E+02
4897000000.000000      6.746826000000000E-01      1.327246000000000E+01      3.106995000000000E-01     -1.622187000000000E+02
4898000000.000000      6.781616000000000E-01      1.323291000000000E+01      3.070984000000000E-01     -1.624844000000000E+02
4899000000.000000      6.772461000000000E-01      1.303369000000000E+01      3.041229000000000E-01     -1.629453000000000E+02
4900000000.000000      6.770325000000000E-01      1.279346000000000E+01      3.003082000000000E-01     -1.632422000000000E+02
4901000000.000000      6.804810000000000E-01      1.271387000000000E+01      2.962799000000000E-01     -1.634766000000000E+02
4902000000.000000      6.793823000000000E-01      1.282764000000000E+01      2.931213000000000E-01     -1.637266000000000E+02
4903000000.000000      6.803589000000000E-01      1.273438000000000E+01      2.887268000000000E-01     -1.642734000000000E+02
4904000000.000000      6.811218000000000E-01      1.240039000000000E+01      2.850800000000000E-01     -1.646641000000000E+02
4905000000.000000      6.821289000000000E-01      1.232910000000000E+01      2.824249000000000E-01     -1.648984000000000E+02
4906000000.000000      6.831055000000000E-01      1.238672000000000E+01      2.786713000000000E-01     -1.651250000000000E+02
4907000000.000000      6.833801000000000E-01      1.217529000000000E+01      2.752686000000000E-01     -1.655313000000000E+02
4908000000.000000      6.845093000000000E-01      1.207666000000000E+01      2.718353000000000E-01     -1.658828000000000E+02
4909000000.000000      6.845093000000000E-01      1.206152000000000E+01      2.678223000000000E-01     -1.661953000000000E+02
4910000000.000000      6.838684000000000E-01      1.185791000000000E+01      2.644806000000000E-01     -1.665547000000000E+02
4911000000.000000      6.862183000000000E-01      1.179102000000000E+01      2.606049000000000E-01     -1.667500000000000E+02
4912000000.000000      6.839600000000000E-01      1.179639000000000E+01      2.577667000000000E-01     -1.670469000000000E+02
4913000000.000000      6.863098000000000E-01      1.164111000000000E+01      2.545929000000000E-01     -1.672969000000000E+02
4914000000.000000      6.885681000000000E-01      1.132959000000000E+01      2.509918000000000E-01     -1.675625000000000E+02
4915000000.000000      6.884155000000000E-01      1.141309000000000E+01      2.469864000000000E-01     -1.679688000000000E+02
4916000000.000000      6.894836000000000E-01      1.122070000000000E+01      2.431793000000000E-01     -1.684844000000000E+02
4917000000.000000      6.885071000000000E-01      1.121680000000000E+01      2.397842000000000E-01     -1.684766000000000E+02
4918000000.000000      6.910400000000000E-01      1.108496000000000E+01      2.359467000000000E-01     -1.687891000000000E+02
4919000000.000000      6.891785000000000E-01      1.108887000000000E+01      2.329330000000000E-01     -1.687734000000000E+02
4920000000.000000      6.908569000000000E-01      1.080225000000000E+01      2.286224000000000E-01     -1.694531000000000E+02
4921000000.000000      6.900635000000000E-01      1.086670000000000E+01      2.250977000000000E-01     -1.694219000000000E+02
4922000000.000000      6.932373000000000E-01      1.081055000000000E+01      2.215652000000000E-01     -1.695313000000000E+02
4923000000.000000      6.909485000000000E-01      1.060547000000000E+01      2.176971000000000E-01     -1.696719000000000E+02
4924000000.000000      6.954041000000000E-01      1.062061000000000E+01      2.138824000000000E-01     -1.701172000000000E+02
4925000000.000000      6.927185000000000E-01      1.045459000000000E+01      2.103271000000000E-01     -1.702031000000000E+02
4926000000.000000      6.940002000000000E-01      1.055762000000000E+01      2.067337000000000E-01     -1.703281000000000E+02
4927000000.000000      6.955872000000000E-01      1.027734000000000E+01      2.027969000000000E-01     -1.704766000000000E+02
4928000000.000000      6.968079000000000E-01      1.012646000000000E+01      1.994400000000000E-01     -1.706484000000000E+02
4929000000.000000      6.947632000000000E-01      9.925781000000000E+00      1.955338000000000E-01     -1.705625000000000E+02
4930000000.000000      6.950073000000000E-01      1.006885000000000E+01      1.917496000000000E-01     -1.706875000000000E+02
4931000000.000000      6.958008000000000E-01      9.728027000000000E+00      1.886292000000000E-01     -1.707656000000000E+02
4932000000.000000      6.973572000000000E-01      9.812012000000000E+00      1.843567000000000E-01     -1.707266000000000E+02
4933000000.000000      6.958923000000000E-01      9.500000000000000E+00      1.796494000000000E-01     -1.702422000000000E+02
4934000000.000000      6.997070000000000E-01      9.593750000000000E+00      1.764297000000000E-01     -1.704219000000000E+02
4935000000.000000      6.966248000000000E-01      9.536133000000000E+00      1.734009000000000E-01     -1.703438000000000E+02
4936000000.000000      7.001038000000000E-01      9.224121000000000E+00      1.690979000000000E-01     -1.700234000000000E+02
4937000000.000000      6.995239000000000E-01      9.214355000000000E+00      1.658554000000000E-01     -1.700391000000000E+02
4938000000.000000      6.993408000000000E-01      9.262695000000000E+00      1.620636000000000E-01     -1.696172000000000E+02
4939000000.000000      6.992493000000000E-01      9.154297000000000E+00      1.586761000000000E-01     -1.694219000000000E+02
4940000000.000000      7.009888000000000E-01      8.960449000000000E+00      1.548386000000000E-01     -1.691250000000000E+02
4941000000.000000      7.035828000000000E-01      8.862793000000000E+00      1.510696000000000E-01     -1.684609000000000E+02
4942000000.000000      7.014771000000000E-01      8.972656000000000E+00      1.474991000000000E-01     -1.680234000000000E+02
4943000000.000000      7.014160000000000E-01      8.743652000000000E+00      1.443329000000000E-01     -1.674687000000000E+02
4944000000.000000      6.997986000000000E-01      8.551270000000000E+00      1.411438000000000E-01     -1.668125000000000E+02
4945000000.000000      7.030945000000000E-01      8.405762000000000E+00      1.374207000000000E-01     -1.661328000000000E+02
4946000000.000000      7.031860000000000E-01      8.504395000000000E+00      1.345901000000000E-01     -1.652500000000000E+02
4947000000.000000      7.041931000000000E-01      8.198242000000000E+00      1.311188000000000E-01     -1.643906000000000E+02
4948000000.000000      7.038574000000000E-01      8.089844000000000E+00      1.286774000000000E-01     -1.636484000000000E+02
4949000000.000000      7.047119000000000E-01      8.098145000000000E+00      1.256332000000000E-01     -1.622969000000000E+02
4950000000.000000      7.050781000000000E-01      8.128418000000000E+00      1.225357000000000E-01     -1.614531000000000E+02
4951000000.000000      7.054138000000000E-01      7.837158000000000E+00      1.204147000000000E-01     -1.602969000000000E+02
4952000000.000000      7.061768000000000E-01      7.705322000000000E+00      1.176033000000000E-01     -1.589922000000000E+02
4953000000.000000      7.051086000000000E-01      7.654541000000000E+00      1.159744000000000E-01     -1.574062000000000E+02
4954000000.000000      7.065430000000000E-01      7.712402000000000E+00      1.136017000000000E-01     -1.558906000000000E+02
