! Network Analyzer HP8722D
! Hewlett-Packard
! Data name: Linha & Wilkinson
! Saver's name: Rodrigo Anjos
! Comments: Teste da utilização de aquisição
continua pelo VNA HP8722D
! Time and date: 22/5/2025 10:41
!              Frequency                     S11                                                   S21                                                   S12                                                   S22
# HZ  S  MA R 50
4800000000.000000      6.464539000000000E-01      1.041602000000000E+01      4.754639000000000E-01     -9.370312000000000E+01
4801000000.000000      6.446228000000000E-01      1.057275000000000E+01      4.753571000000000E-01     -9.444921000000000E+01
4802000000.000000      6.440735000000000E-01      1.045996000000000E+01      4.782562000000000E-01     -9.517187000000000E+01
4803000000.000000      6.422119000000000E-01      1.045996000000000E+01      4.809265000000000E-01     -9.582422000000000E+01
4804000000.000000      6.396179000000000E-01      1.055371000000000E+01      4.823456000000000E-01     -9.676170000000000E+01
4805000000.000000      6.398010000000000E-01      1.035596000000000E+01      4.841309000000000E-01     -9.751953000000000E+01
4806000000.000000      6.358032000000000E-01      1.061816000000000E+01      4.853668000000000E-01     -9.829296000000000E+01
4807000000.000000      6.343689000000000E-01      1.050830000000000E+01      4.856262000000000E-01     -9.908203000000000E+01
4808000000.000000      6.333008000000000E-01      1.052344000000000E+01      4.875793000000000E-01     -9.970312000000000E+01
4809000000.000000      6.314087000000000E-01      1.076660000000000E+01      4.889221000000000E-01     -1.005625000000000E+02
4810000000.000000      6.311646000000000E-01      1.061133000000000E+01      4.900208000000000E-01     -1.013906000000000E+02
4811000000.000000      6.289673000000000E-01      1.074316000000000E+01      4.918060000000000E-01     -1.020625000000000E+02
4812000000.000000      6.298828000000000E-01      1.085449000000000E+01      4.911041000000000E-01     -1.029609000000000E+02
4813000000.000000      6.278687000000000E-01      1.079248000000000E+01      4.938507000000000E-01     -1.036601000000000E+02
4814000000.000000      6.237488000000000E-01      1.097510000000000E+01      4.948425000000000E-01     -1.043398000000000E+02
4815000000.000000      6.228943000000000E-01      1.097900000000000E+01      4.962769000000000E-01     -1.049766000000000E+02
4816000000.000000      6.232910000000000E-01      1.099023000000000E+01      4.960175000000000E-01     -1.056953000000000E+02
4817000000.000000      6.216431000000000E-01      1.117969000000000E+01      4.949341000000000E-01     -1.066055000000000E+02
4818000000.000000      6.209412000000000E-01      1.123877000000000E+01      4.970551000000000E-01     -1.073359000000000E+02
4819000000.000000      6.199646000000000E-01      1.133203000000000E+01      4.970551000000000E-01     -1.081445000000000E+02
4820000000.000000      6.170349000000000E-01      1.155322000000000E+01      4.989777000000000E-01     -1.088047000000000E+02
4821000000.000000      6.194763000000000E-01      1.145850000000000E+01      4.990387000000000E-01     -1.096758000000000E+02
4822000000.000000      6.162109000000000E-01      1.142432000000000E+01      4.966431000000000E-01     -1.101133000000000E+02
4823000000.000000      6.177063000000000E-01      1.158203000000000E+01      4.986267000000000E-01     -1.110390000000000E+02
4824000000.000000      6.139526000000000E-01      1.181982000000000E+01      4.992523000000000E-01     -1.117812000000000E+02
4825000000.000000      6.135864000000000E-01      1.175928000000000E+01      4.993744000000000E-01     -1.127383000000000E+02
4826000000.000000      6.137695000000000E-01      1.187451000000000E+01      4.996185000000000E-01     -1.134023000000000E+02
4827000000.000000      6.129456000000000E-01      1.196924000000000E+01      5.003357000000000E-01     -1.140664000000000E+02
4828000000.000000      6.136780000000000E-01      1.226172000000000E+01      5.001526000000000E-01     -1.147266000000000E+02
4829000000.000000      6.126099000000000E-01      1.239502000000000E+01      5.015564000000000E-01     -1.155273000000000E+02
4830000000.000000      6.119385000000000E-01      1.229053000000000E+01      5.020142000000000E-01     -1.164023000000000E+02
4831000000.000000      6.119080000000000E-01      1.251025000000000E+01      4.997101000000000E-01     -1.171328000000000E+02
4832000000.000000      6.111145000000000E-01      1.269189000000000E+01      4.991455000000000E-01     -1.176953000000000E+02
4833000000.000000      6.108398000000000E-01      1.265625000000000E+01      4.992676000000000E-01     -1.185703000000000E+02
4834000000.000000      6.097412000000000E-01      1.274414000000000E+01      4.996643000000000E-01     -1.195000000000000E+02
4835000000.000000      6.130676000000000E-01      1.283740000000000E+01      4.982758000000000E-01     -1.203203000000000E+02
4836000000.000000      6.124268000000000E-01      1.310352000000000E+01      4.970398000000000E-01     -1.208086000000000E+02
4837000000.000000      6.114502000000000E-01      1.344824000000000E+01      4.974670000000000E-01     -1.221367000000000E+02
4838000000.000000      6.110535000000000E-01      1.326025000000000E+01      4.969025000000000E-01     -1.223242000000000E+02
4839000000.000000      6.149902000000000E-01      1.344824000000000E+01      4.972839000000000E-01     -1.232500000000000E+02
4840000000.000000      6.132507000000000E-01      1.329883000000000E+01      4.967804000000000E-01     -1.240977000000000E+02
4841000000.000000      6.145935000000000E-01      1.361475000000000E+01      4.960938000000000E-01     -1.250039000000000E+02
4842000000.000000      6.139832000000000E-01      1.356934000000000E+01      4.953766000000000E-01     -1.256562000000000E+02
4843000000.000000      6.170044000000000E-01      1.369971000000000E+01      4.946747000000000E-01     -1.266445000000000E+02
4844000000.000000      6.146545000000000E-01      1.370361000000000E+01      4.940796000000000E-01     -1.273984000000000E+02
4845000000.000000      6.167908000000000E-01      1.390967000000000E+01      4.919434000000000E-01     -1.281484000000000E+02
4846000000.000000      6.185608000000000E-01      1.397705000000000E+01      4.911804000000000E-01     -1.290078000000000E+02
4847000000.000000      6.195679000000000E-01      1.417480000000000E+01      4.901581000000000E-01     -1.298281000000000E+02
4848000000.000000      6.192017000000000E-01      1.425293000000000E+01      4.862671000000000E-01     -1.306015000000000E+02
4849000000.000000      6.215820000000000E-01      1.408154000000000E+01      4.861603000000000E-01     -1.315625000000000E+02
4850000000.000000      6.214600000000000E-01      1.419971000000000E+01      4.834442000000000E-01     -1.322969000000000E+02
4851000000.000000      6.229858000000000E-01      1.448926000000000E+01      4.835815000000000E-01     -1.332578000000000E+02
4852000000.000000      6.234741000000000E-01      1.421729000000000E+01      4.816132000000000E-01     -1.340703000000000E+02
4853000000.000000      6.248779000000000E-01      1.440674000000000E+01      4.790192000000000E-01     -1.349766000000000E+02
4854000000.000000      6.241455000000000E-01      1.425049000000000E+01      4.759521000000000E-01     -1.359062000000000E+02
4855000000.000000      6.263733000000000E-01      1.450977000000000E+01      4.734192000000000E-01     -1.366875000000000E+02
4856000000.000000      6.283875000000000E-01      1.454004000000000E+01      4.700623000000000E-01     -1.373594000000000E+02
4857000000.000000      6.301575000000000E-01      1.458398000000000E+01      4.681244000000000E-01     -1.382891000000000E+02
4858000000.000000      6.299438000000000E-01      1.453467000000000E+01      4.654388000000000E-01     -1.390625000000000E+02
4859000000.000000      6.309814000000000E-01      1.456494000000000E+01      4.634247000000000E-01     -1.400625000000000E+02
4860000000.000000      6.309204000000000E-01      1.450586000000000E+01      4.597321000000000E-01     -1.407812000000000E+02
4861000000.000000      6.323242000000000E-01      1.463086000000000E+01      4.564209000000000E-01     -1.417031000000000E+02
4862000000.000000      6.334534000000000E-01      1.461426000000000E+01      4.547577000000000E-01     -1.424922000000000E+02
4863000000.000000      6.361694000000000E-01      1.470508000000000E+01      4.491577000000000E-01     -1.433750000000000E+02
4864000000.000000      6.377563000000000E-01      1.455518000000000E+01      4.469910000000000E-01     -1.441328000000000E+02
4865000000.000000      6.369324000000000E-01      1.433838000000000E+01      4.424896000000000E-01     -1.448125000000000E+02
4866000000.000000      6.384888000000000E-01      1.457568000000000E+01      4.380646000000000E-01     -1.455547000000000E+02
4867000000.000000      6.392212000000000E-01      1.458838000000000E+01      4.356232000000000E-01     -1.465391000000000E+02
4868000000.000000      6.427612000000000E-01      1.449072000000000E+01      4.315338000000000E-01     -1.471172000000000E+02
4869000000.000000      6.429443000000000E-01      1.450586000000000E+01      4.261475000000000E-01     -1.479063000000000E+02
4870000000.000000      6.437378000000000E-01      1.449609000000000E+01      4.226227000000000E-01     -1.484453000000000E+02
4871000000.000000      6.457214000000000E-01      1.443164000000000E+01      4.172516000000000E-01     -1.494219000000000E+02
4872000000.000000      6.475830000000000E-01      1.448242000000000E+01      4.140778000000000E-01     -1.500391000000000E+02
4873000000.000000      6.484375000000000E-01      1.441504000000000E+01      4.094238000000000E-01     -1.506797000000000E+02
4874000000.000000      6.491089000000000E-01      1.439453000000000E+01      4.049530000000000E-01     -1.515234000000000E+02
4875000000.000000      6.493835000000000E-01      1.427393000000000E+01      4.007721000000000E-01     -1.519609000000000E+02
4876000000.000000      6.507874000000000E-01      1.429590000000000E+01      3.959808000000000E-01     -1.527734000000000E+02
4877000000.000000      6.540833000000000E-01      1.416650000000000E+01      3.928680000000000E-01     -1.535078000000000E+02
4878000000.000000      6.538086000000000E-01      1.407178000000000E+01      3.877869000000000E-01     -1.539766000000000E+02
4879000000.000000      6.557312000000000E-01      1.404590000000000E+01      3.821411000000000E-01     -1.543437000000000E+02
4880000000.000000      6.576538000000000E-01      1.423389000000000E+01      3.798370000000000E-01     -1.551641000000000E+02
4881000000.000000      6.581421000000000E-01      1.405420000000000E+01      3.740387000000000E-01     -1.555312000000000E+02
4882000000.000000      6.604004000000000E-01      1.406641000000000E+01      3.706055000000000E-01     -1.563828000000000E+02
4883000000.000000      6.612854000000000E-01      1.385498000000000E+01      3.643494000000000E-01     -1.569687000000000E+02
4884000000.000000      6.603394000000000E-01      1.382471000000000E+01      3.607483000000000E-01     -1.573906000000000E+02
4885000000.000000      6.634216000000000E-01      1.395264000000000E+01      3.564758000000000E-01     -1.576875000000000E+02
4886000000.000000      6.640625000000000E-01      1.371631000000000E+01      3.531494000000000E-01     -1.582109000000000E+02
4887000000.000000      6.653442000000000E-01      1.382764000000000E+01      3.483582000000000E-01     -1.587578000000000E+02
4888000000.000000      6.668701000000000E-01      1.332080000000000E+01      3.456421000000000E-01     -1.593984000000000E+02
4889000000.000000      6.667786000000000E-01      1.349219000000000E+01      3.393250000000000E-01     -1.596641000000000E+02
4890000000.000000      6.648865000000000E-01      1.330420000000000E+01      3.348083000000000E-01     -1.602344000000000E+02
4891000000.000000      6.696777000000000E-01      1.326855000000000E+01      3.322144000000000E-01     -1.605703000000000E+02
4892000000.000000      6.703186000000000E-01      1.313232000000000E+01      3.280029000000000E-01     -1.607734000000000E+02
4893000000.000000      6.712646000000000E-01      1.305713000000000E+01      3.232269000000000E-01     -1.613672000000000E+02
4894000000.000000      6.723938000000000E-01      1.314746000000000E+01      3.191376000000000E-01     -1.619375000000000E+02
4895000000.000000      6.730347000000000E-01      1.288379000000000E+01      3.168945000000000E-01     -1.620156000000000E+02
4896000000.000000      6.752930000000000E-01      1.285938000000000E+01      3.118896000000000E-01     -1.623984000000000E+02
4897000000.000000      6.739502000000000E-01      1.281543000000000E+01      3.074951000000000E-01     -1.627969000000000E+02
4898000000.000000      6.749573000000000E-01      1.273828000000000E+01      3.051147000000000E-01     -1.630625000000000E+02
4899000000.000000      6.755981000000000E-01      1.249512000000000E+01      3.005829000000000E-01     -1.634766000000000E+02
4900000000.000000      6.771240000000000E-01      1.243750000000000E+01      2.970886000000000E-01     -1.638203000000000E+02
4901000000.000000      6.781311000000000E-01      1.234131000000000E+01      2.931671000000000E-01     -1.640312000000000E+02
4902000000.000000      6.787109000000000E-01      1.222607000000000E+01      2.905731000000000E-01     -1.643203000000000E+02
4903000000.000000      6.790466000000000E-01      1.217676000000000E+01      2.855988000000000E-01     -1.645937000000000E+02
4904000000.000000      6.806335000000000E-01      1.190332000000000E+01      2.817078000000000E-01     -1.650469000000000E+02
4905000000.000000      6.798096000000000E-01      1.203369000000000E+01      2.795258000000000E-01     -1.653672000000000E+02
4906000000.000000      6.828918000000000E-01      1.180469000000000E+01      2.758026000000000E-01     -1.653906000000000E+02
4907000000.000000      6.831055000000000E-01      1.172754000000000E+01      2.727661000000000E-01     -1.659922000000000E+02
4908000000.000000      6.837158000000000E-01      1.154932000000000E+01      2.696838000000000E-01     -1.663203000000000E+02
4909000000.000000      6.852417000000000E-01      1.149561000000000E+01      2.650909000000000E-01     -1.666328000000000E+02
4910000000.000000      6.823730000000000E-01      1.140479000000000E+01      2.619019000000000E-01     -1.668359000000000E+02
4911000000.000000      6.852112000000000E-01      1.148340000000000E+01      2.586212000000000E-01     -1.670781000000000E+02
4912000000.000000      6.860352000000000E-01      1.142969000000000E+01      2.549438000000000E-01     -1.675547000000000E+02
4913000000.000000      6.888428000000000E-01      1.119482000000000E+01      2.522583000000000E-01     -1.678281000000000E+02
4914000000.000000      6.865540000000000E-01      1.104932000000000E+01      2.482224000000000E-01     -1.679844000000000E+02
4915000000.000000      6.866150000000000E-01      1.105615000000000E+01      2.445221000000000E-01     -1.684062000000000E+02
4916000000.000000      6.879578000000000E-01      1.092578000000000E+01      2.415695000000000E-01     -1.687266000000000E+02
4917000000.000000      6.863708000000000E-01      1.082422000000000E+01      2.373810000000000E-01     -1.688203000000000E+02
4918000000.000000      6.896667000000000E-01      1.060986000000000E+01      2.333832000000000E-01     -1.690859000000000E+02
4919000000.000000      6.879272000000000E-01      1.073193000000000E+01      2.301178000000000E-01     -1.691953000000000E+02
4920000000.000000      6.908569000000000E-01      1.051660000000000E+01      2.260742000000000E-01     -1.696094000000000E+02
4921000000.000000      6.906128000000000E-01      1.038867000000000E+01      2.231369000000000E-01     -1.696172000000000E+02
4922000000.000000      6.928101000000000E-01      1.014697000000000E+01      2.192230000000000E-01     -1.698594000000000E+02
4923000000.000000      6.914673000000000E-01      1.032129000000000E+01      2.154694000000000E-01     -1.698984000000000E+02
4924000000.000000      6.929932000000000E-01      1.016504000000000E+01      2.116394000000000E-01     -1.704062000000000E+02
4925000000.000000      6.908875000000000E-01      9.902344000000000E+00      2.080307000000000E-01     -1.702812000000000E+02
4926000000.000000      6.915283000000000E-01      9.931641000000000E+00      2.043839000000000E-01     -1.705078000000000E+02
4927000000.000000      6.949768000000000E-01      9.750000000000000E+00      1.999588000000000E-01     -1.706094000000000E+02
4928000000.000000      6.965332000000000E-01      9.615723000000000E+00      1.969986000000000E-01     -1.706094000000000E+02
4929000000.000000      6.941223000000000E-01      9.582520000000000E+00      1.930847000000000E-01     -1.705078000000000E+02
4930000000.000000      6.930847000000000E-01      9.479492000000000E+00      1.894531000000000E-01     -1.707422000000000E+02
4931000000.000000      6.923828000000000E-01      9.384766000000000E+00      1.865463000000000E-01     -1.706484000000000E+02
4932000000.000000      6.951599000000000E-01      9.236328000000000E+00      1.818695000000000E-01     -1.706719000000000E+02
4933000000.000000      6.957092000000000E-01      9.265137000000000E+00      1.774979000000000E-01     -1.705469000000000E+02
4934000000.000000      6.974487000000000E-01      9.092285000000000E+00      1.744232000000000E-01     -1.704609000000000E+02
4935000000.000000      6.976013000000000E-01      9.078613000000000E+00      1.711655000000000E-01     -1.700156000000000E+02
4936000000.000000      6.970825000000000E-01      8.806641000000000E+00      1.668625000000000E-01     -1.698750000000000E+02
4937000000.000000      6.991272000000000E-01      8.696777000000000E+00      1.632767000000000E-01     -1.699141000000000E+02
4938000000.000000      6.957703000000000E-01      8.626953000000000E+00      1.595535000000000E-01     -1.694062000000000E+02
4939000000.000000      6.977234000000000E-01      8.455078000000000E+00      1.565247000000000E-01     -1.687813000000000E+02
4940000000.000000      6.999512000000000E-01      8.544434000000000E+00      1.522675000000000E-01     -1.685078000000000E+02
4941000000.000000      7.003174000000000E-01      8.291504000000000E+00      1.494904000000000E-01     -1.680859000000000E+02
4942000000.000000      6.984253000000000E-01      8.500488000000000E+00      1.457977000000000E-01     -1.677422000000000E+02
4943000000.000000      6.994934000000000E-01      8.243652000000000E+00      1.424561000000000E-01     -1.668828000000000E+02
4944000000.000000      7.014160000000000E-01      8.108887000000000E+00      1.392288000000000E-01     -1.662188000000000E+02
4945000000.000000      6.996765000000000E-01      8.055664000000000E+00      1.357346000000000E-01     -1.654766000000000E+02
4946000000.000000      7.023926000000000E-01      7.811279000000000E+00      1.328430000000000E-01     -1.645469000000000E+02
4947000000.000000      7.008362000000000E-01      7.884033000000000E+00      1.296692000000000E-01     -1.634219000000000E+02
4948000000.000000      7.032776000000000E-01      7.782227000000000E+00      1.273804000000000E-01     -1.627031000000000E+02
4949000000.000000      7.026978000000000E-01      7.573486000000000E+00      1.246758000000000E-01     -1.614141000000000E+02
4950000000.000000      7.050171000000000E-01      7.713623000000000E+00      1.220932000000000E-01     -1.604687000000000E+02
4951000000.000000      7.041626000000000E-01      7.459717000000000E+00      1.192436000000000E-01     -1.593437000000000E+02
4952000000.000000      7.026672000000000E-01      7.541992000000000E+00      1.170387000000000E-01     -1.577266000000000E+02
4953000000.000000      7.054749000000000E-01      7.253662000000000E+00      1.151848000000000E-01     -1.563594000000000E+02
4954000000.000000      7.059937000000000E-01      7.248047000000000E+00      1.130180000000000E-01     -1.548672000000000E+02
