! Network Analyzer HP8722D
! Hewlett-Packard
! Data name: Linha & Wilkinson
! Saver's name: Rodrigo Anjos
! Comments: Teste da utilização de aquisição
continua pelo VNA HP8722D
! Time and date: 22/5/2025 09:34
!              Frequency                     S11                                                   S21                                                   S12                                                   S22
# HZ  S  MA R 50
4800000000.000000      6.482239000000000E-01      1.049023000000000E+01      4.753265000000000E-01     -9.367579000000000E+01
4801000000.000000      6.445313000000000E-01      1.043408000000000E+01      4.763794000000000E-01     -9.442577000000000E+01
4802000000.000000      6.433411000000000E-01      1.051074000000000E+01      4.777374000000000E-01     -9.506250000000000E+01
4803000000.000000      6.421509000000000E-01      1.039697000000000E+01      4.817047000000000E-01     -9.587500000000000E+01
4804000000.000000      6.399231000000000E-01      1.036133000000000E+01      4.817963000000000E-01     -9.666016000000000E+01
4805000000.000000      6.398621000000000E-01      1.025977000000000E+01      4.837952000000000E-01     -9.760546000000000E+01
4806000000.000000      6.379089000000000E-01      1.037646000000000E+01      4.851990000000000E-01     -9.817186000000000E+01
4807000000.000000      6.337891000000000E-01      1.035693000000000E+01      4.856415000000000E-01     -9.908983000000000E+01
4808000000.000000      6.333008000000000E-01      1.035986000000000E+01      4.877777000000000E-01     -9.980858000000000E+01
4809000000.000000      6.316833000000000E-01      1.049854000000000E+01      4.893341000000000E-01     -1.004609000000000E+02
4810000000.000000      6.299438000000000E-01      1.055078000000000E+01      4.900360000000000E-01     -1.011797000000000E+02
4811000000.000000      6.296997000000000E-01      1.041357000000000E+01      4.926605000000000E-01     -1.022187000000000E+02
4812000000.000000      6.296082000000000E-01      1.065771000000000E+01      4.933624000000000E-01     -1.028828000000000E+02
4813000000.000000      6.263733000000000E-01      1.060010000000000E+01      4.924774000000000E-01     -1.035000000000000E+02
4814000000.000000      6.244202000000000E-01      1.069629000000000E+01      4.950409000000000E-01     -1.042031000000000E+02
4815000000.000000      6.235046000000000E-01      1.082666000000000E+01      4.945984000000000E-01     -1.050742000000000E+02
4816000000.000000      6.224976000000000E-01      1.097510000000000E+01      4.964294000000000E-01     -1.057813000000000E+02
4817000000.000000      6.212463000000000E-01      1.099707000000000E+01      4.974670000000000E-01     -1.065781000000000E+02
4818000000.000000      6.204224000000000E-01      1.099561000000000E+01      4.971466000000000E-01     -1.072266000000000E+02
4819000000.000000      6.200256000000000E-01      1.111816000000000E+01      4.970703000000000E-01     -1.079648000000000E+02
4820000000.000000      6.181335000000000E-01      1.129102000000000E+01      4.990387000000000E-01     -1.085664000000000E+02
4821000000.000000      6.176147000000000E-01      1.131689000000000E+01      5.003357000000000E-01     -1.095508000000000E+02
4822000000.000000      6.156006000000000E-01      1.119336000000000E+01      4.974670000000000E-01     -1.102148000000000E+02
4823000000.000000      6.160889000000000E-01      1.136084000000000E+01      4.997101000000000E-01     -1.110117000000000E+02
4824000000.000000      6.140442000000000E-01      1.169727000000000E+01      4.979248000000000E-01     -1.119297000000000E+02
4825000000.000000      6.151733000000000E-01      1.154102000000000E+01      4.987640000000000E-01     -1.126719000000000E+02
4826000000.000000      6.122742000000000E-01      1.164551000000000E+01      5.002136000000000E-01     -1.134531000000000E+02
4827000000.000000      6.153259000000000E-01      1.189111000000000E+01      4.993134000000000E-01     -1.139766000000000E+02
4828000000.000000      6.129456000000000E-01      1.196680000000000E+01      5.015564000000000E-01     -1.148047000000000E+02
4829000000.000000      6.132813000000000E-01      1.234277000000000E+01      5.006409000000000E-01     -1.155039000000000E+02
4830000000.000000      6.133728000000000E-01      1.214258000000000E+01      4.998322000000000E-01     -1.163437000000000E+02
4831000000.000000      6.119385000000000E-01      1.225928000000000E+01      4.999084000000000E-01     -1.172539000000000E+02
4832000000.000000      6.122437000000000E-01      1.249805000000000E+01      4.997406000000000E-01     -1.178516000000000E+02
4833000000.000000      6.102905000000000E-01      1.245020000000000E+01      4.993286000000000E-01     -1.184609000000000E+02
4834000000.000000      6.105347000000000E-01      1.262695000000000E+01      4.994202000000000E-01     -1.195273000000000E+02
4835000000.000000      6.121216000000000E-01      1.251855000000000E+01      5.002747000000000E-01     -1.203008000000000E+02
4836000000.000000      6.126709000000000E-01      1.285254000000000E+01      4.978485000000000E-01     -1.209727000000000E+02
4837000000.000000      6.105347000000000E-01      1.300635000000000E+01      4.967957000000000E-01     -1.219765000000000E+02
4838000000.000000      6.119385000000000E-01      1.319043000000000E+01      4.980469000000000E-01     -1.225352000000000E+02
4839000000.000000      6.148987000000000E-01      1.319580000000000E+01      4.976654000000000E-01     -1.232187000000000E+02
4840000000.000000      6.132507000000000E-01      1.310645000000000E+01      4.977264000000000E-01     -1.241523000000000E+02
4841000000.000000      6.141663000000000E-01      1.341113000000000E+01      4.961700000000000E-01     -1.251445000000000E+02
4842000000.000000      6.129761000000000E-01      1.355713000000000E+01      4.961853000000000E-01     -1.256953000000000E+02
4843000000.000000      6.164551000000000E-01      1.350195000000000E+01      4.951324000000000E-01     -1.266562000000000E+02
4844000000.000000      6.169434000000000E-01      1.353223000000000E+01      4.949646000000000E-01     -1.273828000000000E+02
4845000000.000000      6.166382000000000E-01      1.390869000000000E+01      4.913483000000000E-01     -1.283359000000000E+02
4846000000.000000      6.191406000000000E-01      1.376025000000000E+01      4.913635000000000E-01     -1.290859000000000E+02
4847000000.000000      6.191101000000000E-01      1.392920000000000E+01      4.905701000000000E-01     -1.297734000000000E+02
4848000000.000000      6.194763000000000E-01      1.400049000000000E+01      4.866486000000000E-01     -1.305703000000000E+02
4849000000.000000      6.189270000000000E-01      1.406787000000000E+01      4.870453000000000E-01     -1.316015000000000E+02
4850000000.000000      6.202698000000000E-01      1.401416000000000E+01      4.852295000000000E-01     -1.325000000000000E+02
4851000000.000000      6.226501000000000E-01      1.421631000000000E+01      4.831238000000000E-01     -1.332109000000000E+02
4852000000.000000      6.227417000000000E-01      1.418457000000000E+01      4.819946000000000E-01     -1.338828000000000E+02
4853000000.000000      6.245117000000000E-01      1.421338000000000E+01      4.765015000000000E-01     -1.349219000000000E+02
4854000000.000000      6.256714000000000E-01      1.424219000000000E+01      4.772186000000000E-01     -1.358594000000000E+02
4855000000.000000      6.261597000000000E-01      1.429590000000000E+01      4.740753000000000E-01     -1.367344000000000E+02
4856000000.000000      6.270447000000000E-01      1.443604000000000E+01      4.714508000000000E-01     -1.374531000000000E+02
4857000000.000000      6.296082000000000E-01      1.454834000000000E+01      4.697876000000000E-01     -1.382344000000000E+02
4858000000.000000      6.285706000000000E-01      1.447852000000000E+01      4.664917000000000E-01     -1.391250000000000E+02
4859000000.000000      6.316223000000000E-01      1.424512000000000E+01      4.629517000000000E-01     -1.401641000000000E+02
4860000000.000000      6.310425000000000E-01      1.448779000000000E+01      4.598846000000000E-01     -1.406719000000000E+02
4861000000.000000      6.326904000000000E-01      1.449902000000000E+01      4.571533000000000E-01     -1.418750000000000E+02
4862000000.000000      6.340942000000000E-01      1.452637000000000E+01      4.537354000000000E-01     -1.424062000000000E+02
4863000000.000000      6.357117000000000E-01      1.450879000000000E+01      4.496155000000000E-01     -1.432891000000000E+02
4864000000.000000      6.370239000000000E-01      1.455664000000000E+01      4.466248000000000E-01     -1.440391000000000E+02
4865000000.000000      6.378479000000000E-01      1.453467000000000E+01      4.426727000000000E-01     -1.446172000000000E+02
4866000000.000000      6.402893000000000E-01      1.447266000000000E+01      4.384766000000000E-01     -1.457109000000000E+02
4867000000.000000      6.394958000000000E-01      1.449609000000000E+01      4.352417000000000E-01     -1.464922000000000E+02
4868000000.000000      6.418762000000000E-01      1.448682000000000E+01      4.311676000000000E-01     -1.472969000000000E+02
4869000000.000000      6.417542000000000E-01      1.449756000000000E+01      4.268188000000000E-01     -1.479687000000000E+02
4870000000.000000      6.441956000000000E-01      1.439453000000000E+01      4.226074000000000E-01     -1.484219000000000E+02
4871000000.000000      6.447144000000000E-01      1.434375000000000E+01      4.188843000000000E-01     -1.493906000000000E+02
4872000000.000000      6.485596000000000E-01      1.427930000000000E+01      4.140778000000000E-01     -1.500859000000000E+02
4873000000.000000      6.466675000000000E-01      1.431885000000000E+01      4.097137000000000E-01     -1.508125000000000E+02
4874000000.000000      6.483154000000000E-01      1.433691000000000E+01      4.046173000000000E-01     -1.513828000000000E+02
4875000000.000000      6.494751000000000E-01      1.430273000000000E+01      4.012299000000000E-01     -1.518594000000000E+02
4876000000.000000      6.522217000000000E-01      1.437109000000000E+01      3.970337000000000E-01     -1.528750000000000E+02
4877000000.000000      6.526184000000000E-01      1.403760000000000E+01      3.924103000000000E-01     -1.535781000000000E+02
4878000000.000000      6.534119000000000E-01      1.385352000000000E+01      3.871155000000000E-01     -1.540859000000000E+02
4879000000.000000      6.569824000000000E-01      1.411426000000000E+01      3.819275000000000E-01     -1.542734000000000E+02
4880000000.000000      6.585083000000000E-01      1.412256000000000E+01      3.787537000000000E-01     -1.549531000000000E+02
4881000000.000000      6.593628000000000E-01      1.383984000000000E+01      3.755646000000000E-01     -1.555547000000000E+02
4882000000.000000      6.611938000000000E-01      1.380127000000000E+01      3.711853000000000E-01     -1.563594000000000E+02
4883000000.000000      6.600342000000000E-01      1.394971000000000E+01      3.650055000000000E-01     -1.567500000000000E+02
4884000000.000000      6.631470000000000E-01      1.381787000000000E+01      3.618622000000000E-01     -1.571953000000000E+02
4885000000.000000      6.652222000000000E-01      1.372705000000000E+01      3.566437000000000E-01     -1.578125000000000E+02
4886000000.000000      6.651611000000000E-01      1.355566000000000E+01      3.520355000000000E-01     -1.582031000000000E+02
4887000000.000000      6.665649000000000E-01      1.356934000000000E+01      3.485870000000000E-01     -1.588281000000000E+02
4888000000.000000      6.676636000000000E-01      1.329883000000000E+01      3.450623000000000E-01     -1.593672000000000E+02
4889000000.000000      6.667480000000000E-01      1.346631000000000E+01      3.392029000000000E-01     -1.593359000000000E+02
4890000000.000000      6.684265000000000E-01      1.321338000000000E+01      3.350677000000000E-01     -1.602344000000000E+02
4891000000.000000      6.698914000000000E-01      1.309570000000000E+01      3.318176000000000E-01     -1.606562000000000E+02
4892000000.000000      6.695557000000000E-01      1.299805000000000E+01      3.264771000000000E-01     -1.606484000000000E+02
4893000000.000000      6.729126000000000E-01      1.289209000000000E+01      3.233337000000000E-01     -1.612500000000000E+02
4894000000.000000      6.730652000000000E-01      1.299365000000000E+01      3.187714000000000E-01     -1.616875000000000E+02
4895000000.000000      6.769409000000000E-01      1.285107000000000E+01      3.175507000000000E-01     -1.620625000000000E+02
4896000000.000000      6.749573000000000E-01      1.290869000000000E+01      3.129578000000000E-01     -1.623437000000000E+02
4897000000.000000      6.749878000000000E-01      1.262305000000000E+01      3.083496000000000E-01     -1.627891000000000E+02
4898000000.000000      6.758728000000000E-01      1.248291000000000E+01      3.052521000000000E-01     -1.630781000000000E+02
4899000000.000000      6.775208000000000E-01      1.237158000000000E+01      3.004303000000000E-01     -1.636406000000000E+02
4900000000.000000      6.783447000000000E-01      1.228271000000000E+01      2.972260000000000E-01     -1.637969000000000E+02
4901000000.000000      6.787109000000000E-01      1.222070000000000E+01      2.940216000000000E-01     -1.641875000000000E+02
4902000000.000000      6.794434000000000E-01      1.209863000000000E+01      2.910767000000000E-01     -1.643125000000000E+02
4903000000.000000      6.797791000000000E-01      1.208057000000000E+01      2.864075000000000E-01     -1.647891000000000E+02
4904000000.000000      6.803284000000000E-01      1.184424000000000E+01      2.829437000000000E-01     -1.651406000000000E+02
4905000000.000000      6.805725000000000E-01      1.179785000000000E+01      2.800140000000000E-01     -1.654453000000000E+02
4906000000.000000      6.839600000000000E-01      1.177441000000000E+01      2.763214000000000E-01     -1.656484000000000E+02
4907000000.000000      6.840210000000000E-01      1.171924000000000E+01      2.725372000000000E-01     -1.659453000000000E+02
4908000000.000000      6.857300000000000E-01      1.140625000000000E+01      2.699127000000000E-01     -1.662969000000000E+02
4909000000.000000      6.839600000000000E-01      1.138965000000000E+01      2.662048000000000E-01     -1.666719000000000E+02
4910000000.000000      6.830750000000000E-01      1.128662000000000E+01      2.630157000000000E-01     -1.668984000000000E+02
4911000000.000000      6.865540000000000E-01      1.128564000000000E+01      2.591095000000000E-01     -1.671406000000000E+02
4912000000.000000      6.850891000000000E-01      1.125000000000000E+01      2.557983000000000E-01     -1.674766000000000E+02
4913000000.000000      6.874695000000000E-01      1.116211000000000E+01      2.518005000000000E-01     -1.678203000000000E+02
4914000000.000000      6.862183000000000E-01      1.082129000000000E+01      2.480087000000000E-01     -1.680469000000000E+02
4915000000.000000      6.885986000000000E-01      1.082275000000000E+01      2.441483000000000E-01     -1.684219000000000E+02
4916000000.000000      6.881714000000000E-01      1.086816000000000E+01      2.411423000000000E-01     -1.687109000000000E+02
4917000000.000000      6.904602000000000E-01      1.055908000000000E+01      2.373428000000000E-01     -1.688906000000000E+02
4918000000.000000      6.897888000000000E-01      1.072949000000000E+01      2.333450000000000E-01     -1.692109000000000E+02
4919000000.000000      6.889038000000000E-01      1.056738000000000E+01      2.306137000000000E-01     -1.693594000000000E+02
4920000000.000000      6.903381000000000E-01      1.035449000000000E+01      2.264938000000000E-01     -1.697500000000000E+02
4921000000.000000      6.904907000000000E-01      1.048340000000000E+01      2.235031000000000E-01     -1.697969000000000E+02
4922000000.000000      6.900024000000000E-01      1.022949000000000E+01      2.193375000000000E-01     -1.698672000000000E+02
4923000000.000000      6.920471000000000E-01      1.004688000000000E+01      2.153244000000000E-01     -1.700234000000000E+02
4924000000.000000      6.934509000000000E-01      9.968262000000000E+00      2.113647000000000E-01     -1.703750000000000E+02
4925000000.000000      6.907959000000000E-01      9.976563000000000E+00      2.086258000000000E-01     -1.703672000000000E+02
4926000000.000000      6.922913000000000E-01      9.883301000000000E+00      2.045822000000000E-01     -1.705625000000000E+02
4927000000.000000      6.940308000000000E-01      9.645996000000000E+00      2.005157000000000E-01     -1.706172000000000E+02
4928000000.000000      6.940308000000000E-01      9.643066000000000E+00      1.966782000000000E-01     -1.708125000000000E+02
4929000000.000000      6.937561000000000E-01      9.338379000000000E+00      1.928177000000000E-01     -1.706953000000000E+02
4930000000.000000      6.942749000000000E-01      9.402832000000000E+00      1.897202000000000E-01     -1.708594000000000E+02
4931000000.000000      6.972046000000000E-01      9.181641000000000E+00      1.860352000000000E-01     -1.706640000000000E+02
4932000000.000000      6.959229000000000E-01      9.220215000000000E+00      1.816711000000000E-01     -1.706172000000000E+02
4933000000.000000      6.960449000000000E-01      9.192383000000000E+00      1.779556000000000E-01     -1.704219000000000E+02
4934000000.000000      6.974792000000000E-01      8.927734000000000E+00      1.743088000000000E-01     -1.706406000000000E+02
4935000000.000000      6.994934000000000E-01      8.770996000000000E+00      1.714249000000000E-01     -1.702656000000000E+02
4936000000.000000      6.973267000000000E-01      8.792969000000000E+00      1.670609000000000E-01     -1.698672000000000E+02
4937000000.000000      6.986084000000000E-01      8.621094000000000E+00      1.632843000000000E-01     -1.697266000000000E+02
4938000000.000000      6.990662000000000E-01      8.723145000000000E+00      1.599197000000000E-01     -1.693672000000000E+02
4939000000.000000      6.995544000000000E-01      8.680176000000000E+00      1.565857000000000E-01     -1.691719000000000E+02
4940000000.000000      6.997681000000000E-01      8.670898000000000E+00      1.526642000000000E-01     -1.687500000000000E+02
4941000000.000000      6.999817000000000E-01      8.233887000000000E+00      1.492538000000000E-01     -1.681406000000000E+02
4942000000.000000      7.003174000000000E-01      8.239746000000000E+00      1.457825000000000E-01     -1.675703000000000E+02
4943000000.000000      7.012634000000000E-01      8.229980000000000E+00      1.429367000000000E-01     -1.668516000000000E+02
4944000000.000000      7.024841000000000E-01      7.958008000000000E+00      1.390228000000000E-01     -1.662812000000000E+02
4945000000.000000      7.021484000000000E-01      7.968994000000000E+00      1.358795000000000E-01     -1.655859000000000E+02
4946000000.000000      7.026367000000000E-01      7.885254000000000E+00      1.331100000000000E-01     -1.647187000000000E+02
4947000000.000000      7.018433000000000E-01      7.750732000000000E+00      1.297455000000000E-01     -1.635234000000000E+02
4948000000.000000      7.029419000000000E-01      7.580566000000000E+00      1.271362000000000E-01     -1.627344000000000E+02
4949000000.000000      7.022095000000000E-01      7.579102000000000E+00      1.246529000000000E-01     -1.616562000000000E+02
4950000000.000000      7.036743000000000E-01      7.510498000000000E+00      1.217651000000000E-01     -1.605078000000000E+02
4951000000.000000      7.045593000000000E-01      7.378662000000000E+00      1.198158000000000E-01     -1.593281000000000E+02
4952000000.000000      7.060852000000000E-01      7.224854000000000E+00      1.172485000000000E-01     -1.579609000000000E+02
4953000000.000000      7.053528000000000E-01      7.174072000000000E+00      1.150246000000000E-01     -1.563594000000000E+02
4954000000.000000      7.058716000000000E-01      7.032471000000000E+00      1.131363000000000E-01     -1.550469000000000E+02
