! Network Analyzer HP8722D
! Hewlett-Packard
! Data name: Linha & Wilkinson
! Saver's name: Rodrigo Anjos
! Comments: Teste da utilização de aquisição
continua pelo VNA HP8722D
! Time and date: 22/5/2025 08:51
!              Frequency                     S11                                                   S21                                                   S12                                                   S22
# HZ  S  MA R 50
4800000000.000000      6.478882000000000E-01      1.023096000000000E+01      4.749298000000000E-01     -9.390234000000000E+01
4801000000.000000      6.456299000000000E-01      1.035986000000000E+01      4.769440000000000E-01     -9.449999000000000E+01
4802000000.000000      6.441650000000000E-01      1.035303000000000E+01      4.787750000000000E-01     -9.517969000000000E+01
4803000000.000000      6.412048000000000E-01      1.020752000000000E+01      4.810181000000000E-01     -9.586329000000000E+01
4804000000.000000      6.389465000000000E-01      1.026367000000000E+01      4.812317000000000E-01     -9.659374000000000E+01
4805000000.000000      6.398621000000000E-01      1.018408000000000E+01      4.836426000000000E-01     -9.750389000000000E+01
4806000000.000000      6.373596000000000E-01      1.023633000000000E+01      4.841919000000000E-01     -9.825781000000000E+01
4807000000.000000      6.355286000000000E-01      1.026123000000000E+01      4.860535000000000E-01     -9.912109000000000E+01
4808000000.000000      6.321411000000000E-01      1.035596000000000E+01      4.875641000000000E-01     -9.966015000000000E+01
4809000000.000000      6.327820000000000E-01      1.038477000000000E+01      4.901276000000000E-01     -1.006250000000000E+02
4810000000.000000      6.307678000000000E-01      1.043555000000000E+01      4.901581000000000E-01     -1.012148000000000E+02
4811000000.000000      6.289368000000000E-01      1.045459000000000E+01      4.915161000000000E-01     -1.021641000000000E+02
4812000000.000000      6.304626000000000E-01      1.078955000000000E+01      4.926147000000000E-01     -1.028359000000000E+02
4813000000.000000      6.268311000000000E-01      1.072510000000000E+01      4.936523000000000E-01     -1.036250000000000E+02
4814000000.000000      6.230469000000000E-01      1.057813000000000E+01      4.950867000000000E-01     -1.042812000000000E+02
4815000000.000000      6.243591000000000E-01      1.072656000000000E+01      4.955902000000000E-01     -1.050859000000000E+02
4816000000.000000      6.239929000000000E-01      1.078955000000000E+01      4.970856000000000E-01     -1.058203000000000E+02
4817000000.000000      6.211548000000000E-01      1.101074000000000E+01      4.974060000000000E-01     -1.067461000000000E+02
4818000000.000000      6.205139000000000E-01      1.091309000000000E+01      4.959259000000000E-01     -1.073008000000000E+02
4819000000.000000      6.190796000000000E-01      1.111230000000000E+01      4.972687000000000E-01     -1.079453000000000E+02
4820000000.000000      6.170654000000000E-01      1.117139000000000E+01      4.969635000000000E-01     -1.086016000000000E+02
4821000000.000000      6.191406000000000E-01      1.131152000000000E+01      4.995117000000000E-01     -1.096328000000000E+02
4822000000.000000      6.162109000000000E-01      1.114404000000000E+01      4.975433000000000E-01     -1.102812000000000E+02
4823000000.000000      6.176147000000000E-01      1.129395000000000E+01      5.005188000000000E-01     -1.112109000000000E+02
4824000000.000000      6.141968000000000E-01      1.165234000000000E+01      4.992676000000000E-01     -1.119102000000000E+02
4825000000.000000      6.141663000000000E-01      1.156543000000000E+01      4.987640000000000E-01     -1.126172000000000E+02
4826000000.000000      6.137390000000000E-01      1.151465000000000E+01      4.996185000000000E-01     -1.134727000000000E+02
4827000000.000000      6.135864000000000E-01      1.192383000000000E+01      4.995728000000000E-01     -1.139844000000000E+02
4828000000.000000      6.137390000000000E-01      1.198584000000000E+01      5.012817000000000E-01     -1.147266000000000E+02
4829000000.000000      6.136169000000000E-01      1.219043000000000E+01      5.007019000000000E-01     -1.155351000000000E+02
4830000000.000000      6.129761000000000E-01      1.208887000000000E+01      5.002441000000000E-01     -1.165117000000000E+02
4831000000.000000      6.115417000000000E-01      1.215625000000000E+01      5.010376000000000E-01     -1.173984000000000E+02
4832000000.000000      6.112671000000000E-01      1.249512000000000E+01      4.992676000000000E-01     -1.178672000000000E+02
4833000000.000000      6.114197000000000E-01      1.246777000000000E+01      4.986115000000000E-01     -1.184492000000000E+02
4834000000.000000      6.116943000000000E-01      1.264893000000000E+01      5.000916000000000E-01     -1.195937000000000E+02
4835000000.000000      6.119995000000000E-01      1.272607000000000E+01      4.991913000000000E-01     -1.201641000000000E+02
4836000000.000000      6.114807000000000E-01      1.275488000000000E+01      4.988861000000000E-01     -1.210000000000000E+02
4837000000.000000      6.119995000000000E-01      1.289502000000000E+01      4.973145000000000E-01     -1.220508000000000E+02
4838000000.000000      6.119995000000000E-01      1.300049000000000E+01      4.983978000000000E-01     -1.223984000000000E+02
4839000000.000000      6.151123000000000E-01      1.317383000000000E+01      4.976501000000000E-01     -1.233281000000000E+02
4840000000.000000      6.140747000000000E-01      1.317920000000000E+01      4.974518000000000E-01     -1.241055000000000E+02
4841000000.000000      6.136169000000000E-01      1.344580000000000E+01      4.953156000000000E-01     -1.250898000000000E+02
4842000000.000000      6.146240000000000E-01      1.337158000000000E+01      4.956665000000000E-01     -1.256914000000000E+02
4843000000.000000      6.183777000000000E-01      1.342529000000000E+01      4.957886000000000E-01     -1.267383000000000E+02
4844000000.000000      6.172791000000000E-01      1.353369000000000E+01      4.943085000000000E-01     -1.274805000000000E+02
4845000000.000000      6.171265000000000E-01      1.358301000000000E+01      4.933319000000000E-01     -1.283594000000000E+02
4846000000.000000      6.185913000000000E-01      1.370508000000000E+01      4.914398000000000E-01     -1.291641000000000E+02
4847000000.000000      6.198425000000000E-01      1.376709000000000E+01      4.906311000000000E-01     -1.298359000000000E+02
4848000000.000000      6.197510000000000E-01      1.386328000000000E+01      4.863892000000000E-01     -1.306406000000000E+02
4849000000.000000      6.207886000000000E-01      1.397314000000000E+01      4.873962000000000E-01     -1.315703000000000E+02
4850000000.000000      6.234741000000000E-01      1.397998000000000E+01      4.840851000000000E-01     -1.324922000000000E+02
4851000000.000000      6.228333000000000E-01      1.417090000000000E+01      4.830322000000000E-01     -1.332422000000000E+02
4852000000.000000      6.237183000000000E-01      1.406104000000000E+01      4.798584000000000E-01     -1.341484000000000E+02
4853000000.000000      6.255188000000000E-01      1.426563000000000E+01      4.775696000000000E-01     -1.349609000000000E+02
4854000000.000000      6.244202000000000E-01      1.408838000000000E+01      4.754639000000000E-01     -1.358281000000000E+02
4855000000.000000      6.256104000000000E-01      1.417627000000000E+01      4.729919000000000E-01     -1.366797000000000E+02
4856000000.000000      6.283569000000000E-01      1.426270000000000E+01      4.697266000000000E-01     -1.375391000000000E+02
4857000000.000000      6.294861000000000E-01      1.425732000000000E+01      4.695435000000000E-01     -1.382422000000000E+02
4858000000.000000      6.300659000000000E-01      1.429688000000000E+01      4.668884000000000E-01     -1.393125000000000E+02
4859000000.000000      6.319580000000000E-01      1.426416000000000E+01      4.624481000000000E-01     -1.401719000000000E+02
4860000000.000000      6.305237000000000E-01      1.440137000000000E+01      4.597321000000000E-01     -1.406875000000000E+02
4861000000.000000      6.315918000000000E-01      1.433545000000000E+01      4.561615000000000E-01     -1.418359000000000E+02
4862000000.000000      6.335144000000000E-01      1.456787000000000E+01      4.542236000000000E-01     -1.425234000000000E+02
4863000000.000000      6.352844000000000E-01      1.459521000000000E+01      4.487762000000000E-01     -1.432422000000000E+02
4864000000.000000      6.363220000000000E-01      1.442480000000000E+01      4.456940000000000E-01     -1.441641000000000E+02
4865000000.000000      6.365356000000000E-01      1.426025000000000E+01      4.425659000000000E-01     -1.447422000000000E+02
4866000000.000000      6.378784000000000E-01      1.426807000000000E+01      4.379272000000000E-01     -1.456250000000000E+02
4867000000.000000      6.398926000000000E-01      1.430420000000000E+01      4.352722000000000E-01     -1.466016000000000E+02
4868000000.000000      6.401062000000000E-01      1.423535000000000E+01      4.306641000000000E-01     -1.472109000000000E+02
4869000000.000000      6.427917000000000E-01      1.424072000000000E+01      4.269562000000000E-01     -1.480156000000000E+02
4870000000.000000      6.430664000000000E-01      1.444531000000000E+01      4.225159000000000E-01     -1.485469000000000E+02
4871000000.000000      6.439514000000000E-01      1.418164000000000E+01      4.189148000000000E-01     -1.493906000000000E+02
4872000000.000000      6.480408000000000E-01      1.424072000000000E+01      4.128723000000000E-01     -1.499453000000000E+02
4873000000.000000      6.472473000000000E-01      1.432471000000000E+01      4.093628000000000E-01     -1.509687000000000E+02
4874000000.000000      6.501465000000000E-01      1.417627000000000E+01      4.059448000000000E-01     -1.514922000000000E+02
4875000000.000000      6.499023000000000E-01      1.397998000000000E+01      4.007263000000000E-01     -1.521875000000000E+02
4876000000.000000      6.528320000000000E-01      1.404150000000000E+01      3.971863000000000E-01     -1.527500000000000E+02
4877000000.000000      6.542053000000000E-01      1.384521000000000E+01      3.930664000000000E-01     -1.535078000000000E+02
4878000000.000000      6.545715000000000E-01      1.401953000000000E+01      3.877563000000000E-01     -1.540390000000000E+02
4879000000.000000      6.582642000000000E-01      1.397461000000000E+01      3.819122000000000E-01     -1.543281000000000E+02
4880000000.000000      6.580200000000000E-01      1.381787000000000E+01      3.783112000000000E-01     -1.551641000000000E+02
4881000000.000000      6.579895000000000E-01      1.373291000000000E+01      3.740234000000000E-01     -1.555391000000000E+02
4882000000.000000      6.604614000000000E-01      1.372705000000000E+01      3.700714000000000E-01     -1.561719000000000E+02
4883000000.000000      6.619873000000000E-01      1.364355000000000E+01      3.647766000000000E-01     -1.569375000000000E+02
4884000000.000000      6.635437000000000E-01      1.377686000000000E+01      3.619385000000000E-01     -1.572578000000000E+02
4885000000.000000      6.639099000000000E-01      1.357324000000000E+01      3.576508000000000E-01     -1.578281000000000E+02
4886000000.000000      6.660461000000000E-01      1.349121000000000E+01      3.525543000000000E-01     -1.583359000000000E+02
4887000000.000000      6.664124000000000E-01      1.344824000000000E+01      3.482819000000000E-01     -1.587891000000000E+02
4888000000.000000      6.670227000000000E-01      1.321631000000000E+01      3.445892000000000E-01     -1.592344000000000E+02
4889000000.000000      6.667175000000000E-01      1.328223000000000E+01      3.411560000000000E-01     -1.595078000000000E+02
4890000000.000000      6.657104000000000E-01      1.301025000000000E+01      3.363037000000000E-01     -1.603594000000000E+02
4891000000.000000      6.713867000000000E-01      1.317627000000000E+01      3.308105000000000E-01     -1.605625000000000E+02
4892000000.000000      6.715698000000000E-01      1.304346000000000E+01      3.273163000000000E-01     -1.609297000000000E+02
4893000000.000000      6.733704000000000E-01      1.293066000000000E+01      3.246002000000000E-01     -1.614063000000000E+02
4894000000.000000      6.725464000000000E-01      1.278906000000000E+01      3.195038000000000E-01     -1.618281000000000E+02
4895000000.000000      6.738586000000000E-01      1.265869000000000E+01      3.167267000000000E-01     -1.621250000000000E+02
4896000000.000000      6.755371000000000E-01      1.262842000000000E+01      3.124084000000000E-01     -1.623594000000000E+02
4897000000.000000      6.744080000000000E-01      1.253809000000000E+01      3.084106000000000E-01     -1.628515000000000E+02
4898000000.000000      6.749573000000000E-01      1.253125000000000E+01      3.057556000000000E-01     -1.630391000000000E+02
4899000000.000000      6.785278000000000E-01      1.249268000000000E+01      3.013000000000000E-01     -1.635156000000000E+02
4900000000.000000      6.782837000000000E-01      1.230566000000000E+01      2.977753000000000E-01     -1.637031000000000E+02
4901000000.000000      6.815491000000000E-01      1.209961000000000E+01      2.941589000000000E-01     -1.641797000000000E+02
4902000000.000000      6.790771000000000E-01      1.209863000000000E+01      2.910309000000000E-01     -1.643906000000000E+02
4903000000.000000      6.808167000000000E-01      1.213135000000000E+01      2.863312000000000E-01     -1.647109000000000E+02
4904000000.000000      6.805420000000000E-01      1.180029000000000E+01      2.828064000000000E-01     -1.652031000000000E+02
4905000000.000000      6.834106000000000E-01      1.183203000000000E+01      2.798004000000000E-01     -1.654609000000000E+02
4906000000.000000      6.819763000000000E-01      1.161768000000000E+01      2.760162000000000E-01     -1.656172000000000E+02
4907000000.000000      6.835632000000000E-01      1.163037000000000E+01      2.727966000000000E-01     -1.661797000000000E+02
4908000000.000000      6.847534000000000E-01      1.150391000000000E+01      2.700043000000000E-01     -1.663047000000000E+02
4909000000.000000      6.827698000000000E-01      1.155615000000000E+01      2.660675000000000E-01     -1.667266000000000E+02
4910000000.000000      6.855469000000000E-01      1.142822000000000E+01      2.620850000000000E-01     -1.669219000000000E+02
4911000000.000000      6.863708000000000E-01      1.110986000000000E+01      2.597961000000000E-01     -1.673203000000000E+02
4912000000.000000      6.847839000000000E-01      1.110400000000000E+01      2.553253000000000E-01     -1.676406000000000E+02
4913000000.000000      6.854553000000000E-01      1.087744000000000E+01      2.522583000000000E-01     -1.678203000000000E+02
4914000000.000000      6.878662000000000E-01      1.080615000000000E+01      2.482910000000000E-01     -1.680781000000000E+02
4915000000.000000      6.869507000000000E-01      1.082275000000000E+01      2.446213000000000E-01     -1.684375000000000E+02
4916000000.000000      6.869202000000000E-01      1.069092000000000E+01      2.414551000000000E-01     -1.687656000000000E+02
4917000000.000000      6.890564000000000E-01      1.064697000000000E+01      2.374878000000000E-01     -1.689922000000000E+02
4918000000.000000      6.915588000000000E-01      1.070605000000000E+01      2.338028000000000E-01     -1.691953000000000E+02
4919000000.000000      6.914673000000000E-01      1.054785000000000E+01      2.303391000000000E-01     -1.692344000000000E+02
4920000000.000000      6.899109000000000E-01      1.034473000000000E+01      2.260513000000000E-01     -1.696797000000000E+02
4921000000.000000      6.919861000000000E-01      1.031299000000000E+01      2.236176000000000E-01     -1.698281000000000E+02
4922000000.000000      6.906128000000000E-01      1.018018000000000E+01      2.194443000000000E-01     -1.698828000000000E+02
4923000000.000000      6.929626000000000E-01      1.030078000000000E+01      2.155304000000000E-01     -1.701328000000000E+02
4924000000.000000      6.943665000000000E-01      1.000977000000000E+01      2.118988000000000E-01     -1.703828000000000E+02
4925000000.000000      6.919556000000000E-01      9.881836000000000E+00      2.080536000000000E-01     -1.704609000000000E+02
4926000000.000000      6.927795000000000E-01      9.902344000000000E+00      2.048569000000000E-01     -1.706328000000000E+02
4927000000.000000      6.930847000000000E-01      9.567383000000000E+00      2.005081000000000E-01     -1.707891000000000E+02
4928000000.000000      6.964111000000000E-01      9.518066000000000E+00      1.971359000000000E-01     -1.707969000000000E+02
4929000000.000000      6.945190000000000E-01      9.398438000000000E+00      1.933746000000000E-01     -1.707578000000000E+02
4930000000.000000      6.948547000000000E-01      9.335449000000000E+00      1.893997000000000E-01     -1.708828000000000E+02
4931000000.000000      6.938782000000000E-01      9.266602000000000E+00      1.860809000000000E-01     -1.707656000000000E+02
4932000000.000000      6.965942000000000E-01      9.093750000000000E+00      1.819458000000000E-01     -1.706172000000000E+02
4933000000.000000      6.958923000000000E-01      9.034668000000000E+00      1.777954000000000E-01     -1.705781000000000E+02
4934000000.000000      6.986084000000000E-01      8.926270000000000E+00      1.745605000000000E-01     -1.705078000000000E+02
4935000000.000000      6.969299000000000E-01      8.879395000000000E+00      1.711884000000000E-01     -1.702422000000000E+02
4936000000.000000      6.973267000000000E-01      8.727051000000000E+00      1.672974000000000E-01     -1.700938000000000E+02
4937000000.000000      6.998291000000000E-01      8.383789000000000E+00      1.632385000000000E-01     -1.697813000000000E+02
4938000000.000000      6.992493000000000E-01      8.636230000000000E+00      1.600266000000000E-01     -1.694844000000000E+02
4939000000.000000      6.983337000000000E-01      8.566406000000000E+00      1.567154000000000E-01     -1.690156000000000E+02
4940000000.000000      7.011108000000000E-01      8.358887000000000E+00      1.527328000000000E-01     -1.686719000000000E+02
4941000000.000000      7.017822000000000E-01      8.157227000000000E+00      1.498642000000000E-01     -1.681719000000000E+02
4942000000.000000      6.998596000000000E-01      8.045898000000000E+00      1.458511000000000E-01     -1.678125000000000E+02
4943000000.000000      7.027283000000000E-01      8.054199000000000E+00      1.428757000000000E-01     -1.671328000000000E+02
4944000000.000000      7.023010000000000E-01      7.778320000000000E+00      1.394424000000000E-01     -1.661641000000000E+02
4945000000.000000      7.012939000000000E-01      7.827637000000000E+00      1.360550000000000E-01     -1.655859000000000E+02
4946000000.000000      7.030945000000000E-01      7.767334000000000E+00      1.333466000000000E-01     -1.646797000000000E+02
4947000000.000000      7.037354000000000E-01      7.599609000000000E+00      1.299438000000000E-01     -1.638594000000000E+02
4948000000.000000      7.041321000000000E-01      7.699951000000000E+00      1.272888000000000E-01     -1.628203000000000E+02
4949000000.000000      7.027283000000000E-01      7.367676000000000E+00      1.245003000000000E-01     -1.615156000000000E+02
4950000000.000000      7.033081000000000E-01      7.487061000000000E+00      1.220818000000000E-01     -1.605547000000000E+02
4951000000.000000      7.061462000000000E-01      7.276855000000000E+00      1.200371000000000E-01     -1.594297000000000E+02
4952000000.000000      7.052917000000000E-01      7.291992000000000E+00      1.169930000000000E-01     -1.581250000000000E+02
4953000000.000000      7.031555000000000E-01      6.958252000000000E+00      1.151123000000000E-01     -1.565781000000000E+02
4954000000.000000      7.066345000000000E-01      6.966553000000000E+00      1.129608000000000E-01     -1.550703000000000E+02
