! Network Analyzer HP8722D
! Hewlett-Packard
! Data name: Linha & Wilkinson
! Saver's name: Rodrigo Anjos
! Comments: Teste da utilização de aquisição
continua pelo VNA HP8722D
! Time and date: 22/5/2025 10:54
!              Frequency                     S11                                                   S21                                                   S12                                                   S22
# HZ  S  MA R 50
4800000000.000000      6.498413000000000E-01      1.086230000000000E+01      4.717407000000000E-01     -9.302343000000000E+01
4801000000.000000      6.482544000000000E-01      1.080078000000000E+01      4.745483000000000E-01     -9.359375000000000E+01
4802000000.000000      6.467590000000000E-01      1.068408000000000E+01      4.756622000000000E-01     -9.430079000000000E+01
4803000000.000000      6.458740000000000E-01      1.066748000000000E+01      4.782104000000000E-01     -9.498827000000000E+01
4804000000.000000      6.424866000000000E-01      1.062207000000000E+01      4.785919000000000E-01     -9.593750000000000E+01
4805000000.000000      6.430054000000000E-01      1.070166000000000E+01      4.815826000000000E-01     -9.654686000000000E+01
4806000000.000000      6.407776000000000E-01      1.053711000000000E+01      4.833679000000000E-01     -9.760546000000000E+01
4807000000.000000      6.379395000000000E-01      1.066895000000000E+01      4.828491000000000E-01     -9.823828000000000E+01
4808000000.000000      6.351929000000000E-01      1.062207000000000E+01      4.846802000000000E-01     -9.891405000000000E+01
4809000000.000000      6.348572000000000E-01      1.079395000000000E+01      4.868469000000000E-01     -9.976952000000000E+01
4810000000.000000      6.334229000000000E-01      1.082666000000000E+01      4.897308000000000E-01     -1.005156000000000E+02
4811000000.000000      6.324768000000000E-01      1.082520000000000E+01      4.895935000000000E-01     -1.014492000000000E+02
4812000000.000000      6.332703000000000E-01      1.102881000000000E+01      4.899292000000000E-01     -1.021094000000000E+02
4813000000.000000      6.289673000000000E-01      1.115381000000000E+01      4.910431000000000E-01     -1.027969000000000E+02
4814000000.000000      6.273804000000000E-01      1.092285000000000E+01      4.931183000000000E-01     -1.034141000000000E+02
4815000000.000000      6.264648000000000E-01      1.107520000000000E+01      4.916687000000000E-01     -1.042148000000000E+02
4816000000.000000      6.276855000000000E-01      1.119092000000000E+01      4.941254000000000E-01     -1.050273000000000E+02
4817000000.000000      6.230164000000000E-01      1.121826000000000E+01      4.940186000000000E-01     -1.058633000000000E+02
4818000000.000000      6.236267000000000E-01      1.123584000000000E+01      4.947662000000000E-01     -1.065664000000000E+02
4819000000.000000      6.223450000000000E-01      1.145459000000000E+01      4.957733000000000E-01     -1.070234000000000E+02
4820000000.000000      6.199646000000000E-01      1.155615000000000E+01      4.971313000000000E-01     -1.078750000000000E+02
4821000000.000000      6.202087000000000E-01      1.149951000000000E+01      4.966736000000000E-01     -1.088789000000000E+02
4822000000.000000      6.179504000000000E-01      1.167529000000000E+01      4.952393000000000E-01     -1.094180000000000E+02
4823000000.000000      6.189880000000000E-01      1.164111000000000E+01      4.963074000000000E-01     -1.104414000000000E+02
4824000000.000000      6.162720000000000E-01      1.183203000000000E+01      4.977875000000000E-01     -1.109414000000000E+02
4825000000.000000      6.161499000000000E-01      1.193896000000000E+01      4.971771000000000E-01     -1.118633000000000E+02
4826000000.000000      6.149292000000000E-01      1.195410000000000E+01      4.975433000000000E-01     -1.126992000000000E+02
4827000000.000000      6.160889000000000E-01      1.214258000000000E+01      4.980469000000000E-01     -1.132148000000000E+02
4828000000.000000      6.154480000000000E-01      1.211230000000000E+01      4.990387000000000E-01     -1.140703000000000E+02
4829000000.000000      6.141357000000000E-01      1.249414000000000E+01      4.986877000000000E-01     -1.148438000000000E+02
4830000000.000000      6.151123000000000E-01      1.252002000000000E+01      4.989929000000000E-01     -1.155351000000000E+02
4831000000.000000      6.151428000000000E-01      1.257520000000000E+01      4.990082000000000E-01     -1.163711000000000E+02
4832000000.000000      6.122131000000000E-01      1.290332000000000E+01      4.982910000000000E-01     -1.170273000000000E+02
4833000000.000000      6.119080000000000E-01      1.280566000000000E+01      4.977570000000000E-01     -1.177578000000000E+02
4834000000.000000      6.141968000000000E-01      1.276318000000000E+01      4.981537000000000E-01     -1.186523000000000E+02
4835000000.000000      6.153259000000000E-01      1.301465000000000E+01      4.978027000000000E-01     -1.195391000000000E+02
4836000000.000000      6.137085000000000E-01      1.321924000000000E+01      4.978333000000000E-01     -1.202930000000000E+02
4837000000.000000      6.114807000000000E-01      1.322998000000000E+01      4.949036000000000E-01     -1.210508000000000E+02
4838000000.000000      6.133423000000000E-01      1.339355000000000E+01      4.976654000000000E-01     -1.217070000000000E+02
4839000000.000000      6.180420000000000E-01      1.349365000000000E+01      4.956818000000000E-01     -1.222500000000000E+02
4840000000.000000      6.164856000000000E-01      1.346924000000000E+01      4.971161000000000E-01     -1.233555000000000E+02
4841000000.000000      6.155701000000000E-01      1.359277000000000E+01      4.965973000000000E-01     -1.239687000000000E+02
4842000000.000000      6.160889000000000E-01      1.361572000000000E+01      4.944153000000000E-01     -1.248438000000000E+02
4843000000.000000      6.192932000000000E-01      1.370361000000000E+01      4.939728000000000E-01     -1.256328000000000E+02
4844000000.000000      6.186523000000000E-01      1.385742000000000E+01      4.934540000000000E-01     -1.265781000000000E+02
4845000000.000000      6.186218000000000E-01      1.385645000000000E+01      4.919281000000000E-01     -1.273476000000000E+02
4846000000.000000      6.197205000000000E-01      1.396191000000000E+01      4.908600000000000E-01     -1.282500000000000E+02
4847000000.000000      6.201782000000000E-01      1.415137000000000E+01      4.911194000000000E-01     -1.289453000000000E+02
4848000000.000000      6.190186000000000E-01      1.417627000000000E+01      4.853668000000000E-01     -1.298437000000000E+02
4849000000.000000      6.220703000000000E-01      1.415430000000000E+01      4.870758000000000E-01     -1.306953000000000E+02
4850000000.000000      6.220398000000000E-01      1.417480000000000E+01      4.840393000000000E-01     -1.316953000000000E+02
4851000000.000000      6.231079000000000E-01      1.446191000000000E+01      4.838409000000000E-01     -1.325547000000000E+02
4852000000.000000      6.248779000000000E-01      1.457178000000000E+01      4.799805000000000E-01     -1.332813000000000E+02
4853000000.000000      6.264038000000000E-01      1.456055000000000E+01      4.778290000000000E-01     -1.340703000000000E+02
4854000000.000000      6.259460000000000E-01      1.454297000000000E+01      4.764862000000000E-01     -1.351406000000000E+02
4855000000.000000      6.275940000000000E-01      1.454150000000000E+01      4.749908000000000E-01     -1.358672000000000E+02
4856000000.000000      6.297913000000000E-01      1.458398000000000E+01      4.708862000000000E-01     -1.369141000000000E+02
4857000000.000000      6.312561000000000E-01      1.476563000000000E+01      4.696808000000000E-01     -1.375781000000000E+02
4858000000.000000      6.297607000000000E-01      1.474902000000000E+01      4.666748000000000E-01     -1.384219000000000E+02
4859000000.000000      6.301270000000000E-01      1.456787000000000E+01      4.649353000000000E-01     -1.392812000000000E+02
4860000000.000000      6.330566000000000E-01      1.477246000000000E+01      4.595490000000000E-01     -1.400469000000000E+02
4861000000.000000      6.327209000000000E-01      1.465820000000000E+01      4.571991000000000E-01     -1.408750000000000E+02
4862000000.000000      6.352844000000000E-01      1.484229000000000E+01      4.541626000000000E-01     -1.416484000000000E+02
4863000000.000000      6.357422000000000E-01      1.486572000000000E+01      4.496307000000000E-01     -1.426016000000000E+02
4864000000.000000      6.380920000000000E-01      1.494678000000000E+01      4.472809000000000E-01     -1.432109000000000E+02
4865000000.000000      6.399536000000000E-01      1.494141000000000E+01      4.436035000000000E-01     -1.441641000000000E+02
4866000000.000000      6.408691000000000E-01      1.483008000000000E+01      4.405365000000000E-01     -1.449531000000000E+02
4867000000.000000      6.390381000000000E-01      1.472168000000000E+01      4.360962000000000E-01     -1.458203000000000E+02
4868000000.000000      6.412354000000000E-01      1.468701000000000E+01      4.320068000000000E-01     -1.466328000000000E+02
4869000000.000000      6.441650000000000E-01      1.460742000000000E+01      4.270630000000000E-01     -1.474375000000000E+02
4870000000.000000      6.453247000000000E-01      1.473242000000000E+01      4.239655000000000E-01     -1.478203000000000E+02
4871000000.000000      6.472778000000000E-01      1.463916000000000E+01      4.190369000000000E-01     -1.487344000000000E+02
4872000000.000000      6.492004000000000E-01      1.461719000000000E+01      4.159393000000000E-01     -1.493828000000000E+02
4873000000.000000      6.482239000000000E-01      1.446729000000000E+01      4.100037000000000E-01     -1.500234000000000E+02
4874000000.000000      6.506958000000000E-01      1.464990000000000E+01      4.058075000000000E-01     -1.509766000000000E+02
4875000000.000000      6.516724000000000E-01      1.445801000000000E+01      4.013214000000000E-01     -1.514375000000000E+02
4876000000.000000      6.554871000000000E-01      1.460352000000000E+01      3.990631000000000E-01     -1.521563000000000E+02
4877000000.000000      6.551514000000000E-01      1.436572000000000E+01      3.944092000000000E-01     -1.528125000000000E+02
4878000000.000000      6.549072000000000E-01      1.437695000000000E+01      3.889923000000000E-01     -1.536328000000000E+02
4879000000.000000      6.567383000000000E-01      1.438086000000000E+01      3.844757000000000E-01     -1.540390000000000E+02
4880000000.000000      6.585083000000000E-01      1.425879000000000E+01      3.806152000000000E-01     -1.546875000000000E+02
4881000000.000000      6.588440000000000E-01      1.410352000000000E+01      3.760681000000000E-01     -1.551016000000000E+02
4882000000.000000      6.614380000000000E-01      1.426953000000000E+01      3.737335000000000E-01     -1.558906000000000E+02
4883000000.000000      6.601563000000000E-01      1.413232000000000E+01      3.664551000000000E-01     -1.563125000000000E+02
4884000000.000000      6.640015000000000E-01      1.396729000000000E+01      3.632660000000000E-01     -1.568359000000000E+02
4885000000.000000      6.653137000000000E-01      1.413623000000000E+01      3.589935000000000E-01     -1.573125000000000E+02
4886000000.000000      6.672974000000000E-01      1.384277000000000E+01      3.555756000000000E-01     -1.576797000000000E+02
4887000000.000000      6.655579000000000E-01      1.393164000000000E+01      3.512726000000000E-01     -1.582891000000000E+02
4888000000.000000      6.666870000000000E-01      1.381494000000000E+01      3.477325000000000E-01     -1.588906000000000E+02
4889000000.000000      6.701660000000000E-01      1.372559000000000E+01      3.421631000000000E-01     -1.592813000000000E+02
4890000000.000000      6.682434000000000E-01      1.357471000000000E+01      3.379974000000000E-01     -1.599375000000000E+02
4891000000.000000      6.714478000000000E-01      1.350879000000000E+01      3.330078000000000E-01     -1.601641000000000E+02
4892000000.000000      6.710510000000000E-01      1.328613000000000E+01      3.290253000000000E-01     -1.605234000000000E+02
4893000000.000000      6.724854000000000E-01      1.327686000000000E+01      3.261871000000000E-01     -1.611562000000000E+02
4894000000.000000      6.720276000000000E-01      1.327539000000000E+01      3.216705000000000E-01     -1.611250000000000E+02
4895000000.000000      6.762085000000000E-01      1.312305000000000E+01      3.191223000000000E-01     -1.616094000000000E+02
4896000000.000000      6.767273000000000E-01      1.307471000000000E+01      3.142242000000000E-01     -1.620312000000000E+02
4897000000.000000      6.739807000000000E-01      1.290576000000000E+01      3.102112000000000E-01     -1.623828000000000E+02
4898000000.000000      6.782837000000000E-01      1.295947000000000E+01      3.066711000000000E-01     -1.624922000000000E+02
4899000000.000000      6.778564000000000E-01      1.283594000000000E+01      3.029175000000000E-01     -1.631484000000000E+02
4900000000.000000      6.799622000000000E-01      1.269727000000000E+01      2.992401000000000E-01     -1.633594000000000E+02
4901000000.000000      6.806946000000000E-01      1.270020000000000E+01      2.955475000000000E-01     -1.636328000000000E+02
4902000000.000000      6.818848000000000E-01      1.239111000000000E+01      2.926178000000000E-01     -1.640312000000000E+02
4903000000.000000      6.799927000000000E-01      1.257373000000000E+01      2.875519000000000E-01     -1.643906000000000E+02
4904000000.000000      6.816711000000000E-01      1.221094000000000E+01      2.845154000000000E-01     -1.648828000000000E+02
4905000000.000000      6.828613000000000E-01      1.220557000000000E+01      2.818909000000000E-01     -1.651250000000000E+02
4906000000.000000      6.826782000000000E-01      1.211768000000000E+01      2.777863000000000E-01     -1.652266000000000E+02
4907000000.000000      6.851196000000000E-01      1.195850000000000E+01      2.753601000000000E-01     -1.656250000000000E+02
4908000000.000000      6.853333000000000E-01      1.189648000000000E+01      2.719421000000000E-01     -1.660469000000000E+02
4909000000.000000      6.853638000000000E-01      1.192383000000000E+01      2.669983000000000E-01     -1.665000000000000E+02
4910000000.000000      6.852722000000000E-01      1.180469000000000E+01      2.640839000000000E-01     -1.666250000000000E+02
4911000000.000000      6.872559000000000E-01      1.170313000000000E+01      2.606812000000000E-01     -1.668906000000000E+02
4912000000.000000      6.878662000000000E-01      1.159570000000000E+01      2.568970000000000E-01     -1.672578000000000E+02
4913000000.000000      6.877747000000000E-01      1.144482000000000E+01      2.534790000000000E-01     -1.675547000000000E+02
4914000000.000000      6.882324000000000E-01      1.125781000000000E+01      2.505035000000000E-01     -1.677109000000000E+02
4915000000.000000      6.889954000000000E-01      1.127588000000000E+01      2.461243000000000E-01     -1.682344000000000E+02
4916000000.000000      6.908875000000000E-01      1.116895000000000E+01      2.427902000000000E-01     -1.685859000000000E+02
4917000000.000000      6.896362000000000E-01      1.097363000000000E+01      2.391205000000000E-01     -1.687500000000000E+02
4918000000.000000      6.918640000000000E-01      1.089697000000000E+01      2.356186000000000E-01     -1.691172000000000E+02
4919000000.000000      6.889343000000000E-01      1.074023000000000E+01      2.322998000000000E-01     -1.690312000000000E+02
4920000000.000000      6.893921000000000E-01      1.063477000000000E+01      2.278137000000000E-01     -1.696250000000000E+02
4921000000.000000      6.899414000000000E-01      1.081152000000000E+01      2.251740000000000E-01     -1.696094000000000E+02
4922000000.000000      6.907959000000000E-01      1.046289000000000E+01      2.207794000000000E-01     -1.697266000000000E+02
4923000000.000000      6.933594000000000E-01      1.045459000000000E+01      2.175598000000000E-01     -1.698906000000000E+02
4924000000.000000      6.936951000000000E-01      1.032422000000000E+01      2.141037000000000E-01     -1.702734000000000E+02
4925000000.000000      6.936951000000000E-01      1.022510000000000E+01      2.100677000000000E-01     -1.703516000000000E+02
4926000000.000000      6.945496000000000E-01      1.010596000000000E+01      2.065659000000000E-01     -1.704844000000000E+02
4927000000.000000      6.943359000000000E-01      1.003418000000000E+01      2.024384000000000E-01     -1.707187000000000E+02
4928000000.000000      6.962891000000000E-01      9.954590000000000E+00      1.996078000000000E-01     -1.706016000000000E+02
4929000000.000000      6.951294000000000E-01      9.670410000000000E+00      1.951599000000000E-01     -1.706640000000000E+02
4930000000.000000      6.971741000000000E-01      9.640137000000000E+00      1.907730000000000E-01     -1.706953000000000E+02
4931000000.000000      6.947632000000000E-01      9.560547000000000E+00      1.882324000000000E-01     -1.706875000000000E+02
4932000000.000000      6.982117000000000E-01      9.484863000000000E+00      1.837540000000000E-01     -1.707969000000000E+02
4933000000.000000      6.971436000000000E-01      9.284668000000000E+00      1.798477000000000E-01     -1.704844000000000E+02
4934000000.000000      6.979065000000000E-01      9.332520000000000E+00      1.763458000000000E-01     -1.705391000000000E+02
4935000000.000000      6.989136000000000E-01      9.174805000000000E+00      1.732864000000000E-01     -1.702969000000000E+02
4936000000.000000      6.979675000000000E-01      9.074707000000000E+00      1.685562000000000E-01     -1.703438000000000E+02
4937000000.000000      6.991272000000000E-01      8.876953000000000E+00      1.648254000000000E-01     -1.700547000000000E+02
4938000000.000000      6.981201000000000E-01      8.906738000000000E+00      1.616058000000000E-01     -1.696875000000000E+02
4939000000.000000      6.999817000000000E-01      8.943848000000000E+00      1.581116000000000E-01     -1.693125000000000E+02
4940000000.000000      7.001343000000000E-01      8.732422000000000E+00      1.540909000000000E-01     -1.691484000000000E+02
4941000000.000000      7.015686000000000E-01      8.573242000000000E+00      1.509399000000000E-01     -1.684609000000000E+02
4942000000.000000      7.012024000000000E-01      8.607422000000000E+00      1.468964000000000E-01     -1.679844000000000E+02
4943000000.000000      7.015076000000000E-01      8.561035000000000E+00      1.438217000000000E-01     -1.675547000000000E+02
4944000000.000000      7.019043000000000E-01      8.295898000000000E+00      1.407089000000000E-01     -1.668281000000000E+02
4945000000.000000      7.038574000000000E-01      8.148926000000000E+00      1.371613000000000E-01     -1.662266000000000E+02
4946000000.000000      7.031860000000000E-01      8.135254000000000E+00      1.343155000000000E-01     -1.652891000000000E+02
4947000000.000000      7.049561000000000E-01      8.017090000000000E+00      1.309738000000000E-01     -1.645000000000000E+02
4948000000.000000      7.048645000000000E-01      8.071777000000000E+00      1.284256000000000E-01     -1.635781000000000E+02
4949000000.000000      7.042847000000000E-01      7.915527000000000E+00      1.257095000000000E-01     -1.622656000000000E+02
4950000000.000000      7.052917000000000E-01      7.870117000000000E+00      1.226692000000000E-01     -1.612500000000000E+02
4951000000.000000      7.063904000000000E-01      7.686279000000000E+00      1.202354000000000E-01     -1.602578000000000E+02
4952000000.000000      7.051392000000000E-01      7.544678000000000E+00      1.174355000000000E-01     -1.589766000000000E+02
4953000000.000000      7.065125000000000E-01      7.584473000000000E+00      1.152573000000000E-01     -1.572813000000000E+02
4954000000.000000      7.070618000000000E-01      7.481689000000000E+00      1.132240000000000E-01     -1.560625000000000E+02
