! Network Analyzer HP8722D
! Hewlett-Packard
! Data name: Linha & Wilkinson
! Saver's name: Rodrigo Anjos
! Comments: Teste da utilização de aquisição
continua pelo VNA HP8722D
! Time and date: 22/5/2025 08:20
!              Frequency                     S11                                                   S21                                                   S12                                                   S22
# HZ  S  MA R 50
4800000000.000000      6.475220000000000E-01      1.030762000000000E+01      4.756012000000000E-01     -9.393749000000000E+01
4801000000.000000      6.456909000000000E-01      1.030615000000000E+01      4.747009000000000E-01     -9.447657000000000E+01
4802000000.000000      6.434326000000000E-01      1.026660000000000E+01      4.771729000000000E-01     -9.524609000000000E+01
4803000000.000000      6.416321000000000E-01      1.028418000000000E+01      4.822235000000000E-01     -9.589453000000000E+01
4804000000.000000      6.408691000000000E-01      1.035156000000000E+01      4.806976000000000E-01     -9.644920000000000E+01
4805000000.000000      6.404114000000000E-01      1.016211000000000E+01      4.826050000000000E-01     -9.739061000000000E+01
4806000000.000000      6.369324000000000E-01      1.024854000000000E+01      4.855652000000000E-01     -9.819530000000000E+01
4807000000.000000      6.344604000000000E-01      1.030078000000000E+01      4.853668000000000E-01     -9.912498000000000E+01
4808000000.000000      6.325684000000000E-01      1.028711000000000E+01      4.882965000000000E-01     -9.975780000000000E+01
4809000000.000000      6.324158000000000E-01      1.042432000000000E+01      4.883423000000000E-01     -1.007383000000000E+02
4810000000.000000      6.299133000000000E-01      1.044385000000000E+01      4.901733000000000E-01     -1.012226000000000E+02
4811000000.000000      6.303711000000000E-01      1.041895000000000E+01      4.915009000000000E-01     -1.021719000000000E+02
4812000000.000000      6.303711000000000E-01      1.067969000000000E+01      4.917603000000000E-01     -1.028164000000000E+02
4813000000.000000      6.272278000000000E-01      1.062207000000000E+01      4.936676000000000E-01     -1.035390000000000E+02
4814000000.000000      6.251831000000000E-01      1.049023000000000E+01      4.949188000000000E-01     -1.044336000000000E+02
4815000000.000000      6.245728000000000E-01      1.062500000000000E+01      4.957123000000000E-01     -1.050312000000000E+02
4816000000.000000      6.243591000000000E-01      1.084619000000000E+01      4.969635000000000E-01     -1.058437000000000E+02
4817000000.000000      6.209106000000000E-01      1.095850000000000E+01      4.967346000000000E-01     -1.066367000000000E+02
4818000000.000000      6.214600000000000E-01      1.088574000000000E+01      4.961853000000000E-01     -1.071992000000000E+02
4819000000.000000      6.203003000000000E-01      1.084326000000000E+01      4.965668000000000E-01     -1.079922000000000E+02
4820000000.000000      6.176147000000000E-01      1.124268000000000E+01      4.989471000000000E-01     -1.085312000000000E+02
4821000000.000000      6.192322000000000E-01      1.113721000000000E+01      4.993439000000000E-01     -1.095547000000000E+02
4822000000.000000      6.152649000000000E-01      1.119873000000000E+01      4.970703000000000E-01     -1.102930000000000E+02
4823000000.000000      6.156311000000000E-01      1.120020000000000E+01      4.990234000000000E-01     -1.111484000000000E+02
4824000000.000000      6.148987000000000E-01      1.153125000000000E+01      4.985657000000000E-01     -1.118945000000000E+02
4825000000.000000      6.143494000000000E-01      1.147754000000000E+01      4.998474000000000E-01     -1.127422000000000E+02
4826000000.000000      6.138306000000000E-01      1.156836000000000E+01      5.000305000000000E-01     -1.134219000000000E+02
4827000000.000000      6.133118000000000E-01      1.178516000000000E+01      5.000000000000000E-01     -1.140664000000000E+02
4828000000.000000      6.144409000000000E-01      1.180615000000000E+01      5.003662000000000E-01     -1.147461000000000E+02
4829000000.000000      6.124268000000000E-01      1.202686000000000E+01      5.005493000000000E-01     -1.155000000000000E+02
4830000000.000000      6.145630000000000E-01      1.209863000000000E+01      4.992676000000000E-01     -1.164492000000000E+02
4831000000.000000      6.123352000000000E-01      1.222461000000000E+01      5.002747000000000E-01     -1.172773000000000E+02
4832000000.000000      6.132507000000000E-01      1.241016000000000E+01      4.993286000000000E-01     -1.180078000000000E+02
4833000000.000000      6.111145000000000E-01      1.235254000000000E+01      4.983368000000000E-01     -1.185664000000000E+02
4834000000.000000      6.098938000000000E-01      1.255029000000000E+01      4.992981000000000E-01     -1.195039000000000E+02
4835000000.000000      6.122437000000000E-01      1.257764000000000E+01      4.991760000000000E-01     -1.203555000000000E+02
4836000000.000000      6.123047000000000E-01      1.281006000000000E+01      4.978333000000000E-01     -1.210938000000000E+02
4837000000.000000      6.126709000000000E-01      1.296631000000000E+01      4.982910000000000E-01     -1.218398000000000E+02
4838000000.000000      6.109314000000000E-01      1.288965000000000E+01      4.981689000000000E-01     -1.223945000000000E+02
4839000000.000000      6.152649000000000E-01      1.315332000000000E+01      4.976959000000000E-01     -1.234141000000000E+02
4840000000.000000      6.132813000000000E-01      1.312842000000000E+01      4.978485000000000E-01     -1.241680000000000E+02
4841000000.000000      6.152954000000000E-01      1.325195000000000E+01      4.963226000000000E-01     -1.249492000000000E+02
4842000000.000000      6.152039000000000E-01      1.333838000000000E+01      4.958801000000000E-01     -1.257070000000000E+02
4843000000.000000      6.159668000000000E-01      1.326563000000000E+01      4.960175000000000E-01     -1.266523000000000E+02
4844000000.000000      6.166992000000000E-01      1.337842000000000E+01      4.937897000000000E-01     -1.275820000000000E+02
4845000000.000000      6.172180000000000E-01      1.369287000000000E+01      4.924622000000000E-01     -1.282266000000000E+02
4846000000.000000      6.188049000000000E-01      1.371631000000000E+01      4.894714000000000E-01     -1.292266000000000E+02
4847000000.000000      6.193848000000000E-01      1.371631000000000E+01      4.902344000000000E-01     -1.298359000000000E+02
4848000000.000000      6.183472000000000E-01      1.371338000000000E+01      4.863586000000000E-01     -1.306875000000000E+02
4849000000.000000      6.192932000000000E-01      1.387012000000000E+01      4.873505000000000E-01     -1.315703000000000E+02
4850000000.000000      6.213379000000000E-01      1.388232000000000E+01      4.844666000000000E-01     -1.325234000000000E+02
4851000000.000000      6.229553000000000E-01      1.413623000000000E+01      4.827728000000000E-01     -1.332422000000000E+02
4852000000.000000      6.219788000000000E-01      1.405811000000000E+01      4.803925000000000E-01     -1.342031000000000E+02
4853000000.000000      6.249390000000000E-01      1.418311000000000E+01      4.774475000000000E-01     -1.348672000000000E+02
4854000000.000000      6.256714000000000E-01      1.424512000000000E+01      4.748688000000000E-01     -1.360469000000000E+02
4855000000.000000      6.269836000000000E-01      1.415967000000000E+01      4.737244000000000E-01     -1.367109000000000E+02
4856000000.000000      6.284180000000000E-01      1.424512000000000E+01      4.694061000000000E-01     -1.374141000000000E+02
4857000000.000000      6.300659000000000E-01      1.439453000000000E+01      4.687653000000000E-01     -1.382344000000000E+02
4858000000.000000      6.300964000000000E-01      1.427930000000000E+01      4.664459000000000E-01     -1.391953000000000E+02
4859000000.000000      6.296387000000000E-01      1.409668000000000E+01      4.632874000000000E-01     -1.401641000000000E+02
4860000000.000000      6.320190000000000E-01      1.438623000000000E+01      4.593811000000000E-01     -1.408281000000000E+02
4861000000.000000      6.329956000000000E-01      1.432031000000000E+01      4.559174000000000E-01     -1.417891000000000E+02
4862000000.000000      6.346130000000000E-01      1.420801000000000E+01      4.529266000000000E-01     -1.424922000000000E+02
4863000000.000000      6.352234000000000E-01      1.444824000000000E+01      4.495087000000000E-01     -1.435156000000000E+02
4864000000.000000      6.376038000000000E-01      1.434521000000000E+01      4.462128000000000E-01     -1.440391000000000E+02
4865000000.000000      6.385498000000000E-01      1.427490000000000E+01      4.420471000000000E-01     -1.448047000000000E+02
4866000000.000000      6.395264000000000E-01      1.429004000000000E+01      4.370270000000000E-01     -1.456563000000000E+02
4867000000.000000      6.393127000000000E-01      1.439307000000000E+01      4.337921000000000E-01     -1.466406000000000E+02
4868000000.000000      6.422729000000000E-01      1.428613000000000E+01      4.303589000000000E-01     -1.474609000000000E+02
4869000000.000000      6.429749000000000E-01      1.433838000000000E+01      4.273987000000000E-01     -1.480625000000000E+02
4870000000.000000      6.446228000000000E-01      1.416260000000000E+01      4.227905000000000E-01     -1.484375000000000E+02
4871000000.000000      6.453247000000000E-01      1.416113000000000E+01      4.174347000000000E-01     -1.494453000000000E+02
4872000000.000000      6.481323000000000E-01      1.420898000000000E+01      4.139404000000000E-01     -1.499922000000000E+02
4873000000.000000      6.480713000000000E-01      1.424512000000000E+01      4.108887000000000E-01     -1.509219000000000E+02
4874000000.000000      6.500854000000000E-01      1.410352000000000E+01      4.049072000000000E-01     -1.515547000000000E+02
4875000000.000000      6.523438000000000E-01      1.391797000000000E+01      4.003906000000000E-01     -1.519531000000000E+02
4876000000.000000      6.530457000000000E-01      1.404150000000000E+01      3.953247000000000E-01     -1.528672000000000E+02
4877000000.000000      6.539917000000000E-01      1.378076000000000E+01      3.929901000000000E-01     -1.534765000000000E+02
4878000000.000000      6.528625000000000E-01      1.398535000000000E+01      3.878937000000000E-01     -1.540234000000000E+02
4879000000.000000      6.562195000000000E-01      1.389209000000000E+01      3.819427000000000E-01     -1.544765000000000E+02
4880000000.000000      6.591187000000000E-01      1.383008000000000E+01      3.789825000000000E-01     -1.552031000000000E+02
4881000000.000000      6.600952000000000E-01      1.397021000000000E+01      3.752899000000000E-01     -1.556875000000000E+02
4882000000.000000      6.612244000000000E-01      1.374902000000000E+01      3.717499000000000E-01     -1.563437000000000E+02
4883000000.000000      6.611938000000000E-01      1.362695000000000E+01      3.659210000000000E-01     -1.568672000000000E+02
4884000000.000000      6.624451000000000E-01      1.372559000000000E+01      3.613739000000000E-01     -1.574687000000000E+02
4885000000.000000      6.635437000000000E-01      1.357910000000000E+01      3.580475000000000E-01     -1.576797000000000E+02
4886000000.000000      6.659241000000000E-01      1.359131000000000E+01      3.522339000000000E-01     -1.582266000000000E+02
4887000000.000000      6.654968000000000E-01      1.336182000000000E+01      3.481293000000000E-01     -1.588594000000000E+02
4888000000.000000      6.652832000000000E-01      1.328076000000000E+01      3.443604000000000E-01     -1.593594000000000E+02
4889000000.000000      6.687927000000000E-01      1.323682000000000E+01      3.391266000000000E-01     -1.596719000000000E+02
4890000000.000000      6.682434000000000E-01      1.302979000000000E+01      3.344727000000000E-01     -1.603750000000000E+02
4891000000.000000      6.686707000000000E-01      1.310938000000000E+01      3.314209000000000E-01     -1.605703000000000E+02
4892000000.000000      6.688538000000000E-01      1.301172000000000E+01      3.278351000000000E-01     -1.608203000000000E+02
4893000000.000000      6.713562000000000E-01      1.292529000000000E+01      3.226471000000000E-01     -1.615937000000000E+02
4894000000.000000      6.707458000000000E-01      1.274414000000000E+01      3.199463000000000E-01     -1.618515000000000E+02
4895000000.000000      6.734924000000000E-01      1.281689000000000E+01      3.174438000000000E-01     -1.622500000000000E+02
4896000000.000000      6.749268000000000E-01      1.256543000000000E+01      3.127289000000000E-01     -1.623594000000000E+02
4897000000.000000      6.769104000000000E-01      1.247070000000000E+01      3.087769000000000E-01     -1.628203000000000E+02
4898000000.000000      6.760559000000000E-01      1.246777000000000E+01      3.052673000000000E-01     -1.630156000000000E+02
4899000000.000000      6.768494000000000E-01      1.238965000000000E+01      3.014069000000000E-01     -1.635859000000000E+02
4900000000.000000      6.776733000000000E-01      1.210400000000000E+01      2.979279000000000E-01     -1.638125000000000E+02
4901000000.000000      6.813049000000000E-01      1.218066000000000E+01      2.937927000000000E-01     -1.640547000000000E+02
4902000000.000000      6.782837000000000E-01      1.221924000000000E+01      2.906036000000000E-01     -1.642812000000000E+02
4903000000.000000      6.799011000000000E-01      1.197754000000000E+01      2.864227000000000E-01     -1.649297000000000E+02
4904000000.000000      6.809082000000000E-01      1.167529000000000E+01      2.834320000000000E-01     -1.650547000000000E+02
4905000000.000000      6.822815000000000E-01      1.178125000000000E+01      2.806396000000000E-01     -1.655156000000000E+02
4906000000.000000      6.799011000000000E-01      1.143652000000000E+01      2.764893000000000E-01     -1.655234000000000E+02
4907000000.000000      6.824951000000000E-01      1.161768000000000E+01      2.728729000000000E-01     -1.660547000000000E+02
4908000000.000000      6.841125000000000E-01      1.134326000000000E+01      2.695465000000000E-01     -1.664063000000000E+02
4909000000.000000      6.841431000000000E-01      1.124561000000000E+01      2.653656000000000E-01     -1.666875000000000E+02
4910000000.000000      6.860046000000000E-01      1.128662000000000E+01      2.623901000000000E-01     -1.667812000000000E+02
4911000000.000000      6.868591000000000E-01      1.112744000000000E+01      2.593384000000000E-01     -1.672344000000000E+02
4912000000.000000      6.861267000000000E-01      1.103027000000000E+01      2.552032000000000E-01     -1.676172000000000E+02
4913000000.000000      6.864319000000000E-01      1.084863000000000E+01      2.519073000000000E-01     -1.678984000000000E+02
4914000000.000000      6.880188000000000E-01      1.070605000000000E+01      2.487183000000000E-01     -1.681250000000000E+02
4915000000.000000      6.877441000000000E-01      1.070752000000000E+01      2.450027000000000E-01     -1.686641000000000E+02
4916000000.000000      6.893005000000000E-01      1.065918000000000E+01      2.411880000000000E-01     -1.687578000000000E+02
4917000000.000000      6.880493000000000E-01      1.068408000000000E+01      2.376175000000000E-01     -1.690625000000000E+02
4918000000.000000      6.900635000000000E-01      1.027344000000000E+01      2.336349000000000E-01     -1.694766000000000E+02
4919000000.000000      6.896973000000000E-01      1.042041000000000E+01      2.302856000000000E-01     -1.691875000000000E+02
4920000000.000000      6.896973000000000E-01      1.031201000000000E+01      2.271500000000000E-01     -1.698359000000000E+02
4921000000.000000      6.906738000000000E-01      1.020605000000000E+01      2.234497000000000E-01     -1.697813000000000E+02
4922000000.000000      6.918945000000000E-01      1.007275000000000E+01      2.195129000000000E-01     -1.699453000000000E+02
4923000000.000000      6.923828000000000E-01      1.004248000000000E+01      2.155457000000000E-01     -1.701094000000000E+02
4924000000.000000      6.920776000000000E-01      9.880371000000000E+00      2.116013000000000E-01     -1.705937000000000E+02
4925000000.000000      6.924744000000000E-01      9.840820000000000E+00      2.081375000000000E-01     -1.703828000000000E+02
4926000000.000000      6.945496000000000E-01      9.812012000000000E+00      2.045517000000000E-01     -1.705391000000000E+02
4927000000.000000      6.939087000000000E-01      9.465820000000000E+00      2.007141000000000E-01     -1.707187000000000E+02
4928000000.000000      6.945190000000000E-01      9.502930000000000E+00      1.971664000000000E-01     -1.708125000000000E+02
4929000000.000000      6.959534000000000E-01      9.395996000000000E+00      1.934738000000000E-01     -1.707969000000000E+02
4930000000.000000      6.966248000000000E-01      9.258301000000000E+00      1.895142000000000E-01     -1.709531000000000E+02
4931000000.000000      6.948242000000000E-01      9.125488000000000E+00      1.864090000000000E-01     -1.707344000000000E+02
4932000000.000000      6.956482000000000E-01      9.068848000000000E+00      1.825256000000000E-01     -1.707813000000000E+02
4933000000.000000      6.953735000000000E-01      8.882324000000000E+00      1.781464000000000E-01     -1.705781000000000E+02
4934000000.000000      6.987610000000000E-01      8.847656000000000E+00      1.746902000000000E-01     -1.706406000000000E+02
4935000000.000000      7.006531000000000E-01      8.791504000000000E+00      1.709976000000000E-01     -1.702500000000000E+02
4936000000.000000      6.986084000000000E-01      8.702148000000000E+00      1.670151000000000E-01     -1.701484000000000E+02
4937000000.000000      6.997986000000000E-01      8.551270000000000E+00      1.634979000000000E-01     -1.699062000000000E+02
4938000000.000000      6.974487000000000E-01      8.603516000000000E+00      1.599808000000000E-01     -1.693125000000000E+02
4939000000.000000      6.975403000000000E-01      8.632324000000000E+00      1.562576000000000E-01     -1.689687000000000E+02
4940000000.000000      7.004700000000000E-01      8.302734000000000E+00      1.526184000000000E-01     -1.688594000000000E+02
4941000000.000000      7.012634000000000E-01      8.177734000000000E+00      1.492462000000000E-01     -1.683047000000000E+02
4942000000.000000      7.015991000000000E-01      8.242188000000000E+00      1.458130000000000E-01     -1.676875000000000E+02
4943000000.000000      7.015076000000000E-01      7.966309000000000E+00      1.428680000000000E-01     -1.670547000000000E+02
4944000000.000000      7.008362000000000E-01      8.014160000000000E+00      1.394272000000000E-01     -1.663750000000000E+02
4945000000.000000      7.020569000000000E-01      7.813965000000000E+00      1.362076000000000E-01     -1.656797000000000E+02
4946000000.000000      7.023621000000000E-01      7.754883000000000E+00      1.331787000000000E-01     -1.647891000000000E+02
4947000000.000000      7.027283000000000E-01      7.634033000000000E+00      1.303024000000000E-01     -1.638359000000000E+02
4948000000.000000      7.025452000000000E-01      7.695801000000000E+00      1.276855000000000E-01     -1.631406000000000E+02
4949000000.000000      7.031860000000000E-01      7.489746000000000E+00      1.247520000000000E-01     -1.615078000000000E+02
4950000000.000000      7.057800000000000E-01      7.423828000000000E+00      1.218414000000000E-01     -1.607422000000000E+02
4951000000.000000      7.048645000000000E-01      7.076416000000000E+00      1.199760000000000E-01     -1.595937000000000E+02
4952000000.000000      7.045288000000000E-01      7.105225000000000E+00      1.168900000000000E-01     -1.582500000000000E+02
4953000000.000000      7.063599000000000E-01      7.119141000000000E+00      1.152763000000000E-01     -1.567812000000000E+02
4954000000.000000      7.053528000000000E-01      6.914307000000000E+00      1.131935000000000E-01     -1.553203000000000E+02
