! Network Analyzer HP8722D
! Hewlett-Packard
! Data name: Linha & Wilkinson
! Saver's name: Rodrigo Anjos
! Comments: Teste da utilização de aquisição
continua pelo VNA HP8722D
! Time and date: 22/5/2025 08:23
!              Frequency                     S11                                                   S21                                                   S12                                                   S22
# HZ  S  MA R 50
4800000000.000000      6.470947000000000E-01      1.015527000000000E+01      4.748230000000000E-01     -9.388281000000000E+01
4801000000.000000      6.445923000000000E-01      1.030518000000000E+01      4.756622000000000E-01     -9.429688000000000E+01
4802000000.000000      6.418152000000000E-01      1.023096000000000E+01      4.784088000000000E-01     -9.509375000000000E+01
4803000000.000000      6.412048000000000E-01      1.027344000000000E+01      4.805756000000000E-01     -9.577734000000000E+01
4804000000.000000      6.402283000000000E-01      1.022412000000000E+01      4.834595000000000E-01     -9.667187000000000E+01
4805000000.000000      6.403503000000000E-01      1.013037000000000E+01      4.839172000000000E-01     -9.757421000000000E+01
4806000000.000000      6.362000000000000E-01      1.019385000000000E+01      4.847870000000000E-01     -9.833984000000000E+01
4807000000.000000      6.346436000000000E-01      1.016064000000000E+01      4.870148000000000E-01     -9.909765000000000E+01
4808000000.000000      6.317749000000000E-01      1.012793000000000E+01      4.888763000000000E-01     -9.965233000000000E+01
4809000000.000000      6.315613000000000E-01      1.025293000000000E+01      4.886322000000000E-01     -1.005937000000000E+02
4810000000.000000      6.315002000000000E-01      1.031592000000000E+01      4.917755000000000E-01     -1.012578000000000E+02
4811000000.000000      6.300049000000000E-01      1.052490000000000E+01      4.906769000000000E-01     -1.020937000000000E+02
4812000000.000000      6.284485000000000E-01      1.045166000000000E+01      4.929199000000000E-01     -1.027500000000000E+02
4813000000.000000      6.274414000000000E-01      1.070752000000000E+01      4.931793000000000E-01     -1.035078000000000E+02
4814000000.000000      6.245728000000000E-01      1.046582000000000E+01      4.955139000000000E-01     -1.040742000000000E+02
4815000000.000000      6.218872000000000E-01      1.059180000000000E+01      4.936676000000000E-01     -1.049414000000000E+02
4816000000.000000      6.222229000000000E-01      1.074561000000000E+01      4.969330000000000E-01     -1.059336000000000E+02
4817000000.000000      6.208191000000000E-01      1.088428000000000E+01      4.962616000000000E-01     -1.067266000000000E+02
4818000000.000000      6.202698000000000E-01      1.076904000000000E+01      4.971466000000000E-01     -1.073242000000000E+02
4819000000.000000      6.203003000000000E-01      1.092822000000000E+01      4.970398000000000E-01     -1.081602000000000E+02
4820000000.000000      6.177063000000000E-01      1.117139000000000E+01      4.981842000000000E-01     -1.087305000000000E+02
4821000000.000000      6.183167000000000E-01      1.114014000000000E+01      4.989777000000000E-01     -1.096367000000000E+02
4822000000.000000      6.159668000000000E-01      1.104785000000000E+01      4.976349000000000E-01     -1.103828000000000E+02
4823000000.000000      6.167603000000000E-01      1.120313000000000E+01      4.985352000000000E-01     -1.111992000000000E+02
4824000000.000000      6.137085000000000E-01      1.152441000000000E+01      4.974518000000000E-01     -1.119180000000000E+02
4825000000.000000      6.139832000000000E-01      1.140918000000000E+01      4.983521000000000E-01     -1.126601000000000E+02
4826000000.000000      6.135254000000000E-01      1.156543000000000E+01      5.008850000000000E-01     -1.135273000000000E+02
4827000000.000000      6.127930000000000E-01      1.174805000000000E+01      4.994202000000000E-01     -1.140117000000000E+02
4828000000.000000      6.135254000000000E-01      1.198730000000000E+01      5.000610000000000E-01     -1.148555000000000E+02
4829000000.000000      6.117554000000000E-01      1.201758000000000E+01      5.002441000000000E-01     -1.155664000000000E+02
4830000000.000000      6.123962000000000E-01      1.208887000000000E+01      4.999847000000000E-01     -1.163633000000000E+02
4831000000.000000      6.118469000000000E-01      1.213135000000000E+01      4.991302000000000E-01     -1.173476000000000E+02
4832000000.000000      6.118469000000000E-01      1.235791000000000E+01      5.013733000000000E-01     -1.178984000000000E+02
4833000000.000000      6.115417000000000E-01      1.227539000000000E+01      5.001221000000000E-01     -1.185000000000000E+02
4834000000.000000      6.117859000000000E-01      1.246631000000000E+01      4.999390000000000E-01     -1.195273000000000E+02
4835000000.000000      6.126709000000000E-01      1.262842000000000E+01      4.985046000000000E-01     -1.203008000000000E+02
4836000000.000000      6.123657000000000E-01      1.270264000000000E+01      4.988251000000000E-01     -1.209648000000000E+02
4837000000.000000      6.115112000000000E-01      1.297607000000000E+01      4.966736000000000E-01     -1.219844000000000E+02
4838000000.000000      6.108704000000000E-01      1.290332000000000E+01      4.982300000000000E-01     -1.223828000000000E+02
4839000000.000000      6.156311000000000E-01      1.312988000000000E+01      4.972534000000000E-01     -1.233125000000000E+02
4840000000.000000      6.129456000000000E-01      1.317627000000000E+01      4.968872000000000E-01     -1.241016000000000E+02
4841000000.000000      6.147156000000000E-01      1.337402000000000E+01      4.977875000000000E-01     -1.249805000000000E+02
4842000000.000000      6.145935000000000E-01      1.328516000000000E+01      4.955902000000000E-01     -1.257265000000000E+02
4843000000.000000      6.174011000000000E-01      1.349365000000000E+01      4.961090000000000E-01     -1.265977000000000E+02
4844000000.000000      6.174622000000000E-01      1.348389000000000E+01      4.934692000000000E-01     -1.274766000000000E+02
4845000000.000000      6.180420000000000E-01      1.356104000000000E+01      4.923706000000000E-01     -1.281563000000000E+02
4846000000.000000      6.172791000000000E-01      1.386328000000000E+01      4.913940000000000E-01     -1.290234000000000E+02
4847000000.000000      6.188049000000000E-01      1.392480000000000E+01      4.904938000000000E-01     -1.298437000000000E+02
4848000000.000000      6.182556000000000E-01      1.386475000000000E+01      4.877625000000000E-01     -1.306953000000000E+02
4849000000.000000      6.217041000000000E-01      1.388232000000000E+01      4.872742000000000E-01     -1.315547000000000E+02
4850000000.000000      6.208191000000000E-01      1.388232000000000E+01      4.847260000000000E-01     -1.323281000000000E+02
4851000000.000000      6.205444000000000E-01      1.409375000000000E+01      4.840088000000000E-01     -1.332813000000000E+02
4852000000.000000      6.223145000000000E-01      1.411719000000000E+01      4.815063000000000E-01     -1.340391000000000E+02
4853000000.000000      6.250610000000000E-01      1.413086000000000E+01      4.772034000000000E-01     -1.349453000000000E+02
4854000000.000000      6.254272000000000E-01      1.422998000000000E+01      4.765930000000000E-01     -1.358984000000000E+02
4855000000.000000      6.245117000000000E-01      1.418164000000000E+01      4.734955000000000E-01     -1.366172000000000E+02
4856000000.000000      6.268616000000000E-01      1.418164000000000E+01      4.711914000000000E-01     -1.375234000000000E+02
4857000000.000000      6.295166000000000E-01      1.438477000000000E+01      4.693298000000000E-01     -1.383437000000000E+02
4858000000.000000      6.303406000000000E-01      1.423682000000000E+01      4.655914000000000E-01     -1.391562000000000E+02
4859000000.000000      6.319580000000000E-01      1.417334000000000E+01      4.642944000000000E-01     -1.400781000000000E+02
4860000000.000000      6.305542000000000E-01      1.442334000000000E+01      4.598083000000000E-01     -1.408359000000000E+02
4861000000.000000      6.318359000000000E-01      1.429688000000000E+01      4.573364000000000E-01     -1.419609000000000E+02
4862000000.000000      6.327515000000000E-01      1.435742000000000E+01      4.550018000000000E-01     -1.424062000000000E+02
4863000000.000000      6.372681000000000E-01      1.433154000000000E+01      4.493256000000000E-01     -1.434141000000000E+02
4864000000.000000      6.369629000000000E-01      1.442480000000000E+01      4.476013000000000E-01     -1.440469000000000E+02
4865000000.000000      6.377563000000000E-01      1.441797000000000E+01      4.421082000000000E-01     -1.448125000000000E+02
4866000000.000000      6.402283000000000E-01      1.427100000000000E+01      4.384308000000000E-01     -1.456250000000000E+02
4867000000.000000      6.389771000000000E-01      1.440137000000000E+01      4.355316000000000E-01     -1.466484000000000E+02
4868000000.000000      6.396484000000000E-01      1.426270000000000E+01      4.304352000000000E-01     -1.474375000000000E+02
4869000000.000000      6.437073000000000E-01      1.422852000000000E+01      4.275055000000000E-01     -1.480703000000000E+02
4870000000.000000      6.441040000000000E-01      1.422168000000000E+01      4.238281000000000E-01     -1.486484000000000E+02
4871000000.000000      6.452637000000000E-01      1.419141000000000E+01      4.184723000000000E-01     -1.496953000000000E+02
4872000000.000000      6.472473000000000E-01      1.426270000000000E+01      4.131012000000000E-01     -1.500313000000000E+02
4873000000.000000      6.475830000000000E-01      1.416943000000000E+01      4.094543000000000E-01     -1.508125000000000E+02
4874000000.000000      6.490173000000000E-01      1.421191000000000E+01      4.048920000000000E-01     -1.514922000000000E+02
4875000000.000000      6.503601000000000E-01      1.405957000000000E+01      3.997650000000000E-01     -1.521563000000000E+02
4876000000.000000      6.530762000000000E-01      1.419434000000000E+01      3.963623000000000E-01     -1.528906000000000E+02
4877000000.000000      6.536560000000000E-01      1.391553000000000E+01      3.923340000000000E-01     -1.535312000000000E+02
4878000000.000000      6.537170000000000E-01      1.375049000000000E+01      3.876495000000000E-01     -1.538984000000000E+02
4879000000.000000      6.579590000000000E-01      1.387695000000000E+01      3.833618000000000E-01     -1.545078000000000E+02
4880000000.000000      6.582642000000000E-01      1.375732000000000E+01      3.794556000000000E-01     -1.551641000000000E+02
4881000000.000000      6.589966000000000E-01      1.379883000000000E+01      3.757782000000000E-01     -1.557656000000000E+02
4882000000.000000      6.581116000000000E-01      1.376270000000000E+01      3.714447000000000E-01     -1.563281000000000E+02
4883000000.000000      6.602783000000000E-01      1.363232000000000E+01      3.650208000000000E-01     -1.568594000000000E+02
4884000000.000000      6.614990000000000E-01      1.357471000000000E+01      3.612671000000000E-01     -1.573516000000000E+02
4885000000.000000      6.615601000000000E-01      1.349365000000000E+01      3.578491000000000E-01     -1.577188000000000E+02
4886000000.000000      6.655884000000000E-01      1.335498000000000E+01      3.518829000000000E-01     -1.582656000000000E+02
4887000000.000000      6.645508000000000E-01      1.338379000000000E+01      3.488617000000000E-01     -1.588203000000000E+02
4888000000.000000      6.657410000000000E-01      1.317090000000000E+01      3.442993000000000E-01     -1.593125000000000E+02
4889000000.000000      6.668396000000000E-01      1.306787000000000E+01      3.404083000000000E-01     -1.596016000000000E+02
4890000000.000000      6.654968000000000E-01      1.307373000000000E+01      3.350372000000000E-01     -1.605078000000000E+02
4891000000.000000      6.709900000000000E-01      1.292383000000000E+01      3.315887000000000E-01     -1.605469000000000E+02
4892000000.000000      6.721802000000000E-01      1.298682000000000E+01      3.287506000000000E-01     -1.609375000000000E+02
4893000000.000000      6.725159000000000E-01      1.298682000000000E+01      3.235321000000000E-01     -1.611953000000000E+02
4894000000.000000      6.728821000000000E-01      1.282617000000000E+01      3.202972000000000E-01     -1.617266000000000E+02
4895000000.000000      6.759033000000000E-01      1.257373000000000E+01      3.171539000000000E-01     -1.620391000000000E+02
4896000000.000000      6.752014000000000E-01      1.264502000000000E+01      3.131714000000000E-01     -1.623906000000000E+02
4897000000.000000      6.754456000000000E-01      1.242920000000000E+01      3.087158000000000E-01     -1.627969000000000E+02
4898000000.000000      6.772156000000000E-01      1.249658000000000E+01      3.050690000000000E-01     -1.631719000000000E+02
4899000000.000000      6.785583000000000E-01      1.234570000000000E+01      3.016663000000000E-01     -1.635547000000000E+02
4900000000.000000      6.791992000000000E-01      1.221777000000000E+01      2.972260000000000E-01     -1.638750000000000E+02
4901000000.000000      6.795654000000000E-01      1.210547000000000E+01      2.938690000000000E-01     -1.640859000000000E+02
4902000000.000000      6.781311000000000E-01      1.200391000000000E+01      2.909546000000000E-01     -1.644453000000000E+02
4903000000.000000      6.811829000000000E-01      1.198877000000000E+01      2.860260000000000E-01     -1.648359000000000E+02
4904000000.000000      6.794739000000000E-01      1.178271000000000E+01      2.828979000000000E-01     -1.652500000000000E+02
4905000000.000000      6.819153000000000E-01      1.182129000000000E+01      2.801514000000000E-01     -1.655937000000000E+02
4906000000.000000      6.820679000000000E-01      1.151904000000000E+01      2.761993000000000E-01     -1.655000000000000E+02
4907000000.000000      6.845093000000000E-01      1.142969000000000E+01      2.732697000000000E-01     -1.660156000000000E+02
4908000000.000000      6.854248000000000E-01      1.120020000000000E+01      2.698669000000000E-01     -1.664609000000000E+02
4909000000.000000      6.851807000000000E-01      1.137061000000000E+01      2.656097000000000E-01     -1.667031000000000E+02
4910000000.000000      6.834106000000000E-01      1.126074000000000E+01      2.620850000000000E-01     -1.669141000000000E+02
4911000000.000000      6.855774000000000E-01      1.123486000000000E+01      2.597961000000000E-01     -1.671797000000000E+02
4912000000.000000      6.868896000000000E-01      1.111084000000000E+01      2.554016000000000E-01     -1.677031000000000E+02
4913000000.000000      6.871338000000000E-01      1.085840000000000E+01      2.515717000000000E-01     -1.679453000000000E+02
4914000000.000000      6.876221000000000E-01      1.079395000000000E+01      2.481918000000000E-01     -1.681250000000000E+02
4915000000.000000      6.867676000000000E-01      1.077051000000000E+01      2.445908000000000E-01     -1.683828000000000E+02
4916000000.000000      6.880188000000000E-01      1.069482000000000E+01      2.417297000000000E-01     -1.688281000000000E+02
4917000000.000000      6.891479000000000E-01      1.064258000000000E+01      2.370911000000000E-01     -1.689844000000000E+02
4918000000.000000      6.876526000000000E-01      1.035596000000000E+01      2.335968000000000E-01     -1.692422000000000E+02
4919000000.000000      6.891785000000000E-01      1.041504000000000E+01      2.308807000000000E-01     -1.694141000000000E+02
4920000000.000000      6.910095000000000E-01      1.011963000000000E+01      2.263489000000000E-01     -1.697344000000000E+02
4921000000.000000      6.899719000000000E-01      1.017871000000000E+01      2.234268000000000E-01     -1.696172000000000E+02
4922000000.000000      6.913452000000000E-01      1.013037000000000E+01      2.196274000000000E-01     -1.699531000000000E+02
4923000000.000000      6.931763000000000E-01      1.014404000000000E+01      2.154160000000000E-01     -1.702891000000000E+02
4924000000.000000      6.918945000000000E-01      9.890137000000000E+00      2.117691000000000E-01     -1.704687000000000E+02
4925000000.000000      6.936340000000000E-01      9.761230000000000E+00      2.083359000000000E-01     -1.705547000000000E+02
4926000000.000000      6.953430000000000E-01      9.631836000000000E+00      2.050095000000000E-01     -1.706719000000000E+02
4927000000.000000      6.951904000000000E-01      9.638672000000000E+00      2.007294000000000E-01     -1.708437000000000E+02
4928000000.000000      6.976013000000000E-01      9.405273000000000E+00      1.973343000000000E-01     -1.708203000000000E+02
4929000000.000000      6.938477000000000E-01      9.328613000000000E+00      1.931915000000000E-01     -1.706640000000000E+02
4930000000.000000      6.950378000000000E-01      9.468750000000000E+00      1.899872000000000E-01     -1.707422000000000E+02
4931000000.000000      6.950684000000000E-01      9.144531000000000E+00      1.862564000000000E-01     -1.708359000000000E+02
4932000000.000000      6.961365000000000E-01      9.104492000000000E+00      1.825256000000000E-01     -1.707422000000000E+02
4933000000.000000      6.976318000000000E-01      9.011230000000000E+00      1.777496000000000E-01     -1.705156000000000E+02
4934000000.000000      6.992188000000000E-01      8.933105000000000E+00      1.742020000000000E-01     -1.707344000000000E+02
4935000000.000000      6.984253000000000E-01      8.965820000000000E+00      1.712646000000000E-01     -1.703516000000000E+02
4936000000.000000      6.994934000000000E-01      8.461914000000000E+00      1.672516000000000E-01     -1.699766000000000E+02
4937000000.000000      6.985474000000000E-01      8.693848000000000E+00      1.635666000000000E-01     -1.698203000000000E+02
4938000000.000000      6.974487000000000E-01      8.459473000000000E+00      1.601181000000000E-01     -1.694297000000000E+02
4939000000.000000      6.995239000000000E-01      8.539063000000000E+00      1.567307000000000E-01     -1.692188000000000E+02
4940000000.000000      6.985779000000000E-01      8.419434000000000E+00      1.523285000000000E-01     -1.688047000000000E+02
4941000000.000000      7.000427000000000E-01      8.205078000000000E+00      1.495972000000000E-01     -1.682734000000000E+02
4942000000.000000      7.000732000000000E-01      8.128418000000000E+00      1.460495000000000E-01     -1.676563000000000E+02
4943000000.000000      7.022400000000000E-01      8.096680000000000E+00      1.427994000000000E-01     -1.669609000000000E+02
4944000000.000000      7.003174000000000E-01      8.005859000000000E+00      1.395874000000000E-01     -1.663594000000000E+02
4945000000.000000      6.994019000000000E-01      7.771240000000000E+00      1.358871000000000E-01     -1.655703000000000E+02
4946000000.000000      7.043762000000000E-01      7.848145000000000E+00      1.332474000000000E-01     -1.649219000000000E+02
4947000000.000000      7.032471000000000E-01      7.555664000000000E+00      1.303482000000000E-01     -1.637891000000000E+02
4948000000.000000      7.031250000000000E-01      7.686279000000000E+00      1.273270000000000E-01     -1.629922000000000E+02
4949000000.000000      7.036743000000000E-01      7.544678000000000E+00      1.245346000000000E-01     -1.615547000000000E+02
4950000000.000000      7.052917000000000E-01      7.477539000000000E+00      1.218185000000000E-01     -1.605625000000000E+02
4951000000.000000      7.044373000000000E-01      7.384033000000000E+00      1.195221000000000E-01     -1.594609000000000E+02
4952000000.000000      7.047119000000000E-01      7.091553000000000E+00      1.166420000000000E-01     -1.579922000000000E+02
4953000000.000000      7.049255000000000E-01      7.086182000000000E+00      1.151695000000000E-01     -1.565391000000000E+02
4954000000.000000      7.075806000000000E-01      6.987305000000000E+00      1.132736000000000E-01     -1.551484000000000E+02
