! Network Analyzer HP8722D
! Hewlett-Packard
! Data name: Linha & Wilkinson
! Saver's name: Rodrigo Anjos
! Comments: Teste da utilização de aquisição
continua pelo VNA HP8722D
! Time and date: 22/5/2025 10:46
!              Frequency                     S11                                                   S21                                                   S12                                                   S22
# HZ  S  MA R 50
4800000000.000000      6.467285000000000E-01      1.050830000000000E+01      4.738617000000000E-01     -9.372265000000000E+01
4801000000.000000      6.447754000000000E-01      1.055615000000000E+01      4.759216000000000E-01     -9.432421000000000E+01
4802000000.000000      6.435852000000000E-01      1.046289000000000E+01      4.778595000000000E-01     -9.506639000000000E+01
4803000000.000000      6.417542000000000E-01      1.056055000000000E+01      4.807892000000000E-01     -9.591015000000000E+01
4804000000.000000      6.398926000000000E-01      1.061816000000000E+01      4.804230000000000E-01     -9.670702000000000E+01
4805000000.000000      6.398010000000000E-01      1.046143000000000E+01      4.831238000000000E-01     -9.733593000000000E+01
4806000000.000000      6.355896000000000E-01      1.050146000000000E+01      4.841766000000000E-01     -9.825390000000000E+01
4807000000.000000      6.352844000000000E-01      1.043555000000000E+01      4.843445000000000E-01     -9.914063000000000E+01
4808000000.000000      6.324768000000000E-01      1.060449000000000E+01      4.877014000000000E-01     -9.969139000000000E+01
4809000000.000000      6.315308000000000E-01      1.076074000000000E+01      4.885101000000000E-01     -1.005898000000000E+02
4810000000.000000      6.294556000000000E-01      1.071436000000000E+01      4.909668000000000E-01     -1.010898000000000E+02
4811000000.000000      6.290283000000000E-01      1.074463000000000E+01      4.912720000000000E-01     -1.020781000000000E+02
4812000000.000000      6.288147000000000E-01      1.090918000000000E+01      4.926605000000000E-01     -1.028594000000000E+02
4813000000.000000      6.266785000000000E-01      1.079395000000000E+01      4.926147000000000E-01     -1.037344000000000E+02
4814000000.000000      6.254883000000000E-01      1.091602000000000E+01      4.950867000000000E-01     -1.043125000000000E+02
4815000000.000000      6.239624000000000E-01      1.104102000000000E+01      4.943848000000000E-01     -1.051367000000000E+02
4816000000.000000      6.237183000000000E-01      1.118799000000000E+01      4.964905000000000E-01     -1.057813000000000E+02
4817000000.000000      6.210632000000000E-01      1.125928000000000E+01      4.964600000000000E-01     -1.066016000000000E+02
4818000000.000000      6.204224000000000E-01      1.116748000000000E+01      4.973755000000000E-01     -1.073594000000000E+02
4819000000.000000      6.202698000000000E-01      1.123877000000000E+01      4.974213000000000E-01     -1.081172000000000E+02
4820000000.000000      6.175537000000000E-01      1.147510000000000E+01      4.976959000000000E-01     -1.087891000000000E+02
4821000000.000000      6.190491000000000E-01      1.145557000000000E+01      4.991455000000000E-01     -1.095547000000000E+02
4822000000.000000      6.152954000000000E-01      1.143945000000000E+01      4.975586000000000E-01     -1.102422000000000E+02
4823000000.000000      6.166382000000000E-01      1.147510000000000E+01      4.996185000000000E-01     -1.111875000000000E+02
4824000000.000000      6.135864000000000E-01      1.179102000000000E+01      4.988861000000000E-01     -1.117383000000000E+02
4825000000.000000      6.146240000000000E-01      1.176758000000000E+01      4.990540000000000E-01     -1.125937000000000E+02
4826000000.000000      6.128540000000000E-01      1.167139000000000E+01      5.003357000000000E-01     -1.134961000000000E+02
4827000000.000000      6.110840000000000E-01      1.192822000000000E+01      4.995880000000000E-01     -1.138984000000000E+02
4828000000.000000      6.130981000000000E-01      1.213818000000000E+01      4.995880000000000E-01     -1.146836000000000E+02
4829000000.000000      6.135864000000000E-01      1.244043000000000E+01      4.999390000000000E-01     -1.156328000000000E+02
4830000000.000000      6.122131000000000E-01      1.239111000000000E+01      5.010681000000000E-01     -1.162461000000000E+02
4831000000.000000      6.122437000000000E-01      1.239941000000000E+01      5.003967000000000E-01     -1.172305000000000E+02
4832000000.000000      6.116028000000000E-01      1.254053000000000E+01      5.000610000000000E-01     -1.176680000000000E+02
4833000000.000000      6.105347000000000E-01      1.258057000000000E+01      4.990540000000000E-01     -1.185312000000000E+02
4834000000.000000      6.115417000000000E-01      1.274658000000000E+01      4.984589000000000E-01     -1.194648000000000E+02
4835000000.000000      6.120911000000000E-01      1.284570000000000E+01      4.990234000000000E-01     -1.202187000000000E+02
4836000000.000000      6.130066000000000E-01      1.313525000000000E+01      4.972534000000000E-01     -1.207891000000000E+02
4837000000.000000      6.118469000000000E-01      1.321777000000000E+01      4.967957000000000E-01     -1.218359000000000E+02
4838000000.000000      6.120605000000000E-01      1.334277000000000E+01      4.977417000000000E-01     -1.224961000000000E+02
4839000000.000000      6.145020000000000E-01      1.337988000000000E+01      4.959564000000000E-01     -1.230820000000000E+02
4840000000.000000      6.142578000000000E-01      1.331104000000000E+01      4.952698000000000E-01     -1.239922000000000E+02
4841000000.000000      6.150818000000000E-01      1.364502000000000E+01      4.957428000000000E-01     -1.250078000000000E+02
4842000000.000000      6.137390000000000E-01      1.360791000000000E+01      4.957428000000000E-01     -1.256484000000000E+02
4843000000.000000      6.168518000000000E-01      1.354590000000000E+01      4.947815000000000E-01     -1.263867000000000E+02
4844000000.000000      6.165466000000000E-01      1.348291000000000E+01      4.942932000000000E-01     -1.274961000000000E+02
4845000000.000000      6.160889000000000E-01      1.406934000000000E+01      4.919739000000000E-01     -1.280000000000000E+02
4846000000.000000      6.196289000000000E-01      1.391260000000000E+01      4.906769000000000E-01     -1.290703000000000E+02
4847000000.000000      6.192627000000000E-01      1.415967000000000E+01      4.893341000000000E-01     -1.297500000000000E+02
4848000000.000000      6.181946000000000E-01      1.411182000000000E+01      4.858551000000000E-01     -1.307188000000000E+02
4849000000.000000      6.192017000000000E-01      1.423242000000000E+01      4.861755000000000E-01     -1.314687000000000E+02
4850000000.000000      6.209717000000000E-01      1.436572000000000E+01      4.844055000000000E-01     -1.323750000000000E+02
4851000000.000000      6.225586000000000E-01      1.438623000000000E+01      4.834900000000000E-01     -1.332344000000000E+02
4852000000.000000      6.224976000000000E-01      1.430957000000000E+01      4.811554000000000E-01     -1.340781000000000E+02
4853000000.000000      6.235962000000000E-01      1.443701000000000E+01      4.771729000000000E-01     -1.348516000000000E+02
4854000000.000000      6.263733000000000E-01      1.433398000000000E+01      4.749146000000000E-01     -1.356875000000000E+02
4855000000.000000      6.248474000000000E-01      1.450879000000000E+01      4.724121000000000E-01     -1.366797000000000E+02
4856000000.000000      6.271667000000000E-01      1.447412000000000E+01      4.703674000000000E-01     -1.373906000000000E+02
4857000000.000000      6.293030000000000E-01      1.448682000000000E+01      4.694061000000000E-01     -1.383203000000000E+02
4858000000.000000      6.296387000000000E-01      1.451660000000000E+01      4.647369000000000E-01     -1.391797000000000E+02
4859000000.000000      6.302490000000000E-01      1.452783000000000E+01      4.630585000000000E-01     -1.400391000000000E+02
4860000000.000000      6.307983000000000E-01      1.461182000000000E+01      4.593506000000000E-01     -1.407656000000000E+02
4861000000.000000      6.329956000000000E-01      1.470898000000000E+01      4.563446000000000E-01     -1.418906000000000E+02
4862000000.000000      6.324158000000000E-01      1.467871000000000E+01      4.528351000000000E-01     -1.423672000000000E+02
4863000000.000000      6.358948000000000E-01      1.472021000000000E+01      4.484863000000000E-01     -1.433047000000000E+02
4864000000.000000      6.374817000000000E-01      1.460889000000000E+01      4.462585000000000E-01     -1.441797000000000E+02
4865000000.000000      6.373901000000000E-01      1.440674000000000E+01      4.402313000000000E-01     -1.447266000000000E+02
4866000000.000000      6.395264000000000E-01      1.437695000000000E+01      4.376984000000000E-01     -1.457891000000000E+02
4867000000.000000      6.376648000000000E-01      1.449463000000000E+01      4.346008000000000E-01     -1.465156000000000E+02
4868000000.000000      6.412659000000000E-01      1.433545000000000E+01      4.299927000000000E-01     -1.473281000000000E+02
4869000000.000000      6.415710000000000E-01      1.456885000000000E+01      4.246063000000000E-01     -1.478984000000000E+02
4870000000.000000      6.443176000000000E-01      1.460742000000000E+01      4.229279000000000E-01     -1.486797000000000E+02
4871000000.000000      6.422119000000000E-01      1.436572000000000E+01      4.167938000000000E-01     -1.494062000000000E+02
4872000000.000000      6.470032000000000E-01      1.433838000000000E+01      4.139252000000000E-01     -1.500937000000000E+02
4873000000.000000      6.478882000000000E-01      1.443848000000000E+01      4.091187000000000E-01     -1.506719000000000E+02
4874000000.000000      6.476746000000000E-01      1.450977000000000E+01      4.047546000000000E-01     -1.515391000000000E+02
4875000000.000000      6.501770000000000E-01      1.438623000000000E+01      4.007874000000000E-01     -1.520703000000000E+02
4876000000.000000      6.531372000000000E-01      1.439307000000000E+01      3.962860000000000E-01     -1.526641000000000E+02
4877000000.000000      6.521301000000000E-01      1.420508000000000E+01      3.925323000000000E-01     -1.533750000000000E+02
4878000000.000000      6.533508000000000E-01      1.406787000000000E+01      3.882446000000000E-01     -1.539453000000000E+02
4879000000.000000      6.567993000000000E-01      1.412109000000000E+01      3.824005000000000E-01     -1.544609000000000E+02
4880000000.000000      6.580811000000000E-01      1.400586000000000E+01      3.777008000000000E-01     -1.550547000000000E+02
4881000000.000000      6.568909000000000E-01      1.405420000000000E+01      3.737946000000000E-01     -1.556094000000000E+02
4882000000.000000      6.603394000000000E-01      1.404980000000000E+01      3.695526000000000E-01     -1.561719000000000E+02
4883000000.000000      6.599426000000000E-01      1.379297000000000E+01      3.650665000000000E-01     -1.569766000000000E+02
4884000000.000000      6.632690000000000E-01      1.378223000000000E+01      3.614044000000000E-01     -1.572031000000000E+02
4885000000.000000      6.624146000000000E-01      1.365039000000000E+01      3.576508000000000E-01     -1.574922000000000E+02
4886000000.000000      6.644897000000000E-01      1.373682000000000E+01      3.539886000000000E-01     -1.580937000000000E+02
4887000000.000000      6.653137000000000E-01      1.360645000000000E+01      3.486328000000000E-01     -1.586797000000000E+02
4888000000.000000      6.651611000000000E-01      1.354443000000000E+01      3.449249000000000E-01     -1.591563000000000E+02
4889000000.000000      6.676025000000000E-01      1.346777000000000E+01      3.390198000000000E-01     -1.595859000000000E+02
4890000000.000000      6.678162000000000E-01      1.340576000000000E+01      3.345184000000000E-01     -1.602969000000000E+02
4891000000.000000      6.715088000000000E-01      1.332324000000000E+01      3.306427000000000E-01     -1.605937000000000E+02
4892000000.000000      6.706238000000000E-01      1.321240000000000E+01      3.272095000000000E-01     -1.607891000000000E+02
4893000000.000000      6.708374000000000E-01      1.314893000000000E+01      3.236389000000000E-01     -1.613203000000000E+02
4894000000.000000      6.705322000000000E-01      1.294873000000000E+01      3.192749000000000E-01     -1.614609000000000E+02
4895000000.000000      6.734314000000000E-01      1.297852000000000E+01      3.165741000000000E-01     -1.620625000000000E+02
4896000000.000000      6.751404000000000E-01      1.288818000000000E+01      3.123169000000000E-01     -1.623437000000000E+02
4897000000.000000      6.737671000000000E-01      1.276025000000000E+01      3.074951000000000E-01     -1.625703000000000E+02
4898000000.000000      6.757507000000000E-01      1.281787000000000E+01      3.054962000000000E-01     -1.629141000000000E+02
4899000000.000000      6.779785000000000E-01      1.259033000000000E+01      3.007507000000000E-01     -1.634766000000000E+02
4900000000.000000      6.776428000000000E-01      1.245947000000000E+01      2.974854000000000E-01     -1.635781000000000E+02
4901000000.000000      6.773376000000000E-01      1.233594000000000E+01      2.931976000000000E-01     -1.639297000000000E+02
4902000000.000000      6.802368000000000E-01      1.231396000000000E+01      2.909698000000000E-01     -1.642422000000000E+02
4903000000.000000      6.773376000000000E-01      1.229639000000000E+01      2.857361000000000E-01     -1.646719000000000E+02
4904000000.000000      6.808777000000000E-01      1.213818000000000E+01      2.821045000000000E-01     -1.650391000000000E+02
4905000000.000000      6.794128000000000E-01      1.198438000000000E+01      2.803497000000000E-01     -1.654375000000000E+02
4906000000.000000      6.804810000000000E-01      1.189111000000000E+01      2.754974000000000E-01     -1.654922000000000E+02
4907000000.000000      6.849060000000000E-01      1.180859000000000E+01      2.726898000000000E-01     -1.659141000000000E+02
4908000000.000000      6.844482000000000E-01      1.159033000000000E+01      2.698059000000000E-01     -1.663750000000000E+02
4909000000.000000      6.849060000000000E-01      1.157129000000000E+01      2.647400000000000E-01     -1.664297000000000E+02
4910000000.000000      6.826477000000000E-01      1.138037000000000E+01      2.622833000000000E-01     -1.669062000000000E+02
4911000000.000000      6.856689000000000E-01      1.148877000000000E+01      2.588654000000000E-01     -1.669922000000000E+02
4912000000.000000      6.842651000000000E-01      1.112744000000000E+01      2.553864000000000E-01     -1.674219000000000E+02
4913000000.000000      6.883850000000000E-01      1.117139000000000E+01      2.516937000000000E-01     -1.678281000000000E+02
4914000000.000000      6.874695000000000E-01      1.112207000000000E+01      2.483826000000000E-01     -1.679844000000000E+02
4915000000.000000      6.877441000000000E-01      1.096680000000000E+01      2.440262000000000E-01     -1.682266000000000E+02
4916000000.000000      6.873169000000000E-01      1.095850000000000E+01      2.404099000000000E-01     -1.687734000000000E+02
4917000000.000000      6.894226000000000E-01      1.075830000000000E+01      2.373276000000000E-01     -1.687891000000000E+02
4918000000.000000      6.875610000000000E-01      1.079541000000000E+01      2.334595000000000E-01     -1.691406000000000E+02
4919000000.000000      6.891785000000000E-01      1.060986000000000E+01      2.304611000000000E-01     -1.691484000000000E+02
4920000000.000000      6.890564000000000E-01      1.038867000000000E+01      2.262192000000000E-01     -1.696640000000000E+02
4921000000.000000      6.899414000000000E-01      1.038867000000000E+01      2.227783000000000E-01     -1.697734000000000E+02
4922000000.000000      6.901245000000000E-01      1.035986000000000E+01      2.194519000000000E-01     -1.698750000000000E+02
4923000000.000000      6.918335000000000E-01      1.029248000000000E+01      2.152481000000000E-01     -1.699687000000000E+02
4924000000.000000      6.940613000000000E-01      1.008252000000000E+01      2.113113000000000E-01     -1.703281000000000E+02
4925000000.000000      6.915894000000000E-01      1.012109000000000E+01      2.076569000000000E-01     -1.703828000000000E+02
4926000000.000000      6.923523000000000E-01      9.787109000000000E+00      2.049179000000000E-01     -1.704062000000000E+02
4927000000.000000      6.923218000000000E-01      9.806641000000000E+00      2.007523000000000E-01     -1.705859000000000E+02
4928000000.000000      6.925049000000000E-01      9.741699000000000E+00      1.966248000000000E-01     -1.706094000000000E+02
4929000000.000000      6.941833000000000E-01      9.582520000000000E+00      1.926117000000000E-01     -1.706250000000000E+02
4930000000.000000      6.929626000000000E-01      9.646973000000000E+00      1.891022000000000E-01     -1.707656000000000E+02
4931000000.000000      6.942444000000000E-01      9.440918000000000E+00      1.862183000000000E-01     -1.707031000000000E+02
4932000000.000000      6.959229000000000E-01      9.255859000000000E+00      1.819000000000000E-01     -1.705937000000000E+02
4933000000.000000      6.947937000000000E-01      9.280273000000000E+00      1.777344000000000E-01     -1.703594000000000E+02
4934000000.000000      6.978149000000000E-01      9.100586000000000E+00      1.742859000000000E-01     -1.703750000000000E+02
4935000000.000000      6.979675000000000E-01      8.997559000000000E+00      1.703720000000000E-01     -1.700469000000000E+02
4936000000.000000      6.962585000000000E-01      8.967285000000000E+00      1.665039000000000E-01     -1.700156000000000E+02
4937000000.000000      6.971130000000000E-01      8.792969000000000E+00      1.633224000000000E-01     -1.695781000000000E+02
4938000000.000000      6.980591000000000E-01      8.720215000000000E+00      1.596527000000000E-01     -1.692969000000000E+02
4939000000.000000      6.972351000000000E-01      8.768066000000000E+00      1.561508000000000E-01     -1.687734000000000E+02
4940000000.000000      6.996765000000000E-01      8.558105000000000E+00      1.528549000000000E-01     -1.686172000000000E+02
4941000000.000000      6.991272000000000E-01      8.378418000000000E+00      1.490326000000000E-01     -1.680625000000000E+02
4942000000.000000      7.000732000000000E-01      8.437500000000000E+00      1.460571000000000E-01     -1.675469000000000E+02
4943000000.000000      6.993713000000000E-01      8.280762000000000E+00      1.425781000000000E-01     -1.668047000000000E+02
4944000000.000000      6.985779000000000E-01      8.164063000000000E+00      1.396179000000000E-01     -1.661484000000000E+02
4945000000.000000      7.019958000000000E-01      8.056641000000000E+00      1.356201000000000E-01     -1.654063000000000E+02
4946000000.000000      7.016907000000000E-01      7.955322000000000E+00      1.326675000000000E-01     -1.645703000000000E+02
4947000000.000000      7.017212000000000E-01      7.848145000000000E+00      1.296921000000000E-01     -1.635703000000000E+02
4948000000.000000      7.040100000000000E-01      7.910156000000000E+00      1.270523000000000E-01     -1.625469000000000E+02
4949000000.000000      7.032776000000000E-01      7.603760000000000E+00      1.240883000000000E-01     -1.614219000000000E+02
4950000000.000000      7.058105000000000E-01      7.709473000000000E+00      1.216850000000000E-01     -1.604063000000000E+02
4951000000.000000      7.056885000000000E-01      7.436279000000000E+00      1.192856000000000E-01     -1.593828000000000E+02
4952000000.000000      7.051392000000000E-01      7.459717000000000E+00      1.166763000000000E-01     -1.576406000000000E+02
4953000000.000000      7.051392000000000E-01      7.119141000000000E+00      1.149521000000000E-01     -1.563828000000000E+02
4954000000.000000      7.040100000000000E-01      7.153320000000000E+00      1.130295000000000E-01     -1.548984000000000E+02
