! Network Analyzer HP8722D
! Hewlett-Packard
! Data name: Linha & Wilkinson
! Saver's name: Rodrigo Anjos
! Comments: Teste da utilização de aquisição
continua pelo VNA HP8722D
! Time and date: 22/5/2025 07:49
!              Frequency                     S11                                                   S21                                                   S12                                                   S22
# HZ  S  MA R 50
4800000000.000000      6.460571000000000E-01      1.022949000000000E+01      4.735870000000000E-01     -9.385157000000000E+01
4801000000.000000      6.451721000000000E-01      1.032129000000000E+01      4.751129000000000E-01     -9.454687000000000E+01
4802000000.000000      6.436157000000000E-01      1.032813000000000E+01      4.775391000000000E-01     -9.508204000000000E+01
4803000000.000000      6.421204000000000E-01      1.023779000000000E+01      4.807892000000000E-01     -9.584375000000000E+01
4804000000.000000      6.399231000000000E-01      1.041504000000000E+01      4.807434000000000E-01     -9.694139000000000E+01
4805000000.000000      6.397095000000000E-01      1.014307000000000E+01      4.818420000000000E-01     -9.762108000000000E+01
4806000000.000000      6.365662000000000E-01      1.032129000000000E+01      4.846954000000000E-01     -9.816406000000000E+01
4807000000.000000      6.345520000000000E-01      1.027344000000000E+01      4.850922000000000E-01     -9.908203000000000E+01
4808000000.000000      6.327820000000000E-01      1.034180000000000E+01      4.873505000000000E-01     -9.983202000000000E+01
4809000000.000000      6.329346000000000E-01      1.043555000000000E+01      4.886017000000000E-01     -1.005937000000000E+02
4810000000.000000      6.305847000000000E-01      1.036523000000000E+01      4.903107000000000E-01     -1.012187000000000E+02
4811000000.000000      6.297913000000000E-01      1.057666000000000E+01      4.914093000000000E-01     -1.021016000000000E+02
4812000000.000000      6.279907000000000E-01      1.078564000000000E+01      4.921417000000000E-01     -1.028320000000000E+02
4813000000.000000      6.257324000000000E-01      1.063477000000000E+01      4.924774000000000E-01     -1.034062000000000E+02
4814000000.000000      6.244202000000000E-01      1.061133000000000E+01      4.936066000000000E-01     -1.045547000000000E+02
4815000000.000000      6.235962000000000E-01      1.080762000000000E+01      4.950409000000000E-01     -1.049336000000000E+02
4816000000.000000      6.243896000000000E-01      1.080615000000000E+01      4.961548000000000E-01     -1.058789000000000E+02
4817000000.000000      6.218872000000000E-01      1.094092000000000E+01      4.966125000000000E-01     -1.067891000000000E+02
4818000000.000000      6.203918000000000E-01      1.088184000000000E+01      4.968567000000000E-01     -1.074297000000000E+02
4819000000.000000      6.204529000000000E-01      1.115625000000000E+01      4.969940000000000E-01     -1.080273000000000E+02
4820000000.000000      6.172791000000000E-01      1.118506000000000E+01      4.979706000000000E-01     -1.086797000000000E+02
4821000000.000000      6.178894000000000E-01      1.122900000000000E+01      4.980774000000000E-01     -1.095859000000000E+02
4822000000.000000      6.143799000000000E-01      1.126758000000000E+01      4.975891000000000E-01     -1.104140000000000E+02
4823000000.000000      6.150513000000000E-01      1.140381000000000E+01      4.993896000000000E-01     -1.109336000000000E+02
4824000000.000000      6.141968000000000E-01      1.158203000000000E+01      4.989014000000000E-01     -1.116875000000000E+02
4825000000.000000      6.136475000000000E-01      1.170850000000000E+01      4.994202000000000E-01     -1.125156000000000E+02
4826000000.000000      6.138916000000000E-01      1.146973000000000E+01      4.992523000000000E-01     -1.134570000000000E+02
4827000000.000000      6.146851000000000E-01      1.186523000000000E+01      4.993591000000000E-01     -1.141797000000000E+02
4828000000.000000      6.143799000000000E-01      1.175928000000000E+01      5.002136000000000E-01     -1.149180000000000E+02
4829000000.000000      6.123047000000000E-01      1.206396000000000E+01      5.007935000000000E-01     -1.156562000000000E+02
4830000000.000000      6.124573000000000E-01      1.200928000000000E+01      5.006104000000000E-01     -1.164141000000000E+02
4831000000.000000      6.107788000000000E-01      1.221240000000000E+01      4.991455000000000E-01     -1.171758000000000E+02
4832000000.000000      6.108704000000000E-01      1.236328000000000E+01      4.998322000000000E-01     -1.178789000000000E+02
4833000000.000000      6.096497000000000E-01      1.242236000000000E+01      4.982910000000000E-01     -1.184531000000000E+02
4834000000.000000      6.104736000000000E-01      1.252979000000000E+01      4.989166000000000E-01     -1.192383000000000E+02
4835000000.000000      6.105042000000000E-01      1.261621000000000E+01      4.997101000000000E-01     -1.201133000000000E+02
4836000000.000000      6.110535000000000E-01      1.282471000000000E+01      4.976654000000000E-01     -1.209844000000000E+02
4837000000.000000      6.116943000000000E-01      1.311328000000000E+01      4.972229000000000E-01     -1.218789000000000E+02
4838000000.000000      6.117859000000000E-01      1.301709000000000E+01      4.978638000000000E-01     -1.223633000000000E+02
4839000000.000000      6.143799000000000E-01      1.339063000000000E+01      4.962006000000000E-01     -1.233906000000000E+02
4840000000.000000      6.138916000000000E-01      1.325049000000000E+01      4.975586000000000E-01     -1.240547000000000E+02
4841000000.000000      6.132507000000000E-01      1.335498000000000E+01      4.967651000000000E-01     -1.248555000000000E+02
4842000000.000000      6.130981000000000E-01      1.345508000000000E+01      4.941101000000000E-01     -1.257383000000000E+02
4843000000.000000      6.164246000000000E-01      1.344824000000000E+01      4.956360000000000E-01     -1.267500000000000E+02
4844000000.000000      6.161804000000000E-01      1.337842000000000E+01      4.929352000000000E-01     -1.274258000000000E+02
4845000000.000000      6.173401000000000E-01      1.372705000000000E+01      4.912109000000000E-01     -1.280781000000000E+02
4846000000.000000      6.174927000000000E-01      1.379443000000000E+01      4.907379000000000E-01     -1.289844000000000E+02
4847000000.000000      6.167908000000000E-01      1.395947000000000E+01      4.891968000000000E-01     -1.298594000000000E+02
4848000000.000000      6.172485000000000E-01      1.395264000000000E+01      4.858856000000000E-01     -1.305703000000000E+02
4849000000.000000      6.206360000000000E-01      1.393750000000000E+01      4.871216000000000E-01     -1.317266000000000E+02
4850000000.000000      6.201782000000000E-01      1.386475000000000E+01      4.836731000000000E-01     -1.324219000000000E+02
4851000000.000000      6.226807000000000E-01      1.424756000000000E+01      4.839783000000000E-01     -1.333437000000000E+02
4852000000.000000      6.244202000000000E-01      1.428760000000000E+01      4.806061000000000E-01     -1.340625000000000E+02
4853000000.000000      6.240845000000000E-01      1.416260000000000E+01      4.772491000000000E-01     -1.349375000000000E+02
4854000000.000000      6.249084000000000E-01      1.410645000000000E+01      4.753113000000000E-01     -1.359531000000000E+02
4855000000.000000      6.269226000000000E-01      1.431201000000000E+01      4.728699000000000E-01     -1.368203000000000E+02
4856000000.000000      6.275635000000000E-01      1.436035000000000E+01      4.705353000000000E-01     -1.376016000000000E+02
4857000000.000000      6.285095000000000E-01      1.435596000000000E+01      4.689941000000000E-01     -1.382031000000000E+02
4858000000.000000      6.290283000000000E-01      1.420361000000000E+01      4.662628000000000E-01     -1.391641000000000E+02
4859000000.000000      6.295471000000000E-01      1.437402000000000E+01      4.629059000000000E-01     -1.403047000000000E+02
4860000000.000000      6.312561000000000E-01      1.452930000000000E+01      4.592590000000000E-01     -1.407812000000000E+02
4861000000.000000      6.325989000000000E-01      1.451270000000000E+01      4.566040000000000E-01     -1.417813000000000E+02
4862000000.000000      6.335754000000000E-01      1.440137000000000E+01      4.528656000000000E-01     -1.425937000000000E+02
4863000000.000000      6.352234000000000E-01      1.456787000000000E+01      4.495544000000000E-01     -1.433594000000000E+02
4864000000.000000      6.356812000000000E-01      1.453760000000000E+01      4.459686000000000E-01     -1.440547000000000E+02
4865000000.000000      6.367493000000000E-01      1.430420000000000E+01      4.417572000000000E-01     -1.447891000000000E+02
4866000000.000000      6.389465000000000E-01      1.450049000000000E+01      4.381409000000000E-01     -1.457422000000000E+02
4867000000.000000      6.387634000000000E-01      1.418994000000000E+01      4.329376000000000E-01     -1.465078000000000E+02
4868000000.000000      6.401367000000000E-01      1.433301000000000E+01      4.300385000000000E-01     -1.473594000000000E+02
4869000000.000000      6.434021000000000E-01      1.431641000000000E+01      4.261017000000000E-01     -1.480937000000000E+02
4870000000.000000      6.439209000000000E-01      1.433838000000000E+01      4.218750000000000E-01     -1.484844000000000E+02
4871000000.000000      6.450195000000000E-01      1.434229000000000E+01      4.187012000000000E-01     -1.493828000000000E+02
4872000000.000000      6.451111000000000E-01      1.433398000000000E+01      4.134979000000000E-01     -1.500078000000000E+02
4873000000.000000      6.473694000000000E-01      1.423682000000000E+01      4.091797000000000E-01     -1.506562000000000E+02
4874000000.000000      6.477661000000000E-01      1.430518000000000E+01      4.051056000000000E-01     -1.515078000000000E+02
4875000000.000000      6.497803000000000E-01      1.397705000000000E+01      4.005585000000000E-01     -1.522891000000000E+02
4876000000.000000      6.498413000000000E-01      1.416650000000000E+01      3.966827000000000E-01     -1.527344000000000E+02
4877000000.000000      6.519470000000000E-01      1.390723000000000E+01      3.925934000000000E-01     -1.533828000000000E+02
4878000000.000000      6.537781000000000E-01      1.391553000000000E+01      3.868408000000000E-01     -1.540313000000000E+02
4879000000.000000      6.557312000000000E-01      1.401855000000000E+01      3.823090000000000E-01     -1.543125000000000E+02
4880000000.000000      6.571655000000000E-01      1.381104000000000E+01      3.790436000000000E-01     -1.551875000000000E+02
4881000000.000000      6.577454000000000E-01      1.378467000000000E+01      3.749390000000000E-01     -1.555391000000000E+02
4882000000.000000      6.607971000000000E-01      1.374902000000000E+01      3.705292000000000E-01     -1.562734000000000E+02
4883000000.000000      6.602783000000000E-01      1.370947000000000E+01      3.664551000000000E-01     -1.569844000000000E+02
4884000000.000000      6.620483000000000E-01      1.366406000000000E+01      3.617859000000000E-01     -1.572969000000000E+02
4885000000.000000      6.628418000000000E-01      1.364746000000000E+01      3.563995000000000E-01     -1.574453000000000E+02
4886000000.000000      6.651611000000000E-01      1.357471000000000E+01      3.521118000000000E-01     -1.581640000000000E+02
4887000000.000000      6.632996000000000E-01      1.351318000000000E+01      3.494263000000000E-01     -1.588984000000000E+02
4888000000.000000      6.661072000000000E-01      1.332764000000000E+01      3.441772000000000E-01     -1.591328000000000E+02
4889000000.000000      6.680298000000000E-01      1.329443000000000E+01      3.397217000000000E-01     -1.597812000000000E+02
4890000000.000000      6.668091000000000E-01      1.335938000000000E+01      3.352814000000000E-01     -1.603594000000000E+02
4891000000.000000      6.689148000000000E-01      1.309668000000000E+01      3.305817000000000E-01     -1.605078000000000E+02
4892000000.000000      6.682434000000000E-01      1.292920000000000E+01      3.278351000000000E-01     -1.607891000000000E+02
4893000000.000000      6.730652000000000E-01      1.292920000000000E+01      3.238525000000000E-01     -1.613984000000000E+02
4894000000.000000      6.720581000000000E-01      1.278516000000000E+01      3.197021000000000E-01     -1.617266000000000E+02
4895000000.000000      6.735535000000000E-01      1.264795000000000E+01      3.167114000000000E-01     -1.621406000000000E+02
4896000000.000000      6.718445000000000E-01      1.248584000000000E+01      3.122101000000000E-01     -1.624922000000000E+02
4897000000.000000      6.735535000000000E-01      1.262598000000000E+01      3.086090000000000E-01     -1.628828000000000E+02
4898000000.000000      6.764832000000000E-01      1.241016000000000E+01      3.050079000000000E-01     -1.630703000000000E+02
4899000000.000000      6.764526000000000E-01      1.245947000000000E+01      3.009491000000000E-01     -1.636172000000000E+02
4900000000.000000      6.775208000000000E-01      1.218066000000000E+01      2.968903000000000E-01     -1.639688000000000E+02
4901000000.000000      6.795959000000000E-01      1.211475000000000E+01      2.944336000000000E-01     -1.641250000000000E+02
4902000000.000000      6.806335000000000E-01      1.213281000000000E+01      2.914429000000000E-01     -1.643672000000000E+02
4903000000.000000      6.803589000000000E-01      1.206396000000000E+01      2.860260000000000E-01     -1.648203000000000E+02
4904000000.000000      6.807556000000000E-01      1.182373000000000E+01      2.826996000000000E-01     -1.652344000000000E+02
4905000000.000000      6.798706000000000E-01      1.172900000000000E+01      2.802582000000000E-01     -1.655859000000000E+02
4906000000.000000      6.814880000000000E-01      1.169043000000000E+01      2.763977000000000E-01     -1.655547000000000E+02
4907000000.000000      6.829224000000000E-01      1.156445000000000E+01      2.730560000000000E-01     -1.660156000000000E+02
4908000000.000000      6.831665000000000E-01      1.156299000000000E+01      2.698364000000000E-01     -1.665547000000000E+02
4909000000.000000      6.835022000000000E-01      1.136768000000000E+01      2.651367000000000E-01     -1.666250000000000E+02
4910000000.000000      6.849060000000000E-01      1.127881000000000E+01      2.615662000000000E-01     -1.668594000000000E+02
4911000000.000000      6.860962000000000E-01      1.120459000000000E+01      2.588196000000000E-01     -1.673125000000000E+02
4912000000.000000      6.858521000000000E-01      1.116211000000000E+01      2.552032000000000E-01     -1.676563000000000E+02
4913000000.000000      6.858521000000000E-01      1.096436000000000E+01      2.518463000000000E-01     -1.678516000000000E+02
4914000000.000000      6.867065000000000E-01      1.075928000000000E+01      2.477875000000000E-01     -1.680156000000000E+02
4915000000.000000      6.880188000000000E-01      1.079248000000000E+01      2.447891000000000E-01     -1.685469000000000E+02
4916000000.000000      6.911316000000000E-01      1.063037000000000E+01      2.411499000000000E-01     -1.688594000000000E+02
4917000000.000000      6.889038000000000E-01      1.077051000000000E+01      2.372818000000000E-01     -1.689609000000000E+02
4918000000.000000      6.892700000000000E-01      1.058252000000000E+01      2.338333000000000E-01     -1.691797000000000E+02
4919000000.000000      6.885376000000000E-01      1.050000000000000E+01      2.305756000000000E-01     -1.692891000000000E+02
4920000000.000000      6.895447000000000E-01      1.016211000000000E+01      2.265320000000000E-01     -1.697656000000000E+02
4921000000.000000      6.894531000000000E-01      1.044482000000000E+01      2.228241000000000E-01     -1.698984000000000E+02
4922000000.000000      6.918030000000000E-01      1.016895000000000E+01      2.195282000000000E-01     -1.699687000000000E+02
4923000000.000000      6.911316000000000E-01      1.000977000000000E+01      2.155075000000000E-01     -1.700078000000000E+02
4924000000.000000      6.929016000000000E-01      9.947754000000000E+00      2.121811000000000E-01     -1.703984000000000E+02
4925000000.000000      6.920776000000000E-01      9.957520000000000E+00      2.082291000000000E-01     -1.706640000000000E+02
4926000000.000000      6.929016000000000E-01      9.832520000000000E+00      2.046509000000000E-01     -1.706719000000000E+02
4927000000.000000      6.924438000000000E-01      9.570313000000000E+00      2.005768000000000E-01     -1.708281000000000E+02
4928000000.000000      6.949158000000000E-01      9.478027000000000E+00      1.972275000000000E-01     -1.707656000000000E+02
4929000000.000000      6.947327000000000E-01      9.418945000000000E+00      1.930695000000000E-01     -1.707969000000000E+02
4930000000.000000      6.942139000000000E-01      9.415039000000000E+00      1.900330000000000E-01     -1.708359000000000E+02
4931000000.000000      6.952820000000000E-01      9.189941000000000E+00      1.862640000000000E-01     -1.708672000000000E+02
4932000000.000000      6.947021000000000E-01      9.064941000000000E+00      1.820908000000000E-01     -1.706953000000000E+02
4933000000.000000      6.940613000000000E-01      9.045410000000000E+00      1.776276000000000E-01     -1.704609000000000E+02
4934000000.000000      6.961975000000000E-01      8.964844000000000E+00      1.742554000000000E-01     -1.706640000000000E+02
4935000000.000000      6.993408000000000E-01      8.772461000000000E+00      1.715317000000000E-01     -1.701953000000000E+02
4936000000.000000      6.954651000000000E-01      8.676270000000000E+00      1.669464000000000E-01     -1.701328000000000E+02
4937000000.000000      6.982727000000000E-01      8.539063000000000E+00      1.636047000000000E-01     -1.697266000000000E+02
4938000000.000000      6.972961000000000E-01      8.580078000000000E+00      1.600037000000000E-01     -1.694844000000000E+02
4939000000.000000      7.000732000000000E-01      8.605957000000000E+00      1.563644000000000E-01     -1.691484000000000E+02
4940000000.000000      6.986694000000000E-01      8.405762000000000E+00      1.525497000000000E-01     -1.688203000000000E+02
4941000000.000000      6.987610000000000E-01      8.196777000000000E+00      1.496429000000000E-01     -1.681719000000000E+02
4942000000.000000      6.981201000000000E-01      8.280762000000000E+00      1.461029000000000E-01     -1.677891000000000E+02
4943000000.000000      7.028198000000000E-01      8.228516000000000E+00      1.425476000000000E-01     -1.669453000000000E+02
4944000000.000000      6.988831000000000E-01      8.143555000000000E+00      1.394348000000000E-01     -1.664219000000000E+02
4945000000.000000      7.009888000000000E-01      7.879883000000000E+00      1.362228000000000E-01     -1.656875000000000E+02
4946000000.000000      7.025452000000000E-01      7.748047000000000E+00      1.332779000000000E-01     -1.649375000000000E+02
4947000000.000000      7.025146000000000E-01      7.535156000000000E+00      1.298447000000000E-01     -1.638438000000000E+02
4948000000.000000      7.032471000000000E-01      7.665527000000000E+00      1.267853000000000E-01     -1.630391000000000E+02
4949000000.000000      7.024536000000000E-01      7.658691000000000E+00      1.245842000000000E-01     -1.617656000000000E+02
4950000000.000000      7.048950000000000E-01      7.353760000000000E+00      1.218224000000000E-01     -1.606797000000000E+02
4951000000.000000      7.049561000000000E-01      7.293457000000000E+00      1.192894000000000E-01     -1.594531000000000E+02
4952000000.000000      7.045593000000000E-01      7.177979000000000E+00      1.167183000000000E-01     -1.579922000000000E+02
4953000000.000000      7.048035000000000E-01      7.080566000000000E+00      1.151581000000000E-01     -1.566953000000000E+02
4954000000.000000      7.068787000000000E-01      7.143799000000000E+00      1.128273000000000E-01     -1.551484000000000E+02
