! Network Analyzer HP8722D
! Hewlett-Packard
! Data name: Linha & Wilkinson
! Saver's name: Rodrigo Anjos
! Comments: Teste da utilização de aquisição
continua pelo VNA HP8722D
! Time and date: 22/5/2025 08:01
!              Frequency                     S11                                                   S21                                                   S12                                                   S22
# HZ  S  MA R 50
4800000000.000000      6.464539000000000E-01      1.042188000000000E+01      4.752960000000000E-01     -9.378515000000000E+01
4801000000.000000      6.446228000000000E-01      1.037354000000000E+01      4.761505000000000E-01     -9.448828000000000E+01
4802000000.000000      6.441650000000000E-01      1.033643000000000E+01      4.782715000000000E-01     -9.516796000000000E+01
4803000000.000000      6.421204000000000E-01      1.021973000000000E+01      4.795227000000000E-01     -9.603516000000000E+01
4804000000.000000      6.412964000000000E-01      1.020898000000000E+01      4.809723000000000E-01     -9.658203000000000E+01
4805000000.000000      6.397400000000000E-01      1.027881000000000E+01      4.834137000000000E-01     -9.745312000000000E+01
4806000000.000000      6.357727000000000E-01      1.026221000000000E+01      4.832916000000000E-01     -9.827734000000000E+01
4807000000.000000      6.341248000000000E-01      1.018799000000000E+01      4.852295000000000E-01     -9.913280000000000E+01
4808000000.000000      6.317444000000000E-01      1.031982000000000E+01      4.875641000000000E-01     -9.975389000000000E+01
4809000000.000000      6.306458000000000E-01      1.047949000000000E+01      4.890747000000000E-01     -1.005976000000000E+02
4810000000.000000      6.315918000000000E-01      1.039551000000000E+01      4.910889000000000E-01     -1.013047000000000E+02
4811000000.000000      6.285400000000000E-01      1.054932000000000E+01      4.911652000000000E-01     -1.018984000000000E+02
4812000000.000000      6.289978000000000E-01      1.071680000000000E+01      4.919739000000000E-01     -1.027461000000000E+02
4813000000.000000      6.256409000000000E-01      1.056738000000000E+01      4.930878000000000E-01     -1.035664000000000E+02
4814000000.000000      6.240845000000000E-01      1.065088000000000E+01      4.938965000000000E-01     -1.041055000000000E+02
4815000000.000000      6.235046000000000E-01      1.080322000000000E+01      4.948883000000000E-01     -1.050352000000000E+02
4816000000.000000      6.228027000000000E-01      1.064404000000000E+01      4.951630000000000E-01     -1.057578000000000E+02
4817000000.000000      6.210327000000000E-01      1.095605000000000E+01      4.967041000000000E-01     -1.065273000000000E+02
4818000000.000000      6.217651000000000E-01      1.070313000000000E+01      4.975586000000000E-01     -1.075195000000000E+02
4819000000.000000      6.193848000000000E-01      1.105469000000000E+01      4.968872000000000E-01     -1.082187000000000E+02
4820000000.000000      6.175537000000000E-01      1.122070000000000E+01      4.974823000000000E-01     -1.087148000000000E+02
4821000000.000000      6.197205000000000E-01      1.120459000000000E+01      4.997101000000000E-01     -1.097695000000000E+02
4822000000.000000      6.152039000000000E-01      1.106006000000000E+01      4.977264000000000E-01     -1.103984000000000E+02
4823000000.000000      6.161194000000000E-01      1.135693000000000E+01      5.001831000000000E-01     -1.111523000000000E+02
4824000000.000000      6.139526000000000E-01      1.149951000000000E+01      4.990234000000000E-01     -1.119609000000000E+02
4825000000.000000      6.152344000000000E-01      1.160254000000000E+01      4.989471000000000E-01     -1.127305000000000E+02
4826000000.000000      6.137390000000000E-01      1.160547000000000E+01      4.994354000000000E-01     -1.134062000000000E+02
4827000000.000000      6.137390000000000E-01      1.170996000000000E+01      4.991608000000000E-01     -1.141562000000000E+02
4828000000.000000      6.146545000000000E-01      1.176758000000000E+01      5.007935000000000E-01     -1.148242000000000E+02
4829000000.000000      6.134949000000000E-01      1.204883000000000E+01      5.014343000000000E-01     -1.155781000000000E+02
4830000000.000000      6.131592000000000E-01      1.194189000000000E+01      4.994507000000000E-01     -1.165234000000000E+02
4831000000.000000      6.124573000000000E-01      1.221680000000000E+01      5.006104000000000E-01     -1.171836000000000E+02
4832000000.000000      6.116943000000000E-01      1.234863000000000E+01      5.004883000000000E-01     -1.177344000000000E+02
4833000000.000000      6.117554000000000E-01      1.231836000000000E+01      4.990387000000000E-01     -1.186094000000000E+02
4834000000.000000      6.105957000000000E-01      1.263818000000000E+01      4.991608000000000E-01     -1.194102000000000E+02
4835000000.000000      6.114807000000000E-01      1.261914000000000E+01      4.986725000000000E-01     -1.203242000000000E+02
4836000000.000000      6.122742000000000E-01      1.282471000000000E+01      4.986267000000000E-01     -1.211133000000000E+02
4837000000.000000      6.111755000000000E-01      1.301318000000000E+01      4.962921000000000E-01     -1.219922000000000E+02
4838000000.000000      6.108398000000000E-01      1.302979000000000E+01      4.975739000000000E-01     -1.224336000000000E+02
4839000000.000000      6.146240000000000E-01      1.327246000000000E+01      4.969940000000000E-01     -1.233008000000000E+02
4840000000.000000      6.140137000000000E-01      1.318604000000000E+01      4.971466000000000E-01     -1.240117000000000E+02
4841000000.000000      6.127625000000000E-01      1.329346000000000E+01      4.959869000000000E-01     -1.249453000000000E+02
4842000000.000000      6.137390000000000E-01      1.334424000000000E+01      4.945679000000000E-01     -1.257227000000000E+02
4843000000.000000      6.160889000000000E-01      1.331787000000000E+01      4.960938000000000E-01     -1.268359000000000E+02
4844000000.000000      6.166687000000000E-01      1.344580000000000E+01      4.945221000000000E-01     -1.274687000000000E+02
4845000000.000000      6.178894000000000E-01      1.366797000000000E+01      4.927979000000000E-01     -1.281797000000000E+02
4846000000.000000      6.185608000000000E-01      1.379736000000000E+01      4.914398000000000E-01     -1.290234000000000E+02
4847000000.000000      6.207581000000000E-01      1.368604000000000E+01      4.905396000000000E-01     -1.298984000000000E+02
4848000000.000000      6.192627000000000E-01      1.367920000000000E+01      4.868927000000000E-01     -1.307891000000000E+02
4849000000.000000      6.179504000000000E-01      1.391260000000000E+01      4.866638000000000E-01     -1.315938000000000E+02
4850000000.000000      6.215515000000000E-01      1.404736000000000E+01      4.839783000000000E-01     -1.324297000000000E+02
4851000000.000000      6.238403000000000E-01      1.396338000000000E+01      4.835968000000000E-01     -1.332891000000000E+02
4852000000.000000      6.234131000000000E-01      1.396729000000000E+01      4.807739000000000E-01     -1.340781000000000E+02
4853000000.000000      6.240845000000000E-01      1.419434000000000E+01      4.776459000000000E-01     -1.349453000000000E+02
4854000000.000000      6.257324000000000E-01      1.412842000000000E+01      4.766388000000000E-01     -1.359062000000000E+02
4855000000.000000      6.257324000000000E-01      1.415283000000000E+01      4.740295000000000E-01     -1.367344000000000E+02
4856000000.000000      6.276245000000000E-01      1.426416000000000E+01      4.712677000000000E-01     -1.373828000000000E+02
4857000000.000000      6.294861000000000E-01      1.435889000000000E+01      4.706573000000000E-01     -1.382500000000000E+02
4858000000.000000      6.304932000000000E-01      1.415283000000000E+01      4.663849000000000E-01     -1.392422000000000E+02
4859000000.000000      6.303711000000000E-01      1.433398000000000E+01      4.634552000000000E-01     -1.401719000000000E+02
4860000000.000000      6.303406000000000E-01      1.445898000000000E+01      4.595184000000000E-01     -1.410078000000000E+02
4861000000.000000      6.330566000000000E-01      1.435352000000000E+01      4.572906000000000E-01     -1.417656000000000E+02
4862000000.000000      6.330261000000000E-01      1.441943000000000E+01      4.538116000000000E-01     -1.424375000000000E+02
4863000000.000000      6.347351000000000E-01      1.447705000000000E+01      4.497375000000000E-01     -1.433047000000000E+02
4864000000.000000      6.382446000000000E-01      1.424072000000000E+01      4.467621000000000E-01     -1.441484000000000E+02
4865000000.000000      6.368103000000000E-01      1.437793000000000E+01      4.429932000000000E-01     -1.448125000000000E+02
4866000000.000000      6.394348000000000E-01      1.438477000000000E+01      4.392242000000000E-01     -1.456640000000000E+02
4867000000.000000      6.384277000000000E-01      1.436572000000000E+01      4.343414000000000E-01     -1.466172000000000E+02
4868000000.000000      6.412048000000000E-01      1.433398000000000E+01      4.307861000000000E-01     -1.474609000000000E+02
4869000000.000000      6.406250000000000E-01      1.430957000000000E+01      4.269867000000000E-01     -1.480156000000000E+02
4870000000.000000      6.443176000000000E-01      1.452490000000000E+01      4.228973000000000E-01     -1.486719000000000E+02
4871000000.000000      6.440735000000000E-01      1.417920000000000E+01      4.195709000000000E-01     -1.496328000000000E+02
4872000000.000000      6.467590000000000E-01      1.430420000000000E+01      4.141998000000000E-01     -1.501172000000000E+02
4873000000.000000      6.491394000000000E-01      1.414307000000000E+01      4.103546000000000E-01     -1.507734000000000E+02
4874000000.000000      6.482544000000000E-01      1.432715000000000E+01      4.051819000000000E-01     -1.515859000000000E+02
4875000000.000000      6.498718000000000E-01      1.411328000000000E+01      4.003601000000000E-01     -1.521719000000000E+02
4876000000.000000      6.520081000000000E-01      1.406934000000000E+01      3.973083000000000E-01     -1.526953000000000E+02
4877000000.000000      6.546021000000000E-01      1.413086000000000E+01      3.925629000000000E-01     -1.533437000000000E+02
4878000000.000000      6.525879000000000E-01      1.394824000000000E+01      3.881836000000000E-01     -1.539219000000000E+02
4879000000.000000      6.549072000000000E-01      1.382471000000000E+01      3.823853000000000E-01     -1.546406000000000E+02
4880000000.000000      6.568909000000000E-01      1.385205000000000E+01      3.785858000000000E-01     -1.552969000000000E+02
4881000000.000000      6.575317000000000E-01      1.384961000000000E+01      3.746185000000000E-01     -1.554766000000000E+02
4882000000.000000      6.600952000000000E-01      1.368311000000000E+01      3.708954000000000E-01     -1.563594000000000E+02
4883000000.000000      6.607666000000000E-01      1.357617000000000E+01      3.658295000000000E-01     -1.568281000000000E+02
4884000000.000000      6.607971000000000E-01      1.369287000000000E+01      3.618774000000000E-01     -1.575391000000000E+02
4885000000.000000      6.622925000000000E-01      1.359521000000000E+01      3.571930000000000E-01     -1.573828000000000E+02
4886000000.000000      6.660767000000000E-01      1.337988000000000E+01      3.526306000000000E-01     -1.583594000000000E+02
4887000000.000000      6.651917000000000E-01      1.356250000000000E+01      3.500519000000000E-01     -1.585781000000000E+02
4888000000.000000      6.674500000000000E-01      1.319141000000000E+01      3.456573000000000E-01     -1.593437000000000E+02
4889000000.000000      6.657715000000000E-01      1.325342000000000E+01      3.400726000000000E-01     -1.595859000000000E+02
4890000000.000000      6.663818000000000E-01      1.296631000000000E+01      3.359222000000000E-01     -1.603984000000000E+02
4891000000.000000      6.701660000000000E-01      1.307910000000000E+01      3.316345000000000E-01     -1.606328000000000E+02
4892000000.000000      6.697388000000000E-01      1.282471000000000E+01      3.271637000000000E-01     -1.609453000000000E+02
4893000000.000000      6.732788000000000E-01      1.291406000000000E+01      3.238220000000000E-01     -1.614219000000000E+02
4894000000.000000      6.720886000000000E-01      1.273975000000000E+01      3.199158000000000E-01     -1.618125000000000E+02
4895000000.000000      6.766663000000000E-01      1.268066000000000E+01      3.173676000000000E-01     -1.621250000000000E+02
4896000000.000000      6.748962000000000E-01      1.281787000000000E+01      3.125763000000000E-01     -1.625078000000000E+02
4897000000.000000      6.768188000000000E-01      1.249951000000000E+01      3.084412000000000E-01     -1.627734000000000E+02
4898000000.000000      6.766663000000000E-01      1.242383000000000E+01      3.053131000000000E-01     -1.630938000000000E+02
4899000000.000000      6.771545000000000E-01      1.243652000000000E+01      3.011475000000000E-01     -1.635547000000000E+02
4900000000.000000      6.779480000000000E-01      1.227441000000000E+01      2.977295000000000E-01     -1.637969000000000E+02
4901000000.000000      6.802368000000000E-01      1.190332000000000E+01      2.942047000000000E-01     -1.641250000000000E+02
4902000000.000000      6.805115000000000E-01      1.199268000000000E+01      2.914276000000000E-01     -1.644140000000000E+02
4903000000.000000      6.796875000000000E-01      1.218359000000000E+01      2.860565000000000E-01     -1.647344000000000E+02
4904000000.000000      6.823730000000000E-01      1.179785000000000E+01      2.829437000000000E-01     -1.651562000000000E+02
4905000000.000000      6.810303000000000E-01      1.173193000000000E+01      2.801819000000000E-01     -1.655703000000000E+02
4906000000.000000      6.826477000000000E-01      1.144629000000000E+01      2.763214000000000E-01     -1.655391000000000E+02
4907000000.000000      6.837463000000000E-01      1.143506000000000E+01      2.734375000000000E-01     -1.662500000000000E+02
4908000000.000000      6.872864000000000E-01      1.139551000000000E+01      2.698212000000000E-01     -1.665156000000000E+02
4909000000.000000      6.850586000000000E-01      1.141992000000000E+01      2.656860000000000E-01     -1.668516000000000E+02
4910000000.000000      6.853638000000000E-01      1.132373000000000E+01      2.624817000000000E-01     -1.670078000000000E+02
4911000000.000000      6.859741000000000E-01      1.108643000000000E+01      2.590485000000000E-01     -1.672266000000000E+02
4912000000.000000      6.852112000000000E-01      1.120605000000000E+01      2.556000000000000E-01     -1.675937000000000E+02
4913000000.000000      6.881409000000000E-01      1.087061000000000E+01      2.522430000000000E-01     -1.679297000000000E+02
4914000000.000000      6.879883000000000E-01      1.089941000000000E+01      2.483902000000000E-01     -1.681406000000000E+02
4915000000.000000      6.902771000000000E-01      1.089941000000000E+01      2.448425000000000E-01     -1.685781000000000E+02
4916000000.000000      6.882629000000000E-01      1.056738000000000E+01      2.413788000000000E-01     -1.688437000000000E+02
4917000000.000000      6.904297000000000E-01      1.049707000000000E+01      2.373962000000000E-01     -1.689141000000000E+02
4918000000.000000      6.896973000000000E-01      1.037891000000000E+01      2.341995000000000E-01     -1.691719000000000E+02
4919000000.000000      6.887207000000000E-01      1.046826000000000E+01      2.305756000000000E-01     -1.693750000000000E+02
4920000000.000000      6.905212000000000E-01      1.023486000000000E+01      2.266998000000000E-01     -1.697031000000000E+02
4921000000.000000      6.895447000000000E-01      1.029248000000000E+01      2.233353000000000E-01     -1.698828000000000E+02
4922000000.000000      6.921387000000000E-01      1.028857000000000E+01      2.195740000000000E-01     -1.698594000000000E+02
4923000000.000000      6.919861000000000E-01      1.014160000000000E+01      2.158127000000000E-01     -1.701484000000000E+02
4924000000.000000      6.916199000000000E-01      9.920410000000000E+00      2.119598000000000E-01     -1.704766000000000E+02
4925000000.000000      6.936951000000000E-01      9.741699000000000E+00      2.083817000000000E-01     -1.706719000000000E+02
4926000000.000000      6.949768000000000E-01      9.744629000000000E+00      2.043991000000000E-01     -1.705781000000000E+02
4927000000.000000      6.939392000000000E-01      9.671875000000000E+00      2.005768000000000E-01     -1.706953000000000E+02
4928000000.000000      6.971741000000000E-01      9.548340000000000E+00      1.972656000000000E-01     -1.707031000000000E+02
4929000000.000000      6.932373000000000E-01      9.497559000000000E+00      1.933212000000000E-01     -1.707266000000000E+02
4930000000.000000      6.958618000000000E-01      9.389160000000000E+00      1.895218000000000E-01     -1.708906000000000E+02
4931000000.000000      6.952515000000000E-01      9.107422000000000E+00      1.860886000000000E-01     -1.709219000000000E+02
4932000000.000000      6.977539000000000E-01      9.111328000000000E+00      1.820374000000000E-01     -1.707656000000000E+02
4933000000.000000      6.935730000000000E-01      9.088379000000000E+00      1.778259000000000E-01     -1.706172000000000E+02
4934000000.000000      6.989136000000000E-01      8.891602000000000E+00      1.745224000000000E-01     -1.706797000000000E+02
4935000000.000000      7.001343000000000E-01      8.777832000000000E+00      1.717224000000000E-01     -1.702734000000000E+02
4936000000.000000      6.955261000000000E-01      8.879395000000000E+00      1.670761000000000E-01     -1.701719000000000E+02
4937000000.000000      6.968079000000000E-01      8.618652000000000E+00      1.640396000000000E-01     -1.697734000000000E+02
4938000000.000000      6.979370000000000E-01      8.673340000000000E+00      1.595078000000000E-01     -1.694219000000000E+02
4939000000.000000      6.965637000000000E-01      8.573242000000000E+00      1.564789000000000E-01     -1.691250000000000E+02
4940000000.000000      6.998901000000000E-01      8.301270000000000E+00      1.528168000000000E-01     -1.688281000000000E+02
4941000000.000000      7.009888000000000E-01      8.324707000000000E+00      1.498871000000000E-01     -1.682266000000000E+02
4942000000.000000      7.015381000000000E-01      8.225586000000000E+00      1.457748000000000E-01     -1.677734000000000E+02
4943000000.000000      7.003174000000000E-01      8.054199000000000E+00      1.428528000000000E-01     -1.671719000000000E+02
4944000000.000000      7.020569000000000E-01      7.856445000000000E+00      1.394348000000000E-01     -1.664687000000000E+02
4945000000.000000      7.015991000000000E-01      7.824951000000000E+00      1.361237000000000E-01     -1.657656000000000E+02
4946000000.000000      7.029724000000000E-01      7.739746000000000E+00      1.332932000000000E-01     -1.649062000000000E+02
4947000000.000000      7.029724000000000E-01      7.704102000000000E+00      1.297302000000000E-01     -1.638906000000000E+02
4948000000.000000      7.049561000000000E-01      7.640869000000000E+00      1.271210000000000E-01     -1.629609000000000E+02
4949000000.000000      7.026062000000000E-01      7.305908000000000E+00      1.246643000000000E-01     -1.617188000000000E+02
4950000000.000000      7.052917000000000E-01      7.254883000000000E+00      1.219254000000000E-01     -1.606797000000000E+02
4951000000.000000      7.038574000000000E-01      7.323730000000000E+00      1.197510000000000E-01     -1.596250000000000E+02
4952000000.000000      7.049561000000000E-01      7.095703000000000E+00      1.169319000000000E-01     -1.581328000000000E+02
4953000000.000000      7.077332000000000E-01      7.016113000000000E+00      1.151810000000000E-01     -1.566953000000000E+02
4954000000.000000      7.056580000000000E-01      7.042236000000000E+00      1.129074000000000E-01     -1.552578000000000E+02
