! Network Analyzer HP8722D
! Hewlett-Packard
! Data name: Linha & Wilkinson
! Saver's name: Rodrigo Anjos
! Comments: Teste da utilização de aquisição
continua pelo VNA HP8722D
! Time and date: 22/5/2025 12:25
!              Frequency                     S11                                                   S21                                                   S12                                                   S22
# HZ  S  MA R 50
4800000000.000000      6.508179000000000E-01      1.068115000000000E+01      4.717712000000000E-01     -9.247656000000000E+01
4801000000.000000      6.489868000000000E-01      1.098633000000000E+01      4.728546000000000E-01     -9.345703000000000E+01
4802000000.000000      6.471252000000000E-01      1.084473000000000E+01      4.729614000000000E-01     -9.399609000000000E+01
4803000000.000000      6.451111000000000E-01      1.088721000000000E+01      4.780273000000000E-01     -9.476954000000000E+01
4804000000.000000      6.439514000000000E-01      1.088184000000000E+01      4.789581000000000E-01     -9.548828000000000E+01
4805000000.000000      6.442566000000000E-01      1.067041000000000E+01      4.802704000000000E-01     -9.642967000000000E+01
4806000000.000000      6.422119000000000E-01      1.079248000000000E+01      4.810638000000000E-01     -9.701561000000000E+01
4807000000.000000      6.383972000000000E-01      1.067139000000000E+01      4.837341000000000E-01     -9.787498000000000E+01
4808000000.000000      6.376343000000000E-01      1.079932000000000E+01      4.842072000000000E-01     -9.844921000000000E+01
4809000000.000000      6.355286000000000E-01      1.082666000000000E+01      4.857025000000000E-01     -9.949219000000000E+01
4810000000.000000      6.350098000000000E-01      1.082666000000000E+01      4.879608000000000E-01     -1.001797000000000E+02
4811000000.000000      6.339417000000000E-01      1.096436000000000E+01      4.889679000000000E-01     -1.010781000000000E+02
4812000000.000000      6.325073000000000E-01      1.095850000000000E+01      4.905853000000000E-01     -1.017851000000000E+02
4813000000.000000      6.318665000000000E-01      1.101367000000000E+01      4.914551000000000E-01     -1.026719000000000E+02
4814000000.000000      6.289063000000000E-01      1.099854000000000E+01      4.920044000000000E-01     -1.030508000000000E+02
4815000000.000000      6.284485000000000E-01      1.113721000000000E+01      4.931793000000000E-01     -1.038633000000000E+02
4816000000.000000      6.269836000000000E-01      1.123193000000000E+01      4.948730000000000E-01     -1.046367000000000E+02
4817000000.000000      6.231995000000000E-01      1.121533000000000E+01      4.935303000000000E-01     -1.053906000000000E+02
4818000000.000000      6.253052000000000E-01      1.134717000000000E+01      4.949341000000000E-01     -1.062070000000000E+02
4819000000.000000      6.234436000000000E-01      1.137598000000000E+01      4.954376000000000E-01     -1.068203000000000E+02
4820000000.000000      6.199646000000000E-01      1.149854000000000E+01      4.953461000000000E-01     -1.075078000000000E+02
4821000000.000000      6.194153000000000E-01      1.153809000000000E+01      4.971313000000000E-01     -1.085508000000000E+02
4822000000.000000      6.187744000000000E-01      1.156982000000000E+01      4.966278000000000E-01     -1.091523000000000E+02
4823000000.000000      6.184387000000000E-01      1.175244000000000E+01      4.978790000000000E-01     -1.098750000000000E+02
4824000000.000000      6.154785000000000E-01      1.187061000000000E+01      4.982452000000000E-01     -1.106680000000000E+02
4825000000.000000      6.174316000000000E-01      1.196777000000000E+01      4.974670000000000E-01     -1.114258000000000E+02
4826000000.000000      6.170959000000000E-01      1.199561000000000E+01      4.998932000000000E-01     -1.123438000000000E+02
4827000000.000000      6.158142000000000E-01      1.213965000000000E+01      4.987946000000000E-01     -1.128633000000000E+02
4828000000.000000      6.163025000000000E-01      1.223145000000000E+01      4.994659000000000E-01     -1.136094000000000E+02
4829000000.000000      6.144104000000000E-01      1.256689000000000E+01      5.003967000000000E-01     -1.144258000000000E+02
4830000000.000000      6.145325000000000E-01      1.266699000000000E+01      4.981232000000000E-01     -1.150859000000000E+02
4831000000.000000      6.138306000000000E-01      1.256396000000000E+01      5.000916000000000E-01     -1.160898000000000E+02
4832000000.000000      6.149902000000000E-01      1.274121000000000E+01      4.978333000000000E-01     -1.167773000000000E+02
4833000000.000000      6.121521000000000E-01      1.289795000000000E+01      4.986572000000000E-01     -1.173047000000000E+02
4834000000.000000      6.120605000000000E-01      1.295557000000000E+01      4.989624000000000E-01     -1.182695000000000E+02
4835000000.000000      6.148071000000000E-01      1.302832000000000E+01      4.990540000000000E-01     -1.190937000000000E+02
4836000000.000000      6.134644000000000E-01      1.337305000000000E+01      4.970093000000000E-01     -1.197031000000000E+02
4837000000.000000      6.136475000000000E-01      1.335498000000000E+01      4.961243000000000E-01     -1.208984000000000E+02
4838000000.000000      6.134338000000000E-01      1.342090000000000E+01      4.982452000000000E-01     -1.213281000000000E+02
4839000000.000000      6.143188000000000E-01      1.362012000000000E+01      4.981842000000000E-01     -1.220156000000000E+02
4840000000.000000      6.153870000000000E-01      1.364600000000000E+01      4.969788000000000E-01     -1.228828000000000E+02
4841000000.000000      6.151428000000000E-01      1.389209000000000E+01      4.954376000000000E-01     -1.237734000000000E+02
4842000000.000000      6.165161000000000E-01      1.377539000000000E+01      4.955902000000000E-01     -1.245664000000000E+02
4843000000.000000      6.177979000000000E-01      1.378467000000000E+01      4.958649000000000E-01     -1.253750000000000E+02
4844000000.000000      6.181335000000000E-01      1.389453000000000E+01      4.936523000000000E-01     -1.263242000000000E+02
4845000000.000000      6.175232000000000E-01      1.413770000000000E+01      4.928741000000000E-01     -1.269414000000000E+02
4846000000.000000      6.162415000000000E-01      1.431641000000000E+01      4.919434000000000E-01     -1.277109000000000E+02
4847000000.000000      6.194458000000000E-01      1.433838000000000E+01      4.915771000000000E-01     -1.286094000000000E+02
4848000000.000000      6.196289000000000E-01      1.427783000000000E+01      4.875488000000000E-01     -1.295703000000000E+02
4849000000.000000      6.220398000000000E-01      1.432324000000000E+01      4.883575000000000E-01     -1.304922000000000E+02
4850000000.000000      6.217651000000000E-01      1.444531000000000E+01      4.852600000000000E-01     -1.312422000000000E+02
4851000000.000000      6.235352000000000E-01      1.456494000000000E+01      4.849243000000000E-01     -1.321094000000000E+02
4852000000.000000      6.228638000000000E-01      1.455957000000000E+01      4.824371000000000E-01     -1.329219000000000E+02
4853000000.000000      6.279602000000000E-01      1.450049000000000E+01      4.783630000000000E-01     -1.337422000000000E+02
4854000000.000000      6.271057000000000E-01      1.469141000000000E+01      4.779358000000000E-01     -1.346719000000000E+02
4855000000.000000      6.264954000000000E-01      1.474072000000000E+01      4.747009000000000E-01     -1.353672000000000E+02
4856000000.000000      6.276245000000000E-01      1.467627000000000E+01      4.722900000000000E-01     -1.365156000000000E+02
4857000000.000000      6.291809000000000E-01      1.475977000000000E+01      4.722595000000000E-01     -1.371641000000000E+02
4858000000.000000      6.304932000000000E-01      1.486133000000000E+01      4.685364000000000E-01     -1.379922000000000E+02
4859000000.000000      6.325684000000000E-01      1.473633000000000E+01      4.681244000000000E-01     -1.389297000000000E+02
4860000000.000000      6.322632000000000E-01      1.486133000000000E+01      4.627686000000000E-01     -1.396406000000000E+02
4861000000.000000      6.339722000000000E-01      1.493701000000000E+01      4.599762000000000E-01     -1.406484000000000E+02
4862000000.000000      6.336975000000000E-01      1.493018000000000E+01      4.569092000000000E-01     -1.412734000000000E+02
4863000000.000000      6.374817000000000E-01      1.504297000000000E+01      4.517365000000000E-01     -1.422969000000000E+02
4864000000.000000      6.382446000000000E-01      1.488232000000000E+01      4.499512000000000E-01     -1.430078000000000E+02
4865000000.000000      6.368103000000000E-01      1.489453000000000E+01      4.464264000000000E-01     -1.437109000000000E+02
4866000000.000000      6.394348000000000E-01      1.491650000000000E+01      4.421234000000000E-01     -1.447813000000000E+02
4867000000.000000      6.421509000000000E-01      1.479834000000000E+01      4.373779000000000E-01     -1.453594000000000E+02
4868000000.000000      6.427917000000000E-01      1.464600000000000E+01      4.344635000000000E-01     -1.462265000000000E+02
4869000000.000000      6.432495000000000E-01      1.492188000000000E+01      4.311218000000000E-01     -1.470234000000000E+02
4870000000.000000      6.429443000000000E-01      1.490430000000000E+01      4.263153000000000E-01     -1.476250000000000E+02
4871000000.000000      6.452942000000000E-01      1.478760000000000E+01      4.230957000000000E-01     -1.484922000000000E+02
4872000000.000000      6.475220000000000E-01      1.468701000000000E+01      4.179230000000000E-01     -1.491016000000000E+02
4873000000.000000      6.492920000000000E-01      1.486279000000000E+01      4.127960000000000E-01     -1.498906000000000E+02
4874000000.000000      6.485901000000000E-01      1.465137000000000E+01      4.102783000000000E-01     -1.506641000000000E+02
4875000000.000000      6.502686000000000E-01      1.463623000000000E+01      4.048309000000000E-01     -1.511484000000000E+02
4876000000.000000      6.543274000000000E-01      1.470508000000000E+01      4.005890000000000E-01     -1.519609000000000E+02
4877000000.000000      6.540222000000000E-01      1.452393000000000E+01      3.957977000000000E-01     -1.526641000000000E+02
4878000000.000000      6.553345000000000E-01      1.455273000000000E+01      3.924255000000000E-01     -1.531250000000000E+02
4879000000.000000      6.580200000000000E-01      1.451807000000000E+01      3.867340000000000E-01     -1.537734000000000E+02
4880000000.000000      6.574402000000000E-01      1.447168000000000E+01      3.835907000000000E-01     -1.542891000000000E+02
4881000000.000000      6.591187000000000E-01      1.449609000000000E+01      3.789978000000000E-01     -1.548984000000000E+02
4882000000.000000      6.602173000000000E-01      1.429150000000000E+01      3.737183000000000E-01     -1.554688000000000E+02
4883000000.000000      6.595459000000000E-01      1.423535000000000E+01      3.677673000000000E-01     -1.559531000000000E+02
4884000000.000000      6.619568000000000E-01      1.421338000000000E+01      3.650513000000000E-01     -1.564687000000000E+02
4885000000.000000      6.636353000000000E-01      1.431201000000000E+01      3.612671000000000E-01     -1.567812000000000E+02
4886000000.000000      6.650085000000000E-01      1.398926000000000E+01      3.565216000000000E-01     -1.573984000000000E+02
4887000000.000000      6.647339000000000E-01      1.398926000000000E+01      3.525238000000000E-01     -1.580000000000000E+02
4888000000.000000      6.674194000000000E-01      1.393750000000000E+01      3.493958000000000E-01     -1.585391000000000E+02
4889000000.000000      6.664124000000000E-01      1.377783000000000E+01      3.446045000000000E-01     -1.587344000000000E+02
4890000000.000000      6.660767000000000E-01      1.383838000000000E+01      3.385468000000000E-01     -1.597891000000000E+02
4891000000.000000      6.689148000000000E-01      1.379297000000000E+01      3.349457000000000E-01     -1.599297000000000E+02
4892000000.000000      6.703796000000000E-01      1.359521000000000E+01      3.316345000000000E-01     -1.601016000000000E+02
4893000000.000000      6.723022000000000E-01      1.347705000000000E+01      3.267517000000000E-01     -1.607891000000000E+02
4894000000.000000      6.733093000000000E-01      1.351416000000000E+01      3.230896000000000E-01     -1.610625000000000E+02
4895000000.000000      6.740112000000000E-01      1.340039000000000E+01      3.193512000000000E-01     -1.613516000000000E+02
4896000000.000000      6.759338000000000E-01      1.312012000000000E+01      3.162384000000000E-01     -1.617500000000000E+02
4897000000.000000      6.749878000000000E-01      1.317383000000000E+01      3.116760000000000E-01     -1.622813000000000E+02
4898000000.000000      6.770630000000000E-01      1.292529000000000E+01      3.087006000000000E-01     -1.624844000000000E+02
4899000000.000000      6.781311000000000E-01      1.293896000000000E+01      3.047638000000000E-01     -1.629688000000000E+02
4900000000.000000      6.787415000000000E-01      1.276318000000000E+01      3.006744000000000E-01     -1.631406000000000E+02
4901000000.000000      6.781616000000000E-01      1.275781000000000E+01      2.971954000000000E-01     -1.635859000000000E+02
4902000000.000000      6.810913000000000E-01      1.270801000000000E+01      2.941284000000000E-01     -1.637734000000000E+02
4903000000.000000      6.806335000000000E-01      1.265332000000000E+01      2.892609000000000E-01     -1.642109000000000E+02
4904000000.000000      6.821594000000000E-01      1.252686000000000E+01      2.859955000000000E-01     -1.645781000000000E+02
4905000000.000000      6.829224000000000E-01      1.225928000000000E+01      2.831879000000000E-01     -1.649688000000000E+02
4906000000.000000      6.818848000000000E-01      1.225244000000000E+01      2.799072000000000E-01     -1.650938000000000E+02
4907000000.000000      6.814880000000000E-01      1.217285000000000E+01      2.759399000000000E-01     -1.656563000000000E+02
4908000000.000000      6.842651000000000E-01      1.203516000000000E+01      2.724304000000000E-01     -1.659219000000000E+02
4909000000.000000      6.838989000000000E-01      1.201611000000000E+01      2.689362000000000E-01     -1.661094000000000E+02
4910000000.000000      6.839294000000000E-01      1.182227000000000E+01      2.654266000000000E-01     -1.664297000000000E+02
4911000000.000000      6.859436000000000E-01      1.177441000000000E+01      2.630310000000000E-01     -1.667187000000000E+02
4912000000.000000      6.869202000000000E-01      1.171826000000000E+01      2.582397000000000E-01     -1.671797000000000E+02
4913000000.000000      6.892090000000000E-01      1.161377000000000E+01      2.549744000000000E-01     -1.673594000000000E+02
4914000000.000000      6.878662000000000E-01      1.130469000000000E+01      2.514343000000000E-01     -1.674687000000000E+02
4915000000.000000      6.886292000000000E-01      1.153125000000000E+01      2.479401000000000E-01     -1.681406000000000E+02
4916000000.000000      6.894226000000000E-01      1.123877000000000E+01      2.445602000000000E-01     -1.683437000000000E+02
4917000000.000000      6.886292000000000E-01      1.116895000000000E+01      2.409058000000000E-01     -1.686797000000000E+02
4918000000.000000      6.898804000000000E-01      1.122217000000000E+01      2.373581000000000E-01     -1.689375000000000E+02
4919000000.000000      6.909790000000000E-01      1.093652000000000E+01      2.338943000000000E-01     -1.690234000000000E+02
4920000000.000000      6.904907000000000E-01      1.086914000000000E+01      2.297592000000000E-01     -1.694687000000000E+02
4921000000.000000      6.900940000000000E-01      1.088574000000000E+01      2.264938000000000E-01     -1.695625000000000E+02
4922000000.000000      6.935730000000000E-01      1.058252000000000E+01      2.230911000000000E-01     -1.697187000000000E+02
4923000000.000000      6.929932000000000E-01      1.054932000000000E+01      2.191772000000000E-01     -1.698437000000000E+02
4924000000.000000      6.961060000000000E-01      1.062500000000000E+01      2.149811000000000E-01     -1.702422000000000E+02
4925000000.000000      6.935425000000000E-01      1.027490000000000E+01      2.113876000000000E-01     -1.701875000000000E+02
4926000000.000000      6.942139000000000E-01      1.037891000000000E+01      2.080154000000000E-01     -1.704375000000000E+02
4927000000.000000      6.944885000000000E-01      1.027344000000000E+01      2.036743000000000E-01     -1.705078000000000E+02
4928000000.000000      6.950073000000000E-01      1.014307000000000E+01      2.004395000000000E-01     -1.706719000000000E+02
4929000000.000000      6.942444000000000E-01      9.949219000000000E+00      1.960983000000000E-01     -1.707187000000000E+02
4930000000.000000      6.990967000000000E-01      9.872559000000000E+00      1.925278000000000E-01     -1.707187000000000E+02
4931000000.000000      6.957703000000000E-01      9.802246000000000E+00      1.891861000000000E-01     -1.708594000000000E+02
4932000000.000000      6.966553000000000E-01      9.754395000000000E+00      1.850433000000000E-01     -1.707578000000000E+02
4933000000.000000      6.981201000000000E-01      9.697754000000000E+00      1.809006000000000E-01     -1.705781000000000E+02
4934000000.000000      6.985474000000000E-01      9.499023000000000E+00      1.770172000000000E-01     -1.708125000000000E+02
4935000000.000000      6.983337000000000E-01      9.299805000000000E+00      1.740265000000000E-01     -1.705547000000000E+02
4936000000.000000      6.968689000000000E-01      9.205078000000000E+00      1.704483000000000E-01     -1.702422000000000E+02
4937000000.000000      6.999207000000000E-01      9.163574000000000E+00      1.663284000000000E-01     -1.701015000000000E+02
4938000000.000000      7.002869000000000E-01      9.060547000000000E+00      1.625366000000000E-01     -1.695547000000000E+02
4939000000.000000      6.991272000000000E-01      9.020996000000000E+00      1.595764000000000E-01     -1.694609000000000E+02
4940000000.000000      6.992798000000000E-01      8.927734000000000E+00      1.551208000000000E-01     -1.691406000000000E+02
4941000000.000000      7.023010000000000E-01      8.654297000000000E+00      1.521149000000000E-01     -1.685390000000000E+02
4942000000.000000      6.999512000000000E-01      8.711914000000000E+00      1.483765000000000E-01     -1.682812000000000E+02
4943000000.000000      7.025146000000000E-01      8.662598000000000E+00      1.446686000000000E-01     -1.676797000000000E+02
4944000000.000000      7.019348000000000E-01      8.452148000000000E+00      1.417847000000000E-01     -1.669844000000000E+02
4945000000.000000      7.014771000000000E-01      8.424805000000000E+00      1.383286000000000E-01     -1.663516000000000E+02
4946000000.000000      7.048340000000000E-01      8.479980000000000E+00      1.352081000000000E-01     -1.657578000000000E+02
4947000000.000000      7.052002000000000E-01      8.166504000000000E+00      1.319275000000000E-01     -1.647500000000000E+02
4948000000.000000      7.051697000000000E-01      8.265625000000000E+00      1.289825000000000E-01     -1.639609000000000E+02
4949000000.000000      7.040405000000000E-01      8.058105000000000E+00      1.264343000000000E-01     -1.629219000000000E+02
4950000000.000000      7.056580000000000E-01      7.999268000000000E+00      1.232491000000000E-01     -1.618672000000000E+02
4951000000.000000      7.048950000000000E-01      7.896240000000000E+00      1.206055000000000E-01     -1.607265000000000E+02
4952000000.000000      7.059021000000000E-01      7.682129000000000E+00      1.177406000000000E-01     -1.593047000000000E+02
4953000000.000000      7.059937000000000E-01      7.585938000000000E+00      1.161156000000000E-01     -1.578281000000000E+02
4954000000.000000      7.052307000000000E-01      7.640869000000000E+00      1.139107000000000E-01     -1.564062000000000E+02
