! Network Analyzer HP8722D
! Hewlett-Packard
! Data name: Linha & Wilkinson
! Saver's name: Rodrigo Anjos
! Comments: Teste da utilização de aquisição
continua pelo VNA HP8722D
! Time and date: 22/5/2025 07:36
!              Frequency                     S11                                                   S21                                                   S12                                                   S22
# HZ  S  MA R 50
4800000000.000000      6.465149000000000E-01      1.048633000000000E+01      4.739227000000000E-01     -9.362108000000000E+01
4801000000.000000      6.440430000000000E-01      1.050293000000000E+01      4.747772000000000E-01     -9.431250000000000E+01
4802000000.000000      6.426392000000000E-01      1.049170000000000E+01      4.758606000000000E-01     -9.521093000000000E+01
4803000000.000000      6.406555000000000E-01      1.033936000000000E+01      4.798279000000000E-01     -9.594141000000000E+01
4804000000.000000      6.377869000000000E-01      1.047510000000000E+01      4.814148000000000E-01     -9.674999000000000E+01
4805000000.000000      6.392517000000000E-01      1.028418000000000E+01      4.822693000000000E-01     -9.764452000000000E+01
4806000000.000000      6.364441000000000E-01      1.028564000000000E+01      4.839783000000000E-01     -9.821875000000000E+01
4807000000.000000      6.338196000000000E-01      1.040088000000000E+01      4.846039000000000E-01     -9.907812000000000E+01
4808000000.000000      6.311951000000000E-01      1.037646000000000E+01      4.857330000000000E-01     -9.977343000000000E+01
4809000000.000000      6.311951000000000E-01      1.068115000000000E+01      4.884949000000000E-01     -1.006758000000000E+02
4810000000.000000      6.300354000000000E-01      1.047266000000000E+01      4.886627000000000E-01     -1.010312000000000E+02
4811000000.000000      6.283569000000000E-01      1.053027000000000E+01      4.902039000000000E-01     -1.021016000000000E+02
4812000000.000000      6.266479000000000E-01      1.080615000000000E+01      4.916382000000000E-01     -1.027969000000000E+02
4813000000.000000      6.256104000000000E-01      1.075830000000000E+01      4.928131000000000E-01     -1.034766000000000E+02
4814000000.000000      6.241455000000000E-01      1.077441000000000E+01      4.942017000000000E-01     -1.042226000000000E+02
4815000000.000000      6.223145000000000E-01      1.088721000000000E+01      4.930115000000000E-01     -1.049805000000000E+02
4816000000.000000      6.211853000000000E-01      1.084473000000000E+01      4.956360000000000E-01     -1.058242000000000E+02
4817000000.000000      6.199036000000000E-01      1.109717000000000E+01      4.965057000000000E-01     -1.064961000000000E+02
4818000000.000000      6.203613000000000E-01      1.080762000000000E+01      4.953461000000000E-01     -1.073438000000000E+02
4819000000.000000      6.182556000000000E-01      1.111523000000000E+01      4.971161000000000E-01     -1.082109000000000E+02
4820000000.000000      6.170959000000000E-01      1.118799000000000E+01      4.975586000000000E-01     -1.085195000000000E+02
4821000000.000000      6.160278000000000E-01      1.124268000000000E+01      4.976349000000000E-01     -1.096211000000000E+02
4822000000.000000      6.132507000000000E-01      1.136377000000000E+01      4.959564000000000E-01     -1.102539000000000E+02
4823000000.000000      6.159058000000000E-01      1.149951000000000E+01      4.973145000000000E-01     -1.112226000000000E+02
4824000000.000000      6.136169000000000E-01      1.163721000000000E+01      4.975586000000000E-01     -1.118242000000000E+02
4825000000.000000      6.129761000000000E-01      1.172510000000000E+01      4.989777000000000E-01     -1.125273000000000E+02
4826000000.000000      6.122131000000000E-01      1.151367000000000E+01      4.995728000000000E-01     -1.134961000000000E+02
4827000000.000000      6.112671000000000E-01      1.193896000000000E+01      4.984131000000000E-01     -1.141250000000000E+02
4828000000.000000      6.119385000000000E-01      1.204883000000000E+01      4.990692000000000E-01     -1.149570000000000E+02
4829000000.000000      6.109314000000000E-01      1.214502000000000E+01      5.005798000000000E-01     -1.155664000000000E+02
4830000000.000000      6.108398000000000E-01      1.215771000000000E+01      4.994202000000000E-01     -1.163281000000000E+02
4831000000.000000      6.108398000000000E-01      1.216699000000000E+01      4.993744000000000E-01     -1.171875000000000E+02
4832000000.000000      6.102905000000000E-01      1.256543000000000E+01      4.993286000000000E-01     -1.177305000000000E+02
4833000000.000000      6.095581000000000E-01      1.247217000000000E+01      4.977264000000000E-01     -1.186055000000000E+02
4834000000.000000      6.084290000000000E-01      1.257764000000000E+01      4.988708000000000E-01     -1.195351000000000E+02
4835000000.000000      6.101685000000000E-01      1.265332000000000E+01      4.977875000000000E-01     -1.202539000000000E+02
4836000000.000000      6.103210000000000E-01      1.296387000000000E+01      4.966278000000000E-01     -1.209766000000000E+02
4837000000.000000      6.121216000000000E-01      1.308984000000000E+01      4.970856000000000E-01     -1.218555000000000E+02
4838000000.000000      6.112671000000000E-01      1.310498000000000E+01      4.973450000000000E-01     -1.224883000000000E+02
4839000000.000000      6.149902000000000E-01      1.336865000000000E+01      4.963226000000000E-01     -1.234570000000000E+02
4840000000.000000      6.123962000000000E-01      1.320947000000000E+01      4.947968000000000E-01     -1.241172000000000E+02
4841000000.000000      6.138306000000000E-01      1.353760000000000E+01      4.948730000000000E-01     -1.249726000000000E+02
4842000000.000000      6.127319000000000E-01      1.349512000000000E+01      4.942169000000000E-01     -1.256875000000000E+02
4843000000.000000      6.160889000000000E-01      1.353906000000000E+01      4.947662000000000E-01     -1.267344000000000E+02
4844000000.000000      6.158752000000000E-01      1.375195000000000E+01      4.920349000000000E-01     -1.274453000000000E+02
4845000000.000000      6.164856000000000E-01      1.378223000000000E+01      4.908905000000000E-01     -1.281719000000000E+02
4846000000.000000      6.163940000000000E-01      1.383447000000000E+01      4.906616000000000E-01     -1.290234000000000E+02
4847000000.000000      6.185303000000000E-01      1.389063000000000E+01      4.886322000000000E-01     -1.298437000000000E+02
4848000000.000000      6.174622000000000E-01      1.394434000000000E+01      4.862366000000000E-01     -1.306172000000000E+02
4849000000.000000      6.186829000000000E-01      1.400439000000000E+01      4.860229000000000E-01     -1.315703000000000E+02
4850000000.000000      6.210938000000000E-01      1.417480000000000E+01      4.829254000000000E-01     -1.322891000000000E+02
4851000000.000000      6.201477000000000E-01      1.439990000000000E+01      4.830627000000000E-01     -1.332656000000000E+02
4852000000.000000      6.206970000000000E-01      1.436035000000000E+01      4.793243000000000E-01     -1.341016000000000E+02
4853000000.000000      6.239319000000000E-01      1.425879000000000E+01      4.760895000000000E-01     -1.349453000000000E+02
4854000000.000000      6.255188000000000E-01      1.432324000000000E+01      4.748230000000000E-01     -1.360156000000000E+02
4855000000.000000      6.242676000000000E-01      1.422998000000000E+01      4.729156000000000E-01     -1.368281000000000E+02
4856000000.000000      6.261597000000000E-01      1.438477000000000E+01      4.712524000000000E-01     -1.373359000000000E+02
4857000000.000000      6.289063000000000E-01      1.444971000000000E+01      4.687042000000000E-01     -1.382891000000000E+02
4858000000.000000      6.287842000000000E-01      1.420898000000000E+01      4.654999000000000E-01     -1.390469000000000E+02
4859000000.000000      6.292419000000000E-01      1.427246000000000E+01      4.630432000000000E-01     -1.401016000000000E+02
4860000000.000000      6.334839000000000E-01      1.462549000000000E+01      4.589844000000000E-01     -1.407891000000000E+02
4861000000.000000      6.319580000000000E-01      1.441650000000000E+01      4.561310000000000E-01     -1.416875000000000E+02
4862000000.000000      6.309509000000000E-01      1.450879000000000E+01      4.550781000000000E-01     -1.424453000000000E+02
4863000000.000000      6.326599000000000E-01      1.458838000000000E+01      4.485626000000000E-01     -1.434844000000000E+02
4864000000.000000      6.342163000000000E-01      1.457471000000000E+01      4.462280000000000E-01     -1.440000000000000E+02
4865000000.000000      6.367188000000000E-01      1.453076000000000E+01      4.419556000000000E-01     -1.447969000000000E+02
4866000000.000000      6.378174000000000E-01      1.458984000000000E+01      4.380798000000000E-01     -1.457500000000000E+02
4867000000.000000      6.388245000000000E-01      1.453320000000000E+01      4.344788000000000E-01     -1.467109000000000E+02
4868000000.000000      6.408081000000000E-01      1.434521000000000E+01      4.310913000000000E-01     -1.473984000000000E+02
4869000000.000000      6.410217000000000E-01      1.451270000000000E+01      4.265442000000000E-01     -1.479766000000000E+02
4870000000.000000      6.433716000000000E-01      1.436035000000000E+01      4.217682000000000E-01     -1.485859000000000E+02
4871000000.000000      6.437073000000000E-01      1.433545000000000E+01      4.168243000000000E-01     -1.492656000000000E+02
4872000000.000000      6.454163000000000E-01      1.434229000000000E+01      4.136658000000000E-01     -1.500078000000000E+02
4873000000.000000      6.480103000000000E-01      1.435742000000000E+01      4.096527000000000E-01     -1.507031000000000E+02
4874000000.000000      6.452637000000000E-01      1.446484000000000E+01      4.046783000000000E-01     -1.515156000000000E+02
4875000000.000000      6.490479000000000E-01      1.413525000000000E+01      3.999786000000000E-01     -1.522031000000000E+02
4876000000.000000      6.518860000000000E-01      1.422705000000000E+01      3.967285000000000E-01     -1.527969000000000E+02
4877000000.000000      6.531067000000000E-01      1.408984000000000E+01      3.905334000000000E-01     -1.532891000000000E+02
4878000000.000000      6.527710000000000E-01      1.402246000000000E+01      3.867188000000000E-01     -1.541328000000000E+02
4879000000.000000      6.549988000000000E-01      1.412256000000000E+01      3.810425000000000E-01     -1.546172000000000E+02
4880000000.000000      6.573792000000000E-01      1.394678000000000E+01      3.774109000000000E-01     -1.552422000000000E+02
4881000000.000000      6.577759000000000E-01      1.397705000000000E+01      3.761902000000000E-01     -1.557109000000000E+02
4882000000.000000      6.602783000000000E-01      1.386719000000000E+01      3.693542000000000E-01     -1.563594000000000E+02
4883000000.000000      6.584167000000000E-01      1.375342000000000E+01      3.649902000000000E-01     -1.568594000000000E+02
4884000000.000000      6.617432000000000E-01      1.371631000000000E+01      3.602600000000000E-01     -1.574297000000000E+02
4885000000.000000      6.621399000000000E-01      1.366113000000000E+01      3.565979000000000E-01     -1.576719000000000E+02
4886000000.000000      6.647949000000000E-01      1.365967000000000E+01      3.523560000000000E-01     -1.583828000000000E+02
4887000000.000000      6.658936000000000E-01      1.358301000000000E+01      3.483887000000000E-01     -1.586094000000000E+02
4888000000.000000      6.631470000000000E-01      1.349121000000000E+01      3.443604000000000E-01     -1.592031000000000E+02
4889000000.000000      6.641235000000000E-01      1.357910000000000E+01      3.393707000000000E-01     -1.596094000000000E+02
4890000000.000000      6.651611000000000E-01      1.323682000000000E+01      3.350830000000000E-01     -1.601719000000000E+02
4891000000.000000      6.687317000000000E-01      1.317920000000000E+01      3.324890000000000E-01     -1.605937000000000E+02
4892000000.000000      6.696472000000000E-01      1.300342000000000E+01      3.259583000000000E-01     -1.605781000000000E+02
4893000000.000000      6.719055000000000E-01      1.287695000000000E+01      3.240662000000000E-01     -1.613359000000000E+02
4894000000.000000      6.704102000000000E-01      1.293213000000000E+01      3.205872000000000E-01     -1.617891000000000E+02
4895000000.000000      6.719055000000000E-01      1.289795000000000E+01      3.168945000000000E-01     -1.618594000000000E+02
4896000000.000000      6.735229000000000E-01      1.268066000000000E+01      3.119812000000000E-01     -1.625000000000000E+02
4897000000.000000      6.759338000000000E-01      1.269043000000000E+01      3.083649000000000E-01     -1.627422000000000E+02
4898000000.000000      6.757507000000000E-01      1.266992000000000E+01      3.041687000000000E-01     -1.631719000000000E+02
4899000000.000000      6.759949000000000E-01      1.252148000000000E+01      3.007507000000000E-01     -1.635469000000000E+02
4900000000.000000      6.769409000000000E-01      1.241699000000000E+01      2.966766000000000E-01     -1.637578000000000E+02
4901000000.000000      6.760559000000000E-01      1.241553000000000E+01      2.933502000000000E-01     -1.640859000000000E+02
4902000000.000000      6.788635000000000E-01      1.206006000000000E+01      2.903442000000000E-01     -1.642656000000000E+02
4903000000.000000      6.789551000000000E-01      1.215332000000000E+01      2.862701000000000E-01     -1.648125000000000E+02
4904000000.000000      6.800537000000000E-01      1.181543000000000E+01      2.822876000000000E-01     -1.652266000000000E+02
4905000000.000000      6.808777000000000E-01      1.196094000000000E+01      2.796173000000000E-01     -1.655391000000000E+02
4906000000.000000      6.801453000000000E-01      1.172363000000000E+01      2.763824000000000E-01     -1.655469000000000E+02
4907000000.000000      6.818848000000000E-01      1.162354000000000E+01      2.726746000000000E-01     -1.660781000000000E+02
4908000000.000000      6.815796000000000E-01      1.159570000000000E+01      2.694550000000000E-01     -1.665390000000000E+02
4909000000.000000      6.809692000000000E-01      1.148193000000000E+01      2.653351000000000E-01     -1.667031000000000E+02
4910000000.000000      6.834412000000000E-01      1.146973000000000E+01      2.619629000000000E-01     -1.669219000000000E+02
4911000000.000000      6.833496000000000E-01      1.135254000000000E+01      2.588196000000000E-01     -1.672109000000000E+02
4912000000.000000      6.846313000000000E-01      1.127197000000000E+01      2.549286000000000E-01     -1.676250000000000E+02
4913000000.000000      6.867676000000000E-01      1.102734000000000E+01      2.514343000000000E-01     -1.679844000000000E+02
4914000000.000000      6.863403000000000E-01      1.091455000000000E+01      2.477722000000000E-01     -1.679453000000000E+02
4915000000.000000      6.853638000000000E-01      1.103271000000000E+01      2.438354000000000E-01     -1.685469000000000E+02
4916000000.000000      6.875305000000000E-01      1.085693000000000E+01      2.407913000000000E-01     -1.689531000000000E+02
4917000000.000000      6.869812000000000E-01      1.060303000000000E+01      2.373810000000000E-01     -1.689531000000000E+02
4918000000.000000      6.896362000000000E-01      1.065088000000000E+01      2.329865000000000E-01     -1.690938000000000E+02
4919000000.000000      6.889038000000000E-01      1.053174000000000E+01      2.302017000000000E-01     -1.691719000000000E+02
4920000000.000000      6.905518000000000E-01      1.037646000000000E+01      2.257156000000000E-01     -1.697422000000000E+02
4921000000.000000      6.891785000000000E-01      1.049316000000000E+01      2.228317000000000E-01     -1.698672000000000E+02
4922000000.000000      6.894531000000000E-01      1.031299000000000E+01      2.196732000000000E-01     -1.699297000000000E+02
4923000000.000000      6.894226000000000E-01      1.028564000000000E+01      2.154160000000000E-01     -1.701719000000000E+02
4924000000.000000      6.908569000000000E-01      1.022949000000000E+01      2.114563000000000E-01     -1.703516000000000E+02
4925000000.000000      6.913757000000000E-01      9.939453000000000E+00      2.079315000000000E-01     -1.705312000000000E+02
4926000000.000000      6.918945000000000E-01      9.902344000000000E+00      2.043381000000000E-01     -1.706250000000000E+02
4927000000.000000      6.912231000000000E-01      9.736328000000000E+00      2.006149000000000E-01     -1.708125000000000E+02
4928000000.000000      6.935425000000000E-01      9.614258000000000E+00      1.966019000000000E-01     -1.706563000000000E+02
4929000000.000000      6.949463000000000E-01      9.471191000000000E+00      1.925964000000000E-01     -1.708594000000000E+02
4930000000.000000      6.952820000000000E-01      9.641602000000000E+00      1.896439000000000E-01     -1.708984000000000E+02
4931000000.000000      6.941528000000000E-01      9.395996000000000E+00      1.860657000000000E-01     -1.708594000000000E+02
4932000000.000000      6.945801000000000E-01      9.174805000000000E+00      1.819458000000000E-01     -1.708828000000000E+02
4933000000.000000      6.934509000000000E-01      9.185547000000000E+00      1.778183000000000E-01     -1.705234000000000E+02
4934000000.000000      6.963501000000000E-01      9.038574000000000E+00      1.739197000000000E-01     -1.705547000000000E+02
4935000000.000000      6.954956000000000E-01      9.099121000000000E+00      1.708221000000000E-01     -1.702422000000000E+02
4936000000.000000      6.953430000000000E-01      8.811035000000000E+00      1.667328000000000E-01     -1.698672000000000E+02
4937000000.000000      6.989136000000000E-01      8.693848000000000E+00      1.632080000000000E-01     -1.699219000000000E+02
4938000000.000000      6.958923000000000E-01      8.806641000000000E+00      1.599426000000000E-01     -1.694219000000000E+02
4939000000.000000      6.983643000000000E-01      8.673340000000000E+00      1.565247000000000E-01     -1.692266000000000E+02
4940000000.000000      6.976929000000000E-01      8.618652000000000E+00      1.523438000000000E-01     -1.690156000000000E+02
4941000000.000000      7.009583000000000E-01      8.375488000000000E+00      1.493301000000000E-01     -1.681953000000000E+02
4942000000.000000      6.996765000000000E-01      8.434570000000000E+00      1.456375000000000E-01     -1.677344000000000E+02
4943000000.000000      6.991882000000000E-01      8.106445000000000E+00      1.425018000000000E-01     -1.671172000000000E+02
4944000000.000000      6.994019000000000E-01      8.048828000000000E+00      1.396103000000000E-01     -1.664219000000000E+02
4945000000.000000      7.020569000000000E-01      8.108887000000000E+00      1.355972000000000E-01     -1.656953000000000E+02
4946000000.000000      7.018127000000000E-01      7.903076000000000E+00      1.329117000000000E-01     -1.648750000000000E+02
4947000000.000000      7.002258000000000E-01      7.650391000000000E+00      1.299286000000000E-01     -1.639062000000000E+02
4948000000.000000      7.031555000000000E-01      7.704102000000000E+00      1.266708000000000E-01     -1.629141000000000E+02
4949000000.000000      7.018127000000000E-01      7.540527000000000E+00      1.241913000000000E-01     -1.617500000000000E+02
4950000000.000000      7.041321000000000E-01      7.437744000000000E+00      1.218071000000000E-01     -1.606250000000000E+02
4951000000.000000      7.029114000000000E-01      7.370361000000000E+00      1.191597000000000E-01     -1.595391000000000E+02
4952000000.000000      7.043457000000000E-01      7.436279000000000E+00      1.165466000000000E-01     -1.581797000000000E+02
4953000000.000000      7.047424000000000E-01      7.177979000000000E+00      1.150436000000000E-01     -1.568359000000000E+02
4954000000.000000      7.067261000000000E-01      7.093018000000000E+00      1.128426000000000E-01     -1.552031000000000E+02
