! Network Analyzer HP8722D
! Hewlett-Packard
! Data name: Linha & Wilkinson
! Saver's name: Rodrigo Anjos
! Comments: Teste da utilização de aquisição
continua pelo VNA HP8722D
! Time and date: 22/5/2025 11:10
!              Frequency                     S11                                                   S21                                                   S12                                                   S22
# HZ  S  MA R 50
4800000000.000000      6.520691000000000E-01      1.052197000000000E+01      4.712372000000000E-01     -9.275000000000000E+01
4801000000.000000      6.496582000000000E-01      1.075000000000000E+01      4.709930000000000E-01     -9.325390000000000E+01
4802000000.000000      6.478271000000000E-01      1.066895000000000E+01      4.738464000000000E-01     -9.413671000000000E+01
4803000000.000000      6.466370000000000E-01      1.067139000000000E+01      4.782867000000000E-01     -9.465624000000000E+01
4804000000.000000      6.456909000000000E-01      1.075928000000000E+01      4.787903000000000E-01     -9.557421000000000E+01
4805000000.000000      6.437073000000000E-01      1.054248000000000E+01      4.798737000000000E-01     -9.642578000000000E+01
4806000000.000000      6.428223000000000E-01      1.064404000000000E+01      4.809418000000000E-01     -9.715624000000000E+01
4807000000.000000      6.381226000000000E-01      1.063477000000000E+01      4.835663000000000E-01     -9.784374000000000E+01
4808000000.000000      6.374817000000000E-01      1.071826000000000E+01      4.844360000000000E-01     -9.853125000000000E+01
4809000000.000000      6.363831000000000E-01      1.100000000000000E+01      4.849854000000000E-01     -9.947266000000000E+01
4810000000.000000      6.344299000000000E-01      1.075000000000000E+01      4.879608000000000E-01     -1.000391000000000E+02
4811000000.000000      6.344604000000000E-01      1.084473000000000E+01      4.903107000000000E-01     -1.010117000000000E+02
4812000000.000000      6.336365000000000E-01      1.084326000000000E+01      4.911346000000000E-01     -1.018476000000000E+02
4813000000.000000      6.312561000000000E-01      1.098877000000000E+01      4.903107000000000E-01     -1.024453000000000E+02
4814000000.000000      6.297302000000000E-01      1.094922000000000E+01      4.917755000000000E-01     -1.030937000000000E+02
4815000000.000000      6.281433000000000E-01      1.107422000000000E+01      4.909058000000000E-01     -1.039453000000000E+02
4816000000.000000      6.279907000000000E-01      1.109326000000000E+01      4.953918000000000E-01     -1.046953000000000E+02
4817000000.000000      6.242065000000000E-01      1.129932000000000E+01      4.944000000000000E-01     -1.053867000000000E+02
4818000000.000000      6.238098000000000E-01      1.120459000000000E+01      4.937134000000000E-01     -1.061211000000000E+02
4819000000.000000      6.224365000000000E-01      1.137744000000000E+01      4.950256000000000E-01     -1.069102000000000E+02
4820000000.000000      6.205139000000000E-01      1.143652000000000E+01      4.966583000000000E-01     -1.074961000000000E+02
4821000000.000000      6.225891000000000E-01      1.138721000000000E+01      4.973450000000000E-01     -1.086211000000000E+02
4822000000.000000      6.188049000000000E-01      1.151758000000000E+01      4.950714000000000E-01     -1.092500000000000E+02
4823000000.000000      6.187439000000000E-01      1.158203000000000E+01      4.990692000000000E-01     -1.098008000000000E+02
4824000000.000000      6.187744000000000E-01      1.177734000000000E+01      4.970551000000000E-01     -1.108047000000000E+02
4825000000.000000      6.186218000000000E-01      1.183057000000000E+01      4.977417000000000E-01     -1.114180000000000E+02
4826000000.000000      6.166382000000000E-01      1.181982000000000E+01      4.981842000000000E-01     -1.122695000000000E+02
4827000000.000000      6.153870000000000E-01      1.207764000000000E+01      4.978180000000000E-01     -1.128477000000000E+02
4828000000.000000      6.152344000000000E-01      1.211377000000000E+01      4.996338000000000E-01     -1.134961000000000E+02
4829000000.000000      6.146851000000000E-01      1.241553000000000E+01      4.995880000000000E-01     -1.143711000000000E+02
4830000000.000000      6.165771000000000E-01      1.258594000000000E+01      4.989624000000000E-01     -1.151367000000000E+02
4831000000.000000      6.141663000000000E-01      1.267383000000000E+01      4.987030000000000E-01     -1.160000000000000E+02
4832000000.000000      6.131287000000000E-01      1.296777000000000E+01      4.984436000000000E-01     -1.165039000000000E+02
4833000000.000000      6.137085000000000E-01      1.267090000000000E+01      4.989014000000000E-01     -1.173203000000000E+02
4834000000.000000      6.125488000000000E-01      1.291016000000000E+01      4.989471000000000E-01     -1.182773000000000E+02
4835000000.000000      6.141357000000000E-01      1.296631000000000E+01      4.990845000000000E-01     -1.191211000000000E+02
4836000000.000000      6.133118000000000E-01      1.322998000000000E+01      4.973755000000000E-01     -1.197578000000000E+02
4837000000.000000      6.134033000000000E-01      1.330713000000000E+01      4.963989000000000E-01     -1.206992000000000E+02
4838000000.000000      6.130066000000000E-01      1.344580000000000E+01      4.989319000000000E-01     -1.212852000000000E+02
4839000000.000000      6.161499000000000E-01      1.360205000000000E+01      4.989471000000000E-01     -1.222070000000000E+02
4840000000.000000      6.149597000000000E-01      1.340430000000000E+01      4.987946000000000E-01     -1.228437000000000E+02
4841000000.000000      6.142883000000000E-01      1.364209000000000E+01      4.973602000000000E-01     -1.237266000000000E+02
4842000000.000000      6.159363000000000E-01      1.371191000000000E+01      4.962616000000000E-01     -1.245000000000000E+02
4843000000.000000      6.194153000000000E-01      1.381104000000000E+01      4.958801000000000E-01     -1.254023000000000E+02
4844000000.000000      6.173096000000000E-01      1.381348000000000E+01      4.938049000000000E-01     -1.261328000000000E+02
4845000000.000000      6.177979000000000E-01      1.405957000000000E+01      4.933929000000000E-01     -1.270937000000000E+02
4846000000.000000      6.205444000000000E-01      1.422168000000000E+01      4.915466000000000E-01     -1.278906000000000E+02
4847000000.000000      6.210938000000000E-01      1.428076000000000E+01      4.909515000000000E-01     -1.284531000000000E+02
4848000000.000000      6.193848000000000E-01      1.429297000000000E+01      4.889526000000000E-01     -1.294453000000000E+02
4849000000.000000      6.212463000000000E-01      1.426025000000000E+01      4.890137000000000E-01     -1.303906000000000E+02
4850000000.000000      6.215210000000000E-01      1.447998000000000E+01      4.853363000000000E-01     -1.309766000000000E+02
4851000000.000000      6.234436000000000E-01      1.444141000000000E+01      4.850311000000000E-01     -1.320078000000000E+02
4852000000.000000      6.249084000000000E-01      1.453613000000000E+01      4.824829000000000E-01     -1.329453000000000E+02
4853000000.000000      6.258545000000000E-01      1.433838000000000E+01      4.781647000000000E-01     -1.337812000000000E+02
4854000000.000000      6.273193000000000E-01      1.462646000000000E+01      4.779358000000000E-01     -1.345625000000000E+02
4855000000.000000      6.261292000000000E-01      1.462793000000000E+01      4.764252000000000E-01     -1.357031000000000E+02
4856000000.000000      6.288757000000000E-01      1.443604000000000E+01      4.728088000000000E-01     -1.363047000000000E+02
4857000000.000000      6.305237000000000E-01      1.489746000000000E+01      4.718475000000000E-01     -1.372031000000000E+02
4858000000.000000      6.294250000000000E-01      1.497266000000000E+01      4.694366000000000E-01     -1.380078000000000E+02
4859000000.000000      6.314697000000000E-01      1.477100000000000E+01      4.651184000000000E-01     -1.388359000000000E+02
4860000000.000000      6.332703000000000E-01      1.477930000000000E+01      4.626923000000000E-01     -1.396797000000000E+02
4861000000.000000      6.350098000000000E-01      1.478760000000000E+01      4.595337000000000E-01     -1.406094000000000E+02
4862000000.000000      6.344299000000000E-01      1.473389000000000E+01      4.572144000000000E-01     -1.411328000000000E+02
4863000000.000000      6.344604000000000E-01      1.484619000000000E+01      4.524231000000000E-01     -1.421953000000000E+02
4864000000.000000      6.385193000000000E-01      1.475439000000000E+01      4.492645000000000E-01     -1.430156000000000E+02
4865000000.000000      6.394043000000000E-01      1.469141000000000E+01      4.449768000000000E-01     -1.437187000000000E+02
4866000000.000000      6.394043000000000E-01      1.476123000000000E+01      4.424133000000000E-01     -1.445703000000000E+02
4867000000.000000      6.418762000000000E-01      1.476270000000000E+01      4.386292000000000E-01     -1.453750000000000E+02
4868000000.000000      6.430969000000000E-01      1.463477000000000E+01      4.357910000000000E-01     -1.462422000000000E+02
4869000000.000000      6.440735000000000E-01      1.472852000000000E+01      4.314728000000000E-01     -1.468906000000000E+02
4870000000.000000      6.445007000000000E-01      1.481738000000000E+01      4.270172000000000E-01     -1.476406000000000E+02
4871000000.000000      6.439514000000000E-01      1.461279000000000E+01      4.215698000000000E-01     -1.485234000000000E+02
4872000000.000000      6.478577000000000E-01      1.474609000000000E+01      4.191742000000000E-01     -1.492031000000000E+02
4873000000.000000      6.493530000000000E-01      1.458008000000000E+01      4.126892000000000E-01     -1.497734000000000E+02
4874000000.000000      6.510315000000000E-01      1.483154000000000E+01      4.079895000000000E-01     -1.505781000000000E+02
4875000000.000000      6.498413000000000E-01      1.458545000000000E+01      4.044952000000000E-01     -1.512187000000000E+02
4876000000.000000      6.527100000000000E-01      1.462793000000000E+01      4.013672000000000E-01     -1.517734000000000E+02
4877000000.000000      6.541443000000000E-01      1.439453000000000E+01      3.957672000000000E-01     -1.526172000000000E+02
4878000000.000000      6.536560000000000E-01      1.436426000000000E+01      3.921051000000000E-01     -1.532109000000000E+02
4879000000.000000      6.555786000000000E-01      1.450293000000000E+01      3.866882000000000E-01     -1.534531000000000E+02
4880000000.000000      6.578064000000000E-01      1.429834000000000E+01      3.823242000000000E-01     -1.544141000000000E+02
4881000000.000000      6.581421000000000E-01      1.429688000000000E+01      3.778076000000000E-01     -1.545547000000000E+02
4882000000.000000      6.598511000000000E-01      1.439063000000000E+01      3.743286000000000E-01     -1.555469000000000E+02
4883000000.000000      6.589050000000000E-01      1.413525000000000E+01      3.701324000000000E-01     -1.561484000000000E+02
4884000000.000000      6.619263000000000E-01      1.414307000000000E+01      3.657684000000000E-01     -1.566641000000000E+02
4885000000.000000      6.642456000000000E-01      1.406494000000000E+01      3.615265000000000E-01     -1.570078000000000E+02
4886000000.000000      6.654663000000000E-01      1.396631000000000E+01      3.572235000000000E-01     -1.573672000000000E+02
4887000000.000000      6.662598000000000E-01      1.392773000000000E+01      3.525543000000000E-01     -1.581484000000000E+02
4888000000.000000      6.671143000000000E-01      1.372461000000000E+01      3.492432000000000E-01     -1.584766000000000E+02
4889000000.000000      6.662598000000000E-01      1.387012000000000E+01      3.421936000000000E-01     -1.590469000000000E+02
4890000000.000000      6.681824000000000E-01      1.349219000000000E+01      3.383484000000000E-01     -1.597109000000000E+02
4891000000.000000      6.707764000000000E-01      1.350879000000000E+01      3.354492000000000E-01     -1.599219000000000E+02
4892000000.000000      6.712341000000000E-01      1.357178000000000E+01      3.303223000000000E-01     -1.599531000000000E+02
4893000000.000000      6.710205000000000E-01      1.335107000000000E+01      3.265228000000000E-01     -1.607109000000000E+02
4894000000.000000      6.708069000000000E-01      1.331396000000000E+01      3.229828000000000E-01     -1.610312000000000E+02
4895000000.000000      6.764221000000000E-01      1.318750000000000E+01      3.214569000000000E-01     -1.613281000000000E+02
4896000000.000000      6.750183000000000E-01      1.308154000000000E+01      3.170166000000000E-01     -1.618672000000000E+02
4897000000.000000      6.742859000000000E-01      1.304883000000000E+01      3.122711000000000E-01     -1.622578000000000E+02
4898000000.000000      6.765137000000000E-01      1.297070000000000E+01      3.091125000000000E-01     -1.625703000000000E+02
4899000000.000000      6.784058000000000E-01      1.292383000000000E+01      3.047791000000000E-01     -1.630312000000000E+02
4900000000.000000      6.795044000000000E-01      1.270801000000000E+01      3.008575000000000E-01     -1.634063000000000E+02
4901000000.000000      6.784058000000000E-01      1.271240000000000E+01      2.977448000000000E-01     -1.634766000000000E+02
4902000000.000000      6.801453000000000E-01      1.252832000000000E+01      2.948761000000000E-01     -1.637812000000000E+02
4903000000.000000      6.816101000000000E-01      1.250635000000000E+01      2.899170000000000E-01     -1.642187000000000E+02
4904000000.000000      6.817627000000000E-01      1.232764000000000E+01      2.857361000000000E-01     -1.645469000000000E+02
4905000000.000000      6.821899000000000E-01      1.240723000000000E+01      2.835693000000000E-01     -1.648906000000000E+02
4906000000.000000      6.825867000000000E-01      1.205859000000000E+01      2.800140000000000E-01     -1.649375000000000E+02
4907000000.000000      6.836243000000000E-01      1.196680000000000E+01      2.771149000000000E-01     -1.656250000000000E+02
4908000000.000000      6.843567000000000E-01      1.197754000000000E+01      2.733765000000000E-01     -1.660000000000000E+02
4909000000.000000      6.838989000000000E-01      1.199121000000000E+01      2.692413000000000E-01     -1.662109000000000E+02
4910000000.000000      6.843262000000000E-01      1.186768000000000E+01      2.663116000000000E-01     -1.665234000000000E+02
4911000000.000000      6.846008000000000E-01      1.175928000000000E+01      2.635193000000000E-01     -1.666797000000000E+02
4912000000.000000      6.878357000000000E-01      1.170020000000000E+01      2.588806000000000E-01     -1.672969000000000E+02
4913000000.000000      6.877136000000000E-01      1.155469000000000E+01      2.555389000000000E-01     -1.674453000000000E+02
4914000000.000000      6.878357000000000E-01      1.142285000000000E+01      2.518005000000000E-01     -1.676641000000000E+02
4915000000.000000      6.871948000000000E-01      1.136768000000000E+01      2.477875000000000E-01     -1.682109000000000E+02
4916000000.000000      6.890259000000000E-01      1.115381000000000E+01      2.446365000000000E-01     -1.686016000000000E+02
4917000000.000000      6.885986000000000E-01      1.122656000000000E+01      2.411804000000000E-01     -1.685547000000000E+02
4918000000.000000      6.895142000000000E-01      1.111230000000000E+01      2.374268000000000E-01     -1.689922000000000E+02
4919000000.000000      6.892700000000000E-01      1.086670000000000E+01      2.342148000000000E-01     -1.690938000000000E+02
4920000000.000000      6.914673000000000E-01      1.075684000000000E+01      2.306519000000000E-01     -1.695859000000000E+02
4921000000.000000      6.911011000000000E-01      1.078418000000000E+01      2.277832000000000E-01     -1.695156000000000E+02
4922000000.000000      6.929932000000000E-01      1.068115000000000E+01      2.230530000000000E-01     -1.696484000000000E+02
4923000000.000000      6.918945000000000E-01      1.038184000000000E+01      2.192001000000000E-01     -1.698359000000000E+02
4924000000.000000      6.937256000000000E-01      1.043262000000000E+01      2.153244000000000E-01     -1.701875000000000E+02
4925000000.000000      6.933594000000000E-01      1.034180000000000E+01      2.119598000000000E-01     -1.703594000000000E+02
4926000000.000000      6.929321000000000E-01      1.023486000000000E+01      2.080612000000000E-01     -1.703750000000000E+02
4927000000.000000      6.953430000000000E-01      1.022949000000000E+01      2.038345000000000E-01     -1.706875000000000E+02
4928000000.000000      6.965637000000000E-01      9.931641000000000E+00      2.007904000000000E-01     -1.707734000000000E+02
4929000000.000000      6.958008000000000E-01      9.876465000000000E+00      1.964188000000000E-01     -1.708125000000000E+02
4930000000.000000      6.949158000000000E-01      9.825684000000000E+00      1.932831000000000E-01     -1.709141000000000E+02
4931000000.000000      6.938477000000000E-01      9.776367000000000E+00      1.898651000000000E-01     -1.708203000000000E+02
4932000000.000000      6.962280000000000E-01      9.670410000000000E+00      1.858902000000000E-01     -1.709219000000000E+02
4933000000.000000      6.974792000000000E-01      9.448242000000000E+00      1.818314000000000E-01     -1.706797000000000E+02
4934000000.000000      6.981812000000000E-01      9.486328000000000E+00      1.778946000000000E-01     -1.708203000000000E+02
4935000000.000000      6.979370000000000E-01      9.228516000000000E+00      1.742325000000000E-01     -1.705000000000000E+02
4936000000.000000      6.973267000000000E-01      9.264160000000000E+00      1.701660000000000E-01     -1.705000000000000E+02
4937000000.000000      6.984253000000000E-01      9.051270000000000E+00      1.669083000000000E-01     -1.702969000000000E+02
4938000000.000000      6.991272000000000E-01      9.202148000000000E+00      1.633759000000000E-01     -1.699531000000000E+02
4939000000.000000      7.005310000000000E-01      8.971680000000000E+00      1.593933000000000E-01     -1.694375000000000E+02
4940000000.000000      6.997986000000000E-01      8.875488000000000E+00      1.555939000000000E-01     -1.692031000000000E+02
4941000000.000000      7.001953000000000E-01      8.629395000000000E+00      1.521454000000000E-01     -1.688359000000000E+02
4942000000.000000      7.012634000000000E-01      8.452148000000000E+00      1.487274000000000E-01     -1.684062000000000E+02
4943000000.000000      7.020874000000000E-01      8.725586000000000E+00      1.454620000000000E-01     -1.677656000000000E+02
4944000000.000000      7.019348000000000E-01      8.301270000000000E+00      1.419373000000000E-01     -1.672266000000000E+02
4945000000.000000      7.018738000000000E-01      8.319336000000000E+00      1.385574000000000E-01     -1.664219000000000E+02
4946000000.000000      7.024231000000000E-01      8.341309000000000E+00      1.351395000000000E-01     -1.657266000000000E+02
4947000000.000000      7.018433000000000E-01      8.152832000000000E+00      1.322098000000000E-01     -1.652109000000000E+02
4948000000.000000      7.062378000000000E-01      8.100586000000000E+00      1.293945000000000E-01     -1.640078000000000E+02
4949000000.000000      7.033691000000000E-01      7.958008000000000E+00      1.269684000000000E-01     -1.629688000000000E+02
4950000000.000000      7.040405000000000E-01      7.904541000000000E+00      1.237602000000000E-01     -1.619141000000000E+02
4951000000.000000      7.058716000000000E-01      7.794678000000000E+00      1.207542000000000E-01     -1.607891000000000E+02
4952000000.000000      7.068176000000000E-01      7.844238000000000E+00      1.181908000000000E-01     -1.594687000000000E+02
4953000000.000000      7.069092000000000E-01      7.624512000000000E+00      1.159935000000000E-01     -1.582344000000000E+02
4954000000.000000      7.097473000000000E-01      7.436279000000000E+00      1.138420000000000E-01     -1.567969000000000E+02
