! Network Analyzer HP8722D
! Hewlett-Packard
! Data name: Linha & Wilkinson
! Saver's name: Rodrigo Anjos
! Comments: Teste da utilização de aquisição
continua pelo VNA HP8722D
! Time and date: 22/5/2025 14:40
!              Frequency                     S11                                                   S21                                                   S12                                                   S22
# HZ  S  MA R 50
4800000000.000000      6.532593000000000E-01      1.081152000000000E+01      4.706421000000000E-01     -9.198046000000000E+01
4801000000.000000      6.503601000000000E-01      1.102734000000000E+01      4.720306000000000E-01     -9.269140000000000E+01
4802000000.000000      6.492004000000000E-01      1.100391000000000E+01      4.744263000000000E-01     -9.334375000000000E+01
4803000000.000000      6.482239000000000E-01      1.090625000000000E+01      4.785767000000000E-01     -9.421093000000000E+01
4804000000.000000      6.441650000000000E-01      1.105908000000000E+01      4.797058000000000E-01     -9.494532000000000E+01
4805000000.000000      6.445923000000000E-01      1.091455000000000E+01      4.793396000000000E-01     -9.569530000000000E+01
4806000000.000000      6.423950000000000E-01      1.094775000000000E+01      4.814911000000000E-01     -9.682812000000000E+01
4807000000.000000      6.408386000000000E-01      1.081836000000000E+01      4.813080000000000E-01     -9.735937000000000E+01
4808000000.000000      6.379395000000000E-01      1.074023000000000E+01      4.830322000000000E-01     -9.793358000000000E+01
4809000000.000000      6.381531000000000E-01      1.086523000000000E+01      4.852448000000000E-01     -9.889061000000000E+01
4810000000.000000      6.362000000000000E-01      1.101367000000000E+01      4.889221000000000E-01     -9.957811000000000E+01
4811000000.000000      6.352539000000000E-01      1.096533000000000E+01      4.892731000000000E-01     -1.003281000000000E+02
4812000000.000000      6.357117000000000E-01      1.118799000000000E+01      4.906158000000000E-01     -1.008711000000000E+02
4813000000.000000      6.335449000000000E-01      1.111084000000000E+01      4.898071000000000E-01     -1.018555000000000E+02
4814000000.000000      6.294556000000000E-01      1.114111000000000E+01      4.915619000000000E-01     -1.024648000000000E+02
4815000000.000000      6.275940000000000E-01      1.116895000000000E+01      4.920349000000000E-01     -1.030625000000000E+02
4816000000.000000      6.282959000000000E-01      1.126904000000000E+01      4.941101000000000E-01     -1.040351000000000E+02
4817000000.000000      6.261292000000000E-01      1.155469000000000E+01      4.940338000000000E-01     -1.047969000000000E+02
4818000000.000000      6.262817000000000E-01      1.134180000000000E+01      4.964294000000000E-01     -1.054961000000000E+02
4819000000.000000      6.234436000000000E-01      1.143945000000000E+01      4.950562000000000E-01     -1.063047000000000E+02
4820000000.000000      6.213684000000000E-01      1.174268000000000E+01      4.958801000000000E-01     -1.069453000000000E+02
4821000000.000000      6.206970000000000E-01      1.177734000000000E+01      4.979858000000000E-01     -1.078359000000000E+02
4822000000.000000      6.186523000000000E-01      1.160156000000000E+01      4.970398000000000E-01     -1.084531000000000E+02
4823000000.000000      6.199341000000000E-01      1.181836000000000E+01      4.983826000000000E-01     -1.094023000000000E+02
4824000000.000000      6.173401000000000E-01      1.201074000000000E+01      4.982452000000000E-01     -1.101328000000000E+02
4825000000.000000      6.172180000000000E-01      1.209424000000000E+01      4.974213000000000E-01     -1.107851000000000E+02
4826000000.000000      6.181335000000000E-01      1.194580000000000E+01      4.987030000000000E-01     -1.117461000000000E+02
4827000000.000000      6.161804000000000E-01      1.229736000000000E+01      4.991302000000000E-01     -1.123086000000000E+02
4828000000.000000      6.169739000000000E-01      1.245850000000000E+01      5.010071000000000E-01     -1.130430000000000E+02
4829000000.000000      6.152649000000000E-01      1.257617000000000E+01      5.004578000000000E-01     -1.138047000000000E+02
4830000000.000000      6.150818000000000E-01      1.262158000000000E+01      5.013428000000000E-01     -1.146172000000000E+02
4831000000.000000      6.157532000000000E-01      1.268506000000000E+01      5.005798000000000E-01     -1.151914000000000E+02
4832000000.000000      6.137390000000000E-01      1.277393000000000E+01      4.999695000000000E-01     -1.159766000000000E+02
4833000000.000000      6.116943000000000E-01      1.278516000000000E+01      4.995117000000000E-01     -1.166328000000000E+02
4834000000.000000      6.123962000000000E-01      1.292236000000000E+01      4.997711000000000E-01     -1.175859000000000E+02
4835000000.000000      6.142883000000000E-01      1.308447000000000E+01      4.999390000000000E-01     -1.183789000000000E+02
4836000000.000000      6.149292000000000E-01      1.330811000000000E+01      4.988251000000000E-01     -1.190547000000000E+02
4837000000.000000      6.142578000000000E-01      1.338232000000000E+01      4.992523000000000E-01     -1.200312000000000E+02
4838000000.000000      6.120300000000000E-01      1.349658000000000E+01      4.989624000000000E-01     -1.207422000000000E+02
4839000000.000000      6.172180000000000E-01      1.368750000000000E+01      4.991302000000000E-01     -1.213633000000000E+02
4840000000.000000      6.158447000000000E-01      1.353906000000000E+01      4.981232000000000E-01     -1.223398000000000E+02
4841000000.000000      6.154785000000000E-01      1.386475000000000E+01      4.984894000000000E-01     -1.232422000000000E+02
4842000000.000000      6.158447000000000E-01      1.389355000000000E+01      4.970398000000000E-01     -1.237734000000000E+02
4843000000.000000      6.189575000000000E-01      1.393066000000000E+01      4.972687000000000E-01     -1.248750000000000E+02
4844000000.000000      6.173096000000000E-01      1.409668000000000E+01      4.960175000000000E-01     -1.255508000000000E+02
4845000000.000000      6.176147000000000E-01      1.429297000000000E+01      4.940033000000000E-01     -1.263555000000000E+02
4846000000.000000      6.205444000000000E-01      1.436182000000000E+01      4.930725000000000E-01     -1.273047000000000E+02
4847000000.000000      6.195679000000000E-01      1.443311000000000E+01      4.928741000000000E-01     -1.279688000000000E+02
4848000000.000000      6.202393000000000E-01      1.438916000000000E+01      4.893036000000000E-01     -1.288203000000000E+02
4849000000.000000      6.208496000000000E-01      1.435352000000000E+01      4.898224000000000E-01     -1.296641000000000E+02
4850000000.000000      6.208496000000000E-01      1.453320000000000E+01      4.887543000000000E-01     -1.304453000000000E+02
4851000000.000000      6.227417000000000E-01      1.475977000000000E+01      4.862213000000000E-01     -1.314062000000000E+02
4852000000.000000      6.238403000000000E-01      1.449219000000000E+01      4.834595000000000E-01     -1.323125000000000E+02
4853000000.000000      6.254578000000000E-01      1.468164000000000E+01      4.804230000000000E-01     -1.332266000000000E+02
4854000000.000000      6.250916000000000E-01      1.484229000000000E+01      4.799347000000000E-01     -1.341016000000000E+02
4855000000.000000      6.262207000000000E-01      1.484619000000000E+01      4.792480000000000E-01     -1.347969000000000E+02
4856000000.000000      6.281738000000000E-01      1.485596000000000E+01      4.751282000000000E-01     -1.356562000000000E+02
4857000000.000000      6.278381000000000E-01      1.499609000000000E+01      4.751892000000000E-01     -1.364141000000000E+02
4858000000.000000      6.301575000000000E-01      1.475977000000000E+01      4.711304000000000E-01     -1.373203000000000E+02
4859000000.000000      6.304626000000000E-01      1.490137000000000E+01      4.692535000000000E-01     -1.383828000000000E+02
4860000000.000000      6.309509000000000E-01      1.504395000000000E+01      4.654541000000000E-01     -1.390859000000000E+02
4861000000.000000      6.310425000000000E-01      1.508789000000000E+01      4.621887000000000E-01     -1.400469000000000E+02
4862000000.000000      6.330261000000000E-01      1.484619000000000E+01      4.587860000000000E-01     -1.406953000000000E+02
4863000000.000000      6.354370000000000E-01      1.500977000000000E+01      4.556122000000000E-01     -1.419297000000000E+02
4864000000.000000      6.366577000000000E-01      1.511963000000000E+01      4.521027000000000E-01     -1.424219000000000E+02
4865000000.000000      6.362915000000000E-01      1.513477000000000E+01      4.487762000000000E-01     -1.432188000000000E+02
4866000000.000000      6.376648000000000E-01      1.501660000000000E+01      4.448547000000000E-01     -1.441015000000000E+02
4867000000.000000      6.383972000000000E-01      1.509521000000000E+01      4.408569000000000E-01     -1.450312000000000E+02
4868000000.000000      6.411133000000000E-01      1.495898000000000E+01      4.364166000000000E-01     -1.458594000000000E+02
4869000000.000000      6.416016000000000E-01      1.509375000000000E+01      4.333649000000000E-01     -1.465469000000000E+02
4870000000.000000      6.437073000000000E-01      1.500293000000000E+01      4.290466000000000E-01     -1.471094000000000E+02
4871000000.000000      6.444092000000000E-01      1.495898000000000E+01      4.249573000000000E-01     -1.480469000000000E+02
4872000000.000000      6.475525000000000E-01      1.491211000000000E+01      4.203033000000000E-01     -1.483672000000000E+02
4873000000.000000      6.483154000000000E-01      1.497803000000000E+01      4.148560000000000E-01     -1.493359000000000E+02
4874000000.000000      6.475830000000000E-01      1.485889000000000E+01      4.125214000000000E-01     -1.502500000000000E+02
4875000000.000000      6.509094000000000E-01      1.483691000000000E+01      4.058380000000000E-01     -1.505938000000000E+02
4876000000.000000      6.506348000000000E-01      1.476416000000000E+01      4.045410000000000E-01     -1.514297000000000E+02
4877000000.000000      6.535950000000000E-01      1.464453000000000E+01      3.989716000000000E-01     -1.522734000000000E+02
4878000000.000000      6.532288000000000E-01      1.486572000000000E+01      3.947906000000000E-01     -1.527031000000000E+02
4879000000.000000      6.556702000000000E-01      1.469678000000000E+01      3.896332000000000E-01     -1.531563000000000E+02
4880000000.000000      6.571655000000000E-01      1.453320000000000E+01      3.873291000000000E-01     -1.538359000000000E+02
4881000000.000000      6.589355000000000E-01      1.467041000000000E+01      3.817139000000000E-01     -1.543906000000000E+02
4882000000.000000      6.607056000000000E-01      1.449609000000000E+01      3.781281000000000E-01     -1.551406000000000E+02
4883000000.000000      6.597290000000000E-01      1.426416000000000E+01      3.728943000000000E-01     -1.557656000000000E+02
4884000000.000000      6.612854000000000E-01      1.439307000000000E+01      3.677063000000000E-01     -1.561953000000000E+02
4885000000.000000      6.629028000000000E-01      1.447852000000000E+01      3.631439000000000E-01     -1.564453000000000E+02
4886000000.000000      6.644592000000000E-01      1.425293000000000E+01      3.596649000000000E-01     -1.570078000000000E+02
4887000000.000000      6.654053000000000E-01      1.418994000000000E+01      3.555298000000000E-01     -1.578281000000000E+02
4888000000.000000      6.654358000000000E-01      1.399658000000000E+01      3.518524000000000E-01     -1.579609000000000E+02
4889000000.000000      6.662598000000000E-01      1.402246000000000E+01      3.460541000000000E-01     -1.584922000000000E+02
4890000000.000000      6.667175000000000E-01      1.385205000000000E+01      3.419647000000000E-01     -1.594375000000000E+02
4891000000.000000      6.690979000000000E-01      1.390430000000000E+01      3.380737000000000E-01     -1.595703000000000E+02
4892000000.000000      6.688232000000000E-01      1.376172000000000E+01      3.348389000000000E-01     -1.598359000000000E+02
4893000000.000000      6.711121000000000E-01      1.379980000000000E+01      3.295441000000000E-01     -1.602187000000000E+02
4894000000.000000      6.722107000000000E-01      1.350488000000000E+01      3.254852000000000E-01     -1.604609000000000E+02
4895000000.000000      6.747437000000000E-01      1.341260000000000E+01      3.232727000000000E-01     -1.612344000000000E+02
4896000000.000000      6.740417000000000E-01      1.352002000000000E+01      3.189240000000000E-01     -1.613906000000000E+02
4897000000.000000      6.751404000000000E-01      1.325879000000000E+01      3.145294000000000E-01     -1.618984000000000E+02
4898000000.000000      6.764832000000000E-01      1.315576000000000E+01      3.113403000000000E-01     -1.621250000000000E+02
4899000000.000000      6.778870000000000E-01      1.325195000000000E+01      3.070679000000000E-01     -1.626406000000000E+02
4900000000.000000      6.777649000000000E-01      1.292773000000000E+01      3.041534000000000E-01     -1.629453000000000E+02
4901000000.000000      6.776733000000000E-01      1.303076000000000E+01      3.001862000000000E-01     -1.632266000000000E+02
4902000000.000000      6.799316000000000E-01      1.269043000000000E+01      2.968140000000000E-01     -1.634844000000000E+02
4903000000.000000      6.799011000000000E-01      1.291260000000000E+01      2.918701000000000E-01     -1.640000000000000E+02
4904000000.000000      6.829529000000000E-01      1.253369000000000E+01      2.889099000000000E-01     -1.643750000000000E+02
4905000000.000000      6.799622000000000E-01      1.252979000000000E+01      2.858734000000000E-01     -1.647656000000000E+02
4906000000.000000      6.818542000000000E-01      1.245947000000000E+01      2.817230000000000E-01     -1.647812000000000E+02
4907000000.000000      6.835632000000000E-01      1.233447000000000E+01      2.792206000000000E-01     -1.653125000000000E+02
4908000000.000000      6.843872000000000E-01      1.230322000000000E+01      2.759247000000000E-01     -1.656094000000000E+02
4909000000.000000      6.848145000000000E-01      1.218066000000000E+01      2.716217000000000E-01     -1.660078000000000E+02
4910000000.000000      6.851501000000000E-01      1.207520000000000E+01      2.685852000000000E-01     -1.661406000000000E+02
4911000000.000000      6.869202000000000E-01      1.207520000000000E+01      2.651367000000000E-01     -1.664844000000000E+02
4912000000.000000      6.844177000000000E-01      1.193799000000000E+01      2.612457000000000E-01     -1.671094000000000E+02
4913000000.000000      6.869812000000000E-01      1.178271000000000E+01      2.578583000000000E-01     -1.674609000000000E+02
4914000000.000000      6.874695000000000E-01      1.152832000000000E+01      2.545319000000000E-01     -1.675000000000000E+02
4915000000.000000      6.889954000000000E-01      1.165479000000000E+01      2.502899000000000E-01     -1.679219000000000E+02
4916000000.000000      6.892700000000000E-01      1.145850000000000E+01      2.471237000000000E-01     -1.682500000000000E+02
4917000000.000000      6.898499000000000E-01      1.130859000000000E+01      2.433853000000000E-01     -1.683359000000000E+02
4918000000.000000      6.880493000000000E-01      1.133887000000000E+01      2.401810000000000E-01     -1.687500000000000E+02
4919000000.000000      6.905212000000000E-01      1.118945000000000E+01      2.363205000000000E-01     -1.688203000000000E+02
4920000000.000000      6.903687000000000E-01      1.107813000000000E+01      2.320862000000000E-01     -1.692891000000000E+02
4921000000.000000      6.904907000000000E-01      1.098486000000000E+01      2.287216000000000E-01     -1.693828000000000E+02
4922000000.000000      6.908875000000000E-01      1.100537000000000E+01      2.252045000000000E-01     -1.696563000000000E+02
4923000000.000000      6.937561000000000E-01      1.099707000000000E+01      2.214279000000000E-01     -1.697578000000000E+02
4924000000.000000      6.939087000000000E-01      1.061523000000000E+01      2.176361000000000E-01     -1.701094000000000E+02
4925000000.000000      6.917419000000000E-01      1.050293000000000E+01      2.142181000000000E-01     -1.702891000000000E+02
4926000000.000000      6.928406000000000E-01      1.036133000000000E+01      2.102509000000000E-01     -1.704453000000000E+02
4927000000.000000      6.925659000000000E-01      1.045313000000000E+01      2.063065000000000E-01     -1.705703000000000E+02
4928000000.000000      6.959839000000000E-01      1.025293000000000E+01      2.029190000000000E-01     -1.706797000000000E+02
4929000000.000000      6.947632000000000E-01      1.021582000000000E+01      1.991196000000000E-01     -1.706016000000000E+02
4930000000.000000      6.950684000000000E-01      1.023633000000000E+01      1.955490000000000E-01     -1.710859000000000E+02
4931000000.000000      6.955566000000000E-01      9.986328000000000E+00      1.919250000000000E-01     -1.708125000000000E+02
4932000000.000000      6.963196000000000E-01      1.002881000000000E+01      1.875992000000000E-01     -1.708281000000000E+02
4933000000.000000      6.962280000000000E-01      9.765137000000000E+00      1.835327000000000E-01     -1.708281000000000E+02
4934000000.000000      6.991882000000000E-01      9.653809000000000E+00      1.801147000000000E-01     -1.709844000000000E+02
4935000000.000000      6.977539000000000E-01      9.652832000000000E+00      1.767960000000000E-01     -1.705781000000000E+02
4936000000.000000      6.967773000000000E-01      9.487793000000000E+00      1.723938000000000E-01     -1.705781000000000E+02
4937000000.000000      6.992493000000000E-01      9.283203000000000E+00      1.689148000000000E-01     -1.704453000000000E+02
4938000000.000000      6.989441000000000E-01      9.331055000000000E+00      1.649017000000000E-01     -1.701172000000000E+02
4939000000.000000      6.989136000000000E-01      9.240723000000000E+00      1.611557000000000E-01     -1.697891000000000E+02
4940000000.000000      7.000122000000000E-01      9.143066000000000E+00      1.579361000000000E-01     -1.696016000000000E+02
4941000000.000000      7.007751000000000E-01      9.067383000000000E+00      1.539841000000000E-01     -1.690547000000000E+02
4942000000.000000      7.007141000000000E-01      8.813477000000000E+00      1.503677000000000E-01     -1.687266000000000E+02
4943000000.000000      7.015686000000000E-01      8.820313000000000E+00      1.473236000000000E-01     -1.677969000000000E+02
4944000000.000000      7.015686000000000E-01      8.688477000000000E+00      1.436539000000000E-01     -1.676953000000000E+02
4945000000.000000      7.022705000000000E-01      8.596680000000000E+00      1.398849000000000E-01     -1.667891000000000E+02
4946000000.000000      7.053223000000000E-01      8.639160000000000E+00      1.369247000000000E-01     -1.661484000000000E+02
4947000000.000000      7.015381000000000E-01      8.389160000000000E+00      1.334152000000000E-01     -1.655547000000000E+02
4948000000.000000      7.057800000000000E-01      8.277832000000000E+00      1.306534000000000E-01     -1.646406000000000E+02
4949000000.000000      7.036133000000000E-01      8.188477000000000E+00      1.276093000000000E-01     -1.634140000000000E+02
4950000000.000000      7.052917000000000E-01      8.133789000000000E+00      1.247711000000000E-01     -1.626406000000000E+02
4951000000.000000      7.065430000000000E-01      8.064941000000000E+00      1.224136000000000E-01     -1.617109000000000E+02
4952000000.000000      7.054138000000000E-01      7.996582000000000E+00      1.193085000000000E-01     -1.602031000000000E+02
4953000000.000000      7.041016000000000E-01      7.816650000000000E+00      1.173820000000000E-01     -1.588281000000000E+02
4954000000.000000      7.085266000000000E-01      7.737061000000000E+00      1.148758000000000E-01     -1.573750000000000E+02
