! Network Analyzer HP8722D
! Hewlett-Packard
! Data name: Linha & Wilkinson
! Saver's name: Rodrigo Anjos
! Comments: Teste da utilização de aquisição
continua pelo VNA HP8722D
! Time and date: 22/5/2025 10:13
!              Frequency                     S11                                                   S21                                                   S12                                                   S22
# HZ  S  MA R 50
4800000000.000000      6.474304000000000E-01      1.045459000000000E+01      4.748840000000000E-01     -9.370703000000000E+01
4801000000.000000      6.442871000000000E-01      1.052051000000000E+01      4.758911000000000E-01     -9.432421000000000E+01
4802000000.000000      6.431274000000000E-01      1.040918000000000E+01      4.768982000000000E-01     -9.515625000000000E+01
4803000000.000000      6.406555000000000E-01      1.051660000000000E+01      4.808044000000000E-01     -9.589062000000000E+01
4804000000.000000      6.378479000000000E-01      1.042188000000000E+01      4.814301000000000E-01     -9.666796000000000E+01
4805000000.000000      6.398621000000000E-01      1.032959000000000E+01      4.821014000000000E-01     -9.754686000000000E+01
4806000000.000000      6.368408000000000E-01      1.041357000000000E+01      4.861603000000000E-01     -9.805077000000000E+01
4807000000.000000      6.338196000000000E-01      1.033643000000000E+01      4.860840000000000E-01     -9.910156000000000E+01
4808000000.000000      6.318665000000000E-01      1.049023000000000E+01      4.886475000000000E-01     -9.968750000000000E+01
4809000000.000000      6.322021000000000E-01      1.068799000000000E+01      4.897766000000000E-01     -1.006055000000000E+02
4810000000.000000      6.304626000000000E-01      1.064941000000000E+01      4.906311000000000E-01     -1.011641000000000E+02
4811000000.000000      6.286316000000000E-01      1.066064000000000E+01      4.908752000000000E-01     -1.021289000000000E+02
4812000000.000000      6.292419000000000E-01      1.075537000000000E+01      4.918365000000000E-01     -1.027031000000000E+02
4813000000.000000      6.269531000000000E-01      1.085156000000000E+01      4.931641000000000E-01     -1.035547000000000E+02
4814000000.000000      6.239014000000000E-01      1.084180000000000E+01      4.937897000000000E-01     -1.042930000000000E+02
4815000000.000000      6.233826000000000E-01      1.097656000000000E+01      4.954376000000000E-01     -1.049414000000000E+02
4816000000.000000      6.222534000000000E-01      1.105469000000000E+01      4.960175000000000E-01     -1.057461000000000E+02
4817000000.000000      6.210327000000000E-01      1.099023000000000E+01      4.965210000000000E-01     -1.067266000000000E+02
4818000000.000000      6.207886000000000E-01      1.113867000000000E+01      4.966431000000000E-01     -1.072305000000000E+02
4819000000.000000      6.188660000000000E-01      1.124854000000000E+01      4.951630000000000E-01     -1.082227000000000E+02
4820000000.000000      6.183777000000000E-01      1.131592000000000E+01      4.978485000000000E-01     -1.085976000000000E+02
4821000000.000000      6.176758000000000E-01      1.134326000000000E+01      4.985809000000000E-01     -1.095078000000000E+02
4822000000.000000      6.149902000000000E-01      1.132275000000000E+01      4.990997000000000E-01     -1.102109000000000E+02
4823000000.000000      6.161194000000000E-01      1.147900000000000E+01      4.998627000000000E-01     -1.112539000000000E+02
4824000000.000000      6.128235000000000E-01      1.169336000000000E+01      4.981079000000000E-01     -1.117969000000000E+02
4825000000.000000      6.138306000000000E-01      1.171924000000000E+01      4.997253000000000E-01     -1.125430000000000E+02
4826000000.000000      6.126099000000000E-01      1.165918000000000E+01      5.010071000000000E-01     -1.134336000000000E+02
4827000000.000000      6.124878000000000E-01      1.200781000000000E+01      4.998169000000000E-01     -1.138633000000000E+02
4828000000.000000      6.134338000000000E-01      1.214111000000000E+01      4.983978000000000E-01     -1.147461000000000E+02
4829000000.000000      6.115417000000000E-01      1.234570000000000E+01      5.017090000000000E-01     -1.156016000000000E+02
4830000000.000000      6.134949000000000E-01      1.231543000000000E+01      5.014648000000000E-01     -1.165117000000000E+02
4831000000.000000      6.144714000000000E-01      1.253662000000000E+01      4.998474000000000E-01     -1.171328000000000E+02
4832000000.000000      6.119385000000000E-01      1.257227000000000E+01      4.998016000000000E-01     -1.177734000000000E+02
4833000000.000000      6.106262000000000E-01      1.263428000000000E+01      5.000305000000000E-01     -1.184844000000000E+02
4834000000.000000      6.116028000000000E-01      1.275488000000000E+01      4.999237000000000E-01     -1.194961000000000E+02
4835000000.000000      6.118774000000000E-01      1.284277000000000E+01      4.996185000000000E-01     -1.201367000000000E+02
4836000000.000000      6.112061000000000E-01      1.298291000000000E+01      4.971771000000000E-01     -1.209180000000000E+02
4837000000.000000      6.116638000000000E-01      1.328516000000000E+01      4.970093000000000E-01     -1.219336000000000E+02
4838000000.000000      6.113892000000000E-01      1.328223000000000E+01      4.975128000000000E-01     -1.224922000000000E+02
4839000000.000000      6.130066000000000E-01      1.337012000000000E+01      4.974213000000000E-01     -1.233437000000000E+02
4840000000.000000      6.147156000000000E-01      1.333984000000000E+01      4.968262000000000E-01     -1.241367000000000E+02
4841000000.000000      6.159668000000000E-01      1.367090000000000E+01      4.962463000000000E-01     -1.249687000000000E+02
4842000000.000000      6.159363000000000E-01      1.333984000000000E+01      4.948578000000000E-01     -1.257461000000000E+02
4843000000.000000      6.173401000000000E-01      1.357324000000000E+01      4.949951000000000E-01     -1.266055000000000E+02
4844000000.000000      6.156006000000000E-01      1.363525000000000E+01      4.937744000000000E-01     -1.273789000000000E+02
4845000000.000000      6.169434000000000E-01      1.390283000000000E+01      4.919128000000000E-01     -1.280547000000000E+02
4846000000.000000      6.175537000000000E-01      1.387842000000000E+01      4.910583000000000E-01     -1.290547000000000E+02
4847000000.000000      6.200867000000000E-01      1.409131000000000E+01      4.893494000000000E-01     -1.297812000000000E+02
4848000000.000000      6.177673000000000E-01      1.402100000000000E+01      4.870148000000000E-01     -1.306562000000000E+02
4849000000.000000      6.203003000000000E-01      1.399219000000000E+01      4.868317000000000E-01     -1.315547000000000E+02
4850000000.000000      6.188660000000000E-01      1.418164000000000E+01      4.840088000000000E-01     -1.323984000000000E+02
4851000000.000000      6.225891000000000E-01      1.436426000000000E+01      4.834900000000000E-01     -1.332031000000000E+02
4852000000.000000      6.235046000000000E-01      1.443018000000000E+01      4.812317000000000E-01     -1.340625000000000E+02
4853000000.000000      6.235046000000000E-01      1.435742000000000E+01      4.778442000000000E-01     -1.347578000000000E+02
4854000000.000000      6.249695000000000E-01      1.439307000000000E+01      4.753571000000000E-01     -1.357266000000000E+02
4855000000.000000      6.254883000000000E-01      1.456494000000000E+01      4.740295000000000E-01     -1.365937000000000E+02
4856000000.000000      6.274719000000000E-01      1.436865000000000E+01      4.700623000000000E-01     -1.374375000000000E+02
4857000000.000000      6.286621000000000E-01      1.464844000000000E+01      4.693451000000000E-01     -1.382813000000000E+02
4858000000.000000      6.298523000000000E-01      1.445654000000000E+01      4.660645000000000E-01     -1.392266000000000E+02
4859000000.000000      6.303101000000000E-01      1.444678000000000E+01      4.625397000000000E-01     -1.399609000000000E+02
4860000000.000000      6.326294000000000E-01      1.459229000000000E+01      4.597473000000000E-01     -1.408984000000000E+02
4861000000.000000      6.337585000000000E-01      1.467871000000000E+01      4.567719000000000E-01     -1.417344000000000E+02
4862000000.000000      6.331787000000000E-01      1.449902000000000E+01      4.539948000000000E-01     -1.423984000000000E+02
4863000000.000000      6.347046000000000E-01      1.470508000000000E+01      4.486542000000000E-01     -1.435859000000000E+02
4864000000.000000      6.347351000000000E-01      1.460742000000000E+01      4.463043000000000E-01     -1.440703000000000E+02
4865000000.000000      6.378479000000000E-01      1.468848000000000E+01      4.412079000000000E-01     -1.447109000000000E+02
4866000000.000000      6.390686000000000E-01      1.452393000000000E+01      4.388428000000000E-01     -1.458125000000000E+02
4867000000.000000      6.397400000000000E-01      1.451123000000000E+01      4.336243000000000E-01     -1.465937000000000E+02
4868000000.000000      6.425476000000000E-01      1.446729000000000E+01      4.302979000000000E-01     -1.475156000000000E+02
4869000000.000000      6.438904000000000E-01      1.443164000000000E+01      4.258575000000000E-01     -1.480781000000000E+02
4870000000.000000      6.437988000000000E-01      1.446729000000000E+01      4.214630000000000E-01     -1.485000000000000E+02
4871000000.000000      6.450500000000000E-01      1.439209000000000E+01      4.179382000000000E-01     -1.493984000000000E+02
4872000000.000000      6.479187000000000E-01      1.439307000000000E+01      4.143982000000000E-01     -1.500781000000000E+02
4873000000.000000      6.481323000000000E-01      1.438086000000000E+01      4.097137000000000E-01     -1.509063000000000E+02
4874000000.000000      6.505127000000000E-01      1.450049000000000E+01      4.045105000000000E-01     -1.513203000000000E+02
4875000000.000000      6.514893000000000E-01      1.424072000000000E+01      4.005890000000000E-01     -1.519922000000000E+02
4876000000.000000      6.525269000000000E-01      1.426025000000000E+01      3.964996000000000E-01     -1.527344000000000E+02
4877000000.000000      6.565247000000000E-01      1.393604000000000E+01      3.912354000000000E-01     -1.533828000000000E+02
4878000000.000000      6.538391000000000E-01      1.412256000000000E+01      3.870392000000000E-01     -1.540937000000000E+02
4879000000.000000      6.560059000000000E-01      1.407031000000000E+01      3.819427000000000E-01     -1.544531000000000E+02
4880000000.000000      6.553650000000000E-01      1.395508000000000E+01      3.788757000000000E-01     -1.549141000000000E+02
4881000000.000000      6.576843000000000E-01      1.389600000000000E+01      3.749237000000000E-01     -1.555625000000000E+02
4882000000.000000      6.606750000000000E-01      1.388770000000000E+01      3.705139000000000E-01     -1.562422000000000E+02
4883000000.000000      6.607361000000000E-01      1.382764000000000E+01      3.652191000000000E-01     -1.568438000000000E+02
4884000000.000000      6.634827000000000E-01      1.386182000000000E+01      3.614197000000000E-01     -1.574062000000000E+02
4885000000.000000      6.632996000000000E-01      1.376270000000000E+01      3.571320000000000E-01     -1.577266000000000E+02
4886000000.000000      6.648254000000000E-01      1.371191000000000E+01      3.535156000000000E-01     -1.579609000000000E+02
4887000000.000000      6.648254000000000E-01      1.353760000000000E+01      3.476868000000000E-01     -1.585156000000000E+02
4888000000.000000      6.682434000000000E-01      1.352930000000000E+01      3.457794000000000E-01     -1.591640000000000E+02
4889000000.000000      6.675415000000000E-01      1.345264000000000E+01      3.393402000000000E-01     -1.594766000000000E+02
4890000000.000000      6.663208000000000E-01      1.317920000000000E+01      3.344574000000000E-01     -1.601250000000000E+02
4891000000.000000      6.685486000000000E-01      1.319971000000000E+01      3.302612000000000E-01     -1.605234000000000E+02
4892000000.000000      6.681519000000000E-01      1.299121000000000E+01      3.274078000000000E-01     -1.605859000000000E+02
4893000000.000000      6.716614000000000E-01      1.299951000000000E+01      3.235931000000000E-01     -1.614687000000000E+02
4894000000.000000      6.701050000000000E-01      1.279346000000000E+01      3.192444000000000E-01     -1.616328000000000E+02
4895000000.000000      6.727600000000000E-01      1.279346000000000E+01      3.171844000000000E-01     -1.620547000000000E+02
4896000000.000000      6.740417000000000E-01      1.287695000000000E+01      3.124542000000000E-01     -1.623281000000000E+02
4897000000.000000      6.740112000000000E-01      1.275342000000000E+01      3.078156000000000E-01     -1.628125000000000E+02
4898000000.000000      6.744385000000000E-01      1.264648000000000E+01      3.047180000000000E-01     -1.629844000000000E+02
4899000000.000000      6.769104000000000E-01      1.268213000000000E+01      3.014374000000000E-01     -1.634063000000000E+02
4900000000.000000      6.778564000000000E-01      1.238135000000000E+01      2.974396000000000E-01     -1.635781000000000E+02
4901000000.000000      6.772461000000000E-01      1.234863000000000E+01      2.937317000000000E-01     -1.640703000000000E+02
4902000000.000000      6.802673000000000E-01      1.218750000000000E+01      2.907257000000000E-01     -1.642734000000000E+02
4903000000.000000      6.806641000000000E-01      1.226318000000000E+01      2.859344000000000E-01     -1.647422000000000E+02
4904000000.000000      6.817017000000000E-01      1.200488000000000E+01      2.829132000000000E-01     -1.650938000000000E+02
4905000000.000000      6.816101000000000E-01      1.182666000000000E+01      2.796478000000000E-01     -1.655078000000000E+02
4906000000.000000      6.815186000000000E-01      1.170557000000000E+01      2.760468000000000E-01     -1.654922000000000E+02
4907000000.000000      6.832275000000000E-01      1.163965000000000E+01      2.737122000000000E-01     -1.660234000000000E+02
4908000000.000000      6.852722000000000E-01      1.157129000000000E+01      2.705688000000000E-01     -1.664531000000000E+02
4909000000.000000      6.831665000000000E-01      1.174268000000000E+01      2.655334000000000E-01     -1.666250000000000E+02
4910000000.000000      6.855164000000000E-01      1.162598000000000E+01      2.621307000000000E-01     -1.669219000000000E+02
4911000000.000000      6.860962000000000E-01      1.130615000000000E+01      2.592010000000000E-01     -1.670781000000000E+02
4912000000.000000      6.853638000000000E-01      1.135254000000000E+01      2.552490000000000E-01     -1.676328000000000E+02
4913000000.000000      6.868286000000000E-01      1.107520000000000E+01      2.518768000000000E-01     -1.679688000000000E+02
4914000000.000000      6.869507000000000E-01      1.104492000000000E+01      2.481842000000000E-01     -1.680078000000000E+02
4915000000.000000      6.862183000000000E-01      1.092969000000000E+01      2.441406000000000E-01     -1.683437000000000E+02
4916000000.000000      6.883545000000000E-01      1.087207000000000E+01      2.407455000000000E-01     -1.687578000000000E+02
4917000000.000000      6.875610000000000E-01      1.064404000000000E+01      2.372437000000000E-01     -1.688516000000000E+02
4918000000.000000      6.896973000000000E-01      1.062744000000000E+01      2.330017000000000E-01     -1.690547000000000E+02
4919000000.000000      6.897583000000000E-01      1.053271000000000E+01      2.306519000000000E-01     -1.691875000000000E+02
4920000000.000000      6.903381000000000E-01      1.035840000000000E+01      2.258911000000000E-01     -1.696094000000000E+02
4921000000.000000      6.906738000000000E-01      1.044629000000000E+01      2.232742000000000E-01     -1.696640000000000E+02
4922000000.000000      6.896362000000000E-01      1.013477000000000E+01      2.189178000000000E-01     -1.698203000000000E+02
4923000000.000000      6.929016000000000E-01      1.024609000000000E+01      2.152863000000000E-01     -1.698516000000000E+02
4924000000.000000      6.918030000000000E-01      9.920410000000000E+00      2.117615000000000E-01     -1.704062000000000E+02
4925000000.000000      6.907043000000000E-01      9.957520000000000E+00      2.082825000000000E-01     -1.704531000000000E+02
4926000000.000000      6.927795000000000E-01      9.947754000000000E+00      2.053452000000000E-01     -1.706406000000000E+02
4927000000.000000      6.933594000000000E-01      9.752930000000000E+00      2.001572000000000E-01     -1.706953000000000E+02
4928000000.000000      6.956787000000000E-01      9.739258000000000E+00      1.963577000000000E-01     -1.706953000000000E+02
4929000000.000000      6.944275000000000E-01      9.765137000000000E+00      1.933975000000000E-01     -1.706563000000000E+02
4930000000.000000      6.956482000000000E-01      9.587891000000000E+00      1.893768000000000E-01     -1.707734000000000E+02
4931000000.000000      6.967163000000000E-01      9.384766000000000E+00      1.859818000000000E-01     -1.707500000000000E+02
4932000000.000000      6.970215000000000E-01      9.331055000000000E+00      1.822586000000000E-01     -1.707656000000000E+02
4933000000.000000      6.968079000000000E-01      9.124023000000000E+00      1.776810000000000E-01     -1.703906000000000E+02
4934000000.000000      6.981201000000000E-01      8.945313000000000E+00      1.744003000000000E-01     -1.705937000000000E+02
4935000000.000000      6.994629000000000E-01      8.921875000000000E+00      1.708908000000000E-01     -1.701250000000000E+02
4936000000.000000      6.959534000000000E-01      8.698242000000000E+00      1.672897000000000E-01     -1.700000000000000E+02
4937000000.000000      6.992493000000000E-01      8.723145000000000E+00      1.633911000000000E-01     -1.697031000000000E+02
4938000000.000000      6.968689000000000E-01      8.789063000000000E+00      1.594772000000000E-01     -1.693047000000000E+02
4939000000.000000      6.982117000000000E-01      8.639160000000000E+00      1.561432000000000E-01     -1.690312000000000E+02
4940000000.000000      7.008972000000000E-01      8.651367000000000E+00      1.524124000000000E-01     -1.686875000000000E+02
4941000000.000000      6.995239000000000E-01      8.297363000000000E+00      1.492767000000000E-01     -1.679688000000000E+02
4942000000.000000      6.973572000000000E-01      8.122559000000000E+00      1.460190000000000E-01     -1.676563000000000E+02
4943000000.000000      6.995239000000000E-01      8.314941000000000E+00      1.426620000000000E-01     -1.668750000000000E+02
4944000000.000000      7.011414000000000E-01      7.895020000000000E+00      1.391525000000000E-01     -1.661406000000000E+02
4945000000.000000      7.006531000000000E-01      7.981445000000000E+00      1.359024000000000E-01     -1.654140000000000E+02
4946000000.000000      7.023010000000000E-01      8.085938000000000E+00      1.328659000000000E-01     -1.646719000000000E+02
4947000000.000000      7.028198000000000E-01      7.657471000000000E+00      1.300201000000000E-01     -1.639062000000000E+02
4948000000.000000      7.042236000000000E-01      7.818115000000000E+00      1.271591000000000E-01     -1.628281000000000E+02
4949000000.000000      7.024841000000000E-01      7.634033000000000E+00      1.241684000000000E-01     -1.613984000000000E+02
4950000000.000000      7.051392000000000E-01      7.572266000000000E+00      1.217499000000000E-01     -1.602890000000000E+02
4951000000.000000      7.044983000000000E-01      7.415771000000000E+00      1.195374000000000E-01     -1.591797000000000E+02
4952000000.000000      7.044983000000000E-01      7.366211000000000E+00      1.168823000000000E-01     -1.578672000000000E+02
4953000000.000000      7.056274000000000E-01      7.224854000000000E+00      1.149902000000000E-01     -1.563437000000000E+02
4954000000.000000      7.052612000000000E-01      7.205566000000000E+00      1.130676000000000E-01     -1.548984000000000E+02
