! Network Analyzer HP8722D
! Hewlett-Packard
! Data name: Linha & Wilkinson
! Saver's name: Rodrigo Anjos
! Comments: Teste da utilização de aquisição
continua pelo VNA HP8722D
! Time and date: 22/5/2025 11:20
!              Frequency                     S11                                                   S21                                                   S12                                                   S22
# HZ  S  MA R 50
4800000000.000000      6.523438000000000E-01      1.065918000000000E+01      4.716492000000000E-01     -9.255859000000000E+01
4801000000.000000      6.509705000000000E-01      1.081055000000000E+01      4.733276000000000E-01     -9.302343000000000E+01
4802000000.000000      6.478882000000000E-01      1.064014000000000E+01      4.742889000000000E-01     -9.373438000000000E+01
4803000000.000000      6.465759000000000E-01      1.059326000000000E+01      4.773865000000000E-01     -9.446875000000000E+01
4804000000.000000      6.441650000000000E-01      1.070996000000000E+01      4.785156000000000E-01     -9.544140000000000E+01
4805000000.000000      6.461182000000000E-01      1.063184000000000E+01      4.795837000000000E-01     -9.618750000000000E+01
4806000000.000000      6.408081000000000E-01      1.076221000000000E+01      4.812164000000000E-01     -9.692577000000000E+01
4807000000.000000      6.378174000000000E-01      1.053418000000000E+01      4.816132000000000E-01     -9.790234000000000E+01
4808000000.000000      6.380310000000000E-01      1.070313000000000E+01      4.845581000000000E-01     -9.843750000000000E+01
4809000000.000000      6.365051000000000E-01      1.088037000000000E+01      4.848938000000000E-01     -9.942577000000000E+01
4810000000.000000      6.348877000000000E-01      1.076221000000000E+01      4.877319000000000E-01     -9.996874000000000E+01
4811000000.000000      6.330872000000000E-01      1.081836000000000E+01      4.889374000000000E-01     -1.008164000000000E+02
4812000000.000000      6.337280000000000E-01      1.105322000000000E+01      4.905701000000000E-01     -1.015586000000000E+02
4813000000.000000      6.304016000000000E-01      1.107129000000000E+01      4.908600000000000E-01     -1.022227000000000E+02
4814000000.000000      6.294556000000000E-01      1.087061000000000E+01      4.925232000000000E-01     -1.029922000000000E+02
4815000000.000000      6.261597000000000E-01      1.116064000000000E+01      4.921722000000000E-01     -1.037187000000000E+02
4816000000.000000      6.266785000000000E-01      1.117432000000000E+01      4.942627000000000E-01     -1.045313000000000E+02
4817000000.000000      6.268616000000000E-01      1.118262000000000E+01      4.936066000000000E-01     -1.052656000000000E+02
4818000000.000000      6.243591000000000E-01      1.125684000000000E+01      4.941711000000000E-01     -1.060469000000000E+02
4819000000.000000      6.231079000000000E-01      1.126221000000000E+01      4.955597000000000E-01     -1.068711000000000E+02
4820000000.000000      6.199951000000000E-01      1.145313000000000E+01      4.962616000000000E-01     -1.073984000000000E+02
4821000000.000000      6.216736000000000E-01      1.142139000000000E+01      4.967041000000000E-01     -1.083555000000000E+02
4822000000.000000      6.185303000000000E-01      1.139795000000000E+01      4.965515000000000E-01     -1.090508000000000E+02
4823000000.000000      6.185608000000000E-01      1.156299000000000E+01      4.984283000000000E-01     -1.099023000000000E+02
4824000000.000000      6.180115000000000E-01      1.187598000000000E+01      4.965973000000000E-01     -1.105039000000000E+02
4825000000.000000      6.170044000000000E-01      1.190918000000000E+01      4.982147000000000E-01     -1.111094000000000E+02
4826000000.000000      6.175232000000000E-01      1.194580000000000E+01      4.994965000000000E-01     -1.121953000000000E+02
4827000000.000000      6.154480000000000E-01      1.207373000000000E+01      4.973297000000000E-01     -1.128320000000000E+02
4828000000.000000      6.173096000000000E-01      1.217969000000000E+01      4.986725000000000E-01     -1.136094000000000E+02
4829000000.000000      6.155090000000000E-01      1.241553000000000E+01      4.999084000000000E-01     -1.143242000000000E+02
4830000000.000000      6.144104000000000E-01      1.240332000000000E+01      4.998779000000000E-01     -1.150742000000000E+02
4831000000.000000      6.142883000000000E-01      1.237744000000000E+01      4.995575000000000E-01     -1.157930000000000E+02
4832000000.000000      6.133728000000000E-01      1.277295000000000E+01      4.986267000000000E-01     -1.165117000000000E+02
4833000000.000000      6.134949000000000E-01      1.286084000000000E+01      4.989471000000000E-01     -1.172656000000000E+02
4834000000.000000      6.132813000000000E-01      1.283301000000000E+01      4.991150000000000E-01     -1.181055000000000E+02
4835000000.000000      6.157227000000000E-01      1.295557000000000E+01      4.999847000000000E-01     -1.189844000000000E+02
4836000000.000000      6.142578000000000E-01      1.298438000000000E+01      4.979095000000000E-01     -1.197187000000000E+02
4837000000.000000      6.137390000000000E-01      1.325879000000000E+01      4.967651000000000E-01     -1.206680000000000E+02
4838000000.000000      6.118164000000000E-01      1.338379000000000E+01      4.976501000000000E-01     -1.210469000000000E+02
4839000000.000000      6.172180000000000E-01      1.356787000000000E+01      4.974365000000000E-01     -1.217812000000000E+02
4840000000.000000      6.166077000000000E-01      1.352246000000000E+01      4.975739000000000E-01     -1.228867000000000E+02
4841000000.000000      6.145630000000000E-01      1.370947000000000E+01      4.969177000000000E-01     -1.236797000000000E+02
4842000000.000000      6.170959000000000E-01      1.375049000000000E+01      4.968109000000000E-01     -1.243320000000000E+02
4843000000.000000      6.188354000000000E-01      1.379297000000000E+01      4.964600000000000E-01     -1.253008000000000E+02
4844000000.000000      6.160889000000000E-01      1.386182000000000E+01      4.958496000000000E-01     -1.260898000000000E+02
4845000000.000000      6.174011000000000E-01      1.409375000000000E+01      4.936066000000000E-01     -1.267930000000000E+02
4846000000.000000      6.193237000000000E-01      1.402393000000000E+01      4.921875000000000E-01     -1.278398000000000E+02
4847000000.000000      6.192627000000000E-01      1.410645000000000E+01      4.911499000000000E-01     -1.284297000000000E+02
4848000000.000000      6.210327000000000E-01      1.411182000000000E+01      4.876099000000000E-01     -1.293437000000000E+02
4849000000.000000      6.212463000000000E-01      1.426807000000000E+01      4.890594000000000E-01     -1.301094000000000E+02
4850000000.000000      6.213379000000000E-01      1.442627000000000E+01      4.864960000000000E-01     -1.309922000000000E+02
4851000000.000000      6.246948000000000E-01      1.452930000000000E+01      4.862671000000000E-01     -1.320156000000000E+02
4852000000.000000      6.253052000000000E-01      1.452393000000000E+01      4.847260000000000E-01     -1.327266000000000E+02
4853000000.000000      6.249695000000000E-01      1.468164000000000E+01      4.805450000000000E-01     -1.335078000000000E+02
4854000000.000000      6.260986000000000E-01      1.470215000000000E+01      4.783020000000000E-01     -1.345234000000000E+02
4855000000.000000      6.270752000000000E-01      1.468018000000000E+01      4.766541000000000E-01     -1.353359000000000E+02
4856000000.000000      6.282043000000000E-01      1.479688000000000E+01      4.746552000000000E-01     -1.363437000000000E+02
4857000000.000000      6.295471000000000E-01      1.483008000000000E+01      4.725037000000000E-01     -1.368750000000000E+02
4858000000.000000      6.306763000000000E-01      1.470068000000000E+01      4.700317000000000E-01     -1.378047000000000E+02
4859000000.000000      6.315308000000000E-01      1.475830000000000E+01      4.667206000000000E-01     -1.387656000000000E+02
4860000000.000000      6.317139000000000E-01      1.486816000000000E+01      4.639282000000000E-01     -1.396563000000000E+02
4861000000.000000      6.329651000000000E-01      1.488477000000000E+01      4.596863000000000E-01     -1.405313000000000E+02
4862000000.000000      6.344910000000000E-01      1.483398000000000E+01      4.571533000000000E-01     -1.411562000000000E+02
4863000000.000000      6.358948000000000E-01      1.472021000000000E+01      4.529724000000000E-01     -1.421953000000000E+02
4864000000.000000      6.379089000000000E-01      1.475439000000000E+01      4.496155000000000E-01     -1.427734000000000E+02
4865000000.000000      6.395874000000000E-01      1.485352000000000E+01      4.464417000000000E-01     -1.435078000000000E+02
4866000000.000000      6.400452000000000E-01      1.482178000000000E+01      4.426880000000000E-01     -1.444609000000000E+02
4867000000.000000      6.393738000000000E-01      1.477100000000000E+01      4.388885000000000E-01     -1.455234000000000E+02
4868000000.000000      6.425781000000000E-01      1.481055000000000E+01      4.356537000000000E-01     -1.460391000000000E+02
4869000000.000000      6.442261000000000E-01      1.467334000000000E+01      4.309082000000000E-01     -1.467891000000000E+02
4870000000.000000      6.438599000000000E-01      1.483398000000000E+01      4.273834000000000E-01     -1.473281000000000E+02
4871000000.000000      6.439819000000000E-01      1.458398000000000E+01      4.221191000000000E-01     -1.484844000000000E+02
4872000000.000000      6.461182000000000E-01      1.475830000000000E+01      4.170074000000000E-01     -1.489531000000000E+02
4873000000.000000      6.484985000000000E-01      1.461182000000000E+01      4.144897000000000E-01     -1.496875000000000E+02
4874000000.000000      6.487732000000000E-01      1.472412000000000E+01      4.097290000000000E-01     -1.505938000000000E+02
4875000000.000000      6.506042000000000E-01      1.454004000000000E+01      4.062042000000000E-01     -1.509687000000000E+02
4876000000.000000      6.519775000000000E-01      1.463232000000000E+01      4.016418000000000E-01     -1.517578000000000E+02
4877000000.000000      6.537170000000000E-01      1.431494000000000E+01      3.967743000000000E-01     -1.524688000000000E+02
4878000000.000000      6.556396000000000E-01      1.448389000000000E+01      3.919373000000000E-01     -1.530313000000000E+02
4879000000.000000      6.575012000000000E-01      1.437939000000000E+01      3.872986000000000E-01     -1.536328000000000E+02
4880000000.000000      6.578369000000000E-01      1.431787000000000E+01      3.840790000000000E-01     -1.541172000000000E+02
4881000000.000000      6.582336000000000E-01      1.429443000000000E+01      3.788147000000000E-01     -1.547422000000000E+02
4882000000.000000      6.602173000000000E-01      1.423096000000000E+01      3.767700000000000E-01     -1.553203000000000E+02
4883000000.000000      6.604919000000000E-01      1.421484000000000E+01      3.704071000000000E-01     -1.558984000000000E+02
4884000000.000000      6.629944000000000E-01      1.415820000000000E+01      3.648682000000000E-01     -1.565391000000000E+02
4885000000.000000      6.644897000000000E-01      1.430664000000000E+01      3.619080000000000E-01     -1.567500000000000E+02
4886000000.000000      6.651306000000000E-01      1.401123000000000E+01      3.574371000000000E-01     -1.570625000000000E+02
4887000000.000000      6.661072000000000E-01      1.401416000000000E+01      3.544159000000000E-01     -1.576094000000000E+02
4888000000.000000      6.664734000000000E-01      1.368164000000000E+01      3.496857000000000E-01     -1.585000000000000E+02
4889000000.000000      6.679688000000000E-01      1.384814000000000E+01      3.446350000000000E-01     -1.588672000000000E+02
4890000000.000000      6.682434000000000E-01      1.359961000000000E+01      3.400574000000000E-01     -1.596172000000000E+02
4891000000.000000      6.697083000000000E-01      1.355566000000000E+01      3.360596000000000E-01     -1.597734000000000E+02
4892000000.000000      6.688843000000000E-01      1.338672000000000E+01      3.315887000000000E-01     -1.600234000000000E+02
4893000000.000000      6.726990000000000E-01      1.346924000000000E+01      3.281250000000000E-01     -1.604922000000000E+02
4894000000.000000      6.726685000000000E-01      1.320410000000000E+01      3.234711000000000E-01     -1.609922000000000E+02
4895000000.000000      6.738281000000000E-01      1.324512000000000E+01      3.208466000000000E-01     -1.613594000000000E+02
4896000000.000000      6.742249000000000E-01      1.307080000000000E+01      3.168793000000000E-01     -1.616562000000000E+02
4897000000.000000      6.766663000000000E-01      1.305859000000000E+01      3.127594000000000E-01     -1.621406000000000E+02
4898000000.000000      6.760559000000000E-01      1.286182000000000E+01      3.096619000000000E-01     -1.624766000000000E+02
4899000000.000000      6.774292000000000E-01      1.300781000000000E+01      3.059998000000000E-01     -1.628438000000000E+02
4900000000.000000      6.785889000000000E-01      1.274414000000000E+01      3.019409000000000E-01     -1.632656000000000E+02
4901000000.000000      6.800232000000000E-01      1.264111000000000E+01      2.980347000000000E-01     -1.634687000000000E+02
4902000000.000000      6.803894000000000E-01      1.248975000000000E+01      2.953339000000000E-01     -1.638672000000000E+02
4903000000.000000      6.816406000000000E-01      1.258203000000000E+01      2.900238000000000E-01     -1.641641000000000E+02
4904000000.000000      6.814880000000000E-01      1.234033000000000E+01      2.871246000000000E-01     -1.646250000000000E+02
4905000000.000000      6.819153000000000E-01      1.226758000000000E+01      2.843475000000000E-01     -1.650547000000000E+02
4906000000.000000      6.814575000000000E-01      1.235254000000000E+01      2.801971000000000E-01     -1.650703000000000E+02
4907000000.000000      6.842957000000000E-01      1.221680000000000E+01      2.773743000000000E-01     -1.656563000000000E+02
4908000000.000000      6.824341000000000E-01      1.186768000000000E+01      2.734222000000000E-01     -1.658437000000000E+02
4909000000.000000      6.857910000000000E-01      1.200781000000000E+01      2.696228000000000E-01     -1.662891000000000E+02
4910000000.000000      6.836243000000000E-01      1.182813000000000E+01      2.666626000000000E-01     -1.665390000000000E+02
4911000000.000000      6.869202000000000E-01      1.175635000000000E+01      2.628021000000000E-01     -1.667969000000000E+02
4912000000.000000      6.859741000000000E-01      1.166748000000000E+01      2.596283000000000E-01     -1.671797000000000E+02
4913000000.000000      6.853333000000000E-01      1.131445000000000E+01      2.563171000000000E-01     -1.674766000000000E+02
4914000000.000000      6.885071000000000E-01      1.142432000000000E+01      2.523804000000000E-01     -1.676484000000000E+02
4915000000.000000      6.886902000000000E-01      1.145313000000000E+01      2.488098000000000E-01     -1.680625000000000E+02
4916000000.000000      6.900940000000000E-01      1.114111000000000E+01      2.453995000000000E-01     -1.685234000000000E+02
4917000000.000000      6.906738000000000E-01      1.121973000000000E+01      2.418823000000000E-01     -1.686328000000000E+02
4918000000.000000      6.881104000000000E-01      1.098730000000000E+01      2.382126000000000E-01     -1.689219000000000E+02
4919000000.000000      6.878052000000000E-01      1.095313000000000E+01      2.346420000000000E-01     -1.690000000000000E+02
4920000000.000000      6.911316000000000E-01      1.081055000000000E+01      2.304764000000000E-01     -1.694766000000000E+02
4921000000.000000      6.909485000000000E-01      1.072119000000000E+01      2.271500000000000E-01     -1.696640000000000E+02
4922000000.000000      6.920776000000000E-01      1.070068000000000E+01      2.236557000000000E-01     -1.696875000000000E+02
4923000000.000000      6.925354000000000E-01      1.053174000000000E+01      2.195435000000000E-01     -1.698047000000000E+02
4924000000.000000      6.921082000000000E-01      1.042188000000000E+01      2.158813000000000E-01     -1.701875000000000E+02
4925000000.000000      6.924133000000000E-01      1.024170000000000E+01      2.125778000000000E-01     -1.703125000000000E+02
4926000000.000000      6.932373000000000E-01      1.026123000000000E+01      2.088852000000000E-01     -1.706328000000000E+02
4927000000.000000      6.943970000000000E-01      1.004395000000000E+01      2.047272000000000E-01     -1.707266000000000E+02
4928000000.000000      6.952209000000000E-01      1.016211000000000E+01      2.008972000000000E-01     -1.708594000000000E+02
4929000000.000000      6.947937000000000E-01      9.831055000000000E+00      1.967621000000000E-01     -1.707656000000000E+02
4930000000.000000      6.971436000000000E-01      9.930176000000000E+00      1.936951000000000E-01     -1.708672000000000E+02
4931000000.000000      6.968384000000000E-01      9.614258000000000E+00      1.905518000000000E-01     -1.709219000000000E+02
4932000000.000000      6.951599000000000E-01      9.586914000000000E+00      1.860428000000000E-01     -1.710859000000000E+02
4933000000.000000      6.981506000000000E-01      9.560547000000000E+00      1.814194000000000E-01     -1.708594000000000E+02
4934000000.000000      6.983337000000000E-01      9.361328000000000E+00      1.780167000000000E-01     -1.708281000000000E+02
4935000000.000000      7.005615000000000E-01      9.335449000000000E+00      1.748886000000000E-01     -1.705312000000000E+02
4936000000.000000      6.997681000000000E-01      9.347656000000000E+00      1.713181000000000E-01     -1.703281000000000E+02
4937000000.000000      6.982727000000000E-01      9.005859000000000E+00      1.672592000000000E-01     -1.702266000000000E+02
4938000000.000000      6.985168000000000E-01      9.206543000000000E+00      1.638794000000000E-01     -1.699219000000000E+02
4939000000.000000      6.986084000000000E-01      8.996094000000000E+00      1.592407000000000E-01     -1.695859000000000E+02
4940000000.000000      7.010193000000000E-01      8.990723000000000E+00      1.562424000000000E-01     -1.693594000000000E+02
4941000000.000000      7.014465000000000E-01      8.715820000000000E+00      1.528473000000000E-01     -1.688594000000000E+02
4942000000.000000      7.016296000000000E-01      8.705078000000000E+00      1.486435000000000E-01     -1.684531000000000E+02
4943000000.000000      7.014160000000000E-01      8.702148000000000E+00      1.454010000000000E-01     -1.678203000000000E+02
4944000000.000000      7.023926000000000E-01      8.374023000000000E+00      1.421432000000000E-01     -1.674687000000000E+02
4945000000.000000      7.018127000000000E-01      8.323242000000000E+00      1.384125000000000E-01     -1.667422000000000E+02
4946000000.000000      7.029114000000000E-01      8.229980000000000E+00      1.356277000000000E-01     -1.658828000000000E+02
4947000000.000000      7.037048000000000E-01      8.308105000000000E+00      1.321030000000000E-01     -1.652344000000000E+02
4948000000.000000      7.046509000000000E-01      8.194336000000000E+00      1.294174000000000E-01     -1.641641000000000E+02
4949000000.000000      7.030945000000000E-01      8.084473000000000E+00      1.266632000000000E-01     -1.631406000000000E+02
4950000000.000000      7.054443000000000E-01      7.835938000000000E+00      1.235466000000000E-01     -1.620156000000000E+02
4951000000.000000      7.058105000000000E-01      7.882568000000000E+00      1.210976000000000E-01     -1.611094000000000E+02
4952000000.000000      7.064209000000000E-01      7.775391000000000E+00      1.182899000000000E-01     -1.596641000000000E+02
4953000000.000000      7.048645000000000E-01      7.465088000000000E+00      1.161804000000000E-01     -1.584063000000000E+02
4954000000.000000      7.077637000000000E-01      7.403320000000000E+00      1.139793000000000E-01     -1.570781000000000E+02
