! Network Analyzer HP8722D
! Hewlett-Packard
! Data name: Linha & Wilkinson
! Saver's name: Rodrigo Anjos
! Comments: Teste da utilização de aquisição
continua pelo VNA HP8722D
! Time and date: 22/5/2025 11:50
!              Frequency                     S11                                                   S21                                                   S12                                                   S22
# HZ  S  MA R 50
4800000000.000000      6.516418000000000E-01      1.082520000000000E+01      4.720764000000000E-01     -9.257421000000000E+01
4801000000.000000      6.513672000000000E-01      1.096436000000000E+01      4.728851000000000E-01     -9.291407000000000E+01
4802000000.000000      6.481323000000000E-01      1.080615000000000E+01      4.744720000000000E-01     -9.380468000000000E+01
4803000000.000000      6.460266000000000E-01      1.090771000000000E+01      4.761047000000000E-01     -9.461329000000000E+01
4804000000.000000      6.448059000000000E-01      1.062207000000000E+01      4.800262000000000E-01     -9.519140000000000E+01
4805000000.000000      6.434631000000000E-01      1.069092000000000E+01      4.795074000000000E-01     -9.623827000000000E+01
4806000000.000000      6.419067000000000E-01      1.079248000000000E+01      4.815521000000000E-01     -9.708984000000000E+01
4807000000.000000      6.408386000000000E-01      1.063037000000000E+01      4.822998000000000E-01     -9.767187000000000E+01
4808000000.000000      6.372070000000000E-01      1.072803000000000E+01      4.864807000000000E-01     -9.848827000000000E+01
4809000000.000000      6.356812000000000E-01      1.088037000000000E+01      4.863892000000000E-01     -9.928123000000000E+01
4810000000.000000      6.346741000000000E-01      1.075830000000000E+01      4.872894000000000E-01     -9.996483000000000E+01
4811000000.000000      6.338806000000000E-01      1.106836000000000E+01      4.884644000000000E-01     -1.008516000000000E+02
4812000000.000000      6.329346000000000E-01      1.100537000000000E+01      4.908600000000000E-01     -1.016172000000000E+02
4813000000.000000      6.300354000000000E-01      1.092139000000000E+01      4.892120000000000E-01     -1.024141000000000E+02
4814000000.000000      6.284790000000000E-01      1.089258000000000E+01      4.919739000000000E-01     -1.028398000000000E+02
4815000000.000000      6.253662000000000E-01      1.123730000000000E+01      4.936371000000000E-01     -1.036914000000000E+02
4816000000.000000      6.277771000000000E-01      1.119482000000000E+01      4.946136000000000E-01     -1.044062000000000E+02
4817000000.000000      6.239014000000000E-01      1.119092000000000E+01      4.954529000000000E-01     -1.053242000000000E+02
4818000000.000000      6.243286000000000E-01      1.121680000000000E+01      4.944458000000000E-01     -1.061133000000000E+02
4819000000.000000      6.236877000000000E-01      1.144043000000000E+01      4.947052000000000E-01     -1.067383000000000E+02
4820000000.000000      6.220093000000000E-01      1.137451000000000E+01      4.968414000000000E-01     -1.074453000000000E+02
4821000000.000000      6.205750000000000E-01      1.157959000000000E+01      4.979095000000000E-01     -1.083281000000000E+02
4822000000.000000      6.184998000000000E-01      1.151758000000000E+01      4.972229000000000E-01     -1.088242000000000E+02
4823000000.000000      6.193237000000000E-01      1.162207000000000E+01      4.989471000000000E-01     -1.098555000000000E+02
4824000000.000000      6.192017000000000E-01      1.177832000000000E+01      4.989624000000000E-01     -1.104805000000000E+02
4825000000.000000      6.174622000000000E-01      1.185254000000000E+01      4.968109000000000E-01     -1.114258000000000E+02
4826000000.000000      6.160889000000000E-01      1.194873000000000E+01      4.987946000000000E-01     -1.122578000000000E+02
4827000000.000000      6.163330000000000E-01      1.204199000000000E+01      4.992065000000000E-01     -1.126680000000000E+02
4828000000.000000      6.166077000000000E-01      1.219873000000000E+01      4.998474000000000E-01     -1.134375000000000E+02
4829000000.000000      6.144409000000000E-01      1.255713000000000E+01      4.984131000000000E-01     -1.142773000000000E+02
4830000000.000000      6.156921000000000E-01      1.240869000000000E+01      5.002136000000000E-01     -1.151797000000000E+02
4831000000.000000      6.140137000000000E-01      1.263135000000000E+01      4.998169000000000E-01     -1.156836000000000E+02
4832000000.000000      6.130371000000000E-01      1.282080000000000E+01      4.988556000000000E-01     -1.164531000000000E+02
4833000000.000000      6.122131000000000E-01      1.266016000000000E+01      4.984589000000000E-01     -1.172578000000000E+02
4834000000.000000      6.128235000000000E-01      1.282764000000000E+01      4.992218000000000E-01     -1.181367000000000E+02
4835000000.000000      6.143188000000000E-01      1.302393000000000E+01      4.983673000000000E-01     -1.188555000000000E+02
4836000000.000000      6.144409000000000E-01      1.322852000000000E+01      4.976654000000000E-01     -1.195898000000000E+02
4837000000.000000      6.145325000000000E-01      1.335205000000000E+01      4.979858000000000E-01     -1.204609000000000E+02
4838000000.000000      6.138611000000000E-01      1.316846000000000E+01      4.980011000000000E-01     -1.209258000000000E+02
4839000000.000000      6.174011000000000E-01      1.364502000000000E+01      4.977570000000000E-01     -1.219219000000000E+02
4840000000.000000      6.152954000000000E-01      1.335352000000000E+01      4.983826000000000E-01     -1.228086000000000E+02
4841000000.000000      6.163330000000000E-01      1.379443000000000E+01      4.964600000000000E-01     -1.236797000000000E+02
4842000000.000000      6.162720000000000E-01      1.370264000000000E+01      4.968262000000000E-01     -1.242930000000000E+02
4843000000.000000      6.192017000000000E-01      1.379736000000000E+01      4.965363000000000E-01     -1.253437000000000E+02
4844000000.000000      6.184998000000000E-01      1.401416000000000E+01      4.939117000000000E-01     -1.260508000000000E+02
4845000000.000000      6.183472000000000E-01      1.408154000000000E+01      4.940643000000000E-01     -1.268516000000000E+02
4846000000.000000      6.194458000000000E-01      1.413525000000000E+01      4.932404000000000E-01     -1.277969000000000E+02
4847000000.000000      6.205750000000000E-01      1.438623000000000E+01      4.919434000000000E-01     -1.285391000000000E+02
4848000000.000000      6.180115000000000E-01      1.433008000000000E+01      4.889221000000000E-01     -1.293984000000000E+02
4849000000.000000      6.211548000000000E-01      1.423389000000000E+01      4.889526000000000E-01     -1.302187000000000E+02
4850000000.000000      6.215210000000000E-01      1.438086000000000E+01      4.866180000000000E-01     -1.310703000000000E+02
4851000000.000000      6.228333000000000E-01      1.458252000000000E+01      4.862671000000000E-01     -1.319531000000000E+02
4852000000.000000      6.233521000000000E-01      1.453320000000000E+01      4.830475000000000E-01     -1.328125000000000E+02
4853000000.000000      6.259155000000000E-01      1.450586000000000E+01      4.807739000000000E-01     -1.335781000000000E+02
4854000000.000000      6.255493000000000E-01      1.471436000000000E+01      4.781799000000000E-01     -1.345000000000000E+02
4855000000.000000      6.270447000000000E-01      1.472168000000000E+01      4.765625000000000E-01     -1.354766000000000E+02
4856000000.000000      6.281433000000000E-01      1.476270000000000E+01      4.743347000000000E-01     -1.361953000000000E+02
4857000000.000000      6.292725000000000E-01      1.485596000000000E+01      4.721680000000000E-01     -1.369297000000000E+02
4858000000.000000      6.299744000000000E-01      1.469238000000000E+01      4.687347000000000E-01     -1.378672000000000E+02
4859000000.000000      6.314392000000000E-01      1.465674000000000E+01      4.675140000000000E-01     -1.387812000000000E+02
4860000000.000000      6.298828000000000E-01      1.488477000000000E+01      4.639282000000000E-01     -1.394922000000000E+02
4861000000.000000      6.337891000000000E-01      1.488770000000000E+01      4.611969000000000E-01     -1.405469000000000E+02
4862000000.000000      6.343079000000000E-01      1.482324000000000E+01      4.573059000000000E-01     -1.412891000000000E+02
4863000000.000000      6.360779000000000E-01      1.499219000000000E+01      4.545593000000000E-01     -1.421406000000000E+02
4864000000.000000      6.368103000000000E-01      1.478760000000000E+01      4.501495000000000E-01     -1.428203000000000E+02
4865000000.000000      6.386108000000000E-01      1.486572000000000E+01      4.465332000000000E-01     -1.436172000000000E+02
4866000000.000000      6.394348000000000E-01      1.474219000000000E+01      4.440460000000000E-01     -1.445937000000000E+02
4867000000.000000      6.394958000000000E-01      1.492041000000000E+01      4.397583000000000E-01     -1.453516000000000E+02
4868000000.000000      6.402893000000000E-01      1.504541000000000E+01      4.365387000000000E-01     -1.461641000000000E+02
4869000000.000000      6.431274000000000E-01      1.478467000000000E+01      4.312286000000000E-01     -1.468672000000000E+02
4870000000.000000      6.451721000000000E-01      1.486572000000000E+01      4.277649000000000E-01     -1.476172000000000E+02
4871000000.000000      6.448669000000000E-01      1.472705000000000E+01      4.230499000000000E-01     -1.483516000000000E+02
4872000000.000000      6.486206000000000E-01      1.466504000000000E+01      4.195251000000000E-01     -1.487890000000000E+02
4873000000.000000      6.493530000000000E-01      1.478027000000000E+01      4.138489000000000E-01     -1.498516000000000E+02
4874000000.000000      6.505127000000000E-01      1.477637000000000E+01      4.098816000000000E-01     -1.505938000000000E+02
4875000000.000000      6.507874000000000E-01      1.473389000000000E+01      4.056854000000000E-01     -1.510078000000000E+02
4876000000.000000      6.531982000000000E-01      1.458398000000000E+01      4.015198000000000E-01     -1.516172000000000E+02
4877000000.000000      6.544189000000000E-01      1.448389000000000E+01      3.970947000000000E-01     -1.525000000000000E+02
4878000000.000000      6.537476000000000E-01      1.447998000000000E+01      3.927612000000000E-01     -1.529922000000000E+02
4879000000.000000      6.565552000000000E-01      1.453320000000000E+01      3.885651000000000E-01     -1.537969000000000E+02
4880000000.000000      6.580505000000000E-01      1.435059000000000E+01      3.849792000000000E-01     -1.542812000000000E+02
4881000000.000000      6.603394000000000E-01      1.433008000000000E+01      3.811646000000000E-01     -1.547969000000000E+02
4882000000.000000      6.609802000000000E-01      1.435889000000000E+01      3.762360000000000E-01     -1.554297000000000E+02
4883000000.000000      6.603699000000000E-01      1.411572000000000E+01      3.710175000000000E-01     -1.559531000000000E+02
4884000000.000000      6.639709000000000E-01      1.423242000000000E+01      3.669128000000000E-01     -1.565078000000000E+02
4885000000.000000      6.645508000000000E-01      1.419971000000000E+01      3.625946000000000E-01     -1.567656000000000E+02
4886000000.000000      6.648560000000000E-01      1.409814000000000E+01      3.570251000000000E-01     -1.571640000000000E+02
4887000000.000000      6.654968000000000E-01      1.411719000000000E+01      3.541412000000000E-01     -1.578281000000000E+02
4888000000.000000      6.677856000000000E-01      1.383838000000000E+01      3.495331000000000E-01     -1.584609000000000E+02
4889000000.000000      6.676331000000000E-01      1.393604000000000E+01      3.443909000000000E-01     -1.589375000000000E+02
4890000000.000000      6.691284000000000E-01      1.369287000000000E+01      3.408508000000000E-01     -1.594687000000000E+02
4891000000.000000      6.699219000000000E-01      1.364893000000000E+01      3.353119000000000E-01     -1.598438000000000E+02
4892000000.000000      6.719971000000000E-01      1.354590000000000E+01      3.330536000000000E-01     -1.600859000000000E+02
4893000000.000000      6.724854000000000E-01      1.332764000000000E+01      3.288422000000000E-01     -1.605312000000000E+02
4894000000.000000      6.714783000000000E-01      1.351563000000000E+01      3.236237000000000E-01     -1.609219000000000E+02
4895000000.000000      6.753845000000000E-01      1.323682000000000E+01      3.211823000000000E-01     -1.613828000000000E+02
4896000000.000000      6.761780000000000E-01      1.322168000000000E+01      3.162689000000000E-01     -1.617266000000000E+02
4897000000.000000      6.761169000000000E-01      1.318896000000000E+01      3.131409000000000E-01     -1.621719000000000E+02
4898000000.000000      6.784058000000000E-01      1.309277000000000E+01      3.103638000000000E-01     -1.623828000000000E+02
4899000000.000000      6.781921000000000E-01      1.302246000000000E+01      3.056335000000000E-01     -1.628594000000000E+02
4900000000.000000      6.784973000000000E-01      1.275195000000000E+01      3.018188000000000E-01     -1.631250000000000E+02
4901000000.000000      6.791992000000000E-01      1.268506000000000E+01      2.983856000000000E-01     -1.634766000000000E+02
4902000000.000000      6.798706000000000E-01      1.266846000000000E+01      2.952118000000000E-01     -1.637969000000000E+02
4903000000.000000      6.795349000000000E-01      1.268750000000000E+01      2.910461000000000E-01     -1.640391000000000E+02
4904000000.000000      6.805115000000000E-01      1.242920000000000E+01      2.873840000000000E-01     -1.645703000000000E+02
4905000000.000000      6.829529000000000E-01      1.239258000000000E+01      2.840424000000000E-01     -1.648516000000000E+02
4906000000.000000      6.824036000000000E-01      1.222900000000000E+01      2.800751000000000E-01     -1.650938000000000E+02
4907000000.000000      6.829529000000000E-01      1.210938000000000E+01      2.775421000000000E-01     -1.655859000000000E+02
4908000000.000000      6.859436000000000E-01      1.204639000000000E+01      2.743378000000000E-01     -1.658437000000000E+02
4909000000.000000      6.850891000000000E-01      1.198730000000000E+01      2.703247000000000E-01     -1.660547000000000E+02
4910000000.000000      6.845398000000000E-01      1.182227000000000E+01      2.660675000000000E-01     -1.664453000000000E+02
4911000000.000000      6.868896000000000E-01      1.173438000000000E+01      2.629700000000000E-01     -1.666484000000000E+02
4912000000.000000      6.856079000000000E-01      1.163965000000000E+01      2.595520000000000E-01     -1.671172000000000E+02
4913000000.000000      6.846313000000000E-01      1.158203000000000E+01      2.563324000000000E-01     -1.674453000000000E+02
4914000000.000000      6.889343000000000E-01      1.143506000000000E+01      2.526855000000000E-01     -1.675390000000000E+02
4915000000.000000      6.891785000000000E-01      1.134033000000000E+01      2.479477000000000E-01     -1.680781000000000E+02
4916000000.000000      6.902771000000000E-01      1.117578000000000E+01      2.450638000000000E-01     -1.683281000000000E+02
4917000000.000000      6.902466000000000E-01      1.106689000000000E+01      2.419205000000000E-01     -1.685859000000000E+02
4918000000.000000      6.891479000000000E-01      1.113867000000000E+01      2.380295000000000E-01     -1.688281000000000E+02
4919000000.000000      6.897278000000000E-01      1.117139000000000E+01      2.349472000000000E-01     -1.689687000000000E+02
4920000000.000000      6.895752000000000E-01      1.090771000000000E+01      2.306442000000000E-01     -1.692578000000000E+02
4921000000.000000      6.923828000000000E-01      1.082959000000000E+01      2.274704000000000E-01     -1.694687000000000E+02
4922000000.000000      6.935730000000000E-01      1.068115000000000E+01      2.233505000000000E-01     -1.696172000000000E+02
4923000000.000000      6.922607000000000E-01      1.079785000000000E+01      2.201538000000000E-01     -1.697578000000000E+02
4924000000.000000      6.925659000000000E-01      1.065381000000000E+01      2.153702000000000E-01     -1.703281000000000E+02
4925000000.000000      6.955872000000000E-01      1.031738000000000E+01      2.129593000000000E-01     -1.702031000000000E+02
4926000000.000000      6.929932000000000E-01      1.037500000000000E+01      2.086258000000000E-01     -1.705234000000000E+02
4927000000.000000      6.937866000000000E-01      1.018799000000000E+01      2.045517000000000E-01     -1.706484000000000E+02
4928000000.000000      6.956177000000000E-01      1.017725000000000E+01      2.014923000000000E-01     -1.707891000000000E+02
4929000000.000000      6.944885000000000E-01      1.006348000000000E+01      1.970978000000000E-01     -1.706406000000000E+02
4930000000.000000      6.956177000000000E-01      9.978027000000000E+00      1.934052000000000E-01     -1.709922000000000E+02
4931000000.000000      6.931458000000000E-01      9.842285000000000E+00      1.905518000000000E-01     -1.709297000000000E+02
4932000000.000000      6.972046000000000E-01      9.721191000000000E+00      1.863403000000000E-01     -1.708281000000000E+02
4933000000.000000      6.977844000000000E-01      9.537109000000000E+00      1.816330000000000E-01     -1.707031000000000E+02
4934000000.000000      6.987000000000000E-01      9.367188000000000E+00      1.783829000000000E-01     -1.709687000000000E+02
4935000000.000000      6.994934000000000E-01      9.389160000000000E+00      1.752396000000000E-01     -1.705156000000000E+02
4936000000.000000      6.979370000000000E-01      9.423340000000000E+00      1.706848000000000E-01     -1.703828000000000E+02
4937000000.000000      6.991272000000000E-01      9.162598000000000E+00      1.673965000000000E-01     -1.703125000000000E+02
4938000000.000000      7.006531000000000E-01      9.259766000000000E+00      1.637268000000000E-01     -1.699062000000000E+02
4939000000.000000      7.009888000000000E-01      9.161133000000000E+00      1.597519000000000E-01     -1.697500000000000E+02
4940000000.000000      6.996765000000000E-01      8.997559000000000E+00      1.560516000000000E-01     -1.694453000000000E+02
4941000000.000000      7.033081000000000E-01      8.681641000000000E+00      1.529922000000000E-01     -1.689297000000000E+02
4942000000.000000      6.996765000000000E-01      8.768066000000000E+00      1.487732000000000E-01     -1.684297000000000E+02
4943000000.000000      7.024536000000000E-01      8.614258000000000E+00      1.457062000000000E-01     -1.678984000000000E+02
4944000000.000000      7.017212000000000E-01      8.532227000000000E+00      1.423416000000000E-01     -1.673359000000000E+02
4945000000.000000      7.029724000000000E-01      8.416504000000000E+00      1.389313000000000E-01     -1.665547000000000E+02
4946000000.000000      7.053833000000000E-01      8.242188000000000E+00      1.358719000000000E-01     -1.659609000000000E+02
4947000000.000000      7.043457000000000E-01      8.118652000000000E+00      1.323013000000000E-01     -1.650078000000000E+02
4948000000.000000      7.057495000000000E-01      8.292969000000000E+00      1.296234000000000E-01     -1.641484000000000E+02
4949000000.000000      7.043762000000000E-01      8.103516000000000E+00      1.265869000000000E-01     -1.628828000000000E+02
4950000000.000000      7.070618000000000E-01      8.076172000000000E+00      1.235733000000000E-01     -1.621016000000000E+02
4951000000.000000      7.041321000000000E-01      7.826172000000000E+00      1.210861000000000E-01     -1.609766000000000E+02
4952000000.000000      7.066650000000000E-01      7.717773000000000E+00      1.185493000000000E-01     -1.596016000000000E+02
4953000000.000000      7.064819000000000E-01      7.724609000000000E+00      1.161575000000000E-01     -1.582813000000000E+02
4954000000.000000      7.075500000000000E-01      7.429443000000000E+00      1.142426000000000E-01     -1.570703000000000E+02
