! Network Analyzer HP8722D
! Hewlett-Packard
! Data name: Linha & Wilkinson
! Saver's name: Rodrigo Anjos
! Comments: Teste da utilização de aquisição
continua pelo VNA HP8722D
! Time and date: 22/5/2025 11:22
!              Frequency                     S11                                                   S21                                                   S12                                                   S22
# HZ  S  MA R 50
4800000000.000000      6.510010000000000E-01      1.067578000000000E+01      4.694519000000000E-01     -9.249218000000000E+01
4801000000.000000      6.484070000000000E-01      1.077881000000000E+01      4.712372000000000E-01     -9.312891000000000E+01
4802000000.000000      6.469727000000000E-01      1.069336000000000E+01      4.729767000000000E-01     -9.401171000000000E+01
4803000000.000000      6.456299000000000E-01      1.069092000000000E+01      4.777222000000000E-01     -9.456640000000000E+01
4804000000.000000      6.444702000000000E-01      1.069092000000000E+01      4.781647000000000E-01     -9.529297000000000E+01
4805000000.000000      6.444397000000000E-01      1.062891000000000E+01      4.807434000000000E-01     -9.614452000000000E+01
4806000000.000000      6.424255000000000E-01      1.072803000000000E+01      4.806061000000000E-01     -9.683203000000000E+01
4807000000.000000      6.387024000000000E-01      1.069238000000000E+01      4.819336000000000E-01     -9.783983000000000E+01
4808000000.000000      6.366577000000000E-01      1.071143000000000E+01      4.847260000000000E-01     -9.851952000000000E+01
4809000000.000000      6.366272000000000E-01      1.083789000000000E+01      4.859924000000000E-01     -9.935156000000000E+01
4810000000.000000      6.347656000000000E-01      1.085156000000000E+01      4.874420000000000E-01     -9.971092000000000E+01
4811000000.000000      6.342773000000000E-01      1.080908000000000E+01      4.904327000000000E-01     -1.008711000000000E+02
4812000000.000000      6.334839000000000E-01      1.107520000000000E+01      4.893646000000000E-01     -1.015664000000000E+02
4813000000.000000      6.319580000000000E-01      1.116748000000000E+01      4.908142000000000E-01     -1.023398000000000E+02
4814000000.000000      6.286316000000000E-01      1.100928000000000E+01      4.916534000000000E-01     -1.028711000000000E+02
4815000000.000000      6.287537000000000E-01      1.113721000000000E+01      4.942169000000000E-01     -1.035781000000000E+02
4816000000.000000      6.269836000000000E-01      1.117432000000000E+01      4.945679000000000E-01     -1.044453000000000E+02
4817000000.000000      6.264038000000000E-01      1.111084000000000E+01      4.942932000000000E-01     -1.052851000000000E+02
4818000000.000000      6.234741000000000E-01      1.107813000000000E+01      4.940948000000000E-01     -1.061758000000000E+02
4819000000.000000      6.230469000000000E-01      1.125244000000000E+01      4.945221000000000E-01     -1.066914000000000E+02
4820000000.000000      6.223755000000000E-01      1.157959000000000E+01      4.956207000000000E-01     -1.074219000000000E+02
4821000000.000000      6.230164000000000E-01      1.147656000000000E+01      4.972534000000000E-01     -1.082773000000000E+02
4822000000.000000      6.202393000000000E-01      1.161768000000000E+01      4.953308000000000E-01     -1.089570000000000E+02
4823000000.000000      6.188354000000000E-01      1.174414000000000E+01      4.984741000000000E-01     -1.097227000000000E+02
4824000000.000000      6.174927000000000E-01      1.191699000000000E+01      4.967957000000000E-01     -1.104453000000000E+02
4825000000.000000      6.178589000000000E-01      1.183057000000000E+01      4.969635000000000E-01     -1.113164000000000E+02
4826000000.000000      6.159668000000000E-01      1.170410000000000E+01      4.992371000000000E-01     -1.121211000000000E+02
4827000000.000000      6.177368000000000E-01      1.216553000000000E+01      4.989471000000000E-01     -1.126680000000000E+02
4828000000.000000      6.160278000000000E-01      1.214111000000000E+01      4.999390000000000E-01     -1.136641000000000E+02
4829000000.000000      6.151733000000000E-01      1.232666000000000E+01      4.995728000000000E-01     -1.143047000000000E+02
4830000000.000000      6.138916000000000E-01      1.236768000000000E+01      4.990387000000000E-01     -1.150312000000000E+02
4831000000.000000      6.151428000000000E-01      1.245557000000000E+01      4.994202000000000E-01     -1.160859000000000E+02
4832000000.000000      6.120605000000000E-01      1.280859000000000E+01      4.990387000000000E-01     -1.163398000000000E+02
4833000000.000000      6.122131000000000E-01      1.283887000000000E+01      4.978790000000000E-01     -1.173359000000000E+02
4834000000.000000      6.136475000000000E-01      1.285645000000000E+01      4.988403000000000E-01     -1.180976000000000E+02
4835000000.000000      6.125183000000000E-01      1.288379000000000E+01      4.994659000000000E-01     -1.188242000000000E+02
4836000000.000000      6.140442000000000E-01      1.323145000000000E+01      4.973755000000000E-01     -1.195586000000000E+02
4837000000.000000      6.139221000000000E-01      1.329883000000000E+01      4.970703000000000E-01     -1.205742000000000E+02
4838000000.000000      6.148376000000000E-01      1.342090000000000E+01      4.991913000000000E-01     -1.208945000000000E+02
4839000000.000000      6.164246000000000E-01      1.347168000000000E+01      4.981689000000000E-01     -1.217578000000000E+02
4840000000.000000      6.156616000000000E-01      1.342090000000000E+01      4.976044000000000E-01     -1.226523000000000E+02
4841000000.000000      6.142273000000000E-01      1.368457000000000E+01      4.969788000000000E-01     -1.236055000000000E+02
4842000000.000000      6.162415000000000E-01      1.374902000000000E+01      4.954224000000000E-01     -1.242305000000000E+02
4843000000.000000      6.195984000000000E-01      1.371777000000000E+01      4.967957000000000E-01     -1.253008000000000E+02
4844000000.000000      6.187134000000000E-01      1.376416000000000E+01      4.952698000000000E-01     -1.261055000000000E+02
4845000000.000000      6.169434000000000E-01      1.405518000000000E+01      4.938049000000000E-01     -1.268437000000000E+02
4846000000.000000      6.210022000000000E-01      1.413086000000000E+01      4.916534000000000E-01     -1.277148000000000E+02
4847000000.000000      6.195374000000000E-01      1.416406000000000E+01      4.915924000000000E-01     -1.284219000000000E+02
4848000000.000000      6.210327000000000E-01      1.412256000000000E+01      4.880371000000000E-01     -1.292500000000000E+02
4849000000.000000      6.205750000000000E-01      1.417480000000000E+01      4.886017000000000E-01     -1.301172000000000E+02
4850000000.000000      6.220398000000000E-01      1.430273000000000E+01      4.867859000000000E-01     -1.312187000000000E+02
4851000000.000000      6.229248000000000E-01      1.454297000000000E+01      4.855194000000000E-01     -1.319766000000000E+02
4852000000.000000      6.233215000000000E-01      1.444971000000000E+01      4.830627000000000E-01     -1.327578000000000E+02
4853000000.000000      6.264954000000000E-01      1.454443000000000E+01      4.807129000000000E-01     -1.336484000000000E+02
4854000000.000000      6.249390000000000E-01      1.452637000000000E+01      4.786530000000000E-01     -1.344531000000000E+02
4855000000.000000      6.279297000000000E-01      1.451953000000000E+01      4.765625000000000E-01     -1.352734000000000E+02
4856000000.000000      6.293640000000000E-01      1.452246000000000E+01      4.740601000000000E-01     -1.362031000000000E+02
4857000000.000000      6.305847000000000E-01      1.484229000000000E+01      4.727325000000000E-01     -1.369453000000000E+02
4858000000.000000      6.305542000000000E-01      1.474219000000000E+01      4.701538000000000E-01     -1.379062000000000E+02
4859000000.000000      6.331177000000000E-01      1.462646000000000E+01      4.664459000000000E-01     -1.388828000000000E+02
4860000000.000000      6.322327000000000E-01      1.477930000000000E+01      4.636993000000000E-01     -1.395781000000000E+02
4861000000.000000      6.347046000000000E-01      1.476807000000000E+01      4.599152000000000E-01     -1.406875000000000E+02
4862000000.000000      6.326599000000000E-01      1.489160000000000E+01      4.584808000000000E-01     -1.412734000000000E+02
4863000000.000000      6.365967000000000E-01      1.489160000000000E+01      4.531097000000000E-01     -1.420312000000000E+02
4864000000.000000      6.362000000000000E-01      1.484082000000000E+01      4.508820000000000E-01     -1.428203000000000E+02
4865000000.000000      6.374207000000000E-01      1.482324000000000E+01      4.455872000000000E-01     -1.436406000000000E+02
4866000000.000000      6.397705000000000E-01      1.473926000000000E+01      4.432678000000000E-01     -1.444844000000000E+02
4867000000.000000      6.394348000000000E-01      1.478320000000000E+01      4.384766000000000E-01     -1.453594000000000E+02
4868000000.000000      6.429749000000000E-01      1.472266000000000E+01      4.362640000000000E-01     -1.461797000000000E+02
4869000000.000000      6.431580000000000E-01      1.476660000000000E+01      4.300385000000000E-01     -1.469297000000000E+02
4870000000.000000      6.444397000000000E-01      1.473389000000000E+01      4.271240000000000E-01     -1.476016000000000E+02
4871000000.000000      6.439819000000000E-01      1.473535000000000E+01      4.234161000000000E-01     -1.483281000000000E+02
4872000000.000000      6.482544000000000E-01      1.473242000000000E+01      4.182587000000000E-01     -1.489297000000000E+02
4873000000.000000      6.498718000000000E-01      1.472705000000000E+01      4.135132000000000E-01     -1.497734000000000E+02
4874000000.000000      6.503601000000000E-01      1.465967000000000E+01      4.113312000000000E-01     -1.505234000000000E+02
4875000000.000000      6.522522000000000E-01      1.457568000000000E+01      4.046021000000000E-01     -1.511016000000000E+02
4876000000.000000      6.549377000000000E-01      1.474463000000000E+01      4.016724000000000E-01     -1.517891000000000E+02
4877000000.000000      6.538391000000000E-01      1.447852000000000E+01      3.970642000000000E-01     -1.524531000000000E+02
4878000000.000000      6.519165000000000E-01      1.435742000000000E+01      3.915253000000000E-01     -1.530781000000000E+02
4879000000.000000      6.574402000000000E-01      1.429297000000000E+01      3.861847000000000E-01     -1.534844000000000E+02
4880000000.000000      6.578064000000000E-01      1.422412000000000E+01      3.839111000000000E-01     -1.542812000000000E+02
4881000000.000000      6.578979000000000E-01      1.439893000000000E+01      3.802643000000000E-01     -1.546328000000000E+02
4882000000.000000      6.604614000000000E-01      1.441504000000000E+01      3.752289000000000E-01     -1.552109000000000E+02
4883000000.000000      6.608276000000000E-01      1.428906000000000E+01      3.695068000000000E-01     -1.560781000000000E+02
4884000000.000000      6.610718000000000E-01      1.429688000000000E+01      3.670654000000000E-01     -1.564062000000000E+02
4885000000.000000      6.622314000000000E-01      1.411182000000000E+01      3.607178000000000E-01     -1.569219000000000E+02
4886000000.000000      6.654053000000000E-01      1.389209000000000E+01      3.582001000000000E-01     -1.574375000000000E+02
4887000000.000000      6.661072000000000E-01      1.397705000000000E+01      3.549957000000000E-01     -1.580859000000000E+02
4888000000.000000      6.668701000000000E-01      1.370117000000000E+01      3.503418000000000E-01     -1.585469000000000E+02
4889000000.000000      6.693420000000000E-01      1.368896000000000E+01      3.441467000000000E-01     -1.586406000000000E+02
4890000000.000000      6.672974000000000E-01      1.359814000000000E+01      3.408508000000000E-01     -1.594531000000000E+02
4891000000.000000      6.690979000000000E-01      1.363232000000000E+01      3.368835000000000E-01     -1.600547000000000E+02
4892000000.000000      6.706238000000000E-01      1.346094000000000E+01      3.316956000000000E-01     -1.601406000000000E+02
4893000000.000000      6.730652000000000E-01      1.342236000000000E+01      3.283081000000000E-01     -1.607656000000000E+02
4894000000.000000      6.707458000000000E-01      1.339502000000000E+01      3.242493000000000E-01     -1.610547000000000E+02
4895000000.000000      6.735840000000000E-01      1.299951000000000E+01      3.206177000000000E-01     -1.614219000000000E+02
4896000000.000000      6.755981000000000E-01      1.325195000000000E+01      3.169098000000000E-01     -1.617109000000000E+02
4897000000.000000      6.751099000000000E-01      1.322461000000000E+01      3.126221000000000E-01     -1.622109000000000E+02
4898000000.000000      6.775208000000000E-01      1.307373000000000E+01      3.095398000000000E-01     -1.625078000000000E+02
4899000000.000000      6.773071000000000E-01      1.284424000000000E+01      3.052216000000000E-01     -1.628672000000000E+02
4900000000.000000      6.792297000000000E-01      1.280176000000000E+01      3.019104000000000E-01     -1.631016000000000E+02
4901000000.000000      6.788025000000000E-01      1.270410000000000E+01      2.981415000000000E-01     -1.635156000000000E+02
4902000000.000000      6.799011000000000E-01      1.248828000000000E+01      2.948151000000000E-01     -1.636797000000000E+02
4903000000.000000      6.799316000000000E-01      1.252539000000000E+01      2.903900000000000E-01     -1.642422000000000E+02
4904000000.000000      6.818542000000000E-01      1.229736000000000E+01      2.882996000000000E-01     -1.646172000000000E+02
4905000000.000000      6.837158000000000E-01      1.230713000000000E+01      2.840271000000000E-01     -1.648203000000000E+02
4906000000.000000      6.815796000000000E-01      1.208887000000000E+01      2.810516000000000E-01     -1.651406000000000E+02
4907000000.000000      6.836853000000000E-01      1.211230000000000E+01      2.778015000000000E-01     -1.655313000000000E+02
4908000000.000000      6.864014000000000E-01      1.185938000000000E+01      2.742310000000000E-01     -1.659453000000000E+02
4909000000.000000      6.853943000000000E-01      1.194336000000000E+01      2.689819000000000E-01     -1.662344000000000E+02
4910000000.000000      6.869507000000000E-01      1.187061000000000E+01      2.669373000000000E-01     -1.665234000000000E+02
4911000000.000000      6.860962000000000E-01      1.168115000000000E+01      2.636719000000000E-01     -1.667656000000000E+02
4912000000.000000      6.865845000000000E-01      1.155762000000000E+01      2.595673000000000E-01     -1.671484000000000E+02
4913000000.000000      6.884460000000000E-01      1.152979000000000E+01      2.562714000000000E-01     -1.675078000000000E+02
4914000000.000000      6.875610000000000E-01      1.146143000000000E+01      2.523651000000000E-01     -1.676484000000000E+02
4915000000.000000      6.889343000000000E-01      1.129395000000000E+01      2.492218000000000E-01     -1.680859000000000E+02
4916000000.000000      6.877136000000000E-01      1.127979000000000E+01      2.452164000000000E-01     -1.683906000000000E+02
4917000000.000000      6.921692000000000E-01      1.101611000000000E+01      2.416458000000000E-01     -1.686797000000000E+02
4918000000.000000      6.911316000000000E-01      1.091895000000000E+01      2.372360000000000E-01     -1.689062000000000E+02
4919000000.000000      6.878662000000000E-01      1.093408000000000E+01      2.347641000000000E-01     -1.688672000000000E+02
4920000000.000000      6.924744000000000E-01      1.074707000000000E+01      2.309875000000000E-01     -1.695234000000000E+02
4921000000.000000      6.906128000000000E-01      1.083936000000000E+01      2.275314000000000E-01     -1.694141000000000E+02
4922000000.000000      6.911926000000000E-01      1.070996000000000E+01      2.227783000000000E-01     -1.697891000000000E+02
4923000000.000000      6.927795000000000E-01      1.068652000000000E+01      2.202225000000000E-01     -1.699766000000000E+02
4924000000.000000      6.922302000000000E-01      1.053271000000000E+01      2.158127000000000E-01     -1.703906000000000E+02
4925000000.000000      6.929932000000000E-01      1.041895000000000E+01      2.128220000000000E-01     -1.702422000000000E+02
4926000000.000000      6.932068000000000E-01      1.039404000000000E+01      2.085266000000000E-01     -1.704609000000000E+02
4927000000.000000      6.956787000000000E-01      1.015137000000000E+01      2.047272000000000E-01     -1.706094000000000E+02
4928000000.000000      6.965332000000000E-01      9.969727000000000E+00      2.011795000000000E-01     -1.707422000000000E+02
4929000000.000000      6.936646000000000E-01      9.993164000000000E+00      1.969528000000000E-01     -1.708203000000000E+02
4930000000.000000      6.968079000000000E-01      9.839355000000000E+00      1.933975000000000E-01     -1.709531000000000E+02
4931000000.000000      6.965027000000000E-01      9.721191000000000E+00      1.904984000000000E-01     -1.709609000000000E+02
4932000000.000000      6.969910000000000E-01      9.560547000000000E+00      1.864471000000000E-01     -1.708203000000000E+02
4933000000.000000      6.983032000000000E-01      9.538574000000000E+00      1.815262000000000E-01     -1.706406000000000E+02
4934000000.000000      6.983337000000000E-01      9.387695000000000E+00      1.779251000000000E-01     -1.708672000000000E+02
4935000000.000000      6.992188000000000E-01      9.404297000000000E+00      1.747360000000000E-01     -1.705469000000000E+02
4936000000.000000      6.993713000000000E-01      9.295410000000000E+00      1.710281000000000E-01     -1.705078000000000E+02
4937000000.000000      6.989441000000000E-01      8.992188000000000E+00      1.672974000000000E-01     -1.703594000000000E+02
4938000000.000000      6.979370000000000E-01      9.139160000000000E+00      1.637573000000000E-01     -1.700000000000000E+02
4939000000.000000      6.991272000000000E-01      9.068848000000000E+00      1.597595000000000E-01     -1.695234000000000E+02
4940000000.000000      6.997681000000000E-01      8.827148000000000E+00      1.559525000000000E-01     -1.694766000000000E+02
4941000000.000000      7.015686000000000E-01      8.814941000000000E+00      1.528091000000000E-01     -1.688594000000000E+02
4942000000.000000      7.019653000000000E-01      8.772461000000000E+00      1.494904000000000E-01     -1.685390000000000E+02
4943000000.000000      7.028809000000000E-01      8.836914000000000E+00      1.458817000000000E-01     -1.676875000000000E+02
4944000000.000000      7.025452000000000E-01      8.552734000000000E+00      1.423874000000000E-01     -1.673125000000000E+02
4945000000.000000      7.028198000000000E-01      8.343750000000000E+00      1.391983000000000E-01     -1.667891000000000E+02
4946000000.000000      7.031860000000000E-01      8.334473000000000E+00      1.352921000000000E-01     -1.660391000000000E+02
4947000000.000000      7.040100000000000E-01      8.107910000000000E+00      1.321106000000000E-01     -1.650938000000000E+02
4948000000.000000      7.054443000000000E-01      8.159668000000000E+00      1.294403000000000E-01     -1.641797000000000E+02
4949000000.000000      7.054443000000000E-01      8.020996000000000E+00      1.266327000000000E-01     -1.629688000000000E+02
4950000000.000000      7.061462000000000E-01      7.984131000000000E+00      1.240387000000000E-01     -1.620781000000000E+02
4951000000.000000      7.065430000000000E-01      7.890869000000000E+00      1.212769000000000E-01     -1.611094000000000E+02
4952000000.000000      7.038879000000000E-01      7.775391000000000E+00      1.184807000000000E-01     -1.597344000000000E+02
4953000000.000000      7.063599000000000E-01      7.748047000000000E+00      1.164474000000000E-01     -1.582187000000000E+02
4954000000.000000      7.065430000000000E-01      7.627197000000000E+00      1.141090000000000E-01     -1.569766000000000E+02
