! Network Analyzer HP8722D
! Hewlett-Packard
! Data name: Linha & Wilkinson
! Saver's name: Rodrigo Anjos
! Comments: Teste da utilização de aquisição
continua pelo VNA HP8722D
! Time and date: 22/5/2025 12:01
!              Frequency                     S11                                                   S21                                                   S12                                                   S22
# HZ  S  MA R 50
4800000000.000000      6.521606000000000E-01      1.085303000000000E+01      4.702759000000000E-01     -9.254686000000000E+01
4801000000.000000      6.509094000000000E-01      1.087061000000000E+01      4.729919000000000E-01     -9.271093000000000E+01
4802000000.000000      6.490479000000000E-01      1.088867000000000E+01      4.751434000000000E-01     -9.366405000000000E+01
4803000000.000000      6.476135000000000E-01      1.078955000000000E+01      4.773102000000000E-01     -9.443359000000000E+01
4804000000.000000      6.462708000000000E-01      1.088721000000000E+01      4.783020000000000E-01     -9.535156000000000E+01
4805000000.000000      6.443787000000000E-01      1.072119000000000E+01      4.792023000000000E-01     -9.606640000000000E+01
4806000000.000000      6.411133000000000E-01      1.087061000000000E+01      4.824829000000000E-01     -9.664843000000000E+01
4807000000.000000      6.412354000000000E-01      1.072949000000000E+01      4.826202000000000E-01     -9.778906000000000E+01
4808000000.000000      6.372681000000000E-01      1.075537000000000E+01      4.837799000000000E-01     -9.832031000000000E+01
4809000000.000000      6.354675000000000E-01      1.080615000000000E+01      4.834442000000000E-01     -9.918749000000000E+01
4810000000.000000      6.361084000000000E-01      1.078564000000000E+01      4.864960000000000E-01     -9.972656000000000E+01
4811000000.000000      6.348267000000000E-01      1.082275000000000E+01      4.894562000000000E-01     -1.005586000000000E+02
4812000000.000000      6.336060000000000E-01      1.091309000000000E+01      4.892578000000000E-01     -1.013437000000000E+02
4813000000.000000      6.316528000000000E-01      1.111670000000000E+01      4.896240000000000E-01     -1.019609000000000E+02
4814000000.000000      6.304626000000000E-01      1.097119000000000E+01      4.911804000000000E-01     -1.027226000000000E+02
4815000000.000000      6.292114000000000E-01      1.116895000000000E+01      4.930420000000000E-01     -1.034375000000000E+02
4816000000.000000      6.277466000000000E-01      1.123486000000000E+01      4.944305000000000E-01     -1.041484000000000E+02
4817000000.000000      6.271362000000000E-01      1.127979000000000E+01      4.940796000000000E-01     -1.049805000000000E+02
4818000000.000000      6.245117000000000E-01      1.129932000000000E+01      4.928741000000000E-01     -1.059375000000000E+02
4819000000.000000      6.231079000000000E-01      1.137598000000000E+01      4.958954000000000E-01     -1.065351000000000E+02
4820000000.000000      6.198730000000000E-01      1.167822000000000E+01      4.958801000000000E-01     -1.072070000000000E+02
4821000000.000000      6.215820000000000E-01      1.155469000000000E+01      4.974060000000000E-01     -1.081758000000000E+02
4822000000.000000      6.192627000000000E-01      1.167529000000000E+01      4.960022000000000E-01     -1.087383000000000E+02
4823000000.000000      6.189880000000000E-01      1.163037000000000E+01      4.958191000000000E-01     -1.096016000000000E+02
4824000000.000000      6.180115000000000E-01      1.204346000000000E+01      4.975281000000000E-01     -1.103359000000000E+02
4825000000.000000      6.178284000000000E-01      1.198584000000000E+01      4.982758000000000E-01     -1.109922000000000E+02
4826000000.000000      6.176453000000000E-01      1.186914000000000E+01      5.000305000000000E-01     -1.121289000000000E+02
4827000000.000000      6.157532000000000E-01      1.199268000000000E+01      4.988403000000000E-01     -1.125000000000000E+02
4828000000.000000      6.160889000000000E-01      1.215771000000000E+01      4.997559000000000E-01     -1.132773000000000E+02
4829000000.000000      6.145325000000000E-01      1.247754000000000E+01      5.000610000000000E-01     -1.139648000000000E+02
4830000000.000000      6.159668000000000E-01      1.243066000000000E+01      4.999542000000000E-01     -1.148320000000000E+02
4831000000.000000      6.148987000000000E-01      1.248438000000000E+01      5.003052000000000E-01     -1.155781000000000E+02
4832000000.000000      6.142578000000000E-01      1.279736000000000E+01      4.999542000000000E-01     -1.161406000000000E+02
4833000000.000000      6.127625000000000E-01      1.286475000000000E+01      4.994965000000000E-01     -1.168672000000000E+02
4834000000.000000      6.127319000000000E-01      1.283594000000000E+01      4.989319000000000E-01     -1.177344000000000E+02
4835000000.000000      6.132507000000000E-01      1.302979000000000E+01      5.005493000000000E-01     -1.185352000000000E+02
4836000000.000000      6.134644000000000E-01      1.316553000000000E+01      4.983521000000000E-01     -1.193242000000000E+02
4837000000.000000      6.132202000000000E-01      1.351416000000000E+01      4.984894000000000E-01     -1.202344000000000E+02
4838000000.000000      6.123962000000000E-01      1.328906000000000E+01      4.997864000000000E-01     -1.207500000000000E+02
4839000000.000000      6.168518000000000E-01      1.361572000000000E+01      4.992371000000000E-01     -1.215508000000000E+02
4840000000.000000      6.147156000000000E-01      1.344824000000000E+01      4.985199000000000E-01     -1.224141000000000E+02
4841000000.000000      6.154175000000000E-01      1.378369000000000E+01      4.981384000000000E-01     -1.235117000000000E+02
4842000000.000000      6.174316000000000E-01      1.381641000000000E+01      4.975433000000000E-01     -1.240351000000000E+02
4843000000.000000      6.166382000000000E-01      1.369141000000000E+01      4.970093000000000E-01     -1.252109000000000E+02
4844000000.000000      6.192932000000000E-01      1.388232000000000E+01      4.950256000000000E-01     -1.257383000000000E+02
4845000000.000000      6.171570000000000E-01      1.414746000000000E+01      4.943542000000000E-01     -1.266133000000000E+02
4846000000.000000      6.192932000000000E-01      1.413525000000000E+01      4.936066000000000E-01     -1.274336000000000E+02
4847000000.000000      6.201477000000000E-01      1.428320000000000E+01      4.918518000000000E-01     -1.282109000000000E+02
4848000000.000000      6.192627000000000E-01      1.428320000000000E+01      4.889679000000000E-01     -1.290625000000000E+02
4849000000.000000      6.212769000000000E-01      1.428906000000000E+01      4.891510000000000E-01     -1.301094000000000E+02
4850000000.000000      6.217041000000000E-01      1.447852000000000E+01      4.877625000000000E-01     -1.308984000000000E+02
4851000000.000000      6.237183000000000E-01      1.462793000000000E+01      4.872131000000000E-01     -1.316250000000000E+02
4852000000.000000      6.247864000000000E-01      1.475439000000000E+01      4.830475000000000E-01     -1.323984000000000E+02
4853000000.000000      6.263428000000000E-01      1.460596000000000E+01      4.804077000000000E-01     -1.333516000000000E+02
4854000000.000000      6.264343000000000E-01      1.460059000000000E+01      4.785461000000000E-01     -1.343047000000000E+02
4855000000.000000      6.264954000000000E-01      1.468848000000000E+01      4.764862000000000E-01     -1.351719000000000E+02
4856000000.000000      6.276550000000000E-01      1.452930000000000E+01      4.749908000000000E-01     -1.359609000000000E+02
4857000000.000000      6.296997000000000E-01      1.483154000000000E+01      4.733429000000000E-01     -1.366562000000000E+02
4858000000.000000      6.302185000000000E-01      1.493018000000000E+01      4.704132000000000E-01     -1.376953000000000E+02
4859000000.000000      6.313782000000000E-01      1.473926000000000E+01      4.684753000000000E-01     -1.385234000000000E+02
4860000000.000000      6.317749000000000E-01      1.482178000000000E+01      4.651794000000000E-01     -1.393047000000000E+02
4861000000.000000      6.344299000000000E-01      1.499219000000000E+01      4.607391000000000E-01     -1.403828000000000E+02
4862000000.000000      6.333618000000000E-01      1.492627000000000E+01      4.587402000000000E-01     -1.409453000000000E+02
4863000000.000000      6.351929000000000E-01      1.501807000000000E+01      4.553680000000000E-01     -1.420781000000000E+02
4864000000.000000      6.375732000000000E-01      1.508105000000000E+01      4.520111000000000E-01     -1.427109000000000E+02
4865000000.000000      6.376953000000000E-01      1.496729000000000E+01      4.483337000000000E-01     -1.433906000000000E+02
4866000000.000000      6.411133000000000E-01      1.482861000000000E+01      4.446106000000000E-01     -1.443438000000000E+02
4867000000.000000      6.393433000000000E-01      1.482568000000000E+01      4.388885000000000E-01     -1.452578000000000E+02
4868000000.000000      6.444702000000000E-01      1.480957000000000E+01      4.374847000000000E-01     -1.459453000000000E+02
4869000000.000000      6.421814000000000E-01      1.472168000000000E+01      4.331512000000000E-01     -1.465703000000000E+02
4870000000.000000      6.440125000000000E-01      1.481055000000000E+01      4.270477000000000E-01     -1.472969000000000E+02
4871000000.000000      6.451111000000000E-01      1.473535000000000E+01      4.239502000000000E-01     -1.482500000000000E+02
4872000000.000000      6.471863000000000E-01      1.472021000000000E+01      4.201965000000000E-01     -1.486641000000000E+02
4873000000.000000      6.484680000000000E-01      1.481494000000000E+01      4.151306000000000E-01     -1.496562000000000E+02
4874000000.000000      6.507568000000000E-01      1.480371000000000E+01      4.110870000000000E-01     -1.501797000000000E+02
4875000000.000000      6.515503000000000E-01      1.458545000000000E+01      4.059296000000000E-01     -1.508672000000000E+02
4876000000.000000      6.532898000000000E-01      1.473242000000000E+01      4.031830000000000E-01     -1.515625000000000E+02
4877000000.000000      6.531677000000000E-01      1.460742000000000E+01      3.980408000000000E-01     -1.523125000000000E+02
4878000000.000000      6.536865000000000E-01      1.454834000000000E+01      3.931885000000000E-01     -1.530000000000000E+02
4879000000.000000      6.571045000000000E-01      1.456885000000000E+01      3.881989000000000E-01     -1.533516000000000E+02
4880000000.000000      6.592407000000000E-01      1.450049000000000E+01      3.840027000000000E-01     -1.541797000000000E+02
4881000000.000000      6.591187000000000E-01      1.450732000000000E+01      3.797302000000000E-01     -1.544531000000000E+02
4882000000.000000      6.591187000000000E-01      1.449463000000000E+01      3.764343000000000E-01     -1.554609000000000E+02
4883000000.000000      6.609192000000000E-01      1.416650000000000E+01      3.716583000000000E-01     -1.558672000000000E+02
4884000000.000000      6.626892000000000E-01      1.426416000000000E+01      3.669128000000000E-01     -1.562656000000000E+02
4885000000.000000      6.649170000000000E-01      1.424365000000000E+01      3.622742000000000E-01     -1.568125000000000E+02
4886000000.000000      6.649780000000000E-01      1.395264000000000E+01      3.582458000000000E-01     -1.571406000000000E+02
4887000000.000000      6.651001000000000E-01      1.400586000000000E+01      3.547363000000000E-01     -1.577344000000000E+02
4888000000.000000      6.684265000000000E-01      1.378369000000000E+01      3.505859000000000E-01     -1.582578000000000E+02
4889000000.000000      6.680603000000000E-01      1.386475000000000E+01      3.447418000000000E-01     -1.585625000000000E+02
4890000000.000000      6.665039000000000E-01      1.378613000000000E+01      3.402100000000000E-01     -1.593359000000000E+02
4891000000.000000      6.695251000000000E-01      1.368750000000000E+01      3.362732000000000E-01     -1.596328000000000E+02
4892000000.000000      6.690063000000000E-01      1.347607000000000E+01      3.325806000000000E-01     -1.597891000000000E+02
4893000000.000000      6.724243000000000E-01      1.357178000000000E+01      3.277893000000000E-01     -1.604766000000000E+02
4894000000.000000      6.742554000000000E-01      1.333447000000000E+01      3.252716000000000E-01     -1.607969000000000E+02
4895000000.000000      6.748352000000000E-01      1.333301000000000E+01      3.226471000000000E-01     -1.612969000000000E+02
4896000000.000000      6.767883000000000E-01      1.326563000000000E+01      3.182831000000000E-01     -1.616016000000000E+02
4897000000.000000      6.756287000000000E-01      1.339209000000000E+01      3.135071000000000E-01     -1.620156000000000E+02
4898000000.000000      6.780701000000000E-01      1.305859000000000E+01      3.109894000000000E-01     -1.623359000000000E+02
4899000000.000000      6.764526000000000E-01      1.291162000000000E+01      3.064423000000000E-01     -1.627969000000000E+02
4900000000.000000      6.782227000000000E-01      1.282910000000000E+01      3.018036000000000E-01     -1.631797000000000E+02
4901000000.000000      6.788635000000000E-01      1.275098000000000E+01      2.999725000000000E-01     -1.634531000000000E+02
4902000000.000000      6.805725000000000E-01      1.270703000000000E+01      2.958069000000000E-01     -1.635156000000000E+02
4903000000.000000      6.794128000000000E-01      1.262451000000000E+01      2.913208000000000E-01     -1.640703000000000E+02
4904000000.000000      6.821899000000000E-01      1.254883000000000E+01      2.882080000000000E-01     -1.644844000000000E+02
4905000000.000000      6.821899000000000E-01      1.243213000000000E+01      2.851563000000000E-01     -1.649375000000000E+02
4906000000.000000      6.821289000000000E-01      1.220557000000000E+01      2.819824000000000E-01     -1.648984000000000E+02
4907000000.000000      6.835938000000000E-01      1.219482000000000E+01      2.783356000000000E-01     -1.655234000000000E+02
4908000000.000000      6.854248000000000E-01      1.200244000000000E+01      2.750244000000000E-01     -1.659688000000000E+02
4909000000.000000      6.853943000000000E-01      1.182373000000000E+01      2.703400000000000E-01     -1.662031000000000E+02
4910000000.000000      6.835022000000000E-01      1.185107000000000E+01      2.671204000000000E-01     -1.663047000000000E+02
4911000000.000000      6.864014000000000E-01      1.178955000000000E+01      2.643280000000000E-01     -1.667187000000000E+02
4912000000.000000      6.871643000000000E-01      1.162891000000000E+01      2.610626000000000E-01     -1.671797000000000E+02
4913000000.000000      6.883240000000000E-01      1.160254000000000E+01      2.570648000000000E-01     -1.675078000000000E+02
4914000000.000000      6.896057000000000E-01      1.156689000000000E+01      2.537537000000000E-01     -1.675078000000000E+02
4915000000.000000      6.885071000000000E-01      1.137207000000000E+01      2.500305000000000E-01     -1.680547000000000E+02
4916000000.000000      6.880493000000000E-01      1.127197000000000E+01      2.466278000000000E-01     -1.684375000000000E+02
4917000000.000000      6.891785000000000E-01      1.133789000000000E+01      2.427444000000000E-01     -1.685156000000000E+02
4918000000.000000      6.923828000000000E-01      1.117578000000000E+01      2.386856000000000E-01     -1.689141000000000E+02
4919000000.000000      6.899414000000000E-01      1.116211000000000E+01      2.353821000000000E-01     -1.689141000000000E+02
4920000000.000000      6.903687000000000E-01      1.086914000000000E+01      2.317123000000000E-01     -1.694766000000000E+02
4921000000.000000      6.909180000000000E-01      1.090088000000000E+01      2.278290000000000E-01     -1.694375000000000E+02
4922000000.000000      6.900024000000000E-01      1.065381000000000E+01      2.242279000000000E-01     -1.695859000000000E+02
4923000000.000000      6.941833000000000E-01      1.064697000000000E+01      2.208023000000000E-01     -1.697813000000000E+02
4924000000.000000      6.931763000000000E-01      1.061963000000000E+01      2.168045000000000E-01     -1.701484000000000E+02
4925000000.000000      6.954041000000000E-01      1.048779000000000E+01      2.136841000000000E-01     -1.703594000000000E+02
4926000000.000000      6.943359000000000E-01      1.053174000000000E+01      2.095795000000000E-01     -1.703516000000000E+02
4927000000.000000      6.934814000000000E-01      1.009619000000000E+01      2.055588000000000E-01     -1.706016000000000E+02
4928000000.000000      6.954651000000000E-01      1.025293000000000E+01      2.023697000000000E-01     -1.706719000000000E+02
4929000000.000000      6.954956000000000E-01      9.971191000000000E+00      1.978455000000000E-01     -1.707031000000000E+02
4930000000.000000      6.963806000000000E-01      1.001221000000000E+01      1.940842000000000E-01     -1.708594000000000E+02
4931000000.000000      6.957703000000000E-01      9.927246000000000E+00      1.914597000000000E-01     -1.709297000000000E+02
4932000000.000000      6.974792000000000E-01      9.771973000000000E+00      1.872330000000000E-01     -1.709141000000000E+02
4933000000.000000      6.979065000000000E-01      9.670410000000000E+00      1.827621000000000E-01     -1.707734000000000E+02
4934000000.000000      6.980896000000000E-01      9.482422000000000E+00      1.794281000000000E-01     -1.708203000000000E+02
4935000000.000000      7.003479000000000E-01      9.486328000000000E+00      1.755524000000000E-01     -1.705937000000000E+02
4936000000.000000      6.991272000000000E-01      9.336914000000000E+00      1.716690000000000E-01     -1.705000000000000E+02
4937000000.000000      7.001648000000000E-01      9.299805000000000E+00      1.677704000000000E-01     -1.701641000000000E+02
4938000000.000000      6.988831000000000E-01      9.058105000000000E+00      1.645126000000000E-01     -1.700469000000000E+02
4939000000.000000      7.000122000000000E-01      9.102051000000000E+00      1.604462000000000E-01     -1.697813000000000E+02
4940000000.000000      7.004089000000000E-01      8.883789000000000E+00      1.565170000000000E-01     -1.696406000000000E+02
4941000000.000000      7.027893000000000E-01      8.833984000000000E+00      1.534119000000000E-01     -1.690703000000000E+02
4942000000.000000      7.003784000000000E-01      9.104492000000000E+00      1.500244000000000E-01     -1.685547000000000E+02
4943000000.000000      7.016602000000000E-01      8.818848000000000E+00      1.460876000000000E-01     -1.679375000000000E+02
4944000000.000000      6.999817000000000E-01      8.539063000000000E+00      1.429672000000000E-01     -1.675000000000000E+02
4945000000.000000      7.053528000000000E-01      8.486816000000000E+00      1.395569000000000E-01     -1.667891000000000E+02
4946000000.000000      7.030640000000000E-01      8.333008000000000E+00      1.364975000000000E-01     -1.660078000000000E+02
4947000000.000000      7.046204000000000E-01      8.261719000000000E+00      1.329803000000000E-01     -1.653125000000000E+02
4948000000.000000      7.036438000000000E-01      8.330078000000000E+00      1.302719000000000E-01     -1.644844000000000E+02
4949000000.000000      7.037048000000000E-01      8.093750000000000E+00      1.271896000000000E-01     -1.633750000000000E+02
4950000000.000000      7.063904000000000E-01      7.925049000000000E+00      1.244202000000000E-01     -1.622344000000000E+02
4951000000.000000      7.052612000000000E-01      8.076172000000000E+00      1.218834000000000E-01     -1.611797000000000E+02
4952000000.000000      7.056274000000000E-01      7.816650000000000E+00      1.188850000000000E-01     -1.599844000000000E+02
4953000000.000000      7.072144000000000E-01      7.634033000000000E+00      1.169624000000000E-01     -1.585938000000000E+02
4954000000.000000      7.074890000000000E-01      7.628418000000000E+00      1.145020000000000E-01     -1.573203000000000E+02
