! Network Analyzer HP8722D
! Hewlett-Packard
! Data name: Linha & Wilkinson
! Saver's name: Rodrigo Anjos
! Comments: Teste da utilização de aquisição
continua pelo VNA HP8722D
! Time and date: 22/5/2025 10:33
!              Frequency                     S11                                                   S21                                                   S12                                                   S22
# HZ  S  MA R 50
4800000000.000000      6.467285000000000E-01      1.039160000000000E+01      4.750519000000000E-01     -9.373827000000000E+01
4801000000.000000      6.437378000000000E-01      1.056592000000000E+01      4.770203000000000E-01     -9.421875000000000E+01
4802000000.000000      6.437378000000000E-01      1.052051000000000E+01      4.779205000000000E-01     -9.509766000000000E+01
4803000000.000000      6.412354000000000E-01      1.042285000000000E+01      4.807434000000000E-01     -9.593750000000000E+01
4804000000.000000      6.391907000000000E-01      1.038867000000000E+01      4.821472000000000E-01     -9.670702000000000E+01
4805000000.000000      6.409607000000000E-01      1.043945000000000E+01      4.838715000000000E-01     -9.748827000000000E+01
4806000000.000000      6.387024000000000E-01      1.040381000000000E+01      4.846649000000000E-01     -9.822266000000000E+01
4807000000.000000      6.350708000000000E-01      1.053418000000000E+01      4.859467000000000E-01     -9.899609000000000E+01
4808000000.000000      6.327515000000000E-01      1.045313000000000E+01      4.876099000000000E-01     -9.958984000000000E+01
4809000000.000000      6.324158000000000E-01      1.056055000000000E+01      4.893494000000000E-01     -1.004922000000000E+02
4810000000.000000      6.292725000000000E-01      1.061377000000000E+01      4.913025000000000E-01     -1.010859000000000E+02
4811000000.000000      6.286011000000000E-01      1.064258000000000E+01      4.924927000000000E-01     -1.020469000000000E+02
4812000000.000000      6.317444000000000E-01      1.075928000000000E+01      4.921570000000000E-01     -1.027734000000000E+02
4813000000.000000      6.267090000000000E-01      1.084717000000000E+01      4.935455000000000E-01     -1.035234000000000E+02
4814000000.000000      6.257019000000000E-01      1.067969000000000E+01      4.942017000000000E-01     -1.041914000000000E+02
4815000000.000000      6.237793000000000E-01      1.083789000000000E+01      4.941254000000000E-01     -1.050273000000000E+02
4816000000.000000      6.231995000000000E-01      1.100830000000000E+01      4.974976000000000E-01     -1.057031000000000E+02
4817000000.000000      6.209106000000000E-01      1.101514000000000E+01      4.952087000000000E-01     -1.065625000000000E+02
4818000000.000000      6.194763000000000E-01      1.119092000000000E+01      4.972687000000000E-01     -1.072500000000000E+02
4819000000.000000      6.202698000000000E-01      1.121143000000000E+01      4.967957000000000E-01     -1.080742000000000E+02
4820000000.000000      6.180420000000000E-01      1.135693000000000E+01      4.978027000000000E-01     -1.086055000000000E+02
4821000000.000000      6.186829000000000E-01      1.148047000000000E+01      4.994049000000000E-01     -1.097305000000000E+02
4822000000.000000      6.163635000000000E-01      1.138721000000000E+01      4.973297000000000E-01     -1.101797000000000E+02
4823000000.000000      6.157532000000000E-01      1.150635000000000E+01      4.984436000000000E-01     -1.112187000000000E+02
4824000000.000000      6.150818000000000E-01      1.190479000000000E+01      4.987335000000000E-01     -1.118320000000000E+02
4825000000.000000      6.134644000000000E-01      1.182813000000000E+01      4.987640000000000E-01     -1.126250000000000E+02
4826000000.000000      6.130066000000000E-01      1.183203000000000E+01      4.992065000000000E-01     -1.136094000000000E+02
4827000000.000000      6.133423000000000E-01      1.208057000000000E+01      5.006104000000000E-01     -1.138672000000000E+02
4828000000.000000      6.139221000000000E-01      1.203516000000000E+01      4.998322000000000E-01     -1.149609000000000E+02
4829000000.000000      6.140137000000000E-01      1.240869000000000E+01      5.005188000000000E-01     -1.154062000000000E+02
4830000000.000000      6.134033000000000E-01      1.231689000000000E+01      5.002747000000000E-01     -1.163828000000000E+02
4831000000.000000      6.118164000000000E-01      1.248584000000000E+01      5.009155000000000E-01     -1.171797000000000E+02
4832000000.000000      6.122742000000000E-01      1.271631000000000E+01      4.998474000000000E-01     -1.177344000000000E+02
4833000000.000000      6.098938000000000E-01      1.275195000000000E+01      4.996338000000000E-01     -1.186055000000000E+02
4834000000.000000      6.114807000000000E-01      1.276318000000000E+01      4.993744000000000E-01     -1.195469000000000E+02
4835000000.000000      6.123352000000000E-01      1.294043000000000E+01      5.007019000000000E-01     -1.201641000000000E+02
4836000000.000000      6.112366000000000E-01      1.320801000000000E+01      4.984131000000000E-01     -1.210586000000000E+02
4837000000.000000      6.122742000000000E-01      1.315332000000000E+01      4.988556000000000E-01     -1.219687000000000E+02
4838000000.000000      6.105957000000000E-01      1.336719000000000E+01      4.966888000000000E-01     -1.224726000000000E+02
4839000000.000000      6.150513000000000E-01      1.335107000000000E+01      4.978333000000000E-01     -1.230820000000000E+02
4840000000.000000      6.136475000000000E-01      1.342090000000000E+01      4.964600000000000E-01     -1.241445000000000E+02
4841000000.000000      6.133118000000000E-01      1.371094000000000E+01      4.962158000000000E-01     -1.248867000000000E+02
4842000000.000000      6.143799000000000E-01      1.375342000000000E+01      4.953461000000000E-01     -1.256992000000000E+02
4843000000.000000      6.177673000000000E-01      1.356641000000000E+01      4.959564000000000E-01     -1.264531000000000E+02
4844000000.000000      6.162415000000000E-01      1.370508000000000E+01      4.934540000000000E-01     -1.274844000000000E+02
4845000000.000000      6.152344000000000E-01      1.393311000000000E+01      4.917603000000000E-01     -1.281953000000000E+02
4846000000.000000      6.192017000000000E-01      1.406787000000000E+01      4.910583000000000E-01     -1.291250000000000E+02
4847000000.000000      6.197205000000000E-01      1.435498000000000E+01      4.906006000000000E-01     -1.299844000000000E+02
4848000000.000000      6.173706000000000E-01      1.398828000000000E+01      4.869080000000000E-01     -1.306875000000000E+02
4849000000.000000      6.192322000000000E-01      1.415137000000000E+01      4.860535000000000E-01     -1.315234000000000E+02
4850000000.000000      6.211853000000000E-01      1.418994000000000E+01      4.843140000000000E-01     -1.324063000000000E+02
4851000000.000000      6.231689000000000E-01      1.434668000000000E+01      4.822235000000000E-01     -1.333750000000000E+02
4852000000.000000      6.217957000000000E-01      1.429297000000000E+01      4.812317000000000E-01     -1.339922000000000E+02
4853000000.000000      6.240540000000000E-01      1.419287000000000E+01      4.767151000000000E-01     -1.349062000000000E+02
4854000000.000000      6.256409000000000E-01      1.451563000000000E+01      4.753265000000000E-01     -1.358984000000000E+02
4855000000.000000      6.252441000000000E-01      1.449365000000000E+01      4.731750000000000E-01     -1.367500000000000E+02
4856000000.000000      6.277771000000000E-01      1.450879000000000E+01      4.715424000000000E-01     -1.376016000000000E+02
4857000000.000000      6.274414000000000E-01      1.461963000000000E+01      4.696960000000000E-01     -1.382891000000000E+02
4858000000.000000      6.293640000000000E-01      1.459229000000000E+01      4.649811000000000E-01     -1.392344000000000E+02
4859000000.000000      6.296997000000000E-01      1.452100000000000E+01      4.646454000000000E-01     -1.401094000000000E+02
4860000000.000000      6.311951000000000E-01      1.473242000000000E+01      4.590454000000000E-01     -1.407109000000000E+02
4861000000.000000      6.344910000000000E-01      1.454590000000000E+01      4.565887000000000E-01     -1.417656000000000E+02
4862000000.000000      6.348267000000000E-01      1.458252000000000E+01      4.529724000000000E-01     -1.423594000000000E+02
4863000000.000000      6.358032000000000E-01      1.452930000000000E+01      4.492950000000000E-01     -1.434297000000000E+02
4864000000.000000      6.369934000000000E-01      1.457715000000000E+01      4.476929000000000E-01     -1.439687000000000E+02
4865000000.000000      6.382141000000000E-01      1.454980000000000E+01      4.425354000000000E-01     -1.447500000000000E+02
4866000000.000000      6.394348000000000E-01      1.454297000000000E+01      4.375610000000000E-01     -1.456797000000000E+02
4867000000.000000      6.401978000000000E-01      1.460449000000000E+01      4.342804000000000E-01     -1.464844000000000E+02
4868000000.000000      6.413574000000000E-01      1.458545000000000E+01      4.297943000000000E-01     -1.471562000000000E+02
4869000000.000000      6.427612000000000E-01      1.444531000000000E+01      4.264526000000000E-01     -1.478359000000000E+02
4870000000.000000      6.440430000000000E-01      1.449463000000000E+01      4.234161000000000E-01     -1.485078000000000E+02
4871000000.000000      6.445923000000000E-01      1.449072000000000E+01      4.172668000000000E-01     -1.495937000000000E+02
4872000000.000000      6.480408000000000E-01      1.439600000000000E+01      4.130859000000000E-01     -1.501250000000000E+02
4873000000.000000      6.494751000000000E-01      1.443018000000000E+01      4.091644000000000E-01     -1.508516000000000E+02
4874000000.000000      6.494751000000000E-01      1.439307000000000E+01      4.057312000000000E-01     -1.513672000000000E+02
4875000000.000000      6.513977000000000E-01      1.430957000000000E+01      3.999634000000000E-01     -1.519375000000000E+02
4876000000.000000      6.527710000000000E-01      1.426416000000000E+01      3.950500000000000E-01     -1.528828000000000E+02
4877000000.000000      6.532288000000000E-01      1.403467000000000E+01      3.923492000000000E-01     -1.534062000000000E+02
4878000000.000000      6.534729000000000E-01      1.421045000000000E+01      3.876648000000000E-01     -1.539687000000000E+02
4879000000.000000      6.554565000000000E-01      1.414063000000000E+01      3.826904000000000E-01     -1.546016000000000E+02
4880000000.000000      6.572571000000000E-01      1.391406000000000E+01      3.784943000000000E-01     -1.551094000000000E+02
4881000000.000000      6.594238000000000E-01      1.411865000000000E+01      3.747711000000000E-01     -1.556719000000000E+02
4882000000.000000      6.611633000000000E-01      1.402930000000000E+01      3.703003000000000E-01     -1.563750000000000E+02
4883000000.000000      6.602478000000000E-01      1.389209000000000E+01      3.664398000000000E-01     -1.566406000000000E+02
4884000000.000000      6.622314000000000E-01      1.382617000000000E+01      3.605804000000000E-01     -1.573828000000000E+02
4885000000.000000      6.640015000000000E-01      1.399219000000000E+01      3.562469000000000E-01     -1.575703000000000E+02
4886000000.000000      6.632690000000000E-01      1.377100000000000E+01      3.516693000000000E-01     -1.580859000000000E+02
4887000000.000000      6.648254000000000E-01      1.361572000000000E+01      3.485260000000000E-01     -1.587422000000000E+02
4888000000.000000      6.663208000000000E-01      1.343750000000000E+01      3.442535000000000E-01     -1.593281000000000E+02
4889000000.000000      6.703491000000000E-01      1.329443000000000E+01      3.389893000000000E-01     -1.594453000000000E+02
4890000000.000000      6.696777000000000E-01      1.334961000000000E+01      3.356781000000000E-01     -1.601797000000000E+02
4891000000.000000      6.678467000000000E-01      1.335938000000000E+01      3.315125000000000E-01     -1.605859000000000E+02
4892000000.000000      6.704712000000000E-01      1.321777000000000E+01      3.268280000000000E-01     -1.606562000000000E+02
4893000000.000000      6.719055000000000E-01      1.311768000000000E+01      3.231049000000000E-01     -1.611719000000000E+02
4894000000.000000      6.722412000000000E-01      1.311621000000000E+01      3.191528000000000E-01     -1.615781000000000E+02
4895000000.000000      6.733398000000000E-01      1.291016000000000E+01      3.171997000000000E-01     -1.620078000000000E+02
4896000000.000000      6.745911000000000E-01      1.279736000000000E+01      3.127441000000000E-01     -1.623672000000000E+02
4897000000.000000      6.746826000000000E-01      1.275879000000000E+01      3.081360000000000E-01     -1.627266000000000E+02
4898000000.000000      6.754456000000000E-01      1.275781000000000E+01      3.051300000000000E-01     -1.630625000000000E+02
4899000000.000000      6.766052000000000E-01      1.268750000000000E+01      3.006744000000000E-01     -1.635156000000000E+02
4900000000.000000      6.794128000000000E-01      1.238428000000000E+01      2.975311000000000E-01     -1.637187000000000E+02
4901000000.000000      6.781921000000000E-01      1.229053000000000E+01      2.935486000000000E-01     -1.640938000000000E+02
4902000000.000000      6.798401000000000E-01      1.236914000000000E+01      2.907410000000000E-01     -1.642344000000000E+02
4903000000.000000      6.788940000000000E-01      1.204346000000000E+01      2.858887000000000E-01     -1.646953000000000E+02
4904000000.000000      6.810303000000000E-01      1.198193000000000E+01      2.819672000000000E-01     -1.651250000000000E+02
4905000000.000000      6.835327000000000E-01      1.200781000000000E+01      2.794342000000000E-01     -1.653672000000000E+02
4906000000.000000      6.823120000000000E-01      1.184570000000000E+01      2.755280000000000E-01     -1.653359000000000E+02
4907000000.000000      6.834412000000000E-01      1.169727000000000E+01      2.730103000000000E-01     -1.660625000000000E+02
4908000000.000000      6.831665000000000E-01      1.143652000000000E+01      2.691803000000000E-01     -1.663359000000000E+02
4909000000.000000      6.827087000000000E-01      1.160938000000000E+01      2.650757000000000E-01     -1.666250000000000E+02
4910000000.000000      6.843262000000000E-01      1.140381000000000E+01      2.619324000000000E-01     -1.668203000000000E+02
4911000000.000000      6.852722000000000E-01      1.139404000000000E+01      2.588959000000000E-01     -1.671484000000000E+02
4912000000.000000      6.862793000000000E-01      1.134473000000000E+01      2.554321000000000E-01     -1.674297000000000E+02
4913000000.000000      6.867676000000000E-01      1.109619000000000E+01      2.512817000000000E-01     -1.678437000000000E+02
4914000000.000000      6.859741000000000E-01      1.094482000000000E+01      2.483902000000000E-01     -1.679688000000000E+02
4915000000.000000      6.895752000000000E-01      1.106152000000000E+01      2.442627000000000E-01     -1.683125000000000E+02
4916000000.000000      6.891174000000000E-01      1.072656000000000E+01      2.411804000000000E-01     -1.687969000000000E+02
4917000000.000000      6.880493000000000E-01      1.078955000000000E+01      2.370224000000000E-01     -1.688203000000000E+02
4918000000.000000      6.887207000000000E-01      1.060547000000000E+01      2.332840000000000E-01     -1.692656000000000E+02
4919000000.000000      6.881714000000000E-01      1.051074000000000E+01      2.299881000000000E-01     -1.691641000000000E+02
4920000000.000000      6.900024000000000E-01      1.028174000000000E+01      2.255859000000000E-01     -1.697500000000000E+02
4921000000.000000      6.896362000000000E-01      1.036963000000000E+01      2.231674000000000E-01     -1.696563000000000E+02
4922000000.000000      6.928101000000000E-01      1.028857000000000E+01      2.191544000000000E-01     -1.698516000000000E+02
4923000000.000000      6.911316000000000E-01      1.040088000000000E+01      2.147827000000000E-01     -1.699453000000000E+02
4924000000.000000      6.933899000000000E-01      1.005762000000000E+01      2.110672000000000E-01     -1.703047000000000E+02
4925000000.000000      6.932678000000000E-01      1.004834000000000E+01      2.078629000000000E-01     -1.703438000000000E+02
4926000000.000000      6.930847000000000E-01      9.927246000000000E+00      2.045288000000000E-01     -1.704375000000000E+02
4927000000.000000      6.926575000000000E-01      9.818848000000000E+00      2.003403000000000E-01     -1.706563000000000E+02
4928000000.000000      6.943970000000000E-01      9.809082000000000E+00      1.968002000000000E-01     -1.707344000000000E+02
4929000000.000000      6.944275000000000E-01      9.446777000000000E+00      1.927643000000000E-01     -1.706328000000000E+02
4930000000.000000      6.930237000000000E-01      9.541504000000000E+00      1.892929000000000E-01     -1.706719000000000E+02
4931000000.000000      6.936646000000000E-01      9.399902000000000E+00      1.856003000000000E-01     -1.707266000000000E+02
4932000000.000000      6.943359000000000E-01      9.192383000000000E+00      1.819153000000000E-01     -1.706953000000000E+02
4933000000.000000      6.949768000000000E-01      9.218750000000000E+00      1.776733000000000E-01     -1.703203000000000E+02
4934000000.000000      6.970215000000000E-01      9.020996000000000E+00      1.743698000000000E-01     -1.705391000000000E+02
4935000000.000000      6.982727000000000E-01      8.993652000000000E+00      1.706314000000000E-01     -1.701015000000000E+02
4936000000.000000      6.971130000000000E-01      8.777832000000000E+00      1.670609000000000E-01     -1.698047000000000E+02
4937000000.000000      6.975403000000000E-01      8.886230000000000E+00      1.634598000000000E-01     -1.698047000000000E+02
4938000000.000000      6.978760000000000E-01      8.714844000000000E+00      1.598434000000000E-01     -1.692734000000000E+02
4939000000.000000      6.974182000000000E-01      8.946777000000000E+00      1.562271000000000E-01     -1.689922000000000E+02
4940000000.000000      6.996765000000000E-01      8.630859000000000E+00      1.525421000000000E-01     -1.687031000000000E+02
4941000000.000000      6.999512000000000E-01      8.445313000000000E+00      1.489944000000000E-01     -1.681719000000000E+02
4942000000.000000      6.990967000000000E-01      8.350586000000000E+00      1.456909000000000E-01     -1.675078000000000E+02
4943000000.000000      7.028503000000000E-01      8.129883000000000E+00      1.427078000000000E-01     -1.668281000000000E+02
4944000000.000000      7.012634000000000E-01      8.192871000000000E+00      1.393585000000000E-01     -1.663125000000000E+02
4945000000.000000      7.012634000000000E-01      7.968994000000000E+00      1.357193000000000E-01     -1.656328000000000E+02
4946000000.000000      7.037354000000000E-01      7.971924000000000E+00      1.331635000000000E-01     -1.646250000000000E+02
4947000000.000000      7.032471000000000E-01      7.866211000000000E+00      1.299744000000000E-01     -1.636953000000000E+02
4948000000.000000      7.034607000000000E-01      7.835938000000000E+00      1.269608000000000E-01     -1.627266000000000E+02
4949000000.000000      7.017822000000000E-01      7.654541000000000E+00      1.244202000000000E-01     -1.613672000000000E+02
4950000000.000000      7.051392000000000E-01      7.709473000000000E+00      1.218567000000000E-01     -1.603750000000000E+02
4951000000.000000      7.058411000000000E-01      7.401855000000000E+00      1.194992000000000E-01     -1.594922000000000E+02
4952000000.000000      7.056580000000000E-01      7.348389000000000E+00      1.168671000000000E-01     -1.576797000000000E+02
4953000000.000000      7.067261000000000E-01      7.275635000000000E+00      1.151085000000000E-01     -1.562734000000000E+02
4954000000.000000      7.041931000000000E-01      7.082031000000000E+00      1.132736000000000E-01     -1.548984000000000E+02
