! Network Analyzer HP8722D
! Hewlett-Packard
! Data name: Linha & Wilkinson
! Saver's name: Rodrigo Anjos
! Comments: Teste da utilização de aquisição
continua pelo VNA HP8722D
! Time and date: 22/5/2025 09:45
!              Frequency                     S11                                                   S21                                                   S12                                                   S22
# HZ  S  MA R 50
4800000000.000000      6.464844000000000E-01      1.042041000000000E+01      4.754791000000000E-01     -9.378515000000000E+01
4801000000.000000      6.445007000000000E-01      1.043408000000000E+01      4.762115000000000E-01     -9.448046000000000E+01
4802000000.000000      6.439819000000000E-01      1.039551000000000E+01      4.772644000000000E-01     -9.524218000000000E+01
4803000000.000000      6.408691000000000E-01      1.042969000000000E+01      4.814911000000000E-01     -9.593750000000000E+01
4804000000.000000      6.407166000000000E-01      1.031445000000000E+01      4.818726000000000E-01     -9.664452000000000E+01
4805000000.000000      6.402588000000000E-01      1.028418000000000E+01      4.835510000000000E-01     -9.752733000000000E+01
4806000000.000000      6.366577000000000E-01      1.043262000000000E+01      4.848938000000000E-01     -9.825390000000000E+01
4807000000.000000      6.351318000000000E-01      1.028174000000000E+01      4.861755000000000E-01     -9.921484000000000E+01
4808000000.000000      6.330261000000000E-01      1.044238000000000E+01      4.873810000000000E-01     -9.992188000000000E+01
4809000000.000000      6.307983000000000E-01      1.063721000000000E+01      4.878845000000000E-01     -1.005703000000000E+02
4810000000.000000      6.301575000000000E-01      1.059863000000000E+01      4.906769000000000E-01     -1.013359000000000E+02
4811000000.000000      6.293640000000000E-01      1.053174000000000E+01      4.906616000000000E-01     -1.022344000000000E+02
4812000000.000000      6.297607000000000E-01      1.070996000000000E+01      4.918518000000000E-01     -1.027500000000000E+02
4813000000.000000      6.270447000000000E-01      1.059473000000000E+01      4.940948000000000E-01     -1.037734000000000E+02
4814000000.000000      6.249695000000000E-01      1.075000000000000E+01      4.946289000000000E-01     -1.041289000000000E+02
4815000000.000000      6.239319000000000E-01      1.091602000000000E+01      4.941406000000000E-01     -1.051445000000000E+02
4816000000.000000      6.241760000000000E-01      1.099707000000000E+01      4.965515000000000E-01     -1.057265000000000E+02
4817000000.000000      6.210022000000000E-01      1.097363000000000E+01      4.955902000000000E-01     -1.066094000000000E+02
4818000000.000000      6.196899000000000E-01      1.099707000000000E+01      4.963531000000000E-01     -1.073125000000000E+02
4819000000.000000      6.196899000000000E-01      1.116895000000000E+01      4.969635000000000E-01     -1.081133000000000E+02
4820000000.000000      6.167603000000000E-01      1.136768000000000E+01      4.959717000000000E-01     -1.087266000000000E+02
4821000000.000000      6.181641000000000E-01      1.135400000000000E+01      4.982452000000000E-01     -1.096719000000000E+02
4822000000.000000      6.159668000000000E-01      1.119189000000000E+01      4.972382000000000E-01     -1.103750000000000E+02
4823000000.000000      6.161194000000000E-01      1.135156000000000E+01      4.983368000000000E-01     -1.110234000000000E+02
4824000000.000000      6.145325000000000E-01      1.167676000000000E+01      4.986267000000000E-01     -1.119609000000000E+02
4825000000.000000      6.148071000000000E-01      1.155322000000000E+01      4.984894000000000E-01     -1.126875000000000E+02
4826000000.000000      6.127625000000000E-01      1.161768000000000E+01      4.987183000000000E-01     -1.134453000000000E+02
4827000000.000000      6.147461000000000E-01      1.189941000000000E+01      4.984741000000000E-01     -1.140156000000000E+02
4828000000.000000      6.139221000000000E-01      1.201172000000000E+01      5.007324000000000E-01     -1.148750000000000E+02
4829000000.000000      6.120300000000000E-01      1.216553000000000E+01      5.010071000000000E-01     -1.155195000000000E+02
4830000000.000000      6.131897000000000E-01      1.218652000000000E+01      5.002747000000000E-01     -1.164141000000000E+02
4831000000.000000      6.110229000000000E-01      1.231836000000000E+01      5.011292000000000E-01     -1.171758000000000E+02
4832000000.000000      6.111755000000000E-01      1.279346000000000E+01      4.996796000000000E-01     -1.178672000000000E+02
4833000000.000000      6.108398000000000E-01      1.263281000000000E+01      4.993134000000000E-01     -1.186172000000000E+02
4834000000.000000      6.128235000000000E-01      1.273682000000000E+01      5.001526000000000E-01     -1.193867000000000E+02
4835000000.000000      6.125488000000000E-01      1.276709000000000E+01      4.996643000000000E-01     -1.201797000000000E+02
4836000000.000000      6.119995000000000E-01      1.298291000000000E+01      4.978943000000000E-01     -1.209453000000000E+02
4837000000.000000      6.118469000000000E-01      1.325342000000000E+01      4.983368000000000E-01     -1.219375000000000E+02
4838000000.000000      6.110840000000000E-01      1.310645000000000E+01      4.983826000000000E-01     -1.223164000000000E+02
4839000000.000000      6.149292000000000E-01      1.339893000000000E+01      4.979553000000000E-01     -1.232695000000000E+02
4840000000.000000      6.149597000000000E-01      1.338379000000000E+01      4.964752000000000E-01     -1.240039000000000E+02
4841000000.000000      6.154175000000000E-01      1.337158000000000E+01      4.963989000000000E-01     -1.248750000000000E+02
4842000000.000000      6.139221000000000E-01      1.358594000000000E+01      4.948883000000000E-01     -1.258203000000000E+02
4843000000.000000      6.184387000000000E-01      1.347998000000000E+01      4.959717000000000E-01     -1.267344000000000E+02
4844000000.000000      6.155090000000000E-01      1.364063000000000E+01      4.927368000000000E-01     -1.275820000000000E+02
4845000000.000000      6.168213000000000E-01      1.378369000000000E+01      4.919586000000000E-01     -1.281328000000000E+02
4846000000.000000      6.184387000000000E-01      1.387549000000000E+01      4.892731000000000E-01     -1.291250000000000E+02
4847000000.000000      6.202393000000000E-01      1.408154000000000E+01      4.898987000000000E-01     -1.298906000000000E+02
4848000000.000000      6.193848000000000E-01      1.401025000000000E+01      4.866028000000000E-01     -1.306484000000000E+02
4849000000.000000      6.191711000000000E-01      1.395264000000000E+01      4.857483000000000E-01     -1.315703000000000E+02
4850000000.000000      6.203918000000000E-01      1.405957000000000E+01      4.840698000000000E-01     -1.324844000000000E+02
4851000000.000000      6.225891000000000E-01      1.423242000000000E+01      4.833679000000000E-01     -1.334609000000000E+02
4852000000.000000      6.245422000000000E-01      1.427930000000000E+01      4.815369000000000E-01     -1.341484000000000E+02
4853000000.000000      6.243286000000000E-01      1.417773000000000E+01      4.777527000000000E-01     -1.350156000000000E+02
4854000000.000000      6.262512000000000E-01      1.431787000000000E+01      4.758301000000000E-01     -1.359688000000000E+02
4855000000.000000      6.274719000000000E-01      1.431885000000000E+01      4.732056000000000E-01     -1.366953000000000E+02
4856000000.000000      6.257935000000000E-01      1.431494000000000E+01      4.710388000000000E-01     -1.375234000000000E+02
4857000000.000000      6.282959000000000E-01      1.443604000000000E+01      4.692841000000000E-01     -1.383594000000000E+02
4858000000.000000      6.282654000000000E-01      1.440576000000000E+01      4.666443000000000E-01     -1.390234000000000E+02
4859000000.000000      6.312561000000000E-01      1.440137000000000E+01      4.640961000000000E-01     -1.400703000000000E+02
4860000000.000000      6.319885000000000E-01      1.451270000000000E+01      4.604034000000000E-01     -1.407422000000000E+02
4861000000.000000      6.325378000000000E-01      1.445654000000000E+01      4.583893000000000E-01     -1.418984000000000E+02
4862000000.000000      6.334839000000000E-01      1.468018000000000E+01      4.533539000000000E-01     -1.423125000000000E+02
4863000000.000000      6.337585000000000E-01      1.454590000000000E+01      4.482117000000000E-01     -1.434375000000000E+02
4864000000.000000      6.372681000000000E-01      1.456348000000000E+01      4.454956000000000E-01     -1.441953000000000E+02
4865000000.000000      6.366272000000000E-01      1.439307000000000E+01      4.415894000000000E-01     -1.447500000000000E+02
4866000000.000000      6.402893000000000E-01      1.460742000000000E+01      4.378662000000000E-01     -1.459219000000000E+02
4867000000.000000      6.390076000000000E-01      1.449365000000000E+01      4.350281000000000E-01     -1.465469000000000E+02
4868000000.000000      6.426392000000000E-01      1.451953000000000E+01      4.319458000000000E-01     -1.473906000000000E+02
4869000000.000000      6.413269000000000E-01      1.444385000000000E+01      4.268799000000000E-01     -1.479375000000000E+02
4870000000.000000      6.462708000000000E-01      1.445654000000000E+01      4.238892000000000E-01     -1.486094000000000E+02
4871000000.000000      6.442261000000000E-01      1.422852000000000E+01      4.187775000000000E-01     -1.495703000000000E+02
4872000000.000000      6.473999000000000E-01      1.435205000000000E+01      4.144440000000000E-01     -1.501016000000000E+02
4873000000.000000      6.475830000000000E-01      1.435352000000000E+01      4.095306000000000E-01     -1.510078000000000E+02
4874000000.000000      6.491089000000000E-01      1.429150000000000E+01      4.058380000000000E-01     -1.515391000000000E+02
4875000000.000000      6.515503000000000E-01      1.423682000000000E+01      4.003601000000000E-01     -1.521484000000000E+02
4876000000.000000      6.519775000000000E-01      1.424365000000000E+01      3.973846000000000E-01     -1.527734000000000E+02
4877000000.000000      6.541138000000000E-01      1.408984000000000E+01      3.925476000000000E-01     -1.533359000000000E+02
4878000000.000000      6.534424000000000E-01      1.407178000000000E+01      3.873138000000000E-01     -1.541641000000000E+02
4879000000.000000      6.561890000000000E-01      1.395654000000000E+01      3.829803000000000E-01     -1.546406000000000E+02
4880000000.000000      6.583557000000000E-01      1.387256000000000E+01      3.790436000000000E-01     -1.552813000000000E+02
4881000000.000000      6.589050000000000E-01      1.414893000000000E+01      3.743286000000000E-01     -1.555312000000000E+02
4882000000.000000      6.608582000000000E-01      1.396729000000000E+01      3.707581000000000E-01     -1.563516000000000E+02
4883000000.000000      6.611023000000000E-01      1.379053000000000E+01      3.657990000000000E-01     -1.568828000000000E+02
4884000000.000000      6.621704000000000E-01      1.379150000000000E+01      3.612061000000000E-01     -1.572578000000000E+02
4885000000.000000      6.641541000000000E-01      1.374512000000000E+01      3.579254000000000E-01     -1.575938000000000E+02
4886000000.000000      6.630554000000000E-01      1.370801000000000E+01      3.526764000000000E-01     -1.582187000000000E+02
4887000000.000000      6.653137000000000E-01      1.365430000000000E+01      3.486176000000000E-01     -1.587265000000000E+02
4888000000.000000      6.684265000000000E-01      1.342383000000000E+01      3.465424000000000E-01     -1.592578000000000E+02
4889000000.000000      6.681824000000000E-01      1.340430000000000E+01      3.394775000000000E-01     -1.596641000000000E+02
4890000000.000000      6.663208000000000E-01      1.325635000000000E+01      3.361511000000000E-01     -1.602578000000000E+02
4891000000.000000      6.689453000000000E-01      1.316846000000000E+01      3.319092000000000E-01     -1.603906000000000E+02
4892000000.000000      6.691589000000000E-01      1.305957000000000E+01      3.263702000000000E-01     -1.607969000000000E+02
4893000000.000000      6.708374000000000E-01      1.288379000000000E+01      3.229828000000000E-01     -1.614531000000000E+02
4894000000.000000      6.707764000000000E-01      1.286084000000000E+01      3.198547000000000E-01     -1.616562000000000E+02
4895000000.000000      6.737366000000000E-01      1.287305000000000E+01      3.169403000000000E-01     -1.619922000000000E+02
4896000000.000000      6.738281000000000E-01      1.284961000000000E+01      3.128510000000000E-01     -1.624297000000000E+02
4897000000.000000      6.743469000000000E-01      1.289648000000000E+01      3.078613000000000E-01     -1.628047000000000E+02
4898000000.000000      6.766357000000000E-01      1.252295000000000E+01      3.047791000000000E-01     -1.630469000000000E+02
4899000000.000000      6.766052000000000E-01      1.248438000000000E+01      3.014221000000000E-01     -1.635313000000000E+02
4900000000.000000      6.788330000000000E-01      1.227148000000000E+01      2.964935000000000E-01     -1.638672000000000E+02
4901000000.000000      6.764526000000000E-01      1.236084000000000E+01      2.941742000000000E-01     -1.641094000000000E+02
4902000000.000000      6.785889000000000E-01      1.217822000000000E+01      2.906342000000000E-01     -1.643047000000000E+02
4903000000.000000      6.793213000000000E-01      1.223047000000000E+01      2.857208000000000E-01     -1.648594000000000E+02
4904000000.000000      6.822815000000000E-01      1.216309000000000E+01      2.834625000000000E-01     -1.652109000000000E+02
4905000000.000000      6.808777000000000E-01      1.183203000000000E+01      2.796783000000000E-01     -1.654844000000000E+02
4906000000.000000      6.820679000000000E-01      1.183496000000000E+01      2.766113000000000E-01     -1.655156000000000E+02
4907000000.000000      6.832886000000000E-01      1.160400000000000E+01      2.733307000000000E-01     -1.661406000000000E+02
4908000000.000000      6.829529000000000E-01      1.146973000000000E+01      2.700348000000000E-01     -1.664375000000000E+02
4909000000.000000      6.823730000000000E-01      1.128271000000000E+01      2.656555000000000E-01     -1.666875000000000E+02
4910000000.000000      6.854553000000000E-01      1.139551000000000E+01      2.626648000000000E-01     -1.668281000000000E+02
4911000000.000000      6.844482000000000E-01      1.131592000000000E+01      2.588196000000000E-01     -1.671016000000000E+02
4912000000.000000      6.867981000000000E-01      1.120850000000000E+01      2.552185000000000E-01     -1.674375000000000E+02
4913000000.000000      6.866455000000000E-01      1.106836000000000E+01      2.517242000000000E-01     -1.677656000000000E+02
4914000000.000000      6.882324000000000E-01      1.084033000000000E+01      2.480316000000000E-01     -1.680000000000000E+02
4915000000.000000      6.884766000000000E-01      1.082422000000000E+01      2.447586000000000E-01     -1.684219000000000E+02
4916000000.000000      6.904602000000000E-01      1.085156000000000E+01      2.408066000000000E-01     -1.688828000000000E+02
4917000000.000000      6.883545000000000E-01      1.080762000000000E+01      2.373199000000000E-01     -1.689141000000000E+02
4918000000.000000      6.902466000000000E-01      1.063184000000000E+01      2.332687000000000E-01     -1.690859000000000E+02
4919000000.000000      6.885071000000000E-01      1.048779000000000E+01      2.300873000000000E-01     -1.691953000000000E+02
4920000000.000000      6.895447000000000E-01      1.028418000000000E+01      2.265625000000000E-01     -1.697422000000000E+02
4921000000.000000      6.907959000000000E-01      1.040381000000000E+01      2.231750000000000E-01     -1.697109000000000E+02
4922000000.000000      6.922607000000000E-01      1.022119000000000E+01      2.196198000000000E-01     -1.697813000000000E+02
4923000000.000000      6.908875000000000E-01      1.010840000000000E+01      2.153168000000000E-01     -1.700547000000000E+02
4924000000.000000      6.929321000000000E-01      1.013477000000000E+01      2.114029000000000E-01     -1.703828000000000E+02
4925000000.000000      6.943054000000000E-01      9.912109000000000E+00      2.082596000000000E-01     -1.704141000000000E+02
4926000000.000000      6.947021000000000E-01      9.855957000000000E+00      2.041397000000000E-01     -1.706953000000000E+02
4927000000.000000      6.925049000000000E-01      9.763672000000000E+00      2.003937000000000E-01     -1.708750000000000E+02
4928000000.000000      6.966553000000000E-01      9.596191000000000E+00      1.969986000000000E-01     -1.705859000000000E+02
4929000000.000000      6.928711000000000E-01      9.587891000000000E+00      1.929245000000000E-01     -1.706875000000000E+02
4930000000.000000      6.941528000000000E-01      9.339355000000000E+00      1.896057000000000E-01     -1.707422000000000E+02
4931000000.000000      6.943359000000000E-01      9.283203000000000E+00      1.862259000000000E-01     -1.706797000000000E+02
4932000000.000000      6.961365000000000E-01      9.313477000000000E+00      1.816025000000000E-01     -1.707266000000000E+02
4933000000.000000      6.959839000000000E-01      9.068848000000000E+00      1.776352000000000E-01     -1.704766000000000E+02
4934000000.000000      6.975403000000000E-01      9.117188000000000E+00      1.748657000000000E-01     -1.704609000000000E+02
4935000000.000000      6.990662000000000E-01      8.985352000000000E+00      1.713562000000000E-01     -1.701406000000000E+02
4936000000.000000      6.988525000000000E-01      8.803711000000000E+00      1.669922000000000E-01     -1.700391000000000E+02
4937000000.000000      6.980896000000000E-01      8.580078000000000E+00      1.632309000000000E-01     -1.697969000000000E+02
4938000000.000000      6.981201000000000E-01      8.676270000000000E+00      1.600647000000000E-01     -1.694219000000000E+02
4939000000.000000      6.991882000000000E-01      8.586914000000000E+00      1.566925000000000E-01     -1.689141000000000E+02
4940000000.000000      6.983337000000000E-01      8.417969000000000E+00      1.527023000000000E-01     -1.688906000000000E+02
4941000000.000000      7.000427000000000E-01      8.132324000000000E+00      1.498337000000000E-01     -1.680547000000000E+02
4942000000.000000      6.980591000000000E-01      8.243652000000000E+00      1.456909000000000E-01     -1.676953000000000E+02
4943000000.000000      7.019348000000000E-01      8.225586000000000E+00      1.426086000000000E-01     -1.668594000000000E+02
4944000000.000000      7.008362000000000E-01      7.918213000000000E+00      1.394348000000000E-01     -1.663828000000000E+02
4945000000.000000      7.009583000000000E-01      7.937500000000000E+00      1.357727000000000E-01     -1.656094000000000E+02
4946000000.000000      7.032471000000000E-01      7.793213000000000E+00      1.330948000000000E-01     -1.646094000000000E+02
4947000000.000000      7.019043000000000E-01      7.645020000000000E+00      1.297302000000000E-01     -1.637344000000000E+02
4948000000.000000      7.053528000000000E-01      7.734375000000000E+00      1.269913000000000E-01     -1.628359000000000E+02
4949000000.000000      7.035217000000000E-01      7.631348000000000E+00      1.248016000000000E-01     -1.612734000000000E+02
4950000000.000000      7.046509000000000E-01      7.660156000000000E+00      1.221085000000000E-01     -1.603984000000000E+02
4951000000.000000      7.055054000000000E-01      7.370361000000000E+00      1.197205000000000E-01     -1.595000000000000E+02
4952000000.000000      7.049255000000000E-01      7.265869000000000E+00      1.171150000000000E-01     -1.577969000000000E+02
4953000000.000000      7.067566000000000E-01      7.183594000000000E+00      1.150055000000000E-01     -1.564297000000000E+02
4954000000.000000      7.058411000000000E-01      7.054443000000000E+00      1.129189000000000E-01     -1.550313000000000E+02
