! Network Analyzer HP8722D
! Hewlett-Packard
! Data name: Linha & Wilkinson
! Saver's name: Rodrigo Anjos
! Comments: Teste da utilização de aquisição
continua pelo VNA HP8722D
! Time and date: 22/5/2025 09:03
!              Frequency                     S11                                                   S21                                                   S12                                                   S22
# HZ  S  MA R 50
4800000000.000000      6.469727000000000E-01      1.031592000000000E+01      4.737396000000000E-01     -9.384375000000000E+01
4801000000.000000      6.460571000000000E-01      1.039160000000000E+01      4.759521000000000E-01     -9.455078000000000E+01
4802000000.000000      6.439209000000000E-01      1.039014000000000E+01      4.776154000000000E-01     -9.513281000000000E+01
4803000000.000000      6.412964000000000E-01      1.043701000000000E+01      4.810181000000000E-01     -9.578516000000000E+01
4804000000.000000      6.402893000000000E-01      1.023926000000000E+01      4.823761000000000E-01     -9.664063000000000E+01
4805000000.000000      6.393433000000000E-01      1.016895000000000E+01      4.841766000000000E-01     -9.756639000000000E+01
4806000000.000000      6.367798000000000E-01      1.032715000000000E+01      4.845123000000000E-01     -9.829687000000000E+01
4807000000.000000      6.360474000000000E-01      1.027197000000000E+01      4.870300000000000E-01     -9.908983000000000E+01
4808000000.000000      6.337585000000000E-01      1.027344000000000E+01      4.880219000000000E-01     -9.963671000000000E+01
4809000000.000000      6.303711000000000E-01      1.052051000000000E+01      4.895020000000000E-01     -1.008047000000000E+02
4810000000.000000      6.301880000000000E-01      1.043945000000000E+01      4.904785000000000E-01     -1.013320000000000E+02
4811000000.000000      6.291199000000000E-01      1.043701000000000E+01      4.912720000000000E-01     -1.020586000000000E+02
4812000000.000000      6.285095000000000E-01      1.068555000000000E+01      4.928741000000000E-01     -1.027383000000000E+02
4813000000.000000      6.272583000000000E-01      1.070459000000000E+01      4.932861000000000E-01     -1.037500000000000E+02
4814000000.000000      6.254883000000000E-01      1.061670000000000E+01      4.949188000000000E-01     -1.043476000000000E+02
4815000000.000000      6.238708000000000E-01      1.085449000000000E+01      4.941559000000000E-01     -1.053125000000000E+02
4816000000.000000      6.225281000000000E-01      1.078027000000000E+01      4.960785000000000E-01     -1.057734000000000E+02
4817000000.000000      6.219177000000000E-01      1.095703000000000E+01      4.959564000000000E-01     -1.064805000000000E+02
4818000000.000000      6.216736000000000E-01      1.069922000000000E+01      4.971619000000000E-01     -1.073281000000000E+02
4819000000.000000      6.188965000000000E-01      1.097656000000000E+01      4.986115000000000E-01     -1.080547000000000E+02
4820000000.000000      6.170044000000000E-01      1.127734000000000E+01      4.992065000000000E-01     -1.088828000000000E+02
4821000000.000000      6.174316000000000E-01      1.123730000000000E+01      4.995422000000000E-01     -1.095859000000000E+02
4822000000.000000      6.154480000000000E-01      1.134570000000000E+01      4.980011000000000E-01     -1.103711000000000E+02
4823000000.000000      6.164551000000000E-01      1.127295000000000E+01      4.985962000000000E-01     -1.110976000000000E+02
4824000000.000000      6.134033000000000E-01      1.156299000000000E+01      5.007629000000000E-01     -1.118945000000000E+02
4825000000.000000      6.143494000000000E-01      1.164551000000000E+01      4.992523000000000E-01     -1.124570000000000E+02
4826000000.000000      6.138916000000000E-01      1.168945000000000E+01      4.997864000000000E-01     -1.134844000000000E+02
4827000000.000000      6.134949000000000E-01      1.196533000000000E+01      4.994049000000000E-01     -1.141172000000000E+02
4828000000.000000      6.134949000000000E-01      1.177148000000000E+01      4.995117000000000E-01     -1.148047000000000E+02
4829000000.000000      6.126404000000000E-01      1.207520000000000E+01      5.014038000000000E-01     -1.156328000000000E+02
4830000000.000000      6.127625000000000E-01      1.208740000000000E+01      4.994507000000000E-01     -1.164063000000000E+02
4831000000.000000      6.112366000000000E-01      1.220020000000000E+01      4.998932000000000E-01     -1.172344000000000E+02
4832000000.000000      6.129150000000000E-01      1.247461000000000E+01      4.996033000000000E-01     -1.179023000000000E+02
4833000000.000000      6.090698000000000E-01      1.244727000000000E+01      5.006409000000000E-01     -1.185000000000000E+02
4834000000.000000      6.107788000000000E-01      1.251025000000000E+01      5.000305000000000E-01     -1.194531000000000E+02
4835000000.000000      6.111755000000000E-01      1.255420000000000E+01      5.004883000000000E-01     -1.202734000000000E+02
4836000000.000000      6.124573000000000E-01      1.288525000000000E+01      4.995117000000000E-01     -1.209766000000000E+02
4837000000.000000      6.121521000000000E-01      1.295654000000000E+01      4.976807000000000E-01     -1.219102000000000E+02
4838000000.000000      6.112671000000000E-01      1.312842000000000E+01      4.983673000000000E-01     -1.225078000000000E+02
4839000000.000000      6.138000000000000E-01      1.337549000000000E+01      4.981842000000000E-01     -1.233672000000000E+02
4840000000.000000      6.127930000000000E-01      1.317236000000000E+01      4.975739000000000E-01     -1.241406000000000E+02
4841000000.000000      6.152344000000000E-01      1.343896000000000E+01      4.956207000000000E-01     -1.250781000000000E+02
4842000000.000000      6.135559000000000E-01      1.345947000000000E+01      4.963226000000000E-01     -1.257109000000000E+02
4843000000.000000      6.171265000000000E-01      1.343994000000000E+01      4.954071000000000E-01     -1.264687000000000E+02
4844000000.000000      6.146240000000000E-01      1.352002000000000E+01      4.944458000000000E-01     -1.276055000000000E+02
4845000000.000000      6.165771000000000E-01      1.382080000000000E+01      4.921722000000000E-01     -1.282109000000000E+02
4846000000.000000      6.181335000000000E-01      1.389600000000000E+01      4.915009000000000E-01     -1.291484000000000E+02
4847000000.000000      6.201782000000000E-01      1.386719000000000E+01      4.913025000000000E-01     -1.298984000000000E+02
4848000000.000000      6.178589000000000E-01      1.387256000000000E+01      4.868317000000000E-01     -1.306406000000000E+02
4849000000.000000      6.202087000000000E-01      1.390967000000000E+01      4.874115000000000E-01     -1.316172000000000E+02
4850000000.000000      6.213989000000000E-01      1.405127000000000E+01      4.846344000000000E-01     -1.323906000000000E+02
4851000000.000000      6.233521000000000E-01      1.424219000000000E+01      4.841919000000000E-01     -1.331640000000000E+02
4852000000.000000      6.230164000000000E-01      1.418701000000000E+01      4.806061000000000E-01     -1.342344000000000E+02
4853000000.000000      6.267395000000000E-01      1.405518000000000E+01      4.782867000000000E-01     -1.349922000000000E+02
4854000000.000000      6.254883000000000E-01      1.422998000000000E+01      4.769745000000000E-01     -1.359453000000000E+02
4855000000.000000      6.268311000000000E-01      1.415430000000000E+01      4.740295000000000E-01     -1.367109000000000E+02
4856000000.000000      6.277466000000000E-01      1.425049000000000E+01      4.715424000000000E-01     -1.375469000000000E+02
4857000000.000000      6.277466000000000E-01      1.436572000000000E+01      4.695435000000000E-01     -1.382266000000000E+02
4858000000.000000      6.308289000000000E-01      1.433154000000000E+01      4.663849000000000E-01     -1.393437000000000E+02
4859000000.000000      6.321716000000000E-01      1.430518000000000E+01      4.625092000000000E-01     -1.403203000000000E+02
4860000000.000000      6.300049000000000E-01      1.439063000000000E+01      4.600677000000000E-01     -1.406797000000000E+02
4861000000.000000      6.325073000000000E-01      1.454590000000000E+01      4.569855000000000E-01     -1.417656000000000E+02
4862000000.000000      6.343994000000000E-01      1.441406000000000E+01      4.538574000000000E-01     -1.425000000000000E+02
4863000000.000000      6.350403000000000E-01      1.445654000000000E+01      4.496918000000000E-01     -1.433828000000000E+02
4864000000.000000      6.365051000000000E-01      1.436182000000000E+01      4.471893000000000E-01     -1.440547000000000E+02
4865000000.000000      6.371765000000000E-01      1.447705000000000E+01      4.423523000000000E-01     -1.446250000000000E+02
4866000000.000000      6.388245000000000E-01      1.428613000000000E+01      4.392395000000000E-01     -1.458125000000000E+02
4867000000.000000      6.381226000000000E-01      1.449219000000000E+01      4.339905000000000E-01     -1.466094000000000E+02
4868000000.000000      6.427612000000000E-01      1.419824000000000E+01      4.317474000000000E-01     -1.472891000000000E+02
4869000000.000000      6.432495000000000E-01      1.426123000000000E+01      4.273224000000000E-01     -1.481094000000000E+02
4870000000.000000      6.450195000000000E-01      1.443457000000000E+01      4.236298000000000E-01     -1.484453000000000E+02
4871000000.000000      6.455078000000000E-01      1.419434000000000E+01      4.193573000000000E-01     -1.494375000000000E+02
4872000000.000000      6.485291000000000E-01      1.429004000000000E+01      4.135895000000000E-01     -1.500625000000000E+02
4873000000.000000      6.469421000000000E-01      1.430420000000000E+01      4.097290000000000E-01     -1.509531000000000E+02
4874000000.000000      6.498413000000000E-01      1.427783000000000E+01      4.048462000000000E-01     -1.515625000000000E+02
4875000000.000000      6.515198000000000E-01      1.426563000000000E+01      4.011993000000000E-01     -1.520000000000000E+02
4876000000.000000      6.525879000000000E-01      1.426025000000000E+01      3.962860000000000E-01     -1.527500000000000E+02
4877000000.000000      6.529236000000000E-01      1.396338000000000E+01      3.919373000000000E-01     -1.535156000000000E+02
4878000000.000000      6.543884000000000E-01      1.405518000000000E+01      3.880310000000000E-01     -1.539531000000000E+02
4879000000.000000      6.571960000000000E-01      1.400879000000000E+01      3.831940000000000E-01     -1.545547000000000E+02
4880000000.000000      6.601257000000000E-01      1.401270000000000E+01      3.787842000000000E-01     -1.552734000000000E+02
4881000000.000000      6.568604000000000E-01      1.378467000000000E+01      3.751526000000000E-01     -1.555625000000000E+02
4882000000.000000      6.608887000000000E-01      1.381348000000000E+01      3.701477000000000E-01     -1.563359000000000E+02
4883000000.000000      6.608582000000000E-01      1.350049000000000E+01      3.652496000000000E-01     -1.570625000000000E+02
4884000000.000000      6.625671000000000E-01      1.376953000000000E+01      3.612976000000000E-01     -1.572344000000000E+02
4885000000.000000      6.642456000000000E-01      1.367236000000000E+01      3.573303000000000E-01     -1.577656000000000E+02
4886000000.000000      6.635437000000000E-01      1.355566000000000E+01      3.525696000000000E-01     -1.582422000000000E+02
4887000000.000000      6.661682000000000E-01      1.330273000000000E+01      3.491058000000000E-01     -1.587188000000000E+02
4888000000.000000      6.669922000000000E-01      1.333594000000000E+01      3.445740000000000E-01     -1.592500000000000E+02
4889000000.000000      6.682434000000000E-01      1.339502000000000E+01      3.405914000000000E-01     -1.597656000000000E+02
4890000000.000000      6.664429000000000E-01      1.315186000000000E+01      3.358917000000000E-01     -1.603906000000000E+02
4891000000.000000      6.694031000000000E-01      1.308594000000000E+01      3.314667000000000E-01     -1.606406000000000E+02
4892000000.000000      6.714783000000000E-01      1.299805000000000E+01      3.279266000000000E-01     -1.607891000000000E+02
4893000000.000000      6.722717000000000E-01      1.291553000000000E+01      3.236542000000000E-01     -1.614375000000000E+02
4894000000.000000      6.725769000000000E-01      1.281250000000000E+01      3.188782000000000E-01     -1.615391000000000E+02
4895000000.000000      6.728516000000000E-01      1.263965000000000E+01      3.177185000000000E-01     -1.620781000000000E+02
4896000000.000000      6.741333000000000E-01      1.252539000000000E+01      3.126678000000000E-01     -1.624063000000000E+02
4897000000.000000      6.748657000000000E-01      1.252979000000000E+01      3.085785000000000E-01     -1.627656000000000E+02
4898000000.000000      6.776733000000000E-01      1.262842000000000E+01      3.055725000000000E-01     -1.630938000000000E+02
4899000000.000000      6.771851000000000E-01      1.231836000000000E+01      3.013000000000000E-01     -1.635625000000000E+02
4900000000.000000      6.768494000000000E-01      1.232666000000000E+01      2.974854000000000E-01     -1.637969000000000E+02
4901000000.000000      6.803894000000000E-01      1.235645000000000E+01      2.941284000000000E-01     -1.640391000000000E+02
4902000000.000000      6.792908000000000E-01      1.198877000000000E+01      2.908020000000000E-01     -1.643203000000000E+02
4903000000.000000      6.816101000000000E-01      1.208887000000000E+01      2.861328000000000E-01     -1.647734000000000E+02
4904000000.000000      6.806030000000000E-01      1.177002000000000E+01      2.829895000000000E-01     -1.651406000000000E+02
4905000000.000000      6.823120000000000E-01      1.184033000000000E+01      2.803955000000000E-01     -1.654844000000000E+02
4906000000.000000      6.834717000000000E-01      1.176758000000000E+01      2.761383000000000E-01     -1.655859000000000E+02
4907000000.000000      6.834717000000000E-01      1.145703000000000E+01      2.731323000000000E-01     -1.660469000000000E+02
4908000000.000000      6.834106000000000E-01      1.150244000000000E+01      2.696228000000000E-01     -1.665547000000000E+02
4909000000.000000      6.844482000000000E-01      1.133057000000000E+01      2.658386000000000E-01     -1.666875000000000E+02
4910000000.000000      6.855774000000000E-01      1.147900000000000E+01      2.621307000000000E-01     -1.669609000000000E+02
4911000000.000000      6.860046000000000E-01      1.132813000000000E+01      2.591858000000000E-01     -1.672031000000000E+02
4912000000.000000      6.849976000000000E-01      1.115088000000000E+01      2.554932000000000E-01     -1.675859000000000E+02
4913000000.000000      6.885071000000000E-01      1.126367000000000E+01      2.520905000000000E-01     -1.679141000000000E+02
4914000000.000000      6.872864000000000E-01      1.081738000000000E+01      2.485962000000000E-01     -1.681172000000000E+02
4915000000.000000      6.873169000000000E-01      1.078271000000000E+01      2.446594000000000E-01     -1.685390000000000E+02
4916000000.000000      6.899719000000000E-01      1.083643000000000E+01      2.407761000000000E-01     -1.688359000000000E+02
4917000000.000000      6.878662000000000E-01      1.048486000000000E+01      2.371597000000000E-01     -1.688828000000000E+02
4918000000.000000      6.898499000000000E-01      1.055469000000000E+01      2.333221000000000E-01     -1.692266000000000E+02
4919000000.000000      6.894836000000000E-01      1.040381000000000E+01      2.305069000000000E-01     -1.691406000000000E+02
4920000000.000000      6.907654000000000E-01      1.030762000000000E+01      2.266006000000000E-01     -1.698437000000000E+02
4921000000.000000      6.879272000000000E-01      1.021143000000000E+01      2.237549000000000E-01     -1.698984000000000E+02
4922000000.000000      6.912537000000000E-01      1.013184000000000E+01      2.196274000000000E-01     -1.699141000000000E+02
4923000000.000000      6.929626000000000E-01      1.019531000000000E+01      2.156677000000000E-01     -1.701328000000000E+02
4924000000.000000      6.943970000000000E-01      1.000000000000000E+01      2.115860000000000E-01     -1.705078000000000E+02
4925000000.000000      6.929626000000000E-01      9.918945000000000E+00      2.082214000000000E-01     -1.704766000000000E+02
4926000000.000000      6.931763000000000E-01      9.890137000000000E+00      2.046432000000000E-01     -1.705312000000000E+02
4927000000.000000      6.940308000000000E-01      9.538574000000000E+00      2.008820000000000E-01     -1.707344000000000E+02
4928000000.000000      6.950378000000000E-01      9.394531000000000E+00      1.969986000000000E-01     -1.707969000000000E+02
4929000000.000000      6.945801000000000E-01      9.506836000000000E+00      1.932678000000000E-01     -1.708359000000000E+02
4930000000.000000      6.963196000000000E-01      9.310547000000000E+00      1.898346000000000E-01     -1.709141000000000E+02
4931000000.000000      6.966858000000000E-01      9.217285000000000E+00      1.864624000000000E-01     -1.708203000000000E+02
4932000000.000000      6.956177000000000E-01      9.183105000000000E+00      1.822052000000000E-01     -1.707109000000000E+02
4933000000.000000      6.957092000000000E-01      8.996094000000000E+00      1.780243000000000E-01     -1.705703000000000E+02
4934000000.000000      6.989441000000000E-01      8.956543000000000E+00      1.748047000000000E-01     -1.705937000000000E+02
4935000000.000000      7.004089000000000E-01      8.890625000000000E+00      1.712723000000000E-01     -1.701328000000000E+02
4936000000.000000      6.977844000000000E-01      8.622559000000000E+00      1.673431000000000E-01     -1.700859000000000E+02
4937000000.000000      6.983643000000000E-01      8.505859000000000E+00      1.633148000000000E-01     -1.699531000000000E+02
4938000000.000000      6.981812000000000E-01      8.773926000000000E+00      1.599121000000000E-01     -1.694375000000000E+02
4939000000.000000      6.977844000000000E-01      8.589844000000000E+00      1.565323000000000E-01     -1.689687000000000E+02
4940000000.000000      6.990356000000000E-01      8.431641000000000E+00      1.525574000000000E-01     -1.687578000000000E+02
4941000000.000000      7.013855000000000E-01      8.378418000000000E+00      1.494293000000000E-01     -1.681094000000000E+02
4942000000.000000      7.000122000000000E-01      8.162598000000000E+00      1.460266000000000E-01     -1.676797000000000E+02
4943000000.000000      7.014160000000000E-01      8.161133000000000E+00      1.428757000000000E-01     -1.671484000000000E+02
4944000000.000000      7.018738000000000E-01      7.901855000000000E+00      1.394958000000000E-01     -1.662266000000000E+02
4945000000.000000      7.023926000000000E-01      7.753418000000000E+00      1.362228000000000E-01     -1.656875000000000E+02
4946000000.000000      7.039490000000000E-01      7.851074000000000E+00      1.330261000000000E-01     -1.648047000000000E+02
4947000000.000000      7.031250000000000E-01      7.616211000000000E+00      1.301270000000000E-01     -1.639609000000000E+02
4948000000.000000      7.038879000000000E-01      7.625732000000000E+00      1.274185000000000E-01     -1.625469000000000E+02
4949000000.000000      7.023315000000000E-01      7.477539000000000E+00      1.241951000000000E-01     -1.615547000000000E+02
4950000000.000000      7.062073000000000E-01      7.467773000000000E+00      1.220627000000000E-01     -1.605000000000000E+02
4951000000.000000      7.041931000000000E-01      7.434814000000000E+00      1.193085000000000E-01     -1.594063000000000E+02
4952000000.000000      7.051392000000000E-01      7.411621000000000E+00      1.168137000000000E-01     -1.580234000000000E+02
4953000000.000000      7.058716000000000E-01      7.005127000000000E+00      1.153679000000000E-01     -1.565625000000000E+02
4954000000.000000      7.064819000000000E-01      7.138184000000000E+00      1.129036000000000E-01     -1.550859000000000E+02
