! Network Analyzer HP8722D
! Hewlett-Packard
! Data name: Linha & Wilkinson
! Saver's name: Rodrigo Anjos
! Comments: Teste da utilização de aquisição
continua pelo VNA HP8722D
! Time and date: 22/5/2025 15:33
!              Frequency                     S11                                                   S21                                                   S12                                                   S22
# HZ  S  MA R 50
4800000000.000000      6.526489000000000E-01      1.089941000000000E+01      4.720917000000000E-01     -9.224609000000000E+01
4801000000.000000      6.521606000000000E-01      1.110400000000000E+01      4.727478000000000E-01     -9.285936000000000E+01
4802000000.000000      6.498108000000000E-01      1.095166000000000E+01      4.740295000000000E-01     -9.352343000000000E+01
4803000000.000000      6.473694000000000E-01      1.087061000000000E+01      4.772797000000000E-01     -9.419140000000000E+01
4804000000.000000      6.448364000000000E-01      1.084473000000000E+01      4.789734000000000E-01     -9.498827000000000E+01
4805000000.000000      6.459656000000000E-01      1.082275000000000E+01      4.808350000000000E-01     -9.575390000000000E+01
4806000000.000000      6.425781000000000E-01      1.097510000000000E+01      4.811401000000000E-01     -9.650391000000000E+01
4807000000.000000      6.387634000000000E-01      1.085986000000000E+01      4.824066000000000E-01     -9.732031000000000E+01
4808000000.000000      6.371155000000000E-01      1.085840000000000E+01      4.851379000000000E-01     -9.808203000000000E+01
4809000000.000000      6.371765000000000E-01      1.095850000000000E+01      4.865723000000000E-01     -9.874609000000000E+01
4810000000.000000      6.347046000000000E-01      1.097510000000000E+01      4.887695000000000E-01     -9.936327000000000E+01
4811000000.000000      6.348877000000000E-01      1.101904000000000E+01      4.885712000000000E-01     -1.004140000000000E+02
4812000000.000000      6.340637000000000E-01      1.107129000000000E+01      4.888611000000000E-01     -1.011875000000000E+02
4813000000.000000      6.326599000000000E-01      1.120605000000000E+01      4.909058000000000E-01     -1.019102000000000E+02
4814000000.000000      6.289368000000000E-01      1.112744000000000E+01      4.916840000000000E-01     -1.024687000000000E+02
4815000000.000000      6.278992000000000E-01      1.122656000000000E+01      4.916687000000000E-01     -1.033203000000000E+02
4816000000.000000      6.272888000000000E-01      1.132275000000000E+01      4.952087000000000E-01     -1.041328000000000E+02
4817000000.000000      6.265869000000000E-01      1.153564000000000E+01      4.916687000000000E-01     -1.047305000000000E+02
4818000000.000000      6.253052000000000E-01      1.131299000000000E+01      4.956360000000000E-01     -1.056406000000000E+02
4819000000.000000      6.249390000000000E-01      1.152588000000000E+01      4.967041000000000E-01     -1.063750000000000E+02
4820000000.000000      6.218262000000000E-01      1.165918000000000E+01      4.976044000000000E-01     -1.070391000000000E+02
4821000000.000000      6.218567000000000E-01      1.168115000000000E+01      4.976654000000000E-01     -1.079297000000000E+02
4822000000.000000      6.185608000000000E-01      1.158350000000000E+01      4.957428000000000E-01     -1.085820000000000E+02
4823000000.000000      6.196594000000000E-01      1.154785000000000E+01      5.000610000000000E-01     -1.093476000000000E+02
4824000000.000000      6.167603000000000E-01      1.204492000000000E+01      4.987793000000000E-01     -1.099766000000000E+02
4825000000.000000      6.166992000000000E-01      1.204346000000000E+01      4.970703000000000E-01     -1.108945000000000E+02
4826000000.000000      6.162720000000000E-01      1.217969000000000E+01      4.989319000000000E-01     -1.117148000000000E+02
4827000000.000000      6.172485000000000E-01      1.239502000000000E+01      4.984283000000000E-01     -1.121562000000000E+02
4828000000.000000      6.175842000000000E-01      1.254492000000000E+01      4.994202000000000E-01     -1.131836000000000E+02
4829000000.000000      6.150818000000000E-01      1.264355000000000E+01      4.999237000000000E-01     -1.138125000000000E+02
4830000000.000000      6.151123000000000E-01      1.248584000000000E+01      5.011597000000000E-01     -1.145234000000000E+02
4831000000.000000      6.151123000000000E-01      1.279736000000000E+01      5.002747000000000E-01     -1.153555000000000E+02
4832000000.000000      6.140747000000000E-01      1.286475000000000E+01      4.998322000000000E-01     -1.160078000000000E+02
4833000000.000000      6.123047000000000E-01      1.296240000000000E+01      4.999084000000000E-01     -1.167109000000000E+02
4834000000.000000      6.132507000000000E-01      1.301465000000000E+01      5.001221000000000E-01     -1.174883000000000E+02
4835000000.000000      6.144409000000000E-01      1.324951000000000E+01      5.004883000000000E-01     -1.183984000000000E+02
4836000000.000000      6.146545000000000E-01      1.328516000000000E+01      4.984894000000000E-01     -1.191094000000000E+02
4837000000.000000      6.121216000000000E-01      1.342773000000000E+01      4.983826000000000E-01     -1.202617000000000E+02
4838000000.000000      6.114197000000000E-01      1.357471000000000E+01      4.990692000000000E-01     -1.207734000000000E+02
4839000000.000000      6.163330000000000E-01      1.376563000000000E+01      4.995117000000000E-01     -1.214961000000000E+02
4840000000.000000      6.145630000000000E-01      1.363916000000000E+01      4.989014000000000E-01     -1.223672000000000E+02
4841000000.000000      6.148682000000000E-01      1.403076000000000E+01      4.978485000000000E-01     -1.231602000000000E+02
4842000000.000000      6.146545000000000E-01      1.401270000000000E+01      4.962158000000000E-01     -1.239531000000000E+02
4843000000.000000      6.182251000000000E-01      1.398535000000000E+01      4.962463000000000E-01     -1.248008000000000E+02
4844000000.000000      6.157532000000000E-01      1.410352000000000E+01      4.934387000000000E-01     -1.256406000000000E+02
4845000000.000000      6.173401000000000E-01      1.440283000000000E+01      4.949799000000000E-01     -1.263477000000000E+02
4846000000.000000      6.201782000000000E-01      1.429688000000000E+01      4.939880000000000E-01     -1.271953000000000E+02
4847000000.000000      6.206055000000000E-01      1.444971000000000E+01      4.936218000000000E-01     -1.280391000000000E+02
4848000000.000000      6.188660000000000E-01      1.451416000000000E+01      4.903717000000000E-01     -1.291406000000000E+02
4849000000.000000      6.196899000000000E-01      1.461865000000000E+01      4.891815000000000E-01     -1.297188000000000E+02
4850000000.000000      6.210327000000000E-01      1.466113000000000E+01      4.873505000000000E-01     -1.304766000000000E+02
4851000000.000000      6.223450000000000E-01      1.486816000000000E+01      4.886017000000000E-01     -1.314844000000000E+02
4852000000.000000      6.242676000000000E-01      1.484229000000000E+01      4.846497000000000E-01     -1.322656000000000E+02
4853000000.000000      6.258240000000000E-01      1.478857000000000E+01      4.823761000000000E-01     -1.330547000000000E+02
4854000000.000000      6.265564000000000E-01      1.489844000000000E+01      4.793243000000000E-01     -1.342187000000000E+02
4855000000.000000      6.262207000000000E-01      1.487793000000000E+01      4.781647000000000E-01     -1.349688000000000E+02
4856000000.000000      6.269531000000000E-01      1.486035000000000E+01      4.761353000000000E-01     -1.358281000000000E+02
4857000000.000000      6.276855000000000E-01      1.503613000000000E+01      4.735107000000000E-01     -1.366016000000000E+02
4858000000.000000      6.300049000000000E-01      1.499609000000000E+01      4.710846000000000E-01     -1.375937000000000E+02
4859000000.000000      6.309814000000000E-01      1.499219000000000E+01      4.685822000000000E-01     -1.384297000000000E+02
4860000000.000000      6.316528000000000E-01      1.503027000000000E+01      4.640808000000000E-01     -1.390312000000000E+02
4861000000.000000      6.333008000000000E-01      1.503613000000000E+01      4.626160000000000E-01     -1.400547000000000E+02
4862000000.000000      6.335754000000000E-01      1.501807000000000E+01      4.598694000000000E-01     -1.407891000000000E+02
4863000000.000000      6.356506000000000E-01      1.503613000000000E+01      4.550476000000000E-01     -1.419375000000000E+02
4864000000.000000      6.358032000000000E-01      1.506885000000000E+01      4.525757000000000E-01     -1.423125000000000E+02
4865000000.000000      6.371765000000000E-01      1.516650000000000E+01      4.488220000000000E-01     -1.431328000000000E+02
4866000000.000000      6.392212000000000E-01      1.498242000000000E+01      4.437561000000000E-01     -1.441484000000000E+02
4867000000.000000      6.388550000000000E-01      1.503857000000000E+01      4.401703000000000E-01     -1.449297000000000E+02
4868000000.000000      6.423645000000000E-01      1.500732000000000E+01      4.370728000000000E-01     -1.456094000000000E+02
4869000000.000000      6.443787000000000E-01      1.496045000000000E+01      4.339142000000000E-01     -1.465312000000000E+02
4870000000.000000      6.425476000000000E-01      1.520898000000000E+01      4.300232000000000E-01     -1.471250000000000E+02
4871000000.000000      6.454773000000000E-01      1.499219000000000E+01      4.250641000000000E-01     -1.477500000000000E+02
4872000000.000000      6.485901000000000E-01      1.497266000000000E+01      4.198456000000000E-01     -1.486094000000000E+02
4873000000.000000      6.474915000000000E-01      1.497021000000000E+01      4.165344000000000E-01     -1.495234000000000E+02
4874000000.000000      6.488342000000000E-01      1.490283000000000E+01      4.111328000000000E-01     -1.501953000000000E+02
4875000000.000000      6.500854000000000E-01      1.501416000000000E+01      4.060516000000000E-01     -1.506641000000000E+02
4876000000.000000      6.528320000000000E-01      1.495508000000000E+01      4.044495000000000E-01     -1.514453000000000E+02
4877000000.000000      6.536865000000000E-01      1.465674000000000E+01      3.992767000000000E-01     -1.521172000000000E+02
4878000000.000000      6.535645000000000E-01      1.468164000000000E+01      3.946533000000000E-01     -1.526641000000000E+02
4879000000.000000      6.560364000000000E-01      1.475439000000000E+01      3.890076000000000E-01     -1.532812000000000E+02
4880000000.000000      6.570129000000000E-01      1.461035000000000E+01      3.859711000000000E-01     -1.540781000000000E+02
4881000000.000000      6.576538000000000E-01      1.450879000000000E+01      3.802490000000000E-01     -1.544922000000000E+02
4882000000.000000      6.597595000000000E-01      1.452930000000000E+01      3.780823000000000E-01     -1.551172000000000E+02
4883000000.000000      6.619873000000000E-01      1.428906000000000E+01      3.711853000000000E-01     -1.555469000000000E+02
4884000000.000000      6.616821000000000E-01      1.445654000000000E+01      3.678894000000000E-01     -1.562891000000000E+02
4885000000.000000      6.637878000000000E-01      1.444385000000000E+01      3.638000000000000E-01     -1.566250000000000E+02
4886000000.000000      6.647644000000000E-01      1.434229000000000E+01      3.596344000000000E-01     -1.571953000000000E+02
4887000000.000000      6.644592000000000E-01      1.413623000000000E+01      3.555450000000000E-01     -1.576875000000000E+02
4888000000.000000      6.681213000000000E-01      1.394971000000000E+01      3.529053000000000E-01     -1.581484000000000E+02
4889000000.000000      6.676636000000000E-01      1.416943000000000E+01      3.467255000000000E-01     -1.585234000000000E+02
4890000000.000000      6.675415000000000E-01      1.391943000000000E+01      3.412628000000000E-01     -1.592031000000000E+02
4891000000.000000      6.701965000000000E-01      1.368994000000000E+01      3.372803000000000E-01     -1.596562000000000E+02
4892000000.000000      6.701355000000000E-01      1.372559000000000E+01      3.346405000000000E-01     -1.597812000000000E+02
4893000000.000000      6.722107000000000E-01      1.370947000000000E+01      3.298187000000000E-01     -1.604375000000000E+02
4894000000.000000      6.705627000000000E-01      1.363086000000000E+01      3.245087000000000E-01     -1.607500000000000E+02
4895000000.000000      6.771545000000000E-01      1.338525000000000E+01      3.238068000000000E-01     -1.611328000000000E+02
4896000000.000000      6.748657000000000E-01      1.330713000000000E+01      3.166962000000000E-01     -1.612578000000000E+02
4897000000.000000      6.746826000000000E-01      1.336035000000000E+01      3.142395000000000E-01     -1.619062000000000E+02
4898000000.000000      6.759949000000000E-01      1.331787000000000E+01      3.114166000000000E-01     -1.622890000000000E+02
4899000000.000000      6.761475000000000E-01      1.314209000000000E+01      3.071747000000000E-01     -1.626953000000000E+02
4900000000.000000      6.769104000000000E-01      1.295654000000000E+01      3.033600000000000E-01     -1.628750000000000E+02
4901000000.000000      6.784363000000000E-01      1.291406000000000E+01      3.002930000000000E-01     -1.632969000000000E+02
4902000000.000000      6.787720000000000E-01      1.297852000000000E+01      2.962952000000000E-01     -1.634687000000000E+02
4903000000.000000      6.805725000000000E-01      1.282080000000000E+01      2.913971000000000E-01     -1.639141000000000E+02
4904000000.000000      6.815491000000000E-01      1.267822000000000E+01      2.886505000000000E-01     -1.643047000000000E+02
4905000000.000000      6.819763000000000E-01      1.256543000000000E+01      2.855530000000000E-01     -1.647812000000000E+02
4906000000.000000      6.818542000000000E-01      1.251709000000000E+01      2.820435000000000E-01     -1.647266000000000E+02
4907000000.000000      6.826477000000000E-01      1.244336000000000E+01      2.782593000000000E-01     -1.652969000000000E+02
4908000000.000000      6.834717000000000E-01      1.230469000000000E+01      2.753601000000000E-01     -1.657187000000000E+02
4909000000.000000      6.838989000000000E-01      1.214795000000000E+01      2.719421000000000E-01     -1.659297000000000E+02
4910000000.000000      6.869202000000000E-01      1.206396000000000E+01      2.686310000000000E-01     -1.662891000000000E+02
4911000000.000000      6.860962000000000E-01      1.200488000000000E+01      2.649689000000000E-01     -1.664844000000000E+02
4912000000.000000      6.854553000000000E-01      1.190332000000000E+01      2.612915000000000E-01     -1.669765000000000E+02
4913000000.000000      6.862793000000000E-01      1.173193000000000E+01      2.577057000000000E-01     -1.671016000000000E+02
4914000000.000000      6.893311000000000E-01      1.164404000000000E+01      2.539520000000000E-01     -1.674844000000000E+02
4915000000.000000      6.877441000000000E-01      1.162207000000000E+01      2.504578000000000E-01     -1.678203000000000E+02
4916000000.000000      6.903992000000000E-01      1.143506000000000E+01      2.470551000000000E-01     -1.682344000000000E+02
4917000000.000000      6.878052000000000E-01      1.145459000000000E+01      2.432251000000000E-01     -1.684219000000000E+02
4918000000.000000      6.902466000000000E-01      1.131006000000000E+01      2.394028000000000E-01     -1.687500000000000E+02
4919000000.000000      6.877136000000000E-01      1.124561000000000E+01      2.361679000000000E-01     -1.687266000000000E+02
4920000000.000000      6.902466000000000E-01      1.108789000000000E+01      2.324066000000000E-01     -1.693203000000000E+02
4921000000.000000      6.918640000000000E-01      1.097803000000000E+01      2.293320000000000E-01     -1.695234000000000E+02
4922000000.000000      6.920166000000000E-01      1.098193000000000E+01      2.249603000000000E-01     -1.695000000000000E+02
4923000000.000000      6.923523000000000E-01      1.075537000000000E+01      2.210312000000000E-01     -1.697422000000000E+02
4924000000.000000      6.929016000000000E-01      1.084717000000000E+01      2.171936000000000E-01     -1.701015000000000E+02
4925000000.000000      6.914978000000000E-01      1.055469000000000E+01      2.135696000000000E-01     -1.702812000000000E+02
4926000000.000000      6.929626000000000E-01      1.056299000000000E+01      2.100677000000000E-01     -1.703828000000000E+02
4927000000.000000      6.926270000000000E-01      1.042432000000000E+01      2.061081000000000E-01     -1.706406000000000E+02
4928000000.000000      6.963196000000000E-01      1.022803000000000E+01      2.032852000000000E-01     -1.708516000000000E+02
4929000000.000000      6.940918000000000E-01      1.010010000000000E+01      1.978912000000000E-01     -1.708359000000000E+02
4930000000.000000      6.958008000000000E-01      1.002051000000000E+01      1.951294000000000E-01     -1.706016000000000E+02
4931000000.000000      6.971741000000000E-01      9.968262000000000E+00      1.916504000000000E-01     -1.707813000000000E+02
4932000000.000000      6.961975000000000E-01      9.946289000000000E+00      1.871872000000000E-01     -1.708906000000000E+02
4933000000.000000      6.976318000000000E-01      9.814453000000000E+00      1.827698000000000E-01     -1.706250000000000E+02
4934000000.000000      6.972656000000000E-01      9.707520000000000E+00      1.799011000000000E-01     -1.708516000000000E+02
4935000000.000000      6.992798000000000E-01      9.725586000000000E+00      1.764984000000000E-01     -1.706172000000000E+02
4936000000.000000      6.985779000000000E-01      9.442383000000000E+00      1.724319000000000E-01     -1.703828000000000E+02
4937000000.000000      6.983643000000000E-01      9.331055000000000E+00      1.691055000000000E-01     -1.705781000000000E+02
4938000000.000000      6.966553000000000E-01      9.482422000000000E+00      1.647644000000000E-01     -1.701015000000000E+02
4939000000.000000      7.005310000000000E-01      9.247559000000000E+00      1.611786000000000E-01     -1.697109000000000E+02
4940000000.000000      7.005310000000000E-01      8.986816000000000E+00      1.565781000000000E-01     -1.695234000000000E+02
4941000000.000000      7.003174000000000E-01      8.926270000000000E+00      1.538467000000000E-01     -1.691328000000000E+02
4942000000.000000      7.003174000000000E-01      8.949707000000000E+00      1.498260000000000E-01     -1.688281000000000E+02
4943000000.000000      7.027588000000000E-01      8.830078000000000E+00      1.468658000000000E-01     -1.680547000000000E+02
4944000000.000000      7.005310000000000E-01      8.693848000000000E+00      1.433640000000000E-01     -1.674844000000000E+02
4945000000.000000      7.022705000000000E-01      8.681641000000000E+00      1.402206000000000E-01     -1.669062000000000E+02
4946000000.000000      7.032471000000000E-01      8.539063000000000E+00      1.367264000000000E-01     -1.661016000000000E+02
4947000000.000000      7.033386000000000E-01      8.448242000000000E+00      1.332550000000000E-01     -1.655781000000000E+02
4948000000.000000      7.048645000000000E-01      8.434570000000000E+00      1.302719000000000E-01     -1.643984000000000E+02
4949000000.000000      7.022705000000000E-01      8.279297000000000E+00      1.276398000000000E-01     -1.632500000000000E+02
4950000000.000000      7.040405000000000E-01      8.110352000000000E+00      1.243553000000000E-01     -1.624063000000000E+02
4951000000.000000      7.046204000000000E-01      8.096680000000000E+00      1.218224000000000E-01     -1.614609000000000E+02
4952000000.000000      7.059631000000000E-01      7.990967000000000E+00      1.193237000000000E-01     -1.600312000000000E+02
4953000000.000000      7.060852000000000E-01      7.881104000000000E+00      1.167488000000000E-01     -1.587969000000000E+02
4954000000.000000      7.075806000000000E-01      7.824951000000000E+00      1.146507000000000E-01     -1.572734000000000E+02
