! Network Analyzer HP8722D
! Hewlett-Packard
! Data name: Linha & Wilkinson
! Saver's name: Rodrigo Anjos
! Comments: Teste da utilização de aquisição
continua pelo VNA HP8722D
! Time and date: 22/5/2025 07:51
!              Frequency                     S11                                                   S21                                                   S12                                                   S22
# HZ  S  MA R 50
4800000000.000000      6.458130000000000E-01      1.014551000000000E+01      4.726105000000000E-01     -9.385157000000000E+01
4801000000.000000      6.438904000000000E-01      1.038037000000000E+01      4.758911000000000E-01     -9.442577000000000E+01
4802000000.000000      6.430969000000000E-01      1.028857000000000E+01      4.776306000000000E-01     -9.512890000000000E+01
4803000000.000000      6.413269000000000E-01      1.024463000000000E+01      4.817200000000000E-01     -9.591797000000000E+01
4804000000.000000      6.393738000000000E-01      1.026807000000000E+01      4.809723000000000E-01     -9.663671000000000E+01
4805000000.000000      6.404419000000000E-01      1.018701000000000E+01      4.830017000000000E-01     -9.739061000000000E+01
4806000000.000000      6.360474000000000E-01      1.023486000000000E+01      4.834595000000000E-01     -9.823437000000000E+01
4807000000.000000      6.343994000000000E-01      1.028174000000000E+01      4.870300000000000E-01     -9.892967000000000E+01
4808000000.000000      6.319275000000000E-01      1.029541000000000E+01      4.867554000000000E-01     -9.968359000000000E+01
4809000000.000000      6.324768000000000E-01      1.032422000000000E+01      4.891205000000000E-01     -1.007344000000000E+02
4810000000.000000      6.305237000000000E-01      1.044238000000000E+01      4.903717000000000E-01     -1.012500000000000E+02
4811000000.000000      6.282654000000000E-01      1.054248000000000E+01      4.914703000000000E-01     -1.020117000000000E+02
4812000000.000000      6.294861000000000E-01      1.066357000000000E+01      4.915009000000000E-01     -1.029726000000000E+02
4813000000.000000      6.266785000000000E-01      1.064697000000000E+01      4.936066000000000E-01     -1.037578000000000E+02
4814000000.000000      6.243286000000000E-01      1.061816000000000E+01      4.942017000000000E-01     -1.043359000000000E+02
4815000000.000000      6.226196000000000E-01      1.067578000000000E+01      4.937744000000000E-01     -1.050391000000000E+02
4816000000.000000      6.233521000000000E-01      1.081738000000000E+01      4.960938000000000E-01     -1.057265000000000E+02
4817000000.000000      6.209106000000000E-01      1.104932000000000E+01      4.958801000000000E-01     -1.067266000000000E+02
4818000000.000000      6.215210000000000E-01      1.086133000000000E+01      4.960327000000000E-01     -1.073633000000000E+02
4819000000.000000      6.184692000000000E-01      1.096680000000000E+01      4.974518000000000E-01     -1.081016000000000E+02
4820000000.000000      6.160583000000000E-01      1.116748000000000E+01      4.972839000000000E-01     -1.086680000000000E+02
4821000000.000000      6.167297000000000E-01      1.115771000000000E+01      4.979858000000000E-01     -1.097773000000000E+02
4822000000.000000      6.172485000000000E-01      1.132666000000000E+01      4.976501000000000E-01     -1.104140000000000E+02
4823000000.000000      6.161804000000000E-01      1.118506000000000E+01      4.992828000000000E-01     -1.110976000000000E+02
4824000000.000000      6.142578000000000E-01      1.146826000000000E+01      4.987488000000000E-01     -1.119922000000000E+02
4825000000.000000      6.131897000000000E-01      1.147656000000000E+01      4.985352000000000E-01     -1.125156000000000E+02
4826000000.000000      6.146851000000000E-01      1.154932000000000E+01      4.990692000000000E-01     -1.135976000000000E+02
4827000000.000000      6.142273000000000E-01      1.179102000000000E+01      4.995117000000000E-01     -1.139492000000000E+02
4828000000.000000      6.123657000000000E-01      1.180859000000000E+01      5.009155000000000E-01     -1.148633000000000E+02
4829000000.000000      6.152954000000000E-01      1.217676000000000E+01      5.000916000000000E-01     -1.156250000000000E+02
4830000000.000000      6.118774000000000E-01      1.210547000000000E+01      5.012207000000000E-01     -1.163515000000000E+02
4831000000.000000      6.129761000000000E-01      1.225244000000000E+01      5.006104000000000E-01     -1.173164000000000E+02
4832000000.000000      6.111145000000000E-01      1.251318000000000E+01      4.995575000000000E-01     -1.178359000000000E+02
4833000000.000000      6.106262000000000E-01      1.237988000000000E+01      4.979401000000000E-01     -1.186055000000000E+02
4834000000.000000      6.111145000000000E-01      1.236084000000000E+01      4.995575000000000E-01     -1.194687000000000E+02
4835000000.000000      6.092834000000000E-01      1.252686000000000E+01      4.994049000000000E-01     -1.203047000000000E+02
4836000000.000000      6.132202000000000E-01      1.289209000000000E+01      4.963379000000000E-01     -1.209961000000000E+02
4837000000.000000      6.101685000000000E-01      1.279883000000000E+01      4.975281000000000E-01     -1.219414000000000E+02
4838000000.000000      6.109314000000000E-01      1.300342000000000E+01      4.985046000000000E-01     -1.224492000000000E+02
4839000000.000000      6.148682000000000E-01      1.316943000000000E+01      4.976349000000000E-01     -1.233867000000000E+02
4840000000.000000      6.136475000000000E-01      1.307080000000000E+01      4.958649000000000E-01     -1.241445000000000E+02
4841000000.000000      6.152649000000000E-01      1.337402000000000E+01      4.948730000000000E-01     -1.252344000000000E+02
4842000000.000000      6.132507000000000E-01      1.342773000000000E+01      4.957428000000000E-01     -1.258125000000000E+02
4843000000.000000      6.165161000000000E-01      1.336328000000000E+01      4.955597000000000E-01     -1.266953000000000E+02
4844000000.000000      6.160278000000000E-01      1.351416000000000E+01      4.918060000000000E-01     -1.274766000000000E+02
4845000000.000000      6.162720000000000E-01      1.369287000000000E+01      4.924469000000000E-01     -1.284609000000000E+02
4846000000.000000      6.181946000000000E-01      1.373828000000000E+01      4.906464000000000E-01     -1.290156000000000E+02
4847000000.000000      6.189575000000000E-01      1.388916000000000E+01      4.891205000000000E-01     -1.299766000000000E+02
4848000000.000000      6.185303000000000E-01      1.374658000000000E+01      4.870453000000000E-01     -1.307109000000000E+02
4849000000.000000      6.195984000000000E-01      1.398242000000000E+01      4.873810000000000E-01     -1.317578000000000E+02
4850000000.000000      6.213074000000000E-01      1.401270000000000E+01      4.846039000000000E-01     -1.325000000000000E+02
4851000000.000000      6.212769000000000E-01      1.412939000000000E+01      4.831543000000000E-01     -1.332266000000000E+02
4852000000.000000      6.226807000000000E-01      1.408838000000000E+01      4.810944000000000E-01     -1.339922000000000E+02
4853000000.000000      6.246033000000000E-01      1.415430000000000E+01      4.773865000000000E-01     -1.349453000000000E+02
4854000000.000000      6.242676000000000E-01      1.422998000000000E+01      4.752808000000000E-01     -1.359297000000000E+02
4855000000.000000      6.262207000000000E-01      1.411035000000000E+01      4.735413000000000E-01     -1.368984000000000E+02
4856000000.000000      6.268311000000000E-01      1.434668000000000E+01      4.698639000000000E-01     -1.374922000000000E+02
4857000000.000000      6.292419000000000E-01      1.430518000000000E+01      4.678192000000000E-01     -1.383203000000000E+02
4858000000.000000      6.289673000000000E-01      1.429688000000000E+01      4.661255000000000E-01     -1.392187000000000E+02
4859000000.000000      6.297913000000000E-01      1.424609000000000E+01      4.631653000000000E-01     -1.401641000000000E+02
4860000000.000000      6.311646000000000E-01      1.447412000000000E+01      4.604645000000000E-01     -1.408203000000000E+02
4861000000.000000      6.323547000000000E-01      1.449902000000000E+01      4.564209000000000E-01     -1.417969000000000E+02
4862000000.000000      6.320801000000000E-01      1.429150000000000E+01      4.535675000000000E-01     -1.424687000000000E+02
4863000000.000000      6.331482000000000E-01      1.434814000000000E+01      4.494934000000000E-01     -1.434922000000000E+02
4864000000.000000      6.373596000000000E-01      1.450049000000000E+01      4.462128000000000E-01     -1.441797000000000E+02
4865000000.000000      6.383972000000000E-01      1.453076000000000E+01      4.417877000000000E-01     -1.446719000000000E+02
4866000000.000000      6.389160000000000E-01      1.431348000000000E+01      4.383392000000000E-01     -1.457187000000000E+02
4867000000.000000      6.375732000000000E-01      1.420508000000000E+01      4.347534000000000E-01     -1.467422000000000E+02
4868000000.000000      6.414795000000000E-01      1.416504000000000E+01      4.310303000000000E-01     -1.472265000000000E+02
4869000000.000000      6.411438000000000E-01      1.419971000000000E+01      4.269409000000000E-01     -1.480703000000000E+02
4870000000.000000      6.437073000000000E-01      1.425879000000000E+01      4.221344000000000E-01     -1.487266000000000E+02
4871000000.000000      6.444397000000000E-01      1.416797000000000E+01      4.184265000000000E-01     -1.496328000000000E+02
4872000000.000000      6.467590000000000E-01      1.417480000000000E+01      4.148102000000000E-01     -1.501094000000000E+02
4873000000.000000      6.459656000000000E-01      1.416406000000000E+01      4.101715000000000E-01     -1.510469000000000E+02
4874000000.000000      6.488953000000000E-01      1.419678000000000E+01      4.058685000000000E-01     -1.516875000000000E+02
4875000000.000000      6.494751000000000E-01      1.400586000000000E+01      3.999634000000000E-01     -1.520937000000000E+02
4876000000.000000      6.523743000000000E-01      1.412012000000000E+01      3.970642000000000E-01     -1.529687000000000E+02
4877000000.000000      6.526794000000000E-01      1.397314000000000E+01      3.919373000000000E-01     -1.534531000000000E+02
4878000000.000000      6.534424000000000E-01      1.404150000000000E+01      3.875275000000000E-01     -1.540625000000000E+02
4879000000.000000      6.563721000000000E-01      1.400732000000000E+01      3.820648000000000E-01     -1.546094000000000E+02
4880000000.000000      6.584167000000000E-01      1.381787000000000E+01      3.783722000000000E-01     -1.553281000000000E+02
4881000000.000000      6.555786000000000E-01      1.377686000000000E+01      3.758087000000000E-01     -1.557422000000000E+02
4882000000.000000      6.607056000000000E-01      1.387402000000000E+01      3.699493000000000E-01     -1.563125000000000E+02
4883000000.000000      6.599121000000000E-01      1.364355000000000E+01      3.649139000000000E-01     -1.569922000000000E+02
4884000000.000000      6.635742000000000E-01      1.366406000000000E+01      3.616180000000000E-01     -1.573594000000000E+02
4885000000.000000      6.630554000000000E-01      1.360205000000000E+01      3.573914000000000E-01     -1.577891000000000E+02
4886000000.000000      6.640320000000000E-01      1.354590000000000E+01      3.535614000000000E-01     -1.582266000000000E+02
4887000000.000000      6.650085000000000E-01      1.337158000000000E+01      3.490448000000000E-01     -1.588047000000000E+02
4888000000.000000      6.652832000000000E-01      1.327832000000000E+01      3.455505000000000E-01     -1.592187000000000E+02
4889000000.000000      6.670837000000000E-01      1.333008000000000E+01      3.401489000000000E-01     -1.593672000000000E+02
4890000000.000000      6.671143000000000E-01      1.312695000000000E+01      3.356781000000000E-01     -1.604063000000000E+02
4891000000.000000      6.691284000000000E-01      1.301172000000000E+01      3.306732000000000E-01     -1.606406000000000E+02
4892000000.000000      6.677246000000000E-01      1.297998000000000E+01      3.275757000000000E-01     -1.606719000000000E+02
4893000000.000000      6.717834000000000E-01      1.281543000000000E+01      3.240662000000000E-01     -1.616484000000000E+02
4894000000.000000      6.711426000000000E-01      1.282910000000000E+01      3.198395000000000E-01     -1.616875000000000E+02
4895000000.000000      6.748352000000000E-01      1.270264000000000E+01      3.175201000000000E-01     -1.620156000000000E+02
4896000000.000000      6.737366000000000E-01      1.267676000000000E+01      3.127289000000000E-01     -1.624766000000000E+02
4897000000.000000      6.746521000000000E-01      1.255322000000000E+01      3.081055000000000E-01     -1.628906000000000E+02
4898000000.000000      6.751404000000000E-01      1.266846000000000E+01      3.051147000000000E-01     -1.632187000000000E+02
4899000000.000000      6.759949000000000E-01      1.236084000000000E+01      3.011017000000000E-01     -1.635078000000000E+02
4900000000.000000      6.798096000000000E-01      1.218506000000000E+01      2.976074000000000E-01     -1.638359000000000E+02
4901000000.000000      6.790161000000000E-01      1.228369000000000E+01      2.938995000000000E-01     -1.641484000000000E+02
4902000000.000000      6.784973000000000E-01      1.201611000000000E+01      2.903595000000000E-01     -1.644531000000000E+02
4903000000.000000      6.780090000000000E-01      1.196924000000000E+01      2.859039000000000E-01     -1.647969000000000E+02
4904000000.000000      6.808167000000000E-01      1.181396000000000E+01      2.830200000000000E-01     -1.651250000000000E+02
4905000000.000000      6.804810000000000E-01      1.192285000000000E+01      2.798157000000000E-01     -1.655469000000000E+02
4906000000.000000      6.810608000000000E-01      1.166309000000000E+01      2.761230000000000E-01     -1.655937000000000E+02
4907000000.000000      6.811523000000000E-01      1.147070000000000E+01      2.730560000000000E-01     -1.660469000000000E+02
4908000000.000000      6.831665000000000E-01      1.134326000000000E+01      2.702179000000000E-01     -1.665390000000000E+02
4909000000.000000      6.818848000000000E-01      1.141992000000000E+01      2.659302000000000E-01     -1.666484000000000E+02
4910000000.000000      6.833801000000000E-01      1.128125000000000E+01      2.627258000000000E-01     -1.670234000000000E+02
4911000000.000000      6.857605000000000E-01      1.125928000000000E+01      2.588959000000000E-01     -1.671797000000000E+02
4912000000.000000      6.853638000000000E-01      1.111230000000000E+01      2.551575000000000E-01     -1.676641000000000E+02
4913000000.000000      6.865540000000000E-01      1.099707000000000E+01      2.521362000000000E-01     -1.680000000000000E+02
4914000000.000000      6.881104000000000E-01      1.078125000000000E+01      2.482834000000000E-01     -1.679531000000000E+02
4915000000.000000      6.875916000000000E-01      1.070850000000000E+01      2.449646000000000E-01     -1.684922000000000E+02
4916000000.000000      6.897278000000000E-01      1.063184000000000E+01      2.409897000000000E-01     -1.687500000000000E+02
4917000000.000000      6.891785000000000E-01      1.053711000000000E+01      2.375565000000000E-01     -1.688203000000000E+02
4918000000.000000      6.875305000000000E-01      1.052588000000000E+01      2.339630000000000E-01     -1.691953000000000E+02
4919000000.000000      6.889954000000000E-01      1.030908000000000E+01      2.305298000000000E-01     -1.692656000000000E+02
4920000000.000000      6.889038000000000E-01      1.028027000000000E+01      2.265244000000000E-01     -1.696640000000000E+02
4921000000.000000      6.909180000000000E-01      1.009326000000000E+01      2.232590000000000E-01     -1.697891000000000E+02
4922000000.000000      6.914368000000000E-01      9.976563000000000E+00      2.196884000000000E-01     -1.700000000000000E+02
4923000000.000000      6.936340000000000E-01      1.001367000000000E+01      2.156525000000000E-01     -1.701172000000000E+02
4924000000.000000      6.911011000000000E-01      9.943848000000000E+00      2.118530000000000E-01     -1.705547000000000E+02
4925000000.000000      6.912231000000000E-01      9.756836000000000E+00      2.083511000000000E-01     -1.705391000000000E+02
4926000000.000000      6.921387000000000E-01      9.769531000000000E+00      2.044678000000000E-01     -1.706250000000000E+02
4927000000.000000      6.916199000000000E-01      9.545410000000000E+00      2.006226000000000E-01     -1.707187000000000E+02
4928000000.000000      6.933289000000000E-01      9.328613000000000E+00      1.976929000000000E-01     -1.707734000000000E+02
4929000000.000000      6.939392000000000E-01      9.502930000000000E+00      1.931152000000000E-01     -1.707187000000000E+02
4930000000.000000      6.956787000000000E-01      9.240723000000000E+00      1.898193000000000E-01     -1.709141000000000E+02
4931000000.000000      6.963806000000000E-01      9.261230000000000E+00      1.863251000000000E-01     -1.708359000000000E+02
4932000000.000000      6.959534000000000E-01      9.165039000000000E+00      1.819687000000000E-01     -1.708984000000000E+02
4933000000.000000      6.940613000000000E-01      9.089355000000000E+00      1.783142000000000E-01     -1.705469000000000E+02
4934000000.000000      6.968079000000000E-01      8.994629000000000E+00      1.745453000000000E-01     -1.706563000000000E+02
4935000000.000000      6.978760000000000E-01      8.927734000000000E+00      1.717682000000000E-01     -1.704297000000000E+02
4936000000.000000      6.973267000000000E-01      8.764160000000000E+00      1.668243000000000E-01     -1.699766000000000E+02
4937000000.000000      6.972351000000000E-01      8.674805000000000E+00      1.634521000000000E-01     -1.700625000000000E+02
4938000000.000000      6.978455000000000E-01      8.720215000000000E+00      1.601257000000000E-01     -1.694062000000000E+02
4939000000.000000      6.982117000000000E-01      8.603516000000000E+00      1.562881000000000E-01     -1.693203000000000E+02
4940000000.000000      7.009888000000000E-01      8.385254000000000E+00      1.525955000000000E-01     -1.688750000000000E+02
4941000000.000000      6.999207000000000E-01      8.357422000000000E+00      1.491318000000000E-01     -1.682656000000000E+02
4942000000.000000      6.994629000000000E-01      8.161133000000000E+00      1.458664000000000E-01     -1.677109000000000E+02
4943000000.000000      7.020264000000000E-01      8.173828000000000E+00      1.427078000000000E-01     -1.672266000000000E+02
4944000000.000000      7.030334000000000E-01      7.911377000000000E+00      1.395416000000000E-01     -1.665703000000000E+02
4945000000.000000      6.999207000000000E-01      7.787842000000000E+00      1.361160000000000E-01     -1.656563000000000E+02
4946000000.000000      7.037659000000000E-01      7.727295000000000E+00      1.331024000000000E-01     -1.648672000000000E+02
4947000000.000000      7.030029000000000E-01      7.647705000000000E+00      1.303711000000000E-01     -1.640938000000000E+02
4948000000.000000      7.036438000000000E-01      7.653320000000000E+00      1.274261000000000E-01     -1.628984000000000E+02
4949000000.000000      7.011414000000000E-01      7.384033000000000E+00      1.245079000000000E-01     -1.616562000000000E+02
4950000000.000000      7.060242000000000E-01      7.504883000000000E+00      1.218529000000000E-01     -1.605781000000000E+02
4951000000.000000      7.057190000000000E-01      7.351074000000000E+00      1.197472000000000E-01     -1.596328000000000E+02
4952000000.000000      7.036133000000000E-01      7.307129000000000E+00      1.167793000000000E-01     -1.581172000000000E+02
4953000000.000000      7.052307000000000E-01      6.983154000000000E+00      1.149445000000000E-01     -1.564453000000000E+02
4954000000.000000      7.064209000000000E-01      6.996826000000000E+00      1.126366000000000E-01     -1.551484000000000E+02
