! Network Analyzer HP8722D
! Hewlett-Packard
! Data name: Linha & Wilkinson
! Saver's name: Rodrigo Anjos
! Comments: Teste da utilização de aquisição
continua pelo VNA HP8722D
! Time and date: 22/5/2025 12:19
!              Frequency                     S11                                                   S21                                                   S12                                                   S22
# HZ  S  MA R 50
4800000000.000000      6.513062000000000E-01      1.089111000000000E+01      4.708252000000000E-01     -9.272264000000000E+01
4801000000.000000      6.494141000000000E-01      1.072119000000000E+01      4.721069000000000E-01     -9.316015000000000E+01
4802000000.000000      6.477051000000000E-01      1.096973000000000E+01      4.743652000000000E-01     -9.397655000000000E+01
4803000000.000000      6.452942000000000E-01      1.078955000000000E+01      4.784546000000000E-01     -9.483202000000000E+01
4804000000.000000      6.458740000000000E-01      1.080078000000000E+01      4.794312000000000E-01     -9.550390000000000E+01
4805000000.000000      6.446838000000000E-01      1.062061000000000E+01      4.797516000000000E-01     -9.613670000000000E+01
4806000000.000000      6.414490000000000E-01      1.077441000000000E+01      4.825134000000000E-01     -9.698437000000000E+01
4807000000.000000      6.388245000000000E-01      1.080615000000000E+01      4.821777000000000E-01     -9.788280000000000E+01
4808000000.000000      6.365356000000000E-01      1.066455000000000E+01      4.839478000000000E-01     -9.850389000000000E+01
4809000000.000000      6.358948000000000E-01      1.091211000000000E+01      4.855804000000000E-01     -9.939062000000000E+01
4810000000.000000      6.337891000000000E-01      1.096680000000000E+01      4.862823000000000E-01     -1.000391000000000E+02
4811000000.000000      6.340637000000000E-01      1.103955000000000E+01      4.895020000000000E-01     -1.009336000000000E+02
4812000000.000000      6.340942000000000E-01      1.108496000000000E+01      4.904175000000000E-01     -1.015859000000000E+02
4813000000.000000      6.300659000000000E-01      1.090088000000000E+01      4.932098000000000E-01     -1.023789000000000E+02
4814000000.000000      6.293030000000000E-01      1.104248000000000E+01      4.935608000000000E-01     -1.030430000000000E+02
4815000000.000000      6.255188000000000E-01      1.113184000000000E+01      4.937134000000000E-01     -1.037617000000000E+02
4816000000.000000      6.276245000000000E-01      1.127588000000000E+01      4.932098000000000E-01     -1.044023000000000E+02
4817000000.000000      6.248169000000000E-01      1.143652000000000E+01      4.947815000000000E-01     -1.055195000000000E+02
4818000000.000000      6.234131000000000E-01      1.114111000000000E+01      4.943390000000000E-01     -1.061953000000000E+02
4819000000.000000      6.232300000000000E-01      1.145020000000000E+01      4.950867000000000E-01     -1.069297000000000E+02
4820000000.000000      6.213074000000000E-01      1.163428000000000E+01      4.957581000000000E-01     -1.075625000000000E+02
4821000000.000000      6.213684000000000E-01      1.156982000000000E+01      4.969025000000000E-01     -1.083555000000000E+02
4822000000.000000      6.198425000000000E-01      1.164404000000000E+01      4.957733000000000E-01     -1.090820000000000E+02
4823000000.000000      6.190186000000000E-01      1.161768000000000E+01      4.969788000000000E-01     -1.099101000000000E+02
4824000000.000000      6.166687000000000E-01      1.191016000000000E+01      4.981842000000000E-01     -1.105664000000000E+02
4825000000.000000      6.171570000000000E-01      1.203809000000000E+01      4.987183000000000E-01     -1.114726000000000E+02
4826000000.000000      6.155396000000000E-01      1.186084000000000E+01      5.003357000000000E-01     -1.122031000000000E+02
4827000000.000000      6.151123000000000E-01      1.217676000000000E+01      4.986267000000000E-01     -1.128203000000000E+02
4828000000.000000      6.163940000000000E-01      1.218359000000000E+01      4.989777000000000E-01     -1.135664000000000E+02
4829000000.000000      6.157227000000000E-01      1.248438000000000E+01      5.000305000000000E-01     -1.143437000000000E+02
4830000000.000000      6.134644000000000E-01      1.258057000000000E+01      4.986725000000000E-01     -1.152656000000000E+02
4831000000.000000      6.153870000000000E-01      1.258447000000000E+01      4.996185000000000E-01     -1.160000000000000E+02
4832000000.000000      6.142273000000000E-01      1.281250000000000E+01      4.990082000000000E-01     -1.166406000000000E+02
4833000000.000000      6.113892000000000E-01      1.285498000000000E+01      4.992523000000000E-01     -1.173047000000000E+02
4834000000.000000      6.118164000000000E-01      1.289893000000000E+01      4.993134000000000E-01     -1.183242000000000E+02
4835000000.000000      6.141357000000000E-01      1.303369000000000E+01      4.982300000000000E-01     -1.188867000000000E+02
4836000000.000000      6.149292000000000E-01      1.321240000000000E+01      4.977875000000000E-01     -1.198203000000000E+02
4837000000.000000      6.134949000000000E-01      1.347852000000000E+01      4.972534000000000E-01     -1.206445000000000E+02
4838000000.000000      6.122742000000000E-01      1.337988000000000E+01      4.978027000000000E-01     -1.210273000000000E+02
4839000000.000000      6.166687000000000E-01      1.364355000000000E+01      4.986420000000000E-01     -1.221914000000000E+02
4840000000.000000      6.150818000000000E-01      1.358594000000000E+01      4.973297000000000E-01     -1.228672000000000E+02
4841000000.000000      6.161804000000000E-01      1.382324000000000E+01      4.959869000000000E-01     -1.236094000000000E+02
4842000000.000000      6.171265000000000E-01      1.386328000000000E+01      4.953003000000000E-01     -1.244375000000000E+02
4843000000.000000      6.189575000000000E-01      1.378760000000000E+01      4.956665000000000E-01     -1.254219000000000E+02
4844000000.000000      6.177673000000000E-01      1.385889000000000E+01      4.931183000000000E-01     -1.261055000000000E+02
4845000000.000000      6.186218000000000E-01      1.425586000000000E+01      4.929352000000000E-01     -1.271133000000000E+02
4846000000.000000      6.196899000000000E-01      1.424219000000000E+01      4.934998000000000E-01     -1.277930000000000E+02
4847000000.000000      6.213684000000000E-01      1.448389000000000E+01      4.904785000000000E-01     -1.285078000000000E+02
4848000000.000000      6.207275000000000E-01      1.442871000000000E+01      4.889374000000000E-01     -1.294219000000000E+02
4849000000.000000      6.204834000000000E-01      1.437939000000000E+01      4.884491000000000E-01     -1.303516000000000E+02
4850000000.000000      6.238098000000000E-01      1.433545000000000E+01      4.854736000000000E-01     -1.313047000000000E+02
4851000000.000000      6.225891000000000E-01      1.453320000000000E+01      4.854584000000000E-01     -1.320313000000000E+02
4852000000.000000      6.243896000000000E-01      1.470752000000000E+01      4.828033000000000E-01     -1.327188000000000E+02
4853000000.000000      6.257629000000000E-01      1.467773000000000E+01      4.800415000000000E-01     -1.337734000000000E+02
4854000000.000000      6.266174000000000E-01      1.478027000000000E+01      4.783020000000000E-01     -1.346094000000000E+02
4855000000.000000      6.274109000000000E-01      1.464746000000000E+01      4.758453000000000E-01     -1.354297000000000E+02
4856000000.000000      6.269226000000000E-01      1.470215000000000E+01      4.735260000000000E-01     -1.365000000000000E+02
4857000000.000000      6.293640000000000E-01      1.469238000000000E+01      4.715729000000000E-01     -1.370938000000000E+02
4858000000.000000      6.303711000000000E-01      1.484619000000000E+01      4.700623000000000E-01     -1.379609000000000E+02
4859000000.000000      6.327820000000000E-01      1.493408000000000E+01      4.660950000000000E-01     -1.390391000000000E+02
4860000000.000000      6.317749000000000E-01      1.478467000000000E+01      4.626160000000000E-01     -1.395156000000000E+02
4861000000.000000      6.344299000000000E-01      1.493701000000000E+01      4.589233000000000E-01     -1.405391000000000E+02
4862000000.000000      6.346741000000000E-01      1.487256000000000E+01      4.578705000000000E-01     -1.412969000000000E+02
4863000000.000000      6.362000000000000E-01      1.496875000000000E+01      4.534302000000000E-01     -1.423984000000000E+02
4864000000.000000      6.366577000000000E-01      1.499902000000000E+01      4.512329000000000E-01     -1.429531000000000E+02
4865000000.000000      6.384583000000000E-01      1.492871000000000E+01      4.460602000000000E-01     -1.437734000000000E+02
4866000000.000000      6.392822000000000E-01      1.488623000000000E+01      4.423981000000000E-01     -1.447031000000000E+02
4867000000.000000      6.399841000000000E-01      1.476807000000000E+01      4.382477000000000E-01     -1.455469000000000E+02
4868000000.000000      6.405945000000000E-01      1.480127000000000E+01      4.343414000000000E-01     -1.463047000000000E+02
4869000000.000000      6.440735000000000E-01      1.483838000000000E+01      4.310760000000000E-01     -1.468516000000000E+02
4870000000.000000      6.449890000000000E-01      1.483838000000000E+01      4.264984000000000E-01     -1.476172000000000E+02
4871000000.000000      6.459351000000000E-01      1.488916000000000E+01      4.225616000000000E-01     -1.485859000000000E+02
4872000000.000000      6.481628000000000E-01      1.478857000000000E+01      4.174957000000000E-01     -1.491562000000000E+02
4873000000.000000      6.493835000000000E-01      1.473779000000000E+01      4.147491000000000E-01     -1.499375000000000E+02
4874000000.000000      6.484375000000000E-01      1.472168000000000E+01      4.098511000000000E-01     -1.506797000000000E+02
4875000000.000000      6.522217000000000E-01      1.460352000000000E+01      4.049072000000000E-01     -1.511875000000000E+02
4876000000.000000      6.536865000000000E-01      1.461426000000000E+01      4.009705000000000E-01     -1.517578000000000E+02
4877000000.000000      6.539307000000000E-01      1.439063000000000E+01      3.973083000000000E-01     -1.526094000000000E+02
4878000000.000000      6.545410000000000E-01      1.457715000000000E+01      3.926086000000000E-01     -1.532031000000000E+02
4879000000.000000      6.570740000000000E-01      1.454590000000000E+01      3.871307000000000E-01     -1.536406000000000E+02
4880000000.000000      6.575928000000000E-01      1.454150000000000E+01      3.826599000000000E-01     -1.544765000000000E+02
4881000000.000000      6.587524000000000E-01      1.418164000000000E+01      3.782196000000000E-01     -1.548125000000000E+02
4882000000.000000      6.603699000000000E-01      1.448389000000000E+01      3.744354000000000E-01     -1.552891000000000E+02
4883000000.000000      6.616516000000000E-01      1.436279000000000E+01      3.699951000000000E-01     -1.560156000000000E+02
4884000000.000000      6.629333000000000E-01      1.423242000000000E+01      3.658142000000000E-01     -1.565938000000000E+02
4885000000.000000      6.632080000000000E-01      1.413916000000000E+01      3.615417000000000E-01     -1.568203000000000E+02
4886000000.000000      6.676025000000000E-01      1.419434000000000E+01      3.575745000000000E-01     -1.573437000000000E+02
4887000000.000000      6.652222000000000E-01      1.413379000000000E+01      3.536987000000000E-01     -1.578828000000000E+02
4888000000.000000      6.672058000000000E-01      1.378906000000000E+01      3.495331000000000E-01     -1.585625000000000E+02
4889000000.000000      6.684570000000000E-01      1.376953000000000E+01      3.445892000000000E-01     -1.588281000000000E+02
4890000000.000000      6.665649000000000E-01      1.363086000000000E+01      3.401794000000000E-01     -1.597188000000000E+02
4891000000.000000      6.703491000000000E-01      1.370508000000000E+01      3.358307000000000E-01     -1.598984000000000E+02
4892000000.000000      6.703796000000000E-01      1.365967000000000E+01      3.327942000000000E-01     -1.599609000000000E+02
4893000000.000000      6.720581000000000E-01      1.358984000000000E+01      3.280487000000000E-01     -1.605937000000000E+02
4894000000.000000      6.728210000000000E-01      1.324512000000000E+01      3.226624000000000E-01     -1.608984000000000E+02
4895000000.000000      6.752319000000000E-01      1.336621000000000E+01      3.206787000000000E-01     -1.613984000000000E+02
4896000000.000000      6.743774000000000E-01      1.322852000000000E+01      3.165741000000000E-01     -1.617578000000000E+02
4897000000.000000      6.754761000000000E-01      1.316699000000000E+01      3.122711000000000E-01     -1.620781000000000E+02
4898000000.000000      6.774902000000000E-01      1.300488000000000E+01      3.091431000000000E-01     -1.625469000000000E+02
4899000000.000000      6.784668000000000E-01      1.298291000000000E+01      3.048706000000000E-01     -1.630703000000000E+02
4900000000.000000      6.791382000000000E-01      1.268066000000000E+01      3.013458000000000E-01     -1.632266000000000E+02
4901000000.000000      6.799927000000000E-01      1.269043000000000E+01      2.970734000000000E-01     -1.634453000000000E+02
4902000000.000000      6.790771000000000E-01      1.243750000000000E+01      2.942810000000000E-01     -1.637344000000000E+02
4903000000.000000      6.809998000000000E-01      1.259717000000000E+01      2.895355000000000E-01     -1.642109000000000E+02
4904000000.000000      6.798706000000000E-01      1.243896000000000E+01      2.865753000000000E-01     -1.646250000000000E+02
4905000000.000000      6.815491000000000E-01      1.226318000000000E+01      2.837830000000000E-01     -1.650234000000000E+02
4906000000.000000      6.805420000000000E-01      1.221094000000000E+01      2.794342000000000E-01     -1.649765000000000E+02
4907000000.000000      6.820679000000000E-01      1.204883000000000E+01      2.765198000000000E-01     -1.655156000000000E+02
4908000000.000000      6.838989000000000E-01      1.212158000000000E+01      2.734528000000000E-01     -1.659765000000000E+02
4909000000.000000      6.849365000000000E-01      1.190918000000000E+01      2.686768000000000E-01     -1.661172000000000E+02
4910000000.000000      6.838684000000000E-01      1.174805000000000E+01      2.657776000000000E-01     -1.664687000000000E+02
4911000000.000000      6.863708000000000E-01      1.187061000000000E+01      2.627869000000000E-01     -1.666094000000000E+02
4912000000.000000      6.864319000000000E-01      1.178955000000000E+01      2.595367000000000E-01     -1.671094000000000E+02
4913000000.000000      6.875916000000000E-01      1.154932000000000E+01      2.555542000000000E-01     -1.676328000000000E+02
4914000000.000000      6.876526000000000E-01      1.142432000000000E+01      2.516937000000000E-01     -1.677031000000000E+02
4915000000.000000      6.883545000000000E-01      1.148193000000000E+01      2.481766000000000E-01     -1.680703000000000E+02
4916000000.000000      6.904907000000000E-01      1.132666000000000E+01      2.448883000000000E-01     -1.681719000000000E+02
4917000000.000000      6.915588000000000E-01      1.127295000000000E+01      2.409210000000000E-01     -1.685703000000000E+02
4918000000.000000      6.893921000000000E-01      1.098193000000000E+01      2.370071000000000E-01     -1.688203000000000E+02
4919000000.000000      6.909180000000000E-01      1.115234000000000E+01      2.340622000000000E-01     -1.689297000000000E+02
4920000000.000000      6.922607000000000E-01      1.094629000000000E+01      2.300491000000000E-01     -1.694141000000000E+02
4921000000.000000      6.916809000000000E-01      1.084717000000000E+01      2.269135000000000E-01     -1.694062000000000E+02
4922000000.000000      6.938477000000000E-01      1.074023000000000E+01      2.235641000000000E-01     -1.696172000000000E+02
4923000000.000000      6.926270000000000E-01      1.059863000000000E+01      2.187805000000000E-01     -1.698359000000000E+02
4924000000.000000      6.924744000000000E-01      1.048096000000000E+01      2.154922000000000E-01     -1.701250000000000E+02
4925000000.000000      6.926575000000000E-01      1.038330000000000E+01      2.119141000000000E-01     -1.700859000000000E+02
4926000000.000000      6.944885000000000E-01      1.045996000000000E+01      2.078400000000000E-01     -1.704297000000000E+02
4927000000.000000      6.946106000000000E-01      1.024609000000000E+01      2.037888000000000E-01     -1.705703000000000E+02
4928000000.000000      6.952515000000000E-01      1.017188000000000E+01      2.008667000000000E-01     -1.707266000000000E+02
4929000000.000000      6.957092000000000E-01      1.002734000000000E+01      1.963882000000000E-01     -1.708516000000000E+02
4930000000.000000      6.937256000000000E-01      9.934082000000000E+00      1.928635000000000E-01     -1.709844000000000E+02
4931000000.000000      6.969910000000000E-01      9.832520000000000E+00      1.898804000000000E-01     -1.708203000000000E+02
4932000000.000000      6.971436000000000E-01      9.521973000000000E+00      1.854553000000000E-01     -1.709219000000000E+02
4933000000.000000      6.978455000000000E-01      9.564941000000000E+00      1.816406000000000E-01     -1.706172000000000E+02
4934000000.000000      6.995544000000000E-01      9.521973000000000E+00      1.771088000000000E-01     -1.707500000000000E+02
4935000000.000000      7.004700000000000E-01      9.455078000000000E+00      1.742325000000000E-01     -1.703281000000000E+02
4936000000.000000      6.982727000000000E-01      9.411133000000000E+00      1.702805000000000E-01     -1.703203000000000E+02
4937000000.000000      6.997375000000000E-01      9.151367000000000E+00      1.669006000000000E-01     -1.700703000000000E+02
4938000000.000000      6.971130000000000E-01      9.071777000000000E+00      1.627045000000000E-01     -1.699297000000000E+02
4939000000.000000      7.000732000000000E-01      9.078613000000000E+00      1.590271000000000E-01     -1.695703000000000E+02
4940000000.000000      7.006531000000000E-01      8.927734000000000E+00      1.554489000000000E-01     -1.693047000000000E+02
4941000000.000000      7.008362000000000E-01      8.818848000000000E+00      1.524277000000000E-01     -1.685937000000000E+02
4942000000.000000      7.013245000000000E-01      8.928711000000000E+00      1.481094000000000E-01     -1.683672000000000E+02
4943000000.000000      7.012634000000000E-01      8.816406000000000E+00      1.453629000000000E-01     -1.677187000000000E+02
4944000000.000000      7.014465000000000E-01      8.434570000000000E+00      1.416321000000000E-01     -1.670391000000000E+02
4945000000.000000      7.030029000000000E-01      8.319336000000000E+00      1.380386000000000E-01     -1.664844000000000E+02
4946000000.000000      7.039795000000000E-01      8.309570000000000E+00      1.355133000000000E-01     -1.657109000000000E+02
4947000000.000000      7.044983000000000E-01      8.220215000000000E+00      1.318741000000000E-01     -1.647812000000000E+02
4948000000.000000      7.046509000000000E-01      8.125488000000000E+00      1.290894000000000E-01     -1.639141000000000E+02
4949000000.000000      7.039185000000000E-01      7.951172000000000E+00      1.265030000000000E-01     -1.627812000000000E+02
4950000000.000000      7.044983000000000E-01      8.098145000000000E+00      1.236458000000000E-01     -1.617734000000000E+02
4951000000.000000      7.058411000000000E-01      7.911377000000000E+00      1.208382000000000E-01     -1.608828000000000E+02
4952000000.000000      7.062683000000000E-01      7.679443000000000E+00      1.181870000000000E-01     -1.594375000000000E+02
4953000000.000000      7.059631000000000E-01      7.782227000000000E+00      1.162796000000000E-01     -1.579922000000000E+02
4954000000.000000      7.063293000000000E-01      7.662842000000000E+00      1.138611000000000E-01     -1.567734000000000E+02
