! Network Analyzer HP8722D
! Hewlett-Packard
! Data name: Linha & Wilkinson
! Saver's name: Rodrigo Anjos
! Comments: Teste da utilização de aquisição
continua pelo VNA HP8722D
! Time and date: 22/5/2025 13:36
!              Frequency                     S11                                                   S21                                                   S12                                                   S22
# HZ  S  MA R 50
4800000000.000000      6.512756000000000E-01      1.088184000000000E+01      4.706421000000000E-01     -9.301172000000000E+01
4801000000.000000      6.479187000000000E-01      1.088867000000000E+01      4.733582000000000E-01     -9.333984000000000E+01
4802000000.000000      6.479187000000000E-01      1.092969000000000E+01      4.753876000000000E-01     -9.443750000000000E+01
4803000000.000000      6.454468000000000E-01      1.082959000000000E+01      4.787750000000000E-01     -9.483984000000000E+01
4804000000.000000      6.436462000000000E-01      1.085156000000000E+01      4.797668000000000E-01     -9.561718000000000E+01
4805000000.000000      6.431885000000000E-01      1.069922000000000E+01      4.817352000000000E-01     -9.647655000000000E+01
4806000000.000000      6.396790000000000E-01      1.085303000000000E+01      4.820862000000000E-01     -9.724609000000000E+01
4807000000.000000      6.372375000000000E-01      1.092578000000000E+01      4.836426000000000E-01     -9.810547000000000E+01
4808000000.000000      6.353455000000000E-01      1.088867000000000E+01      4.847870000000000E-01     -9.871094000000000E+01
4809000000.000000      6.343079000000000E-01      1.104785000000000E+01      4.866638000000000E-01     -9.973045000000000E+01
4810000000.000000      6.344299000000000E-01      1.089014000000000E+01      4.884644000000000E-01     -1.003398000000000E+02
4811000000.000000      6.318054000000000E-01      1.092578000000000E+01      4.899445000000000E-01     -1.010859000000000E+02
4812000000.000000      6.338501000000000E-01      1.115088000000000E+01      4.895172000000000E-01     -1.019141000000000E+02
4813000000.000000      6.298523000000000E-01      1.097900000000000E+01      4.908600000000000E-01     -1.026563000000000E+02
4814000000.000000      6.278381000000000E-01      1.113721000000000E+01      4.923096000000000E-01     -1.032305000000000E+02
4815000000.000000      6.275330000000000E-01      1.134180000000000E+01      4.927673000000000E-01     -1.039961000000000E+02
4816000000.000000      6.267395000000000E-01      1.134473000000000E+01      4.942932000000000E-01     -1.047734000000000E+02
4817000000.000000      6.247253000000000E-01      1.147900000000000E+01      4.945679000000000E-01     -1.056172000000000E+02
4818000000.000000      6.235962000000000E-01      1.148340000000000E+01      4.961700000000000E-01     -1.063398000000000E+02
4819000000.000000      6.244507000000000E-01      1.146680000000000E+01      4.957581000000000E-01     -1.069961000000000E+02
4820000000.000000      6.209106000000000E-01      1.178516000000000E+01      4.959259000000000E-01     -1.076484000000000E+02
4821000000.000000      6.207275000000000E-01      1.178271000000000E+01      4.968872000000000E-01     -1.087070000000000E+02
4822000000.000000      6.183472000000000E-01      1.176758000000000E+01      4.953003000000000E-01     -1.093320000000000E+02
4823000000.000000      6.183472000000000E-01      1.190088000000000E+01      4.980164000000000E-01     -1.101328000000000E+02
4824000000.000000      6.165771000000000E-01      1.214795000000000E+01      4.977264000000000E-01     -1.108984000000000E+02
4825000000.000000      6.164551000000000E-01      1.208887000000000E+01      4.972382000000000E-01     -1.116914000000000E+02
4826000000.000000      6.155090000000000E-01      1.212598000000000E+01      4.993744000000000E-01     -1.124375000000000E+02
4827000000.000000      6.148376000000000E-01      1.225244000000000E+01      4.979248000000000E-01     -1.130117000000000E+02
4828000000.000000      6.152649000000000E-01      1.230566000000000E+01      4.984283000000000E-01     -1.139023000000000E+02
4829000000.000000      6.146851000000000E-01      1.268604000000000E+01      5.000305000000000E-01     -1.146523000000000E+02
4830000000.000000      6.140137000000000E-01      1.256689000000000E+01      4.991608000000000E-01     -1.154961000000000E+02
4831000000.000000      6.127930000000000E-01      1.269727000000000E+01      4.989777000000000E-01     -1.161055000000000E+02
4832000000.000000      6.147156000000000E-01      1.298584000000000E+01      4.986267000000000E-01     -1.170273000000000E+02
4833000000.000000      6.121521000000000E-01      1.288965000000000E+01      4.989777000000000E-01     -1.175703000000000E+02
4834000000.000000      6.142578000000000E-01      1.301025000000000E+01      4.984589000000000E-01     -1.184648000000000E+02
4835000000.000000      6.154480000000000E-01      1.317773000000000E+01      4.991913000000000E-01     -1.192226000000000E+02
4836000000.000000      6.151123000000000E-01      1.333984000000000E+01      4.977722000000000E-01     -1.200273000000000E+02
4837000000.000000      6.123352000000000E-01      1.344824000000000E+01      4.960022000000000E-01     -1.209609000000000E+02
4838000000.000000      6.121826000000000E-01      1.343750000000000E+01      4.969635000000000E-01     -1.213398000000000E+02
4839000000.000000      6.167297000000000E-01      1.377393000000000E+01      4.979248000000000E-01     -1.222890000000000E+02
4840000000.000000      6.158447000000000E-01      1.354443000000000E+01      4.976196000000000E-01     -1.231406000000000E+02
4841000000.000000      6.163025000000000E-01      1.399219000000000E+01      4.957733000000000E-01     -1.240039000000000E+02
4842000000.000000      6.160889000000000E-01      1.402246000000000E+01      4.942322000000000E-01     -1.247070000000000E+02
4843000000.000000      6.174927000000000E-01      1.379980000000000E+01      4.946442000000000E-01     -1.257187000000000E+02
4844000000.000000      6.176147000000000E-01      1.400439000000000E+01      4.934998000000000E-01     -1.264766000000000E+02
4845000000.000000      6.178284000000000E-01      1.434082000000000E+01      4.925842000000000E-01     -1.271523000000000E+02
4846000000.000000      6.192932000000000E-01      1.426025000000000E+01      4.913177000000000E-01     -1.281797000000000E+02
4847000000.000000      6.210938000000000E-01      1.427246000000000E+01      4.909210000000000E-01     -1.288984000000000E+02
4848000000.000000      6.200562000000000E-01      1.432861000000000E+01      4.870605000000000E-01     -1.297812000000000E+02
4849000000.000000      6.208496000000000E-01      1.450439000000000E+01      4.859161000000000E-01     -1.304766000000000E+02
4850000000.000000      6.218262000000000E-01      1.452490000000000E+01      4.848480000000000E-01     -1.315312000000000E+02
4851000000.000000      6.246338000000000E-01      1.464990000000000E+01      4.845123000000000E-01     -1.322422000000000E+02
4852000000.000000      6.237793000000000E-01      1.471338000000000E+01      4.816437000000000E-01     -1.331875000000000E+02
4853000000.000000      6.253967000000000E-01      1.492041000000000E+01      4.794769000000000E-01     -1.339219000000000E+02
4854000000.000000      6.260681000000000E-01      1.497412000000000E+01      4.766998000000000E-01     -1.349062000000000E+02
4855000000.000000      6.269531000000000E-01      1.470068000000000E+01      4.760895000000000E-01     -1.358203000000000E+02
4856000000.000000      6.251526000000000E-01      1.487793000000000E+01      4.718781000000000E-01     -1.366484000000000E+02
4857000000.000000      6.283875000000000E-01      1.502637000000000E+01      4.698944000000000E-01     -1.372500000000000E+02
4858000000.000000      6.309204000000000E-01      1.487939000000000E+01      4.676819000000000E-01     -1.381953000000000E+02
4859000000.000000      6.321716000000000E-01      1.491797000000000E+01      4.644623000000000E-01     -1.391562000000000E+02
4860000000.000000      6.317444000000000E-01      1.490820000000000E+01      4.610138000000000E-01     -1.397500000000000E+02
4861000000.000000      6.340637000000000E-01      1.487793000000000E+01      4.584961000000000E-01     -1.408437000000000E+02
4862000000.000000      6.336975000000000E-01      1.504980000000000E+01      4.559326000000000E-01     -1.414297000000000E+02
4863000000.000000      6.357422000000000E-01      1.521289000000000E+01      4.508514000000000E-01     -1.425234000000000E+02
4864000000.000000      6.367493000000000E-01      1.500732000000000E+01      4.482422000000000E-01     -1.430391000000000E+02
4865000000.000000      6.381836000000000E-01      1.500586000000000E+01      4.436798000000000E-01     -1.438828000000000E+02
4866000000.000000      6.392517000000000E-01      1.506348000000000E+01      4.408264000000000E-01     -1.447656000000000E+02
4867000000.000000      6.409912000000000E-01      1.502344000000000E+01      4.359589000000000E-01     -1.456016000000000E+02
4868000000.000000      6.430054000000000E-01      1.508398000000000E+01      4.333801000000000E-01     -1.463516000000000E+02
4869000000.000000      6.432190000000000E-01      1.489453000000000E+01      4.281158000000000E-01     -1.471797000000000E+02
4870000000.000000      6.448975000000000E-01      1.494678000000000E+01      4.240570000000000E-01     -1.478516000000000E+02
4871000000.000000      6.445618000000000E-01      1.489600000000000E+01      4.207611000000000E-01     -1.485781000000000E+02
4872000000.000000      6.497803000000000E-01      1.486572000000000E+01      4.161835000000000E-01     -1.490859000000000E+02
4873000000.000000      6.483154000000000E-01      1.487549000000000E+01      4.122314000000000E-01     -1.499609000000000E+02
4874000000.000000      6.508179000000000E-01      1.480518000000000E+01      4.074402000000000E-01     -1.507891000000000E+02
4875000000.000000      6.502380000000000E-01      1.468848000000000E+01      4.026337000000000E-01     -1.513359000000000E+02
4876000000.000000      6.521606000000000E-01      1.486035000000000E+01      3.989868000000000E-01     -1.520703000000000E+02
4877000000.000000      6.551208000000000E-01      1.461865000000000E+01      3.945313000000000E-01     -1.527500000000000E+02
4878000000.000000      6.548462000000000E-01      1.458252000000000E+01      3.905182000000000E-01     -1.532266000000000E+02
4879000000.000000      6.564941000000000E-01      1.470215000000000E+01      3.844910000000000E-01     -1.537422000000000E+02
4880000000.000000      6.589050000000000E-01      1.442773000000000E+01      3.808136000000000E-01     -1.544922000000000E+02
4881000000.000000      6.593628000000000E-01      1.449609000000000E+01      3.777008000000000E-01     -1.548203000000000E+02
4882000000.000000      6.624756000000000E-01      1.445898000000000E+01      3.724976000000000E-01     -1.555078000000000E+02
4883000000.000000      6.608887000000000E-01      1.425439000000000E+01      3.684692000000000E-01     -1.561641000000000E+02
4884000000.000000      6.644592000000000E-01      1.425879000000000E+01      3.635254000000000E-01     -1.566172000000000E+02
4885000000.000000      6.641541000000000E-01      1.433838000000000E+01      3.587494000000000E-01     -1.569531000000000E+02
4886000000.000000      6.654053000000000E-01      1.401416000000000E+01      3.547211000000000E-01     -1.577422000000000E+02
4887000000.000000      6.659241000000000E-01      1.398926000000000E+01      3.509674000000000E-01     -1.579766000000000E+02
4888000000.000000      6.689453000000000E-01      1.387549000000000E+01      3.473511000000000E-01     -1.586094000000000E+02
4889000000.000000      6.680908000000000E-01      1.383691000000000E+01      3.421936000000000E-01     -1.589609000000000E+02
4890000000.000000      6.679688000000000E-01      1.378467000000000E+01      3.369293000000000E-01     -1.597500000000000E+02
4891000000.000000      6.689148000000000E-01      1.362402000000000E+01      3.341370000000000E-01     -1.599375000000000E+02
4892000000.000000      6.689453000000000E-01      1.361572000000000E+01      3.298950000000000E-01     -1.601797000000000E+02
4893000000.000000      6.741943000000000E-01      1.357324000000000E+01      3.249512000000000E-01     -1.606797000000000E+02
4894000000.000000      6.738586000000000E-01      1.349512000000000E+01      3.225250000000000E-01     -1.610781000000000E+02
4895000000.000000      6.750183000000000E-01      1.331104000000000E+01      3.193207000000000E-01     -1.612656000000000E+02
4896000000.000000      6.735229000000000E-01      1.327002000000000E+01      3.145142000000000E-01     -1.619297000000000E+02
4897000000.000000      6.752625000000000E-01      1.334961000000000E+01      3.101959000000000E-01     -1.623437000000000E+02
4898000000.000000      6.771545000000000E-01      1.314648000000000E+01      3.066864000000000E-01     -1.625234000000000E+02
4899000000.000000      6.788025000000000E-01      1.313525000000000E+01      3.029022000000000E-01     -1.630703000000000E+02
4900000000.000000      6.781311000000000E-01      1.293896000000000E+01      2.991791000000000E-01     -1.632656000000000E+02
4901000000.000000      6.790161000000000E-01      1.291992000000000E+01      2.965240000000000E-01     -1.635625000000000E+02
4902000000.000000      6.809082000000000E-01      1.267529000000000E+01      2.926178000000000E-01     -1.638672000000000E+02
4903000000.000000      6.788635000000000E-01      1.264209000000000E+01      2.877197000000000E-01     -1.643281000000000E+02
4904000000.000000      6.815796000000000E-01      1.242676000000000E+01      2.849274000000000E-01     -1.646250000000000E+02
4905000000.000000      6.820984000000000E-01      1.247070000000000E+01      2.819824000000000E-01     -1.650234000000000E+02
4906000000.000000      6.820984000000000E-01      1.216992000000000E+01      2.780151000000000E-01     -1.650469000000000E+02
4907000000.000000      6.826782000000000E-01      1.236328000000000E+01      2.751312000000000E-01     -1.657031000000000E+02
4908000000.000000      6.853027000000000E-01      1.203369000000000E+01      2.721863000000000E-01     -1.659141000000000E+02
4909000000.000000      6.857605000000000E-01      1.204883000000000E+01      2.676239000000000E-01     -1.661797000000000E+02
4910000000.000000      6.836243000000000E-01      1.186621000000000E+01      2.640381000000000E-01     -1.664453000000000E+02
4911000000.000000      6.856079000000000E-01      1.187061000000000E+01      2.617798000000000E-01     -1.667344000000000E+02
4912000000.000000      6.877136000000000E-01      1.169189000000000E+01      2.571716000000000E-01     -1.671562000000000E+02
4913000000.000000      6.883850000000000E-01      1.156445000000000E+01      2.535095000000000E-01     -1.674609000000000E+02
4914000000.000000      6.887512000000000E-01      1.154492000000000E+01      2.499466000000000E-01     -1.676094000000000E+02
4915000000.000000      6.891785000000000E-01      1.140479000000000E+01      2.465439000000000E-01     -1.680781000000000E+02
4916000000.000000      6.883545000000000E-01      1.135840000000000E+01      2.434311000000000E-01     -1.682812000000000E+02
4917000000.000000      6.898193000000000E-01      1.130615000000000E+01      2.391968000000000E-01     -1.685234000000000E+02
4918000000.000000      6.907043000000000E-01      1.109717000000000E+01      2.347641000000000E-01     -1.688281000000000E+02
4919000000.000000      6.913757000000000E-01      1.099414000000000E+01      2.325745000000000E-01     -1.689219000000000E+02
4920000000.000000      6.897583000000000E-01      1.105225000000000E+01      2.278748000000000E-01     -1.693359000000000E+02
4921000000.000000      6.903992000000000E-01      1.097363000000000E+01      2.249298000000000E-01     -1.694062000000000E+02
4922000000.000000      6.929016000000000E-01      1.072119000000000E+01      2.217026000000000E-01     -1.694766000000000E+02
4923000000.000000      6.935425000000000E-01      1.067969000000000E+01      2.175446000000000E-01     -1.697187000000000E+02
4924000000.000000      6.927185000000000E-01      1.055225000000000E+01      2.133484000000000E-01     -1.700781000000000E+02
4925000000.000000      6.938782000000000E-01      1.041602000000000E+01      2.102890000000000E-01     -1.701406000000000E+02
4926000000.000000      6.948547000000000E-01      1.036523000000000E+01      2.063904000000000E-01     -1.702891000000000E+02
4927000000.000000      6.937866000000000E-01      1.025830000000000E+01      2.020874000000000E-01     -1.703281000000000E+02
4928000000.000000      6.970825000000000E-01      1.001807000000000E+01      1.988907000000000E-01     -1.704531000000000E+02
4929000000.000000      6.949768000000000E-01      1.001221000000000E+01      1.947403000000000E-01     -1.707109000000000E+02
4930000000.000000      6.967773000000000E-01      9.825684000000000E+00      1.916733000000000E-01     -1.706328000000000E+02
4931000000.000000      6.965027000000000E-01      9.847656000000000E+00      1.880798000000000E-01     -1.706172000000000E+02
4932000000.000000      6.968079000000000E-01      9.732422000000000E+00      1.839600000000000E-01     -1.707656000000000E+02
4933000000.000000      6.979675000000000E-01      9.581055000000000E+00      1.797943000000000E-01     -1.703125000000000E+02
4934000000.000000      7.009583000000000E-01      9.506836000000000E+00      1.763687000000000E-01     -1.705156000000000E+02
4935000000.000000      7.002869000000000E-01      9.443848000000000E+00      1.730347000000000E-01     -1.701484000000000E+02
4936000000.000000      6.965332000000000E-01      9.320313000000000E+00      1.688080000000000E-01     -1.700625000000000E+02
4937000000.000000      7.003784000000000E-01      9.266602000000000E+00      1.651001000000000E-01     -1.699687000000000E+02
4938000000.000000      6.979065000000000E-01      9.074707000000000E+00      1.613770000000000E-01     -1.693750000000000E+02
4939000000.000000      7.000427000000000E-01      9.140625000000000E+00      1.584702000000000E-01     -1.690391000000000E+02
4940000000.000000      7.017822000000000E-01      9.046875000000000E+00      1.534805000000000E-01     -1.689219000000000E+02
4941000000.000000      7.016602000000000E-01      8.887695000000000E+00      1.511002000000000E-01     -1.684141000000000E+02
4942000000.000000      7.009277000000000E-01      9.031738000000000E+00      1.472549000000000E-01     -1.678516000000000E+02
4943000000.000000      7.016602000000000E-01      8.783203000000000E+00      1.444473000000000E-01     -1.674687000000000E+02
4944000000.000000      7.023621000000000E-01      8.458008000000000E+00      1.407394000000000E-01     -1.666875000000000E+02
4945000000.000000      7.019043000000000E-01      8.473145000000000E+00      1.374664000000000E-01     -1.658906000000000E+02
4946000000.000000      7.046814000000000E-01      8.398926000000000E+00      1.343079000000000E-01     -1.654297000000000E+02
4947000000.000000      7.029724000000000E-01      8.401367000000000E+00      1.311111000000000E-01     -1.643906000000000E+02
4948000000.000000      7.027893000000000E-01      8.328613000000000E+00      1.281815000000000E-01     -1.634140000000000E+02
4949000000.000000      7.025452000000000E-01      8.132324000000000E+00      1.254959000000000E-01     -1.620000000000000E+02
4950000000.000000      7.045898000000000E-01      8.139160000000000E+00      1.225586000000000E-01     -1.611094000000000E+02
4951000000.000000      7.045593000000000E-01      7.987061000000000E+00      1.202202000000000E-01     -1.599375000000000E+02
4952000000.000000      7.041321000000000E-01      7.796143000000000E+00      1.175537000000000E-01     -1.587188000000000E+02
4953000000.000000      7.065125000000000E-01      7.746582000000000E+00      1.155930000000000E-01     -1.572187000000000E+02
4954000000.000000      7.064209000000000E-01      7.617432000000000E+00      1.132584000000000E-01     -1.559687000000000E+02
