! Network Analyzer HP8722D
! Hewlett-Packard
! Data name: Linha & Wilkinson
! Saver's name: Rodrigo Anjos
! Comments: Teste da utilização de aquisição
continua pelo VNA HP8722D
! Time and date: 22/5/2025 14:13
!              Frequency                     S11                                                   S21                                                   S12                                                   S22
# HZ  S  MA R 50
4800000000.000000      6.521301000000000E-01      1.092969000000000E+01      4.692841000000000E-01     -9.206640000000000E+01
4801000000.000000      6.514282000000000E-01      1.080762000000000E+01      4.730530000000000E-01     -9.271093000000000E+01
4802000000.000000      6.488342000000000E-01      1.076660000000000E+01      4.742126000000000E-01     -9.347265000000000E+01
4803000000.000000      6.471558000000000E-01      1.088330000000000E+01      4.776001000000000E-01     -9.418360000000000E+01
4804000000.000000      6.450195000000000E-01      1.085547000000000E+01      4.802704000000000E-01     -9.499218000000000E+01
4805000000.000000      6.447144000000000E-01      1.073340000000000E+01      4.799500000000000E-01     -9.580078000000000E+01
4806000000.000000      6.429443000000000E-01      1.080762000000000E+01      4.797821000000000E-01     -9.629686000000000E+01
4807000000.000000      6.395569000000000E-01      1.079932000000000E+01      4.822388000000000E-01     -9.750780000000000E+01
4808000000.000000      6.372375000000000E-01      1.072266000000000E+01      4.846191000000000E-01     -9.792578000000000E+01
4809000000.000000      6.360168000000000E-01      1.086230000000000E+01      4.852295000000000E-01     -9.897655000000000E+01
4810000000.000000      6.348877000000000E-01      1.087354000000000E+01      4.864807000000000E-01     -9.944921000000000E+01
4811000000.000000      6.340332000000000E-01      1.093652000000000E+01      4.889679000000000E-01     -1.004102000000000E+02
4812000000.000000      6.340942000000000E-01      1.117432000000000E+01      4.898224000000000E-01     -1.010859000000000E+02
4813000000.000000      6.304016000000000E-01      1.109326000000000E+01      4.894714000000000E-01     -1.017500000000000E+02
4814000000.000000      6.283875000000000E-01      1.116064000000000E+01      4.909515000000000E-01     -1.025391000000000E+02
4815000000.000000      6.277771000000000E-01      1.107520000000000E+01      4.918213000000000E-01     -1.033906000000000E+02
4816000000.000000      6.276550000000000E-01      1.128662000000000E+01      4.945374000000000E-01     -1.041172000000000E+02
4817000000.000000      6.261902000000000E-01      1.135400000000000E+01      4.941864000000000E-01     -1.048867000000000E+02
4818000000.000000      6.242676000000000E-01      1.150391000000000E+01      4.949493000000000E-01     -1.055898000000000E+02
4819000000.000000      6.236572000000000E-01      1.145313000000000E+01      4.953308000000000E-01     -1.061836000000000E+02
4820000000.000000      6.226807000000000E-01      1.157373000000000E+01      4.966431000000000E-01     -1.069180000000000E+02
4821000000.000000      6.227417000000000E-01      1.168652000000000E+01      4.973450000000000E-01     -1.079726000000000E+02
4822000000.000000      6.194458000000000E-01      1.170996000000000E+01      4.958191000000000E-01     -1.086055000000000E+02
4823000000.000000      6.177063000000000E-01      1.173438000000000E+01      4.983826000000000E-01     -1.091797000000000E+02
4824000000.000000      6.178894000000000E-01      1.202295000000000E+01      4.968719000000000E-01     -1.100078000000000E+02
4825000000.000000      6.191711000000000E-01      1.202686000000000E+01      4.974060000000000E-01     -1.108281000000000E+02
4826000000.000000      6.148682000000000E-01      1.198438000000000E+01      4.986420000000000E-01     -1.117070000000000E+02
4827000000.000000      6.174622000000000E-01      1.216846000000000E+01      4.972229000000000E-01     -1.122890000000000E+02
4828000000.000000      6.168213000000000E-01      1.222070000000000E+01      4.990997000000000E-01     -1.131484000000000E+02
4829000000.000000      6.158447000000000E-01      1.265039000000000E+01      5.000000000000000E-01     -1.137773000000000E+02
4830000000.000000      6.151733000000000E-01      1.249512000000000E+01      4.985352000000000E-01     -1.146953000000000E+02
4831000000.000000      6.151123000000000E-01      1.272998000000000E+01      5.001526000000000E-01     -1.152851000000000E+02
4832000000.000000      6.146851000000000E-01      1.296094000000000E+01      5.000610000000000E-01     -1.160625000000000E+02
4833000000.000000      6.112061000000000E-01      1.290332000000000E+01      5.005493000000000E-01     -1.165859000000000E+02
4834000000.000000      6.126404000000000E-01      1.292236000000000E+01      4.989166000000000E-01     -1.176406000000000E+02
4835000000.000000      6.140747000000000E-01      1.302686000000000E+01      4.996490000000000E-01     -1.184922000000000E+02
4836000000.000000      6.139221000000000E-01      1.338379000000000E+01      4.997559000000000E-01     -1.191875000000000E+02
4837000000.000000      6.125183000000000E-01      1.353760000000000E+01      4.972534000000000E-01     -1.201172000000000E+02
4838000000.000000      6.132202000000000E-01      1.343994000000000E+01      4.987335000000000E-01     -1.205742000000000E+02
4839000000.000000      6.160889000000000E-01      1.372705000000000E+01      4.994202000000000E-01     -1.213789000000000E+02
4840000000.000000      6.161499000000000E-01      1.354443000000000E+01      4.975891000000000E-01     -1.223242000000000E+02
4841000000.000000      6.151733000000000E-01      1.383838000000000E+01      4.960938000000000E-01     -1.229961000000000E+02
4842000000.000000      6.146240000000000E-01      1.386865000000000E+01      4.977264000000000E-01     -1.240898000000000E+02
4843000000.000000      6.176453000000000E-01      1.381494000000000E+01      4.980927000000000E-01     -1.248281000000000E+02
4844000000.000000      6.163635000000000E-01      1.392236000000000E+01      4.955597000000000E-01     -1.256992000000000E+02
4845000000.000000      6.178284000000000E-01      1.403906000000000E+01      4.952087000000000E-01     -1.263750000000000E+02
4846000000.000000      6.169434000000000E-01      1.415576000000000E+01      4.930115000000000E-01     -1.274023000000000E+02
4847000000.000000      6.201477000000000E-01      1.430518000000000E+01      4.920349000000000E-01     -1.280234000000000E+02
4848000000.000000      6.190491000000000E-01      1.441406000000000E+01      4.902039000000000E-01     -1.287344000000000E+02
4849000000.000000      6.210938000000000E-01      1.442090000000000E+01      4.890747000000000E-01     -1.296719000000000E+02
4850000000.000000      6.195068000000000E-01      1.442871000000000E+01      4.871521000000000E-01     -1.306484000000000E+02
4851000000.000000      6.226196000000000E-01      1.458154000000000E+01      4.875946000000000E-01     -1.315000000000000E+02
4852000000.000000      6.225891000000000E-01      1.471338000000000E+01      4.833984000000000E-01     -1.322500000000000E+02
4853000000.000000      6.253967000000000E-01      1.471729000000000E+01      4.817200000000000E-01     -1.332813000000000E+02
4854000000.000000      6.253662000000000E-01      1.476807000000000E+01      4.798737000000000E-01     -1.340781000000000E+02
4855000000.000000      6.261597000000000E-01      1.479541000000000E+01      4.774017000000000E-01     -1.350000000000000E+02
4856000000.000000      6.275635000000000E-01      1.476660000000000E+01      4.738617000000000E-01     -1.357969000000000E+02
4857000000.000000      6.301880000000000E-01      1.489014000000000E+01      4.733734000000000E-01     -1.364609000000000E+02
4858000000.000000      6.293640000000000E-01      1.484521000000000E+01      4.709167000000000E-01     -1.375156000000000E+02
4859000000.000000      6.294861000000000E-01      1.481055000000000E+01      4.680481000000000E-01     -1.384922000000000E+02
4860000000.000000      6.293640000000000E-01      1.514453000000000E+01      4.646759000000000E-01     -1.392656000000000E+02
4861000000.000000      6.333618000000000E-01      1.498633000000000E+01      4.607086000000000E-01     -1.402266000000000E+02
4862000000.000000      6.329651000000000E-01      1.495068000000000E+01      4.588623000000000E-01     -1.406875000000000E+02
4863000000.000000      6.346436000000000E-01      1.496045000000000E+01      4.552155000000000E-01     -1.418125000000000E+02
4864000000.000000      6.364136000000000E-01      1.502344000000000E+01      4.521637000000000E-01     -1.424844000000000E+02
4865000000.000000      6.369629000000000E-01      1.500439000000000E+01      4.471893000000000E-01     -1.432031000000000E+02
4866000000.000000      6.388245000000000E-01      1.485059000000000E+01      4.445648000000000E-01     -1.440781000000000E+02
4867000000.000000      6.372070000000000E-01      1.488232000000000E+01      4.409790000000000E-01     -1.450781000000000E+02
4868000000.000000      6.398621000000000E-01      1.498389000000000E+01      4.373016000000000E-01     -1.455781000000000E+02
4869000000.000000      6.416321000000000E-01      1.486963000000000E+01      4.319458000000000E-01     -1.466250000000000E+02
4870000000.000000      6.428833000000000E-01      1.498389000000000E+01      4.288940000000000E-01     -1.471250000000000E+02
4871000000.000000      6.435242000000000E-01      1.475439000000000E+01      4.255524000000000E-01     -1.479531000000000E+02
4872000000.000000      6.458435000000000E-01      1.491113000000000E+01      4.201355000000000E-01     -1.485937000000000E+02
4873000000.000000      6.453857000000000E-01      1.493018000000000E+01      4.171600000000000E-01     -1.494297000000000E+02
4874000000.000000      6.480103000000000E-01      1.496875000000000E+01      4.116211000000000E-01     -1.500313000000000E+02
4875000000.000000      6.511230000000000E-01      1.483838000000000E+01      4.073334000000000E-01     -1.507187000000000E+02
4876000000.000000      6.504517000000000E-01      1.488086000000000E+01      4.036713000000000E-01     -1.515312000000000E+02
4877000000.000000      6.541748000000000E-01      1.475977000000000E+01      3.981171000000000E-01     -1.521641000000000E+02
4878000000.000000      6.525269000000000E-01      1.453857000000000E+01      3.948975000000000E-01     -1.527969000000000E+02
4879000000.000000      6.560059000000000E-01      1.475977000000000E+01      3.892670000000000E-01     -1.532344000000000E+02
4880000000.000000      6.578674000000000E-01      1.471436000000000E+01      3.849335000000000E-01     -1.539687000000000E+02
4881000000.000000      6.567078000000000E-01      1.452393000000000E+01      3.811951000000000E-01     -1.543984000000000E+02
4882000000.000000      6.603088000000000E-01      1.463477000000000E+01      3.772583000000000E-01     -1.550313000000000E+02
4883000000.000000      6.595154000000000E-01      1.418457000000000E+01      3.713379000000000E-01     -1.557109000000000E+02
4884000000.000000      6.615601000000000E-01      1.443994000000000E+01      3.672028000000000E-01     -1.563828000000000E+02
4885000000.000000      6.625061000000000E-01      1.425732000000000E+01      3.635254000000000E-01     -1.567578000000000E+02
4886000000.000000      6.650696000000000E-01      1.432715000000000E+01      3.582306000000000E-01     -1.568906000000000E+02
4887000000.000000      6.653442000000000E-01      1.423926000000000E+01      3.543854000000000E-01     -1.576172000000000E+02
4888000000.000000      6.659546000000000E-01      1.403467000000000E+01      3.516388000000000E-01     -1.581953000000000E+02
4889000000.000000      6.658020000000000E-01      1.410498000000000E+01      3.465729000000000E-01     -1.585859000000000E+02
4890000000.000000      6.642456000000000E-01      1.386719000000000E+01      3.420563000000000E-01     -1.593672000000000E+02
4891000000.000000      6.676025000000000E-01      1.373682000000000E+01      3.386841000000000E-01     -1.596016000000000E+02
4892000000.000000      6.676331000000000E-01      1.381787000000000E+01      3.339081000000000E-01     -1.599688000000000E+02
4893000000.000000      6.705933000000000E-01      1.349365000000000E+01      3.300171000000000E-01     -1.604609000000000E+02
4894000000.000000      6.708069000000000E-01      1.343311000000000E+01      3.253326000000000E-01     -1.607969000000000E+02
4895000000.000000      6.742859000000000E-01      1.343750000000000E+01      3.226776000000000E-01     -1.612422000000000E+02
4896000000.000000      6.744385000000000E-01      1.338379000000000E+01      3.183136000000000E-01     -1.614687000000000E+02
4897000000.000000      6.748657000000000E-01      1.331104000000000E+01      3.144836000000000E-01     -1.619453000000000E+02
4898000000.000000      6.757813000000000E-01      1.337305000000000E+01      3.117371000000000E-01     -1.622890000000000E+02
4899000000.000000      6.770630000000000E-01      1.304736000000000E+01      3.070679000000000E-01     -1.627187000000000E+02
4900000000.000000      6.750183000000000E-01      1.309814000000000E+01      3.036499000000000E-01     -1.628281000000000E+02
4901000000.000000      6.807251000000000E-01      1.302979000000000E+01      3.000946000000000E-01     -1.633047000000000E+02
4902000000.000000      6.809387000000000E-01      1.290576000000000E+01      2.964172000000000E-01     -1.635391000000000E+02
4903000000.000000      6.809998000000000E-01      1.272607000000000E+01      2.920074000000000E-01     -1.639844000000000E+02
4904000000.000000      6.812134000000000E-01      1.262451000000000E+01      2.887268000000000E-01     -1.644687000000000E+02
4905000000.000000      6.799622000000000E-01      1.244727000000000E+01      2.867279000000000E-01     -1.647266000000000E+02
4906000000.000000      6.801453000000000E-01      1.232666000000000E+01      2.821350000000000E-01     -1.647734000000000E+02
4907000000.000000      6.836548000000000E-01      1.237451000000000E+01      2.793121000000000E-01     -1.652812000000000E+02
4908000000.000000      6.847229000000000E-01      1.216846000000000E+01      2.753601000000000E-01     -1.656875000000000E+02
4909000000.000000      6.822815000000000E-01      1.200635000000000E+01      2.715454000000000E-01     -1.660781000000000E+02
4910000000.000000      6.851196000000000E-01      1.214941000000000E+01      2.678375000000000E-01     -1.662578000000000E+02
4911000000.000000      6.849976000000000E-01      1.197363000000000E+01      2.648621000000000E-01     -1.664922000000000E+02
4912000000.000000      6.855774000000000E-01      1.188818000000000E+01      2.614136000000000E-01     -1.670625000000000E+02
4913000000.000000      6.859436000000000E-01      1.165771000000000E+01      2.579651000000000E-01     -1.673359000000000E+02
4914000000.000000      6.873169000000000E-01      1.146973000000000E+01      2.541809000000000E-01     -1.675078000000000E+02
4915000000.000000      6.875610000000000E-01      1.157520000000000E+01      2.504425000000000E-01     -1.679062000000000E+02
4916000000.000000      6.893005000000000E-01      1.141309000000000E+01      2.472916000000000E-01     -1.682031000000000E+02
4917000000.000000      6.883850000000000E-01      1.148047000000000E+01      2.438278000000000E-01     -1.684141000000000E+02
4918000000.000000      6.895752000000000E-01      1.130469000000000E+01      2.395172000000000E-01     -1.688359000000000E+02
4919000000.000000      6.902161000000000E-01      1.133350000000000E+01      2.362366000000000E-01     -1.687031000000000E+02
4920000000.000000      6.912231000000000E-01      1.107422000000000E+01      2.324753000000000E-01     -1.692891000000000E+02
4921000000.000000      6.920776000000000E-01      1.105225000000000E+01      2.292099000000000E-01     -1.694375000000000E+02
4922000000.000000      6.915588000000000E-01      1.080615000000000E+01      2.253265000000000E-01     -1.696797000000000E+02
4923000000.000000      6.937561000000000E-01      1.084619000000000E+01      2.211914000000000E-01     -1.698281000000000E+02
4924000000.000000      6.938477000000000E-01      1.061133000000000E+01      2.170334000000000E-01     -1.701953000000000E+02
4925000000.000000      6.943359000000000E-01      1.043408000000000E+01      2.136917000000000E-01     -1.703672000000000E+02
4926000000.000000      6.932983000000000E-01      1.056885000000000E+01      2.102127000000000E-01     -1.704062000000000E+02
4927000000.000000      6.943970000000000E-01      1.036670000000000E+01      2.067108000000000E-01     -1.704453000000000E+02
4928000000.000000      6.966248000000000E-01      1.017578000000000E+01      2.029114000000000E-01     -1.708281000000000E+02
4929000000.000000      6.959229000000000E-01      1.006348000000000E+01      1.987839000000000E-01     -1.707891000000000E+02
4930000000.000000      6.957397000000000E-01      9.917480000000000E+00      1.948013000000000E-01     -1.708125000000000E+02
4931000000.000000      6.976624000000000E-01      9.840820000000000E+00      1.920166000000000E-01     -1.709297000000000E+02
4932000000.000000      6.958618000000000E-01      9.869629000000000E+00      1.875000000000000E-01     -1.710234000000000E+02
4933000000.000000      6.977234000000000E-01      9.586914000000000E+00      1.831284000000000E-01     -1.709375000000000E+02
4934000000.000000      6.967468000000000E-01      9.728027000000000E+00      1.797562000000000E-01     -1.709531000000000E+02
4935000000.000000      7.011108000000000E-01      9.570313000000000E+00      1.770096000000000E-01     -1.705937000000000E+02
4936000000.000000      6.975403000000000E-01      9.509766000000000E+00      1.723328000000000E-01     -1.704531000000000E+02
4937000000.000000      6.994629000000000E-01      9.235352000000000E+00      1.686630000000000E-01     -1.704297000000000E+02
4938000000.000000      6.982727000000000E-01      9.398438000000000E+00      1.644211000000000E-01     -1.699922000000000E+02
4939000000.000000      7.001343000000000E-01      9.437012000000000E+00      1.614151000000000E-01     -1.697266000000000E+02
4940000000.000000      7.000427000000000E-01      9.068848000000000E+00      1.576767000000000E-01     -1.696250000000000E+02
4941000000.000000      7.012939000000000E-01      8.849121000000000E+00      1.539993000000000E-01     -1.690547000000000E+02
4942000000.000000      7.000427000000000E-01      8.921875000000000E+00      1.498642000000000E-01     -1.687266000000000E+02
4943000000.000000      7.032776000000000E-01      8.818848000000000E+00      1.473541000000000E-01     -1.680781000000000E+02
4944000000.000000      7.021179000000000E-01      8.727051000000000E+00      1.435013000000000E-01     -1.674687000000000E+02
4945000000.000000      7.029419000000000E-01      8.569336000000000E+00      1.396332000000000E-01     -1.670000000000000E+02
4946000000.000000      7.032776000000000E-01      8.562012000000000E+00      1.369705000000000E-01     -1.661719000000000E+02
4947000000.000000      7.019958000000000E-01      8.257324000000000E+00      1.332550000000000E-01     -1.655547000000000E+02
4948000000.000000      7.032166000000000E-01      8.364258000000000E+00      1.308670000000000E-01     -1.645469000000000E+02
4949000000.000000      7.044373000000000E-01      8.419434000000000E+00      1.274185000000000E-01     -1.634063000000000E+02
4950000000.000000      7.064514000000000E-01      8.314941000000000E+00      1.248741000000000E-01     -1.625859000000000E+02
4951000000.000000      7.048035000000000E-01      8.086914000000000E+00      1.217842000000000E-01     -1.617109000000000E+02
4952000000.000000      7.048645000000000E-01      8.018555000000000E+00      1.192093000000000E-01     -1.602422000000000E+02
4953000000.000000      7.044983000000000E-01      7.642334000000000E+00      1.171532000000000E-01     -1.588516000000000E+02
4954000000.000000      7.063293000000000E-01      7.756348000000000E+00      1.147156000000000E-01     -1.576172000000000E+02
