! Network Analyzer HP8722D
! Hewlett-Packard
! Data name: Linha & Wilkinson
! Saver's name: Rodrigo Anjos
! Comments: Teste da utilização de aquisição
continua pelo VNA HP8722D
! Time and date: 22/5/2025 10:48
!              Frequency                     S11                                                   S21                                                   S12                                                   S22
# HZ  S  MA R 50
4800000000.000000      6.471252000000000E-01      1.055908000000000E+01      4.728394000000000E-01     -9.376171000000000E+01
4801000000.000000      6.456299000000000E-01      1.061133000000000E+01      4.754181000000000E-01     -9.440233000000000E+01
4802000000.000000      6.431580000000000E-01      1.046973000000000E+01      4.777069000000000E-01     -9.525782000000000E+01
4803000000.000000      6.416016000000000E-01      1.044385000000000E+01      4.804382000000000E-01     -9.596094000000000E+01
4804000000.000000      6.382141000000000E-01      1.051660000000000E+01      4.823303000000000E-01     -9.671484000000000E+01
4805000000.000000      6.416016000000000E-01      1.033496000000000E+01      4.829254000000000E-01     -9.742577000000000E+01
4806000000.000000      6.354675000000000E-01      1.049463000000000E+01      4.848175000000000E-01     -9.819530000000000E+01
4807000000.000000      6.328735000000000E-01      1.050146000000000E+01      4.853668000000000E-01     -9.918358000000000E+01
4808000000.000000      6.336365000000000E-01      1.050000000000000E+01      4.874725000000000E-01     -9.973045000000000E+01
4809000000.000000      6.319885000000000E-01      1.064697000000000E+01      4.884644000000000E-01     -1.005039000000000E+02
4810000000.000000      6.299133000000000E-01      1.075146000000000E+01      4.910126000000000E-01     -1.011172000000000E+02
4811000000.000000      6.300049000000000E-01      1.062891000000000E+01      4.932098000000000E-01     -1.022773000000000E+02
4812000000.000000      6.312256000000000E-01      1.091064000000000E+01      4.920349000000000E-01     -1.026289000000000E+02
4813000000.000000      6.261292000000000E-01      1.081445000000000E+01      4.927368000000000E-01     -1.035312000000000E+02
4814000000.000000      6.265259000000000E-01      1.084180000000000E+01      4.936829000000000E-01     -1.040117000000000E+02
4815000000.000000      6.230164000000000E-01      1.094922000000000E+01      4.944763000000000E-01     -1.050156000000000E+02
4816000000.000000      6.246033000000000E-01      1.110400000000000E+01      4.968109000000000E-01     -1.058359000000000E+02
4817000000.000000      6.214905000000000E-01      1.119482000000000E+01      4.968109000000000E-01     -1.064961000000000E+02
4818000000.000000      6.203308000000000E-01      1.112891000000000E+01      4.955292000000000E-01     -1.073164000000000E+02
4819000000.000000      6.213379000000000E-01      1.124268000000000E+01      4.964600000000000E-01     -1.080937000000000E+02
4820000000.000000      6.167908000000000E-01      1.126904000000000E+01      4.974670000000000E-01     -1.086875000000000E+02
4821000000.000000      6.174622000000000E-01      1.152295000000000E+01      4.977264000000000E-01     -1.098359000000000E+02
4822000000.000000      6.143799000000000E-01      1.140625000000000E+01      4.972229000000000E-01     -1.103633000000000E+02
4823000000.000000      6.160278000000000E-01      1.154785000000000E+01      4.986267000000000E-01     -1.110898000000000E+02
4824000000.000000      6.137085000000000E-01      1.178809000000000E+01      4.980164000000000E-01     -1.118867000000000E+02
4825000000.000000      6.141663000000000E-01      1.186084000000000E+01      4.983978000000000E-01     -1.126406000000000E+02
4826000000.000000      6.129456000000000E-01      1.191455000000000E+01      4.981842000000000E-01     -1.133476000000000E+02
4827000000.000000      6.139526000000000E-01      1.206689000000000E+01      4.996185000000000E-01     -1.138047000000000E+02
4828000000.000000      6.116638000000000E-01      1.205029000000000E+01      4.993439000000000E-01     -1.147656000000000E+02
4829000000.000000      6.137695000000000E-01      1.225098000000000E+01      5.006104000000000E-01     -1.156992000000000E+02
4830000000.000000      6.124573000000000E-01      1.231250000000000E+01      4.993896000000000E-01     -1.162305000000000E+02
4831000000.000000      6.123962000000000E-01      1.238135000000000E+01      5.005188000000000E-01     -1.171836000000000E+02
4832000000.000000      6.116028000000000E-01      1.262158000000000E+01      4.980316000000000E-01     -1.177578000000000E+02
4833000000.000000      6.110840000000000E-01      1.254199000000000E+01      4.992523000000000E-01     -1.184258000000000E+02
4834000000.000000      6.110535000000000E-01      1.278662000000000E+01      4.992065000000000E-01     -1.192031000000000E+02
4835000000.000000      6.132202000000000E-01      1.276172000000000E+01      4.993439000000000E-01     -1.200781000000000E+02
4836000000.000000      6.126099000000000E-01      1.306641000000000E+01      4.977722000000000E-01     -1.209648000000000E+02
4837000000.000000      6.117554000000000E-01      1.327930000000000E+01      4.974670000000000E-01     -1.218984000000000E+02
4838000000.000000      6.105042000000000E-01      1.329883000000000E+01      4.987335000000000E-01     -1.223906000000000E+02
4839000000.000000      6.147461000000000E-01      1.344727000000000E+01      4.974213000000000E-01     -1.232227000000000E+02
4840000000.000000      6.126099000000000E-01      1.330127000000000E+01      4.970703000000000E-01     -1.239414000000000E+02
4841000000.000000      6.134033000000000E-01      1.376416000000000E+01      4.946899000000000E-01     -1.250000000000000E+02
4842000000.000000      6.144104000000000E-01      1.354736000000000E+01      4.952393000000000E-01     -1.258516000000000E+02
4843000000.000000      6.162415000000000E-01      1.349365000000000E+01      4.949493000000000E-01     -1.266406000000000E+02
4844000000.000000      6.167908000000000E-01      1.373389000000000E+01      4.942322000000000E-01     -1.276133000000000E+02
4845000000.000000      6.164551000000000E-01      1.388525000000000E+01      4.923401000000000E-01     -1.281484000000000E+02
4846000000.000000      6.181335000000000E-01      1.413232000000000E+01      4.902344000000000E-01     -1.290000000000000E+02
4847000000.000000      6.194763000000000E-01      1.422998000000000E+01      4.886932000000000E-01     -1.298125000000000E+02
4848000000.000000      6.181030000000000E-01      1.397314000000000E+01      4.854889000000000E-01     -1.306953000000000E+02
4849000000.000000      6.195679000000000E-01      1.400439000000000E+01      4.869232000000000E-01     -1.315156000000000E+02
4850000000.000000      6.202393000000000E-01      1.416504000000000E+01      4.832611000000000E-01     -1.324297000000000E+02
4851000000.000000      6.216736000000000E-01      1.429150000000000E+01      4.826508000000000E-01     -1.332344000000000E+02
4852000000.000000      6.242065000000000E-01      1.436182000000000E+01      4.800873000000000E-01     -1.340312000000000E+02
4853000000.000000      6.239319000000000E-01      1.447168000000000E+01      4.777069000000000E-01     -1.350000000000000E+02
4854000000.000000      6.264038000000000E-01      1.446582000000000E+01      4.754486000000000E-01     -1.357969000000000E+02
4855000000.000000      6.251831000000000E-01      1.442871000000000E+01      4.736328000000000E-01     -1.368281000000000E+02
4856000000.000000      6.287842000000000E-01      1.457324000000000E+01      4.710236000000000E-01     -1.374297000000000E+02
4857000000.000000      6.275024000000000E-01      1.456641000000000E+01      4.688873000000000E-01     -1.380781000000000E+02
4858000000.000000      6.293640000000000E-01      1.449902000000000E+01      4.649658000000000E-01     -1.391406000000000E+02
4859000000.000000      6.304626000000000E-01      1.436865000000000E+01      4.637604000000000E-01     -1.401953000000000E+02
4860000000.000000      6.317749000000000E-01      1.467480000000000E+01      4.580994000000000E-01     -1.408437000000000E+02
4861000000.000000      6.321106000000000E-01      1.463232000000000E+01      4.561462000000000E-01     -1.417734000000000E+02
4862000000.000000      6.327820000000000E-01      1.469385000000000E+01      4.528351000000000E-01     -1.423281000000000E+02
4863000000.000000      6.340942000000000E-01      1.479443000000000E+01      4.485779000000000E-01     -1.433438000000000E+02
4864000000.000000      6.362610000000000E-01      1.473389000000000E+01      4.469604000000000E-01     -1.439453000000000E+02
4865000000.000000      6.363525000000000E-01      1.454150000000000E+01      4.414520000000000E-01     -1.448906000000000E+02
4866000000.000000      6.382751000000000E-01      1.452246000000000E+01      4.371490000000000E-01     -1.456484000000000E+02
4867000000.000000      6.394958000000000E-01      1.454688000000000E+01      4.340668000000000E-01     -1.465781000000000E+02
4868000000.000000      6.393433000000000E-01      1.448389000000000E+01      4.299927000000000E-01     -1.470469000000000E+02
4869000000.000000      6.412354000000000E-01      1.450732000000000E+01      4.270020000000000E-01     -1.481406000000000E+02
4870000000.000000      6.434937000000000E-01      1.454443000000000E+01      4.215393000000000E-01     -1.485547000000000E+02
4871000000.000000      6.452942000000000E-01      1.454297000000000E+01      4.174957000000000E-01     -1.496406000000000E+02
4872000000.000000      6.485596000000000E-01      1.437695000000000E+01      4.135437000000000E-01     -1.499219000000000E+02
4873000000.000000      6.468506000000000E-01      1.451416000000000E+01      4.098206000000000E-01     -1.509844000000000E+02
4874000000.000000      6.488342000000000E-01      1.450049000000000E+01      4.049225000000000E-01     -1.514844000000000E+02
4875000000.000000      6.508484000000000E-01      1.441260000000000E+01      3.995667000000000E-01     -1.520078000000000E+02
4876000000.000000      6.509094000000000E-01      1.440576000000000E+01      3.968201000000000E-01     -1.530156000000000E+02
4877000000.000000      6.535645000000000E-01      1.412695000000000E+01      3.928070000000000E-01     -1.533750000000000E+02
4878000000.000000      6.538086000000000E-01      1.418164000000000E+01      3.863525000000000E-01     -1.540234000000000E+02
4879000000.000000      6.554260000000000E-01      1.427637000000000E+01      3.819733000000000E-01     -1.546953000000000E+02
4880000000.000000      6.566162000000000E-01      1.414209000000000E+01      3.777466000000000E-01     -1.551641000000000E+02
4881000000.000000      6.578979000000000E-01      1.405811000000000E+01      3.736115000000000E-01     -1.555781000000000E+02
4882000000.000000      6.604004000000000E-01      1.384521000000000E+01      3.701630000000000E-01     -1.561797000000000E+02
4883000000.000000      6.595154000000000E-01      1.384521000000000E+01      3.637695000000000E-01     -1.568359000000000E+02
4884000000.000000      6.623230000000000E-01      1.402637000000000E+01      3.610077000000000E-01     -1.573516000000000E+02
4885000000.000000      6.641541000000000E-01      1.370654000000000E+01      3.571777000000000E-01     -1.576562000000000E+02
4886000000.000000      6.642456000000000E-01      1.383984000000000E+01      3.525848000000000E-01     -1.580937000000000E+02
4887000000.000000      6.642151000000000E-01      1.364893000000000E+01      3.485260000000000E-01     -1.587500000000000E+02
4888000000.000000      6.670837000000000E-01      1.372021000000000E+01      3.446045000000000E-01     -1.591797000000000E+02
4889000000.000000      6.670837000000000E-01      1.337305000000000E+01      3.392487000000000E-01     -1.595234000000000E+02
4890000000.000000      6.669006000000000E-01      1.318359000000000E+01      3.354340000000000E-01     -1.602109000000000E+02
4891000000.000000      6.695557000000000E-01      1.333008000000000E+01      3.314209000000000E-01     -1.605937000000000E+02
4892000000.000000      6.694336000000000E-01      1.323438000000000E+01      3.265686000000000E-01     -1.605234000000000E+02
4893000000.000000      6.724548000000000E-01      1.310107000000000E+01      3.232117000000000E-01     -1.614375000000000E+02
4894000000.000000      6.725464000000000E-01      1.305957000000000E+01      3.191681000000000E-01     -1.616328000000000E+02
4895000000.000000      6.745605000000000E-01      1.289355000000000E+01      3.161926000000000E-01     -1.619922000000000E+02
4896000000.000000      6.738586000000000E-01      1.293457000000000E+01      3.117523000000000E-01     -1.623516000000000E+02
4897000000.000000      6.743469000000000E-01      1.268359000000000E+01      3.079376000000000E-01     -1.627109000000000E+02
4898000000.000000      6.764832000000000E-01      1.288379000000000E+01      3.050842000000000E-01     -1.629297000000000E+02
4899000000.000000      6.784058000000000E-01      1.265039000000000E+01      3.005981000000000E-01     -1.634766000000000E+02
4900000000.000000      6.792603000000000E-01      1.252979000000000E+01      2.975311000000000E-01     -1.637500000000000E+02
4901000000.000000      6.811523000000000E-01      1.227539000000000E+01      2.934875000000000E-01     -1.640625000000000E+02
4902000000.000000      6.794739000000000E-01      1.231934000000000E+01      2.905121000000000E-01     -1.641797000000000E+02
4903000000.000000      6.809082000000000E-01      1.244873000000000E+01      2.859344000000000E-01     -1.647734000000000E+02
4904000000.000000      6.815186000000000E-01      1.198584000000000E+01      2.823334000000000E-01     -1.651406000000000E+02
4905000000.000000      6.794739000000000E-01      1.193213000000000E+01      2.796783000000000E-01     -1.654766000000000E+02
4906000000.000000      6.795044000000000E-01      1.177979000000000E+01      2.755585000000000E-01     -1.654140000000000E+02
4907000000.000000      6.810303000000000E-01      1.176074000000000E+01      2.724915000000000E-01     -1.658359000000000E+02
4908000000.000000      6.839600000000000E-01      1.163428000000000E+01      2.696381000000000E-01     -1.662812000000000E+02
4909000000.000000      6.838989000000000E-01      1.157813000000000E+01      2.653503000000000E-01     -1.666016000000000E+02
4910000000.000000      6.832886000000000E-01      1.149561000000000E+01      2.622223000000000E-01     -1.669062000000000E+02
4911000000.000000      6.840820000000000E-01      1.139551000000000E+01      2.582245000000000E-01     -1.670938000000000E+02
4912000000.000000      6.858521000000000E-01      1.135010000000000E+01      2.554932000000000E-01     -1.674687000000000E+02
4913000000.000000      6.858521000000000E-01      1.119873000000000E+01      2.517853000000000E-01     -1.677969000000000E+02
4914000000.000000      6.876221000000000E-01      1.093115000000000E+01      2.480927000000000E-01     -1.679844000000000E+02
4915000000.000000      6.872253000000000E-01      1.115234000000000E+01      2.438660000000000E-01     -1.685000000000000E+02
4916000000.000000      6.890869000000000E-01      1.081738000000000E+01      2.412643000000000E-01     -1.686250000000000E+02
4917000000.000000      6.872559000000000E-01      1.092969000000000E+01      2.371368000000000E-01     -1.688672000000000E+02
4918000000.000000      6.897583000000000E-01      1.057666000000000E+01      2.335968000000000E-01     -1.691484000000000E+02
4919000000.000000      6.889343000000000E-01      1.083496000000000E+01      2.304916000000000E-01     -1.691641000000000E+02
4920000000.000000      6.903381000000000E-01      1.041504000000000E+01      2.262802000000000E-01     -1.697266000000000E+02
4921000000.000000      6.905518000000000E-01      1.042041000000000E+01      2.229462000000000E-01     -1.696875000000000E+02
4922000000.000000      6.920776000000000E-01      1.037354000000000E+01      2.190247000000000E-01     -1.697656000000000E+02
4923000000.000000      6.921082000000000E-01      1.034473000000000E+01      2.149887000000000E-01     -1.699453000000000E+02
4924000000.000000      6.933289000000000E-01      1.010010000000000E+01      2.118530000000000E-01     -1.702812000000000E+02
4925000000.000000      6.919556000000000E-01      9.952148000000000E+00      2.082138000000000E-01     -1.701250000000000E+02
4926000000.000000      6.921997000000000E-01      1.005371000000000E+01      2.046127000000000E-01     -1.705547000000000E+02
4927000000.000000      6.925964000000000E-01      9.734863000000000E+00      2.003784000000000E-01     -1.706172000000000E+02
4928000000.000000      6.956482000000000E-01      9.678711000000000E+00      1.970825000000000E-01     -1.707031000000000E+02
4929000000.000000      6.918945000000000E-01      9.693848000000000E+00      1.930313000000000E-01     -1.706250000000000E+02
4930000000.000000      6.961975000000000E-01      9.585449000000000E+00      1.891022000000000E-01     -1.708594000000000E+02
4931000000.000000      6.945801000000000E-01      9.354492000000000E+00      1.860504000000000E-01     -1.707109000000000E+02
4932000000.000000      6.961670000000000E-01      9.391602000000000E+00      1.818924000000000E-01     -1.706328000000000E+02
4933000000.000000      6.951294000000000E-01      9.103516000000000E+00      1.774902000000000E-01     -1.703750000000000E+02
4934000000.000000      6.980286000000000E-01      9.075684000000000E+00      1.738892000000000E-01     -1.704297000000000E+02
4935000000.000000      6.981506000000000E-01      8.979492000000000E+00      1.705856000000000E-01     -1.700391000000000E+02
4936000000.000000      6.967773000000000E-01      8.957520000000000E+00      1.665268000000000E-01     -1.698125000000000E+02
4937000000.000000      6.973267000000000E-01      8.779297000000000E+00      1.633682000000000E-01     -1.695859000000000E+02
4938000000.000000      6.964417000000000E-01      8.768066000000000E+00      1.600800000000000E-01     -1.691484000000000E+02
4939000000.000000      6.958008000000000E-01      8.733887000000000E+00      1.563797000000000E-01     -1.688984000000000E+02
4940000000.000000      6.991882000000000E-01      8.583984000000000E+00      1.522369000000000E-01     -1.686406000000000E+02
4941000000.000000      6.998596000000000E-01      8.426270000000000E+00      1.490097000000000E-01     -1.680000000000000E+02
4942000000.000000      6.983032000000000E-01      8.380859000000000E+00      1.456299000000000E-01     -1.674141000000000E+02
4943000000.000000      6.997681000000000E-01      8.349609000000000E+00      1.425476000000000E-01     -1.668437000000000E+02
4944000000.000000      7.014465000000000E-01      8.173828000000000E+00      1.389236000000000E-01     -1.661562000000000E+02
4945000000.000000      7.013245000000000E-01      8.225586000000000E+00      1.357269000000000E-01     -1.654219000000000E+02
4946000000.000000      7.035522000000000E-01      7.951172000000000E+00      1.330566000000000E-01     -1.646797000000000E+02
4947000000.000000      7.017517000000000E-01      7.867432000000000E+00      1.296463000000000E-01     -1.636875000000000E+02
4948000000.000000      7.023926000000000E-01      7.860596000000000E+00      1.272125000000000E-01     -1.625547000000000E+02
4949000000.000000      7.019653000000000E-01      7.658691000000000E+00      1.241913000000000E-01     -1.613047000000000E+02
4950000000.000000      7.039185000000000E-01      7.693115000000000E+00      1.217346000000000E-01     -1.603750000000000E+02
4951000000.000000      7.042847000000000E-01      7.566650000000000E+00      1.193733000000000E-01     -1.591406000000000E+02
4952000000.000000      7.049866000000000E-01      7.478760000000000E+00      1.167908000000000E-01     -1.578984000000000E+02
4953000000.000000      7.036743000000000E-01      7.279785000000000E+00      1.152039000000000E-01     -1.563984000000000E+02
4954000000.000000      7.055359000000000E-01      7.318115000000000E+00      1.131859000000000E-01     -1.548203000000000E+02
