! Network Analyzer HP8722D
! Hewlett-Packard
! Data name: Linha & Wilkinson
! Saver's name: Rodrigo Anjos
! Comments: Teste da utilização de aquisição
continua pelo VNA HP8722D
! Time and date: 22/5/2025 11:37
!              Frequency                     S11                                                   S21                                                   S12                                                   S22
# HZ  S  MA R 50
4800000000.000000      6.506042000000000E-01      1.074023000000000E+01      4.707794000000000E-01     -9.258204000000000E+01
4801000000.000000      6.490784000000000E-01      1.082275000000000E+01      4.728699000000000E-01     -9.322657000000000E+01
4802000000.000000      6.476746000000000E-01      1.069482000000000E+01      4.736176000000000E-01     -9.385937000000000E+01
4803000000.000000      6.461182000000000E-01      1.059180000000000E+01      4.773407000000000E-01     -9.458593000000000E+01
4804000000.000000      6.437988000000000E-01      1.071826000000000E+01      4.787445000000000E-01     -9.529688000000000E+01
4805000000.000000      6.465759000000000E-01      1.071973000000000E+01      4.807587000000000E-01     -9.641796000000000E+01
4806000000.000000      6.419983000000000E-01      1.063867000000000E+01      4.811096000000000E-01     -9.702734000000000E+01
4807000000.000000      6.390076000000000E-01      1.072510000000000E+01      4.806976000000000E-01     -9.783203000000000E+01
4808000000.000000      6.374512000000000E-01      1.067969000000000E+01      4.848633000000000E-01     -9.841015000000000E+01
4809000000.000000      6.357727000000000E-01      1.080078000000000E+01      4.860687000000000E-01     -9.932030000000000E+01
4810000000.000000      6.347351000000000E-01      1.079248000000000E+01      4.891052000000000E-01     -9.991405000000000E+01
4811000000.000000      6.338501000000000E-01      1.100098000000000E+01      4.903107000000000E-01     -1.006680000000000E+02
4812000000.000000      6.337585000000000E-01      1.095313000000000E+01      4.899902000000000E-01     -1.012656000000000E+02
4813000000.000000      6.295166000000000E-01      1.108887000000000E+01      4.907227000000000E-01     -1.022890000000000E+02
4814000000.000000      6.299438000000000E-01      1.092285000000000E+01      4.928741000000000E-01     -1.030469000000000E+02
4815000000.000000      6.284180000000000E-01      1.109717000000000E+01      4.940948000000000E-01     -1.037578000000000E+02
4816000000.000000      6.268005000000000E-01      1.120020000000000E+01      4.937134000000000E-01     -1.043984000000000E+02
4817000000.000000      6.249390000000000E-01      1.128662000000000E+01      4.943848000000000E-01     -1.052187000000000E+02
4818000000.000000      6.253357000000000E-01      1.130176000000000E+01      4.950409000000000E-01     -1.060938000000000E+02
4819000000.000000      6.228333000000000E-01      1.130176000000000E+01      4.951630000000000E-01     -1.067422000000000E+02
4820000000.000000      6.228638000000000E-01      1.157129000000000E+01      4.948120000000000E-01     -1.073125000000000E+02
4821000000.000000      6.205444000000000E-01      1.173438000000000E+01      4.969025000000000E-01     -1.083125000000000E+02
4822000000.000000      6.192932000000000E-01      1.158887000000000E+01      4.947357000000000E-01     -1.091250000000000E+02
4823000000.000000      6.194763000000000E-01      1.167432000000000E+01      4.970398000000000E-01     -1.097656000000000E+02
4824000000.000000      6.188660000000000E-01      1.178516000000000E+01      4.985199000000000E-01     -1.104883000000000E+02
4825000000.000000      6.169434000000000E-01      1.196240000000000E+01      4.977112000000000E-01     -1.113515000000000E+02
4826000000.000000      6.156311000000000E-01      1.183594000000000E+01      4.975128000000000E-01     -1.121445000000000E+02
4827000000.000000      6.158447000000000E-01      1.199707000000000E+01      4.989777000000000E-01     -1.126836000000000E+02
4828000000.000000      6.160583000000000E-01      1.224561000000000E+01      4.991760000000000E-01     -1.135234000000000E+02
4829000000.000000      6.139526000000000E-01      1.244873000000000E+01      4.988403000000000E-01     -1.143359000000000E+02
4830000000.000000      6.155396000000000E-01      1.242822000000000E+01      4.985962000000000E-01     -1.150156000000000E+02
4831000000.000000      6.153564000000000E-01      1.252686000000000E+01      5.010376000000000E-01     -1.158203000000000E+02
4832000000.000000      6.129456000000000E-01      1.291016000000000E+01      4.990845000000000E-01     -1.165000000000000E+02
4833000000.000000      6.124878000000000E-01      1.266846000000000E+01      4.992981000000000E-01     -1.172227000000000E+02
4834000000.000000      6.130371000000000E-01      1.272461000000000E+01      4.992523000000000E-01     -1.182070000000000E+02
4835000000.000000      6.125793000000000E-01      1.294434000000000E+01      4.996796000000000E-01     -1.188594000000000E+02
4836000000.000000      6.138000000000000E-01      1.308838000000000E+01      4.974670000000000E-01     -1.197539000000000E+02
4837000000.000000      6.141357000000000E-01      1.334424000000000E+01      4.967651000000000E-01     -1.206562000000000E+02
4838000000.000000      6.139526000000000E-01      1.335645000000000E+01      4.986115000000000E-01     -1.210508000000000E+02
4839000000.000000      6.157837000000000E-01      1.362549000000000E+01      4.990234000000000E-01     -1.219375000000000E+02
4840000000.000000      6.148682000000000E-01      1.342773000000000E+01      4.972076000000000E-01     -1.226953000000000E+02
4841000000.000000      6.149292000000000E-01      1.368311000000000E+01      4.977417000000000E-01     -1.235039000000000E+02
4842000000.000000      6.170654000000000E-01      1.378467000000000E+01      4.971619000000000E-01     -1.242812000000000E+02
4843000000.000000      6.175842000000000E-01      1.389746000000000E+01      4.953461000000000E-01     -1.251758000000000E+02
4844000000.000000      6.178284000000000E-01      1.396484000000000E+01      4.951172000000000E-01     -1.261016000000000E+02
4845000000.000000      6.179504000000000E-01      1.408838000000000E+01      4.946289000000000E-01     -1.267383000000000E+02
4846000000.000000      6.184998000000000E-01      1.428467000000000E+01      4.922791000000000E-01     -1.275234000000000E+02
4847000000.000000      6.205750000000000E-01      1.429688000000000E+01      4.910278000000000E-01     -1.283750000000000E+02
4848000000.000000      6.189270000000000E-01      1.429443000000000E+01      4.899750000000000E-01     -1.294922000000000E+02
4849000000.000000      6.219482000000000E-01      1.424609000000000E+01      4.879608000000000E-01     -1.302734000000000E+02
4850000000.000000      6.213989000000000E-01      1.454688000000000E+01      4.868774000000000E-01     -1.310391000000000E+02
4851000000.000000      6.243896000000000E-01      1.445898000000000E+01      4.866180000000000E-01     -1.320000000000000E+02
4852000000.000000      6.225281000000000E-01      1.451416000000000E+01      4.835358000000000E-01     -1.328438000000000E+02
4853000000.000000      6.249390000000000E-01      1.464307000000000E+01      4.798889000000000E-01     -1.336641000000000E+02
4854000000.000000      6.268616000000000E-01      1.465967000000000E+01      4.792633000000000E-01     -1.344141000000000E+02
4855000000.000000      6.270752000000000E-01      1.455664000000000E+01      4.762726000000000E-01     -1.354766000000000E+02
4856000000.000000      6.268005000000000E-01      1.464063000000000E+01      4.744110000000000E-01     -1.362734000000000E+02
4857000000.000000      6.304016000000000E-01      1.478613000000000E+01      4.728546000000000E-01     -1.372187000000000E+02
4858000000.000000      6.291504000000000E-01      1.470361000000000E+01      4.694366000000000E-01     -1.379062000000000E+02
4859000000.000000      6.318054000000000E-01      1.464307000000000E+01      4.659576000000000E-01     -1.389375000000000E+02
4860000000.000000      6.316223000000000E-01      1.484229000000000E+01      4.626465000000000E-01     -1.396563000000000E+02
4861000000.000000      6.352844000000000E-01      1.499609000000000E+01      4.597931000000000E-01     -1.405625000000000E+02
4862000000.000000      6.338806000000000E-01      1.488623000000000E+01      4.582672000000000E-01     -1.410156000000000E+02
4863000000.000000      6.372986000000000E-01      1.487793000000000E+01      4.526520000000000E-01     -1.422656000000000E+02
4864000000.000000      6.378174000000000E-01      1.483691000000000E+01      4.504242000000000E-01     -1.426484000000000E+02
4865000000.000000      6.365967000000000E-01      1.480127000000000E+01      4.467926000000000E-01     -1.437187000000000E+02
4866000000.000000      6.419067000000000E-01      1.474219000000000E+01      4.436188000000000E-01     -1.445391000000000E+02
4867000000.000000      6.405029000000000E-01      1.480127000000000E+01      4.392395000000000E-01     -1.455078000000000E+02
4868000000.000000      6.417236000000000E-01      1.479541000000000E+01      4.344330000000000E-01     -1.460703000000000E+02
4869000000.000000      6.419373000000000E-01      1.484912000000000E+01      4.326630000000000E-01     -1.468672000000000E+02
4870000000.000000      6.439514000000000E-01      1.478467000000000E+01      4.273224000000000E-01     -1.474766000000000E+02
4871000000.000000      6.451111000000000E-01      1.491357000000000E+01      4.227142000000000E-01     -1.482969000000000E+02
4872000000.000000      6.489868000000000E-01      1.463379000000000E+01      4.188080000000000E-01     -1.490859000000000E+02
4873000000.000000      6.480103000000000E-01      1.486572000000000E+01      4.145203000000000E-01     -1.497578000000000E+02
4874000000.000000      6.480408000000000E-01      1.472021000000000E+01      4.090271000000000E-01     -1.505312000000000E+02
4875000000.000000      6.512756000000000E-01      1.462793000000000E+01      4.051971000000000E-01     -1.510313000000000E+02
4876000000.000000      6.526489000000000E-01      1.474072000000000E+01      4.012146000000000E-01     -1.517891000000000E+02
4877000000.000000      6.547546000000000E-01      1.440283000000000E+01      3.978119000000000E-01     -1.525781000000000E+02
4878000000.000000      6.549377000000000E-01      1.442334000000000E+01      3.926086000000000E-01     -1.531172000000000E+02
4879000000.000000      6.559143000000000E-01      1.450293000000000E+01      3.865051000000000E-01     -1.534531000000000E+02
4880000000.000000      6.567688000000000E-01      1.437939000000000E+01      3.849182000000000E-01     -1.541250000000000E+02
4881000000.000000      6.574097000000000E-01      1.438623000000000E+01      3.783875000000000E-01     -1.547500000000000E+02
4882000000.000000      6.605835000000000E-01      1.428320000000000E+01      3.760681000000000E-01     -1.552891000000000E+02
4883000000.000000      6.630859000000000E-01      1.402539000000000E+01      3.696289000000000E-01     -1.559297000000000E+02
4884000000.000000      6.623840000000000E-01      1.421338000000000E+01      3.656006000000000E-01     -1.564609000000000E+02
4885000000.000000      6.630554000000000E-01      1.415967000000000E+01      3.622284000000000E-01     -1.569375000000000E+02
4886000000.000000      6.643982000000000E-01      1.409375000000000E+01      3.578949000000000E-01     -1.574375000000000E+02
4887000000.000000      6.661682000000000E-01      1.397314000000000E+01      3.536072000000000E-01     -1.579062000000000E+02
4888000000.000000      6.668091000000000E-01      1.375879000000000E+01      3.500214000000000E-01     -1.584609000000000E+02
4889000000.000000      6.678467000000000E-01      1.370508000000000E+01      3.442535000000000E-01     -1.588516000000000E+02
4890000000.000000      6.680298000000000E-01      1.354443000000000E+01      3.401031000000000E-01     -1.593984000000000E+02
4891000000.000000      6.699219000000000E-01      1.349219000000000E+01      3.372040000000000E-01     -1.598047000000000E+02
4892000000.000000      6.696167000000000E-01      1.350879000000000E+01      3.324432000000000E-01     -1.600625000000000E+02
4893000000.000000      6.731262000000000E-01      1.362988000000000E+01      3.283539000000000E-01     -1.607500000000000E+02
4894000000.000000      6.718445000000000E-01      1.339893000000000E+01      3.243103000000000E-01     -1.609141000000000E+02
4895000000.000000      6.755981000000000E-01      1.328613000000000E+01      3.210602000000000E-01     -1.612266000000000E+02
4896000000.000000      6.766663000000000E-01      1.338232000000000E+01      3.165894000000000E-01     -1.617031000000000E+02
4897000000.000000      6.765442000000000E-01      1.320410000000000E+01      3.121490000000000E-01     -1.621406000000000E+02
4898000000.000000      6.756897000000000E-01      1.295117000000000E+01      3.098297000000000E-01     -1.623984000000000E+02
4899000000.000000      6.788330000000000E-01      1.306787000000000E+01      3.056641000000000E-01     -1.629219000000000E+02
4900000000.000000      6.779480000000000E-01      1.273145000000000E+01      3.014374000000000E-01     -1.631406000000000E+02
4901000000.000000      6.793518000000000E-01      1.277832000000000E+01      2.983246000000000E-01     -1.633750000000000E+02
4902000000.000000      6.797791000000000E-01      1.264795000000000E+01      2.951355000000000E-01     -1.638281000000000E+02
4903000000.000000      6.806946000000000E-01      1.263965000000000E+01      2.907410000000000E-01     -1.641797000000000E+02
4904000000.000000      6.815491000000000E-01      1.236084000000000E+01      2.869568000000000E-01     -1.646484000000000E+02
4905000000.000000      6.829529000000000E-01      1.232227000000000E+01      2.841034000000000E-01     -1.649297000000000E+02
4906000000.000000      6.813354000000000E-01      1.220166000000000E+01      2.799683000000000E-01     -1.649688000000000E+02
4907000000.000000      6.832275000000000E-01      1.229883000000000E+01      2.778320000000000E-01     -1.656406000000000E+02
4908000000.000000      6.841431000000000E-01      1.204639000000000E+01      2.737122000000000E-01     -1.659219000000000E+02
4909000000.000000      6.851196000000000E-01      1.200488000000000E+01      2.699432000000000E-01     -1.662656000000000E+02
4910000000.000000      6.853333000000000E-01      1.193115000000000E+01      2.663269000000000E-01     -1.665078000000000E+02
4911000000.000000      6.862793000000000E-01      1.176758000000000E+01      2.632446000000000E-01     -1.666641000000000E+02
4912000000.000000      6.854858000000000E-01      1.179785000000000E+01      2.593689000000000E-01     -1.671797000000000E+02
4913000000.000000      6.878967000000000E-01      1.159180000000000E+01      2.562103000000000E-01     -1.675156000000000E+02
4914000000.000000      6.910095000000000E-01      1.136377000000000E+01      2.523499000000000E-01     -1.676328000000000E+02
4915000000.000000      6.867981000000000E-01      1.136230000000000E+01      2.488403000000000E-01     -1.681953000000000E+02
4916000000.000000      6.892395000000000E-01      1.121289000000000E+01      2.452164000000000E-01     -1.683437000000000E+02
4917000000.000000      6.896973000000000E-01      1.120459000000000E+01      2.412872000000000E-01     -1.685625000000000E+02
4918000000.000000      6.906433000000000E-01      1.102588000000000E+01      2.386398000000000E-01     -1.688984000000000E+02
4919000000.000000      6.910706000000000E-01      1.107129000000000E+01      2.348328000000000E-01     -1.688828000000000E+02
4920000000.000000      6.917419000000000E-01      1.071289000000000E+01      2.308731000000000E-01     -1.693281000000000E+02
4921000000.000000      6.926270000000000E-01      1.083789000000000E+01      2.270813000000000E-01     -1.696250000000000E+02
4922000000.000000      6.928101000000000E-01      1.064844000000000E+01      2.234421000000000E-01     -1.697500000000000E+02
4923000000.000000      6.949768000000000E-01      1.057129000000000E+01      2.193985000000000E-01     -1.698750000000000E+02
4924000000.000000      6.938782000000000E-01      1.041357000000000E+01      2.157516000000000E-01     -1.701328000000000E+02
4925000000.000000      6.914368000000000E-01      1.020605000000000E+01      2.124939000000000E-01     -1.702266000000000E+02
4926000000.000000      6.937561000000000E-01      1.036377000000000E+01      2.087708000000000E-01     -1.705469000000000E+02
4927000000.000000      6.941528000000000E-01      1.014990000000000E+01      2.044983000000000E-01     -1.706875000000000E+02
4928000000.000000      6.959229000000000E-01      1.014307000000000E+01      2.012787000000000E-01     -1.708281000000000E+02
4929000000.000000      6.946716000000000E-01      9.953613000000000E+00      1.967239000000000E-01     -1.708750000000000E+02
4930000000.000000      6.966248000000000E-01      9.887695000000000E+00      1.931992000000000E-01     -1.709141000000000E+02
4931000000.000000      6.976929000000000E-01      9.736328000000000E+00      1.900101000000000E-01     -1.708828000000000E+02
4932000000.000000      6.971436000000000E-01      9.699219000000000E+00      1.860275000000000E-01     -1.708047000000000E+02
4933000000.000000      6.964722000000000E-01      9.638672000000000E+00      1.809387000000000E-01     -1.705859000000000E+02
4934000000.000000      6.976318000000000E-01      9.360352000000000E+00      1.784134000000000E-01     -1.708359000000000E+02
4935000000.000000      6.986389000000000E-01      9.456055000000000E+00      1.748810000000000E-01     -1.703906000000000E+02
4936000000.000000      6.968689000000000E-01      9.375000000000000E+00      1.710434000000000E-01     -1.703516000000000E+02
4937000000.000000      7.005310000000000E-01      9.110352000000000E+00      1.671524000000000E-01     -1.702031000000000E+02
4938000000.000000      7.008362000000000E-01      9.136230000000000E+00      1.636047000000000E-01     -1.700703000000000E+02
4939000000.000000      6.982727000000000E-01      8.983887000000000E+00      1.597595000000000E-01     -1.694375000000000E+02
4940000000.000000      7.015686000000000E-01      8.883789000000000E+00      1.561737000000000E-01     -1.693125000000000E+02
4941000000.000000      7.018433000000000E-01      8.681641000000000E+00      1.529694000000000E-01     -1.687187000000000E+02
4942000000.000000      7.004395000000000E-01      8.718750000000000E+00      1.492157000000000E-01     -1.684453000000000E+02
4943000000.000000      7.036743000000000E-01      8.611816000000000E+00      1.459045000000000E-01     -1.677891000000000E+02
4944000000.000000      7.010498000000000E-01      8.497559000000000E+00      1.424332000000000E-01     -1.673125000000000E+02
4945000000.000000      7.032776000000000E-01      8.385254000000000E+00      1.386490000000000E-01     -1.664609000000000E+02
4946000000.000000      7.042847000000000E-01      8.257324000000000E+00      1.355362000000000E-01     -1.658750000000000E+02
4947000000.000000      7.035522000000000E-01      8.276367000000000E+00      1.321106000000000E-01     -1.650469000000000E+02
4948000000.000000      7.049866000000000E-01      8.159668000000000E+00      1.294174000000000E-01     -1.641094000000000E+02
4949000000.000000      7.022705000000000E-01      8.020996000000000E+00      1.264267000000000E-01     -1.630703000000000E+02
4950000000.000000      7.061462000000000E-01      8.069336000000000E+00      1.237946000000000E-01     -1.619609000000000E+02
4951000000.000000      7.054749000000000E-01      7.884033000000000E+00      1.214371000000000E-01     -1.611328000000000E+02
4952000000.000000      7.057495000000000E-01      7.698486000000000E+00      1.183472000000000E-01     -1.596328000000000E+02
4953000000.000000      7.071228000000000E-01      7.723389000000000E+00      1.163673000000000E-01     -1.580156000000000E+02
4954000000.000000      7.084045000000000E-01      7.643555000000000E+00      1.143494000000000E-01     -1.568828000000000E+02
