! Network Analyzer HP8722D
! Hewlett-Packard
! Data name: Linha & Wilkinson
! Saver's name: Rodrigo Anjos
! Comments: Teste da utilização de aquisição
continua pelo VNA HP8722D
! Time and date: 22/5/2025 16:22
!              Frequency                     S11                                                   S21                                                   S12                                                   S22
# HZ  S  MA R 50
4800000000.000000      6.546021000000000E-01      1.087744000000000E+01      4.708405000000000E-01     -9.183594000000000E+01
4801000000.000000      6.513672000000000E-01      1.103027000000000E+01      4.704437000000000E-01     -9.266405000000000E+01
4802000000.000000      6.497803000000000E-01      1.102734000000000E+01      4.744415000000000E-01     -9.336329000000000E+01
4803000000.000000      6.468506000000000E-01      1.091211000000000E+01      4.766541000000000E-01     -9.407812000000000E+01
4804000000.000000      6.452942000000000E-01      1.099414000000000E+01      4.768829000000000E-01     -9.461718000000000E+01
4805000000.000000      6.446838000000000E-01      1.083105000000000E+01      4.799652000000000E-01     -9.576952000000000E+01
4806000000.000000      6.435852000000000E-01      1.084180000000000E+01      4.812469000000000E-01     -9.634766000000000E+01
4807000000.000000      6.398926000000000E-01      1.095166000000000E+01      4.817047000000000E-01     -9.726952000000000E+01
4808000000.000000      6.392822000000000E-01      1.079248000000000E+01      4.850616000000000E-01     -9.780468000000000E+01
4809000000.000000      6.358643000000000E-01      1.111230000000000E+01      4.857635000000000E-01     -9.872265000000000E+01
4810000000.000000      6.359558000000000E-01      1.083350000000000E+01      4.887543000000000E-01     -9.941015000000000E+01
4811000000.000000      6.341553000000000E-01      1.100391000000000E+01      4.883118000000000E-01     -1.002695000000000E+02
4812000000.000000      6.371460000000000E-01      1.109619000000000E+01      4.897766000000000E-01     -1.009297000000000E+02
4813000000.000000      6.320496000000000E-01      1.110156000000000E+01      4.907837000000000E-01     -1.017226000000000E+02
4814000000.000000      6.310120000000000E-01      1.122656000000000E+01      4.925385000000000E-01     -1.023242000000000E+02
4815000000.000000      6.291809000000000E-01      1.121387000000000E+01      4.915466000000000E-01     -1.030703000000000E+02
4816000000.000000      6.303406000000000E-01      1.122217000000000E+01      4.944611000000000E-01     -1.037852000000000E+02
4817000000.000000      6.262207000000000E-01      1.154248000000000E+01      4.934845000000000E-01     -1.045508000000000E+02
4818000000.000000      6.254272000000000E-01      1.145459000000000E+01      4.948273000000000E-01     -1.055117000000000E+02
4819000000.000000      6.228027000000000E-01      1.154248000000000E+01      4.967346000000000E-01     -1.061094000000000E+02
4820000000.000000      6.220093000000000E-01      1.174121000000000E+01      4.967194000000000E-01     -1.066523000000000E+02
4821000000.000000      6.223450000000000E-01      1.170020000000000E+01      4.963684000000000E-01     -1.077422000000000E+02
4822000000.000000      6.178284000000000E-01      1.172363000000000E+01      4.960327000000000E-01     -1.083711000000000E+02
4823000000.000000      6.198425000000000E-01      1.179785000000000E+01      4.976807000000000E-01     -1.091914000000000E+02
4824000000.000000      6.170349000000000E-01      1.210693000000000E+01      4.963074000000000E-01     -1.098516000000000E+02
4825000000.000000      6.176147000000000E-01      1.202295000000000E+01      4.980011000000000E-01     -1.105117000000000E+02
4826000000.000000      6.165771000000000E-01      1.203662000000000E+01      4.983521000000000E-01     -1.114219000000000E+02
4827000000.000000      6.156311000000000E-01      1.229492000000000E+01      5.004578000000000E-01     -1.120273000000000E+02
4828000000.000000      6.172485000000000E-01      1.230322000000000E+01      4.988251000000000E-01     -1.127969000000000E+02
4829000000.000000      6.154785000000000E-01      1.255859000000000E+01      4.997406000000000E-01     -1.136289000000000E+02
4830000000.000000      6.160278000000000E-01      1.273438000000000E+01      5.005798000000000E-01     -1.144570000000000E+02
4831000000.000000      6.140747000000000E-01      1.268750000000000E+01      5.008545000000000E-01     -1.152266000000000E+02
4832000000.000000      6.130676000000000E-01      1.302246000000000E+01      5.008240000000000E-01     -1.158359000000000E+02
4833000000.000000      6.138611000000000E-01      1.282910000000000E+01      5.000916000000000E-01     -1.163984000000000E+02
4834000000.000000      6.124268000000000E-01      1.310107000000000E+01      4.990540000000000E-01     -1.173555000000000E+02
4835000000.000000      6.136780000000000E-01      1.309131000000000E+01      5.005188000000000E-01     -1.182734000000000E+02
4836000000.000000      6.139221000000000E-01      1.324365000000000E+01      4.983215000000000E-01     -1.187812000000000E+02
4837000000.000000      6.138000000000000E-01      1.339893000000000E+01      4.978027000000000E-01     -1.198594000000000E+02
4838000000.000000      6.127319000000000E-01      1.352686000000000E+01      4.984131000000000E-01     -1.205078000000000E+02
4839000000.000000      6.166382000000000E-01      1.368311000000000E+01      4.983368000000000E-01     -1.213359000000000E+02
4840000000.000000      6.140442000000000E-01      1.362402000000000E+01      4.994659000000000E-01     -1.220039000000000E+02
4841000000.000000      6.143188000000000E-01      1.388232000000000E+01      4.979248000000000E-01     -1.230078000000000E+02
4842000000.000000      6.140442000000000E-01      1.384961000000000E+01      4.983215000000000E-01     -1.237383000000000E+02
4843000000.000000      6.196594000000000E-01      1.398145000000000E+01      4.969025000000000E-01     -1.245469000000000E+02
4844000000.000000      6.163635000000000E-01      1.414209000000000E+01      4.953156000000000E-01     -1.253242000000000E+02
4845000000.000000      6.158752000000000E-01      1.430518000000000E+01      4.946747000000000E-01     -1.260547000000000E+02
4846000000.000000      6.195984000000000E-01      1.422412000000000E+01      4.947968000000000E-01     -1.270781000000000E+02
4847000000.000000      6.187744000000000E-01      1.441504000000000E+01      4.937134000000000E-01     -1.278594000000000E+02
4848000000.000000      6.196594000000000E-01      1.437695000000000E+01      4.901276000000000E-01     -1.287031000000000E+02
4849000000.000000      6.206055000000000E-01      1.444141000000000E+01      4.913483000000000E-01     -1.295312000000000E+02
4850000000.000000      6.206055000000000E-01      1.457178000000000E+01      4.883881000000000E-01     -1.305703000000000E+02
4851000000.000000      6.221924000000000E-01      1.469385000000000E+01      4.877930000000000E-01     -1.311094000000000E+02
4852000000.000000      6.228333000000000E-01      1.476270000000000E+01      4.852905000000000E-01     -1.320625000000000E+02
4853000000.000000      6.238708000000000E-01      1.478467000000000E+01      4.816132000000000E-01     -1.329141000000000E+02
4854000000.000000      6.247559000000000E-01      1.495898000000000E+01      4.808502000000000E-01     -1.338984000000000E+02
4855000000.000000      6.244507000000000E-01      1.495605000000000E+01      4.782257000000000E-01     -1.346953000000000E+02
4856000000.000000      6.275024000000000E-01      1.486426000000000E+01      4.771576000000000E-01     -1.354219000000000E+02
4857000000.000000      6.291199000000000E-01      1.500830000000000E+01      4.744873000000000E-01     -1.363125000000000E+02
4858000000.000000      6.294250000000000E-01      1.500977000000000E+01      4.725952000000000E-01     -1.372813000000000E+02
4859000000.000000      6.314087000000000E-01      1.509912000000000E+01      4.699554000000000E-01     -1.381953000000000E+02
4860000000.000000      6.315002000000000E-01      1.512646000000000E+01      4.667053000000000E-01     -1.388750000000000E+02
4861000000.000000      6.316223000000000E-01      1.518848000000000E+01      4.629364000000000E-01     -1.398984000000000E+02
4862000000.000000      6.340332000000000E-01      1.511426000000000E+01      4.606781000000000E-01     -1.405703000000000E+02
4863000000.000000      6.351624000000000E-01      1.524463000000000E+01      4.562378000000000E-01     -1.416953000000000E+02
4864000000.000000      6.366577000000000E-01      1.508691000000000E+01      4.538269000000000E-01     -1.423984000000000E+02
4865000000.000000      6.374817000000000E-01      1.510059000000000E+01      4.498291000000000E-01     -1.430859000000000E+02
4866000000.000000      6.402893000000000E-01      1.515967000000000E+01      4.458313000000000E-01     -1.439062000000000E+02
4867000000.000000      6.389771000000000E-01      1.524609000000000E+01      4.412689000000000E-01     -1.448047000000000E+02
4868000000.000000      6.406250000000000E-01      1.504395000000000E+01      4.394379000000000E-01     -1.456640000000000E+02
4869000000.000000      6.412048000000000E-01      1.500146000000000E+01      4.342194000000000E-01     -1.462578000000000E+02
4870000000.000000      6.450806000000000E-01      1.508008000000000E+01      4.300385000000000E-01     -1.468984000000000E+02
4871000000.000000      6.455383000000000E-01      1.476123000000000E+01      4.261017000000000E-01     -1.477656000000000E+02
4872000000.000000      6.464844000000000E-01      1.512646000000000E+01      4.219513000000000E-01     -1.482266000000000E+02
4873000000.000000      6.472778000000000E-01      1.513477000000000E+01      4.176025000000000E-01     -1.490937000000000E+02
4874000000.000000      6.489563000000000E-01      1.493018000000000E+01      4.128876000000000E-01     -1.500313000000000E+02
4875000000.000000      6.506042000000000E-01      1.480225000000000E+01      4.082947000000000E-01     -1.506172000000000E+02
4876000000.000000      6.514282000000000E-01      1.489453000000000E+01      4.044189000000000E-01     -1.511797000000000E+02
4877000000.000000      6.539612000000000E-01      1.471045000000000E+01      4.004211000000000E-01     -1.519609000000000E+02
4878000000.000000      6.522522000000000E-01      1.475049000000000E+01      3.965607000000000E-01     -1.525234000000000E+02
4879000000.000000      6.564026000000000E-01      1.486133000000000E+01      3.907623000000000E-01     -1.531328000000000E+02
4880000000.000000      6.563721000000000E-01      1.469971000000000E+01      3.872681000000000E-01     -1.536562000000000E+02
4881000000.000000      6.583557000000000E-01      1.473389000000000E+01      3.836060000000000E-01     -1.542734000000000E+02
4882000000.000000      6.612244000000000E-01      1.465967000000000E+01      3.795471000000000E-01     -1.550937000000000E+02
4883000000.000000      6.602173000000000E-01      1.439063000000000E+01      3.738251000000000E-01     -1.555312000000000E+02
4884000000.000000      6.643372000000000E-01      1.449463000000000E+01      3.684235000000000E-01     -1.559844000000000E+02
4885000000.000000      6.641235000000000E-01      1.439063000000000E+01      3.651123000000000E-01     -1.561250000000000E+02
4886000000.000000      6.649475000000000E-01      1.447559000000000E+01      3.607941000000000E-01     -1.567578000000000E+02
4887000000.000000      6.640930000000000E-01      1.435059000000000E+01      3.565979000000000E-01     -1.575234000000000E+02
4888000000.000000      6.651306000000000E-01      1.408008000000000E+01      3.525391000000000E-01     -1.581016000000000E+02
4889000000.000000      6.674500000000000E-01      1.412402000000000E+01      3.477020000000000E-01     -1.583437000000000E+02
4890000000.000000      6.679993000000000E-01      1.386865000000000E+01      3.433533000000000E-01     -1.591094000000000E+02
4891000000.000000      6.692505000000000E-01      1.402783000000000E+01      3.386841000000000E-01     -1.593828000000000E+02
4892000000.000000      6.701660000000000E-01      1.386035000000000E+01      3.352661000000000E-01     -1.596172000000000E+02
4893000000.000000      6.724243000000000E-01      1.367383000000000E+01      3.309631000000000E-01     -1.604375000000000E+02
4894000000.000000      6.730347000000000E-01      1.370361000000000E+01      3.278809000000000E-01     -1.606641000000000E+02
4895000000.000000      6.753235000000000E-01      1.360352000000000E+01      3.246460000000000E-01     -1.609766000000000E+02
4896000000.000000      6.744995000000000E-01      1.327393000000000E+01      3.198242000000000E-01     -1.613125000000000E+02
4897000000.000000      6.750183000000000E-01      1.335938000000000E+01      3.158417000000000E-01     -1.617891000000000E+02
4898000000.000000      6.771545000000000E-01      1.323438000000000E+01      3.125458000000000E-01     -1.620859000000000E+02
4899000000.000000      6.775208000000000E-01      1.323975000000000E+01      3.082275000000000E-01     -1.625937000000000E+02
4900000000.000000      6.770325000000000E-01      1.303223000000000E+01      3.046875000000000E-01     -1.628828000000000E+02
4901000000.000000      6.768799000000000E-01      1.292090000000000E+01      3.009949000000000E-01     -1.632578000000000E+02
4902000000.000000      6.798401000000000E-01      1.291260000000000E+01      2.980347000000000E-01     -1.633594000000000E+02
4903000000.000000      6.818848000000000E-01      1.297852000000000E+01      2.934418000000000E-01     -1.638984000000000E+02
4904000000.000000      6.817017000000000E-01      1.257764000000000E+01      2.898865000000000E-01     -1.642500000000000E+02
4905000000.000000      6.817932000000000E-01      1.246631000000000E+01      2.869568000000000E-01     -1.646250000000000E+02
4906000000.000000      6.824036000000000E-01      1.246240000000000E+01      2.830505000000000E-01     -1.646641000000000E+02
4907000000.000000      6.824341000000000E-01      1.247607000000000E+01      2.801666000000000E-01     -1.651953000000000E+02
4908000000.000000      6.856995000000000E-01      1.230566000000000E+01      2.762756000000000E-01     -1.656094000000000E+02
4909000000.000000      6.844177000000000E-01      1.218213000000000E+01      2.729797000000000E-01     -1.659141000000000E+02
4910000000.000000      6.850891000000000E-01      1.212598000000000E+01      2.693024000000000E-01     -1.662344000000000E+02
4911000000.000000      6.858521000000000E-01      1.198730000000000E+01      2.660217000000000E-01     -1.664375000000000E+02
4912000000.000000      6.861877000000000E-01      1.194482000000000E+01      2.622833000000000E-01     -1.668047000000000E+02
4913000000.000000      6.864014000000000E-01      1.188428000000000E+01      2.594604000000000E-01     -1.671328000000000E+02
4914000000.000000      6.875000000000000E-01      1.163818000000000E+01      2.552948000000000E-01     -1.674766000000000E+02
4915000000.000000      6.860657000000000E-01      1.181982000000000E+01      2.515717000000000E-01     -1.678594000000000E+02
4916000000.000000      6.901550000000000E-01      1.156445000000000E+01      2.483749000000000E-01     -1.682422000000000E+02
4917000000.000000      6.889343000000000E-01      1.138037000000000E+01      2.444763000000000E-01     -1.682344000000000E+02
4918000000.000000      6.900024000000000E-01      1.134717000000000E+01      2.403183000000000E-01     -1.686016000000000E+02
4919000000.000000      6.888733000000000E-01      1.143652000000000E+01      2.370758000000000E-01     -1.687891000000000E+02
4920000000.000000      6.911316000000000E-01      1.111914000000000E+01      2.333679000000000E-01     -1.693359000000000E+02
4921000000.000000      6.903381000000000E-01      1.109863000000000E+01      2.303162000000000E-01     -1.693594000000000E+02
4922000000.000000      6.902771000000000E-01      1.095313000000000E+01      2.260742000000000E-01     -1.694375000000000E+02
4923000000.000000      6.909485000000000E-01      1.085449000000000E+01      2.224045000000000E-01     -1.697734000000000E+02
4924000000.000000      6.933899000000000E-01      1.074707000000000E+01      2.183228000000000E-01     -1.701172000000000E+02
4925000000.000000      6.932983000000000E-01      1.073730000000000E+01      2.149887000000000E-01     -1.703203000000000E+02
4926000000.000000      6.928101000000000E-01      1.063330000000000E+01      2.113342000000000E-01     -1.703516000000000E+02
4927000000.000000      6.936646000000000E-01      1.031885000000000E+01      2.068481000000000E-01     -1.706172000000000E+02
4928000000.000000      6.949463000000000E-01      1.020996000000000E+01      2.035599000000000E-01     -1.705703000000000E+02
4929000000.000000      6.944580000000000E-01      1.018799000000000E+01      1.998367000000000E-01     -1.705703000000000E+02
4930000000.000000      6.954956000000000E-01      1.042432000000000E+01      1.962585000000000E-01     -1.709063000000000E+02
4931000000.000000      6.949158000000000E-01      9.939453000000000E+00      1.929932000000000E-01     -1.709687000000000E+02
4932000000.000000      6.986389000000000E-01      9.862793000000000E+00      1.885986000000000E-01     -1.710234000000000E+02
4933000000.000000      6.969299000000000E-01      9.849121000000000E+00      1.841736000000000E-01     -1.706563000000000E+02
4934000000.000000      7.001343000000000E-01      9.880371000000000E+00      1.811142000000000E-01     -1.708281000000000E+02
4935000000.000000      7.000427000000000E-01      9.721191000000000E+00      1.774445000000000E-01     -1.705625000000000E+02
4936000000.000000      6.975098000000000E-01      9.421875000000000E+00      1.728516000000000E-01     -1.705000000000000E+02
4937000000.000000      7.001648000000000E-01      9.383301000000000E+00      1.695404000000000E-01     -1.703828000000000E+02
4938000000.000000      6.977234000000000E-01      9.411133000000000E+00      1.655960000000000E-01     -1.701406000000000E+02
4939000000.000000      6.978455000000000E-01      9.292969000000000E+00      1.624222000000000E-01     -1.697734000000000E+02
4940000000.000000      7.017822000000000E-01      8.983887000000000E+00      1.581116000000000E-01     -1.696719000000000E+02
4941000000.000000      6.992188000000000E-01      8.926270000000000E+00      1.549759000000000E-01     -1.690625000000000E+02
4942000000.000000      7.005005000000000E-01      9.024902000000000E+00      1.510162000000000E-01     -1.687656000000000E+02
4943000000.000000      7.023010000000000E-01      9.000488000000000E+00      1.477661000000000E-01     -1.682812000000000E+02
4944000000.000000      7.012634000000000E-01      8.777832000000000E+00      1.444321000000000E-01     -1.677500000000000E+02
4945000000.000000      7.029419000000000E-01      8.621094000000000E+00      1.409683000000000E-01     -1.671484000000000E+02
4946000000.000000      7.026367000000000E-01      8.510254000000000E+00      1.377029000000000E-01     -1.664297000000000E+02
4947000000.000000      7.028198000000000E-01      8.549805000000000E+00      1.344986000000000E-01     -1.658203000000000E+02
4948000000.000000      7.039795000000000E-01      8.478516000000000E+00      1.316299000000000E-01     -1.648594000000000E+02
4949000000.000000      7.033081000000000E-01      8.284668000000000E+00      1.282272000000000E-01     -1.636328000000000E+02
4950000000.000000      7.059937000000000E-01      8.213379000000000E+00      1.253433000000000E-01     -1.627266000000000E+02
4951000000.000000      7.051086000000000E-01      8.125488000000000E+00      1.226120000000000E-01     -1.618984000000000E+02
4952000000.000000      7.042542000000000E-01      8.045898000000000E+00      1.195717000000000E-01     -1.606484000000000E+02
4953000000.000000      7.035217000000000E-01      8.000488000000000E+00      1.175842000000000E-01     -1.589922000000000E+02
4954000000.000000      7.066650000000000E-01      7.657471000000000E+00      1.150398000000000E-01     -1.579766000000000E+02
