! Network Analyzer HP8722D
! Hewlett-Packard
! Data name: Linha & Wilkinson
! Saver's name: Rodrigo Anjos
! Comments: Teste da utilização de aquisição
continua pelo VNA HP8722D
! Time and date: 22/5/2025 15:56
!              Frequency                     S11                                                   S21                                                   S12                                                   S22
# HZ  S  MA R 50
4800000000.000000      6.528015000000000E-01      1.098633000000000E+01      4.710083000000000E-01     -9.221094000000000E+01
4801000000.000000      6.506958000000000E-01      1.092725000000000E+01      4.721680000000000E-01     -9.293749000000000E+01
4802000000.000000      6.481934000000000E-01      1.092285000000000E+01      4.761658000000000E-01     -9.373827000000000E+01
4803000000.000000      6.463928000000000E-01      1.096973000000000E+01      4.779205000000000E-01     -9.438280000000000E+01
4804000000.000000      6.456604000000000E-01      1.093652000000000E+01      4.795837000000000E-01     -9.518749000000000E+01
4805000000.000000      6.447144000000000E-01      1.098193000000000E+01      4.796448000000000E-01     -9.591015000000000E+01
4806000000.000000      6.410522000000000E-01      1.104492000000000E+01      4.806519000000000E-01     -9.680859000000000E+01
4807000000.000000      6.383057000000000E-01      1.099023000000000E+01      4.815826000000000E-01     -9.746874000000000E+01
4808000000.000000      6.371765000000000E-01      1.083350000000000E+01      4.855194000000000E-01     -9.816015000000000E+01
4809000000.000000      6.368713000000000E-01      1.103809000000000E+01      4.867401000000000E-01     -9.899218000000000E+01
4810000000.000000      6.358337000000000E-01      1.103711000000000E+01      4.890594000000000E-01     -9.975389000000000E+01
4811000000.000000      6.341858000000000E-01      1.106592000000000E+01      4.904785000000000E-01     -1.005586000000000E+02
4812000000.000000      6.332397000000000E-01      1.127197000000000E+01      4.895172000000000E-01     -1.012773000000000E+02
4813000000.000000      6.313782000000000E-01      1.126367000000000E+01      4.905548000000000E-01     -1.021289000000000E+02
4814000000.000000      6.297913000000000E-01      1.109033000000000E+01      4.918060000000000E-01     -1.026914000000000E+02
4815000000.000000      6.253967000000000E-01      1.141992000000000E+01      4.915314000000000E-01     -1.036484000000000E+02
4816000000.000000      6.270142000000000E-01      1.144775000000000E+01      4.937744000000000E-01     -1.041367000000000E+02
4817000000.000000      6.244507000000000E-01      1.147217000000000E+01      4.946594000000000E-01     -1.049609000000000E+02
4818000000.000000      6.229858000000000E-01      1.153955000000000E+01      4.946747000000000E-01     -1.057891000000000E+02
4819000000.000000      6.231689000000000E-01      1.159863000000000E+01      4.955750000000000E-01     -1.065820000000000E+02
4820000000.000000      6.220703000000000E-01      1.180322000000000E+01      4.974213000000000E-01     -1.071641000000000E+02
4821000000.000000      6.215515000000000E-01      1.176758000000000E+01      4.969788000000000E-01     -1.080508000000000E+02
4822000000.000000      6.181335000000000E-01      1.164551000000000E+01      4.956665000000000E-01     -1.087500000000000E+02
4823000000.000000      6.188049000000000E-01      1.185547000000000E+01      4.991302000000000E-01     -1.096016000000000E+02
4824000000.000000      6.178284000000000E-01      1.219482000000000E+01      4.980469000000000E-01     -1.103945000000000E+02
4825000000.000000      6.166687000000000E-01      1.218066000000000E+01      4.979401000000000E-01     -1.109687000000000E+02
4826000000.000000      6.168823000000000E-01      1.223438000000000E+01      4.988556000000000E-01     -1.119336000000000E+02
4827000000.000000      6.163940000000000E-01      1.228809000000000E+01      4.987335000000000E-01     -1.125273000000000E+02
4828000000.000000      6.156311000000000E-01      1.235938000000000E+01      4.998016000000000E-01     -1.132383000000000E+02
4829000000.000000      6.162720000000000E-01      1.273438000000000E+01      5.008240000000000E-01     -1.139570000000000E+02
4830000000.000000      6.152344000000000E-01      1.260791000000000E+01      5.000000000000000E-01     -1.149062000000000E+02
4831000000.000000      6.141968000000000E-01      1.280713000000000E+01      5.002136000000000E-01     -1.156211000000000E+02
4832000000.000000      6.124573000000000E-01      1.294189000000000E+01      5.003662000000000E-01     -1.162031000000000E+02
4833000000.000000      6.125183000000000E-01      1.292236000000000E+01      4.993134000000000E-01     -1.168281000000000E+02
4834000000.000000      6.130371000000000E-01      1.310498000000000E+01      5.009155000000000E-01     -1.177500000000000E+02
4835000000.000000      6.141052000000000E-01      1.309814000000000E+01      5.000916000000000E-01     -1.187148000000000E+02
4836000000.000000      6.145020000000000E-01      1.344434000000000E+01      4.980011000000000E-01     -1.193281000000000E+02
4837000000.000000      6.130371000000000E-01      1.347998000000000E+01      4.979553000000000E-01     -1.204023000000000E+02
4838000000.000000      6.124268000000000E-01      1.353760000000000E+01      4.979401000000000E-01     -1.206914000000000E+02
4839000000.000000      6.163330000000000E-01      1.376172000000000E+01      4.987946000000000E-01     -1.216172000000000E+02
4840000000.000000      6.139221000000000E-01      1.380566000000000E+01      4.982452000000000E-01     -1.225312000000000E+02
4841000000.000000      6.145935000000000E-01      1.409229000000000E+01      4.968262000000000E-01     -1.233008000000000E+02
4842000000.000000      6.164856000000000E-01      1.400195000000000E+01      4.971924000000000E-01     -1.239492000000000E+02
4843000000.000000      6.190186000000000E-01      1.405811000000000E+01      4.960175000000000E-01     -1.251641000000000E+02
4844000000.000000      6.170349000000000E-01      1.419678000000000E+01      4.942474000000000E-01     -1.257227000000000E+02
4845000000.000000      6.172791000000000E-01      1.427783000000000E+01      4.951324000000000E-01     -1.266758000000000E+02
4846000000.000000      6.182861000000000E-01      1.430664000000000E+01      4.919434000000000E-01     -1.274726000000000E+02
4847000000.000000      6.193542000000000E-01      1.462549000000000E+01      4.920197000000000E-01     -1.281953000000000E+02
4848000000.000000      6.188965000000000E-01      1.470752000000000E+01      4.885712000000000E-01     -1.289063000000000E+02
4849000000.000000      6.200256000000000E-01      1.458545000000000E+01      4.884949000000000E-01     -1.299141000000000E+02
4850000000.000000      6.206665000000000E-01      1.467871000000000E+01      4.878387000000000E-01     -1.306875000000000E+02
4851000000.000000      6.229248000000000E-01      1.477930000000000E+01      4.854431000000000E-01     -1.315703000000000E+02
4852000000.000000      6.245117000000000E-01      1.483008000000000E+01      4.838867000000000E-01     -1.325078000000000E+02
4853000000.000000      6.246643000000000E-01      1.486719000000000E+01      4.814606000000000E-01     -1.333359000000000E+02
4854000000.000000      6.242065000000000E-01      1.497705000000000E+01      4.791718000000000E-01     -1.342813000000000E+02
4855000000.000000      6.263428000000000E-01      1.487402000000000E+01      4.772797000000000E-01     -1.351875000000000E+02
4856000000.000000      6.261902000000000E-01      1.506201000000000E+01      4.750214000000000E-01     -1.358906000000000E+02
4857000000.000000      6.275940000000000E-01      1.484521000000000E+01      4.737549000000000E-01     -1.368125000000000E+02
4858000000.000000      6.293945000000000E-01      1.507422000000000E+01      4.699554000000000E-01     -1.376250000000000E+02
4859000000.000000      6.295471000000000E-01      1.507861000000000E+01      4.674530000000000E-01     -1.385625000000000E+02
4860000000.000000      6.316833000000000E-01      1.524170000000000E+01      4.647217000000000E-01     -1.393437000000000E+02
4861000000.000000      6.338501000000000E-01      1.506055000000000E+01      4.604034000000000E-01     -1.401250000000000E+02
4862000000.000000      6.338501000000000E-01      1.513623000000000E+01      4.597626000000000E-01     -1.408906000000000E+02
4863000000.000000      6.348572000000000E-01      1.520605000000000E+01      4.547119000000000E-01     -1.419922000000000E+02
4864000000.000000      6.380005000000000E-01      1.503027000000000E+01      4.528503000000000E-01     -1.426563000000000E+02
4865000000.000000      6.370544000000000E-01      1.516211000000000E+01      4.469147000000000E-01     -1.435781000000000E+02
4866000000.000000      6.380005000000000E-01      1.499072000000000E+01      4.431915000000000E-01     -1.444219000000000E+02
4867000000.000000      6.369324000000000E-01      1.504297000000000E+01      4.391327000000000E-01     -1.451797000000000E+02
4868000000.000000      6.421204000000000E-01      1.513623000000000E+01      4.360352000000000E-01     -1.460156000000000E+02
4869000000.000000      6.423645000000000E-01      1.502344000000000E+01      4.323273000000000E-01     -1.467578000000000E+02
4870000000.000000      6.443787000000000E-01      1.506055000000000E+01      4.281921000000000E-01     -1.473672000000000E+02
4871000000.000000      6.437073000000000E-01      1.492725000000000E+01      4.239960000000000E-01     -1.481562000000000E+02
4872000000.000000      6.472778000000000E-01      1.494238000000000E+01      4.192352000000000E-01     -1.488125000000000E+02
4873000000.000000      6.491089000000000E-01      1.500146000000000E+01      4.154816000000000E-01     -1.495547000000000E+02
4874000000.000000      6.495667000000000E-01      1.494678000000000E+01      4.103851000000000E-01     -1.503359000000000E+02
4875000000.000000      6.514282000000000E-01      1.480225000000000E+01      4.059753000000000E-01     -1.507969000000000E+02
4876000000.000000      6.510315000000000E-01      1.488623000000000E+01      4.031525000000000E-01     -1.514609000000000E+02
4877000000.000000      6.521912000000000E-01      1.476270000000000E+01      3.993835000000000E-01     -1.522656000000000E+02
4878000000.000000      6.556702000000000E-01      1.468555000000000E+01      3.934174000000000E-01     -1.527812000000000E+02
4879000000.000000      6.568298000000000E-01      1.467773000000000E+01      3.888092000000000E-01     -1.535156000000000E+02
4880000000.000000      6.581421000000000E-01      1.464063000000000E+01      3.849487000000000E-01     -1.541484000000000E+02
4881000000.000000      6.574707000000000E-01      1.466260000000000E+01      3.813934000000000E-01     -1.544922000000000E+02
4882000000.000000      6.592712000000000E-01      1.472412000000000E+01      3.769226000000000E-01     -1.552578000000000E+02
4883000000.000000      6.592102000000000E-01      1.447266000000000E+01      3.708191000000000E-01     -1.557969000000000E+02
4884000000.000000      6.617737000000000E-01      1.451660000000000E+01      3.668213000000000E-01     -1.562109000000000E+02
4885000000.000000      6.637573000000000E-01      1.434229000000000E+01      3.623657000000000E-01     -1.565391000000000E+02
4886000000.000000      6.647339000000000E-01      1.431201000000000E+01      3.596191000000000E-01     -1.570234000000000E+02
4887000000.000000      6.647644000000000E-01      1.427637000000000E+01      3.555603000000000E-01     -1.575078000000000E+02
4888000000.000000      6.672668000000000E-01      1.405811000000000E+01      3.507690000000000E-01     -1.583984000000000E+02
4889000000.000000      6.669617000000000E-01      1.415576000000000E+01      3.457184000000000E-01     -1.586406000000000E+02
4890000000.000000      6.665955000000000E-01      1.396875000000000E+01      3.413544000000000E-01     -1.593047000000000E+02
4891000000.000000      6.698303000000000E-01      1.390869000000000E+01      3.372192000000000E-01     -1.598359000000000E+02
4892000000.000000      6.702576000000000E-01      1.373145000000000E+01      3.315582000000000E-01     -1.599922000000000E+02
4893000000.000000      6.717529000000000E-01      1.366699000000000E+01      3.295593000000000E-01     -1.605078000000000E+02
4894000000.000000      6.722107000000000E-01      1.358154000000000E+01      3.237610000000000E-01     -1.607891000000000E+02
4895000000.000000      6.720886000000000E-01      1.358447000000000E+01      3.212433000000000E-01     -1.612031000000000E+02
4896000000.000000      6.729431000000000E-01      1.333740000000000E+01      3.174133000000000E-01     -1.616250000000000E+02
4897000000.000000      6.766052000000000E-01      1.326563000000000E+01      3.134155000000000E-01     -1.619688000000000E+02
4898000000.000000      6.760254000000000E-01      1.328076000000000E+01      3.104095000000000E-01     -1.622187000000000E+02
4899000000.000000      6.764526000000000E-01      1.311768000000000E+01      3.061218000000000E-01     -1.626719000000000E+02
4900000000.000000      6.779785000000000E-01      1.314648000000000E+01      3.021240000000000E-01     -1.630156000000000E+02
4901000000.000000      6.777039000000000E-01      1.290723000000000E+01      2.989349000000000E-01     -1.633359000000000E+02
4902000000.000000      6.802063000000000E-01      1.286182000000000E+01      2.954865000000000E-01     -1.635859000000000E+02
4903000000.000000      6.786804000000000E-01      1.265869000000000E+01      2.908325000000000E-01     -1.639375000000000E+02
4904000000.000000      6.805420000000000E-01      1.253125000000000E+01      2.879639000000000E-01     -1.644375000000000E+02
4905000000.000000      6.804810000000000E-01      1.265332000000000E+01      2.850037000000000E-01     -1.647422000000000E+02
4906000000.000000      6.829834000000000E-01      1.244727000000000E+01      2.810822000000000E-01     -1.647344000000000E+02
4907000000.000000      6.828918000000000E-01      1.243066000000000E+01      2.778625000000000E-01     -1.653750000000000E+02
4908000000.000000      6.863098000000000E-01      1.218506000000000E+01      2.745667000000000E-01     -1.657422000000000E+02
4909000000.000000      6.849670000000000E-01      1.223047000000000E+01      2.705383000000000E-01     -1.659453000000000E+02
4910000000.000000      6.846313000000000E-01      1.206689000000000E+01      2.670898000000000E-01     -1.663281000000000E+02
4911000000.000000      6.857910000000000E-01      1.200098000000000E+01      2.641449000000000E-01     -1.665000000000000E+02
4912000000.000000      6.864624000000000E-01      1.174023000000000E+01      2.597961000000000E-01     -1.669219000000000E+02
4913000000.000000      6.874084000000000E-01      1.169727000000000E+01      2.565155000000000E-01     -1.673359000000000E+02
4914000000.000000      6.871033000000000E-01      1.172510000000000E+01      2.536621000000000E-01     -1.673984000000000E+02
4915000000.000000      6.878052000000000E-01      1.160010000000000E+01      2.499313000000000E-01     -1.678750000000000E+02
4916000000.000000      6.892395000000000E-01      1.141162000000000E+01      2.458038000000000E-01     -1.683125000000000E+02
4917000000.000000      6.883850000000000E-01      1.154102000000000E+01      2.422791000000000E-01     -1.683125000000000E+02
4918000000.000000      6.912537000000000E-01      1.132129000000000E+01      2.383423000000000E-01     -1.687266000000000E+02
4919000000.000000      6.882019000000000E-01      1.148193000000000E+01      2.356033000000000E-01     -1.687187000000000E+02
4920000000.000000      6.899719000000000E-01      1.111523000000000E+01      2.315750000000000E-01     -1.693125000000000E+02
4921000000.000000      6.898193000000000E-01      1.106592000000000E+01      2.286606000000000E-01     -1.695156000000000E+02
4922000000.000000      6.921997000000000E-01      1.094336000000000E+01      2.238541000000000E-01     -1.694375000000000E+02
4923000000.000000      6.931763000000000E-01      1.089697000000000E+01      2.202377000000000E-01     -1.695703000000000E+02
4924000000.000000      6.933899000000000E-01      1.075684000000000E+01      2.165222000000000E-01     -1.700625000000000E+02
4925000000.000000      6.932373000000000E-01      1.057959000000000E+01      2.126465000000000E-01     -1.703047000000000E+02
4926000000.000000      6.943970000000000E-01      1.044092000000000E+01      2.092056000000000E-01     -1.704531000000000E+02
4927000000.000000      6.938477000000000E-01      1.033398000000000E+01      2.051315000000000E-01     -1.704609000000000E+02
4928000000.000000      6.957092000000000E-01      1.037207000000000E+01      2.010803000000000E-01     -1.704844000000000E+02
4929000000.000000      6.952820000000000E-01      1.021582000000000E+01      1.974487000000000E-01     -1.707813000000000E+02
4930000000.000000      6.963501000000000E-01      1.006201000000000E+01      1.941833000000000E-01     -1.706875000000000E+02
4931000000.000000      6.971436000000000E-01      9.905273000000000E+00      1.904678000000000E-01     -1.708125000000000E+02
4932000000.000000      6.963806000000000E-01      9.969727000000000E+00      1.866379000000000E-01     -1.708125000000000E+02
4933000000.000000      6.969299000000000E-01      9.600586000000000E+00      1.818237000000000E-01     -1.704375000000000E+02
4934000000.000000      7.003174000000000E-01      9.634766000000000E+00      1.791992000000000E-01     -1.707500000000000E+02
4935000000.000000      7.001343000000000E-01      9.540039000000000E+00      1.756134000000000E-01     -1.702422000000000E+02
4936000000.000000      6.980286000000000E-01      9.292969000000000E+00      1.713562000000000E-01     -1.703125000000000E+02
4937000000.000000      6.991272000000000E-01      9.412109000000000E+00      1.676788000000000E-01     -1.704219000000000E+02
4938000000.000000      7.007141000000000E-01      9.335449000000000E+00      1.637802000000000E-01     -1.697578000000000E+02
4939000000.000000      6.995239000000000E-01      9.418945000000000E+00      1.603546000000000E-01     -1.694687000000000E+02
4940000000.000000      6.997375000000000E-01      9.224121000000000E+00      1.563416000000000E-01     -1.694609000000000E+02
4941000000.000000      7.026672000000000E-01      9.009766000000000E+00      1.529160000000000E-01     -1.687187000000000E+02
4942000000.000000      6.999207000000000E-01      9.030762000000000E+00      1.495056000000000E-01     -1.685078000000000E+02
4943000000.000000      7.019348000000000E-01      8.889160000000000E+00      1.460724000000000E-01     -1.678672000000000E+02
4944000000.000000      7.025452000000000E-01      8.648926000000000E+00      1.424484000000000E-01     -1.675234000000000E+02
4945000000.000000      7.019348000000000E-01      8.633789000000000E+00      1.388245000000000E-01     -1.667187000000000E+02
4946000000.000000      7.025757000000000E-01      8.610352000000000E+00      1.362534000000000E-01     -1.657656000000000E+02
4947000000.000000      7.028198000000000E-01      8.405762000000000E+00      1.326904000000000E-01     -1.650156000000000E+02
4948000000.000000      7.050781000000000E-01      8.353516000000000E+00      1.299362000000000E-01     -1.641484000000000E+02
4949000000.000000      7.046814000000000E-01      8.201172000000000E+00      1.270065000000000E-01     -1.630156000000000E+02
4950000000.000000      7.053223000000000E-01      8.305664000000000E+00      1.239586000000000E-01     -1.621484000000000E+02
4951000000.000000      7.050781000000000E-01      8.139160000000000E+00      1.217422000000000E-01     -1.610234000000000E+02
4952000000.000000      7.048645000000000E-01      7.908691000000000E+00      1.186256000000000E-01     -1.595859000000000E+02
4953000000.000000      7.048035000000000E-01      7.901855000000000E+00      1.164474000000000E-01     -1.584531000000000E+02
4954000000.000000      7.064209000000000E-01      7.698486000000000E+00      1.144142000000000E-01     -1.567500000000000E+02
