! Network Analyzer HP8722D
! Hewlett-Packard
! Data name: Linha & Wilkinson
! Saver's name: Rodrigo Anjos
! Comments: Teste da utilização de aquisição
continua pelo VNA HP8722D
! Time and date: 22/5/2025 14:09
!              Frequency                     S11                                                   S21                                                   S12                                                   S22
# HZ  S  MA R 50
4800000000.000000      6.537476000000000E-01      1.079932000000000E+01      4.695892000000000E-01     -9.214844000000000E+01
4801000000.000000      6.493530000000000E-01      1.092432000000000E+01      4.702148000000000E-01     -9.270702000000000E+01
4802000000.000000      6.492615000000000E-01      1.094092000000000E+01      4.739380000000000E-01     -9.352343000000000E+01
4803000000.000000      6.485596000000000E-01      1.083936000000000E+01      4.774780000000000E-01     -9.426952000000000E+01
4804000000.000000      6.455078000000000E-01      1.085840000000000E+01      4.791718000000000E-01     -9.512890000000000E+01
4805000000.000000      6.454773000000000E-01      1.079248000000000E+01      4.805298000000000E-01     -9.590235000000000E+01
4806000000.000000      6.413574000000000E-01      1.089014000000000E+01      4.820862000000000E-01     -9.645311000000000E+01
4807000000.000000      6.393738000000000E-01      1.079541000000000E+01      4.835052000000000E-01     -9.737108000000000E+01
4808000000.000000      6.376953000000000E-01      1.089014000000000E+01      4.848328000000000E-01     -9.812889000000000E+01
4809000000.000000      6.378784000000000E-01      1.099023000000000E+01      4.879913000000000E-01     -9.883984000000000E+01
4810000000.000000      6.353149000000000E-01      1.096289000000000E+01      4.871216000000000E-01     -9.948828000000000E+01
4811000000.000000      6.342163000000000E-01      1.111084000000000E+01      4.893188000000000E-01     -1.004180000000000E+02
4812000000.000000      6.345520000000000E-01      1.118945000000000E+01      4.904022000000000E-01     -1.011719000000000E+02
4813000000.000000      6.323853000000000E-01      1.109180000000000E+01      4.902649000000000E-01     -1.019883000000000E+02
4814000000.000000      6.295471000000000E-01      1.103809000000000E+01      4.926147000000000E-01     -1.025898000000000E+02
4815000000.000000      6.282654000000000E-01      1.127588000000000E+01      4.922485000000000E-01     -1.033008000000000E+02
4816000000.000000      6.273499000000000E-01      1.126465000000000E+01      4.942169000000000E-01     -1.041406000000000E+02
4817000000.000000      6.263733000000000E-01      1.143115000000000E+01      4.945526000000000E-01     -1.049648000000000E+02
4818000000.000000      6.250305000000000E-01      1.125000000000000E+01      4.932251000000000E-01     -1.056914000000000E+02
4819000000.000000      6.241150000000000E-01      1.134180000000000E+01      4.962311000000000E-01     -1.063398000000000E+02
4820000000.000000      6.211853000000000E-01      1.145850000000000E+01      4.963226000000000E-01     -1.069883000000000E+02
4821000000.000000      6.229248000000000E-01      1.172900000000000E+01      4.975891000000000E-01     -1.079492000000000E+02
4822000000.000000      6.195374000000000E-01      1.167432000000000E+01      4.956970000000000E-01     -1.085469000000000E+02
4823000000.000000      6.199646000000000E-01      1.187061000000000E+01      4.979553000000000E-01     -1.093516000000000E+02
4824000000.000000      6.167908000000000E-01      1.205859000000000E+01      4.978790000000000E-01     -1.101797000000000E+02
4825000000.000000      6.176758000000000E-01      1.201904000000000E+01      4.984283000000000E-01     -1.108516000000000E+02
4826000000.000000      6.174011000000000E-01      1.198584000000000E+01      4.996033000000000E-01     -1.118711000000000E+02
4827000000.000000      6.162415000000000E-01      1.232227000000000E+01      4.989929000000000E-01     -1.122773000000000E+02
4828000000.000000      6.162415000000000E-01      1.215186000000000E+01      4.995728000000000E-01     -1.131445000000000E+02
4829000000.000000      6.148682000000000E-01      1.246631000000000E+01      4.999084000000000E-01     -1.138633000000000E+02
4830000000.000000      6.153564000000000E-01      1.252686000000000E+01      4.975281000000000E-01     -1.144023000000000E+02
4831000000.000000      6.154480000000000E-01      1.264111000000000E+01      4.990692000000000E-01     -1.154805000000000E+02
4832000000.000000      6.128235000000000E-01      1.298828000000000E+01      4.988556000000000E-01     -1.161445000000000E+02
4833000000.000000      6.130676000000000E-01      1.286328000000000E+01      4.996796000000000E-01     -1.169258000000000E+02
4834000000.000000      6.113892000000000E-01      1.315576000000000E+01      5.001831000000000E-01     -1.176875000000000E+02
4835000000.000000      6.127319000000000E-01      1.319971000000000E+01      4.989929000000000E-01     -1.184922000000000E+02
4836000000.000000      6.150208000000000E-01      1.330127000000000E+01      4.987183000000000E-01     -1.192539000000000E+02
4837000000.000000      6.124878000000000E-01      1.329883000000000E+01      4.978943000000000E-01     -1.202422000000000E+02
4838000000.000000      6.118164000000000E-01      1.346484000000000E+01      4.968262000000000E-01     -1.206562000000000E+02
4839000000.000000      6.143188000000000E-01      1.377686000000000E+01      4.990540000000000E-01     -1.215977000000000E+02
4840000000.000000      6.160889000000000E-01      1.357471000000000E+01      5.000610000000000E-01     -1.223320000000000E+02
4841000000.000000      6.155396000000000E-01      1.379297000000000E+01      4.974670000000000E-01     -1.231953000000000E+02
4842000000.000000      6.152649000000000E-01      1.384814000000000E+01      4.969940000000000E-01     -1.239336000000000E+02
4843000000.000000      6.180115000000000E-01      1.388232000000000E+01      4.976196000000000E-01     -1.248555000000000E+02
4844000000.000000      6.184387000000000E-01      1.401563000000000E+01      4.945831000000000E-01     -1.258516000000000E+02
4845000000.000000      6.177673000000000E-01      1.430127000000000E+01      4.941254000000000E-01     -1.265000000000000E+02
4846000000.000000      6.199341000000000E-01      1.415723000000000E+01      4.927368000000000E-01     -1.272773000000000E+02
4847000000.000000      6.224365000000000E-01      1.425293000000000E+01      4.917297000000000E-01     -1.280313000000000E+02
4848000000.000000      6.199646000000000E-01      1.455273000000000E+01      4.899750000000000E-01     -1.289922000000000E+02
4849000000.000000      6.198425000000000E-01      1.452637000000000E+01      4.895935000000000E-01     -1.297578000000000E+02
4850000000.000000      6.192322000000000E-01      1.451660000000000E+01      4.871368000000000E-01     -1.307031000000000E+02
4851000000.000000      6.226196000000000E-01      1.469141000000000E+01      4.874268000000000E-01     -1.315547000000000E+02
4852000000.000000      6.239319000000000E-01      1.458252000000000E+01      4.856415000000000E-01     -1.322578000000000E+02
4853000000.000000      6.247253000000000E-01      1.483545000000000E+01      4.807587000000000E-01     -1.331953000000000E+02
4854000000.000000      6.247864000000000E-01      1.494385000000000E+01      4.796753000000000E-01     -1.341875000000000E+02
4855000000.000000      6.257629000000000E-01      1.484229000000000E+01      4.780731000000000E-01     -1.350156000000000E+02
4856000000.000000      6.273804000000000E-01      1.485059000000000E+01      4.757538000000000E-01     -1.358047000000000E+02
4857000000.000000      6.294556000000000E-01      1.489746000000000E+01      4.744568000000000E-01     -1.365859000000000E+02
4858000000.000000      6.280212000000000E-01      1.485742000000000E+01      4.704285000000000E-01     -1.373594000000000E+02
4859000000.000000      6.308594000000000E-01      1.498096000000000E+01      4.673004000000000E-01     -1.385000000000000E+02
4860000000.000000      6.315918000000000E-01      1.501807000000000E+01      4.654388000000000E-01     -1.391562000000000E+02
4861000000.000000      6.326599000000000E-01      1.510059000000000E+01      4.611969000000000E-01     -1.402891000000000E+02
4862000000.000000      6.319275000000000E-01      1.503857000000000E+01      4.586945000000000E-01     -1.408281000000000E+02
4863000000.000000      6.366272000000000E-01      1.503174000000000E+01      4.550171000000000E-01     -1.416875000000000E+02
4864000000.000000      6.358032000000000E-01      1.492480000000000E+01      4.518127000000000E-01     -1.424141000000000E+02
4865000000.000000      6.370239000000000E-01      1.508252000000000E+01      4.483948000000000E-01     -1.431719000000000E+02
4866000000.000000      6.381531000000000E-01      1.493994000000000E+01      4.441528000000000E-01     -1.442266000000000E+02
4867000000.000000      6.388550000000000E-01      1.497412000000000E+01      4.410706000000000E-01     -1.448828000000000E+02
4868000000.000000      6.416626000000000E-01      1.485742000000000E+01      4.365082000000000E-01     -1.458906000000000E+02
4869000000.000000      6.420288000000000E-01      1.494238000000000E+01      4.340057000000000E-01     -1.465000000000000E+02
4870000000.000000      6.428833000000000E-01      1.485742000000000E+01      4.290314000000000E-01     -1.471250000000000E+02
4871000000.000000      6.461792000000000E-01      1.499072000000000E+01      4.244080000000000E-01     -1.481328000000000E+02
4872000000.000000      6.468506000000000E-01      1.493164000000000E+01      4.205017000000000E-01     -1.486094000000000E+02
4873000000.000000      6.479492000000000E-01      1.493994000000000E+01      4.161072000000000E-01     -1.494766000000000E+02
4874000000.000000      6.490173000000000E-01      1.475977000000000E+01      4.115753000000000E-01     -1.502344000000000E+02
4875000000.000000      6.512146000000000E-01      1.479297000000000E+01      4.066010000000000E-01     -1.508359000000000E+02
4876000000.000000      6.518250000000000E-01      1.483154000000000E+01      4.031677000000000E-01     -1.514844000000000E+02
4877000000.000000      6.532898000000000E-01      1.448535000000000E+01      3.989258000000000E-01     -1.520000000000000E+02
4878000000.000000      6.542969000000000E-01      1.457568000000000E+01      3.948212000000000E-01     -1.525781000000000E+02
4879000000.000000      6.560364000000000E-01      1.481494000000000E+01      3.890839000000000E-01     -1.532344000000000E+02
4880000000.000000      6.558228000000000E-01      1.458154000000000E+01      3.847046000000000E-01     -1.539687000000000E+02
4881000000.000000      6.565552000000000E-01      1.447168000000000E+01      3.807678000000000E-01     -1.544765000000000E+02
4882000000.000000      6.593628000000000E-01      1.444141000000000E+01      3.770599000000000E-01     -1.552578000000000E+02
4883000000.000000      6.592712000000000E-01      1.437549000000000E+01      3.717651000000000E-01     -1.559141000000000E+02
4884000000.000000      6.614990000000000E-01      1.448926000000000E+01      3.686829000000000E-01     -1.563203000000000E+02
4885000000.000000      6.626282000000000E-01      1.440137000000000E+01      3.646393000000000E-01     -1.566094000000000E+02
4886000000.000000      6.643372000000000E-01      1.439453000000000E+01      3.598938000000000E-01     -1.571016000000000E+02
4887000000.000000      6.641846000000000E-01      1.411035000000000E+01      3.544617000000000E-01     -1.573984000000000E+02
4888000000.000000      6.659851000000000E-01      1.413232000000000E+01      3.511963000000000E-01     -1.584141000000000E+02
4889000000.000000      6.659851000000000E-01      1.414746000000000E+01      3.464508000000000E-01     -1.584063000000000E+02
4890000000.000000      6.658936000000000E-01      1.397021000000000E+01      3.417206000000000E-01     -1.593359000000000E+02
4891000000.000000      6.697693000000000E-01      1.381250000000000E+01      3.373871000000000E-01     -1.595547000000000E+02
4892000000.000000      6.694336000000000E-01      1.371191000000000E+01      3.342133000000000E-01     -1.599531000000000E+02
4893000000.000000      6.711731000000000E-01      1.365576000000000E+01      3.300476000000000E-01     -1.603828000000000E+02
4894000000.000000      6.706848000000000E-01      1.356250000000000E+01      3.258972000000000E-01     -1.607578000000000E+02
4895000000.000000      6.741638000000000E-01      1.334668000000000E+01      3.227539000000000E-01     -1.612813000000000E+02
4896000000.000000      6.747131000000000E-01      1.336621000000000E+01      3.187561000000000E-01     -1.612890000000000E+02
4897000000.000000      6.759644000000000E-01      1.342773000000000E+01      3.143005000000000E-01     -1.619297000000000E+02
4898000000.000000      6.764526000000000E-01      1.326709000000000E+01      3.113403000000000E-01     -1.622500000000000E+02
4899000000.000000      6.762695000000000E-01      1.318750000000000E+01      3.067017000000000E-01     -1.627578000000000E+02
4900000000.000000      6.771851000000000E-01      1.294727000000000E+01      3.034210000000000E-01     -1.629297000000000E+02
4901000000.000000      6.827393000000000E-01      1.288672000000000E+01      2.998810000000000E-01     -1.633359000000000E+02
4902000000.000000      6.809387000000000E-01      1.279199000000000E+01      2.961121000000000E-01     -1.635156000000000E+02
4903000000.000000      6.803894000000000E-01      1.272900000000000E+01      2.916260000000000E-01     -1.639219000000000E+02
4904000000.000000      6.814575000000000E-01      1.264111000000000E+01      2.884979000000000E-01     -1.643750000000000E+02
4905000000.000000      6.835327000000000E-01      1.251025000000000E+01      2.859344000000000E-01     -1.647891000000000E+02
4906000000.000000      6.806030000000000E-01      1.248145000000000E+01      2.817841000000000E-01     -1.649297000000000E+02
4907000000.000000      6.823425000000000E-01      1.231250000000000E+01      2.791748000000000E-01     -1.654375000000000E+02
4908000000.000000      6.851196000000000E-01      1.224561000000000E+01      2.758026000000000E-01     -1.657031000000000E+02
4909000000.000000      6.835022000000000E-01      1.212891000000000E+01      2.712860000000000E-01     -1.660938000000000E+02
4910000000.000000      6.857605000000000E-01      1.204883000000000E+01      2.681885000000000E-01     -1.662969000000000E+02
4911000000.000000      6.872253000000000E-01      1.188428000000000E+01      2.651672000000000E-01     -1.665156000000000E+02
4912000000.000000      6.855774000000000E-01      1.182520000000000E+01      2.611542000000000E-01     -1.669765000000000E+02
4913000000.000000      6.873779000000000E-01      1.182520000000000E+01      2.580566000000000E-01     -1.672344000000000E+02
4914000000.000000      6.882629000000000E-01      1.159717000000000E+01      2.539978000000000E-01     -1.674922000000000E+02
4915000000.000000      6.892395000000000E-01      1.144629000000000E+01      2.501984000000000E-01     -1.680000000000000E+02
4916000000.000000      6.891479000000000E-01      1.139551000000000E+01      2.467957000000000E-01     -1.683906000000000E+02
4917000000.000000      6.893616000000000E-01      1.137451000000000E+01      2.435379000000000E-01     -1.683672000000000E+02
4918000000.000000      6.913147000000000E-01      1.131982000000000E+01      2.395782000000000E-01     -1.688672000000000E+02
4919000000.000000      6.885681000000000E-01      1.105469000000000E+01      2.365799000000000E-01     -1.688437000000000E+02
4920000000.000000      6.921387000000000E-01      1.107129000000000E+01      2.317810000000000E-01     -1.693203000000000E+02
4921000000.000000      6.912842000000000E-01      1.098633000000000E+01      2.288971000000000E-01     -1.695234000000000E+02
4922000000.000000      6.912842000000000E-01      1.087500000000000E+01      2.247238000000000E-01     -1.696094000000000E+02
4923000000.000000      6.904907000000000E-01      1.089258000000000E+01      2.211304000000000E-01     -1.697813000000000E+02
4924000000.000000      6.913757000000000E-01      1.061670000000000E+01      2.171707000000000E-01     -1.700859000000000E+02
4925000000.000000      6.912537000000000E-01      1.057666000000000E+01      2.135086000000000E-01     -1.702656000000000E+02
4926000000.000000      6.934204000000000E-01      1.044385000000000E+01      2.102051000000000E-01     -1.704141000000000E+02
4927000000.000000      6.943665000000000E-01      1.032568000000000E+01      2.060547000000000E-01     -1.707422000000000E+02
4928000000.000000      6.962891000000000E-01      1.014404000000000E+01      2.026291000000000E-01     -1.708047000000000E+02
4929000000.000000      6.949463000000000E-01      1.020752000000000E+01      1.984253000000000E-01     -1.707422000000000E+02
4930000000.000000      6.952209000000000E-01      1.001660000000000E+01      1.947861000000000E-01     -1.709375000000000E+02
4931000000.000000      6.943054000000000E-01      1.002734000000000E+01      1.917953000000000E-01     -1.709844000000000E+02
4932000000.000000      6.962280000000000E-01      9.862793000000000E+00      1.876221000000000E-01     -1.709219000000000E+02
4933000000.000000      6.958313000000000E-01      9.799805000000000E+00      1.830292000000000E-01     -1.706250000000000E+02
4934000000.000000      6.976929000000000E-01      9.556641000000000E+00      1.796646000000000E-01     -1.708906000000000E+02
4935000000.000000      7.008667000000000E-01      9.575684000000000E+00      1.762695000000000E-01     -1.705391000000000E+02
4936000000.000000      6.979980000000000E-01      9.409668000000000E+00      1.722794000000000E-01     -1.704141000000000E+02
4937000000.000000      7.001648000000000E-01      9.458984000000000E+00      1.685715000000000E-01     -1.704453000000000E+02
4938000000.000000      6.973267000000000E-01      9.332520000000000E+00      1.649551000000000E-01     -1.700312000000000E+02
4939000000.000000      7.002258000000000E-01      9.342285000000000E+00      1.612091000000000E-01     -1.698516000000000E+02
4940000000.000000      6.997986000000000E-01      8.875488000000000E+00      1.572418000000000E-01     -1.696016000000000E+02
4941000000.000000      7.006226000000000E-01      9.002930000000000E+00      1.534805000000000E-01     -1.689531000000000E+02
4942000000.000000      7.004700000000000E-01      8.933105000000000E+00      1.500015000000000E-01     -1.686719000000000E+02
4943000000.000000      7.018127000000000E-01      8.990723000000000E+00      1.469727000000000E-01     -1.681719000000000E+02
4944000000.000000      7.020569000000000E-01      8.780762000000000E+00      1.433716000000000E-01     -1.677031000000000E+02
4945000000.000000      7.032166000000000E-01      8.655762000000000E+00      1.396713000000000E-01     -1.670078000000000E+02
4946000000.000000      7.034302000000000E-01      8.539063000000000E+00      1.368256000000000E-01     -1.662109000000000E+02
4947000000.000000      7.051086000000000E-01      8.423340000000000E+00      1.335983000000000E-01     -1.654609000000000E+02
4948000000.000000      7.032471000000000E-01      8.328613000000000E+00      1.306381000000000E-01     -1.645391000000000E+02
4949000000.000000      7.035217000000000E-01      8.184570000000000E+00      1.278992000000000E-01     -1.634140000000000E+02
4950000000.000000      7.075806000000000E-01      8.306641000000000E+00      1.245461000000000E-01     -1.624063000000000E+02
4951000000.000000      7.065735000000000E-01      8.118652000000000E+00      1.220284000000000E-01     -1.614922000000000E+02
4952000000.000000      7.053223000000000E-01      7.849609000000000E+00      1.189041000000000E-01     -1.602578000000000E+02
4953000000.000000      7.057800000000000E-01      7.860596000000000E+00      1.169090000000000E-01     -1.587656000000000E+02
4954000000.000000      7.066040000000000E-01      7.771240000000000E+00      1.147575000000000E-01     -1.575469000000000E+02
