! Network Analyzer HP8722D
! Hewlett-Packard
! Data name: Linha & Wilkinson
! Saver's name: Rodrigo Anjos
! Comments: Teste da utilização de aquisição
continua pelo VNA HP8722D
! Time and date: 22/5/2025 16:39
!              Frequency                     S11                                                   S21                                                   S12                                                   S22
# HZ  S  MA R 50
4800000000.000000      6.509705000000000E-01      1.100684000000000E+01      4.717255000000000E-01     -9.274609000000000E+01
4801000000.000000      6.476746000000000E-01      1.088867000000000E+01      4.738464000000000E-01     -9.322266000000000E+01
4802000000.000000      6.483154000000000E-01      1.092041000000000E+01      4.740295000000000E-01     -9.388672000000000E+01
4803000000.000000      6.455688000000000E-01      1.091211000000000E+01      4.785156000000000E-01     -9.449610000000000E+01
4804000000.000000      6.442261000000000E-01      1.088037000000000E+01      4.803619000000000E-01     -9.535547000000000E+01
4805000000.000000      6.433411000000000E-01      1.083643000000000E+01      4.820862000000000E-01     -9.619530000000000E+01
4806000000.000000      6.405029000000000E-01      1.082666000000000E+01      4.815674000000000E-01     -9.720312000000000E+01
4807000000.000000      6.385498000000000E-01      1.087744000000000E+01      4.848175000000000E-01     -9.793749000000000E+01
4808000000.000000      6.368713000000000E-01      1.080615000000000E+01      4.850616000000000E-01     -9.846483000000000E+01
4809000000.000000      6.349487000000000E-01      1.120166000000000E+01      4.854584000000000E-01     -9.941015000000000E+01
4810000000.000000      6.347656000000000E-01      1.101074000000000E+01      4.886017000000000E-01     -9.990623000000000E+01
4811000000.000000      6.341553000000000E-01      1.118115000000000E+01      4.898987000000000E-01     -1.008125000000000E+02
4812000000.000000      6.331787000000000E-01      1.128662000000000E+01      4.900818000000000E-01     -1.017070000000000E+02
4813000000.000000      6.312866000000000E-01      1.124170000000000E+01      4.907837000000000E-01     -1.023516000000000E+02
4814000000.000000      6.274109000000000E-01      1.129102000000000E+01      4.922943000000000E-01     -1.029766000000000E+02
4815000000.000000      6.267700000000000E-01      1.130859000000000E+01      4.940948000000000E-01     -1.039687000000000E+02
4816000000.000000      6.264648000000000E-01      1.144629000000000E+01      4.940186000000000E-01     -1.046797000000000E+02
4817000000.000000      6.259766000000000E-01      1.148438000000000E+01      4.942932000000000E-01     -1.052851000000000E+02
4818000000.000000      6.213989000000000E-01      1.147217000000000E+01      4.946899000000000E-01     -1.062070000000000E+02
4819000000.000000      6.241150000000000E-01      1.159326000000000E+01      4.955292000000000E-01     -1.068125000000000E+02
4820000000.000000      6.203918000000000E-01      1.177148000000000E+01      4.966888000000000E-01     -1.073906000000000E+02
4821000000.000000      6.210938000000000E-01      1.170166000000000E+01      4.982758000000000E-01     -1.085430000000000E+02
4822000000.000000      6.194458000000000E-01      1.168652000000000E+01      4.947205000000000E-01     -1.090000000000000E+02
4823000000.000000      6.192322000000000E-01      1.188965000000000E+01      4.986115000000000E-01     -1.099219000000000E+02
4824000000.000000      6.156921000000000E-01      1.203516000000000E+01      4.975281000000000E-01     -1.105898000000000E+02
4825000000.000000      6.161194000000000E-01      1.203955000000000E+01      4.984589000000000E-01     -1.113125000000000E+02
4826000000.000000      6.151428000000000E-01      1.217139000000000E+01      4.974365000000000E-01     -1.121641000000000E+02
4827000000.000000      6.153870000000000E-01      1.233740000000000E+01      4.973297000000000E-01     -1.128750000000000E+02
4828000000.000000      6.168213000000000E-01      1.262988000000000E+01      4.995270000000000E-01     -1.135469000000000E+02
4829000000.000000      6.161194000000000E-01      1.283057000000000E+01      5.000610000000000E-01     -1.142344000000000E+02
4830000000.000000      6.153259000000000E-01      1.273975000000000E+01      4.988861000000000E-01     -1.150820000000000E+02
4831000000.000000      6.139526000000000E-01      1.274805000000000E+01      5.000305000000000E-01     -1.160273000000000E+02
4832000000.000000      6.127014000000000E-01      1.307080000000000E+01      4.996643000000000E-01     -1.165820000000000E+02
4833000000.000000      6.129761000000000E-01      1.300879000000000E+01      4.981537000000000E-01     -1.173398000000000E+02
4834000000.000000      6.126404000000000E-01      1.319580000000000E+01      4.982910000000000E-01     -1.182461000000000E+02
4835000000.000000      6.135559000000000E-01      1.323145000000000E+01      4.987793000000000E-01     -1.190586000000000E+02
4836000000.000000      6.153870000000000E-01      1.354199000000000E+01      4.985809000000000E-01     -1.196172000000000E+02
4837000000.000000      6.133118000000000E-01      1.361719000000000E+01      4.974518000000000E-01     -1.206406000000000E+02
4838000000.000000      6.135864000000000E-01      1.362305000000000E+01      4.976654000000000E-01     -1.212695000000000E+02
4839000000.000000      6.165161000000000E-01      1.392773000000000E+01      4.971313000000000E-01     -1.219336000000000E+02
4840000000.000000      6.149292000000000E-01      1.371631000000000E+01      4.973297000000000E-01     -1.228945000000000E+02
4841000000.000000      6.157837000000000E-01      1.401563000000000E+01      4.967346000000000E-01     -1.237734000000000E+02
4842000000.000000      6.156921000000000E-01      1.398535000000000E+01      4.957123000000000E-01     -1.244765000000000E+02
4843000000.000000      6.186523000000000E-01      1.400439000000000E+01      4.954071000000000E-01     -1.253633000000000E+02
4844000000.000000      6.179504000000000E-01      1.412256000000000E+01      4.938507000000000E-01     -1.261445000000000E+02
4845000000.000000      6.173096000000000E-01      1.439746000000000E+01      4.923553000000000E-01     -1.267617000000000E+02
4846000000.000000      6.199341000000000E-01      1.440674000000000E+01      4.907837000000000E-01     -1.278359000000000E+02
4847000000.000000      6.187744000000000E-01      1.453467000000000E+01      4.900665000000000E-01     -1.286094000000000E+02
4848000000.000000      6.191406000000000E-01      1.470654000000000E+01      4.882202000000000E-01     -1.294062000000000E+02
4849000000.000000      6.211548000000000E-01      1.447852000000000E+01      4.875946000000000E-01     -1.303437000000000E+02
4850000000.000000      6.209717000000000E-01      1.474072000000000E+01      4.854126000000000E-01     -1.310703000000000E+02
4851000000.000000      6.225281000000000E-01      1.493555000000000E+01      4.845734000000000E-01     -1.318828000000000E+02
4852000000.000000      6.229553000000000E-01      1.486133000000000E+01      4.818268000000000E-01     -1.329219000000000E+02
4853000000.000000      6.236267000000000E-01      1.480518000000000E+01      4.791718000000000E-01     -1.337891000000000E+02
4854000000.000000      6.269226000000000E-01      1.489600000000000E+01      4.778595000000000E-01     -1.347188000000000E+02
4855000000.000000      6.256714000000000E-01      1.489990000000000E+01      4.753723000000000E-01     -1.355781000000000E+02
4856000000.000000      6.263733000000000E-01      1.484766000000000E+01      4.732971000000000E-01     -1.363437000000000E+02
4857000000.000000      6.292114000000000E-01      1.507031000000000E+01      4.708099000000000E-01     -1.370156000000000E+02
4858000000.000000      6.302185000000000E-01      1.497803000000000E+01      4.682007000000000E-01     -1.382109000000000E+02
4859000000.000000      6.297913000000000E-01      1.505811000000000E+01      4.651794000000000E-01     -1.390156000000000E+02
4860000000.000000      6.314087000000000E-01      1.512256000000000E+01      4.603882000000000E-01     -1.396953000000000E+02
4861000000.000000      6.330261000000000E-01      1.508545000000000E+01      4.575653000000000E-01     -1.405859000000000E+02
4862000000.000000      6.322021000000000E-01      1.510596000000000E+01      4.571686000000000E-01     -1.413672000000000E+02
4863000000.000000      6.369629000000000E-01      1.518994000000000E+01      4.515228000000000E-01     -1.422969000000000E+02
4864000000.000000      6.372375000000000E-01      1.503174000000000E+01      4.498749000000000E-01     -1.428672000000000E+02
4865000000.000000      6.386719000000000E-01      1.509619000000000E+01      4.449921000000000E-01     -1.436250000000000E+02
4866000000.000000      6.396790000000000E-01      1.501270000000000E+01      4.415283000000000E-01     -1.446484000000000E+02
4867000000.000000      6.395874000000000E-01      1.500732000000000E+01      4.373779000000000E-01     -1.454062000000000E+02
4868000000.000000      6.421204000000000E-01      1.486426000000000E+01      4.341736000000000E-01     -1.461875000000000E+02
4869000000.000000      6.417847000000000E-01      1.495361000000000E+01      4.299469000000000E-01     -1.468984000000000E+02
4870000000.000000      6.461182000000000E-01      1.518164000000000E+01      4.264069000000000E-01     -1.473984000000000E+02
4871000000.000000      6.458740000000000E-01      1.482324000000000E+01      4.219360000000000E-01     -1.485469000000000E+02
4872000000.000000      6.474304000000000E-01      1.506494000000000E+01      4.170074000000000E-01     -1.491484000000000E+02
4873000000.000000      6.476440000000000E-01      1.510303000000000E+01      4.133606000000000E-01     -1.498203000000000E+02
4874000000.000000      6.497498000000000E-01      1.491943000000000E+01      4.084473000000000E-01     -1.505938000000000E+02
4875000000.000000      6.513672000000000E-01      1.484619000000000E+01      4.047394000000000E-01     -1.511094000000000E+02
4876000000.000000      6.525269000000000E-01      1.490674000000000E+01      4.002838000000000E-01     -1.518359000000000E+02
4877000000.000000      6.533813000000000E-01      1.472168000000000E+01      3.953552000000000E-01     -1.525078000000000E+02
4878000000.000000      6.562500000000000E-01      1.477100000000000E+01      3.920593000000000E-01     -1.531797000000000E+02
4879000000.000000      6.571045000000000E-01      1.469141000000000E+01      3.861694000000000E-01     -1.536484000000000E+02
4880000000.000000      6.575012000000000E-01      1.471436000000000E+01      3.825073000000000E-01     -1.544219000000000E+02
4881000000.000000      6.575012000000000E-01      1.445898000000000E+01      3.777771000000000E-01     -1.547734000000000E+02
4882000000.000000      6.604614000000000E-01      1.451563000000000E+01      3.742828000000000E-01     -1.555234000000000E+02
4883000000.000000      6.607971000000000E-01      1.425732000000000E+01      3.695831000000000E-01     -1.560234000000000E+02
4884000000.000000      6.626587000000000E-01      1.447412000000000E+01      3.646698000000000E-01     -1.564609000000000E+02
4885000000.000000      6.637268000000000E-01      1.440674000000000E+01      3.601227000000000E-01     -1.566953000000000E+02
4886000000.000000      6.647949000000000E-01      1.424902000000000E+01      3.567810000000000E-01     -1.572187000000000E+02
4887000000.000000      6.647644000000000E-01      1.429297000000000E+01      3.519287000000000E-01     -1.579297000000000E+02
4888000000.000000      6.645508000000000E-01      1.413232000000000E+01      3.473969000000000E-01     -1.584453000000000E+02
4889000000.000000      6.673279000000000E-01      1.389893000000000E+01      3.433228000000000E-01     -1.587500000000000E+02
4890000000.000000      6.655579000000000E-01      1.385205000000000E+01      3.387451000000000E-01     -1.594219000000000E+02
4891000000.000000      6.686096000000000E-01      1.401563000000000E+01      3.345947000000000E-01     -1.597969000000000E+02
4892000000.000000      6.691895000000000E-01      1.370508000000000E+01      3.299713000000000E-01     -1.600156000000000E+02
4893000000.000000      6.726990000000000E-01      1.364355000000000E+01      3.270874000000000E-01     -1.605781000000000E+02
4894000000.000000      6.717834000000000E-01      1.345654000000000E+01      3.220062000000000E-01     -1.611016000000000E+02
4895000000.000000      6.739197000000000E-01      1.354297000000000E+01      3.195190000000000E-01     -1.611719000000000E+02
4896000000.000000      6.761475000000000E-01      1.347998000000000E+01      3.151093000000000E-01     -1.617422000000000E+02
4897000000.000000      6.748352000000000E-01      1.324121000000000E+01      3.120270000000000E-01     -1.621719000000000E+02
4898000000.000000      6.761475000000000E-01      1.335498000000000E+01      3.081970000000000E-01     -1.622890000000000E+02
4899000000.000000      6.767273000000000E-01      1.305859000000000E+01      3.039551000000000E-01     -1.627344000000000E+02
4900000000.000000      6.777649000000000E-01      1.305029000000000E+01      3.001862000000000E-01     -1.631016000000000E+02
4901000000.000000      6.782837000000000E-01      1.288281000000000E+01      2.969513000000000E-01     -1.634687000000000E+02
4902000000.000000      6.792297000000000E-01      1.295557000000000E+01      2.940521000000000E-01     -1.636875000000000E+02
4903000000.000000      6.800842000000000E-01      1.286865000000000E+01      2.890930000000000E-01     -1.640469000000000E+02
4904000000.000000      6.815796000000000E-01      1.253125000000000E+01      2.862701000000000E-01     -1.644687000000000E+02
4905000000.000000      6.800232000000000E-01      1.246240000000000E+01      2.831268000000000E-01     -1.647344000000000E+02
4906000000.000000      6.811829000000000E-01      1.235938000000000E+01      2.794189000000000E-01     -1.648516000000000E+02
4907000000.000000      6.826172000000000E-01      1.228369000000000E+01      2.768250000000000E-01     -1.654375000000000E+02
4908000000.000000      6.838379000000000E-01      1.226855000000000E+01      2.732086000000000E-01     -1.659062000000000E+02
4909000000.000000      6.842957000000000E-01      1.208057000000000E+01      2.685242000000000E-01     -1.661094000000000E+02
4910000000.000000      6.851196000000000E-01      1.203955000000000E+01      2.651520000000000E-01     -1.663672000000000E+02
4911000000.000000      6.851807000000000E-01      1.198584000000000E+01      2.616272000000000E-01     -1.664531000000000E+02
4912000000.000000      6.877747000000000E-01      1.193896000000000E+01      2.586670000000000E-01     -1.670000000000000E+02
4913000000.000000      6.870117000000000E-01      1.161084000000000E+01      2.551117000000000E-01     -1.672734000000000E+02
4914000000.000000      6.882629000000000E-01      1.157129000000000E+01      2.513275000000000E-01     -1.675547000000000E+02
4915000000.000000      6.881409000000000E-01      1.162207000000000E+01      2.477036000000000E-01     -1.678828000000000E+02
4916000000.000000      6.865540000000000E-01      1.135840000000000E+01      2.438736000000000E-01     -1.683125000000000E+02
4917000000.000000      6.887817000000000E-01      1.127979000000000E+01      2.411423000000000E-01     -1.683984000000000E+02
4918000000.000000      6.903076000000000E-01      1.111230000000000E+01      2.365112000000000E-01     -1.688047000000000E+02
4919000000.000000      6.901550000000000E-01      1.111230000000000E+01      2.336807000000000E-01     -1.685937000000000E+02
4920000000.000000      6.908569000000000E-01      1.117822000000000E+01      2.295456000000000E-01     -1.692969000000000E+02
4921000000.000000      6.923218000000000E-01      1.107422000000000E+01      2.264404000000000E-01     -1.694375000000000E+02
4922000000.000000      6.917725000000000E-01      1.087207000000000E+01      2.224960000000000E-01     -1.694531000000000E+02
4923000000.000000      6.934814000000000E-01      1.092432000000000E+01      2.188416000000000E-01     -1.696640000000000E+02
4924000000.000000      6.947632000000000E-01      1.055615000000000E+01      2.145996000000000E-01     -1.701875000000000E+02
4925000000.000000      6.926575000000000E-01      1.067285000000000E+01      2.114487000000000E-01     -1.701641000000000E+02
4926000000.000000      6.949463000000000E-01      1.042041000000000E+01      2.075653000000000E-01     -1.703906000000000E+02
4927000000.000000      6.932068000000000E-01      1.025830000000000E+01      2.038422000000000E-01     -1.703203000000000E+02
4928000000.000000      6.943359000000000E-01      1.028027000000000E+01      1.998596000000000E-01     -1.705703000000000E+02
4929000000.000000      6.949158000000000E-01      1.009082000000000E+01      1.962051000000000E-01     -1.705937000000000E+02
4930000000.000000      6.950378000000000E-01      9.945313000000000E+00      1.923904000000000E-01     -1.707734000000000E+02
4931000000.000000      6.939697000000000E-01      9.868164000000000E+00      1.891479000000000E-01     -1.706406000000000E+02
4932000000.000000      6.955872000000000E-01      9.829590000000000E+00      1.854553000000000E-01     -1.705547000000000E+02
4933000000.000000      6.968994000000000E-01      9.656738000000000E+00      1.803207000000000E-01     -1.703516000000000E+02
4934000000.000000      6.982117000000000E-01      9.577148000000000E+00      1.776428000000000E-01     -1.703984000000000E+02
4935000000.000000      6.991272000000000E-01      9.688477000000000E+00      1.736145000000000E-01     -1.701719000000000E+02
4936000000.000000      6.971436000000000E-01      9.299805000000000E+00      1.699677000000000E-01     -1.700547000000000E+02
4937000000.000000      7.002869000000000E-01      9.421875000000000E+00      1.658401000000000E-01     -1.698828000000000E+02
4938000000.000000      6.980591000000000E-01      9.479492000000000E+00      1.626282000000000E-01     -1.696016000000000E+02
4939000000.000000      6.993408000000000E-01      9.328613000000000E+00      1.589127000000000E-01     -1.693203000000000E+02
4940000000.000000      7.013550000000000E-01      9.064941000000000E+00      1.553192000000000E-01     -1.690859000000000E+02
4941000000.000000      6.999817000000000E-01      8.913574000000000E+00      1.514893000000000E-01     -1.685781000000000E+02
4942000000.000000      7.008362000000000E-01      8.979492000000000E+00      1.479874000000000E-01     -1.680625000000000E+02
4943000000.000000      7.010498000000000E-01      8.812012000000000E+00      1.445236000000000E-01     -1.674062000000000E+02
4944000000.000000      6.998291000000000E-01      8.636230000000000E+00      1.415176000000000E-01     -1.667812000000000E+02
4945000000.000000      6.998596000000000E-01      8.518066000000000E+00      1.376114000000000E-01     -1.661562000000000E+02
4946000000.000000      7.031860000000000E-01      8.519531000000000E+00      1.347809000000000E-01     -1.653672000000000E+02
4947000000.000000      7.027588000000000E-01      8.356445000000000E+00      1.312561000000000E-01     -1.645000000000000E+02
4948000000.000000      7.053833000000000E-01      8.354980000000000E+00      1.288452000000000E-01     -1.635313000000000E+02
4949000000.000000      7.015686000000000E-01      8.277832000000000E+00      1.257477000000000E-01     -1.624375000000000E+02
4950000000.000000      7.046509000000000E-01      8.277832000000000E+00      1.229706000000000E-01     -1.613672000000000E+02
4951000000.000000      7.060852000000000E-01      8.118652000000000E+00      1.210899000000000E-01     -1.602500000000000E+02
4952000000.000000      7.064209000000000E-01      7.958008000000000E+00      1.177979000000000E-01     -1.590156000000000E+02
4953000000.000000      7.041626000000000E-01      7.778320000000000E+00      1.157455000000000E-01     -1.576797000000000E+02
4954000000.000000      7.067871000000000E-01      7.739746000000000E+00      1.138191000000000E-01     -1.563203000000000E+02
