! Network Analyzer HP8722D
! Hewlett-Packard
! Data name: Linha & Wilkinson
! Saver's name: Rodrigo Anjos
! Comments: Teste da utilização de aquisição
continua pelo VNA HP8722D
! Time and date: 22/5/2025 07:34
!              Frequency                     S11                                                   S21                                                   S12                                                   S22
# HZ  S  MA R 50
4800000000.000000      6.460266000000000E-01      1.053711000000000E+01      4.741974000000000E-01     -9.361328000000000E+01
4801000000.000000      6.427612000000000E-01      1.050391000000000E+01      4.749298000000000E-01     -9.436327000000000E+01
4802000000.000000      6.419067000000000E-01      1.046289000000000E+01      4.759979000000000E-01     -9.514452000000000E+01
4803000000.000000      6.390991000000000E-01      1.037109000000000E+01      4.786224000000000E-01     -9.585546000000000E+01
4804000000.000000      6.389160000000000E-01      1.035010000000000E+01      4.820557000000000E-01     -9.652733000000000E+01
4805000000.000000      6.378784000000000E-01      1.027344000000000E+01      4.817657000000000E-01     -9.755077000000000E+01
4806000000.000000      6.356812000000000E-01      1.033936000000000E+01      4.831543000000000E-01     -9.818748000000000E+01
4807000000.000000      6.344910000000000E-01      1.033398000000000E+01      4.851227000000000E-01     -9.912498000000000E+01
4808000000.000000      6.308594000000000E-01      1.044238000000000E+01      4.865265000000000E-01     -9.961327000000000E+01
4809000000.000000      6.295776000000000E-01      1.068408000000000E+01      4.858093000000000E-01     -1.006367000000000E+02
4810000000.000000      6.297913000000000E-01      1.040674000000000E+01      4.900970000000000E-01     -1.011406000000000E+02
4811000000.000000      6.285706000000000E-01      1.062500000000000E+01      4.899750000000000E-01     -1.019961000000000E+02
4812000000.000000      6.269531000000000E-01      1.069238000000000E+01      4.912567000000000E-01     -1.029219000000000E+02
4813000000.000000      6.259155000000000E-01      1.068555000000000E+01      4.919434000000000E-01     -1.035625000000000E+02
4814000000.000000      6.235962000000000E-01      1.063184000000000E+01      4.931946000000000E-01     -1.041914000000000E+02
4815000000.000000      6.224365000000000E-01      1.078857000000000E+01      4.934998000000000E-01     -1.050039000000000E+02
4816000000.000000      6.213684000000000E-01      1.099561000000000E+01      4.947205000000000E-01     -1.057891000000000E+02
4817000000.000000      6.196899000000000E-01      1.104932000000000E+01      4.947205000000000E-01     -1.064492000000000E+02
4818000000.000000      6.171570000000000E-01      1.115918000000000E+01      4.941101000000000E-01     -1.073359000000000E+02
4819000000.000000      6.182251000000000E-01      1.106836000000000E+01      4.958649000000000E-01     -1.079961000000000E+02
4820000000.000000      6.166687000000000E-01      1.153809000000000E+01      4.968109000000000E-01     -1.086133000000000E+02
4821000000.000000      6.154785000000000E-01      1.128418000000000E+01      4.972382000000000E-01     -1.095117000000000E+02
4822000000.000000      6.138000000000000E-01      1.134717000000000E+01      4.954376000000000E-01     -1.101953000000000E+02
4823000000.000000      6.149902000000000E-01      1.145020000000000E+01      4.980927000000000E-01     -1.110859000000000E+02
4824000000.000000      6.129456000000000E-01      1.169336000000000E+01      4.976654000000000E-01     -1.117851000000000E+02
4825000000.000000      6.128235000000000E-01      1.182129000000000E+01      4.978333000000000E-01     -1.125195000000000E+02
4826000000.000000      6.124268000000000E-01      1.172900000000000E+01      4.981995000000000E-01     -1.136094000000000E+02
4827000000.000000      6.105347000000000E-01      1.182520000000000E+01      4.982910000000000E-01     -1.139101000000000E+02
4828000000.000000      6.125183000000000E-01      1.208594000000000E+01      4.982452000000000E-01     -1.147773000000000E+02
4829000000.000000      6.102905000000000E-01      1.229883000000000E+01      4.985199000000000E-01     -1.153477000000000E+02
4830000000.000000      6.118469000000000E-01      1.235547000000000E+01      4.986725000000000E-01     -1.164219000000000E+02
4831000000.000000      6.095581000000000E-01      1.234570000000000E+01      4.990845000000000E-01     -1.171758000000000E+02
4832000000.000000      6.101685000000000E-01      1.249951000000000E+01      4.973297000000000E-01     -1.177539000000000E+02
4833000000.000000      6.087341000000000E-01      1.241553000000000E+01      4.975433000000000E-01     -1.183594000000000E+02
4834000000.000000      6.085510000000000E-01      1.267822000000000E+01      4.981384000000000E-01     -1.195234000000000E+02
4835000000.000000      6.111145000000000E-01      1.283447000000000E+01      4.977264000000000E-01     -1.202383000000000E+02
4836000000.000000      6.091003000000000E-01      1.290186000000000E+01      4.962921000000000E-01     -1.208633000000000E+02
4837000000.000000      6.095581000000000E-01      1.321924000000000E+01      4.954987000000000E-01     -1.218398000000000E+02
4838000000.000000      6.094360000000000E-01      1.303906000000000E+01      4.970245000000000E-01     -1.223633000000000E+02
4839000000.000000      6.130981000000000E-01      1.331396000000000E+01      4.961853000000000E-01     -1.232930000000000E+02
4840000000.000000      6.125488000000000E-01      1.338232000000000E+01      4.964447000000000E-01     -1.242188000000000E+02
4841000000.000000      6.115112000000000E-01      1.361719000000000E+01      4.954224000000000E-01     -1.249414000000000E+02
4842000000.000000      6.130066000000000E-01      1.359131000000000E+01      4.944916000000000E-01     -1.255547000000000E+02
4843000000.000000      6.165466000000000E-01      1.366113000000000E+01      4.931793000000000E-01     -1.266055000000000E+02
4844000000.000000      6.149292000000000E-01      1.355713000000000E+01      4.924011000000000E-01     -1.272969000000000E+02
4845000000.000000      6.160889000000000E-01      1.383984000000000E+01      4.904633000000000E-01     -1.282109000000000E+02
4846000000.000000      6.179810000000000E-01      1.393848000000000E+01      4.890137000000000E-01     -1.290937000000000E+02
4847000000.000000      6.169434000000000E-01      1.401416000000000E+01      4.882507000000000E-01     -1.296641000000000E+02
4848000000.000000      6.162109000000000E-01      1.392334000000000E+01      4.847870000000000E-01     -1.306094000000000E+02
4849000000.000000      6.181030000000000E-01      1.390723000000000E+01      4.871216000000000E-01     -1.316328000000000E+02
4850000000.000000      6.186218000000000E-01      1.396729000000000E+01      4.818420000000000E-01     -1.324375000000000E+02
4851000000.000000      6.195984000000000E-01      1.424512000000000E+01      4.828949000000000E-01     -1.332813000000000E+02
4852000000.000000      6.214294000000000E-01      1.426270000000000E+01      4.797211000000000E-01     -1.341563000000000E+02
4853000000.000000      6.235046000000000E-01      1.427637000000000E+01      4.754944000000000E-01     -1.347969000000000E+02
4854000000.000000      6.228027000000000E-01      1.445215000000000E+01      4.746094000000000E-01     -1.358750000000000E+02
4855000000.000000      6.237488000000000E-01      1.428467000000000E+01      4.725494000000000E-01     -1.367891000000000E+02
4856000000.000000      6.261292000000000E-01      1.436572000000000E+01      4.693451000000000E-01     -1.376016000000000E+02
4857000000.000000      6.266174000000000E-01      1.455371000000000E+01      4.676361000000000E-01     -1.383516000000000E+02
4858000000.000000      6.268616000000000E-01      1.455957000000000E+01      4.649200000000000E-01     -1.392344000000000E+02
4859000000.000000      6.287842000000000E-01      1.440137000000000E+01      4.607391000000000E-01     -1.401016000000000E+02
4860000000.000000      6.291809000000000E-01      1.455371000000000E+01      4.581604000000000E-01     -1.408359000000000E+02
4861000000.000000      6.313782000000000E-01      1.446729000000000E+01      4.552460000000000E-01     -1.417266000000000E+02
4862000000.000000      6.322937000000000E-01      1.451953000000000E+01      4.519958000000000E-01     -1.423828000000000E+02
4863000000.000000      6.329041000000000E-01      1.464453000000000E+01      4.478607000000000E-01     -1.434062000000000E+02
4864000000.000000      6.343384000000000E-01      1.439307000000000E+01      4.459686000000000E-01     -1.440547000000000E+02
4865000000.000000      6.343079000000000E-01      1.443848000000000E+01      4.418488000000000E-01     -1.447813000000000E+02
4866000000.000000      6.365051000000000E-01      1.454980000000000E+01      4.369965000000000E-01     -1.456875000000000E+02
4867000000.000000      6.372070000000000E-01      1.454150000000000E+01      4.341888000000000E-01     -1.466328000000000E+02
4868000000.000000      6.412659000000000E-01      1.442480000000000E+01      4.299622000000000E-01     -1.472969000000000E+02
4869000000.000000      6.411743000000000E-01      1.438477000000000E+01      4.250641000000000E-01     -1.480781000000000E+02
4870000000.000000      6.430359000000000E-01      1.447852000000000E+01      4.217987000000000E-01     -1.484844000000000E+02
4871000000.000000      6.416321000000000E-01      1.439453000000000E+01      4.185791000000000E-01     -1.495078000000000E+02
4872000000.000000      6.450806000000000E-01      1.438477000000000E+01      4.127808000000000E-01     -1.500547000000000E+02
4873000000.000000      6.461792000000000E-01      1.426025000000000E+01      4.093323000000000E-01     -1.509375000000000E+02
4874000000.000000      6.471252000000000E-01      1.433545000000000E+01      4.034424000000000E-01     -1.514531000000000E+02
4875000000.000000      6.497192000000000E-01      1.423828000000000E+01      3.995209000000000E-01     -1.520078000000000E+02
4876000000.000000      6.499939000000000E-01      1.424609000000000E+01      3.961029000000000E-01     -1.527500000000000E+02
4877000000.000000      6.517639000000000E-01      1.399219000000000E+01      3.908997000000000E-01     -1.534531000000000E+02
4878000000.000000      6.517639000000000E-01      1.406348000000000E+01      3.875275000000000E-01     -1.541250000000000E+02
4879000000.000000      6.540833000000000E-01      1.410645000000000E+01      3.819885000000000E-01     -1.544453000000000E+02
4880000000.000000      6.537781000000000E-01      1.400879000000000E+01      3.774261000000000E-01     -1.552734000000000E+02
4881000000.000000      6.558533000000000E-01      1.401709000000000E+01      3.728027000000000E-01     -1.555391000000000E+02
4882000000.000000      6.587219000000000E-01      1.385645000000000E+01      3.688812000000000E-01     -1.562422000000000E+02
4883000000.000000      6.592407000000000E-01      1.381348000000000E+01      3.651886000000000E-01     -1.566719000000000E+02
4884000000.000000      6.590881000000000E-01      1.388232000000000E+01      3.607483000000000E-01     -1.572734000000000E+02
4885000000.000000      6.620178000000000E-01      1.375488000000000E+01      3.551941000000000E-01     -1.576562000000000E+02
4886000000.000000      6.636658000000000E-01      1.373291000000000E+01      3.510590000000000E-01     -1.582187000000000E+02
4887000000.000000      6.629944000000000E-01      1.352930000000000E+01      3.484497000000000E-01     -1.588672000000000E+02
4888000000.000000      6.623230000000000E-01      1.333447000000000E+01      3.440857000000000E-01     -1.594063000000000E+02
4889000000.000000      6.652832000000000E-01      1.340869000000000E+01      3.382568000000000E-01     -1.595547000000000E+02
4890000000.000000      6.664734000000000E-01      1.318896000000000E+01      3.350220000000000E-01     -1.604531000000000E+02
4891000000.000000      6.669006000000000E-01      1.314502000000000E+01      3.307800000000000E-01     -1.604922000000000E+02
4892000000.000000      6.692810000000000E-01      1.318896000000000E+01      3.263550000000000E-01     -1.606641000000000E+02
4893000000.000000      6.699219000000000E-01      1.298975000000000E+01      3.217773000000000E-01     -1.616016000000000E+02
4894000000.000000      6.708069000000000E-01      1.294873000000000E+01      3.192444000000000E-01     -1.617109000000000E+02
4895000000.000000      6.737061000000000E-01      1.285791000000000E+01      3.150177000000000E-01     -1.618984000000000E+02
4896000000.000000      6.726685000000000E-01      1.272900000000000E+01      3.116302000000000E-01     -1.625000000000000E+02
4897000000.000000      6.727600000000000E-01      1.276709000000000E+01      3.078461000000000E-01     -1.628125000000000E+02
4898000000.000000      6.738892000000000E-01      1.264111000000000E+01      3.046570000000000E-01     -1.631094000000000E+02
4899000000.000000      6.744690000000000E-01      1.257520000000000E+01      3.007965000000000E-01     -1.635859000000000E+02
4900000000.000000      6.759338000000000E-01      1.233887000000000E+01      2.969055000000000E-01     -1.638594000000000E+02
4901000000.000000      6.768799000000000E-01      1.220166000000000E+01      2.934570000000000E-01     -1.640703000000000E+02
4902000000.000000      6.773682000000000E-01      1.220020000000000E+01      2.904358000000000E-01     -1.643750000000000E+02
4903000000.000000      6.771240000000000E-01      1.210693000000000E+01      2.854462000000000E-01     -1.648750000000000E+02
4904000000.000000      6.795044000000000E-01      1.197070000000000E+01      2.823792000000000E-01     -1.650391000000000E+02
4905000000.000000      6.782837000000000E-01      1.201465000000000E+01      2.793121000000000E-01     -1.655156000000000E+02
4906000000.000000      6.802368000000000E-01      1.176221000000000E+01      2.757568000000000E-01     -1.656328000000000E+02
4907000000.000000      6.813965000000000E-01      1.157666000000000E+01      2.722473000000000E-01     -1.660859000000000E+02
4908000000.000000      6.833496000000000E-01      1.166016000000000E+01      2.698517000000000E-01     -1.663516000000000E+02
4909000000.000000      6.818542000000000E-01      1.161377000000000E+01      2.651520000000000E-01     -1.668203000000000E+02
4910000000.000000      6.811218000000000E-01      1.139551000000000E+01      2.620392000000000E-01     -1.668125000000000E+02
4911000000.000000      6.817017000000000E-01      1.135400000000000E+01      2.588959000000000E-01     -1.672266000000000E+02
4912000000.000000      6.853027000000000E-01      1.130615000000000E+01      2.541199000000000E-01     -1.677031000000000E+02
4913000000.000000      6.840210000000000E-01      1.125000000000000E+01      2.515869000000000E-01     -1.679766000000000E+02
4914000000.000000      6.867371000000000E-01      1.096533000000000E+01      2.481461000000000E-01     -1.679531000000000E+02
4915000000.000000      6.876221000000000E-01      1.104785000000000E+01      2.442398000000000E-01     -1.684609000000000E+02
4916000000.000000      6.868591000000000E-01      1.085010000000000E+01      2.406235000000000E-01     -1.688516000000000E+02
4917000000.000000      6.857300000000000E-01      1.080322000000000E+01      2.369766000000000E-01     -1.689844000000000E+02
4918000000.000000      6.892090000000000E-01      1.086377000000000E+01      2.333527000000000E-01     -1.692422000000000E+02
4919000000.000000      6.869202000000000E-01      1.047363000000000E+01      2.306747000000000E-01     -1.691875000000000E+02
4920000000.000000      6.909180000000000E-01      1.052051000000000E+01      2.257462000000000E-01     -1.698516000000000E+02
4921000000.000000      6.901855000000000E-01      1.037109000000000E+01      2.229919000000000E-01     -1.699297000000000E+02
4922000000.000000      6.900330000000000E-01      1.023486000000000E+01      2.191467000000000E-01     -1.698672000000000E+02
4923000000.000000      6.904297000000000E-01      1.017432000000000E+01      2.151566000000000E-01     -1.700391000000000E+02
4924000000.000000      6.919556000000000E-01      1.008936000000000E+01      2.114029000000000E-01     -1.704297000000000E+02
4925000000.000000      6.907654000000000E-01      9.971191000000000E+00      2.079620000000000E-01     -1.704062000000000E+02
4926000000.000000      6.915588000000000E-01      9.915039000000000E+00      2.042084000000000E-01     -1.706094000000000E+02
4927000000.000000      6.932678000000000E-01      9.678711000000000E+00      1.996765000000000E-01     -1.707344000000000E+02
4928000000.000000      6.925354000000000E-01      9.520996000000000E+00      1.967087000000000E-01     -1.707422000000000E+02
4929000000.000000      6.941833000000000E-01      9.625000000000000E+00      1.927872000000000E-01     -1.708281000000000E+02
4930000000.000000      6.929321000000000E-01      9.446777000000000E+00      1.893539000000000E-01     -1.708516000000000E+02
4931000000.000000      6.939087000000000E-01      9.126465000000000E+00      1.858749000000000E-01     -1.707422000000000E+02
4932000000.000000      6.939697000000000E-01      9.261230000000000E+00      1.817017000000000E-01     -1.708203000000000E+02
4933000000.000000      6.957092000000000E-01      9.184570000000000E+00      1.776962000000000E-01     -1.705312000000000E+02
4934000000.000000      6.969299000000000E-01      9.127930000000000E+00      1.741333000000000E-01     -1.706563000000000E+02
4935000000.000000      6.968384000000000E-01      8.989258000000000E+00      1.711960000000000E-01     -1.703594000000000E+02
4936000000.000000      6.948547000000000E-01      8.818848000000000E+00      1.669540000000000E-01     -1.701328000000000E+02
4937000000.000000      6.966858000000000E-01      8.613281000000000E+00      1.632080000000000E-01     -1.698359000000000E+02
4938000000.000000      6.967468000000000E-01      8.876953000000000E+00      1.596451000000000E-01     -1.693750000000000E+02
4939000000.000000      6.960754000000000E-01      8.563477000000000E+00      1.564789000000000E-01     -1.692109000000000E+02
4940000000.000000      6.984863000000000E-01      8.387695000000000E+00      1.522064000000000E-01     -1.688437000000000E+02
4941000000.000000      6.985779000000000E-01      8.298340000000000E+00      1.490021000000000E-01     -1.682422000000000E+02
4942000000.000000      6.999817000000000E-01      8.479980000000000E+00      1.456451000000000E-01     -1.677500000000000E+02
4943000000.000000      6.988220000000000E-01      8.211914000000000E+00      1.424408000000000E-01     -1.670625000000000E+02
4944000000.000000      7.007446000000000E-01      8.151855000000000E+00      1.397400000000000E-01     -1.664297000000000E+02
4945000000.000000      6.998291000000000E-01      7.945801000000000E+00      1.358719000000000E-01     -1.655625000000000E+02
4946000000.000000      7.004089000000000E-01      7.921143000000000E+00      1.329651000000000E-01     -1.648047000000000E+02
4947000000.000000      7.015686000000000E-01      7.761719000000000E+00      1.295471000000000E-01     -1.638047000000000E+02
4948000000.000000      7.016602000000000E-01      7.642334000000000E+00      1.272202000000000E-01     -1.628828000000000E+02
4949000000.000000      7.022095000000000E-01      7.521484000000000E+00      1.244736000000000E-01     -1.616406000000000E+02
4950000000.000000      7.032471000000000E-01      7.535156000000000E+00      1.215134000000000E-01     -1.608125000000000E+02
4951000000.000000      7.041016000000000E-01      7.491211000000000E+00      1.194878000000000E-01     -1.594766000000000E+02
4952000000.000000      7.033997000000000E-01      7.285156000000000E+00      1.168251000000000E-01     -1.581875000000000E+02
4953000000.000000      7.024841000000000E-01      7.252197000000000E+00      1.150284000000000E-01     -1.567188000000000E+02
4954000000.000000      7.040100000000000E-01      7.106689000000000E+00      1.126900000000000E-01     -1.553125000000000E+02
