! Network Analyzer HP8722D
! Hewlett-Packard
! Data name: Linha & Wilkinson
! Saver's name: Rodrigo Anjos
! Comments: Teste da utilização de aquisição
continua pelo VNA HP8722D
! Time and date: 22/5/2025 13:30
!              Frequency                     S11                                                   S21                                                   S12                                                   S22
# HZ  S  MA R 50
4800000000.000000      6.520081000000000E-01      1.085547000000000E+01      4.713287000000000E-01     -9.216015000000000E+01
4801000000.000000      6.507568000000000E-01      1.095996000000000E+01      4.719238000000000E-01     -9.285936000000000E+01
4802000000.000000      6.495972000000000E-01      1.092822000000000E+01      4.749298000000000E-01     -9.357031000000000E+01
4803000000.000000      6.473999000000000E-01      1.089941000000000E+01      4.779816000000000E-01     -9.414843000000000E+01
4804000000.000000      6.451111000000000E-01      1.078857000000000E+01      4.774323000000000E-01     -9.526953000000000E+01
4805000000.000000      6.459961000000000E-01      1.075928000000000E+01      4.796143000000000E-01     -9.583202000000000E+01
4806000000.000000      6.425476000000000E-01      1.089697000000000E+01      4.810486000000000E-01     -9.646873000000000E+01
4807000000.000000      6.396179000000000E-01      1.085156000000000E+01      4.825592000000000E-01     -9.735546000000000E+01
4808000000.000000      6.384277000000000E-01      1.087744000000000E+01      4.840393000000000E-01     -9.803123000000000E+01
4809000000.000000      6.377258000000000E-01      1.097510000000000E+01      4.861755000000000E-01     -9.912109000000000E+01
4810000000.000000      6.354980000000000E-01      1.103125000000000E+01      4.874268000000000E-01     -9.952734000000000E+01
4811000000.000000      6.332092000000000E-01      1.089697000000000E+01      4.880676000000000E-01     -1.004531000000000E+02
4812000000.000000      6.347351000000000E-01      1.116064000000000E+01      4.894104000000000E-01     -1.011211000000000E+02
4813000000.000000      6.304321000000000E-01      1.120605000000000E+01      4.909058000000000E-01     -1.018711000000000E+02
4814000000.000000      6.302795000000000E-01      1.100244000000000E+01      4.918213000000000E-01     -1.026328000000000E+02
4815000000.000000      6.275330000000000E-01      1.128955000000000E+01      4.916992000000000E-01     -1.033672000000000E+02
4816000000.000000      6.278076000000000E-01      1.126221000000000E+01      4.934235000000000E-01     -1.040391000000000E+02
4817000000.000000      6.265869000000000E-01      1.139795000000000E+01      4.953003000000000E-01     -1.048008000000000E+02
4818000000.000000      6.242371000000000E-01      1.120166000000000E+01      4.948578000000000E-01     -1.056055000000000E+02
4819000000.000000      6.221924000000000E-01      1.138281000000000E+01      4.951477000000000E-01     -1.063164000000000E+02
4820000000.000000      6.215515000000000E-01      1.159424000000000E+01      4.972992000000000E-01     -1.070195000000000E+02
4821000000.000000      6.215820000000000E-01      1.158350000000000E+01      4.972992000000000E-01     -1.080039000000000E+02
4822000000.000000      6.186523000000000E-01      1.161914000000000E+01      4.947815000000000E-01     -1.085234000000000E+02
4823000000.000000      6.200562000000000E-01      1.175928000000000E+01      4.981384000000000E-01     -1.093008000000000E+02
4824000000.000000      6.178284000000000E-01      1.211084000000000E+01      4.967194000000000E-01     -1.102305000000000E+02
4825000000.000000      6.174011000000000E-01      1.191992000000000E+01      4.988098000000000E-01     -1.107891000000000E+02
4826000000.000000      6.166992000000000E-01      1.193115000000000E+01      4.996338000000000E-01     -1.118125000000000E+02
4827000000.000000      6.168213000000000E-01      1.204102000000000E+01      4.972382000000000E-01     -1.123047000000000E+02
4828000000.000000      6.174011000000000E-01      1.219873000000000E+01      4.990540000000000E-01     -1.131719000000000E+02
4829000000.000000      6.153259000000000E-01      1.249268000000000E+01      4.992218000000000E-01     -1.136680000000000E+02
4830000000.000000      6.143494000000000E-01      1.263135000000000E+01      5.000916000000000E-01     -1.146680000000000E+02
4831000000.000000      6.127625000000000E-01      1.256934000000000E+01      5.001526000000000E-01     -1.153828000000000E+02
4832000000.000000      6.144104000000000E-01      1.272998000000000E+01      4.986725000000000E-01     -1.161055000000000E+02
4833000000.000000      6.139221000000000E-01      1.276709000000000E+01      4.991302000000000E-01     -1.166523000000000E+02
4834000000.000000      6.129456000000000E-01      1.297461000000000E+01      4.989471000000000E-01     -1.176484000000000E+02
4835000000.000000      6.133728000000000E-01      1.300049000000000E+01      4.994507000000000E-01     -1.185234000000000E+02
4836000000.000000      6.134949000000000E-01      1.326416000000000E+01      4.978027000000000E-01     -1.192539000000000E+02
4837000000.000000      6.123047000000000E-01      1.340430000000000E+01      4.969177000000000E-01     -1.202226000000000E+02
4838000000.000000      6.127014000000000E-01      1.337012000000000E+01      4.998016000000000E-01     -1.207227000000000E+02
4839000000.000000      6.168518000000000E-01      1.356641000000000E+01      4.982452000000000E-01     -1.215469000000000E+02
4840000000.000000      6.145325000000000E-01      1.368311000000000E+01      4.985046000000000E-01     -1.223555000000000E+02
4841000000.000000      6.138916000000000E-01      1.400049000000000E+01      4.971619000000000E-01     -1.232969000000000E+02
4842000000.000000      6.161499000000000E-01      1.377783000000000E+01      4.962006000000000E-01     -1.239375000000000E+02
4843000000.000000      6.191101000000000E-01      1.383545000000000E+01      4.967346000000000E-01     -1.248789000000000E+02
4844000000.000000      6.173401000000000E-01      1.392627000000000E+01      4.961700000000000E-01     -1.256367000000000E+02
4845000000.000000      6.183472000000000E-01      1.419434000000000E+01      4.938049000000000E-01     -1.265859000000000E+02
4846000000.000000      6.216736000000000E-01      1.425732000000000E+01      4.937592000000000E-01     -1.272930000000000E+02
4847000000.000000      6.189575000000000E-01      1.437793000000000E+01      4.917755000000000E-01     -1.279688000000000E+02
4848000000.000000      6.200562000000000E-01      1.433545000000000E+01      4.901123000000000E-01     -1.290313000000000E+02
4849000000.000000      6.200867000000000E-01      1.440430000000000E+01      4.904633000000000E-01     -1.297656000000000E+02
4850000000.000000      6.231384000000000E-01      1.441260000000000E+01      4.882050000000000E-01     -1.307812000000000E+02
4851000000.000000      6.227112000000000E-01      1.481738000000000E+01      4.876099000000000E-01     -1.316484000000000E+02
4852000000.000000      6.213074000000000E-01      1.452100000000000E+01      4.844513000000000E-01     -1.323281000000000E+02
4853000000.000000      6.241455000000000E-01      1.455127000000000E+01      4.818268000000000E-01     -1.331406000000000E+02
4854000000.000000      6.268921000000000E-01      1.478760000000000E+01      4.795990000000000E-01     -1.339844000000000E+02
4855000000.000000      6.258545000000000E-01      1.471582000000000E+01      4.768066000000000E-01     -1.349375000000000E+02
4856000000.000000      6.275940000000000E-01      1.488477000000000E+01      4.750366000000000E-01     -1.358203000000000E+02
4857000000.000000      6.293335000000000E-01      1.495508000000000E+01      4.741669000000000E-01     -1.365859000000000E+02
4858000000.000000      6.301575000000000E-01      1.481738000000000E+01      4.716034000000000E-01     -1.375937000000000E+02
4859000000.000000      6.313171000000000E-01      1.491211000000000E+01      4.687958000000000E-01     -1.383437000000000E+02
4860000000.000000      6.308899000000000E-01      1.478760000000000E+01      4.659576000000000E-01     -1.390469000000000E+02
4861000000.000000      6.320801000000000E-01      1.492871000000000E+01      4.628296000000000E-01     -1.400859000000000E+02
4862000000.000000      6.333618000000000E-01      1.485742000000000E+01      4.591522000000000E-01     -1.406563000000000E+02
4863000000.000000      6.347046000000000E-01      1.518164000000000E+01      4.561462000000000E-01     -1.417422000000000E+02
4864000000.000000      6.376343000000000E-01      1.495215000000000E+01      4.513245000000000E-01     -1.425859000000000E+02
4865000000.000000      6.372375000000000E-01      1.497021000000000E+01      4.479675000000000E-01     -1.432812000000000E+02
4866000000.000000      6.401978000000000E-01      1.492725000000000E+01      4.459534000000000E-01     -1.443359000000000E+02
4867000000.000000      6.400146000000000E-01      1.500977000000000E+01      4.410095000000000E-01     -1.449219000000000E+02
4868000000.000000      6.406555000000000E-01      1.487109000000000E+01      4.376373000000000E-01     -1.457344000000000E+02
4869000000.000000      6.426697000000000E-01      1.515527000000000E+01      4.327850000000000E-01     -1.467187000000000E+02
4870000000.000000      6.430054000000000E-01      1.499219000000000E+01      4.296570000000000E-01     -1.470859000000000E+02
4871000000.000000      6.452637000000000E-01      1.489990000000000E+01      4.251556000000000E-01     -1.480234000000000E+02
4872000000.000000      6.457520000000000E-01      1.499463000000000E+01      4.218445000000000E-01     -1.485625000000000E+02
4873000000.000000      6.474609000000000E-01      1.496045000000000E+01      4.179688000000000E-01     -1.494219000000000E+02
4874000000.000000      6.499329000000000E-01      1.483936000000000E+01      4.131622000000000E-01     -1.500859000000000E+02
4875000000.000000      6.520386000000000E-01      1.479688000000000E+01      4.071808000000000E-01     -1.508437000000000E+02
4876000000.000000      6.518250000000000E-01      1.475146000000000E+01      4.032593000000000E-01     -1.515391000000000E+02
4877000000.000000      6.534424000000000E-01      1.462646000000000E+01      3.995209000000000E-01     -1.521563000000000E+02
4878000000.000000      6.529541000000000E-01      1.467871000000000E+01      3.938141000000000E-01     -1.527187000000000E+02
4879000000.000000      6.558228000000000E-01      1.472021000000000E+01      3.897705000000000E-01     -1.532734000000000E+02
4880000000.000000      6.558533000000000E-01      1.455127000000000E+01      3.861389000000000E-01     -1.539844000000000E+02
4881000000.000000      6.592712000000000E-01      1.460205000000000E+01      3.803864000000000E-01     -1.545547000000000E+02
4882000000.000000      6.624451000000000E-01      1.458545000000000E+01      3.773651000000000E-01     -1.551797000000000E+02
4883000000.000000      6.570129000000000E-01      1.424756000000000E+01      3.713379000000000E-01     -1.558125000000000E+02
4884000000.000000      6.621094000000000E-01      1.433154000000000E+01      3.684998000000000E-01     -1.562031000000000E+02
4885000000.000000      6.628723000000000E-01      1.437402000000000E+01      3.635101000000000E-01     -1.565547000000000E+02
4886000000.000000      6.644897000000000E-01      1.433691000000000E+01      3.598785000000000E-01     -1.571719000000000E+02
4887000000.000000      6.647034000000000E-01      1.428076000000000E+01      3.550720000000000E-01     -1.576094000000000E+02
4888000000.000000      6.655273000000000E-01      1.375879000000000E+01      3.514252000000000E-01     -1.582578000000000E+02
4889000000.000000      6.672974000000000E-01      1.405127000000000E+01      3.471985000000000E-01     -1.584063000000000E+02
4890000000.000000      6.679382000000000E-01      1.388086000000000E+01      3.424377000000000E-01     -1.594219000000000E+02
4891000000.000000      6.697693000000000E-01      1.391406000000000E+01      3.371429000000000E-01     -1.595234000000000E+02
4892000000.000000      6.716614000000000E-01      1.365723000000000E+01      3.334961000000000E-01     -1.598828000000000E+02
4893000000.000000      6.728821000000000E-01      1.364063000000000E+01      3.298645000000000E-01     -1.604297000000000E+02
4894000000.000000      6.722412000000000E-01      1.352686000000000E+01      3.262634000000000E-01     -1.609375000000000E+02
4895000000.000000      6.738892000000000E-01      1.347998000000000E+01      3.231812000000000E-01     -1.611094000000000E+02
4896000000.000000      6.721191000000000E-01      1.345508000000000E+01      3.186188000000000E-01     -1.614687000000000E+02
4897000000.000000      6.742249000000000E-01      1.322461000000000E+01      3.140717000000000E-01     -1.619922000000000E+02
4898000000.000000      6.772156000000000E-01      1.331543000000000E+01      3.116608000000000E-01     -1.622344000000000E+02
4899000000.000000      6.777954000000000E-01      1.314893000000000E+01      3.067780000000000E-01     -1.628125000000000E+02
4900000000.000000      6.761169000000000E-01      1.296240000000000E+01      3.034363000000000E-01     -1.629922000000000E+02
4901000000.000000      6.778870000000000E-01      1.293604000000000E+01      3.001709000000000E-01     -1.632109000000000E+02
4902000000.000000      6.809692000000000E-01      1.285254000000000E+01      2.974396000000000E-01     -1.635391000000000E+02
4903000000.000000      6.787720000000000E-01      1.274658000000000E+01      2.925720000000000E-01     -1.639844000000000E+02
4904000000.000000      6.810913000000000E-01      1.256543000000000E+01      2.889099000000000E-01     -1.645000000000000E+02
4905000000.000000      6.809998000000000E-01      1.241016000000000E+01      2.864075000000000E-01     -1.646563000000000E+02
4906000000.000000      6.820068000000000E-01      1.216846000000000E+01      2.824707000000000E-01     -1.648438000000000E+02
4907000000.000000      6.820679000000000E-01      1.234863000000000E+01      2.797546000000000E-01     -1.654375000000000E+02
4908000000.000000      6.849976000000000E-01      1.197607000000000E+01      2.755585000000000E-01     -1.657266000000000E+02
4909000000.000000      6.856689000000000E-01      1.213818000000000E+01      2.712860000000000E-01     -1.661016000000000E+02
4910000000.000000      6.837463000000000E-01      1.202979000000000E+01      2.682037000000000E-01     -1.663437000000000E+02
4911000000.000000      6.855774000000000E-01      1.193896000000000E+01      2.646942000000000E-01     -1.665469000000000E+02
4912000000.000000      6.846619000000000E-01      1.184033000000000E+01      2.618561000000000E-01     -1.670312000000000E+02
4913000000.000000      6.889343000000000E-01      1.182373000000000E+01      2.573853000000000E-01     -1.672266000000000E+02
4914000000.000000      6.859131000000000E-01      1.150244000000000E+01      2.544556000000000E-01     -1.675234000000000E+02
4915000000.000000      6.882935000000000E-01      1.149561000000000E+01      2.502289000000000E-01     -1.678047000000000E+02
4916000000.000000      6.895142000000000E-01      1.141602000000000E+01      2.465439000000000E-01     -1.682500000000000E+02
4917000000.000000      6.870117000000000E-01      1.121289000000000E+01      2.437744000000000E-01     -1.684609000000000E+02
4918000000.000000      6.899414000000000E-01      1.111084000000000E+01      2.397537000000000E-01     -1.686563000000000E+02
4919000000.000000      6.886597000000000E-01      1.117285000000000E+01      2.366409000000000E-01     -1.689297000000000E+02
4920000000.000000      6.906433000000000E-01      1.101367000000000E+01      2.319489000000000E-01     -1.694687000000000E+02
4921000000.000000      6.890869000000000E-01      1.110156000000000E+01      2.288513000000000E-01     -1.695234000000000E+02
4922000000.000000      6.924744000000000E-01      1.097656000000000E+01      2.250671000000000E-01     -1.695859000000000E+02
4923000000.000000      6.926575000000000E-01      1.074463000000000E+01      2.213516000000000E-01     -1.697344000000000E+02
4924000000.000000      6.914063000000000E-01      1.057959000000000E+01      2.170715000000000E-01     -1.700859000000000E+02
4925000000.000000      6.929016000000000E-01      1.049707000000000E+01      2.139511000000000E-01     -1.703203000000000E+02
4926000000.000000      6.938782000000000E-01      1.062891000000000E+01      2.105026000000000E-01     -1.704922000000000E+02
4927000000.000000      6.944885000000000E-01      1.032422000000000E+01      2.061157000000000E-01     -1.706328000000000E+02
4928000000.000000      6.953735000000000E-01      1.014990000000000E+01      2.027512000000000E-01     -1.707187000000000E+02
4929000000.000000      6.938782000000000E-01      1.017432000000000E+01      1.981201000000000E-01     -1.707109000000000E+02
4930000000.000000      6.968384000000000E-01      1.006738000000000E+01      1.951141000000000E-01     -1.709922000000000E+02
4931000000.000000      6.943054000000000E-01      9.917480000000000E+00      1.918793000000000E-01     -1.709844000000000E+02
4932000000.000000      6.964722000000000E-01      9.798340000000000E+00      1.876450000000000E-01     -1.709766000000000E+02
4933000000.000000      6.963196000000000E-01      9.741699000000000E+00      1.833191000000000E-01     -1.706484000000000E+02
4934000000.000000      6.970825000000000E-01      9.572754000000000E+00      1.794510000000000E-01     -1.709141000000000E+02
4935000000.000000      6.990051000000000E-01      9.578613000000000E+00      1.760025000000000E-01     -1.707031000000000E+02
4936000000.000000      6.986694000000000E-01      9.303711000000000E+00      1.722336000000000E-01     -1.704922000000000E+02
4937000000.000000      7.014465000000000E-01      9.335449000000000E+00      1.686020000000000E-01     -1.704609000000000E+02
4938000000.000000      6.977844000000000E-01      9.349121000000000E+00      1.652298000000000E-01     -1.700469000000000E+02
4939000000.000000      6.986389000000000E-01      9.269531000000000E+00      1.614075000000000E-01     -1.697656000000000E+02
4940000000.000000      6.987610000000000E-01      8.926270000000000E+00      1.575241000000000E-01     -1.696563000000000E+02
4941000000.000000      7.019653000000000E-01      8.961914000000000E+00      1.539764000000000E-01     -1.691719000000000E+02
4942000000.000000      7.008057000000000E-01      8.802734000000000E+00      1.505737000000000E-01     -1.686797000000000E+02
4943000000.000000      7.016602000000000E-01      8.957520000000000E+00      1.472397000000000E-01     -1.681875000000000E+02
4944000000.000000      6.993408000000000E-01      8.433105000000000E+00      1.435699000000000E-01     -1.674766000000000E+02
4945000000.000000      7.026367000000000E-01      8.461914000000000E+00      1.396332000000000E-01     -1.668281000000000E+02
4946000000.000000      7.043762000000000E-01      8.420898000000000E+00      1.366882000000000E-01     -1.662109000000000E+02
4947000000.000000      7.028198000000000E-01      8.429199000000000E+00      1.338196000000000E-01     -1.656094000000000E+02
4948000000.000000      7.053833000000000E-01      8.345215000000000E+00      1.307068000000000E-01     -1.645937000000000E+02
4949000000.000000      7.034607000000000E-01      8.093750000000000E+00      1.275253000000000E-01     -1.634063000000000E+02
4950000000.000000      7.078857000000000E-01      8.063965000000000E+00      1.248093000000000E-01     -1.624922000000000E+02
4951000000.000000      7.057495000000000E-01      7.933350000000000E+00      1.221848000000000E-01     -1.615703000000000E+02
4952000000.000000      7.044373000000000E-01      8.023926000000000E+00      1.191521000000000E-01     -1.601797000000000E+02
4953000000.000000      7.066345000000000E-01      7.805664000000000E+00      1.170044000000000E-01     -1.586797000000000E+02
4954000000.000000      7.070007000000000E-01      7.771240000000000E+00      1.146088000000000E-01     -1.575625000000000E+02
