! Network Analyzer HP8722D
! Hewlett-Packard
! Data name: Linha & Wilkinson
! Saver's name: Rodrigo Anjos
! Comments: Teste da utilização de aquisição
continua pelo VNA HP8722D
! Time and date: 22/5/2025 13:03
!              Frequency                     S11                                                   S21                                                   S12                                                   S22
# HZ  S  MA R 50
4800000000.000000      6.499634000000000E-01      1.086816000000000E+01      4.714508000000000E-01     -9.284765000000000E+01
4801000000.000000      6.470032000000000E-01      1.100391000000000E+01      4.725342000000000E-01     -9.333984000000000E+01
4802000000.000000      6.472778000000000E-01      1.079248000000000E+01      4.752197000000000E-01     -9.407030000000000E+01
4803000000.000000      6.448669000000000E-01      1.088037000000000E+01      4.786835000000000E-01     -9.488281000000000E+01
4804000000.000000      6.434326000000000E-01      1.085449000000000E+01      4.802399000000000E-01     -9.559374000000000E+01
4805000000.000000      6.426697000000000E-01      1.079639000000000E+01      4.779358000000000E-01     -9.646873000000000E+01
4806000000.000000      6.416321000000000E-01      1.079932000000000E+01      4.811249000000000E-01     -9.719139000000000E+01
4807000000.000000      6.390686000000000E-01      1.087744000000000E+01      4.840546000000000E-01     -9.809374000000000E+01
4808000000.000000      6.362000000000000E-01      1.093262000000000E+01      4.841614000000000E-01     -9.882030000000000E+01
4809000000.000000      6.351013000000000E-01      1.089844000000000E+01      4.858704000000000E-01     -9.951952000000000E+01
4810000000.000000      6.338501000000000E-01      1.107959000000000E+01      4.881439000000000E-01     -1.001797000000000E+02
4811000000.000000      6.323853000000000E-01      1.107275000000000E+01      4.891510000000000E-01     -1.011680000000000E+02
4812000000.000000      6.327209000000000E-01      1.116309000000000E+01      4.915771000000000E-01     -1.018672000000000E+02
4813000000.000000      6.304321000000000E-01      1.110693000000000E+01      4.907379000000000E-01     -1.025742000000000E+02
4814000000.000000      6.270142000000000E-01      1.121973000000000E+01      4.918060000000000E-01     -1.032969000000000E+02
4815000000.000000      6.255798000000000E-01      1.126904000000000E+01      4.923096000000000E-01     -1.040430000000000E+02
4816000000.000000      6.265564000000000E-01      1.141064000000000E+01      4.937897000000000E-01     -1.048281000000000E+02
4817000000.000000      6.244507000000000E-01      1.144336000000000E+01      4.955902000000000E-01     -1.056484000000000E+02
4818000000.000000      6.228027000000000E-01      1.153809000000000E+01      4.951782000000000E-01     -1.061953000000000E+02
4819000000.000000      6.234131000000000E-01      1.154248000000000E+01      4.960175000000000E-01     -1.071875000000000E+02
4820000000.000000      6.210632000000000E-01      1.159863000000000E+01      4.958649000000000E-01     -1.076250000000000E+02
4821000000.000000      6.207581000000000E-01      1.163818000000000E+01      4.969177000000000E-01     -1.085664000000000E+02
4822000000.000000      6.180725000000000E-01      1.183203000000000E+01      4.963379000000000E-01     -1.093047000000000E+02
4823000000.000000      6.179810000000000E-01      1.187061000000000E+01      4.987640000000000E-01     -1.101719000000000E+02
4824000000.000000      6.148376000000000E-01      1.200488000000000E+01      4.977417000000000E-01     -1.109219000000000E+02
4825000000.000000      6.165771000000000E-01      1.203955000000000E+01      4.972076000000000E-01     -1.116445000000000E+02
4826000000.000000      6.159058000000000E-01      1.201074000000000E+01      4.991302000000000E-01     -1.125000000000000E+02
4827000000.000000      6.155090000000000E-01      1.244727000000000E+01      4.988861000000000E-01     -1.131953000000000E+02
4828000000.000000      6.155396000000000E-01      1.241309000000000E+01      4.983673000000000E-01     -1.137148000000000E+02
4829000000.000000      6.149292000000000E-01      1.266992000000000E+01      4.996490000000000E-01     -1.147187000000000E+02
4830000000.000000      6.164246000000000E-01      1.243213000000000E+01      4.989471000000000E-01     -1.153477000000000E+02
4831000000.000000      6.134338000000000E-01      1.263135000000000E+01      4.996338000000000E-01     -1.163828000000000E+02
4832000000.000000      6.138611000000000E-01      1.285498000000000E+01      5.005188000000000E-01     -1.169727000000000E+02
4833000000.000000      6.148682000000000E-01      1.289502000000000E+01      4.983521000000000E-01     -1.175312000000000E+02
4834000000.000000      6.135559000000000E-01      1.283301000000000E+01      4.982300000000000E-01     -1.183281000000000E+02
4835000000.000000      6.134338000000000E-01      1.316406000000000E+01      4.999390000000000E-01     -1.192031000000000E+02
4836000000.000000      6.143799000000000E-01      1.327930000000000E+01      4.980011000000000E-01     -1.198789000000000E+02
4837000000.000000      6.134644000000000E-01      1.363672000000000E+01      4.962769000000000E-01     -1.209570000000000E+02
4838000000.000000      6.144104000000000E-01      1.361572000000000E+01      4.971924000000000E-01     -1.214375000000000E+02
4839000000.000000      6.162109000000000E-01      1.372705000000000E+01      4.972992000000000E-01     -1.221016000000000E+02
4840000000.000000      6.155396000000000E-01      1.369287000000000E+01      4.969330000000000E-01     -1.230625000000000E+02
4841000000.000000      6.152954000000000E-01      1.379443000000000E+01      4.959717000000000E-01     -1.239687000000000E+02
4842000000.000000      6.170349000000000E-01      1.382617000000000E+01      4.951782000000000E-01     -1.248203000000000E+02
4843000000.000000      6.193848000000000E-01      1.396631000000000E+01      4.963684000000000E-01     -1.256094000000000E+02
4844000000.000000      6.181030000000000E-01      1.401416000000000E+01      4.929047000000000E-01     -1.264141000000000E+02
4845000000.000000      6.200562000000000E-01      1.423926000000000E+01      4.931030000000000E-01     -1.271484000000000E+02
4846000000.000000      6.193237000000000E-01      1.419287000000000E+01      4.910889000000000E-01     -1.280000000000000E+02
4847000000.000000      6.214600000000000E-01      1.440820000000000E+01      4.893188000000000E-01     -1.288047000000000E+02
4848000000.000000      6.206665000000000E-01      1.443994000000000E+01      4.876404000000000E-01     -1.296953000000000E+02
4849000000.000000      6.205444000000000E-01      1.457324000000000E+01      4.877930000000000E-01     -1.303516000000000E+02
4850000000.000000      6.229248000000000E-01      1.441504000000000E+01      4.850311000000000E-01     -1.314844000000000E+02
4851000000.000000      6.245117000000000E-01      1.475977000000000E+01      4.861908000000000E-01     -1.322031000000000E+02
4852000000.000000      6.243286000000000E-01      1.469531000000000E+01      4.826355000000000E-01     -1.331250000000000E+02
4853000000.000000      6.268921000000000E-01      1.473242000000000E+01      4.775085000000000E-01     -1.339844000000000E+02
4854000000.000000      6.273193000000000E-01      1.482568000000000E+01      4.773254000000000E-01     -1.349609000000000E+02
4855000000.000000      6.264648000000000E-01      1.481885000000000E+01      4.754639000000000E-01     -1.358203000000000E+02
4856000000.000000      6.278687000000000E-01      1.493555000000000E+01      4.724121000000000E-01     -1.366250000000000E+02
4857000000.000000      6.314697000000000E-01      1.489453000000000E+01      4.707031000000000E-01     -1.372813000000000E+02
4858000000.000000      6.293030000000000E-01      1.482324000000000E+01      4.675293000000000E-01     -1.382422000000000E+02
4859000000.000000      6.321411000000000E-01      1.497266000000000E+01      4.659271000000000E-01     -1.390781000000000E+02
4860000000.000000      6.324158000000000E-01      1.499902000000000E+01      4.624329000000000E-01     -1.399844000000000E+02
4861000000.000000      6.337585000000000E-01      1.476270000000000E+01      4.590607000000000E-01     -1.409922000000000E+02
4862000000.000000      6.353149000000000E-01      1.494824000000000E+01      4.552917000000000E-01     -1.415937000000000E+02
4863000000.000000      6.361084000000000E-01      1.516797000000000E+01      4.531097000000000E-01     -1.424766000000000E+02
4864000000.000000      6.388550000000000E-01      1.510059000000000E+01      4.505463000000000E-01     -1.431562000000000E+02
4865000000.000000      6.382446000000000E-01      1.495361000000000E+01      4.455872000000000E-01     -1.439219000000000E+02
4866000000.000000      6.405029000000000E-01      1.493994000000000E+01      4.411469000000000E-01     -1.447578000000000E+02
4867000000.000000      6.402893000000000E-01      1.502637000000000E+01      4.377747000000000E-01     -1.456875000000000E+02
4868000000.000000      6.423340000000000E-01      1.482324000000000E+01      4.339905000000000E-01     -1.465156000000000E+02
4869000000.000000      6.427307000000000E-01      1.497021000000000E+01      4.297638000000000E-01     -1.472734000000000E+02
4870000000.000000      6.451111000000000E-01      1.490430000000000E+01      4.249115000000000E-01     -1.477656000000000E+02
4871000000.000000      6.442566000000000E-01      1.481055000000000E+01      4.200897000000000E-01     -1.488047000000000E+02
4872000000.000000      6.477966000000000E-01      1.478320000000000E+01      4.168549000000000E-01     -1.492422000000000E+02
4873000000.000000      6.481934000000000E-01      1.466943000000000E+01      4.114227000000000E-01     -1.499297000000000E+02
4874000000.000000      6.495361000000000E-01      1.486816000000000E+01      4.096375000000000E-01     -1.506875000000000E+02
4875000000.000000      6.509705000000000E-01      1.462402000000000E+01      4.026031000000000E-01     -1.512578000000000E+02
4876000000.000000      6.527100000000000E-01      1.459521000000000E+01      3.996429000000000E-01     -1.520078000000000E+02
4877000000.000000      6.535950000000000E-01      1.456641000000000E+01      3.955231000000000E-01     -1.527578000000000E+02
4878000000.000000      6.542969000000000E-01      1.458984000000000E+01      3.913269000000000E-01     -1.531563000000000E+02
4879000000.000000      6.560364000000000E-01      1.457715000000000E+01      3.855286000000000E-01     -1.540078000000000E+02
4880000000.000000      6.591797000000000E-01      1.454150000000000E+01      3.808899000000000E-01     -1.544062000000000E+02
4881000000.000000      6.585083000000000E-01      1.438477000000000E+01      3.772583000000000E-01     -1.551250000000000E+02
4882000000.000000      6.612244000000000E-01      1.435889000000000E+01      3.727264000000000E-01     -1.554922000000000E+02
4883000000.000000      6.615295000000000E-01      1.420654000000000E+01      3.668213000000000E-01     -1.563047000000000E+02
4884000000.000000      6.632385000000000E-01      1.437402000000000E+01      3.645630000000000E-01     -1.566328000000000E+02
4885000000.000000      6.638184000000000E-01      1.412842000000000E+01      3.597870000000000E-01     -1.568906000000000E+02
4886000000.000000      6.649475000000000E-01      1.407178000000000E+01      3.560791000000000E-01     -1.574453000000000E+02
4887000000.000000      6.652222000000000E-01      1.403076000000000E+01      3.517151000000000E-01     -1.579766000000000E+02
4888000000.000000      6.683960000000000E-01      1.380273000000000E+01      3.486481000000000E-01     -1.585703000000000E+02
4889000000.000000      6.669006000000000E-01      1.382471000000000E+01      3.416443000000000E-01     -1.589297000000000E+02
4890000000.000000      6.664429000000000E-01      1.371777000000000E+01      3.379822000000000E-01     -1.598203000000000E+02
4891000000.000000      6.705933000000000E-01      1.369678000000000E+01      3.341675000000000E-01     -1.597891000000000E+02
4892000000.000000      6.713867000000000E-01      1.362012000000000E+01      3.300323000000000E-01     -1.600000000000000E+02
4893000000.000000      6.718750000000000E-01      1.345947000000000E+01      3.269501000000000E-01     -1.607188000000000E+02
4894000000.000000      6.729431000000000E-01      1.348975000000000E+01      3.222351000000000E-01     -1.611875000000000E+02
4895000000.000000      6.725769000000000E-01      1.323291000000000E+01      3.198395000000000E-01     -1.614297000000000E+02
4896000000.000000      6.761169000000000E-01      1.319971000000000E+01      3.153992000000000E-01     -1.617656000000000E+02
4897000000.000000      6.754456000000000E-01      1.302686000000000E+01      3.107758000000000E-01     -1.622656000000000E+02
4898000000.000000      6.779785000000000E-01      1.301318000000000E+01      3.076782000000000E-01     -1.625156000000000E+02
4899000000.000000      6.767883000000000E-01      1.298145000000000E+01      3.037720000000000E-01     -1.630469000000000E+02
4900000000.000000      6.795654000000000E-01      1.279492000000000E+01      3.001404000000000E-01     -1.632969000000000E+02
4901000000.000000      6.799011000000000E-01      1.289063000000000E+01      2.968597000000000E-01     -1.635703000000000E+02
4902000000.000000      6.788635000000000E-01      1.272314000000000E+01      2.937164000000000E-01     -1.637969000000000E+02
4903000000.000000      6.803284000000000E-01      1.278906000000000E+01      2.884521000000000E-01     -1.641250000000000E+02
4904000000.000000      6.802063000000000E-01      1.236768000000000E+01      2.849274000000000E-01     -1.645703000000000E+02
4905000000.000000      6.822815000000000E-01      1.239941000000000E+01      2.826233000000000E-01     -1.649141000000000E+02
4906000000.000000      6.824646000000000E-01      1.225635000000000E+01      2.779541000000000E-01     -1.650938000000000E+02
4907000000.000000      6.822815000000000E-01      1.216309000000000E+01      2.756348000000000E-01     -1.656328000000000E+02
4908000000.000000      6.855469000000000E-01      1.197363000000000E+01      2.721405000000000E-01     -1.659375000000000E+02
4909000000.000000      6.851501000000000E-01      1.192383000000000E+01      2.683563000000000E-01     -1.662422000000000E+02
4910000000.000000      6.826782000000000E-01      1.225342000000000E+01      2.645264000000000E-01     -1.664297000000000E+02
4911000000.000000      6.865234000000000E-01      1.194873000000000E+01      2.614136000000000E-01     -1.667734000000000E+02
4912000000.000000      6.877441000000000E-01      1.169727000000000E+01      2.576294000000000E-01     -1.671719000000000E+02
4913000000.000000      6.888733000000000E-01      1.157666000000000E+01      2.540131000000000E-01     -1.674766000000000E+02
4914000000.000000      6.878967000000000E-01      1.153662000000000E+01      2.510071000000000E-01     -1.677109000000000E+02
4915000000.000000      6.884155000000000E-01      1.141748000000000E+01      2.467194000000000E-01     -1.680703000000000E+02
4916000000.000000      6.881714000000000E-01      1.117822000000000E+01      2.436905000000000E-01     -1.683594000000000E+02
4917000000.000000      6.904297000000000E-01      1.127051000000000E+01      2.398682000000000E-01     -1.684375000000000E+02
4918000000.000000      6.901855000000000E-01      1.111914000000000E+01      2.353439000000000E-01     -1.688594000000000E+02
4919000000.000000      6.900940000000000E-01      1.097656000000000E+01      2.330093000000000E-01     -1.689219000000000E+02
4920000000.000000      6.921997000000000E-01      1.097119000000000E+01      2.285767000000000E-01     -1.695000000000000E+02
4921000000.000000      6.899414000000000E-01      1.092969000000000E+01      2.258148000000000E-01     -1.695391000000000E+02
4922000000.000000      6.910706000000000E-01      1.074463000000000E+01      2.215424000000000E-01     -1.696719000000000E+02
4923000000.000000      6.914063000000000E-01      1.035303000000000E+01      2.175217000000000E-01     -1.698359000000000E+02
4924000000.000000      6.947327000000000E-01      1.054688000000000E+01      2.142944000000000E-01     -1.701562000000000E+02
4925000000.000000      6.920471000000000E-01      1.052881000000000E+01      2.105103000000000E-01     -1.702344000000000E+02
4926000000.000000      6.950989000000000E-01      1.019922000000000E+01      2.069702000000000E-01     -1.703438000000000E+02
4927000000.000000      6.938477000000000E-01      1.007959000000000E+01      2.030334000000000E-01     -1.705859000000000E+02
4928000000.000000      6.950989000000000E-01      1.015918000000000E+01      1.992950000000000E-01     -1.706172000000000E+02
4929000000.000000      6.962280000000000E-01      9.938477000000000E+00      1.955032000000000E-01     -1.706250000000000E+02
4930000000.000000      6.958008000000000E-01      1.000000000000000E+01      1.921310000000000E-01     -1.708750000000000E+02
4931000000.000000      6.964722000000000E-01      9.733887000000000E+00      1.885376000000000E-01     -1.706484000000000E+02
4932000000.000000      6.970520000000000E-01      9.898438000000000E+00      1.845245000000000E-01     -1.707500000000000E+02
4933000000.000000      6.966248000000000E-01      9.640137000000000E+00      1.798477000000000E-01     -1.705391000000000E+02
4934000000.000000      6.984558000000000E-01      9.527832000000000E+00      1.769409000000000E-01     -1.706250000000000E+02
4935000000.000000      6.995850000000000E-01      9.538574000000000E+00      1.732025000000000E-01     -1.700547000000000E+02
4936000000.000000      6.982422000000000E-01      9.235352000000000E+00      1.691742000000000E-01     -1.702109000000000E+02
4937000000.000000      7.000122000000000E-01      9.207520000000000E+00      1.652603000000000E-01     -1.702031000000000E+02
4938000000.000000      6.978455000000000E-01      9.176270000000000E+00      1.621246000000000E-01     -1.696250000000000E+02
4939000000.000000      7.002563000000000E-01      9.053711000000000E+00      1.585083000000000E-01     -1.692422000000000E+02
4940000000.000000      6.996155000000000E-01      8.860352000000000E+00      1.544418000000000E-01     -1.690234000000000E+02
4941000000.000000      7.012939000000000E-01      8.705078000000000E+00      1.515350000000000E-01     -1.684844000000000E+02
4942000000.000000      6.991577000000000E-01      8.627930000000000E+00      1.477966000000000E-01     -1.680234000000000E+02
4943000000.000000      7.017517000000000E-01      8.718750000000000E+00      1.443558000000000E-01     -1.675234000000000E+02
4944000000.000000      7.023315000000000E-01      8.459473000000000E+00      1.411972000000000E-01     -1.669765000000000E+02
4945000000.000000      7.025757000000000E-01      8.361816000000000E+00      1.372986000000000E-01     -1.662500000000000E+02
4946000000.000000      7.044067000000000E-01      8.473145000000000E+00      1.347122000000000E-01     -1.653594000000000E+02
4947000000.000000      7.036133000000000E-01      8.361816000000000E+00      1.311340000000000E-01     -1.645703000000000E+02
4948000000.000000      7.039795000000000E-01      8.209473000000000E+00      1.280136000000000E-01     -1.635859000000000E+02
4949000000.000000      7.034302000000000E-01      7.985596000000000E+00      1.258316000000000E-01     -1.623125000000000E+02
4950000000.000000      7.037354000000000E-01      8.036133000000000E+00      1.227760000000000E-01     -1.613359000000000E+02
4951000000.000000      7.063599000000000E-01      7.918213000000000E+00      1.204033000000000E-01     -1.603750000000000E+02
4952000000.000000      7.055969000000000E-01      7.856445000000000E+00      1.176796000000000E-01     -1.590547000000000E+02
4953000000.000000      7.061768000000000E-01      7.504883000000000E+00      1.161041000000000E-01     -1.574844000000000E+02
4954000000.000000      7.078857000000000E-01      7.562500000000000E+00      1.136017000000000E-01     -1.559375000000000E+02
