! Network Analyzer HP8722D
! Hewlett-Packard
! Data name: Linha & Wilkinson
! Saver's name: Rodrigo Anjos
! Comments: Teste da utilização de aquisição
continua pelo VNA HP8722D
! Time and date: 22/5/2025 08:40
!              Frequency                     S11                                                   S21                                                   S12                                                   S22
# HZ  S  MA R 50
4800000000.000000      6.475830000000000E-01      1.013330000000000E+01      4.755402000000000E-01     -9.377733000000000E+01
4801000000.000000      6.454773000000000E-01      1.025293000000000E+01      4.769592000000000E-01     -9.442968000000000E+01
4802000000.000000      6.435547000000000E-01      1.031299000000000E+01      4.775238000000000E-01     -9.506250000000000E+01
4803000000.000000      6.421204000000000E-01      1.018701000000000E+01      4.807281000000000E-01     -9.601171000000000E+01
4804000000.000000      6.393127000000000E-01      1.034180000000000E+01      4.807739000000000E-01     -9.669531000000000E+01
4805000000.000000      6.405640000000000E-01      1.019775000000000E+01      4.830627000000000E-01     -9.730469000000000E+01
4806000000.000000      6.386414000000000E-01      1.016895000000000E+01      4.835815000000000E-01     -9.823828000000000E+01
4807000000.000000      6.344910000000000E-01      1.033398000000000E+01      4.858704000000000E-01     -9.912889000000000E+01
4808000000.000000      6.331787000000000E-01      1.030762000000000E+01      4.876709000000000E-01     -9.982422000000000E+01
4809000000.000000      6.308594000000000E-01      1.044775000000000E+01      4.893951000000000E-01     -1.005078000000000E+02
4810000000.000000      6.305847000000000E-01      1.041211000000000E+01      4.921570000000000E-01     -1.010742000000000E+02
4811000000.000000      6.284180000000000E-01      1.041504000000000E+01      4.912109000000000E-01     -1.020391000000000E+02
4812000000.000000      6.277771000000000E-01      1.064697000000000E+01      4.932556000000000E-01     -1.027148000000000E+02
4813000000.000000      6.281738000000000E-01      1.064697000000000E+01      4.931335000000000E-01     -1.036328000000000E+02
4814000000.000000      6.246033000000000E-01      1.054541000000000E+01      4.939270000000000E-01     -1.041484000000000E+02
4815000000.000000      6.233521000000000E-01      1.075928000000000E+01      4.948883000000000E-01     -1.051641000000000E+02
4816000000.000000      6.242065000000000E-01      1.078027000000000E+01      4.956970000000000E-01     -1.059258000000000E+02
4817000000.000000      6.221619000000000E-01      1.096436000000000E+01      4.960175000000000E-01     -1.067266000000000E+02
4818000000.000000      6.218262000000000E-01      1.076367000000000E+01      4.963684000000000E-01     -1.074375000000000E+02
4819000000.000000      6.202698000000000E-01      1.098047000000000E+01      4.964752000000000E-01     -1.081211000000000E+02
4820000000.000000      6.170044000000000E-01      1.116064000000000E+01      4.982147000000000E-01     -1.087461000000000E+02
4821000000.000000      6.174011000000000E-01      1.124268000000000E+01      4.992371000000000E-01     -1.095664000000000E+02
4822000000.000000      6.151428000000000E-01      1.107422000000000E+01      4.985504000000000E-01     -1.103711000000000E+02
4823000000.000000      6.157532000000000E-01      1.127051000000000E+01      4.996796000000000E-01     -1.110820000000000E+02
4824000000.000000      6.152344000000000E-01      1.165479000000000E+01      4.988556000000000E-01     -1.117695000000000E+02
4825000000.000000      6.137695000000000E-01      1.143506000000000E+01      5.003357000000000E-01     -1.124687000000000E+02
4826000000.000000      6.123352000000000E-01      1.156299000000000E+01      5.003662000000000E-01     -1.134922000000000E+02
4827000000.000000      6.135254000000000E-01      1.176904000000000E+01      4.997711000000000E-01     -1.142070000000000E+02
4828000000.000000      6.138916000000000E-01      1.195410000000000E+01      5.004578000000000E-01     -1.146992000000000E+02
4829000000.000000      6.116638000000000E-01      1.219727000000000E+01      5.016785000000000E-01     -1.156445000000000E+02
4830000000.000000      6.124573000000000E-01      1.215771000000000E+01      5.005798000000000E-01     -1.162930000000000E+02
4831000000.000000      6.104431000000000E-01      1.214941000000000E+01      5.009155000000000E-01     -1.172852000000000E+02
4832000000.000000      6.126404000000000E-01      1.250488000000000E+01      4.992981000000000E-01     -1.178555000000000E+02
4833000000.000000      6.099854000000000E-01      1.242822000000000E+01      4.990082000000000E-01     -1.184727000000000E+02
4834000000.000000      6.111755000000000E-01      1.250244000000000E+01      4.987793000000000E-01     -1.194258000000000E+02
4835000000.000000      6.113281000000000E-01      1.245020000000000E+01      5.001221000000000E-01     -1.201133000000000E+02
4836000000.000000      6.119385000000000E-01      1.282227000000000E+01      4.979858000000000E-01     -1.209219000000000E+02
4837000000.000000      6.106567000000000E-01      1.310352000000000E+01      4.976044000000000E-01     -1.221172000000000E+02
4838000000.000000      6.128235000000000E-01      1.313232000000000E+01      4.973602000000000E-01     -1.224180000000000E+02
4839000000.000000      6.154175000000000E-01      1.314063000000000E+01      4.971161000000000E-01     -1.232461000000000E+02
4840000000.000000      6.129456000000000E-01      1.299512000000000E+01      4.973755000000000E-01     -1.240820000000000E+02
4841000000.000000      6.155090000000000E-01      1.344141000000000E+01      4.960785000000000E-01     -1.250000000000000E+02
4842000000.000000      6.142883000000000E-01      1.326172000000000E+01      4.955597000000000E-01     -1.257265000000000E+02
4843000000.000000      6.156921000000000E-01      1.341113000000000E+01      4.962158000000000E-01     -1.266836000000000E+02
4844000000.000000      6.153870000000000E-01      1.336035000000000E+01      4.926147000000000E-01     -1.275508000000000E+02
4845000000.000000      6.165771000000000E-01      1.382764000000000E+01      4.927216000000000E-01     -1.280156000000000E+02
4846000000.000000      6.192932000000000E-01      1.379736000000000E+01      4.912720000000000E-01     -1.288984000000000E+02
4847000000.000000      6.186523000000000E-01      1.375342000000000E+01      4.890594000000000E-01     -1.297266000000000E+02
4848000000.000000      6.190796000000000E-01      1.377393000000000E+01      4.864197000000000E-01     -1.307188000000000E+02
4849000000.000000      6.199646000000000E-01      1.383984000000000E+01      4.865112000000000E-01     -1.315078000000000E+02
4850000000.000000      6.208191000000000E-01      1.405518000000000E+01      4.837494000000000E-01     -1.322891000000000E+02
4851000000.000000      6.218262000000000E-01      1.404736000000000E+01      4.837952000000000E-01     -1.334766000000000E+02
4852000000.000000      6.227417000000000E-01      1.420215000000000E+01      4.818268000000000E-01     -1.341094000000000E+02
4853000000.000000      6.241760000000000E-01      1.429590000000000E+01      4.777679000000000E-01     -1.348984000000000E+02
4854000000.000000      6.251221000000000E-01      1.420508000000000E+01      4.749603000000000E-01     -1.358906000000000E+02
4855000000.000000      6.266785000000000E-01      1.426025000000000E+01      4.736023000000000E-01     -1.367031000000000E+02
4856000000.000000      6.259155000000000E-01      1.431494000000000E+01      4.699860000000000E-01     -1.373516000000000E+02
4857000000.000000      6.270142000000000E-01      1.443994000000000E+01      4.696045000000000E-01     -1.381641000000000E+02
4858000000.000000      6.297913000000000E-01      1.424609000000000E+01      4.667816000000000E-01     -1.390234000000000E+02
4859000000.000000      6.298523000000000E-01      1.428223000000000E+01      4.643860000000000E-01     -1.400703000000000E+02
4860000000.000000      6.331787000000000E-01      1.444824000000000E+01      4.592743000000000E-01     -1.408203000000000E+02
4861000000.000000      6.327209000000000E-01      1.443311000000000E+01      4.576874000000000E-01     -1.419141000000000E+02
4862000000.000000      6.338806000000000E-01      1.445215000000000E+01      4.531403000000000E-01     -1.425390000000000E+02
4863000000.000000      6.358948000000000E-01      1.448682000000000E+01      4.486084000000000E-01     -1.433984000000000E+02
4864000000.000000      6.380005000000000E-01      1.452100000000000E+01      4.470673000000000E-01     -1.440703000000000E+02
4865000000.000000      6.376648000000000E-01      1.430811000000000E+01      4.426270000000000E-01     -1.448281000000000E+02
4866000000.000000      6.389771000000000E-01      1.441797000000000E+01      4.380951000000000E-01     -1.457422000000000E+02
4867000000.000000      6.389160000000000E-01      1.434912000000000E+01      4.349670000000000E-01     -1.467187000000000E+02
4868000000.000000      6.418457000000000E-01      1.415137000000000E+01      4.311371000000000E-01     -1.472500000000000E+02
4869000000.000000      6.445923000000000E-01      1.431201000000000E+01      4.263153000000000E-01     -1.479766000000000E+02
4870000000.000000      6.445313000000000E-01      1.426709000000000E+01      4.226074000000000E-01     -1.484844000000000E+02
4871000000.000000      6.449890000000000E-01      1.406934000000000E+01      4.181061000000000E-01     -1.495156000000000E+02
4872000000.000000      6.470947000000000E-01      1.423389000000000E+01      4.133606000000000E-01     -1.500859000000000E+02
4873000000.000000      6.483154000000000E-01      1.412402000000000E+01      4.108887000000000E-01     -1.508906000000000E+02
4874000000.000000      6.493225000000000E-01      1.420801000000000E+01      4.049530000000000E-01     -1.513281000000000E+02
4875000000.000000      6.512451000000000E-01      1.415039000000000E+01      4.006500000000000E-01     -1.520781000000000E+02
4876000000.000000      6.524353000000000E-01      1.430420000000000E+01      3.966827000000000E-01     -1.527969000000000E+02
4877000000.000000      6.535339000000000E-01      1.382324000000000E+01      3.921509000000000E-01     -1.534609000000000E+02
4878000000.000000      6.560669000000000E-01      1.383008000000000E+01      3.882904000000000E-01     -1.541953000000000E+02
4879000000.000000      6.570740000000000E-01      1.403320000000000E+01      3.816681000000000E-01     -1.544375000000000E+02
4880000000.000000      6.575623000000000E-01      1.381348000000000E+01      3.796692000000000E-01     -1.552734000000000E+02
4881000000.000000      6.597900000000000E-01      1.372705000000000E+01      3.752594000000000E-01     -1.555234000000000E+02
4882000000.000000      6.612244000000000E-01      1.380273000000000E+01      3.705902000000000E-01     -1.562969000000000E+02
4883000000.000000      6.612854000000000E-01      1.377539000000000E+01      3.641968000000000E-01     -1.567188000000000E+02
4884000000.000000      6.641541000000000E-01      1.373828000000000E+01      3.615875000000000E-01     -1.572891000000000E+02
4885000000.000000      6.634827000000000E-01      1.362305000000000E+01      3.570099000000000E-01     -1.577344000000000E+02
4886000000.000000      6.647034000000000E-01      1.358301000000000E+01      3.530579000000000E-01     -1.583203000000000E+02
4887000000.000000      6.672974000000000E-01      1.346338000000000E+01      3.498688000000000E-01     -1.588906000000000E+02
4888000000.000000      6.679382000000000E-01      1.326416000000000E+01      3.454132000000000E-01     -1.593203000000000E+02
4889000000.000000      6.681213000000000E-01      1.340332000000000E+01      3.388824000000000E-01     -1.596250000000000E+02
4890000000.000000      6.678467000000000E-01      1.323145000000000E+01      3.355103000000000E-01     -1.602266000000000E+02
4891000000.000000      6.713867000000000E-01      1.310645000000000E+01      3.314362000000000E-01     -1.605781000000000E+02
4892000000.000000      6.708679000000000E-01      1.302002000000000E+01      3.280792000000000E-01     -1.607578000000000E+02
4893000000.000000      6.732483000000000E-01      1.296484000000000E+01      3.236084000000000E-01     -1.612813000000000E+02
4894000000.000000      6.718750000000000E-01      1.291162000000000E+01      3.188019000000000E-01     -1.615625000000000E+02
4895000000.000000      6.739502000000000E-01      1.267529000000000E+01      3.175049000000000E-01     -1.621094000000000E+02
4896000000.000000      6.734009000000000E-01      1.248828000000000E+01      3.125458000000000E-01     -1.624375000000000E+02
4897000000.000000      6.756592000000000E-01      1.254639000000000E+01      3.089294000000000E-01     -1.627344000000000E+02
4898000000.000000      6.756897000000000E-01      1.236328000000000E+01      3.048096000000000E-01     -1.630625000000000E+02
4899000000.000000      6.765747000000000E-01      1.221240000000000E+01      3.016968000000000E-01     -1.635781000000000E+02
4900000000.000000      6.781006000000000E-01      1.218359000000000E+01      2.974243000000000E-01     -1.638359000000000E+02
4901000000.000000      6.776733000000000E-01      1.217139000000000E+01      2.942505000000000E-01     -1.641562000000000E+02
4902000000.000000      6.792297000000000E-01      1.194580000000000E+01      2.905731000000000E-01     -1.644297000000000E+02
4903000000.000000      6.795654000000000E-01      1.202832000000000E+01      2.865601000000000E-01     -1.647031000000000E+02
4904000000.000000      6.828003000000000E-01      1.185791000000000E+01      2.831421000000000E-01     -1.650703000000000E+02
4905000000.000000      6.811523000000000E-01      1.173584000000000E+01      2.805176000000000E-01     -1.654609000000000E+02
4906000000.000000      6.805420000000000E-01      1.172754000000000E+01      2.762146000000000E-01     -1.655859000000000E+02
4907000000.000000      6.838379000000000E-01      1.146973000000000E+01      2.731628000000000E-01     -1.659765000000000E+02
4908000000.000000      6.849670000000000E-01      1.140088000000000E+01      2.698364000000000E-01     -1.664922000000000E+02
4909000000.000000      6.834717000000000E-01      1.139258000000000E+01      2.656250000000000E-01     -1.666875000000000E+02
4910000000.000000      6.856384000000000E-01      1.125244000000000E+01      2.624054000000000E-01     -1.669375000000000E+02
4911000000.000000      6.874695000000000E-01      1.128564000000000E+01      2.597198000000000E-01     -1.672812000000000E+02
4912000000.000000      6.860046000000000E-01      1.108887000000000E+01      2.555084000000000E-01     -1.676953000000000E+02
4913000000.000000      6.867065000000000E-01      1.097363000000000E+01      2.513733000000000E-01     -1.677969000000000E+02
4914000000.000000      6.871033000000000E-01      1.085303000000000E+01      2.483368000000000E-01     -1.681094000000000E+02
4915000000.000000      6.880798000000000E-01      1.082666000000000E+01      2.448502000000000E-01     -1.684766000000000E+02
4916000000.000000      6.887817000000000E-01      1.069092000000000E+01      2.411652000000000E-01     -1.688516000000000E+02
4917000000.000000      6.879578000000000E-01      1.054541000000000E+01      2.374268000000000E-01     -1.689766000000000E+02
4918000000.000000      6.916504000000000E-01      1.043701000000000E+01      2.337799000000000E-01     -1.693281000000000E+02
4919000000.000000      6.889343000000000E-01      1.034326000000000E+01      2.312088000000000E-01     -1.692969000000000E+02
4920000000.000000      6.909790000000000E-01      1.022803000000000E+01      2.268677000000000E-01     -1.697500000000000E+02
4921000000.000000      6.922607000000000E-01      1.018262000000000E+01      2.236557000000000E-01     -1.697109000000000E+02
4922000000.000000      6.900635000000000E-01      9.947754000000000E+00      2.196045000000000E-01     -1.698828000000000E+02
4923000000.000000      6.923828000000000E-01      1.008105000000000E+01      2.157288000000000E-01     -1.699453000000000E+02
4924000000.000000      6.919861000000000E-01      9.912109000000000E+00      2.117615000000000E-01     -1.704297000000000E+02
4925000000.000000      6.912537000000000E-01      9.792480000000000E+00      2.086792000000000E-01     -1.704609000000000E+02
4926000000.000000      6.943970000000000E-01      9.773438000000000E+00      2.047272000000000E-01     -1.706250000000000E+02
4927000000.000000      6.935120000000000E-01      9.531738000000000E+00      2.005157000000000E-01     -1.707422000000000E+02
4928000000.000000      6.953430000000000E-01      9.504395000000000E+00      1.975632000000000E-01     -1.706719000000000E+02
4929000000.000000      6.947632000000000E-01      9.411133000000000E+00      1.934433000000000E-01     -1.707422000000000E+02
4930000000.000000      6.952209000000000E-01      9.302246000000000E+00      1.897049000000000E-01     -1.708047000000000E+02
4931000000.000000      6.968689000000000E-01      9.220215000000000E+00      1.867523000000000E-01     -1.708750000000000E+02
4932000000.000000      6.982727000000000E-01      9.110352000000000E+00      1.823196000000000E-01     -1.707969000000000E+02
4933000000.000000      6.980896000000000E-01      9.071777000000000E+00      1.783218000000000E-01     -1.705625000000000E+02
4934000000.000000      6.973877000000000E-01      8.796875000000000E+00      1.747589000000000E-01     -1.706016000000000E+02
4935000000.000000      6.994934000000000E-01      8.808105000000000E+00      1.715164000000000E-01     -1.701953000000000E+02
4936000000.000000      6.960754000000000E-01      8.610352000000000E+00      1.669540000000000E-01     -1.700469000000000E+02
4937000000.000000      6.992798000000000E-01      8.486816000000000E+00      1.637573000000000E-01     -1.698594000000000E+02
4938000000.000000      6.965332000000000E-01      8.774902000000000E+00      1.600189000000000E-01     -1.693984000000000E+02
4939000000.000000      6.972351000000000E-01      8.702148000000000E+00      1.563873000000000E-01     -1.690781000000000E+02
4940000000.000000      7.000122000000000E-01      8.265625000000000E+00      1.528549000000000E-01     -1.688203000000000E+02
4941000000.000000      7.015076000000000E-01      8.198242000000000E+00      1.494522000000000E-01     -1.682344000000000E+02
4942000000.000000      7.000427000000000E-01      8.184570000000000E+00      1.456299000000000E-01     -1.678359000000000E+02
4943000000.000000      7.014160000000000E-01      8.194336000000000E+00      1.425400000000000E-01     -1.668750000000000E+02
4944000000.000000      7.011414000000000E-01      7.940186000000000E+00      1.391449000000000E-01     -1.662734000000000E+02
4945000000.000000      7.019653000000000E-01      7.800293000000000E+00      1.357040000000000E-01     -1.656094000000000E+02
4946000000.000000      7.012024000000000E-01      7.889404000000000E+00      1.334457000000000E-01     -1.648047000000000E+02
4947000000.000000      7.012939000000000E-01      7.568115000000000E+00      1.298676000000000E-01     -1.639297000000000E+02
4948000000.000000      7.045593000000000E-01      7.628418000000000E+00      1.273499000000000E-01     -1.630156000000000E+02
4949000000.000000      7.030334000000000E-01      7.357910000000000E+00      1.246681000000000E-01     -1.615156000000000E+02
4950000000.000000      7.064819000000000E-01      7.440430000000000E+00      1.221962000000000E-01     -1.606328000000000E+02
4951000000.000000      7.056274000000000E-01      7.239990000000000E+00      1.196518000000000E-01     -1.594531000000000E+02
4952000000.000000      7.052002000000000E-01      7.298828000000000E+00      1.168861000000000E-01     -1.580703000000000E+02
4953000000.000000      7.040100000000000E-01      7.005127000000000E+00      1.154747000000000E-01     -1.565469000000000E+02
4954000000.000000      7.051697000000000E-01      6.966553000000000E+00      1.133537000000000E-01     -1.550156000000000E+02
