! Network Analyzer HP8722D
! Hewlett-Packard
! Data name: Linha & Wilkinson
! Saver's name: Rodrigo Anjos
! Comments: Teste da utilização de aquisição
continua pelo VNA HP8722D
! Time and date: 22/5/2025 09:01
!              Frequency                     S11                                                   S21                                                   S12                                                   S22
# HZ  S  MA R 50
4800000000.000000      6.475525000000000E-01      1.030225000000000E+01      4.747314000000000E-01     -9.387110000000000E+01
4801000000.000000      6.451416000000000E-01      1.048340000000000E+01      4.764252000000000E-01     -9.431250000000000E+01
4802000000.000000      6.435242000000000E-01      1.017871000000000E+01      4.774628000000000E-01     -9.519140000000000E+01
4803000000.000000      6.410522000000000E-01      1.030225000000000E+01      4.802551000000000E-01     -9.579296000000000E+01
4804000000.000000      6.403503000000000E-01      1.025684000000000E+01      4.816132000000000E-01     -9.676561000000000E+01
4805000000.000000      6.409302000000000E-01      1.024609000000000E+01      4.841461000000000E-01     -9.747656000000000E+01
4806000000.000000      6.373901000000000E-01      1.014697000000000E+01      4.844513000000000E-01     -9.819921000000000E+01
4807000000.000000      6.342773000000000E-01      1.019092000000000E+01      4.864960000000000E-01     -9.913280000000000E+01
4808000000.000000      6.331482000000000E-01      1.033643000000000E+01      4.877014000000000E-01     -9.978125000000000E+01
4809000000.000000      6.329041000000000E-01      1.054102000000000E+01      4.893494000000000E-01     -1.006328000000000E+02
4810000000.000000      6.303711000000000E-01      1.046973000000000E+01      4.906769000000000E-01     -1.013594000000000E+02
4811000000.000000      6.299438000000000E-01      1.051367000000000E+01      4.917297000000000E-01     -1.021758000000000E+02
4812000000.000000      6.303406000000000E-01      1.073047000000000E+01      4.920959000000000E-01     -1.027773000000000E+02
4813000000.000000      6.261292000000000E-01      1.067285000000000E+01      4.930878000000000E-01     -1.038672000000000E+02
4814000000.000000      6.248474000000000E-01      1.066602000000000E+01      4.954071000000000E-01     -1.043398000000000E+02
4815000000.000000      6.227722000000000E-01      1.077588000000000E+01      4.957123000000000E-01     -1.051406000000000E+02
4816000000.000000      6.232910000000000E-01      1.081836000000000E+01      4.966278000000000E-01     -1.059453000000000E+02
4817000000.000000      6.212769000000000E-01      1.094629000000000E+01      4.963989000000000E-01     -1.065547000000000E+02
4818000000.000000      6.219482000000000E-01      1.094482000000000E+01      4.959564000000000E-01     -1.072383000000000E+02
4819000000.000000      6.181641000000000E-01      1.097803000000000E+01      4.979706000000000E-01     -1.080586000000000E+02
4820000000.000000      6.169128000000000E-01      1.118506000000000E+01      4.983368000000000E-01     -1.087187000000000E+02
4821000000.000000      6.177368000000000E-01      1.110693000000000E+01      4.989777000000000E-01     -1.095195000000000E+02
4822000000.000000      6.153564000000000E-01      1.132520000000000E+01      4.979858000000000E-01     -1.104766000000000E+02
4823000000.000000      6.159363000000000E-01      1.127588000000000E+01      4.992828000000000E-01     -1.109414000000000E+02
4824000000.000000      6.146240000000000E-01      1.163135000000000E+01      4.995728000000000E-01     -1.117969000000000E+02
4825000000.000000      6.134644000000000E-01      1.153418000000000E+01      4.988556000000000E-01     -1.126445000000000E+02
4826000000.000000      6.139526000000000E-01      1.154932000000000E+01      4.999084000000000E-01     -1.135156000000000E+02
4827000000.000000      6.134338000000000E-01      1.179785000000000E+01      5.007629000000000E-01     -1.140312000000000E+02
4828000000.000000      6.155701000000000E-01      1.201074000000000E+01      4.999390000000000E-01     -1.149141000000000E+02
4829000000.000000      6.119080000000000E-01      1.213965000000000E+01      5.002747000000000E-01     -1.155547000000000E+02
4830000000.000000      6.125488000000000E-01      1.234570000000000E+01      5.007629000000000E-01     -1.164648000000000E+02
4831000000.000000      6.112366000000000E-01      1.228809000000000E+01      5.015564000000000E-01     -1.171523000000000E+02
4832000000.000000      6.122131000000000E-01      1.261230000000000E+01      5.005798000000000E-01     -1.179609000000000E+02
4833000000.000000      6.101379000000000E-01      1.246777000000000E+01      4.997406000000000E-01     -1.185898000000000E+02
4834000000.000000      6.106567000000000E-01      1.261914000000000E+01      4.999847000000000E-01     -1.194336000000000E+02
4835000000.000000      6.107788000000000E-01      1.263965000000000E+01      4.983063000000000E-01     -1.203555000000000E+02
4836000000.000000      6.127930000000000E-01      1.272070000000000E+01      4.981842000000000E-01     -1.211523000000000E+02
4837000000.000000      6.120911000000000E-01      1.312305000000000E+01      4.970551000000000E-01     -1.220351000000000E+02
4838000000.000000      6.116333000000000E-01      1.300635000000000E+01      4.986115000000000E-01     -1.225195000000000E+02
4839000000.000000      6.156311000000000E-01      1.304590000000000E+01      4.980927000000000E-01     -1.233125000000000E+02
4840000000.000000      6.157227000000000E-01      1.328906000000000E+01      4.974060000000000E-01     -1.240781000000000E+02
4841000000.000000      6.138306000000000E-01      1.334814000000000E+01      4.968567000000000E-01     -1.249570000000000E+02
4842000000.000000      6.155701000000000E-01      1.345801000000000E+01      4.956360000000000E-01     -1.257813000000000E+02
4843000000.000000      6.171875000000000E-01      1.336182000000000E+01      4.948425000000000E-01     -1.264726000000000E+02
4844000000.000000      6.176758000000000E-01      1.353760000000000E+01      4.932861000000000E-01     -1.274414000000000E+02
4845000000.000000      6.174316000000000E-01      1.365576000000000E+01      4.930573000000000E-01     -1.283203000000000E+02
4846000000.000000      6.184998000000000E-01      1.373828000000000E+01      4.915314000000000E-01     -1.290703000000000E+02
4847000000.000000      6.201477000000000E-01      1.400732000000000E+01      4.900665000000000E-01     -1.298750000000000E+02
4848000000.000000      6.199646000000000E-01      1.384668000000000E+01      4.854736000000000E-01     -1.306797000000000E+02
4849000000.000000      6.197205000000000E-01      1.383984000000000E+01      4.867401000000000E-01     -1.316562000000000E+02
4850000000.000000      6.210632000000000E-01      1.411035000000000E+01      4.841003000000000E-01     -1.323906000000000E+02
4851000000.000000      6.249390000000000E-01      1.422412000000000E+01      4.835663000000000E-01     -1.332500000000000E+02
4852000000.000000      6.228638000000000E-01      1.421191000000000E+01      4.808807000000000E-01     -1.341172000000000E+02
4853000000.000000      6.234131000000000E-01      1.420898000000000E+01      4.775543000000000E-01     -1.349609000000000E+02
4854000000.000000      6.254272000000000E-01      1.427246000000000E+01      4.750977000000000E-01     -1.357812000000000E+02
4855000000.000000      6.272888000000000E-01      1.442188000000000E+01      4.740753000000000E-01     -1.367969000000000E+02
4856000000.000000      6.279602000000000E-01      1.421191000000000E+01      4.715424000000000E-01     -1.374453000000000E+02
4857000000.000000      6.300964000000000E-01      1.431641000000000E+01      4.688568000000000E-01     -1.382031000000000E+02
4858000000.000000      6.302490000000000E-01      1.435059000000000E+01      4.656067000000000E-01     -1.392187000000000E+02
4859000000.000000      6.306763000000000E-01      1.428320000000000E+01      4.630127000000000E-01     -1.400625000000000E+02
4860000000.000000      6.327515000000000E-01      1.451123000000000E+01      4.593506000000000E-01     -1.407891000000000E+02
4861000000.000000      6.324768000000000E-01      1.441260000000000E+01      4.564819000000000E-01     -1.418984000000000E+02
4862000000.000000      6.317444000000000E-01      1.433838000000000E+01      4.532166000000000E-01     -1.425547000000000E+02
4863000000.000000      6.359253000000000E-01      1.460205000000000E+01      4.480133000000000E-01     -1.433438000000000E+02
4864000000.000000      6.364136000000000E-01      1.436719000000000E+01      4.465332000000000E-01     -1.442031000000000E+02
4865000000.000000      6.387634000000000E-01      1.457324000000000E+01      4.427185000000000E-01     -1.447187000000000E+02
4866000000.000000      6.397095000000000E-01      1.442871000000000E+01      4.383698000000000E-01     -1.457109000000000E+02
4867000000.000000      6.387329000000000E-01      1.449463000000000E+01      4.345856000000000E-01     -1.465391000000000E+02
4868000000.000000      6.447144000000000E-01      1.437939000000000E+01      4.309387000000000E-01     -1.473281000000000E+02
4869000000.000000      6.430664000000000E-01      1.437256000000000E+01      4.259491000000000E-01     -1.480625000000000E+02
4870000000.000000      6.446533000000000E-01      1.430518000000000E+01      4.228821000000000E-01     -1.485625000000000E+02
4871000000.000000      6.458130000000000E-01      1.425439000000000E+01      4.179993000000000E-01     -1.494609000000000E+02
4872000000.000000      6.481018000000000E-01      1.429443000000000E+01      4.143982000000000E-01     -1.497656000000000E+02
4873000000.000000      6.479187000000000E-01      1.417627000000000E+01      4.097900000000000E-01     -1.508672000000000E+02
4874000000.000000      6.498413000000000E-01      1.434082000000000E+01      4.051819000000000E-01     -1.515547000000000E+02
4875000000.000000      6.502075000000000E-01      1.407861000000000E+01      3.994446000000000E-01     -1.520469000000000E+02
4876000000.000000      6.532288000000000E-01      1.413379000000000E+01      3.958893000000000E-01     -1.528047000000000E+02
4877000000.000000      6.531677000000000E-01      1.397852000000000E+01      3.919678000000000E-01     -1.535000000000000E+02
4878000000.000000      6.535339000000000E-01      1.371631000000000E+01      3.870697000000000E-01     -1.539297000000000E+02
4879000000.000000      6.568298000000000E-01      1.390039000000000E+01      3.824005000000000E-01     -1.545234000000000E+02
4880000000.000000      6.577759000000000E-01      1.397314000000000E+01      3.783417000000000E-01     -1.551250000000000E+02
4881000000.000000      6.592407000000000E-01      1.387549000000000E+01      3.751373000000000E-01     -1.556484000000000E+02
4882000000.000000      6.619873000000000E-01      1.389355000000000E+01      3.699646000000000E-01     -1.565625000000000E+02
4883000000.000000      6.607056000000000E-01      1.364746000000000E+01      3.647003000000000E-01     -1.569375000000000E+02
4884000000.000000      6.635742000000000E-01      1.371631000000000E+01      3.626099000000000E-01     -1.572266000000000E+02
4885000000.000000      6.646118000000000E-01      1.356641000000000E+01      3.571930000000000E-01     -1.577031000000000E+02
4886000000.000000      6.663513000000000E-01      1.359277000000000E+01      3.526154000000000E-01     -1.582266000000000E+02
4887000000.000000      6.658630000000000E-01      1.336328000000000E+01      3.490906000000000E-01     -1.588672000000000E+02
4888000000.000000      6.663818000000000E-01      1.341699000000000E+01      3.444061000000000E-01     -1.590703000000000E+02
4889000000.000000      6.684875000000000E-01      1.326416000000000E+01      3.398895000000000E-01     -1.598047000000000E+02
4890000000.000000      6.675110000000000E-01      1.302002000000000E+01      3.353882000000000E-01     -1.602813000000000E+02
4891000000.000000      6.687012000000000E-01      1.310254000000000E+01      3.322906000000000E-01     -1.605625000000000E+02
4892000000.000000      6.697388000000000E-01      1.302002000000000E+01      3.282776000000000E-01     -1.608281000000000E+02
4893000000.000000      6.731567000000000E-01      1.293457000000000E+01      3.229980000000000E-01     -1.614609000000000E+02
4894000000.000000      6.713867000000000E-01      1.283887000000000E+01      3.195648000000000E-01     -1.615313000000000E+02
4895000000.000000      6.755066000000000E-01      1.286182000000000E+01      3.167114000000000E-01     -1.621328000000000E+02
4896000000.000000      6.741333000000000E-01      1.272314000000000E+01      3.126526000000000E-01     -1.624766000000000E+02
4897000000.000000      6.735535000000000E-01      1.260498000000000E+01      3.083191000000000E-01     -1.628515000000000E+02
4898000000.000000      6.758423000000000E-01      1.252686000000000E+01      3.054657000000000E-01     -1.630547000000000E+02
4899000000.000000      6.765747000000000E-01      1.249268000000000E+01      3.007507000000000E-01     -1.634922000000000E+02
4900000000.000000      6.775208000000000E-01      1.233594000000000E+01      2.983246000000000E-01     -1.638281000000000E+02
4901000000.000000      6.786194000000000E-01      1.226172000000000E+01      2.939911000000000E-01     -1.641484000000000E+02
4902000000.000000      6.786804000000000E-01      1.189258000000000E+01      2.908173000000000E-01     -1.644063000000000E+02
4903000000.000000      6.787109000000000E-01      1.222607000000000E+01      2.862549000000000E-01     -1.648828000000000E+02
4904000000.000000      6.822205000000000E-01      1.188721000000000E+01      2.830963000000000E-01     -1.652578000000000E+02
4905000000.000000      6.791382000000000E-01      1.181982000000000E+01      2.805939000000000E-01     -1.655313000000000E+02
4906000000.000000      6.821899000000000E-01      1.174268000000000E+01      2.759552000000000E-01     -1.655078000000000E+02
4907000000.000000      6.831970000000000E-01      1.155176000000000E+01      2.730713000000000E-01     -1.660703000000000E+02
4908000000.000000      6.828918000000000E-01      1.137891000000000E+01      2.694244000000000E-01     -1.663672000000000E+02
4909000000.000000      6.845093000000000E-01      1.139404000000000E+01      2.653503000000000E-01     -1.667344000000000E+02
4910000000.000000      6.852722000000000E-01      1.142139000000000E+01      2.622986000000000E-01     -1.670078000000000E+02
4911000000.000000      6.844482000000000E-01      1.145166000000000E+01      2.593231000000000E-01     -1.672188000000000E+02
4912000000.000000      6.870422000000000E-01      1.125098000000000E+01      2.556000000000000E-01     -1.675313000000000E+02
4913000000.000000      6.868286000000000E-01      1.093799000000000E+01      2.518616000000000E-01     -1.678359000000000E+02
4914000000.000000      6.882629000000000E-01      1.064404000000000E+01      2.487183000000000E-01     -1.679688000000000E+02
4915000000.000000      6.875610000000000E-01      1.081836000000000E+01      2.447739000000000E-01     -1.685000000000000E+02
4916000000.000000      6.915588000000000E-01      1.066455000000000E+01      2.412033000000000E-01     -1.687109000000000E+02
4917000000.000000      6.888733000000000E-01      1.066602000000000E+01      2.379150000000000E-01     -1.689453000000000E+02
4918000000.000000      6.906433000000000E-01      1.030225000000000E+01      2.335892000000000E-01     -1.691953000000000E+02
4919000000.000000      6.896362000000000E-01      1.062061000000000E+01      2.309952000000000E-01     -1.692656000000000E+02
4920000000.000000      6.909180000000000E-01      1.007422000000000E+01      2.263107000000000E-01     -1.697500000000000E+02
4921000000.000000      6.881409000000000E-01      1.024023000000000E+01      2.229156000000000E-01     -1.698828000000000E+02
4922000000.000000      6.894226000000000E-01      1.001123000000000E+01      2.196121000000000E-01     -1.699609000000000E+02
4923000000.000000      6.911011000000000E-01      1.014160000000000E+01      2.155457000000000E-01     -1.700312000000000E+02
4924000000.000000      6.934204000000000E-01      1.000537000000000E+01      2.116013000000000E-01     -1.705703000000000E+02
4925000000.000000      6.915283000000000E-01      9.942383000000000E+00      2.082901000000000E-01     -1.705781000000000E+02
4926000000.000000      6.928406000000000E-01      9.759766000000000E+00      2.052002000000000E-01     -1.706016000000000E+02
4927000000.000000      6.933899000000000E-01      9.756836000000000E+00      2.002869000000000E-01     -1.707187000000000E+02
4928000000.000000      6.933899000000000E-01      9.499023000000000E+00      1.973572000000000E-01     -1.707344000000000E+02
4929000000.000000      6.957092000000000E-01      9.347656000000000E+00      1.928329000000000E-01     -1.706016000000000E+02
4930000000.000000      6.958618000000000E-01      9.380859000000000E+00      1.896210000000000E-01     -1.707813000000000E+02
4931000000.000000      6.962280000000000E-01      9.368164000000000E+00      1.863403000000000E-01     -1.707578000000000E+02
4932000000.000000      6.966858000000000E-01      9.151367000000000E+00      1.823196000000000E-01     -1.709063000000000E+02
4933000000.000000      6.980286000000000E-01      9.044434000000000E+00      1.778488000000000E-01     -1.705000000000000E+02
4934000000.000000      6.961975000000000E-01      8.916504000000000E+00      1.745453000000000E-01     -1.705547000000000E+02
4935000000.000000      6.968384000000000E-01      8.883789000000000E+00      1.708832000000000E-01     -1.702969000000000E+02
4936000000.000000      6.975708000000000E-01      8.784668000000000E+00      1.672821000000000E-01     -1.699922000000000E+02
4937000000.000000      6.984558000000000E-01      8.791504000000000E+00      1.637115000000000E-01     -1.697891000000000E+02
4938000000.000000      6.962891000000000E-01      8.729980000000000E+00      1.602783000000000E-01     -1.693594000000000E+02
4939000000.000000      7.010498000000000E-01      8.667969000000000E+00      1.567230000000000E-01     -1.691328000000000E+02
4940000000.000000      6.987000000000000E-01      8.532227000000000E+00      1.531219000000000E-01     -1.689219000000000E+02
4941000000.000000      6.990051000000000E-01      8.133789000000000E+00      1.494980000000000E-01     -1.681406000000000E+02
4942000000.000000      7.006226000000000E-01      8.143555000000000E+00      1.456680000000000E-01     -1.676328000000000E+02
4943000000.000000      7.011414000000000E-01      8.142090000000000E+00      1.427155000000000E-01     -1.670078000000000E+02
4944000000.000000      7.028809000000000E-01      7.993896000000000E+00      1.393204000000000E-01     -1.662031000000000E+02
4945000000.000000      7.017212000000000E-01      7.974609000000000E+00      1.358795000000000E-01     -1.655937000000000E+02
4946000000.000000      7.027283000000000E-01      7.859131000000000E+00      1.329117000000000E-01     -1.646797000000000E+02
4947000000.000000      7.035828000000000E-01      7.739746000000000E+00      1.299973000000000E-01     -1.636875000000000E+02
4948000000.000000      7.017517000000000E-01      7.668457000000000E+00      1.270905000000000E-01     -1.628203000000000E+02
4949000000.000000      7.038574000000000E-01      7.525635000000000E+00      1.243515000000000E-01     -1.616172000000000E+02
4950000000.000000      7.043457000000000E-01      7.378662000000000E+00      1.221390000000000E-01     -1.603828000000000E+02
4951000000.000000      7.051392000000000E-01      7.362061000000000E+00      1.198006000000000E-01     -1.594922000000000E+02
4952000000.000000      7.037964000000000E-01      7.290771000000000E+00      1.174164000000000E-01     -1.579375000000000E+02
4953000000.000000      7.040405000000000E-01      7.116211000000000E+00      1.151657000000000E-01     -1.564062000000000E+02
4954000000.000000      7.058411000000000E-01      6.992676000000000E+00      1.133041000000000E-01     -1.549453000000000E+02
