! Network Analyzer HP8722D
! Hewlett-Packard
! Data name: Linha & Wilkinson
! Saver's name: Rodrigo Anjos
! Comments: Teste da utilização de aquisição
continua pelo VNA HP8722D
! Time and date: 22/5/2025 10:20
!              Frequency                     S11                                                   S21                                                   S12                                                   S22
# HZ  S  MA R 50
4800000000.000000      6.464233000000000E-01      1.041357000000000E+01      4.743347000000000E-01     -9.382421000000000E+01
4801000000.000000      6.445313000000000E-01      1.051660000000000E+01      4.749298000000000E-01     -9.444921000000000E+01
4802000000.000000      6.432190000000000E-01      1.051221000000000E+01      4.770660000000000E-01     -9.507030000000000E+01
4803000000.000000      6.419678000000000E-01      1.038867000000000E+01      4.809723000000000E-01     -9.583593000000000E+01
4804000000.000000      6.401672000000000E-01      1.051367000000000E+01      4.820709000000000E-01     -9.663280000000000E+01
4805000000.000000      6.410828000000000E-01      1.039307000000000E+01      4.840546000000000E-01     -9.753906000000000E+01
4806000000.000000      6.360474000000000E-01      1.041748000000000E+01      4.840393000000000E-01     -9.823828000000000E+01
4807000000.000000      6.344299000000000E-01      1.050977000000000E+01      4.850616000000000E-01     -9.914843000000000E+01
4808000000.000000      6.335144000000000E-01      1.054395000000000E+01      4.878387000000000E-01     -9.964453000000000E+01
4809000000.000000      6.326294000000000E-01      1.058496000000000E+01      4.889832000000000E-01     -1.006562000000000E+02
4810000000.000000      6.308899000000000E-01      1.048096000000000E+01      4.902496000000000E-01     -1.012344000000000E+02
4811000000.000000      6.291809000000000E-01      1.061133000000000E+01      4.923248000000000E-01     -1.020508000000000E+02
4812000000.000000      6.299133000000000E-01      1.087354000000000E+01      4.916077000000000E-01     -1.029297000000000E+02
4813000000.000000      6.262207000000000E-01      1.084473000000000E+01      4.943542000000000E-01     -1.037930000000000E+02
4814000000.000000      6.260376000000000E-01      1.087354000000000E+01      4.948120000000000E-01     -1.042969000000000E+02
4815000000.000000      6.240845000000000E-01      1.101074000000000E+01      4.952087000000000E-01     -1.051094000000000E+02
4816000000.000000      6.236877000000000E-01      1.090918000000000E+01      4.963074000000000E-01     -1.056836000000000E+02
4817000000.000000      6.226807000000000E-01      1.117822000000000E+01      4.960480000000000E-01     -1.065937000000000E+02
4818000000.000000      6.197815000000000E-01      1.112744000000000E+01      4.958038000000000E-01     -1.072969000000000E+02
4819000000.000000      6.208801000000000E-01      1.120020000000000E+01      4.958344000000000E-01     -1.081914000000000E+02
4820000000.000000      6.179810000000000E-01      1.147217000000000E+01      4.972076000000000E-01     -1.086445000000000E+02
4821000000.000000      6.181030000000000E-01      1.137207000000000E+01      4.974976000000000E-01     -1.095781000000000E+02
4822000000.000000      6.162415000000000E-01      1.148877000000000E+01      4.968109000000000E-01     -1.101523000000000E+02
4823000000.000000      6.163025000000000E-01      1.143506000000000E+01      4.996033000000000E-01     -1.111484000000000E+02
4824000000.000000      6.166687000000000E-01      1.176318000000000E+01      4.988251000000000E-01     -1.119687000000000E+02
4825000000.000000      6.134644000000000E-01      1.167969000000000E+01      4.994812000000000E-01     -1.124961000000000E+02
4826000000.000000      6.142883000000000E-01      1.180469000000000E+01      5.001221000000000E-01     -1.133711000000000E+02
4827000000.000000      6.133423000000000E-01      1.195313000000000E+01      5.008545000000000E-01     -1.139766000000000E+02
4828000000.000000      6.142883000000000E-01      1.207080000000000E+01      5.007019000000000E-01     -1.147227000000000E+02
4829000000.000000      6.118164000000000E-01      1.239258000000000E+01      5.003052000000000E-01     -1.155664000000000E+02
4830000000.000000      6.139526000000000E-01      1.229736000000000E+01      5.007324000000000E-01     -1.164844000000000E+02
4831000000.000000      6.114807000000000E-01      1.240332000000000E+01      5.001831000000000E-01     -1.173281000000000E+02
4832000000.000000      6.107178000000000E-01      1.266406000000000E+01      4.994507000000000E-01     -1.176523000000000E+02
4833000000.000000      6.108093000000000E-01      1.266016000000000E+01      4.999390000000000E-01     -1.185312000000000E+02
4834000000.000000      6.104431000000000E-01      1.269580000000000E+01      4.994202000000000E-01     -1.193516000000000E+02
4835000000.000000      6.134949000000000E-01      1.277002000000000E+01      4.989777000000000E-01     -1.202305000000000E+02
4836000000.000000      6.123352000000000E-01      1.307373000000000E+01      4.984894000000000E-01     -1.208281000000000E+02
4837000000.000000      6.117554000000000E-01      1.328906000000000E+01      4.970398000000000E-01     -1.219648000000000E+02
4838000000.000000      6.122742000000000E-01      1.332617000000000E+01      4.978333000000000E-01     -1.224375000000000E+02
4839000000.000000      6.148987000000000E-01      1.346924000000000E+01      4.967651000000000E-01     -1.234062000000000E+02
4840000000.000000      6.144714000000000E-01      1.328613000000000E+01      4.966278000000000E-01     -1.241094000000000E+02
4841000000.000000      6.132813000000000E-01      1.364746000000000E+01      4.958954000000000E-01     -1.249648000000000E+02
4842000000.000000      6.149597000000000E-01      1.377686000000000E+01      4.956360000000000E-01     -1.256484000000000E+02
4843000000.000000      6.177979000000000E-01      1.377686000000000E+01      4.945526000000000E-01     -1.266484000000000E+02
4844000000.000000      6.161804000000000E-01      1.368750000000000E+01      4.926758000000000E-01     -1.275742000000000E+02
4845000000.000000      6.163025000000000E-01      1.402930000000000E+01      4.913940000000000E-01     -1.280859000000000E+02
4846000000.000000      6.170044000000000E-01      1.398828000000000E+01      4.911804000000000E-01     -1.290937000000000E+02
4847000000.000000      6.184387000000000E-01      1.401855000000000E+01      4.898682000000000E-01     -1.299844000000000E+02
4848000000.000000      6.190491000000000E-01      1.418457000000000E+01      4.864502000000000E-01     -1.305234000000000E+02
4849000000.000000      6.192932000000000E-01      1.421875000000000E+01      4.862518000000000E-01     -1.315156000000000E+02
4850000000.000000      6.213379000000000E-01      1.421191000000000E+01      4.849548000000000E-01     -1.323047000000000E+02
4851000000.000000      6.225891000000000E-01      1.442627000000000E+01      4.843597000000000E-01     -1.333516000000000E+02
4852000000.000000      6.239014000000000E-01      1.422168000000000E+01      4.807281000000000E-01     -1.339766000000000E+02
4853000000.000000      6.244812000000000E-01      1.433838000000000E+01      4.774780000000000E-01     -1.348359000000000E+02
4854000000.000000      6.257324000000000E-01      1.438623000000000E+01      4.765625000000000E-01     -1.358125000000000E+02
4855000000.000000      6.267700000000000E-01      1.447412000000000E+01      4.738312000000000E-01     -1.366953000000000E+02
4856000000.000000      6.276855000000000E-01      1.464307000000000E+01      4.709930000000000E-01     -1.373906000000000E+02
4857000000.000000      6.298523000000000E-01      1.458545000000000E+01      4.697876000000000E-01     -1.383047000000000E+02
4858000000.000000      6.296387000000000E-01      1.458838000000000E+01      4.665222000000000E-01     -1.391250000000000E+02
4859000000.000000      6.308289000000000E-01      1.460889000000000E+01      4.647675000000000E-01     -1.401172000000000E+02
4860000000.000000      6.337280000000000E-01      1.452246000000000E+01      4.596252000000000E-01     -1.407812000000000E+02
4861000000.000000      6.323242000000000E-01      1.444531000000000E+01      4.564667000000000E-01     -1.419062000000000E+02
4862000000.000000      6.338501000000000E-01      1.475439000000000E+01      4.546356000000000E-01     -1.424609000000000E+02
4863000000.000000      6.351624000000000E-01      1.449072000000000E+01      4.483643000000000E-01     -1.433281000000000E+02
4864000000.000000      6.388550000000000E-01      1.455957000000000E+01      4.450378000000000E-01     -1.439609000000000E+02
4865000000.000000      6.382446000000000E-01      1.466260000000000E+01      4.422760000000000E-01     -1.447656000000000E+02
4866000000.000000      6.402588000000000E-01      1.456348000000000E+01      4.385834000000000E-01     -1.458125000000000E+02
4867000000.000000      6.422119000000000E-01      1.458838000000000E+01      4.344788000000000E-01     -1.466094000000000E+02
4868000000.000000      6.410217000000000E-01      1.456885000000000E+01      4.304047000000000E-01     -1.473750000000000E+02
4869000000.000000      6.433716000000000E-01      1.452246000000000E+01      4.268036000000000E-01     -1.481484000000000E+02
4870000000.000000      6.434937000000000E-01      1.453613000000000E+01      4.226990000000000E-01     -1.485234000000000E+02
4871000000.000000      6.445923000000000E-01      1.441260000000000E+01      4.186859000000000E-01     -1.492812000000000E+02
4872000000.000000      6.471863000000000E-01      1.434375000000000E+01      4.142151000000000E-01     -1.498594000000000E+02
4873000000.000000      6.477966000000000E-01      1.449365000000000E+01      4.093781000000000E-01     -1.508359000000000E+02
4874000000.000000      6.494751000000000E-01      1.439307000000000E+01      4.049377000000000E-01     -1.515156000000000E+02
4875000000.000000      6.512756000000000E-01      1.416260000000000E+01      4.003754000000000E-01     -1.522109000000000E+02
4876000000.000000      6.528931000000000E-01      1.430664000000000E+01      3.972321000000000E-01     -1.527187000000000E+02
4877000000.000000      6.539917000000000E-01      1.405957000000000E+01      3.914948000000000E-01     -1.534453000000000E+02
4878000000.000000      6.565247000000000E-01      1.420898000000000E+01      3.873901000000000E-01     -1.539297000000000E+02
4879000000.000000      6.571655000000000E-01      1.408301000000000E+01      3.818054000000000E-01     -1.544531000000000E+02
4880000000.000000      6.576843000000000E-01      1.400879000000000E+01      3.791962000000000E-01     -1.550859000000000E+02
4881000000.000000      6.589355000000000E-01      1.405811000000000E+01      3.759003000000000E-01     -1.557578000000000E+02
4882000000.000000      6.611328000000000E-01      1.400439000000000E+01      3.697357000000000E-01     -1.562813000000000E+02
4883000000.000000      6.596680000000000E-01      1.378467000000000E+01      3.660126000000000E-01     -1.568125000000000E+02
4884000000.000000      6.626282000000000E-01      1.396484000000000E+01      3.599548000000000E-01     -1.571484000000000E+02
4885000000.000000      6.629333000000000E-01      1.379443000000000E+01      3.560333000000000E-01     -1.576015000000000E+02
4886000000.000000      6.645813000000000E-01      1.370801000000000E+01      3.535461000000000E-01     -1.580781000000000E+02
4887000000.000000      6.646729000000000E-01      1.365186000000000E+01      3.487701000000000E-01     -1.587500000000000E+02
4888000000.000000      6.658936000000000E-01      1.328613000000000E+01      3.442688000000000E-01     -1.591719000000000E+02
4889000000.000000      6.685791000000000E-01      1.346924000000000E+01      3.395691000000000E-01     -1.595000000000000E+02
4890000000.000000      6.664429000000000E-01      1.328369000000000E+01      3.351288000000000E-01     -1.600781000000000E+02
4891000000.000000      6.705017000000000E-01      1.333838000000000E+01      3.318024000000000E-01     -1.607344000000000E+02
4892000000.000000      6.699829000000000E-01      1.332617000000000E+01      3.268585000000000E-01     -1.607188000000000E+02
4893000000.000000      6.731873000000000E-01      1.309814000000000E+01      3.230438000000000E-01     -1.614219000000000E+02
4894000000.000000      6.724243000000000E-01      1.295947000000000E+01      3.186951000000000E-01     -1.615703000000000E+02
4895000000.000000      6.749573000000000E-01      1.280713000000000E+01      3.164825000000000E-01     -1.620469000000000E+02
4896000000.000000      6.739197000000000E-01      1.299951000000000E+01      3.126831000000000E-01     -1.623047000000000E+02
4897000000.000000      6.742554000000000E-01      1.272461000000000E+01      3.081207000000000E-01     -1.627812000000000E+02
4898000000.000000      6.758118000000000E-01      1.289355000000000E+01      3.050690000000000E-01     -1.630391000000000E+02
4899000000.000000      6.763611000000000E-01      1.258447000000000E+01      3.013306000000000E-01     -1.636172000000000E+02
4900000000.000000      6.794739000000000E-01      1.250928000000000E+01      2.972107000000000E-01     -1.637266000000000E+02
4901000000.000000      6.812439000000000E-01      1.228516000000000E+01      2.938690000000000E-01     -1.640234000000000E+02
4902000000.000000      6.797485000000000E-01      1.218506000000000E+01      2.904358000000000E-01     -1.643125000000000E+02
4903000000.000000      6.795959000000000E-01      1.223291000000000E+01      2.858582000000000E-01     -1.645859000000000E+02
4904000000.000000      6.799316000000000E-01      1.204492000000000E+01      2.825623000000000E-01     -1.650234000000000E+02
4905000000.000000      6.833191000000000E-01      1.197217000000000E+01      2.799988000000000E-01     -1.653359000000000E+02
4906000000.000000      6.818237000000000E-01      1.187988000000000E+01      2.764435000000000E-01     -1.654609000000000E+02
4907000000.000000      6.820068000000000E-01      1.184570000000000E+01      2.730255000000000E-01     -1.661016000000000E+02
4908000000.000000      6.849670000000000E-01      1.153662000000000E+01      2.698517000000000E-01     -1.662812000000000E+02
4909000000.000000      6.830444000000000E-01      1.140234000000000E+01      2.658997000000000E-01     -1.665781000000000E+02
4910000000.000000      6.833801000000000E-01      1.152979000000000E+01      2.624054000000000E-01     -1.668125000000000E+02
4911000000.000000      6.855469000000000E-01      1.134473000000000E+01      2.590637000000000E-01     -1.671406000000000E+02
4912000000.000000      6.857605000000000E-01      1.130615000000000E+01      2.555389000000000E-01     -1.675703000000000E+02
4913000000.000000      6.842651000000000E-01      1.109717000000000E+01      2.521362000000000E-01     -1.678984000000000E+02
4914000000.000000      6.893005000000000E-01      1.114697000000000E+01      2.481766000000000E-01     -1.679688000000000E+02
4915000000.000000      6.878967000000000E-01      1.086377000000000E+01      2.446747000000000E-01     -1.683516000000000E+02
4916000000.000000      6.872864000000000E-01      1.084033000000000E+01      2.408066000000000E-01     -1.685781000000000E+02
4917000000.000000      6.881714000000000E-01      1.067725000000000E+01      2.376938000000000E-01     -1.688437000000000E+02
4918000000.000000      6.887207000000000E-01      1.077734000000000E+01      2.335587000000000E-01     -1.693359000000000E+02
4919000000.000000      6.878662000000000E-01      1.053711000000000E+01      2.307510000000000E-01     -1.691172000000000E+02
4920000000.000000      6.914368000000000E-01      1.037109000000000E+01      2.262268000000000E-01     -1.696328000000000E+02
4921000000.000000      6.879578000000000E-01      1.042578000000000E+01      2.232132000000000E-01     -1.698125000000000E+02
4922000000.000000      6.896667000000000E-01      1.027881000000000E+01      2.191391000000000E-01     -1.698750000000000E+02
4923000000.000000      6.931152000000000E-01      1.017578000000000E+01      2.151718000000000E-01     -1.699297000000000E+02
4924000000.000000      6.925964000000000E-01      1.014990000000000E+01      2.119217000000000E-01     -1.702500000000000E+02
4925000000.000000      6.918335000000000E-01      9.960449000000000E+00      2.081146000000000E-01     -1.703281000000000E+02
4926000000.000000      6.923218000000000E-01      9.864258000000000E+00      2.043304000000000E-01     -1.705781000000000E+02
4927000000.000000      6.938171000000000E-01      9.807617000000000E+00      2.005463000000000E-01     -1.706016000000000E+02
4928000000.000000      6.946411000000000E-01      9.774902000000000E+00      1.971741000000000E-01     -1.707266000000000E+02
4929000000.000000      6.931152000000000E-01      9.538574000000000E+00      1.928024000000000E-01     -1.707969000000000E+02
4930000000.000000      6.945801000000000E-01      9.479492000000000E+00      1.894073000000000E-01     -1.705937000000000E+02
4931000000.000000      6.938477000000000E-01      9.303711000000000E+00      1.863327000000000E-01     -1.707266000000000E+02
4932000000.000000      6.960754000000000E-01      9.126465000000000E+00      1.823730000000000E-01     -1.706640000000000E+02
4933000000.000000      6.965027000000000E-01      9.139160000000000E+00      1.777878000000000E-01     -1.704531000000000E+02
4934000000.000000      6.982117000000000E-01      9.073242000000000E+00      1.740646000000000E-01     -1.704219000000000E+02
4935000000.000000      7.005310000000000E-01      8.986816000000000E+00      1.711731000000000E-01     -1.700000000000000E+02
4936000000.000000      6.979065000000000E-01      8.942871000000000E+00      1.670303000000000E-01     -1.698203000000000E+02
4937000000.000000      6.992188000000000E-01      8.715820000000000E+00      1.635513000000000E-01     -1.697187000000000E+02
4938000000.000000      6.995239000000000E-01      8.855957000000000E+00      1.597672000000000E-01     -1.692812000000000E+02
4939000000.000000      6.977844000000000E-01      8.715820000000000E+00      1.565704000000000E-01     -1.690078000000000E+02
4940000000.000000      6.992493000000000E-01      8.684570000000000E+00      1.523285000000000E-01     -1.686250000000000E+02
4941000000.000000      6.998901000000000E-01      8.414063000000000E+00      1.496277000000000E-01     -1.679219000000000E+02
4942000000.000000      6.999512000000000E-01      8.357422000000000E+00      1.460266000000000E-01     -1.676016000000000E+02
4943000000.000000      7.022400000000000E-01      8.327637000000000E+00      1.427231000000000E-01     -1.670078000000000E+02
4944000000.000000      7.036743000000000E-01      8.152832000000000E+00      1.397095000000000E-01     -1.661797000000000E+02
4945000000.000000      7.008057000000000E-01      8.034668000000000E+00      1.363144000000000E-01     -1.654531000000000E+02
4946000000.000000      7.017517000000000E-01      7.981445000000000E+00      1.329803000000000E-01     -1.646172000000000E+02
4947000000.000000      7.033691000000000E-01      7.782227000000000E+00      1.299133000000000E-01     -1.638359000000000E+02
4948000000.000000      7.044373000000000E-01      7.907227000000000E+00      1.272888000000000E-01     -1.627500000000000E+02
4949000000.000000      7.025452000000000E-01      7.645020000000000E+00      1.245575000000000E-01     -1.613984000000000E+02
4950000000.000000      7.031860000000000E-01      7.635498000000000E+00      1.216431000000000E-01     -1.604687000000000E+02
4951000000.000000      7.040405000000000E-01      7.399170000000000E+00      1.197319000000000E-01     -1.592969000000000E+02
4952000000.000000      7.066956000000000E-01      7.337402000000000E+00      1.170082000000000E-01     -1.579687000000000E+02
4953000000.000000      7.041016000000000E-01      7.082031000000000E+00      1.152115000000000E-01     -1.564375000000000E+02
4954000000.000000      7.053528000000000E-01      7.231689000000000E+00      1.129494000000000E-01     -1.549375000000000E+02
