! Network Analyzer HP8722D
! Hewlett-Packard
! Data name: Linha & Wilkinson
! Saver's name: Rodrigo Anjos
! Comments: Teste da utilização de aquisição
continua pelo VNA HP8722D
! Time and date: 22/5/2025 12:00
!              Frequency                     S11                                                   S21                                                   S12                                                   S22
# HZ  S  MA R 50
4800000000.000000      6.523438000000000E-01      1.088037000000000E+01      4.712372000000000E-01     -9.235155000000000E+01
4801000000.000000      6.502991000000000E-01      1.088574000000000E+01      4.723663000000000E-01     -9.305468000000000E+01
4802000000.000000      6.492310000000000E-01      1.076758000000000E+01      4.751129000000000E-01     -9.373047000000000E+01
4803000000.000000      6.479492000000000E-01      1.072949000000000E+01      4.772949000000000E-01     -9.450781000000000E+01
4804000000.000000      6.471863000000000E-01      1.070996000000000E+01      4.777527000000000E-01     -9.516016000000000E+01
4805000000.000000      6.445313000000000E-01      1.069092000000000E+01      4.785309000000000E-01     -9.606640000000000E+01
4806000000.000000      6.421814000000000E-01      1.068262000000000E+01      4.818115000000000E-01     -9.664452000000000E+01
4807000000.000000      6.399536000000000E-01      1.068799000000000E+01      4.839172000000000E-01     -9.746094000000000E+01
4808000000.000000      6.374817000000000E-01      1.062061000000000E+01      4.830780000000000E-01     -9.833202000000000E+01
4809000000.000000      6.351624000000000E-01      1.087207000000000E+01      4.857635000000000E-01     -9.922264000000000E+01
4810000000.000000      6.353149000000000E-01      1.075391000000000E+01      4.893188000000000E-01     -9.967968000000000E+01
4811000000.000000      6.333618000000000E-01      1.078271000000000E+01      4.878998000000000E-01     -1.007109000000000E+02
4812000000.000000      6.350403000000000E-01      1.112598000000000E+01      4.908600000000000E-01     -1.013477000000000E+02
4813000000.000000      6.318970000000000E-01      1.106982000000000E+01      4.910736000000000E-01     -1.022070000000000E+02
4814000000.000000      6.289063000000000E-01      1.108350000000000E+01      4.920807000000000E-01     -1.027031000000000E+02
4815000000.000000      6.280212000000000E-01      1.116748000000000E+01      4.924011000000000E-01     -1.036445000000000E+02
4816000000.000000      6.291504000000000E-01      1.117578000000000E+01      4.939117000000000E-01     -1.043476000000000E+02
4817000000.000000      6.251221000000000E-01      1.120313000000000E+01      4.951172000000000E-01     -1.050469000000000E+02
4818000000.000000      6.246338000000000E-01      1.131982000000000E+01      4.952240000000000E-01     -1.057344000000000E+02
4819000000.000000      6.242981000000000E-01      1.139551000000000E+01      4.952698000000000E-01     -1.064883000000000E+02
4820000000.000000      6.224365000000000E-01      1.143506000000000E+01      4.968719000000000E-01     -1.072422000000000E+02
4821000000.000000      6.217041000000000E-01      1.166016000000000E+01      4.960175000000000E-01     -1.080937000000000E+02
4822000000.000000      6.198425000000000E-01      1.165332000000000E+01      4.958496000000000E-01     -1.088711000000000E+02
4823000000.000000      6.203918000000000E-01      1.167139000000000E+01      4.971313000000000E-01     -1.096719000000000E+02
4824000000.000000      6.174927000000000E-01      1.181396000000000E+01      4.973907000000000E-01     -1.102031000000000E+02
4825000000.000000      6.184998000000000E-01      1.179785000000000E+01      4.989929000000000E-01     -1.110820000000000E+02
4826000000.000000      6.177063000000000E-01      1.198047000000000E+01      4.994202000000000E-01     -1.119336000000000E+02
4827000000.000000      6.167603000000000E-01      1.219043000000000E+01      4.983673000000000E-01     -1.124219000000000E+02
4828000000.000000      6.150818000000000E-01      1.230566000000000E+01      5.003357000000000E-01     -1.133125000000000E+02
4829000000.000000      6.148682000000000E-01      1.260400000000000E+01      5.002136000000000E-01     -1.138672000000000E+02
4830000000.000000      6.152039000000000E-01      1.244873000000000E+01      4.992065000000000E-01     -1.147500000000000E+02
4831000000.000000      6.155090000000000E-01      1.248584000000000E+01      5.013733000000000E-01     -1.156406000000000E+02
4832000000.000000      6.160583000000000E-01      1.279053000000000E+01      5.004578000000000E-01     -1.164609000000000E+02
4833000000.000000      6.143799000000000E-01      1.284131000000000E+01      4.979706000000000E-01     -1.169844000000000E+02
4834000000.000000      6.123657000000000E-01      1.287305000000000E+01      5.001221000000000E-01     -1.178477000000000E+02
4835000000.000000      6.147766000000000E-01      1.297607000000000E+01      4.998474000000000E-01     -1.186797000000000E+02
4836000000.000000      6.139221000000000E-01      1.318457000000000E+01      4.987793000000000E-01     -1.192969000000000E+02
4837000000.000000      6.134949000000000E-01      1.335205000000000E+01      4.954376000000000E-01     -1.204219000000000E+02
4838000000.000000      6.116943000000000E-01      1.335352000000000E+01      4.989929000000000E-01     -1.208437000000000E+02
4839000000.000000      6.169739000000000E-01      1.361328000000000E+01      4.983978000000000E-01     -1.218359000000000E+02
4840000000.000000      6.142578000000000E-01      1.348389000000000E+01      4.979858000000000E-01     -1.226094000000000E+02
4841000000.000000      6.161194000000000E-01      1.388379000000000E+01      4.969788000000000E-01     -1.233984000000000E+02
4842000000.000000      6.167908000000000E-01      1.378613000000000E+01      4.956360000000000E-01     -1.241562000000000E+02
4843000000.000000      6.183167000000000E-01      1.381348000000000E+01      4.967346000000000E-01     -1.252305000000000E+02
4844000000.000000      6.169434000000000E-01      1.392334000000000E+01      4.942780000000000E-01     -1.258828000000000E+02
4845000000.000000      6.192932000000000E-01      1.408838000000000E+01      4.928436000000000E-01     -1.266562000000000E+02
4846000000.000000      6.194153000000000E-01      1.407715000000000E+01      4.940491000000000E-01     -1.274101000000000E+02
4847000000.000000      6.210938000000000E-01      1.431348000000000E+01      4.913025000000000E-01     -1.282734000000000E+02
4848000000.000000      6.207275000000000E-01      1.419971000000000E+01      4.890289000000000E-01     -1.292031000000000E+02
4849000000.000000      6.203003000000000E-01      1.424756000000000E+01      4.889221000000000E-01     -1.300234000000000E+02
4850000000.000000      6.211243000000000E-01      1.436426000000000E+01      4.865875000000000E-01     -1.307656000000000E+02
4851000000.000000      6.230774000000000E-01      1.468164000000000E+01      4.866486000000000E-01     -1.317891000000000E+02
4852000000.000000      6.234741000000000E-01      1.453857000000000E+01      4.831543000000000E-01     -1.326094000000000E+02
4853000000.000000      6.256409000000000E-01      1.461963000000000E+01      4.812927000000000E-01     -1.333984000000000E+02
4854000000.000000      6.281128000000000E-01      1.463086000000000E+01      4.796143000000000E-01     -1.343594000000000E+02
4855000000.000000      6.284485000000000E-01      1.464160000000000E+01      4.774017000000000E-01     -1.351250000000000E+02
4856000000.000000      6.287231000000000E-01      1.489453000000000E+01      4.751740000000000E-01     -1.361641000000000E+02
4857000000.000000      6.282654000000000E-01      1.473779000000000E+01      4.740143000000000E-01     -1.367578000000000E+02
4858000000.000000      6.293945000000000E-01      1.475146000000000E+01      4.705505000000000E-01     -1.377266000000000E+02
4859000000.000000      6.318665000000000E-01      1.479150000000000E+01      4.678192000000000E-01     -1.384844000000000E+02
4860000000.000000      6.336365000000000E-01      1.469678000000000E+01      4.642639000000000E-01     -1.392734000000000E+02
4861000000.000000      6.323547000000000E-01      1.479004000000000E+01      4.609375000000000E-01     -1.402656000000000E+02
4862000000.000000      6.341248000000000E-01      1.485596000000000E+01      4.578705000000000E-01     -1.408359000000000E+02
4863000000.000000      6.356812000000000E-01      1.503320000000000E+01      4.548492000000000E-01     -1.420000000000000E+02
4864000000.000000      6.375122000000000E-01      1.489600000000000E+01      4.524689000000000E-01     -1.427969000000000E+02
4865000000.000000      6.401367000000000E-01      1.485742000000000E+01      4.460602000000000E-01     -1.433672000000000E+02
4866000000.000000      6.388550000000000E-01      1.492041000000000E+01      4.429932000000000E-01     -1.442734000000000E+02
4867000000.000000      6.397705000000000E-01      1.486963000000000E+01      4.403992000000000E-01     -1.452188000000000E+02
4868000000.000000      6.445923000000000E-01      1.473779000000000E+01      4.368591000000000E-01     -1.459844000000000E+02
4869000000.000000      6.424561000000000E-01      1.483936000000000E+01      4.317169000000000E-01     -1.467422000000000E+02
4870000000.000000      6.439209000000000E-01      1.477637000000000E+01      4.282990000000000E-01     -1.473125000000000E+02
4871000000.000000      6.436462000000000E-01      1.463916000000000E+01      4.244690000000000E-01     -1.482344000000000E+02
4872000000.000000      6.492920000000000E-01      1.484375000000000E+01      4.205627000000000E-01     -1.486953000000000E+02
4873000000.000000      6.492920000000000E-01      1.476807000000000E+01      4.148254000000000E-01     -1.496797000000000E+02
4874000000.000000      6.474304000000000E-01      1.482031000000000E+01      4.107666000000000E-01     -1.501250000000000E+02
4875000000.000000      6.505737000000000E-01      1.463623000000000E+01      4.059296000000000E-01     -1.508594000000000E+02
4876000000.000000      6.525269000000000E-01      1.467773000000000E+01      4.025574000000000E-01     -1.515781000000000E+02
4877000000.000000      6.547241000000000E-01      1.434814000000000E+01      3.986664000000000E-01     -1.522969000000000E+02
4878000000.000000      6.540222000000000E-01      1.439990000000000E+01      3.928375000000000E-01     -1.529375000000000E+02
4879000000.000000      6.557922000000000E-01      1.461279000000000E+01      3.889618000000000E-01     -1.534453000000000E+02
4880000000.000000      6.574402000000000E-01      1.455664000000000E+01      3.858185000000000E-01     -1.541328000000000E+02
4881000000.000000      6.597290000000000E-01      1.433545000000000E+01      3.815918000000000E-01     -1.546641000000000E+02
4882000000.000000      6.602173000000000E-01      1.437793000000000E+01      3.761139000000000E-01     -1.552891000000000E+02
4883000000.000000      6.613464000000000E-01      1.431348000000000E+01      3.714905000000000E-01     -1.558828000000000E+02
4884000000.000000      6.615295000000000E-01      1.420654000000000E+01      3.671265000000000E-01     -1.562656000000000E+02
4885000000.000000      6.642151000000000E-01      1.401416000000000E+01      3.619232000000000E-01     -1.566094000000000E+02
4886000000.000000      6.621094000000000E-01      1.419531000000000E+01      3.582916000000000E-01     -1.571016000000000E+02
4887000000.000000      6.657104000000000E-01      1.393164000000000E+01      3.555298000000000E-01     -1.578750000000000E+02
4888000000.000000      6.668396000000000E-01      1.378223000000000E+01      3.504333000000000E-01     -1.582969000000000E+02
4889000000.000000      6.690979000000000E-01      1.380957000000000E+01      3.467255000000000E-01     -1.587422000000000E+02
4890000000.000000      6.691589000000000E-01      1.356934000000000E+01      3.405762000000000E-01     -1.594063000000000E+02
4891000000.000000      6.707458000000000E-01      1.379150000000000E+01      3.373718000000000E-01     -1.595078000000000E+02
4892000000.000000      6.695251000000000E-01      1.366406000000000E+01      3.334045000000000E-01     -1.600937000000000E+02
4893000000.000000      6.730347000000000E-01      1.358594000000000E+01      3.297577000000000E-01     -1.607500000000000E+02
4894000000.000000      6.715698000000000E-01      1.337988000000000E+01      3.242950000000000E-01     -1.610391000000000E+02
4895000000.000000      6.768799000000000E-01      1.336719000000000E+01      3.213959000000000E-01     -1.611250000000000E+02
4896000000.000000      6.744995000000000E-01      1.326318000000000E+01      3.175507000000000E-01     -1.616641000000000E+02
4897000000.000000      6.756897000000000E-01      1.318896000000000E+01      3.135529000000000E-01     -1.620156000000000E+02
4898000000.000000      6.762085000000000E-01      1.323682000000000E+01      3.111725000000000E-01     -1.623281000000000E+02
4899000000.000000      6.770020000000000E-01      1.301563000000000E+01      3.066864000000000E-01     -1.627656000000000E+02
4900000000.000000      6.779175000000000E-01      1.278369000000000E+01      3.026581000000000E-01     -1.630625000000000E+02
4901000000.000000      6.794434000000000E-01      1.258057000000000E+01      2.994537000000000E-01     -1.633828000000000E+02
4902000000.000000      6.795349000000000E-01      1.269043000000000E+01      2.958832000000000E-01     -1.635859000000000E+02
4903000000.000000      6.813965000000000E-01      1.263135000000000E+01      2.914734000000000E-01     -1.640625000000000E+02
4904000000.000000      6.823120000000000E-01      1.250928000000000E+01      2.880707000000000E-01     -1.645469000000000E+02
4905000000.000000      6.844788000000000E-01      1.236914000000000E+01      2.853241000000000E-01     -1.648281000000000E+02
4906000000.000000      6.804810000000000E-01      1.242529000000000E+01      2.813416000000000E-01     -1.649531000000000E+02
4907000000.000000      6.831665000000000E-01      1.228369000000000E+01      2.786255000000000E-01     -1.655469000000000E+02
4908000000.000000      6.848755000000000E-01      1.205469000000000E+01      2.753143000000000E-01     -1.659531000000000E+02
4909000000.000000      6.841125000000000E-01      1.194727000000000E+01      2.709503000000000E-01     -1.660938000000000E+02
4910000000.000000      6.844788000000000E-01      1.171826000000000E+01      2.677917000000000E-01     -1.664141000000000E+02
4911000000.000000      6.854248000000000E-01      1.174023000000000E+01      2.639465000000000E-01     -1.666641000000000E+02
4912000000.000000      6.881409000000000E-01      1.162207000000000E+01      2.607117000000000E-01     -1.670625000000000E+02
4913000000.000000      6.900024000000000E-01      1.168945000000000E+01      2.572784000000000E-01     -1.673750000000000E+02
4914000000.000000      6.890564000000000E-01      1.148438000000000E+01      2.538605000000000E-01     -1.675547000000000E+02
4915000000.000000      6.881104000000000E-01      1.153955000000000E+01      2.492218000000000E-01     -1.679531000000000E+02
4916000000.000000      6.891785000000000E-01      1.137598000000000E+01      2.463226000000000E-01     -1.682188000000000E+02
4917000000.000000      6.904297000000000E-01      1.120313000000000E+01      2.428284000000000E-01     -1.684687000000000E+02
4918000000.000000      6.894531000000000E-01      1.106445000000000E+01      2.390060000000000E-01     -1.686641000000000E+02
4919000000.000000      6.911621000000000E-01      1.100000000000000E+01      2.357635000000000E-01     -1.687891000000000E+02
4920000000.000000      6.898193000000000E-01      1.102734000000000E+01      2.315903000000000E-01     -1.694766000000000E+02
4921000000.000000      6.898499000000000E-01      1.089697000000000E+01      2.285995000000000E-01     -1.695547000000000E+02
4922000000.000000      6.934814000000000E-01      1.072266000000000E+01      2.243195000000000E-01     -1.697422000000000E+02
4923000000.000000      6.941833000000000E-01      1.070068000000000E+01      2.204285000000000E-01     -1.698281000000000E+02
4924000000.000000      6.932373000000000E-01      1.050293000000000E+01      2.165833000000000E-01     -1.701797000000000E+02
4925000000.000000      6.940918000000000E-01      1.037109000000000E+01      2.128677000000000E-01     -1.704375000000000E+02
4926000000.000000      6.961975000000000E-01      1.027051000000000E+01      2.097244000000000E-01     -1.705781000000000E+02
4927000000.000000      6.937256000000000E-01      1.024463000000000E+01      2.058487000000000E-01     -1.707500000000000E+02
4928000000.000000      6.969299000000000E-01      1.012646000000000E+01      2.018509000000000E-01     -1.709766000000000E+02
4929000000.000000      6.960449000000000E-01      1.007568000000000E+01      1.982269000000000E-01     -1.708359000000000E+02
4930000000.000000      6.953430000000000E-01      1.009326000000000E+01      1.939011000000000E-01     -1.710547000000000E+02
4931000000.000000      6.956787000000000E-01      9.833984000000000E+00      1.910706000000000E-01     -1.710781000000000E+02
4932000000.000000      6.958923000000000E-01      9.762695000000000E+00      1.866608000000000E-01     -1.708594000000000E+02
4933000000.000000      6.961060000000000E-01      9.733887000000000E+00      1.821594000000000E-01     -1.707109000000000E+02
4934000000.000000      6.984558000000000E-01      9.456055000000000E+00      1.792603000000000E-01     -1.708750000000000E+02
4935000000.000000      7.037659000000000E-01      9.384766000000000E+00      1.757126000000000E-01     -1.705000000000000E+02
4936000000.000000      6.972656000000000E-01      9.368164000000000E+00      1.720123000000000E-01     -1.704219000000000E+02
4937000000.000000      7.004089000000000E-01      9.132324000000000E+00      1.679459000000000E-01     -1.703750000000000E+02
4938000000.000000      6.994019000000000E-01      9.203613000000000E+00      1.639938000000000E-01     -1.700859000000000E+02
4939000000.000000      6.990967000000000E-01      9.045410000000000E+00      1.609116000000000E-01     -1.697969000000000E+02
4940000000.000000      7.000122000000000E-01      9.056641000000000E+00      1.567764000000000E-01     -1.697187000000000E+02
4941000000.000000      7.022400000000000E-01      8.861816000000000E+00      1.535873000000000E-01     -1.690469000000000E+02
4942000000.000000      7.023010000000000E-01      8.908203000000000E+00      1.493759000000000E-01     -1.687109000000000E+02
4943000000.000000      7.028809000000000E-01      8.789063000000000E+00      1.464615000000000E-01     -1.679688000000000E+02
4944000000.000000      7.021484000000000E-01      8.598145000000000E+00      1.428299000000000E-01     -1.674531000000000E+02
4945000000.000000      7.033386000000000E-01      8.570313000000000E+00      1.396255000000000E-01     -1.668594000000000E+02
4946000000.000000      7.042847000000000E-01      8.471680000000000E+00      1.362762000000000E-01     -1.660938000000000E+02
4947000000.000000      7.053223000000000E-01      8.151855000000000E+00      1.329803000000000E-01     -1.652187000000000E+02
4948000000.000000      7.062378000000000E-01      8.412598000000000E+00      1.294785000000000E-01     -1.644219000000000E+02
4949000000.000000      7.027588000000000E-01      8.117188000000000E+00      1.273651000000000E-01     -1.631875000000000E+02
4950000000.000000      7.056580000000000E-01      8.092773000000000E+00      1.243935000000000E-01     -1.624219000000000E+02
4951000000.000000      7.069702000000000E-01      7.907227000000000E+00      1.213379000000000E-01     -1.614063000000000E+02
4952000000.000000      7.066345000000000E-01      7.833252000000000E+00      1.186104000000000E-01     -1.599766000000000E+02
4953000000.000000      7.055969000000000E-01      7.642334000000000E+00      1.168785000000000E-01     -1.584375000000000E+02
4954000000.000000      7.066650000000000E-01      7.605225000000000E+00      1.145668000000000E-01     -1.572656000000000E+02
