! Network Analyzer HP8722D
! Hewlett-Packard
! Data name: Linha & Wilkinson
! Saver's name: Rodrigo Anjos
! Comments: Teste da utilização de aquisição
continua pelo VNA HP8722D
! Time and date: 22/5/2025 14:10
!              Frequency                     S11                                                   S21                                                   S12                                                   S22
# HZ  S  MA R 50
4800000000.000000      6.538391000000000E-01      1.096973000000000E+01      4.728394000000000E-01     -9.228125000000000E+01
4801000000.000000      6.503906000000000E-01      1.100244000000000E+01      4.714355000000000E-01     -9.279297000000000E+01
4802000000.000000      6.493530000000000E-01      1.089111000000000E+01      4.731140000000000E-01     -9.353516000000000E+01
4803000000.000000      6.471558000000000E-01      1.086133000000000E+01      4.775391000000000E-01     -9.421875000000000E+01
4804000000.000000      6.434937000000000E-01      1.093652000000000E+01      4.792175000000000E-01     -9.514452000000000E+01
4805000000.000000      6.451111000000000E-01      1.078857000000000E+01      4.798279000000000E-01     -9.582811000000000E+01
4806000000.000000      6.427307000000000E-01      1.092725000000000E+01      4.800568000000000E-01     -9.655859000000000E+01
4807000000.000000      6.408386000000000E-01      1.088037000000000E+01      4.837646000000000E-01     -9.715624000000000E+01
4808000000.000000      6.377869000000000E-01      1.088330000000000E+01      4.840088000000000E-01     -9.800781000000000E+01
4809000000.000000      6.361694000000000E-01      1.106445000000000E+01      4.860229000000000E-01     -9.892187000000000E+01
4810000000.000000      6.355896000000000E-01      1.113428000000000E+01      4.868011000000000E-01     -9.950390000000000E+01
4811000000.000000      6.346741000000000E-01      1.100098000000000E+01      4.897766000000000E-01     -1.006836000000000E+02
4812000000.000000      6.343079000000000E-01      1.116211000000000E+01      4.900665000000000E-01     -1.011406000000000E+02
4813000000.000000      6.317749000000000E-01      1.123047000000000E+01      4.903412000000000E-01     -1.018867000000000E+02
4814000000.000000      6.294861000000000E-01      1.109033000000000E+01      4.927826000000000E-01     -1.026484000000000E+02
4815000000.000000      6.287842000000000E-01      1.117139000000000E+01      4.930420000000000E-01     -1.033125000000000E+02
4816000000.000000      6.284485000000000E-01      1.147754000000000E+01      4.944458000000000E-01     -1.041328000000000E+02
4817000000.000000      6.242981000000000E-01      1.134326000000000E+01      4.940338000000000E-01     -1.047969000000000E+02
4818000000.000000      6.242371000000000E-01      1.125781000000000E+01      4.944458000000000E-01     -1.058047000000000E+02
4819000000.000000      6.228943000000000E-01      1.146826000000000E+01      4.955444000000000E-01     -1.064180000000000E+02
4820000000.000000      6.205139000000000E-01      1.168359000000000E+01      4.953003000000000E-01     -1.069883000000000E+02
4821000000.000000      6.213989000000000E-01      1.160938000000000E+01      4.980621000000000E-01     -1.078633000000000E+02
4822000000.000000      6.193848000000000E-01      1.156689000000000E+01      4.964600000000000E-01     -1.086484000000000E+02
4823000000.000000      6.201477000000000E-01      1.157666000000000E+01      4.983063000000000E-01     -1.093476000000000E+02
4824000000.000000      6.194153000000000E-01      1.200391000000000E+01      4.963837000000000E-01     -1.101523000000000E+02
4825000000.000000      6.177979000000000E-01      1.199268000000000E+01      4.994354000000000E-01     -1.108828000000000E+02
4826000000.000000      6.171265000000000E-01      1.190479000000000E+01      4.989929000000000E-01     -1.117344000000000E+02
4827000000.000000      6.156311000000000E-01      1.220410000000000E+01      5.001831000000000E-01     -1.121484000000000E+02
4828000000.000000      6.157227000000000E-01      1.229639000000000E+01      5.006714000000000E-01     -1.131289000000000E+02
4829000000.000000      6.150818000000000E-01      1.257617000000000E+01      4.995880000000000E-01     -1.138750000000000E+02
4830000000.000000      6.152954000000000E-01      1.259424000000000E+01      5.009766000000000E-01     -1.147031000000000E+02
4831000000.000000      6.137390000000000E-01      1.268506000000000E+01      5.007935000000000E-01     -1.154180000000000E+02
4832000000.000000      6.141052000000000E-01      1.288281000000000E+01      4.990845000000000E-01     -1.161836000000000E+02
4833000000.000000      6.123352000000000E-01      1.290039000000000E+01      4.997253000000000E-01     -1.167656000000000E+02
4834000000.000000      6.138611000000000E-01      1.282080000000000E+01      4.993134000000000E-01     -1.177187000000000E+02
4835000000.000000      6.157837000000000E-01      1.314209000000000E+01      4.994965000000000E-01     -1.186367000000000E+02
4836000000.000000      6.154175000000000E-01      1.338818000000000E+01      4.987946000000000E-01     -1.190508000000000E+02
4837000000.000000      6.140442000000000E-01      1.345117000000000E+01      4.977112000000000E-01     -1.199766000000000E+02
4838000000.000000      6.124573000000000E-01      1.355127000000000E+01      4.987946000000000E-01     -1.206133000000000E+02
4839000000.000000      6.158447000000000E-01      1.362402000000000E+01      4.975739000000000E-01     -1.215000000000000E+02
4840000000.000000      6.161194000000000E-01      1.356934000000000E+01      4.983673000000000E-01     -1.222109000000000E+02
4841000000.000000      6.157837000000000E-01      1.401270000000000E+01      4.968872000000000E-01     -1.231406000000000E+02
4842000000.000000      6.162415000000000E-01      1.381348000000000E+01      4.962463000000000E-01     -1.238750000000000E+02
4843000000.000000      6.168518000000000E-01      1.396631000000000E+01      4.966583000000000E-01     -1.248398000000000E+02
4844000000.000000      6.181335000000000E-01      1.386719000000000E+01      4.959564000000000E-01     -1.257851000000000E+02
4845000000.000000      6.182556000000000E-01      1.434229000000000E+01      4.950104000000000E-01     -1.264023000000000E+02
4846000000.000000      6.182251000000000E-01      1.422412000000000E+01      4.927979000000000E-01     -1.272578000000000E+02
4847000000.000000      6.196289000000000E-01      1.440283000000000E+01      4.924774000000000E-01     -1.281953000000000E+02
4848000000.000000      6.203003000000000E-01      1.451270000000000E+01      4.886169000000000E-01     -1.289063000000000E+02
4849000000.000000      6.205444000000000E-01      1.439307000000000E+01      4.897156000000000E-01     -1.298203000000000E+02
4850000000.000000      6.213379000000000E-01      1.445361000000000E+01      4.873505000000000E-01     -1.307969000000000E+02
4851000000.000000      6.238403000000000E-01      1.463623000000000E+01      4.867859000000000E-01     -1.314375000000000E+02
4852000000.000000      6.223755000000000E-01      1.465137000000000E+01      4.839935000000000E-01     -1.323203000000000E+02
4853000000.000000      6.258545000000000E-01      1.484912000000000E+01      4.808807000000000E-01     -1.331328000000000E+02
4854000000.000000      6.258545000000000E-01      1.491797000000000E+01      4.810028000000000E-01     -1.342578000000000E+02
4855000000.000000      6.253662000000000E-01      1.476807000000000E+01      4.784393000000000E-01     -1.350391000000000E+02
4856000000.000000      6.288452000000000E-01      1.485449000000000E+01      4.754333000000000E-01     -1.358984000000000E+02
4857000000.000000      6.270447000000000E-01      1.487793000000000E+01      4.737701000000000E-01     -1.364453000000000E+02
4858000000.000000      6.292725000000000E-01      1.488477000000000E+01      4.708099000000000E-01     -1.374297000000000E+02
4859000000.000000      6.300659000000000E-01      1.498242000000000E+01      4.692688000000000E-01     -1.383828000000000E+02
4860000000.000000      6.312866000000000E-01      1.503467000000000E+01      4.653931000000000E-01     -1.392109000000000E+02
4861000000.000000      6.333923000000000E-01      1.496875000000000E+01      4.616852000000000E-01     -1.402422000000000E+02
4862000000.000000      6.342468000000000E-01      1.493848000000000E+01      4.594269000000000E-01     -1.408516000000000E+02
4863000000.000000      6.350403000000000E-01      1.500146000000000E+01      4.552765000000000E-01     -1.419609000000000E+02
4864000000.000000      6.374817000000000E-01      1.496729000000000E+01      4.520416000000000E-01     -1.425078000000000E+02
4865000000.000000      6.363525000000000E-01      1.503027000000000E+01      4.479675000000000E-01     -1.431797000000000E+02
4866000000.000000      6.387634000000000E-01      1.498633000000000E+01      4.443054000000000E-01     -1.441953000000000E+02
4867000000.000000      6.386719000000000E-01      1.511133000000000E+01      4.402008000000000E-01     -1.451016000000000E+02
4868000000.000000      6.408997000000000E-01      1.488477000000000E+01      4.363556000000000E-01     -1.456953000000000E+02
4869000000.000000      6.423340000000000E-01      1.502490000000000E+01      4.336853000000000E-01     -1.465312000000000E+02
4870000000.000000      6.430969000000000E-01      1.502930000000000E+01      4.287262000000000E-01     -1.471250000000000E+02
4871000000.000000      6.448669000000000E-01      1.488623000000000E+01      4.239502000000000E-01     -1.481016000000000E+02
4872000000.000000      6.485291000000000E-01      1.482861000000000E+01      4.197693000000000E-01     -1.485469000000000E+02
4873000000.000000      6.472778000000000E-01      1.493311000000000E+01      4.170380000000000E-01     -1.495469000000000E+02
4874000000.000000      6.497192000000000E-01      1.484229000000000E+01      4.118500000000000E-01     -1.501328000000000E+02
4875000000.000000      6.510315000000000E-01      1.486133000000000E+01      4.072418000000000E-01     -1.507813000000000E+02
4876000000.000000      6.517334000000000E-01      1.478760000000000E+01      4.040985000000000E-01     -1.514766000000000E+02
4877000000.000000      6.545715000000000E-01      1.457178000000000E+01      3.995667000000000E-01     -1.523516000000000E+02
4878000000.000000      6.542358000000000E-01      1.460742000000000E+01      3.943939000000000E-01     -1.528359000000000E+02
4879000000.000000      6.561584000000000E-01      1.473779000000000E+01      3.896332000000000E-01     -1.530937000000000E+02
4880000000.000000      6.562500000000000E-01      1.449902000000000E+01      3.842926000000000E-01     -1.538359000000000E+02
4881000000.000000      6.572266000000000E-01      1.438916000000000E+01      3.817139000000000E-01     -1.544609000000000E+02
4882000000.000000      6.612854000000000E-01      1.448096000000000E+01      3.779297000000000E-01     -1.550937000000000E+02
4883000000.000000      6.610718000000000E-01      1.438477000000000E+01      3.722534000000000E-01     -1.557891000000000E+02
4884000000.000000      6.619263000000000E-01      1.444824000000000E+01      3.680115000000000E-01     -1.561172000000000E+02
4885000000.000000      6.618347000000000E-01      1.431885000000000E+01      3.641510000000000E-01     -1.565781000000000E+02
4886000000.000000      6.635437000000000E-01      1.431104000000000E+01      3.580322000000000E-01     -1.570703000000000E+02
4887000000.000000      6.658325000000000E-01      1.408301000000000E+01      3.555756000000000E-01     -1.576484000000000E+02
4888000000.000000      6.664124000000000E-01      1.392773000000000E+01      3.512268000000000E-01     -1.581172000000000E+02
4889000000.000000      6.661072000000000E-01      1.404443000000000E+01      3.461914000000000E-01     -1.585703000000000E+02
4890000000.000000      6.668091000000000E-01      1.383691000000000E+01      3.428955000000000E-01     -1.592891000000000E+02
4891000000.000000      6.681519000000000E-01      1.366699000000000E+01      3.377838000000000E-01     -1.594922000000000E+02
4892000000.000000      6.687317000000000E-01      1.380420000000000E+01      3.331451000000000E-01     -1.597969000000000E+02
4893000000.000000      6.711121000000000E-01      1.362842000000000E+01      3.291779000000000E-01     -1.603281000000000E+02
4894000000.000000      6.716614000000000E-01      1.367090000000000E+01      3.256683000000000E-01     -1.607812000000000E+02
4895000000.000000      6.729736000000000E-01      1.334961000000000E+01      3.218994000000000E-01     -1.613125000000000E+02
4896000000.000000      6.730652000000000E-01      1.340039000000000E+01      3.186798000000000E-01     -1.614922000000000E+02
4897000000.000000      6.748657000000000E-01      1.323682000000000E+01      3.144226000000000E-01     -1.619375000000000E+02
4898000000.000000      6.765442000000000E-01      1.320654000000000E+01      3.107452000000000E-01     -1.621641000000000E+02
4899000000.000000      6.764221000000000E-01      1.304883000000000E+01      3.075104000000000E-01     -1.626641000000000E+02
4900000000.000000      6.776428000000000E-01      1.297168000000000E+01      3.037720000000000E-01     -1.630078000000000E+02
4901000000.000000      6.790771000000000E-01      1.291016000000000E+01      3.001251000000000E-01     -1.633984000000000E+02
4902000000.000000      6.792908000000000E-01      1.291699000000000E+01      2.968750000000000E-01     -1.635391000000000E+02
4903000000.000000      6.790771000000000E-01      1.270117000000000E+01      2.916107000000000E-01     -1.640547000000000E+02
4904000000.000000      6.824341000000000E-01      1.262158000000000E+01      2.887726000000000E-01     -1.643047000000000E+02
4905000000.000000      6.825256000000000E-01      1.260791000000000E+01      2.862854000000000E-01     -1.647656000000000E+02
4906000000.000000      6.815491000000000E-01      1.237988000000000E+01      2.814636000000000E-01     -1.648359000000000E+02
4907000000.000000      6.822205000000000E-01      1.212988000000000E+01      2.790222000000000E-01     -1.653281000000000E+02
4908000000.000000      6.832275000000000E-01      1.216016000000000E+01      2.754211000000000E-01     -1.655703000000000E+02
4909000000.000000      6.842346000000000E-01      1.218506000000000E+01      2.711182000000000E-01     -1.660312000000000E+02
4910000000.000000      6.834412000000000E-01      1.216016000000000E+01      2.683868000000000E-01     -1.661484000000000E+02
4911000000.000000      6.864319000000000E-01      1.195020000000000E+01      2.651672000000000E-01     -1.665000000000000E+02
4912000000.000000      6.859741000000000E-01      1.201904000000000E+01      2.613525000000000E-01     -1.671094000000000E+02
4913000000.000000      6.837463000000000E-01      1.177441000000000E+01      2.577515000000000E-01     -1.673672000000000E+02
4914000000.000000      6.889343000000000E-01      1.144336000000000E+01      2.536316000000000E-01     -1.675859000000000E+02
4915000000.000000      6.876221000000000E-01      1.146240000000000E+01      2.501984000000000E-01     -1.679141000000000E+02
4916000000.000000      6.884460000000000E-01      1.142578000000000E+01      2.468567000000000E-01     -1.682344000000000E+02
4917000000.000000      6.882019000000000E-01      1.144775000000000E+01      2.433395000000000E-01     -1.685469000000000E+02
4918000000.000000      6.900330000000000E-01      1.118408000000000E+01      2.399292000000000E-01     -1.687344000000000E+02
4919000000.000000      6.908569000000000E-01      1.101611000000000E+01      2.358704000000000E-01     -1.688125000000000E+02
4920000000.000000      6.885376000000000E-01      1.110693000000000E+01      2.314987000000000E-01     -1.692891000000000E+02
4921000000.000000      6.897583000000000E-01      1.099707000000000E+01      2.289276000000000E-01     -1.694062000000000E+02
4922000000.000000      6.910706000000000E-01      1.079541000000000E+01      2.249146000000000E-01     -1.697109000000000E+02
4923000000.000000      6.928711000000000E-01      1.082666000000000E+01      2.208099000000000E-01     -1.695625000000000E+02
4924000000.000000      6.922913000000000E-01      1.067969000000000E+01      2.171707000000000E-01     -1.702500000000000E+02
4925000000.000000      6.918030000000000E-01      1.057422000000000E+01      2.137756000000000E-01     -1.702344000000000E+02
4926000000.000000      6.945190000000000E-01      1.051367000000000E+01      2.099838000000000E-01     -1.705469000000000E+02
4927000000.000000      6.918945000000000E-01      1.027881000000000E+01      2.062073000000000E-01     -1.705391000000000E+02
4928000000.000000      6.961670000000000E-01      1.015381000000000E+01      2.030563000000000E-01     -1.705859000000000E+02
4929000000.000000      6.945190000000000E-01      1.012207000000000E+01      1.987839000000000E-01     -1.707500000000000E+02
4930000000.000000      6.962280000000000E-01      1.013477000000000E+01      1.949310000000000E-01     -1.708984000000000E+02
4931000000.000000      6.961975000000000E-01      9.719727000000000E+00      1.915817000000000E-01     -1.707656000000000E+02
4932000000.000000      6.968994000000000E-01      9.877930000000000E+00      1.879044000000000E-01     -1.709141000000000E+02
4933000000.000000      6.972046000000000E-01      9.807617000000000E+00      1.826782000000000E-01     -1.707344000000000E+02
4934000000.000000      6.976318000000000E-01      9.555176000000000E+00      1.796494000000000E-01     -1.708281000000000E+02
4935000000.000000      6.980286000000000E-01      9.636230000000000E+00      1.763229000000000E-01     -1.705469000000000E+02
4936000000.000000      6.977844000000000E-01      9.468750000000000E+00      1.719818000000000E-01     -1.705391000000000E+02
4937000000.000000      6.992493000000000E-01      9.221191000000000E+00      1.687164000000000E-01     -1.703750000000000E+02
4938000000.000000      6.976624000000000E-01      9.335449000000000E+00      1.650696000000000E-01     -1.700156000000000E+02
4939000000.000000      6.995850000000000E-01      9.236328000000000E+00      1.610413000000000E-01     -1.697578000000000E+02
4940000000.000000      6.985779000000000E-01      9.096680000000000E+00      1.574478000000000E-01     -1.696250000000000E+02
4941000000.000000      6.992188000000000E-01      9.004395000000000E+00      1.537857000000000E-01     -1.692109000000000E+02
4942000000.000000      7.002258000000000E-01      9.020996000000000E+00      1.500168000000000E-01     -1.687344000000000E+02
4943000000.000000      6.998596000000000E-01      8.997559000000000E+00      1.468964000000000E-01     -1.681875000000000E+02
4944000000.000000      7.016907000000000E-01      8.774902000000000E+00      1.434631000000000E-01     -1.674609000000000E+02
4945000000.000000      7.013550000000000E-01      8.532227000000000E+00      1.399689000000000E-01     -1.667266000000000E+02
4946000000.000000      7.036438000000000E-01      8.567871000000000E+00      1.372452000000000E-01     -1.663828000000000E+02
4947000000.000000      7.025757000000000E-01      8.398926000000000E+00      1.332016000000000E-01     -1.652031000000000E+02
4948000000.000000      7.024841000000000E-01      8.333008000000000E+00      1.301422000000000E-01     -1.644531000000000E+02
4949000000.000000      7.036438000000000E-01      8.305664000000000E+00      1.274033000000000E-01     -1.633906000000000E+02
4950000000.000000      7.053528000000000E-01      8.162598000000000E+00      1.246300000000000E-01     -1.625156000000000E+02
4951000000.000000      7.056580000000000E-01      8.044434000000000E+00      1.216393000000000E-01     -1.616328000000000E+02
4952000000.000000      7.057190000000000E-01      7.893555000000000E+00      1.194153000000000E-01     -1.601719000000000E+02
4953000000.000000      7.052917000000000E-01      7.897705000000000E+00      1.168518000000000E-01     -1.587265000000000E+02
4954000000.000000      7.081909000000000E-01      7.580566000000000E+00      1.148224000000000E-01     -1.575625000000000E+02
