! Network Analyzer HP8722D
! Hewlett-Packard
! Data name: Linha & Wilkinson
! Saver's name: Rodrigo Anjos
! Comments: Teste da utilização de aquisição
continua pelo VNA HP8722D
! Time and date: 22/5/2025 15:44
!              Frequency                     S11                                                   S21                                                   S12                                                   S22
# HZ  S  MA R 50
4800000000.000000      6.539001000000000E-01      1.106592000000000E+01      4.711304000000000E-01     -9.198828000000000E+01
4801000000.000000      6.512451000000000E-01      1.095020000000000E+01      4.722290000000000E-01     -9.248438000000000E+01
4802000000.000000      6.487122000000000E-01      1.084473000000000E+01      4.735260000000000E-01     -9.318359000000000E+01
4803000000.000000      6.482239000000000E-01      1.094775000000000E+01      4.768219000000000E-01     -9.384375000000000E+01
4804000000.000000      6.459656000000000E-01      1.097803000000000E+01      4.782410000000000E-01     -9.473827000000000E+01
4805000000.000000      6.457214000000000E-01      1.075000000000000E+01      4.796753000000000E-01     -9.553514000000000E+01
4806000000.000000      6.425781000000000E-01      1.091064000000000E+01      4.795532000000000E-01     -9.648046000000000E+01
4807000000.000000      6.414795000000000E-01      1.082129000000000E+01      4.819641000000000E-01     -9.701952000000000E+01
4808000000.000000      6.388245000000000E-01      1.079248000000000E+01      4.864807000000000E-01     -9.758202000000000E+01
4809000000.000000      6.376953000000000E-01      1.093408000000000E+01      4.868317000000000E-01     -9.858593000000000E+01
4810000000.000000      6.377258000000000E-01      1.099023000000000E+01      4.877625000000000E-01     -9.910545000000000E+01
4811000000.000000      6.348877000000000E-01      1.102734000000000E+01      4.889069000000000E-01     -1.001328000000000E+02
4812000000.000000      6.350403000000000E-01      1.115234000000000E+01      4.896088000000000E-01     -1.006953000000000E+02
4813000000.000000      6.321411000000000E-01      1.116064000000000E+01      4.909363000000000E-01     -1.015820000000000E+02
4814000000.000000      6.309509000000000E-01      1.124561000000000E+01      4.925232000000000E-01     -1.022773000000000E+02
4815000000.000000      6.300964000000000E-01      1.126465000000000E+01      4.927521000000000E-01     -1.031406000000000E+02
4816000000.000000      6.289978000000000E-01      1.124561000000000E+01      4.936829000000000E-01     -1.036523000000000E+02
4817000000.000000      6.250610000000000E-01      1.148438000000000E+01      4.943390000000000E-01     -1.044297000000000E+02
4818000000.000000      6.266174000000000E-01      1.143262000000000E+01      4.960938000000000E-01     -1.052500000000000E+02
4819000000.000000      6.242981000000000E-01      1.140088000000000E+01      4.958038000000000E-01     -1.061172000000000E+02
4820000000.000000      6.223145000000000E-01      1.159863000000000E+01      4.971466000000000E-01     -1.067461000000000E+02
4821000000.000000      6.203613000000000E-01      1.165234000000000E+01      4.977570000000000E-01     -1.077031000000000E+02
4822000000.000000      6.188965000000000E-01      1.177832000000000E+01      4.961853000000000E-01     -1.082227000000000E+02
4823000000.000000      6.189575000000000E-01      1.168213000000000E+01      4.984436000000000E-01     -1.090937000000000E+02
4824000000.000000      6.175842000000000E-01      1.189258000000000E+01      4.969635000000000E-01     -1.097812000000000E+02
4825000000.000000      6.177979000000000E-01      1.206836000000000E+01      4.997101000000000E-01     -1.106797000000000E+02
4826000000.000000      6.174927000000000E-01      1.215771000000000E+01      4.968719000000000E-01     -1.115273000000000E+02
4827000000.000000      6.165771000000000E-01      1.230713000000000E+01      4.982452000000000E-01     -1.120859000000000E+02
4828000000.000000      6.169739000000000E-01      1.214258000000000E+01      5.012817000000000E-01     -1.128164000000000E+02
4829000000.000000      6.158447000000000E-01      1.261230000000000E+01      4.997864000000000E-01     -1.135938000000000E+02
4830000000.000000      6.157532000000000E-01      1.251611000000000E+01      5.001831000000000E-01     -1.144453000000000E+02
4831000000.000000      6.154175000000000E-01      1.256934000000000E+01      4.994812000000000E-01     -1.150820000000000E+02
4832000000.000000      6.145325000000000E-01      1.289893000000000E+01      5.000916000000000E-01     -1.157656000000000E+02
4833000000.000000      6.130371000000000E-01      1.287305000000000E+01      4.985504000000000E-01     -1.165195000000000E+02
4834000000.000000      6.139221000000000E-01      1.291553000000000E+01      4.989471000000000E-01     -1.174961000000000E+02
4835000000.000000      6.135254000000000E-01      1.312012000000000E+01      5.001831000000000E-01     -1.181445000000000E+02
4836000000.000000      6.137085000000000E-01      1.346191000000000E+01      4.990234000000000E-01     -1.187461000000000E+02
4837000000.000000      6.126709000000000E-01      1.362305000000000E+01      4.989319000000000E-01     -1.199219000000000E+02
4838000000.000000      6.134644000000000E-01      1.351416000000000E+01      4.996338000000000E-01     -1.203906000000000E+02
4839000000.000000      6.170044000000000E-01      1.378467000000000E+01      4.992981000000000E-01     -1.212383000000000E+02
4840000000.000000      6.145935000000000E-01      1.365869000000000E+01      5.000305000000000E-01     -1.219102000000000E+02
4841000000.000000      6.160278000000000E-01      1.393994000000000E+01      4.975586000000000E-01     -1.228164000000000E+02
4842000000.000000      6.144714000000000E-01      1.397852000000000E+01      4.979401000000000E-01     -1.235547000000000E+02
4843000000.000000      6.181030000000000E-01      1.397314000000000E+01      4.983978000000000E-01     -1.243867000000000E+02
4844000000.000000      6.154785000000000E-01      1.417773000000000E+01      4.956818000000000E-01     -1.252422000000000E+02
4845000000.000000      6.165771000000000E-01      1.427393000000000E+01      4.942780000000000E-01     -1.261523000000000E+02
4846000000.000000      6.193848000000000E-01      1.421729000000000E+01      4.937439000000000E-01     -1.269141000000000E+02
4847000000.000000      6.193542000000000E-01      1.448682000000000E+01      4.934845000000000E-01     -1.277734000000000E+02
4848000000.000000      6.194153000000000E-01      1.436719000000000E+01      4.915314000000000E-01     -1.285469000000000E+02
4849000000.000000      6.199951000000000E-01      1.447021000000000E+01      4.907837000000000E-01     -1.295312000000000E+02
4850000000.000000      6.200256000000000E-01      1.461865000000000E+01      4.884033000000000E-01     -1.301172000000000E+02
4851000000.000000      6.225891000000000E-01      1.487402000000000E+01      4.889069000000000E-01     -1.311797000000000E+02
4852000000.000000      6.243286000000000E-01      1.467188000000000E+01      4.865265000000000E-01     -1.320469000000000E+02
4853000000.000000      6.247864000000000E-01      1.483838000000000E+01      4.830627000000000E-01     -1.328047000000000E+02
4854000000.000000      6.264954000000000E-01      1.480957000000000E+01      4.810944000000000E-01     -1.337265000000000E+02
4855000000.000000      6.259155000000000E-01      1.489746000000000E+01      4.795990000000000E-01     -1.346562000000000E+02
4856000000.000000      6.261902000000000E-01      1.489307000000000E+01      4.757996000000000E-01     -1.353516000000000E+02
4857000000.000000      6.297607000000000E-01      1.488623000000000E+01      4.749603000000000E-01     -1.361094000000000E+02
4858000000.000000      6.279297000000000E-01      1.501416000000000E+01      4.712372000000000E-01     -1.372109000000000E+02
4859000000.000000      6.307373000000000E-01      1.489014000000000E+01      4.706726000000000E-01     -1.380938000000000E+02
4860000000.000000      6.299438000000000E-01      1.518994000000000E+01      4.668579000000000E-01     -1.387656000000000E+02
4861000000.000000      6.316528000000000E-01      1.514990000000000E+01      4.628906000000000E-01     -1.398125000000000E+02
4862000000.000000      6.331787000000000E-01      1.514844000000000E+01      4.614105000000000E-01     -1.405078000000000E+02
4863000000.000000      6.352539000000000E-01      1.528174000000000E+01      4.561768000000000E-01     -1.414063000000000E+02
4864000000.000000      6.369324000000000E-01      1.514453000000000E+01      4.540100000000000E-01     -1.420781000000000E+02
4865000000.000000      6.359863000000000E-01      1.498535000000000E+01      4.500427000000000E-01     -1.429375000000000E+02
4866000000.000000      6.391296000000000E-01      1.507715000000000E+01      4.462433000000000E-01     -1.437578000000000E+02
4867000000.000000      6.380920000000000E-01      1.520361000000000E+01      4.427032000000000E-01     -1.447266000000000E+02
4868000000.000000      6.394958000000000E-01      1.492041000000000E+01      4.381714000000000E-01     -1.454375000000000E+02
4869000000.000000      6.419678000000000E-01      1.513086000000000E+01      4.353027000000000E-01     -1.463047000000000E+02
4870000000.000000      6.429443000000000E-01      1.521045000000000E+01      4.310913000000000E-01     -1.466953000000000E+02
4871000000.000000      6.453857000000000E-01      1.485205000000000E+01      4.263153000000000E-01     -1.476563000000000E+02
4872000000.000000      6.471863000000000E-01      1.515967000000000E+01      4.222717000000000E-01     -1.483594000000000E+02
4873000000.000000      6.476746000000000E-01      1.508252000000000E+01      4.184113000000000E-01     -1.492266000000000E+02
4874000000.000000      6.480713000000000E-01      1.499609000000000E+01      4.136658000000000E-01     -1.498906000000000E+02
4875000000.000000      6.503601000000000E-01      1.500977000000000E+01      4.094696000000000E-01     -1.504922000000000E+02
4876000000.000000      6.520691000000000E-01      1.499902000000000E+01      4.058228000000000E-01     -1.511016000000000E+02
4877000000.000000      6.545715000000000E-01      1.477490000000000E+01      4.004974000000000E-01     -1.517656000000000E+02
4878000000.000000      6.533813000000000E-01      1.456885000000000E+01      3.954010000000000E-01     -1.526562000000000E+02
4879000000.000000      6.550903000000000E-01      1.493555000000000E+01      3.905334000000000E-01     -1.529531000000000E+02
4880000000.000000      6.583252000000000E-01      1.469531000000000E+01      3.876648000000000E-01     -1.538359000000000E+02
4881000000.000000      6.583862000000000E-01      1.469385000000000E+01      3.828888000000000E-01     -1.540781000000000E+02
4882000000.000000      6.603699000000000E-01      1.461035000000000E+01      3.802185000000000E-01     -1.548672000000000E+02
4883000000.000000      6.589355000000000E-01      1.441943000000000E+01      3.731537000000000E-01     -1.556406000000000E+02
4884000000.000000      6.618347000000000E-01      1.456885000000000E+01      3.695831000000000E-01     -1.560547000000000E+02
4885000000.000000      6.633301000000000E-01      1.444141000000000E+01      3.653870000000000E-01     -1.563359000000000E+02
4886000000.000000      6.661377000000000E-01      1.439453000000000E+01      3.602600000000000E-01     -1.569375000000000E+02
4887000000.000000      6.654663000000000E-01      1.427637000000000E+01      3.574371000000000E-01     -1.574922000000000E+02
4888000000.000000      6.632385000000000E-01      1.412842000000000E+01      3.534088000000000E-01     -1.579687000000000E+02
4889000000.000000      6.675415000000000E-01      1.411035000000000E+01      3.475189000000000E-01     -1.585000000000000E+02
4890000000.000000      6.676941000000000E-01      1.395654000000000E+01      3.435364000000000E-01     -1.591328000000000E+02
4891000000.000000      6.689453000000000E-01      1.384521000000000E+01      3.385925000000000E-01     -1.592578000000000E+02
4892000000.000000      6.703796000000000E-01      1.394434000000000E+01      3.353577000000000E-01     -1.595234000000000E+02
4893000000.000000      6.719666000000000E-01      1.381494000000000E+01      3.307495000000000E-01     -1.602344000000000E+02
4894000000.000000      6.722107000000000E-01      1.356494000000000E+01      3.260345000000000E-01     -1.605937000000000E+02
4895000000.000000      6.747131000000000E-01      1.342920000000000E+01      3.241425000000000E-01     -1.611094000000000E+02
4896000000.000000      6.742554000000000E-01      1.343994000000000E+01      3.202209000000000E-01     -1.613516000000000E+02
4897000000.000000      6.740112000000000E-01      1.345410000000000E+01      3.161316000000000E-01     -1.618125000000000E+02
4898000000.000000      6.778259000000000E-01      1.326563000000000E+01      3.124084000000000E-01     -1.620312000000000E+02
4899000000.000000      6.770630000000000E-01      1.326563000000000E+01      3.086090000000000E-01     -1.626641000000000E+02
4900000000.000000      6.768799000000000E-01      1.296924000000000E+01      3.047180000000000E-01     -1.628984000000000E+02
4901000000.000000      6.781616000000000E-01      1.311621000000000E+01      3.013306000000000E-01     -1.631875000000000E+02
4902000000.000000      6.801147000000000E-01      1.302979000000000E+01      2.984467000000000E-01     -1.634063000000000E+02
4903000000.000000      6.773987000000000E-01      1.272998000000000E+01      2.932129000000000E-01     -1.637891000000000E+02
4904000000.000000      6.796570000000000E-01      1.261914000000000E+01      2.912292000000000E-01     -1.641562000000000E+02
4905000000.000000      6.831360000000000E-01      1.266162000000000E+01      2.876434000000000E-01     -1.645625000000000E+02
4906000000.000000      6.819458000000000E-01      1.270410000000000E+01      2.835236000000000E-01     -1.647266000000000E+02
4907000000.000000      6.844482000000000E-01      1.221680000000000E+01      2.801666000000000E-01     -1.652344000000000E+02
4908000000.000000      6.850281000000000E-01      1.213428000000000E+01      2.772827000000000E-01     -1.655156000000000E+02
4909000000.000000      6.843262000000000E-01      1.224951000000000E+01      2.733765000000000E-01     -1.658281000000000E+02
4910000000.000000      6.861267000000000E-01      1.209424000000000E+01      2.692871000000000E-01     -1.661016000000000E+02
4911000000.000000      6.869507000000000E-01      1.182373000000000E+01      2.665405000000000E-01     -1.663750000000000E+02
4912000000.000000      6.857300000000000E-01      1.200244000000000E+01      2.624207000000000E-01     -1.670000000000000E+02
4913000000.000000      6.875916000000000E-01      1.177734000000000E+01      2.588043000000000E-01     -1.671172000000000E+02
4914000000.000000      6.888123000000000E-01      1.166992000000000E+01      2.553864000000000E-01     -1.673828000000000E+02
4915000000.000000      6.868896000000000E-01      1.158203000000000E+01      2.515411000000000E-01     -1.678281000000000E+02
4916000000.000000      6.895142000000000E-01      1.144336000000000E+01      2.482376000000000E-01     -1.682109000000000E+02
4917000000.000000      6.885071000000000E-01      1.154346000000000E+01      2.444305000000000E-01     -1.683750000000000E+02
4918000000.000000      6.915588000000000E-01      1.137598000000000E+01      2.405090000000000E-01     -1.687031000000000E+02
4919000000.000000      6.902161000000000E-01      1.137451000000000E+01      2.377396000000000E-01     -1.687813000000000E+02
4920000000.000000      6.912537000000000E-01      1.113574000000000E+01      2.336578000000000E-01     -1.692734000000000E+02
4921000000.000000      6.916809000000000E-01      1.112598000000000E+01      2.307663000000000E-01     -1.693516000000000E+02
4922000000.000000      6.914063000000000E-01      1.099023000000000E+01      2.265930000000000E-01     -1.694219000000000E+02
4923000000.000000      6.928406000000000E-01      1.106006000000000E+01      2.226181000000000E-01     -1.697109000000000E+02
4924000000.000000      6.930847000000000E-01      1.079932000000000E+01      2.187271000000000E-01     -1.702812000000000E+02
4925000000.000000      6.926575000000000E-01      1.050977000000000E+01      2.152557000000000E-01     -1.703203000000000E+02
4926000000.000000      6.929932000000000E-01      1.059863000000000E+01      2.116928000000000E-01     -1.704297000000000E+02
4927000000.000000      6.915283000000000E-01      1.051660000000000E+01      2.077179000000000E-01     -1.705156000000000E+02
4928000000.000000      6.953735000000000E-01      1.029541000000000E+01      2.040787000000000E-01     -1.706875000000000E+02
4929000000.000000      6.940613000000000E-01      1.020752000000000E+01      1.998596000000000E-01     -1.707891000000000E+02
4930000000.000000      6.957397000000000E-01      1.017041000000000E+01      1.964951000000000E-01     -1.709766000000000E+02
4931000000.000000      6.965027000000000E-01      1.011279000000000E+01      1.931686000000000E-01     -1.710391000000000E+02
4932000000.000000      6.936340000000000E-01      1.006055000000000E+01      1.886597000000000E-01     -1.709609000000000E+02
4933000000.000000      6.963806000000000E-01      9.817383000000000E+00      1.843033000000000E-01     -1.708906000000000E+02
4934000000.000000      6.990356000000000E-01      9.700684000000000E+00      1.809998000000000E-01     -1.710859000000000E+02
4935000000.000000      6.994629000000000E-01      9.594727000000000E+00      1.776428000000000E-01     -1.706406000000000E+02
4936000000.000000      6.977539000000000E-01      9.670410000000000E+00      1.730881000000000E-01     -1.707187000000000E+02
4937000000.000000      6.999207000000000E-01      9.467285000000000E+00      1.696930000000000E-01     -1.705937000000000E+02
4938000000.000000      6.989746000000000E-01      9.389160000000000E+00      1.663742000000000E-01     -1.700391000000000E+02
4939000000.000000      6.987305000000000E-01      9.306641000000000E+00      1.626129000000000E-01     -1.698828000000000E+02
4940000000.000000      7.009277000000000E-01      9.193848000000000E+00      1.580887000000000E-01     -1.697187000000000E+02
4941000000.000000      7.019653000000000E-01      8.956543000000000E+00      1.550064000000000E-01     -1.692266000000000E+02
4942000000.000000      7.021484000000000E-01      9.140625000000000E+00      1.508102000000000E-01     -1.688125000000000E+02
4943000000.000000      7.007446000000000E-01      8.799805000000000E+00      1.480942000000000E-01     -1.683359000000000E+02
4944000000.000000      7.008667000000000E-01      8.727051000000000E+00      1.443100000000000E-01     -1.678125000000000E+02
4945000000.000000      7.021484000000000E-01      8.666504000000000E+00      1.408081000000000E-01     -1.670938000000000E+02
4946000000.000000      7.043762000000000E-01      8.569336000000000E+00      1.378326000000000E-01     -1.666406000000000E+02
4947000000.000000      7.034302000000000E-01      8.395996000000000E+00      1.346741000000000E-01     -1.656172000000000E+02
4948000000.000000      7.033081000000000E-01      8.420898000000000E+00      1.305923000000000E-01     -1.648516000000000E+02
4949000000.000000      7.045593000000000E-01      8.336914000000000E+00      1.283188000000000E-01     -1.636953000000000E+02
4950000000.000000      7.055359000000000E-01      8.265625000000000E+00      1.252594000000000E-01     -1.629531000000000E+02
4951000000.000000      7.058716000000000E-01      8.126953000000000E+00      1.229477000000000E-01     -1.617812000000000E+02
4952000000.000000      7.053528000000000E-01      8.100586000000000E+00      1.195602000000000E-01     -1.605312000000000E+02
4953000000.000000      7.055359000000000E-01      7.923828000000000E+00      1.174660000000000E-01     -1.591563000000000E+02
4954000000.000000      7.084351000000000E-01      7.710938000000000E+00      1.155624000000000E-01     -1.578984000000000E+02
