! Network Analyzer HP8722D
! Hewlett-Packard
! Data name: Linha & Wilkinson
! Saver's name: Rodrigo Anjos
! Comments: Teste da utilização de aquisição
continua pelo VNA HP8722D
! Time and date: 22/5/2025 09:28
!              Frequency                     S11                                                   S21                                                   S12                                                   S22
# HZ  S  MA R 50
4800000000.000000      6.458130000000000E-01      1.038721000000000E+01      4.745636000000000E-01     -9.368359000000000E+01
4801000000.000000      6.444702000000000E-01      1.047266000000000E+01      4.749603000000000E-01     -9.446093000000000E+01
4802000000.000000      6.433105000000000E-01      1.040381000000000E+01      4.780426000000000E-01     -9.509766000000000E+01
4803000000.000000      6.420898000000000E-01      1.037109000000000E+01      4.801636000000000E-01     -9.593750000000000E+01
4804000000.000000      6.402283000000000E-01      1.045752000000000E+01      4.818878000000000E-01     -9.666016000000000E+01
4805000000.000000      6.404724000000000E-01      1.031445000000000E+01      4.835358000000000E-01     -9.745703000000000E+01
4806000000.000000      6.374207000000000E-01      1.033398000000000E+01      4.834290000000000E-01     -9.821875000000000E+01
4807000000.000000      6.358032000000000E-01      1.034912000000000E+01      4.854736000000000E-01     -9.903515000000000E+01
4808000000.000000      6.330566000000000E-01      1.045068000000000E+01      4.855194000000000E-01     -9.973045000000000E+01
4809000000.000000      6.318359000000000E-01      1.063721000000000E+01      4.886169000000000E-01     -1.006758000000000E+02
4810000000.000000      6.304016000000000E-01      1.046436000000000E+01      4.899597000000000E-01     -1.012461000000000E+02
4811000000.000000      6.291809000000000E-01      1.054395000000000E+01      4.923248000000000E-01     -1.022031000000000E+02
4812000000.000000      6.295776000000000E-01      1.077734000000000E+01      4.926300000000000E-01     -1.026992000000000E+02
4813000000.000000      6.274414000000000E-01      1.073730000000000E+01      4.935608000000000E-01     -1.035938000000000E+02
4814000000.000000      6.250000000000000E-01      1.070313000000000E+01      4.955597000000000E-01     -1.042383000000000E+02
4815000000.000000      6.231384000000000E-01      1.079932000000000E+01      4.929810000000000E-01     -1.051601000000000E+02
4816000000.000000      6.218872000000000E-01      1.091211000000000E+01      4.965363000000000E-01     -1.058320000000000E+02
4817000000.000000      6.218262000000000E-01      1.094775000000000E+01      4.969482000000000E-01     -1.065195000000000E+02
4818000000.000000      6.205444000000000E-01      1.101611000000000E+01      4.963379000000000E-01     -1.073320000000000E+02
4819000000.000000      6.188354000000000E-01      1.108789000000000E+01      4.974823000000000E-01     -1.081797000000000E+02
4820000000.000000      6.184082000000000E-01      1.129102000000000E+01      4.977570000000000E-01     -1.087187000000000E+02
4821000000.000000      6.172485000000000E-01      1.129785000000000E+01      4.984131000000000E-01     -1.096445000000000E+02
4822000000.000000      6.158142000000000E-01      1.138867000000000E+01      4.972687000000000E-01     -1.101523000000000E+02
4823000000.000000      6.157532000000000E-01      1.134033000000000E+01      4.988098000000000E-01     -1.110742000000000E+02
4824000000.000000      6.154175000000000E-01      1.166309000000000E+01      4.979858000000000E-01     -1.118594000000000E+02
4825000000.000000      6.133423000000000E-01      1.152588000000000E+01      4.990082000000000E-01     -1.125312000000000E+02
4826000000.000000      6.130371000000000E-01      1.163037000000000E+01      4.994812000000000E-01     -1.135078000000000E+02
4827000000.000000      6.121521000000000E-01      1.191162000000000E+01      4.997101000000000E-01     -1.140430000000000E+02
4828000000.000000      6.146851000000000E-01      1.192139000000000E+01      4.992218000000000E-01     -1.146836000000000E+02
4829000000.000000      6.119080000000000E-01      1.226855000000000E+01      5.001831000000000E-01     -1.156133000000000E+02
4830000000.000000      6.134644000000000E-01      1.213135000000000E+01      5.009460000000000E-01     -1.164375000000000E+02
4831000000.000000      6.124878000000000E-01      1.231543000000000E+01      4.999847000000000E-01     -1.173984000000000E+02
4832000000.000000      6.108398000000000E-01      1.264111000000000E+01      5.005798000000000E-01     -1.179102000000000E+02
4833000000.000000      6.102600000000000E-01      1.266553000000000E+01      4.990082000000000E-01     -1.185586000000000E+02
4834000000.000000      6.118774000000000E-01      1.266016000000000E+01      4.985504000000000E-01     -1.192695000000000E+02
4835000000.000000      6.125488000000000E-01      1.283740000000000E+01      4.991302000000000E-01     -1.202617000000000E+02
4836000000.000000      6.129761000000000E-01      1.297998000000000E+01      4.976196000000000E-01     -1.210703000000000E+02
4837000000.000000      6.131287000000000E-01      1.318750000000000E+01      4.969788000000000E-01     -1.220391000000000E+02
4838000000.000000      6.107788000000000E-01      1.311865000000000E+01      4.980469000000000E-01     -1.224414000000000E+02
4839000000.000000      6.161194000000000E-01      1.345654000000000E+01      4.973907000000000E-01     -1.231914000000000E+02
4840000000.000000      6.142273000000000E-01      1.312549000000000E+01      4.962311000000000E-01     -1.240977000000000E+02
4841000000.000000      6.133423000000000E-01      1.343457000000000E+01      4.967804000000000E-01     -1.251211000000000E+02
4842000000.000000      6.145020000000000E-01      1.351416000000000E+01      4.952545000000000E-01     -1.256836000000000E+02
4843000000.000000      6.168823000000000E-01      1.351318000000000E+01      4.958191000000000E-01     -1.265859000000000E+02
4844000000.000000      6.155701000000000E-01      1.358154000000000E+01      4.921417000000000E-01     -1.274101000000000E+02
4845000000.000000      6.184692000000000E-01      1.386328000000000E+01      4.920807000000000E-01     -1.283594000000000E+02
4846000000.000000      6.200867000000000E-01      1.384277000000000E+01      4.920044000000000E-01     -1.290000000000000E+02
4847000000.000000      6.194763000000000E-01      1.392920000000000E+01      4.891357000000000E-01     -1.298906000000000E+02
4848000000.000000      6.181030000000000E-01      1.393457000000000E+01      4.876404000000000E-01     -1.305859000000000E+02
4849000000.000000      6.196899000000000E-01      1.414307000000000E+01      4.859619000000000E-01     -1.314062000000000E+02
4850000000.000000      6.201782000000000E-01      1.424756000000000E+01      4.828491000000000E-01     -1.322813000000000E+02
4851000000.000000      6.213684000000000E-01      1.409521000000000E+01      4.831696000000000E-01     -1.331875000000000E+02
4852000000.000000      6.232300000000000E-01      1.421484000000000E+01      4.808655000000000E-01     -1.341641000000000E+02
4853000000.000000      6.236267000000000E-01      1.429688000000000E+01      4.773407000000000E-01     -1.350625000000000E+02
4854000000.000000      6.261902000000000E-01      1.445898000000000E+01      4.757996000000000E-01     -1.358203000000000E+02
4855000000.000000      6.262512000000000E-01      1.431885000000000E+01      4.735870000000000E-01     -1.364922000000000E+02
4856000000.000000      6.251831000000000E-01      1.428760000000000E+01      4.709167000000000E-01     -1.374687000000000E+02
4857000000.000000      6.298828000000000E-01      1.440137000000000E+01      4.688721000000000E-01     -1.382656000000000E+02
4858000000.000000      6.290894000000000E-01      1.457568000000000E+01      4.656982000000000E-01     -1.391953000000000E+02
4859000000.000000      6.308899000000000E-01      1.439893000000000E+01      4.630280000000000E-01     -1.400625000000000E+02
4860000000.000000      6.304626000000000E-01      1.445801000000000E+01      4.586029000000000E-01     -1.408281000000000E+02
4861000000.000000      6.325073000000000E-01      1.449756000000000E+01      4.565582000000000E-01     -1.419375000000000E+02
4862000000.000000      6.341553000000000E-01      1.448242000000000E+01      4.537506000000000E-01     -1.423750000000000E+02
4863000000.000000      6.373596000000000E-01      1.460059000000000E+01      4.485321000000000E-01     -1.433438000000000E+02
4864000000.000000      6.382751000000000E-01      1.456201000000000E+01      4.462280000000000E-01     -1.440312000000000E+02
4865000000.000000      6.386414000000000E-01      1.442334000000000E+01      4.423370000000000E-01     -1.448437000000000E+02
4866000000.000000      6.390686000000000E-01      1.438477000000000E+01      4.383240000000000E-01     -1.457813000000000E+02
4867000000.000000      6.389160000000000E-01      1.440576000000000E+01      4.339142000000000E-01     -1.466406000000000E+02
4868000000.000000      6.412659000000000E-01      1.437695000000000E+01      4.309845000000000E-01     -1.473984000000000E+02
4869000000.000000      6.434631000000000E-01      1.430664000000000E+01      4.264526000000000E-01     -1.481562000000000E+02
4870000000.000000      6.450195000000000E-01      1.424756000000000E+01      4.224396000000000E-01     -1.484531000000000E+02
4871000000.000000      6.472473000000000E-01      1.416113000000000E+01      4.184570000000000E-01     -1.494766000000000E+02
4872000000.000000      6.470642000000000E-01      1.431494000000000E+01      4.149475000000000E-01     -1.499687000000000E+02
4873000000.000000      6.482239000000000E-01      1.439209000000000E+01      4.098969000000000E-01     -1.507422000000000E+02
4874000000.000000      6.493225000000000E-01      1.421191000000000E+01      4.049683000000000E-01     -1.516562000000000E+02
4875000000.000000      6.502991000000000E-01      1.415430000000000E+01      4.006958000000000E-01     -1.522031000000000E+02
4876000000.000000      6.539001000000000E-01      1.431641000000000E+01      3.968506000000000E-01     -1.527656000000000E+02
4877000000.000000      6.539917000000000E-01      1.410889000000000E+01      3.920135000000000E-01     -1.535469000000000E+02
4878000000.000000      6.546326000000000E-01      1.416504000000000E+01      3.878174000000000E-01     -1.541016000000000E+02
4879000000.000000      6.572571000000000E-01      1.393604000000000E+01      3.818817000000000E-01     -1.546250000000000E+02
4880000000.000000      6.588135000000000E-01      1.404736000000000E+01      3.785095000000000E-01     -1.554141000000000E+02
4881000000.000000      6.584778000000000E-01      1.380273000000000E+01      3.743744000000000E-01     -1.556719000000000E+02
4882000000.000000      6.607971000000000E-01      1.389453000000000E+01      3.711700000000000E-01     -1.561563000000000E+02
4883000000.000000      6.613464000000000E-01      1.363770000000000E+01      3.656311000000000E-01     -1.568594000000000E+02
4884000000.000000      6.624756000000000E-01      1.383691000000000E+01      3.616638000000000E-01     -1.574219000000000E+02
4885000000.000000      6.639099000000000E-01      1.357910000000000E+01      3.556519000000000E-01     -1.576406000000000E+02
4886000000.000000      6.658936000000000E-01      1.364502000000000E+01      3.536377000000000E-01     -1.581484000000000E+02
4887000000.000000      6.638794000000000E-01      1.351416000000000E+01      3.492432000000000E-01     -1.587578000000000E+02
4888000000.000000      6.652527000000000E-01      1.318896000000000E+01      3.444672000000000E-01     -1.591719000000000E+02
4889000000.000000      6.673889000000000E-01      1.331543000000000E+01      3.401337000000000E-01     -1.593750000000000E+02
4890000000.000000      6.651001000000000E-01      1.318750000000000E+01      3.364868000000000E-01     -1.605234000000000E+02
4891000000.000000      6.710815000000000E-01      1.309814000000000E+01      3.312836000000000E-01     -1.606172000000000E+02
4892000000.000000      6.707764000000000E-01      1.304053000000000E+01      3.272400000000000E-01     -1.607109000000000E+02
4893000000.000000      6.714478000000000E-01      1.271631000000000E+01      3.229675000000000E-01     -1.613906000000000E+02
4894000000.000000      6.731262000000000E-01      1.291162000000000E+01      3.196869000000000E-01     -1.617500000000000E+02
4895000000.000000      6.766052000000000E-01      1.278076000000000E+01      3.170471000000000E-01     -1.619844000000000E+02
4896000000.000000      6.737671000000000E-01      1.267822000000000E+01      3.128204000000000E-01     -1.623594000000000E+02
4897000000.000000      6.751709000000000E-01      1.262695000000000E+01      3.080292000000000E-01     -1.626953000000000E+02
4898000000.000000      6.756287000000000E-01      1.253125000000000E+01      3.053131000000000E-01     -1.630000000000000E+02
4899000000.000000      6.783447000000000E-01      1.242822000000000E+01      3.014069000000000E-01     -1.634922000000000E+02
4900000000.000000      6.774597000000000E-01      1.225928000000000E+01      2.973938000000000E-01     -1.638203000000000E+02
4901000000.000000      6.788025000000000E-01      1.223438000000000E+01      2.938080000000000E-01     -1.641484000000000E+02
4902000000.000000      6.797485000000000E-01      1.219189000000000E+01      2.903290000000000E-01     -1.643437000000000E+02
4903000000.000000      6.809387000000000E-01      1.218750000000000E+01      2.860870000000000E-01     -1.648359000000000E+02
4904000000.000000      6.809998000000000E-01      1.183496000000000E+01      2.829590000000000E-01     -1.651562000000000E+02
4905000000.000000      6.816711000000000E-01      1.179639000000000E+01      2.801971000000000E-01     -1.654844000000000E+02
4906000000.000000      6.820679000000000E-01      1.181836000000000E+01      2.759399000000000E-01     -1.655547000000000E+02
4907000000.000000      6.825867000000000E-01      1.160547000000000E+01      2.735291000000000E-01     -1.661250000000000E+02
4908000000.000000      6.854858000000000E-01      1.148584000000000E+01      2.694550000000000E-01     -1.664453000000000E+02
4909000000.000000      6.848145000000000E-01      1.149268000000000E+01      2.656555000000000E-01     -1.666875000000000E+02
4910000000.000000      6.851501000000000E-01      1.131982000000000E+01      2.620544000000000E-01     -1.668828000000000E+02
4911000000.000000      6.862183000000000E-01      1.133203000000000E+01      2.589264000000000E-01     -1.671328000000000E+02
4912000000.000000      6.857910000000000E-01      1.130615000000000E+01      2.554321000000000E-01     -1.675469000000000E+02
4913000000.000000      6.856689000000000E-01      1.111230000000000E+01      2.520294000000000E-01     -1.678984000000000E+02
4914000000.000000      6.871033000000000E-01      1.089551000000000E+01      2.480316000000000E-01     -1.679766000000000E+02
4915000000.000000      6.883850000000000E-01      1.086377000000000E+01      2.442322000000000E-01     -1.684297000000000E+02
4916000000.000000      6.892700000000000E-01      1.085547000000000E+01      2.409286000000000E-01     -1.687656000000000E+02
4917000000.000000      6.888733000000000E-01      1.054932000000000E+01      2.378006000000000E-01     -1.689141000000000E+02
4918000000.000000      6.901550000000000E-01      1.057666000000000E+01      2.340012000000000E-01     -1.691015000000000E+02
4919000000.000000      6.880188000000000E-01      1.059180000000000E+01      2.306366000000000E-01     -1.691719000000000E+02
4920000000.000000      6.902771000000000E-01      1.027490000000000E+01      2.266312000000000E-01     -1.698281000000000E+02
4921000000.000000      6.907349000000000E-01      1.026807000000000E+01      2.233734000000000E-01     -1.698047000000000E+02
4922000000.000000      6.906433000000000E-01      1.020459000000000E+01      2.196350000000000E-01     -1.697891000000000E+02
4923000000.000000      6.926575000000000E-01      1.010840000000000E+01      2.155228000000000E-01     -1.699531000000000E+02
4924000000.000000      6.935425000000000E-01      9.920410000000000E+00      2.116699000000000E-01     -1.703750000000000E+02
4925000000.000000      6.930237000000000E-01      9.822754000000000E+00      2.077255000000000E-01     -1.702969000000000E+02
4926000000.000000      6.923218000000000E-01      9.725586000000000E+00      2.046967000000000E-01     -1.707500000000000E+02
4927000000.000000      6.926270000000000E-01      9.478027000000000E+00      2.004242000000000E-01     -1.706640000000000E+02
4928000000.000000      6.962891000000000E-01      9.537109000000000E+00      1.970062000000000E-01     -1.706875000000000E+02
4929000000.000000      6.938782000000000E-01      9.379395000000000E+00      1.932068000000000E-01     -1.707266000000000E+02
4930000000.000000      6.929626000000000E-01      9.442383000000000E+00      1.892548000000000E-01     -1.707344000000000E+02
4931000000.000000      6.934814000000000E-01      9.280273000000000E+00      1.863861000000000E-01     -1.708828000000000E+02
4932000000.000000      6.945190000000000E-01      9.085449000000000E+00      1.824493000000000E-01     -1.707500000000000E+02
4933000000.000000      6.935425000000000E-01      9.029297000000000E+00      1.778030000000000E-01     -1.702266000000000E+02
4934000000.000000      6.977539000000000E-01      8.992188000000000E+00      1.746445000000000E-01     -1.705937000000000E+02
4935000000.000000      6.994629000000000E-01      9.049805000000000E+00      1.712189000000000E-01     -1.701953000000000E+02
4936000000.000000      6.959839000000000E-01      8.853516000000000E+00      1.673279000000000E-01     -1.700859000000000E+02
4937000000.000000      6.974182000000000E-01      8.701172000000000E+00      1.633606000000000E-01     -1.696797000000000E+02
4938000000.000000      6.961670000000000E-01      8.625488000000000E+00      1.599045000000000E-01     -1.693516000000000E+02
4939000000.000000      6.971436000000000E-01      8.473145000000000E+00      1.566162000000000E-01     -1.689922000000000E+02
4940000000.000000      6.999207000000000E-01      8.478516000000000E+00      1.524582000000000E-01     -1.688516000000000E+02
4941000000.000000      7.000427000000000E-01      8.422363000000000E+00      1.495667000000000E-01     -1.682266000000000E+02
4942000000.000000      7.008057000000000E-01      8.319336000000000E+00      1.460648000000000E-01     -1.676484000000000E+02
4943000000.000000      7.021790000000000E-01      8.255859000000000E+00      1.427231000000000E-01     -1.669922000000000E+02
4944000000.000000      7.009888000000000E-01      7.987061000000000E+00      1.395798000000000E-01     -1.663281000000000E+02
4945000000.000000      6.995850000000000E-01      7.879883000000000E+00      1.361237000000000E-01     -1.654219000000000E+02
4946000000.000000      7.039185000000000E-01      7.775391000000000E+00      1.331558000000000E-01     -1.647031000000000E+02
4947000000.000000      7.030640000000000E-01      7.682129000000000E+00      1.299744000000000E-01     -1.637969000000000E+02
4948000000.000000      7.048340000000000E-01      7.680664000000000E+00      1.269073000000000E-01     -1.627891000000000E+02
4949000000.000000      7.020874000000000E-01      7.466553000000000E+00      1.246986000000000E-01     -1.615703000000000E+02
4950000000.000000      7.047729000000000E-01      7.588623000000000E+00      1.222229000000000E-01     -1.603594000000000E+02
4951000000.000000      7.058716000000000E-01      7.346924000000000E+00      1.193161000000000E-01     -1.592969000000000E+02
4952000000.000000      7.043762000000000E-01      7.324951000000000E+00      1.169128000000000E-01     -1.579922000000000E+02
4953000000.000000      7.051392000000000E-01      7.017334000000000E+00      1.147385000000000E-01     -1.563672000000000E+02
4954000000.000000      7.074280000000000E-01      7.156006000000000E+00      1.131020000000000E-01     -1.551016000000000E+02
