! Network Analyzer HP8722D
! Hewlett-Packard
! Data name: Linha & Wilkinson
! Saver's name: Rodrigo Anjos
! Comments: Teste da utilização de aquisição
continua pelo VNA HP8722D
! Time and date: 22/5/2025 10:04
!              Frequency                     S11                                                   S21                                                   S12                                                   S22
# HZ  S  MA R 50
4800000000.000000      6.467590000000000E-01      1.037793000000000E+01      4.744568000000000E-01     -9.397655000000000E+01
4801000000.000000      6.444702000000000E-01      1.036523000000000E+01      4.752197000000000E-01     -9.456640000000000E+01
4802000000.000000      6.432190000000000E-01      1.035449000000000E+01      4.763794000000000E-01     -9.512110000000000E+01
4803000000.000000      6.424561000000000E-01      1.053418000000000E+01      4.813538000000000E-01     -9.570704000000000E+01
4804000000.000000      6.388550000000000E-01      1.041357000000000E+01      4.822540000000000E-01     -9.681641000000000E+01
4805000000.000000      6.396790000000000E-01      1.050000000000000E+01      4.844818000000000E-01     -9.753906000000000E+01
4806000000.000000      6.365356000000000E-01      1.045459000000000E+01      4.844666000000000E-01     -9.824999000000000E+01
4807000000.000000      6.341553000000000E-01      1.047363000000000E+01      4.861450000000000E-01     -9.912109000000000E+01
4808000000.000000      6.325378000000000E-01      1.052588000000000E+01      4.868164000000000E-01     -9.964453000000000E+01
4809000000.000000      6.317139000000000E-01      1.052051000000000E+01      4.877472000000000E-01     -1.006211000000000E+02
4810000000.000000      6.318970000000000E-01      1.061377000000000E+01      4.916229000000000E-01     -1.013242000000000E+02
4811000000.000000      6.286316000000000E-01      1.080615000000000E+01      4.909210000000000E-01     -1.021406000000000E+02
4812000000.000000      6.305847000000000E-01      1.095166000000000E+01      4.925537000000000E-01     -1.028672000000000E+02
4813000000.000000      6.287842000000000E-01      1.079932000000000E+01      4.937744000000000E-01     -1.034766000000000E+02
4814000000.000000      6.246338000000000E-01      1.076660000000000E+01      4.956360000000000E-01     -1.042734000000000E+02
4815000000.000000      6.226196000000000E-01      1.094482000000000E+01      4.944611000000000E-01     -1.049805000000000E+02
4816000000.000000      6.229858000000000E-01      1.097217000000000E+01      4.962463000000000E-01     -1.057070000000000E+02
4817000000.000000      6.211243000000000E-01      1.114941000000000E+01      4.967957000000000E-01     -1.066133000000000E+02
4818000000.000000      6.208496000000000E-01      1.113184000000000E+01      4.972687000000000E-01     -1.073203000000000E+02
4819000000.000000      6.201172000000000E-01      1.116748000000000E+01      4.975281000000000E-01     -1.081289000000000E+02
4820000000.000000      6.174011000000000E-01      1.141309000000000E+01      4.976196000000000E-01     -1.086484000000000E+02
4821000000.000000      6.181641000000000E-01      1.122900000000000E+01      4.994202000000000E-01     -1.095156000000000E+02
4822000000.000000      6.159973000000000E-01      1.144873000000000E+01      4.974518000000000E-01     -1.104648000000000E+02
4823000000.000000      6.161499000000000E-01      1.151074000000000E+01      4.999084000000000E-01     -1.111797000000000E+02
4824000000.000000      6.139832000000000E-01      1.175537000000000E+01      4.990997000000000E-01     -1.116797000000000E+02
4825000000.000000      6.146545000000000E-01      1.172900000000000E+01      4.995728000000000E-01     -1.126836000000000E+02
4826000000.000000      6.137085000000000E-01      1.175391000000000E+01      4.999390000000000E-01     -1.134101000000000E+02
4827000000.000000      6.130676000000000E-01      1.188574000000000E+01      5.001221000000000E-01     -1.140977000000000E+02
4828000000.000000      6.136169000000000E-01      1.225342000000000E+01      4.997711000000000E-01     -1.149297000000000E+02
4829000000.000000      6.127930000000000E-01      1.228516000000000E+01      5.017700000000000E-01     -1.154726000000000E+02
4830000000.000000      6.129456000000000E-01      1.220264000000000E+01      5.006714000000000E-01     -1.162695000000000E+02
4831000000.000000      6.129456000000000E-01      1.234717000000000E+01      5.000000000000000E-01     -1.172148000000000E+02
4832000000.000000      6.122131000000000E-01      1.267090000000000E+01      4.996796000000000E-01     -1.178750000000000E+02
4833000000.000000      6.112061000000000E-01      1.251025000000000E+01      4.998627000000000E-01     -1.185156000000000E+02
4834000000.000000      6.107178000000000E-01      1.280273000000000E+01      4.994202000000000E-01     -1.193516000000000E+02
4835000000.000000      6.138306000000000E-01      1.284961000000000E+01      4.992523000000000E-01     -1.202656000000000E+02
4836000000.000000      6.123047000000000E-01      1.283594000000000E+01      4.984741000000000E-01     -1.209023000000000E+02
4837000000.000000      6.119385000000000E-01      1.325635000000000E+01      4.966888000000000E-01     -1.219102000000000E+02
4838000000.000000      6.115723000000000E-01      1.318750000000000E+01      4.983978000000000E-01     -1.224570000000000E+02
4839000000.000000      6.151123000000000E-01      1.347705000000000E+01      4.961090000000000E-01     -1.233984000000000E+02
4840000000.000000      6.149902000000000E-01      1.316406000000000E+01      4.969940000000000E-01     -1.242617000000000E+02
4841000000.000000      6.134644000000000E-01      1.352539000000000E+01      4.975891000000000E-01     -1.248750000000000E+02
4842000000.000000      6.149902000000000E-01      1.371631000000000E+01      4.955750000000000E-01     -1.257305000000000E+02
4843000000.000000      6.177673000000000E-01      1.361035000000000E+01      4.945679000000000E-01     -1.268594000000000E+02
4844000000.000000      6.169128000000000E-01      1.373682000000000E+01      4.939880000000000E-01     -1.273633000000000E+02
4845000000.000000      6.174011000000000E-01      1.399658000000000E+01      4.915771000000000E-01     -1.282500000000000E+02
4846000000.000000      6.192932000000000E-01      1.377930000000000E+01      4.908905000000000E-01     -1.290625000000000E+02
4847000000.000000      6.205139000000000E-01      1.399658000000000E+01      4.900665000000000E-01     -1.298359000000000E+02
4848000000.000000      6.194458000000000E-01      1.393994000000000E+01      4.871521000000000E-01     -1.307266000000000E+02
4849000000.000000      6.195374000000000E-01      1.406787000000000E+01      4.866943000000000E-01     -1.314531000000000E+02
4850000000.000000      6.221619000000000E-01      1.416113000000000E+01      4.836884000000000E-01     -1.322813000000000E+02
4851000000.000000      6.222534000000000E-01      1.427490000000000E+01      4.834290000000000E-01     -1.333672000000000E+02
4852000000.000000      6.231384000000000E-01      1.430957000000000E+01      4.810181000000000E-01     -1.340547000000000E+02
4853000000.000000      6.243286000000000E-01      1.438770000000000E+01      4.771881000000000E-01     -1.348672000000000E+02
4854000000.000000      6.259766000000000E-01      1.446191000000000E+01      4.765015000000000E-01     -1.357891000000000E+02
4855000000.000000      6.253662000000000E-01      1.440430000000000E+01      4.730835000000000E-01     -1.366875000000000E+02
4856000000.000000      6.270142000000000E-01      1.437695000000000E+01      4.703979000000000E-01     -1.374063000000000E+02
4857000000.000000      6.293640000000000E-01      1.443994000000000E+01      4.695587000000000E-01     -1.383750000000000E+02
4858000000.000000      6.292114000000000E-01      1.448682000000000E+01      4.659424000000000E-01     -1.392812000000000E+02
4859000000.000000      6.306458000000000E-01      1.433301000000000E+01      4.638214000000000E-01     -1.400156000000000E+02
4860000000.000000      6.313782000000000E-01      1.455811000000000E+01      4.606171000000000E-01     -1.407734000000000E+02
4861000000.000000      6.340027000000000E-01      1.459375000000000E+01      4.564514000000000E-01     -1.415469000000000E+02
4862000000.000000      6.342773000000000E-01      1.464990000000000E+01      4.535522000000000E-01     -1.423594000000000E+02
4863000000.000000      6.345825000000000E-01      1.462793000000000E+01      4.489288000000000E-01     -1.434609000000000E+02
4864000000.000000      6.364746000000000E-01      1.441650000000000E+01      4.469910000000000E-01     -1.439609000000000E+02
4865000000.000000      6.367493000000000E-01      1.452930000000000E+01      4.424591000000000E-01     -1.448750000000000E+02
4866000000.000000      6.387024000000000E-01      1.441650000000000E+01      4.381866000000000E-01     -1.456640000000000E+02
4867000000.000000      6.402588000000000E-01      1.449072000000000E+01      4.341278000000000E-01     -1.464453000000000E+02
4868000000.000000      6.419067000000000E-01      1.456787000000000E+01      4.317474000000000E-01     -1.472031000000000E+02
4869000000.000000      6.438599000000000E-01      1.452783000000000E+01      4.261017000000000E-01     -1.481016000000000E+02
4870000000.000000      6.438293000000000E-01      1.461963000000000E+01      4.228668000000000E-01     -1.485547000000000E+02
4871000000.000000      6.454773000000000E-01      1.428467000000000E+01      4.180298000000000E-01     -1.494297000000000E+02
4872000000.000000      6.485901000000000E-01      1.428613000000000E+01      4.146118000000000E-01     -1.498828000000000E+02
4873000000.000000      6.468811000000000E-01      1.446191000000000E+01      4.094543000000000E-01     -1.508203000000000E+02
4874000000.000000      6.502991000000000E-01      1.430420000000000E+01      4.057007000000000E-01     -1.514766000000000E+02
4875000000.000000      6.499634000000000E-01      1.416406000000000E+01      4.006042000000000E-01     -1.520625000000000E+02
4876000000.000000      6.511536000000000E-01      1.436719000000000E+01      3.967743000000000E-01     -1.526641000000000E+02
4877000000.000000      6.543884000000000E-01      1.418604000000000E+01      3.916016000000000E-01     -1.534531000000000E+02
4878000000.000000      6.546936000000000E-01      1.416260000000000E+01      3.872070000000000E-01     -1.539219000000000E+02
4879000000.000000      6.552734000000000E-01      1.420117000000000E+01      3.823090000000000E-01     -1.543516000000000E+02
4880000000.000000      6.575317000000000E-01      1.411328000000000E+01      3.789215000000000E-01     -1.549766000000000E+02
4881000000.000000      6.584473000000000E-01      1.393994000000000E+01      3.736877000000000E-01     -1.554922000000000E+02
4882000000.000000      6.596985000000000E-01      1.407715000000000E+01      3.708801000000000E-01     -1.561016000000000E+02
4883000000.000000      6.604309000000000E-01      1.380957000000000E+01      3.666229000000000E-01     -1.566094000000000E+02
4884000000.000000      6.622314000000000E-01      1.385205000000000E+01      3.601685000000000E-01     -1.574297000000000E+02
4885000000.000000      6.632996000000000E-01      1.376025000000000E+01      3.565521000000000E-01     -1.577031000000000E+02
4886000000.000000      6.637573000000000E-01      1.380664000000000E+01      3.515320000000000E-01     -1.580859000000000E+02
4887000000.000000      6.662292000000000E-01      1.364600000000000E+01      3.480835000000000E-01     -1.585469000000000E+02
4888000000.000000      6.657410000000000E-01      1.331641000000000E+01      3.448181000000000E-01     -1.590703000000000E+02
4889000000.000000      6.690369000000000E-01      1.332227000000000E+01      3.389130000000000E-01     -1.594766000000000E+02
4890000000.000000      6.667480000000000E-01      1.341943000000000E+01      3.361206000000000E-01     -1.604453000000000E+02
4891000000.000000      6.699219000000000E-01      1.332227000000000E+01      3.312683000000000E-01     -1.603828000000000E+02
4892000000.000000      6.691895000000000E-01      1.317627000000000E+01      3.275146000000000E-01     -1.608438000000000E+02
4893000000.000000      6.719971000000000E-01      1.290723000000000E+01      3.222351000000000E-01     -1.614609000000000E+02
4894000000.000000      6.727600000000000E-01      1.303662000000000E+01      3.190918000000000E-01     -1.614844000000000E+02
4895000000.000000      6.743164000000000E-01      1.283740000000000E+01      3.172607000000000E-01     -1.620547000000000E+02
4896000000.000000      6.743774000000000E-01      1.288965000000000E+01      3.123779000000000E-01     -1.623750000000000E+02
4897000000.000000      6.733093000000000E-01      1.273145000000000E+01      3.085480000000000E-01     -1.628359000000000E+02
4898000000.000000      6.772766000000000E-01      1.255713000000000E+01      3.055420000000000E-01     -1.630234000000000E+02
4899000000.000000      6.776733000000000E-01      1.254346000000000E+01      3.013306000000000E-01     -1.634766000000000E+02
4900000000.000000      6.772156000000000E-01      1.251318000000000E+01      2.971649000000000E-01     -1.637344000000000E+02
4901000000.000000      6.786194000000000E-01      1.237842000000000E+01      2.935944000000000E-01     -1.639922000000000E+02
4902000000.000000      6.806030000000000E-01      1.232080000000000E+01      2.904663000000000E-01     -1.643203000000000E+02
4903000000.000000      6.795959000000000E-01      1.206982000000000E+01      2.863464000000000E-01     -1.647656000000000E+02
4904000000.000000      6.814880000000000E-01      1.181299000000000E+01      2.834778000000000E-01     -1.651016000000000E+02
4905000000.000000      6.816101000000000E-01      1.202295000000000E+01      2.800293000000000E-01     -1.654766000000000E+02
4906000000.000000      6.807556000000000E-01      1.177734000000000E+01      2.758026000000000E-01     -1.654531000000000E+02
4907000000.000000      6.833496000000000E-01      1.182227000000000E+01      2.727966000000000E-01     -1.660859000000000E+02
4908000000.000000      6.836853000000000E-01      1.156836000000000E+01      2.697754000000000E-01     -1.662969000000000E+02
4909000000.000000      6.838379000000000E-01      1.143115000000000E+01      2.655792000000000E-01     -1.667187000000000E+02
4910000000.000000      6.849060000000000E-01      1.150928000000000E+01      2.625122000000000E-01     -1.669141000000000E+02
4911000000.000000      6.840515000000000E-01      1.130615000000000E+01      2.592163000000000E-01     -1.670234000000000E+02
4912000000.000000      6.867676000000000E-01      1.119629000000000E+01      2.551575000000000E-01     -1.674141000000000E+02
4913000000.000000      6.864929000000000E-01      1.116211000000000E+01      2.514648000000000E-01     -1.677656000000000E+02
4914000000.000000      6.881714000000000E-01      1.095605000000000E+01      2.482910000000000E-01     -1.680078000000000E+02
4915000000.000000      6.889648000000000E-01      1.089111000000000E+01      2.448959000000000E-01     -1.683672000000000E+02
4916000000.000000      6.891479000000000E-01      1.079248000000000E+01      2.409134000000000E-01     -1.687266000000000E+02
4917000000.000000      6.883240000000000E-01      1.075146000000000E+01      2.371140000000000E-01     -1.688750000000000E+02
4918000000.000000      6.881104000000000E-01      1.077051000000000E+01      2.336349000000000E-01     -1.691797000000000E+02
4919000000.000000      6.873779000000000E-01      1.054395000000000E+01      2.309113000000000E-01     -1.691406000000000E+02
4920000000.000000      6.934509000000000E-01      1.033496000000000E+01      2.260361000000000E-01     -1.697734000000000E+02
4921000000.000000      6.905823000000000E-01      1.020313000000000E+01      2.228622000000000E-01     -1.696953000000000E+02
4922000000.000000      6.918640000000000E-01      1.021973000000000E+01      2.192154000000000E-01     -1.698594000000000E+02
4923000000.000000      6.896667000000000E-01      1.029102000000000E+01      2.153244000000000E-01     -1.699297000000000E+02
4924000000.000000      6.912842000000000E-01      9.971191000000000E+00      2.117691000000000E-01     -1.703906000000000E+02
4925000000.000000      6.920166000000000E-01      9.828613000000000E+00      2.080612000000000E-01     -1.704922000000000E+02
4926000000.000000      6.925964000000000E-01      9.906738000000000E+00      2.045135000000000E-01     -1.705000000000000E+02
4927000000.000000      6.934204000000000E-01      9.781738000000000E+00      2.006073000000000E-01     -1.706953000000000E+02
4928000000.000000      6.963196000000000E-01      9.542969000000000E+00      1.968994000000000E-01     -1.706875000000000E+02
4929000000.000000      6.947632000000000E-01      9.565918000000000E+00      1.930847000000000E-01     -1.706719000000000E+02
4930000000.000000      6.946106000000000E-01      9.581055000000000E+00      1.895065000000000E-01     -1.707734000000000E+02
4931000000.000000      6.946411000000000E-01      9.368164000000000E+00      1.857834000000000E-01     -1.708594000000000E+02
4932000000.000000      6.954651000000000E-01      9.259766000000000E+00      1.824646000000000E-01     -1.705625000000000E+02
4933000000.000000      6.971130000000000E-01      9.250488000000000E+00      1.772766000000000E-01     -1.703672000000000E+02
4934000000.000000      6.993103000000000E-01      9.166504000000000E+00      1.744843000000000E-01     -1.705859000000000E+02
4935000000.000000      6.996765000000000E-01      8.979492000000000E+00      1.708069000000000E-01     -1.701562000000000E+02
4936000000.000000      6.961975000000000E-01      8.901367000000000E+00      1.670151000000000E-01     -1.699922000000000E+02
4937000000.000000      6.985474000000000E-01      8.645996000000000E+00      1.636810000000000E-01     -1.698516000000000E+02
4938000000.000000      6.979370000000000E-01      8.764160000000000E+00      1.597977000000000E-01     -1.693281000000000E+02
4939000000.000000      6.981812000000000E-01      8.591309000000000E+00      1.563187000000000E-01     -1.688594000000000E+02
4940000000.000000      7.010498000000000E-01      8.536133000000000E+00      1.524658000000000E-01     -1.686641000000000E+02
4941000000.000000      6.994019000000000E-01      8.512695000000000E+00      1.492233000000000E-01     -1.679062000000000E+02
4942000000.000000      6.986389000000000E-01      8.324707000000000E+00      1.458588000000000E-01     -1.676797000000000E+02
4943000000.000000      7.012024000000000E-01      8.314941000000000E+00      1.425400000000000E-01     -1.668359000000000E+02
4944000000.000000      7.019348000000000E-01      8.125488000000000E+00      1.394882000000000E-01     -1.664375000000000E+02
4945000000.000000      7.016907000000000E-01      8.210449000000000E+00      1.360550000000000E-01     -1.653750000000000E+02
4946000000.000000      7.027893000000000E-01      7.998047000000000E+00      1.327438000000000E-01     -1.647266000000000E+02
4947000000.000000      7.024841000000000E-01      7.826172000000000E+00      1.295929000000000E-01     -1.636250000000000E+02
4948000000.000000      7.035217000000000E-01      7.742432000000000E+00      1.274719000000000E-01     -1.626484000000000E+02
4949000000.000000      7.018433000000000E-01      7.756348000000000E+00      1.242027000000000E-01     -1.615781000000000E+02
4950000000.000000      7.045593000000000E-01      7.606445000000000E+00      1.213608000000000E-01     -1.604609000000000E+02
4951000000.000000      7.048340000000000E-01      7.422607000000000E+00      1.195641000000000E-01     -1.594609000000000E+02
4952000000.000000      7.044983000000000E-01      7.357910000000000E+00      1.169357000000000E-01     -1.579609000000000E+02
4953000000.000000      7.051697000000000E-01      7.290771000000000E+00      1.152115000000000E-01     -1.564844000000000E+02
4954000000.000000      7.058716000000000E-01      7.185059000000000E+00      1.130028000000000E-01     -1.548594000000000E+02
