! Network Analyzer HP8722D
! Hewlett-Packard
! Data name: Linha & Wilkinson
! Saver's name: Rodrigo Anjos
! Comments: Teste da utilização de aquisição
continua pelo VNA HP8722D
! Time and date: 22/5/2025 14:16
!              Frequency                     S11                                                   S21                                                   S12                                                   S22
# HZ  S  MA R 50
4800000000.000000      6.536255000000000E-01      1.096436000000000E+01      4.696808000000000E-01     -9.204296000000000E+01
4801000000.000000      6.513062000000000E-01      1.094092000000000E+01      4.711609000000000E-01     -9.270311000000000E+01
4802000000.000000      6.486511000000000E-01      1.103271000000000E+01      4.739227000000000E-01     -9.342968000000000E+01
4803000000.000000      6.474609000000000E-01      1.094336000000000E+01      4.775543000000000E-01     -9.413671000000000E+01
4804000000.000000      6.457825000000000E-01      1.086377000000000E+01      4.782715000000000E-01     -9.495312000000000E+01
4805000000.000000      6.452332000000000E-01      1.099561000000000E+01      4.801331000000000E-01     -9.561327000000000E+01
4806000000.000000      6.435547000000000E-01      1.076660000000000E+01      4.800873000000000E-01     -9.629686000000000E+01
4807000000.000000      6.400452000000000E-01      1.097119000000000E+01      4.813538000000000E-01     -9.737108000000000E+01
4808000000.000000      6.380005000000000E-01      1.087891000000000E+01      4.841919000000000E-01     -9.800781000000000E+01
4809000000.000000      6.359558000000000E-01      1.101221000000000E+01      4.861603000000000E-01     -9.892578000000000E+01
4810000000.000000      6.356506000000000E-01      1.093408000000000E+01      4.857941000000000E-01     -9.951172000000000E+01
4811000000.000000      6.343384000000000E-01      1.103418000000000E+01      4.900665000000000E-01     -1.003945000000000E+02
4812000000.000000      6.345215000000000E-01      1.122803000000000E+01      4.891205000000000E-01     -1.011211000000000E+02
4813000000.000000      6.323242000000000E-01      1.120605000000000E+01      4.913177000000000E-01     -1.019102000000000E+02
4814000000.000000      6.295166000000000E-01      1.119092000000000E+01      4.926453000000000E-01     -1.024414000000000E+02
4815000000.000000      6.283264000000000E-01      1.125244000000000E+01      4.921875000000000E-01     -1.034453000000000E+02
4816000000.000000      6.287537000000000E-01      1.130176000000000E+01      4.936218000000000E-01     -1.039258000000000E+02
4817000000.000000      6.256104000000000E-01      1.151904000000000E+01      4.944458000000000E-01     -1.047266000000000E+02
4818000000.000000      6.244812000000000E-01      1.134033000000000E+01      4.946594000000000E-01     -1.056055000000000E+02
4819000000.000000      6.237793000000000E-01      1.158203000000000E+01      4.957275000000000E-01     -1.062656000000000E+02
4820000000.000000      6.216736000000000E-01      1.145557000000000E+01      4.971619000000000E-01     -1.068476000000000E+02
4821000000.000000      6.206360000000000E-01      1.155469000000000E+01      4.978638000000000E-01     -1.079102000000000E+02
4822000000.000000      6.204834000000000E-01      1.159180000000000E+01      4.960327000000000E-01     -1.084805000000000E+02
4823000000.000000      6.200256000000000E-01      1.173584000000000E+01      4.983521000000000E-01     -1.093672000000000E+02
4824000000.000000      6.188965000000000E-01      1.205859000000000E+01      4.969635000000000E-01     -1.101797000000000E+02
4825000000.000000      6.181030000000000E-01      1.210693000000000E+01      4.981384000000000E-01     -1.108633000000000E+02
4826000000.000000      6.182861000000000E-01      1.207764000000000E+01      5.002441000000000E-01     -1.115391000000000E+02
4827000000.000000      6.162720000000000E-01      1.225244000000000E+01      4.980774000000000E-01     -1.121055000000000E+02
4828000000.000000      6.168213000000000E-01      1.225342000000000E+01      4.998016000000000E-01     -1.130859000000000E+02
4829000000.000000      6.160278000000000E-01      1.246387000000000E+01      5.003662000000000E-01     -1.137305000000000E+02
4830000000.000000      6.154175000000000E-01      1.263281000000000E+01      4.997864000000000E-01     -1.145742000000000E+02
4831000000.000000      6.140137000000000E-01      1.266553000000000E+01      4.988556000000000E-01     -1.154883000000000E+02
4832000000.000000      6.151123000000000E-01      1.294873000000000E+01      4.983673000000000E-01     -1.158516000000000E+02
4833000000.000000      6.131592000000000E-01      1.275635000000000E+01      4.995728000000000E-01     -1.167305000000000E+02
4834000000.000000      6.141663000000000E-01      1.293604000000000E+01      4.991913000000000E-01     -1.177187000000000E+02
4835000000.000000      6.145325000000000E-01      1.312012000000000E+01      4.988708000000000E-01     -1.184101000000000E+02
4836000000.000000      6.149597000000000E-01      1.327002000000000E+01      4.972992000000000E-01     -1.192734000000000E+02
4837000000.000000      6.130371000000000E-01      1.352100000000000E+01      4.979095000000000E-01     -1.201484000000000E+02
4838000000.000000      6.134644000000000E-01      1.351172000000000E+01      4.981232000000000E-01     -1.204297000000000E+02
4839000000.000000      6.168518000000000E-01      1.377686000000000E+01      4.979095000000000E-01     -1.214101000000000E+02
4840000000.000000      6.145325000000000E-01      1.361865000000000E+01      4.977417000000000E-01     -1.222148000000000E+02
4841000000.000000      6.146545000000000E-01      1.380957000000000E+01      4.989014000000000E-01     -1.232461000000000E+02
4842000000.000000      6.161499000000000E-01      1.369287000000000E+01      4.970856000000000E-01     -1.238320000000000E+02
4843000000.000000      6.193542000000000E-01      1.394434000000000E+01      4.959869000000000E-01     -1.248633000000000E+02
4844000000.000000      6.168823000000000E-01      1.396045000000000E+01      4.953308000000000E-01     -1.255625000000000E+02
4845000000.000000      6.165161000000000E-01      1.418701000000000E+01      4.950562000000000E-01     -1.263672000000000E+02
4846000000.000000      6.182556000000000E-01      1.429004000000000E+01      4.939880000000000E-01     -1.271172000000000E+02
4847000000.000000      6.211548000000000E-01      1.433545000000000E+01      4.923553000000000E-01     -1.279062000000000E+02
4848000000.000000      6.195984000000000E-01      1.429150000000000E+01      4.899750000000000E-01     -1.288672000000000E+02
4849000000.000000      6.200867000000000E-01      1.434814000000000E+01      4.900055000000000E-01     -1.296719000000000E+02
4850000000.000000      6.198425000000000E-01      1.455811000000000E+01      4.872131000000000E-01     -1.305391000000000E+02
4851000000.000000      6.223755000000000E-01      1.468018000000000E+01      4.876099000000000E-01     -1.312500000000000E+02
4852000000.000000      6.235352000000000E-01      1.465283000000000E+01      4.847107000000000E-01     -1.322578000000000E+02
4853000000.000000      6.244812000000000E-01      1.464160000000000E+01      4.821930000000000E-01     -1.330156000000000E+02
4854000000.000000      6.251831000000000E-01      1.480664000000000E+01      4.794159000000000E-01     -1.339062000000000E+02
4855000000.000000      6.269836000000000E-01      1.469971000000000E+01      4.779053000000000E-01     -1.350078000000000E+02
4856000000.000000      6.282349000000000E-01      1.475439000000000E+01      4.757233000000000E-01     -1.358203000000000E+02
4857000000.000000      6.299438000000000E-01      1.493994000000000E+01      4.741364000000000E-01     -1.364766000000000E+02
4858000000.000000      6.292114000000000E-01      1.482568000000000E+01      4.712219000000000E-01     -1.374375000000000E+02
4859000000.000000      6.293030000000000E-01      1.478320000000000E+01      4.690399000000000E-01     -1.383125000000000E+02
4860000000.000000      6.313171000000000E-01      1.507324000000000E+01      4.645844000000000E-01     -1.390312000000000E+02
4861000000.000000      6.322632000000000E-01      1.497559000000000E+01      4.615326000000000E-01     -1.400391000000000E+02
4862000000.000000      6.320496000000000E-01      1.500000000000000E+01      4.595184000000000E-01     -1.407812000000000E+02
4863000000.000000      6.347656000000000E-01      1.502637000000000E+01      4.544830000000000E-01     -1.417813000000000E+02
4864000000.000000      6.354980000000000E-01      1.509082000000000E+01      4.510498000000000E-01     -1.425078000000000E+02
4865000000.000000      6.369629000000000E-01      1.497705000000000E+01      4.475708000000000E-01     -1.431484000000000E+02
4866000000.000000      6.384583000000000E-01      1.497803000000000E+01      4.436951000000000E-01     -1.439141000000000E+02
4867000000.000000      6.399231000000000E-01      1.496191000000000E+01      4.404449000000000E-01     -1.449922000000000E+02
4868000000.000000      6.408691000000000E-01      1.493408000000000E+01      4.373474000000000E-01     -1.457031000000000E+02
4869000000.000000      6.420288000000000E-01      1.503174000000000E+01      4.325867000000000E-01     -1.463906000000000E+02
4870000000.000000      6.427002000000000E-01      1.514844000000000E+01      4.286346000000000E-01     -1.471562000000000E+02
4871000000.000000      6.468506000000000E-01      1.489844000000000E+01      4.246521000000000E-01     -1.479375000000000E+02
4872000000.000000      6.485596000000000E-01      1.494238000000000E+01      4.212189000000000E-01     -1.485312000000000E+02
4873000000.000000      6.469116000000000E-01      1.494531000000000E+01      4.174652000000000E-01     -1.493594000000000E+02
4874000000.000000      6.491089000000000E-01      1.487646000000000E+01      4.124298000000000E-01     -1.501016000000000E+02
4875000000.000000      6.509705000000000E-01      1.470508000000000E+01      4.060516000000000E-01     -1.505859000000000E+02
4876000000.000000      6.520691000000000E-01      1.495752000000000E+01      4.037781000000000E-01     -1.511484000000000E+02
4877000000.000000      6.519470000000000E-01      1.454590000000000E+01      3.990173000000000E-01     -1.521563000000000E+02
4878000000.000000      6.527710000000000E-01      1.450293000000000E+01      3.945618000000000E-01     -1.525469000000000E+02
4879000000.000000      6.561890000000000E-01      1.455664000000000E+01      3.902893000000000E-01     -1.532344000000000E+02
4880000000.000000      6.559753000000000E-01      1.472266000000000E+01      3.862152000000000E-01     -1.538828000000000E+02
4881000000.000000      6.576843000000000E-01      1.456787000000000E+01      3.807678000000000E-01     -1.543906000000000E+02
4882000000.000000      6.592407000000000E-01      1.455127000000000E+01      3.766327000000000E-01     -1.551328000000000E+02
4883000000.000000      6.605530000000000E-01      1.410742000000000E+01      3.723450000000000E-01     -1.556953000000000E+02
4884000000.000000      6.602478000000000E-01      1.441650000000000E+01      3.685913000000000E-01     -1.560390000000000E+02
4885000000.000000      6.621399000000000E-01      1.434229000000000E+01      3.630981000000000E-01     -1.564141000000000E+02
4886000000.000000      6.642456000000000E-01      1.430957000000000E+01      3.588257000000000E-01     -1.569766000000000E+02
4887000000.000000      6.642456000000000E-01      1.409814000000000E+01      3.554382000000000E-01     -1.577188000000000E+02
4888000000.000000      6.650085000000000E-01      1.390283000000000E+01      3.535004000000000E-01     -1.583125000000000E+02
4889000000.000000      6.648254000000000E-01      1.401416000000000E+01      3.463745000000000E-01     -1.586172000000000E+02
4890000000.000000      6.672668000000000E-01      1.385205000000000E+01      3.424225000000000E-01     -1.593516000000000E+02
4891000000.000000      6.680908000000000E-01      1.378906000000000E+01      3.363495000000000E-01     -1.596250000000000E+02
4892000000.000000      6.708374000000000E-01      1.384668000000000E+01      3.345184000000000E-01     -1.597422000000000E+02
4893000000.000000      6.717834000000000E-01      1.378076000000000E+01      3.299866000000000E-01     -1.602734000000000E+02
4894000000.000000      6.728210000000000E-01      1.345947000000000E+01      3.271484000000000E-01     -1.607578000000000E+02
4895000000.000000      6.750183000000000E-01      1.331934000000000E+01      3.233643000000000E-01     -1.612422000000000E+02
4896000000.000000      6.734619000000000E-01      1.332324000000000E+01      3.191528000000000E-01     -1.615781000000000E+02
4897000000.000000      6.762390000000000E-01      1.325732000000000E+01      3.146820000000000E-01     -1.619219000000000E+02
4898000000.000000      6.760559000000000E-01      1.332471000000000E+01      3.111572000000000E-01     -1.621562000000000E+02
4899000000.000000      6.772156000000000E-01      1.311621000000000E+01      3.071442000000000E-01     -1.625937000000000E+02
4900000000.000000      6.781616000000000E-01      1.304346000000000E+01      3.036957000000000E-01     -1.628906000000000E+02
4901000000.000000      6.799316000000000E-01      1.297461000000000E+01      3.004303000000000E-01     -1.632734000000000E+02
4902000000.000000      6.804810000000000E-01      1.278076000000000E+01      2.975769000000000E-01     -1.635937000000000E+02
4903000000.000000      6.795044000000000E-01      1.298145000000000E+01      2.921906000000000E-01     -1.640391000000000E+02
4904000000.000000      6.813049000000000E-01      1.258301000000000E+01      2.894592000000000E-01     -1.642891000000000E+02
4905000000.000000      6.815186000000000E-01      1.243750000000000E+01      2.862244000000000E-01     -1.647187000000000E+02
4906000000.000000      6.834106000000000E-01      1.247070000000000E+01      2.824402000000000E-01     -1.648594000000000E+02
4907000000.000000      6.830750000000000E-01      1.241553000000000E+01      2.794495000000000E-01     -1.653906000000000E+02
4908000000.000000      6.843567000000000E-01      1.219189000000000E+01      2.760315000000000E-01     -1.657734000000000E+02
4909000000.000000      6.849976000000000E-01      1.223730000000000E+01      2.719116000000000E-01     -1.659609000000000E+02
4910000000.000000      6.831665000000000E-01      1.212158000000000E+01      2.681580000000000E-01     -1.663203000000000E+02
4911000000.000000      6.843872000000000E-01      1.208594000000000E+01      2.648926000000000E-01     -1.666328000000000E+02
4912000000.000000      6.858215000000000E-01      1.166748000000000E+01      2.610474000000000E-01     -1.669219000000000E+02
4913000000.000000      6.878662000000000E-01      1.182910000000000E+01      2.580261000000000E-01     -1.672656000000000E+02
4914000000.000000      6.884766000000000E-01      1.150244000000000E+01      2.542114000000000E-01     -1.674844000000000E+02
4915000000.000000      6.877136000000000E-01      1.169482000000000E+01      2.510834000000000E-01     -1.678828000000000E+02
4916000000.000000      6.888428000000000E-01      1.149170000000000E+01      2.469559000000000E-01     -1.681953000000000E+02
4917000000.000000      6.873474000000000E-01      1.141309000000000E+01      2.436981000000000E-01     -1.683125000000000E+02
4918000000.000000      6.885681000000000E-01      1.145313000000000E+01      2.396240000000000E-01     -1.685781000000000E+02
4919000000.000000      6.882324000000000E-01      1.121533000000000E+01      2.367783000000000E-01     -1.687187000000000E+02
4920000000.000000      6.897278000000000E-01      1.087646000000000E+01      2.322845000000000E-01     -1.692500000000000E+02
4921000000.000000      6.904907000000000E-01      1.101074000000000E+01      2.292328000000000E-01     -1.694219000000000E+02
4922000000.000000      6.913757000000000E-01      1.074316000000000E+01      2.260284000000000E-01     -1.695391000000000E+02
4923000000.000000      6.941833000000000E-01      1.085986000000000E+01      2.216187000000000E-01     -1.698516000000000E+02
4924000000.000000      6.947021000000000E-01      1.065918000000000E+01      2.183533000000000E-01     -1.702109000000000E+02
4925000000.000000      6.924438000000000E-01      1.054248000000000E+01      2.136841000000000E-01     -1.703281000000000E+02
4926000000.000000      6.940918000000000E-01      1.058252000000000E+01      2.104874000000000E-01     -1.703906000000000E+02
4927000000.000000      6.944885000000000E-01      1.048633000000000E+01      2.064133000000000E-01     -1.706484000000000E+02
4928000000.000000      6.936340000000000E-01      1.019092000000000E+01      2.027740000000000E-01     -1.705859000000000E+02
4929000000.000000      6.942749000000000E-01      1.013330000000000E+01      1.988144000000000E-01     -1.707109000000000E+02
4930000000.000000      6.962585000000000E-01      1.012207000000000E+01      1.949463000000000E-01     -1.709609000000000E+02
4931000000.000000      6.955872000000000E-01      9.883301000000000E+00      1.917343000000000E-01     -1.709063000000000E+02
4932000000.000000      6.978760000000000E-01      9.780273000000000E+00      1.879654000000000E-01     -1.708516000000000E+02
4933000000.000000      6.952515000000000E-01      9.778809000000000E+00      1.835175000000000E-01     -1.706875000000000E+02
4934000000.000000      6.986389000000000E-01      9.467285000000000E+00      1.799850000000000E-01     -1.709531000000000E+02
4935000000.000000      6.994629000000000E-01      9.571777000000000E+00      1.765518000000000E-01     -1.706094000000000E+02
4936000000.000000      6.993103000000000E-01      9.328613000000000E+00      1.723862000000000E-01     -1.704141000000000E+02
4937000000.000000      6.992798000000000E-01      9.328613000000000E+00      1.686325000000000E-01     -1.704297000000000E+02
4938000000.000000      6.971741000000000E-01      9.398438000000000E+00      1.650009000000000E-01     -1.701641000000000E+02
4939000000.000000      6.986694000000000E-01      9.254395000000000E+00      1.611481000000000E-01     -1.696797000000000E+02
4940000000.000000      7.005005000000000E-01      9.118652000000000E+00      1.577148000000000E-01     -1.696094000000000E+02
4941000000.000000      7.037048000000000E-01      9.024902000000000E+00      1.547318000000000E-01     -1.691172000000000E+02
4942000000.000000      6.997681000000000E-01      8.889160000000000E+00      1.499634000000000E-01     -1.687813000000000E+02
4943000000.000000      7.015076000000000E-01      8.765625000000000E+00      1.469345000000000E-01     -1.681328000000000E+02
4944000000.000000      7.029724000000000E-01      8.767090000000000E+00      1.437149000000000E-01     -1.676328000000000E+02
4945000000.000000      7.023010000000000E-01      8.479980000000000E+00      1.402054000000000E-01     -1.671016000000000E+02
4946000000.000000      7.039795000000000E-01      8.442871000000000E+00      1.371155000000000E-01     -1.664219000000000E+02
4947000000.000000      7.032471000000000E-01      8.341309000000000E+00      1.335449000000000E-01     -1.655547000000000E+02
4948000000.000000      7.060242000000000E-01      8.267090000000000E+00      1.306000000000000E-01     -1.644063000000000E+02
4949000000.000000      7.041321000000000E-01      8.210449000000000E+00      1.275558000000000E-01     -1.634687000000000E+02
4950000000.000000      7.052917000000000E-01      8.243652000000000E+00      1.251144000000000E-01     -1.624375000000000E+02
4951000000.000000      7.053833000000000E-01      7.944336000000000E+00      1.224098000000000E-01     -1.615781000000000E+02
4952000000.000000      7.049561000000000E-01      8.005859000000000E+00      1.194038000000000E-01     -1.603125000000000E+02
4953000000.000000      7.055664000000000E-01      7.770020000000000E+00      1.172485000000000E-01     -1.588828000000000E+02
4954000000.000000      7.082520000000000E-01      7.698486000000000E+00      1.152458000000000E-01     -1.574687000000000E+02
