! Network Analyzer HP8722D
! Hewlett-Packard
! Data name: Linha & Wilkinson
! Saver's name: Rodrigo Anjos
! Comments: Teste da utilização de aquisição
continua pelo VNA HP8722D
! Time and date: 22/5/2025 16:31
!              Frequency                     S11                                                   S21                                                   S12                                                   S22
# HZ  S  MA R 50
4800000000.000000      6.540222000000000E-01      1.102051000000000E+01      4.694214000000000E-01     -9.178125000000000E+01
4801000000.000000      6.525269000000000E-01      1.103271000000000E+01      4.708862000000000E-01     -9.245312000000000E+01
4802000000.000000      6.497803000000000E-01      1.100537000000000E+01      4.712677000000000E-01     -9.291796000000000E+01
4803000000.000000      6.469727000000000E-01      1.089404000000000E+01      4.774933000000000E-01     -9.371485000000000E+01
4804000000.000000      6.462402000000000E-01      1.089014000000000E+01      4.780121000000000E-01     -9.475780000000000E+01
4805000000.000000      6.468811000000000E-01      1.086230000000000E+01      4.797516000000000E-01     -9.532421000000000E+01
4806000000.000000      6.427002000000000E-01      1.095605000000000E+01      4.810181000000000E-01     -9.620703000000000E+01
4807000000.000000      6.398010000000000E-01      1.104492000000000E+01      4.829407000000000E-01     -9.704687000000000E+01
4808000000.000000      6.383667000000000E-01      1.092822000000000E+01      4.841003000000000E-01     -9.765625000000000E+01
4809000000.000000      6.388245000000000E-01      1.089258000000000E+01      4.861603000000000E-01     -9.852343000000000E+01
4810000000.000000      6.359253000000000E-01      1.107813000000000E+01      4.893494000000000E-01     -9.904297000000000E+01
4811000000.000000      6.347961000000000E-01      1.101221000000000E+01      4.904175000000000E-01     -1.001445000000000E+02
4812000000.000000      6.368103000000000E-01      1.114258000000000E+01      4.899445000000000E-01     -1.006953000000000E+02
4813000000.000000      6.316528000000000E-01      1.126904000000000E+01      4.911041000000000E-01     -1.016211000000000E+02
4814000000.000000      6.297302000000000E-01      1.108643000000000E+01      4.915314000000000E-01     -1.022187000000000E+02
4815000000.000000      6.301270000000000E-01      1.118652000000000E+01      4.914551000000000E-01     -1.029258000000000E+02
4816000000.000000      6.285095000000000E-01      1.130078000000000E+01      4.948273000000000E-01     -1.036055000000000E+02
4817000000.000000      6.263428000000000E-01      1.144873000000000E+01      4.955597000000000E-01     -1.044961000000000E+02
4818000000.000000      6.248474000000000E-01      1.133350000000000E+01      4.952240000000000E-01     -1.053359000000000E+02
4819000000.000000      6.242981000000000E-01      1.157227000000000E+01      4.951782000000000E-01     -1.060508000000000E+02
4820000000.000000      6.210938000000000E-01      1.163818000000000E+01      4.973297000000000E-01     -1.065937000000000E+02
4821000000.000000      6.220703000000000E-01      1.157373000000000E+01      4.968719000000000E-01     -1.075742000000000E+02
4822000000.000000      6.207886000000000E-01      1.161621000000000E+01      4.957581000000000E-01     -1.082109000000000E+02
4823000000.000000      6.184082000000000E-01      1.181689000000000E+01      4.987946000000000E-01     -1.090391000000000E+02
4824000000.000000      6.170654000000000E-01      1.191455000000000E+01      4.975128000000000E-01     -1.097148000000000E+02
4825000000.000000      6.179504000000000E-01      1.204199000000000E+01      4.981689000000000E-01     -1.103984000000000E+02
4826000000.000000      6.168213000000000E-01      1.209180000000000E+01      4.997559000000000E-01     -1.114297000000000E+02
4827000000.000000      6.177368000000000E-01      1.222363000000000E+01      4.989777000000000E-01     -1.119844000000000E+02
4828000000.000000      6.159973000000000E-01      1.233203000000000E+01      5.005798000000000E-01     -1.127617000000000E+02
4829000000.000000      6.168213000000000E-01      1.255420000000000E+01      4.998627000000000E-01     -1.134219000000000E+02
4830000000.000000      6.163025000000000E-01      1.251855000000000E+01      4.995117000000000E-01     -1.143789000000000E+02
4831000000.000000      6.147156000000000E-01      1.277832000000000E+01      4.998169000000000E-01     -1.148906000000000E+02
4832000000.000000      6.148071000000000E-01      1.283887000000000E+01      4.990387000000000E-01     -1.157109000000000E+02
4833000000.000000      6.149292000000000E-01      1.289355000000000E+01      5.000000000000000E-01     -1.164375000000000E+02
4834000000.000000      6.136169000000000E-01      1.296924000000000E+01      4.992523000000000E-01     -1.174648000000000E+02
4835000000.000000      6.152649000000000E-01      1.319141000000000E+01      4.998779000000000E-01     -1.181406000000000E+02
4836000000.000000      6.140442000000000E-01      1.331396000000000E+01      4.989014000000000E-01     -1.187656000000000E+02
4837000000.000000      6.124268000000000E-01      1.365186000000000E+01      4.988708000000000E-01     -1.198789000000000E+02
4838000000.000000      6.118774000000000E-01      1.349121000000000E+01      5.004883000000000E-01     -1.203047000000000E+02
4839000000.000000      6.148682000000000E-01      1.370801000000000E+01      5.000000000000000E-01     -1.211953000000000E+02
4840000000.000000      6.156921000000000E-01      1.368311000000000E+01      4.986572000000000E-01     -1.219453000000000E+02
4841000000.000000      6.159973000000000E-01      1.389893000000000E+01      4.986572000000000E-01     -1.227617000000000E+02
4842000000.000000      6.153564000000000E-01      1.389063000000000E+01      4.989624000000000E-01     -1.235352000000000E+02
4843000000.000000      6.192322000000000E-01      1.397021000000000E+01      4.977722000000000E-01     -1.246094000000000E+02
4844000000.000000      6.167297000000000E-01      1.408984000000000E+01      4.956665000000000E-01     -1.253125000000000E+02
4845000000.000000      6.181946000000000E-01      1.435596000000000E+01      4.958344000000000E-01     -1.262734000000000E+02
4846000000.000000      6.183777000000000E-01      1.437256000000000E+01      4.951324000000000E-01     -1.267383000000000E+02
4847000000.000000      6.200867000000000E-01      1.453174000000000E+01      4.936066000000000E-01     -1.275391000000000E+02
4848000000.000000      6.199036000000000E-01      1.447852000000000E+01      4.905701000000000E-01     -1.284922000000000E+02
4849000000.000000      6.195068000000000E-01      1.453760000000000E+01      4.907227000000000E-01     -1.294531000000000E+02
4850000000.000000      6.206665000000000E-01      1.441650000000000E+01      4.889526000000000E-01     -1.301719000000000E+02
4851000000.000000      6.224670000000000E-01      1.472412000000000E+01      4.887238000000000E-01     -1.312734000000000E+02
4852000000.000000      6.243896000000000E-01      1.472852000000000E+01      4.862213000000000E-01     -1.318828000000000E+02
4853000000.000000      6.245117000000000E-01      1.483008000000000E+01      4.836273000000000E-01     -1.328594000000000E+02
4854000000.000000      6.260071000000000E-01      1.487256000000000E+01      4.812317000000000E-01     -1.337891000000000E+02
4855000000.000000      6.261597000000000E-01      1.486719000000000E+01      4.797363000000000E-01     -1.345703000000000E+02
4856000000.000000      6.289063000000000E-01      1.504004000000000E+01      4.769592000000000E-01     -1.354141000000000E+02
4857000000.000000      6.277161000000000E-01      1.485352000000000E+01      4.762878000000000E-01     -1.363359000000000E+02
4858000000.000000      6.281128000000000E-01      1.499902000000000E+01      4.721680000000000E-01     -1.371250000000000E+02
4859000000.000000      6.293640000000000E-01      1.486572000000000E+01      4.705200000000000E-01     -1.381875000000000E+02
4860000000.000000      6.332092000000000E-01      1.509229000000000E+01      4.671478000000000E-01     -1.387109000000000E+02
4861000000.000000      6.333618000000000E-01      1.520605000000000E+01      4.647980000000000E-01     -1.398281000000000E+02
4862000000.000000      6.346436000000000E-01      1.495752000000000E+01      4.618378000000000E-01     -1.404766000000000E+02
4863000000.000000      6.363525000000000E-01      1.511816000000000E+01      4.567108000000000E-01     -1.414453000000000E+02
4864000000.000000      6.356506000000000E-01      1.500977000000000E+01      4.537964000000000E-01     -1.423203000000000E+02
4865000000.000000      6.378174000000000E-01      1.516650000000000E+01      4.495087000000000E-01     -1.429766000000000E+02
4866000000.000000      6.387024000000000E-01      1.512402000000000E+01      4.451141000000000E-01     -1.436016000000000E+02
4867000000.000000      6.391907000000000E-01      1.516357000000000E+01      4.429321000000000E-01     -1.447656000000000E+02
4868000000.000000      6.404114000000000E-01      1.510986000000000E+01      4.394379000000000E-01     -1.452812000000000E+02
4869000000.000000      6.423035000000000E-01      1.502344000000000E+01      4.358826000000000E-01     -1.463359000000000E+02
4870000000.000000      6.430054000000000E-01      1.511816000000000E+01      4.312134000000000E-01     -1.468437000000000E+02
4871000000.000000      6.437988000000000E-01      1.501514000000000E+01      4.268646000000000E-01     -1.476250000000000E+02
4872000000.000000      6.471252000000000E-01      1.503467000000000E+01      4.222412000000000E-01     -1.482344000000000E+02
4873000000.000000      6.457520000000000E-01      1.500830000000000E+01      4.185181000000000E-01     -1.492422000000000E+02
4874000000.000000      6.496277000000000E-01      1.508936000000000E+01      4.141235000000000E-01     -1.499687000000000E+02
4875000000.000000      6.511841000000000E-01      1.500146000000000E+01      4.084625000000000E-01     -1.503672000000000E+02
4876000000.000000      6.523438000000000E-01      1.508398000000000E+01      4.067230000000000E-01     -1.511484000000000E+02
4877000000.000000      6.527100000000000E-01      1.469824000000000E+01      4.007263000000000E-01     -1.518672000000000E+02
4878000000.000000      6.524658000000000E-01      1.478027000000000E+01      3.964844000000000E-01     -1.525078000000000E+02
4879000000.000000      6.549988000000000E-01      1.469531000000000E+01      3.909302000000000E-01     -1.530000000000000E+02
4880000000.000000      6.572876000000000E-01      1.462256000000000E+01      3.876953000000000E-01     -1.535703000000000E+02
4881000000.000000      6.575928000000000E-01      1.469385000000000E+01      3.834076000000000E-01     -1.541875000000000E+02
4882000000.000000      6.600342000000000E-01      1.459082000000000E+01      3.793945000000000E-01     -1.547266000000000E+02
4883000000.000000      6.616211000000000E-01      1.443701000000000E+01      3.740234000000000E-01     -1.555469000000000E+02
4884000000.000000      6.621094000000000E-01      1.457178000000000E+01      3.694916000000000E-01     -1.558516000000000E+02
4885000000.000000      6.641235000000000E-01      1.447266000000000E+01      3.655396000000000E-01     -1.562344000000000E+02
4886000000.000000      6.640320000000000E-01      1.429590000000000E+01      3.602295000000000E-01     -1.569453000000000E+02
4887000000.000000      6.652527000000000E-01      1.426025000000000E+01      3.578033000000000E-01     -1.575156000000000E+02
4888000000.000000      6.655273000000000E-01      1.408984000000000E+01      3.533173000000000E-01     -1.580859000000000E+02
4889000000.000000      6.667786000000000E-01      1.414893000000000E+01      3.477325000000000E-01     -1.582344000000000E+02
4890000000.000000      6.672058000000000E-01      1.400439000000000E+01      3.443146000000000E-01     -1.591563000000000E+02
4891000000.000000      6.701355000000000E-01      1.405518000000000E+01      3.389282000000000E-01     -1.593437000000000E+02
4892000000.000000      6.686401000000000E-01      1.380127000000000E+01      3.361511000000000E-01     -1.597578000000000E+02
4893000000.000000      6.705017000000000E-01      1.377539000000000E+01      3.318481000000000E-01     -1.603906000000000E+02
4894000000.000000      6.703186000000000E-01      1.358594000000000E+01      3.274689000000000E-01     -1.603906000000000E+02
4895000000.000000      6.737976000000000E-01      1.350879000000000E+01      3.236847000000000E-01     -1.608438000000000E+02
4896000000.000000      6.742554000000000E-01      1.328906000000000E+01      3.191986000000000E-01     -1.614297000000000E+02
4897000000.000000      6.737976000000000E-01      1.365283000000000E+01      3.160553000000000E-01     -1.616797000000000E+02
4898000000.000000      6.759644000000000E-01      1.336475000000000E+01      3.132629000000000E-01     -1.619375000000000E+02
4899000000.000000      6.773376000000000E-01      1.322852000000000E+01      3.088074000000000E-01     -1.625156000000000E+02
4900000000.000000      6.759338000000000E-01      1.311328000000000E+01      3.054199000000000E-01     -1.626719000000000E+02
4901000000.000000      6.784363000000000E-01      1.278809000000000E+01      3.023987000000000E-01     -1.631094000000000E+02
4902000000.000000      6.798096000000000E-01      1.308594000000000E+01      2.985382000000000E-01     -1.633594000000000E+02
4903000000.000000      6.777649000000000E-01      1.296240000000000E+01      2.939301000000000E-01     -1.637734000000000E+02
4904000000.000000      6.805725000000000E-01      1.285400000000000E+01      2.905273000000000E-01     -1.642500000000000E+02
4905000000.000000      6.811218000000000E-01      1.259961000000000E+01      2.875061000000000E-01     -1.645547000000000E+02
4906000000.000000      6.819458000000000E-01      1.254199000000000E+01      2.837830000000000E-01     -1.647031000000000E+02
4907000000.000000      6.828613000000000E-01      1.236328000000000E+01      2.803040000000000E-01     -1.651797000000000E+02
4908000000.000000      6.835632000000000E-01      1.247217000000000E+01      2.773285000000000E-01     -1.656172000000000E+02
4909000000.000000      6.841431000000000E-01      1.224268000000000E+01      2.731171000000000E-01     -1.658828000000000E+02
4910000000.000000      6.838074000000000E-01      1.216455000000000E+01      2.698669000000000E-01     -1.660547000000000E+02
4911000000.000000      6.843567000000000E-01      1.202441000000000E+01      2.663116000000000E-01     -1.665078000000000E+02
4912000000.000000      6.847839000000000E-01      1.195166000000000E+01      2.625885000000000E-01     -1.668828000000000E+02
4913000000.000000      6.867981000000000E-01      1.170166000000000E+01      2.595062000000000E-01     -1.672109000000000E+02
4914000000.000000      6.887512000000000E-01      1.174414000000000E+01      2.556000000000000E-01     -1.674219000000000E+02
4915000000.000000      6.873169000000000E-01      1.174561000000000E+01      2.519531000000000E-01     -1.677109000000000E+02
4916000000.000000      6.893311000000000E-01      1.149414000000000E+01      2.484055000000000E-01     -1.680938000000000E+02
4917000000.000000      6.879272000000000E-01      1.125781000000000E+01      2.452927000000000E-01     -1.681719000000000E+02
4918000000.000000      6.886597000000000E-01      1.130078000000000E+01      2.411804000000000E-01     -1.687109000000000E+02
4919000000.000000      6.896973000000000E-01      1.121533000000000E+01      2.378311000000000E-01     -1.687109000000000E+02
4920000000.000000      6.909485000000000E-01      1.118652000000000E+01      2.340240000000000E-01     -1.691953000000000E+02
4921000000.000000      6.900024000000000E-01      1.112744000000000E+01      2.308350000000000E-01     -1.693828000000000E+02
4922000000.000000      6.927185000000000E-01      1.094922000000000E+01      2.267685000000000E-01     -1.695625000000000E+02
4923000000.000000      6.924438000000000E-01      1.085303000000000E+01      2.230453000000000E-01     -1.696640000000000E+02
4924000000.000000      6.932068000000000E-01      1.090088000000000E+01      2.189407000000000E-01     -1.700859000000000E+02
4925000000.000000      6.907959000000000E-01      1.056299000000000E+01      2.156067000000000E-01     -1.702969000000000E+02
4926000000.000000      6.942749000000000E-01      1.067969000000000E+01      2.118683000000000E-01     -1.703984000000000E+02
4927000000.000000      6.939087000000000E-01      1.047266000000000E+01      2.076874000000000E-01     -1.706719000000000E+02
4928000000.000000      6.947937000000000E-01      1.042432000000000E+01      2.042007000000000E-01     -1.706250000000000E+02
4929000000.000000      6.937561000000000E-01      1.023486000000000E+01      1.997986000000000E-01     -1.707344000000000E+02
4930000000.000000      6.954041000000000E-01      1.024609000000000E+01      1.961975000000000E-01     -1.707734000000000E+02
4931000000.000000      6.950684000000000E-01      1.014697000000000E+01      1.930847000000000E-01     -1.708672000000000E+02
4932000000.000000      6.960449000000000E-01      9.934082000000000E+00      1.892090000000000E-01     -1.708984000000000E+02
4933000000.000000      6.964111000000000E-01      9.815918000000000E+00      1.843719000000000E-01     -1.707813000000000E+02
4934000000.000000      6.993713000000000E-01      9.706055000000000E+00      1.813507000000000E-01     -1.710078000000000E+02
4935000000.000000      6.970215000000000E-01      9.728027000000000E+00      1.781693000000000E-01     -1.707031000000000E+02
4936000000.000000      6.983032000000000E-01      9.568848000000000E+00      1.730194000000000E-01     -1.707891000000000E+02
4937000000.000000      6.984558000000000E-01      9.563477000000000E+00      1.696091000000000E-01     -1.704531000000000E+02
4938000000.000000      7.014465000000000E-01      9.593750000000000E+00      1.663818000000000E-01     -1.702578000000000E+02
4939000000.000000      6.992188000000000E-01      9.404297000000000E+00      1.623764000000000E-01     -1.699297000000000E+02
4940000000.000000      7.005920000000000E-01      9.125488000000000E+00      1.586914000000000E-01     -1.698750000000000E+02
4941000000.000000      7.006226000000000E-01      9.066406000000000E+00      1.553879000000000E-01     -1.690781000000000E+02
4942000000.000000      7.004700000000000E-01      9.040039000000000E+00      1.512527000000000E-01     -1.689375000000000E+02
4943000000.000000      7.038269000000000E-01      9.046875000000000E+00      1.475754000000000E-01     -1.682812000000000E+02
4944000000.000000      7.023621000000000E-01      8.666504000000000E+00      1.446228000000000E-01     -1.676797000000000E+02
4945000000.000000      7.032166000000000E-01      8.621094000000000E+00      1.413040000000000E-01     -1.671719000000000E+02
4946000000.000000      7.033691000000000E-01      8.732422000000000E+00      1.378479000000000E-01     -1.665625000000000E+02
4947000000.000000      7.034302000000000E-01      8.441406000000000E+00      1.345215000000000E-01     -1.657187000000000E+02
4948000000.000000      7.045288000000000E-01      8.405762000000000E+00      1.317673000000000E-01     -1.649531000000000E+02
4949000000.000000      7.024536000000000E-01      8.460449000000000E+00      1.283340000000000E-01     -1.637187000000000E+02
4950000000.000000      7.061157000000000E-01      8.319336000000000E+00      1.255112000000000E-01     -1.627578000000000E+02
4951000000.000000      7.071533000000000E-01      8.055664000000000E+00      1.229744000000000E-01     -1.620937000000000E+02
4952000000.000000      7.057190000000000E-01      8.054199000000000E+00      1.199493000000000E-01     -1.606484000000000E+02
4953000000.000000      7.073975000000000E-01      8.001953000000000E+00      1.177597000000000E-01     -1.592656000000000E+02
4954000000.000000      7.078857000000000E-01      7.819336000000000E+00      1.151581000000000E-01     -1.580156000000000E+02
