! Network Analyzer HP8722D
! Hewlett-Packard
! Data name: Linha & Wilkinson
! Saver's name: Rodrigo Anjos
! Comments: Teste da utilização de aquisição
continua pelo VNA HP8722D
! Time and date: 22/5/2025 17:07
!              Frequency                     S11                                                   S21                                                   S12                                                   S22
# HZ  S  MA R 50
4800000000.000000      6.540527000000000E-01      1.090771000000000E+01      4.695892000000000E-01     -9.185156000000000E+01
4801000000.000000      6.514893000000000E-01      1.104932000000000E+01      4.721985000000000E-01     -9.254686000000000E+01
4802000000.000000      6.488647000000000E-01      1.092578000000000E+01      4.741821000000000E-01     -9.322266000000000E+01
4803000000.000000      6.479492000000000E-01      1.083789000000000E+01      4.760132000000000E-01     -9.390234000000000E+01
4804000000.000000      6.455688000000000E-01      1.087354000000000E+01      4.767456000000000E-01     -9.442577000000000E+01
4805000000.000000      6.456604000000000E-01      1.092432000000000E+01      4.799500000000000E-01     -9.541407000000000E+01
4806000000.000000      6.433411000000000E-01      1.075146000000000E+01      4.807434000000000E-01     -9.639843000000000E+01
4807000000.000000      6.408386000000000E-01      1.080762000000000E+01      4.821777000000000E-01     -9.699219000000000E+01
4808000000.000000      6.380920000000000E-01      1.085840000000000E+01      4.828949000000000E-01     -9.765234000000000E+01
4809000000.000000      6.361694000000000E-01      1.103711000000000E+01      4.858246000000000E-01     -9.869921000000000E+01
4810000000.000000      6.364441000000000E-01      1.100391000000000E+01      4.869385000000000E-01     -9.924608000000000E+01
4811000000.000000      6.351318000000000E-01      1.115381000000000E+01      4.895020000000000E-01     -1.001797000000000E+02
4812000000.000000      6.338806000000000E-01      1.130762000000000E+01      4.892120000000000E-01     -1.007734000000000E+02
4813000000.000000      6.318665000000000E-01      1.109863000000000E+01      4.914551000000000E-01     -1.018164000000000E+02
4814000000.000000      6.290894000000000E-01      1.122803000000000E+01      4.920502000000000E-01     -1.021953000000000E+02
4815000000.000000      6.286316000000000E-01      1.121973000000000E+01      4.927673000000000E-01     -1.032109000000000E+02
4816000000.000000      6.274414000000000E-01      1.126904000000000E+01      4.967346000000000E-01     -1.037617000000000E+02
4817000000.000000      6.257629000000000E-01      1.157959000000000E+01      4.939728000000000E-01     -1.046797000000000E+02
4818000000.000000      6.257935000000000E-01      1.151074000000000E+01      4.952698000000000E-01     -1.054609000000000E+02
4819000000.000000      6.230774000000000E-01      1.163574000000000E+01      4.962463000000000E-01     -1.061680000000000E+02
4820000000.000000      6.227112000000000E-01      1.160840000000000E+01      4.969940000000000E-01     -1.067109000000000E+02
4821000000.000000      6.213684000000000E-01      1.168359000000000E+01      4.983673000000000E-01     -1.075781000000000E+02
4822000000.000000      6.187439000000000E-01      1.167822000000000E+01      4.961090000000000E-01     -1.083281000000000E+02
4823000000.000000      6.190491000000000E-01      1.190479000000000E+01      4.988556000000000E-01     -1.091719000000000E+02
4824000000.000000      6.174622000000000E-01      1.218506000000000E+01      4.983368000000000E-01     -1.098438000000000E+02
4825000000.000000      6.167603000000000E-01      1.207373000000000E+01      4.987793000000000E-01     -1.106719000000000E+02
4826000000.000000      6.167908000000000E-01      1.216455000000000E+01      5.002136000000000E-01     -1.115781000000000E+02
4827000000.000000      6.162109000000000E-01      1.226465000000000E+01      4.996948000000000E-01     -1.119375000000000E+02
4828000000.000000      6.164246000000000E-01      1.239795000000000E+01      5.002441000000000E-01     -1.128320000000000E+02
4829000000.000000      6.138916000000000E-01      1.262695000000000E+01      5.001221000000000E-01     -1.135039000000000E+02
4830000000.000000      6.155396000000000E-01      1.263965000000000E+01      5.004578000000000E-01     -1.142305000000000E+02
4831000000.000000      6.130676000000000E-01      1.270801000000000E+01      4.997559000000000E-01     -1.151172000000000E+02
4832000000.000000      6.121826000000000E-01      1.297314000000000E+01      4.983673000000000E-01     -1.156836000000000E+02
4833000000.000000      6.140137000000000E-01      1.295654000000000E+01      4.992676000000000E-01     -1.164726000000000E+02
4834000000.000000      6.119995000000000E-01      1.292383000000000E+01      5.000610000000000E-01     -1.175078000000000E+02
4835000000.000000      6.144714000000000E-01      1.320557000000000E+01      5.000916000000000E-01     -1.179726000000000E+02
4836000000.000000      6.153564000000000E-01      1.341016000000000E+01      4.996948000000000E-01     -1.188515000000000E+02
4837000000.000000      6.132507000000000E-01      1.361865000000000E+01      4.983978000000000E-01     -1.197812000000000E+02
4838000000.000000      6.124878000000000E-01      1.343604000000000E+01      4.996948000000000E-01     -1.203398000000000E+02
4839000000.000000      6.154480000000000E-01      1.373291000000000E+01      4.984741000000000E-01     -1.212187000000000E+02
4840000000.000000      6.152039000000000E-01      1.366797000000000E+01      4.978943000000000E-01     -1.219609000000000E+02
4841000000.000000      6.156921000000000E-01      1.393164000000000E+01      4.984131000000000E-01     -1.230351000000000E+02
4842000000.000000      6.150208000000000E-01      1.399219000000000E+01      4.974518000000000E-01     -1.235703000000000E+02
4843000000.000000      6.170959000000000E-01      1.394141000000000E+01      4.977264000000000E-01     -1.245508000000000E+02
4844000000.000000      6.174622000000000E-01      1.393604000000000E+01      4.954987000000000E-01     -1.253164000000000E+02
4845000000.000000      6.177063000000000E-01      1.432324000000000E+01      4.941711000000000E-01     -1.261250000000000E+02
4846000000.000000      6.185303000000000E-01      1.446191000000000E+01      4.942932000000000E-01     -1.269961000000000E+02
4847000000.000000      6.199951000000000E-01      1.439746000000000E+01      4.937134000000000E-01     -1.276992000000000E+02
4848000000.000000      6.190491000000000E-01      1.437012000000000E+01      4.912262000000000E-01     -1.285781000000000E+02
4849000000.000000      6.203918000000000E-01      1.462109000000000E+01      4.921875000000000E-01     -1.293359000000000E+02
4850000000.000000      6.196289000000000E-01      1.467480000000000E+01      4.882050000000000E-01     -1.302344000000000E+02
4851000000.000000      6.232300000000000E-01      1.485449000000000E+01      4.889069000000000E-01     -1.310625000000000E+02
4852000000.000000      6.233826000000000E-01      1.486035000000000E+01      4.853210000000000E-01     -1.319531000000000E+02
4853000000.000000      6.244812000000000E-01      1.480127000000000E+01      4.824066000000000E-01     -1.329219000000000E+02
4854000000.000000      6.256409000000000E-01      1.482715000000000E+01      4.811096000000000E-01     -1.338359000000000E+02
4855000000.000000      6.264343000000000E-01      1.495605000000000E+01      4.788971000000000E-01     -1.346875000000000E+02
4856000000.000000      6.275024000000000E-01      1.492725000000000E+01      4.758606000000000E-01     -1.354375000000000E+02
4857000000.000000      6.284485000000000E-01      1.506055000000000E+01      4.762268000000000E-01     -1.363828000000000E+02
4858000000.000000      6.293335000000000E-01      1.495508000000000E+01      4.719391000000000E-01     -1.372187000000000E+02
4859000000.000000      6.291504000000000E-01      1.515381000000000E+01      4.697571000000000E-01     -1.381719000000000E+02
4860000000.000000      6.300964000000000E-01      1.506738000000000E+01      4.654083000000000E-01     -1.387656000000000E+02
4861000000.000000      6.326599000000000E-01      1.523242000000000E+01      4.635315000000000E-01     -1.398203000000000E+02
4862000000.000000      6.311951000000000E-01      1.500732000000000E+01      4.609375000000000E-01     -1.406250000000000E+02
4863000000.000000      6.353149000000000E-01      1.519531000000000E+01      4.556427000000000E-01     -1.415390000000000E+02
4864000000.000000      6.352539000000000E-01      1.520215000000000E+01      4.542389000000000E-01     -1.422422000000000E+02
4865000000.000000      6.365356000000000E-01      1.510889000000000E+01      4.493713000000000E-01     -1.430469000000000E+02
4866000000.000000      6.372375000000000E-01      1.499219000000000E+01      4.459229000000000E-01     -1.437500000000000E+02
4867000000.000000      6.370239000000000E-01      1.507178000000000E+01      4.417419000000000E-01     -1.449063000000000E+02
4868000000.000000      6.409302000000000E-01      1.516650000000000E+01      4.389191000000000E-01     -1.453125000000000E+02
4869000000.000000      6.410522000000000E-01      1.520605000000000E+01      4.352722000000000E-01     -1.462969000000000E+02
4870000000.000000      6.408081000000000E-01      1.513086000000000E+01      4.311218000000000E-01     -1.467422000000000E+02
4871000000.000000      6.438293000000000E-01      1.495752000000000E+01      4.266663000000000E-01     -1.477578000000000E+02
4872000000.000000      6.481628000000000E-01      1.486035000000000E+01      4.214783000000000E-01     -1.482812000000000E+02
4873000000.000000      6.468201000000000E-01      1.508936000000000E+01      4.184875000000000E-01     -1.492734000000000E+02
4874000000.000000      6.492004000000000E-01      1.497705000000000E+01      4.134064000000000E-01     -1.498125000000000E+02
4875000000.000000      6.502075000000000E-01      1.485889000000000E+01      4.087219000000000E-01     -1.503515000000000E+02
4876000000.000000      6.523132000000000E-01      1.512646000000000E+01      4.052429000000000E-01     -1.511562000000000E+02
4877000000.000000      6.528320000000000E-01      1.477246000000000E+01      4.010468000000000E-01     -1.520547000000000E+02
4878000000.000000      6.528931000000000E-01      1.487109000000000E+01      3.962860000000000E-01     -1.525938000000000E+02
4879000000.000000      6.556396000000000E-01      1.482178000000000E+01      3.908997000000000E-01     -1.529766000000000E+02
4880000000.000000      6.574097000000000E-01      1.468701000000000E+01      3.873138000000000E-01     -1.537578000000000E+02
4881000000.000000      6.571960000000000E-01      1.465576000000000E+01      3.823700000000000E-01     -1.541875000000000E+02
4882000000.000000      6.600647000000000E-01      1.470361000000000E+01      3.791351000000000E-01     -1.549375000000000E+02
4883000000.000000      6.611938000000000E-01      1.445215000000000E+01      3.727722000000000E-01     -1.556172000000000E+02
4884000000.000000      6.593628000000000E-01      1.438916000000000E+01      3.700714000000000E-01     -1.559687000000000E+02
4885000000.000000      6.626587000000000E-01      1.435742000000000E+01      3.645172000000000E-01     -1.564844000000000E+02
4886000000.000000      6.631775000000000E-01      1.434668000000000E+01      3.607178000000000E-01     -1.568203000000000E+02
4887000000.000000      6.661377000000000E-01      1.420898000000000E+01      3.566437000000000E-01     -1.574297000000000E+02
4888000000.000000      6.670532000000000E-01      1.393750000000000E+01      3.533783000000000E-01     -1.581719000000000E+02
4889000000.000000      6.654968000000000E-01      1.410352000000000E+01      3.485107000000000E-01     -1.582969000000000E+02
4890000000.000000      6.661377000000000E-01      1.402783000000000E+01      3.433228000000000E-01     -1.591640000000000E+02
4891000000.000000      6.703491000000000E-01      1.406641000000000E+01      3.392639000000000E-01     -1.593984000000000E+02
4892000000.000000      6.695862000000000E-01      1.387256000000000E+01      3.351288000000000E-01     -1.594297000000000E+02
4893000000.000000      6.727905000000000E-01      1.367920000000000E+01      3.309631000000000E-01     -1.602656000000000E+02
4894000000.000000      6.718445000000000E-01      1.357910000000000E+01      3.275146000000000E-01     -1.606641000000000E+02
4895000000.000000      6.742554000000000E-01      1.347021000000000E+01      3.250732000000000E-01     -1.609609000000000E+02
4896000000.000000      6.741638000000000E-01      1.340869000000000E+01      3.200378000000000E-01     -1.612734000000000E+02
4897000000.000000      6.747742000000000E-01      1.346484000000000E+01      3.153229000000000E-01     -1.617344000000000E+02
4898000000.000000      6.769104000000000E-01      1.328076000000000E+01      3.126526000000000E-01     -1.620859000000000E+02
4899000000.000000      6.777344000000000E-01      1.322998000000000E+01      3.085327000000000E-01     -1.625859000000000E+02
4900000000.000000      6.772461000000000E-01      1.307764000000000E+01      3.045044000000000E-01     -1.627187000000000E+02
4901000000.000000      6.788025000000000E-01      1.312158000000000E+01      3.011017000000000E-01     -1.632109000000000E+02
4902000000.000000      6.796265000000000E-01      1.281396000000000E+01      2.981873000000000E-01     -1.633672000000000E+02
4903000000.000000      6.796875000000000E-01      1.294287000000000E+01      2.935028000000000E-01     -1.639141000000000E+02
4904000000.000000      6.805115000000000E-01      1.273145000000000E+01      2.901306000000000E-01     -1.642344000000000E+02
4905000000.000000      6.813049000000000E-01      1.264795000000000E+01      2.872772000000000E-01     -1.646094000000000E+02
4906000000.000000      6.813354000000000E-01      1.258447000000000E+01      2.833252000000000E-01     -1.646484000000000E+02
4907000000.000000      6.823120000000000E-01      1.251709000000000E+01      2.803802000000000E-01     -1.652656000000000E+02
4908000000.000000      6.848145000000000E-01      1.223584000000000E+01      2.771912000000000E-01     -1.656016000000000E+02
4909000000.000000      6.835327000000000E-01      1.219873000000000E+01      2.727661000000000E-01     -1.659765000000000E+02
4910000000.000000      6.843567000000000E-01      1.213428000000000E+01      2.693634000000000E-01     -1.662031000000000E+02
4911000000.000000      6.838684000000000E-01      1.205566000000000E+01      2.662506000000000E-01     -1.664609000000000E+02
4912000000.000000      6.863708000000000E-01      1.203809000000000E+01      2.627258000000000E-01     -1.669297000000000E+02
4913000000.000000      6.874695000000000E-01      1.191455000000000E+01      2.586212000000000E-01     -1.671250000000000E+02
4914000000.000000      6.870422000000000E-01      1.160547000000000E+01      2.558136000000000E-01     -1.673281000000000E+02
4915000000.000000      6.863403000000000E-01      1.161377000000000E+01      2.512512000000000E-01     -1.678203000000000E+02
4916000000.000000      6.874695000000000E-01      1.148584000000000E+01      2.480774000000000E-01     -1.680547000000000E+02
4917000000.000000      6.890564000000000E-01      1.138184000000000E+01      2.446136000000000E-01     -1.684297000000000E+02
4918000000.000000      6.896667000000000E-01      1.130176000000000E+01      2.409592000000000E-01     -1.686719000000000E+02
4919000000.000000      6.886902000000000E-01      1.130762000000000E+01      2.381363000000000E-01     -1.686406000000000E+02
4920000000.000000      6.896667000000000E-01      1.115625000000000E+01      2.335892000000000E-01     -1.691797000000000E+02
4921000000.000000      6.905518000000000E-01      1.114111000000000E+01      2.302628000000000E-01     -1.693359000000000E+02
4922000000.000000      6.921082000000000E-01      1.083789000000000E+01      2.266922000000000E-01     -1.695859000000000E+02
4923000000.000000      6.915588000000000E-01      1.084863000000000E+01      2.220459000000000E-01     -1.695859000000000E+02
4924000000.000000      6.916809000000000E-01      1.086377000000000E+01      2.184143000000000E-01     -1.700703000000000E+02
4925000000.000000      6.908264000000000E-01      1.059180000000000E+01      2.152405000000000E-01     -1.702422000000000E+02
4926000000.000000      6.931763000000000E-01      1.055225000000000E+01      2.117233000000000E-01     -1.704687000000000E+02
4927000000.000000      6.937866000000000E-01      1.032959000000000E+01      2.070694000000000E-01     -1.705078000000000E+02
4928000000.000000      6.948547000000000E-01      1.026807000000000E+01      2.039566000000000E-01     -1.706484000000000E+02
4929000000.000000      6.965942000000000E-01      1.019775000000000E+01      1.998520000000000E-01     -1.706719000000000E+02
4930000000.000000      6.949768000000000E-01      1.011963000000000E+01      1.960678000000000E-01     -1.708359000000000E+02
4931000000.000000      6.957703000000000E-01      9.915039000000000E+00      1.927719000000000E-01     -1.708750000000000E+02
4932000000.000000      6.954956000000000E-01      9.910645000000000E+00      1.887512000000000E-01     -1.709297000000000E+02
4933000000.000000      6.939087000000000E-01      9.821777000000000E+00      1.843033000000000E-01     -1.707500000000000E+02
4934000000.000000      6.983032000000000E-01      9.718750000000000E+00      1.812286000000000E-01     -1.709297000000000E+02
4935000000.000000      6.990051000000000E-01      9.482422000000000E+00      1.778259000000000E-01     -1.707187000000000E+02
4936000000.000000      6.965332000000000E-01      9.677246000000000E+00      1.740417000000000E-01     -1.705469000000000E+02
4937000000.000000      6.999512000000000E-01      9.509766000000000E+00      1.697083000000000E-01     -1.702969000000000E+02
4938000000.000000      6.986694000000000E-01      9.428711000000000E+00      1.658249000000000E-01     -1.702812000000000E+02
4939000000.000000      6.987610000000000E-01      9.265137000000000E+00      1.624069000000000E-01     -1.699687000000000E+02
4940000000.000000      7.007141000000000E-01      9.055176000000000E+00      1.582870000000000E-01     -1.696875000000000E+02
4941000000.000000      7.029114000000000E-01      9.004395000000000E+00      1.549759000000000E-01     -1.693281000000000E+02
4942000000.000000      7.003479000000000E-01      9.085449000000000E+00      1.511765000000000E-01     -1.688203000000000E+02
4943000000.000000      7.015381000000000E-01      8.971680000000000E+00      1.477814000000000E-01     -1.682500000000000E+02
4944000000.000000      7.033081000000000E-01      8.662598000000000E+00      1.444321000000000E-01     -1.677656000000000E+02
4945000000.000000      7.014160000000000E-01      8.698242000000000E+00      1.406555000000000E-01     -1.673359000000000E+02
4946000000.000000      7.034912000000000E-01      8.680176000000000E+00      1.375275000000000E-01     -1.663828000000000E+02
4947000000.000000      7.021179000000000E-01      8.459473000000000E+00      1.344681000000000E-01     -1.657734000000000E+02
4948000000.000000      7.036133000000000E-01      8.567871000000000E+00      1.315155000000000E-01     -1.649062000000000E+02
4949000000.000000      7.038269000000000E-01      8.328613000000000E+00      1.281815000000000E-01     -1.636094000000000E+02
4950000000.000000      7.050171000000000E-01      8.382324000000000E+00      1.253357000000000E-01     -1.627344000000000E+02
4951000000.000000      7.052002000000000E-01      8.086914000000000E+00      1.227875000000000E-01     -1.620391000000000E+02
4952000000.000000      7.054138000000000E-01      8.104980000000000E+00      1.196709000000000E-01     -1.606328000000000E+02
4953000000.000000      7.058411000000000E-01      7.889404000000000E+00      1.177597000000000E-01     -1.592500000000000E+02
4954000000.000000      7.084351000000000E-01      7.672363000000000E+00      1.154442000000000E-01     -1.577422000000000E+02
