! Network Analyzer HP8722D
! Hewlett-Packard
! Data name: Linha & Wilkinson
! Saver's name: Rodrigo Anjos
! Comments: Teste da utilização de aquisição
continua pelo VNA HP8722D
! Time and date: 22/5/2025 13:00
!              Frequency                     S11                                                   S21                                                   S12                                                   S22
# HZ  S  MA R 50
4800000000.000000      6.522522000000000E-01      1.085986000000000E+01      4.712067000000000E-01     -9.275391000000000E+01
4801000000.000000      6.482544000000000E-01      1.094922000000000E+01      4.716034000000000E-01     -9.350000000000000E+01
4802000000.000000      6.476746000000000E-01      1.098877000000000E+01      4.746399000000000E-01     -9.413671000000000E+01
4803000000.000000      6.459656000000000E-01      1.080322000000000E+01      4.777374000000000E-01     -9.497656000000000E+01
4804000000.000000      6.429749000000000E-01      1.076074000000000E+01      4.794617000000000E-01     -9.564844000000000E+01
4805000000.000000      6.438293000000000E-01      1.080078000000000E+01      4.813538000000000E-01     -9.646873000000000E+01
4806000000.000000      6.395569000000000E-01      1.082959000000000E+01      4.821930000000000E-01     -9.723436000000000E+01
4807000000.000000      6.380005000000000E-01      1.085693000000000E+01      4.839325000000000E-01     -9.801561000000000E+01
4808000000.000000      6.365662000000000E-01      1.084326000000000E+01      4.841003000000000E-01     -9.865234000000000E+01
4809000000.000000      6.353455000000000E-01      1.095020000000000E+01      4.873199000000000E-01     -9.969139000000000E+01
4810000000.000000      6.338806000000000E-01      1.097803000000000E+01      4.883728000000000E-01     -1.000586000000000E+02
4811000000.000000      6.336365000000000E-01      1.098877000000000E+01      4.898682000000000E-01     -1.010547000000000E+02
4812000000.000000      6.326904000000000E-01      1.115625000000000E+01      4.913635000000000E-01     -1.019414000000000E+02
4813000000.000000      6.309814000000000E-01      1.115088000000000E+01      4.920959000000000E-01     -1.026172000000000E+02
4814000000.000000      6.286621000000000E-01      1.112207000000000E+01      4.930420000000000E-01     -1.032539000000000E+02
4815000000.000000      6.280823000000000E-01      1.116602000000000E+01      4.927521000000000E-01     -1.040156000000000E+02
4816000000.000000      6.264343000000000E-01      1.137891000000000E+01      4.950562000000000E-01     -1.049414000000000E+02
4817000000.000000      6.249390000000000E-01      1.143506000000000E+01      4.945374000000000E-01     -1.057109000000000E+02
4818000000.000000      6.220398000000000E-01      1.128125000000000E+01      4.948120000000000E-01     -1.063047000000000E+02
4819000000.000000      6.236572000000000E-01      1.139551000000000E+01      4.950104000000000E-01     -1.070000000000000E+02
4820000000.000000      6.212769000000000E-01      1.143945000000000E+01      4.963226000000000E-01     -1.075781000000000E+02
4821000000.000000      6.208191000000000E-01      1.177002000000000E+01      4.971008000000000E-01     -1.086914000000000E+02
4822000000.000000      6.200867000000000E-01      1.175781000000000E+01      4.958496000000000E-01     -1.092578000000000E+02
4823000000.000000      6.192627000000000E-01      1.185400000000000E+01      4.968719000000000E-01     -1.100508000000000E+02
4824000000.000000      6.184692000000000E-01      1.206396000000000E+01      4.971161000000000E-01     -1.107734000000000E+02
4825000000.000000      6.163635000000000E-01      1.219043000000000E+01      4.977112000000000E-01     -1.114180000000000E+02
4826000000.000000      6.153870000000000E-01      1.216846000000000E+01      4.976501000000000E-01     -1.123906000000000E+02
4827000000.000000      6.173401000000000E-01      1.212988000000000E+01      4.974670000000000E-01     -1.129180000000000E+02
4828000000.000000      6.167603000000000E-01      1.234131000000000E+01      4.996338000000000E-01     -1.139219000000000E+02
4829000000.000000      6.152649000000000E-01      1.267676000000000E+01      4.996033000000000E-01     -1.145117000000000E+02
4830000000.000000      6.159363000000000E-01      1.256396000000000E+01      4.981842000000000E-01     -1.152930000000000E+02
4831000000.000000      6.139526000000000E-01      1.273975000000000E+01      4.994354000000000E-01     -1.160586000000000E+02
4832000000.000000      6.138000000000000E-01      1.291846000000000E+01      4.983215000000000E-01     -1.166758000000000E+02
4833000000.000000      6.125488000000000E-01      1.296777000000000E+01      4.979401000000000E-01     -1.175664000000000E+02
4834000000.000000      6.119080000000000E-01      1.307373000000000E+01      4.984131000000000E-01     -1.182930000000000E+02
4835000000.000000      6.141968000000000E-01      1.318750000000000E+01      4.994965000000000E-01     -1.192070000000000E+02
4836000000.000000      6.140747000000000E-01      1.335107000000000E+01      4.974823000000000E-01     -1.199023000000000E+02
4837000000.000000      6.119995000000000E-01      1.347705000000000E+01      4.975128000000000E-01     -1.209414000000000E+02
4838000000.000000      6.122742000000000E-01      1.352686000000000E+01      4.975128000000000E-01     -1.214101000000000E+02
4839000000.000000      6.171265000000000E-01      1.365723000000000E+01      4.969635000000000E-01     -1.222930000000000E+02
4840000000.000000      6.146545000000000E-01      1.363916000000000E+01      4.967194000000000E-01     -1.229805000000000E+02
4841000000.000000      6.146240000000000E-01      1.392773000000000E+01      4.967499000000000E-01     -1.238867000000000E+02
4842000000.000000      6.160278000000000E-01      1.396191000000000E+01      4.959106000000000E-01     -1.248398000000000E+02
4843000000.000000      6.192627000000000E-01      1.385889000000000E+01      4.951019000000000E-01     -1.255781000000000E+02
4844000000.000000      6.157837000000000E-01      1.401270000000000E+01      4.939117000000000E-01     -1.264180000000000E+02
4845000000.000000      6.185913000000000E-01      1.418604000000000E+01      4.928894000000000E-01     -1.271601000000000E+02
4846000000.000000      6.195679000000000E-01      1.417236000000000E+01      4.905396000000000E-01     -1.278828000000000E+02
4847000000.000000      6.208191000000000E-01      1.449609000000000E+01      4.898071000000000E-01     -1.288359000000000E+02
4848000000.000000      6.204834000000000E-01      1.438916000000000E+01      4.882660000000000E-01     -1.296719000000000E+02
4849000000.000000      6.216125000000000E-01      1.436182000000000E+01      4.882202000000000E-01     -1.303984000000000E+02
4850000000.000000      6.204224000000000E-01      1.454150000000000E+01      4.843445000000000E-01     -1.312969000000000E+02
4851000000.000000      6.228333000000000E-01      1.460596000000000E+01      4.840851000000000E-01     -1.323203000000000E+02
4852000000.000000      6.230469000000000E-01      1.448779000000000E+01      4.828033000000000E-01     -1.329766000000000E+02
4853000000.000000      6.267090000000000E-01      1.466650000000000E+01      4.785461000000000E-01     -1.339297000000000E+02
4854000000.000000      6.260986000000000E-01      1.474463000000000E+01      4.768677000000000E-01     -1.348438000000000E+02
4855000000.000000      6.281433000000000E-01      1.482568000000000E+01      4.750519000000000E-01     -1.357422000000000E+02
4856000000.000000      6.281433000000000E-01      1.474756000000000E+01      4.715576000000000E-01     -1.364531000000000E+02
4857000000.000000      6.306763000000000E-01      1.479297000000000E+01      4.710693000000000E-01     -1.372891000000000E+02
4858000000.000000      6.304932000000000E-01      1.485742000000000E+01      4.676971000000000E-01     -1.381016000000000E+02
4859000000.000000      6.333008000000000E-01      1.496436000000000E+01      4.664612000000000E-01     -1.390703000000000E+02
4860000000.000000      6.333618000000000E-01      1.497949000000000E+01      4.613190000000000E-01     -1.398516000000000E+02
4861000000.000000      6.335754000000000E-01      1.499609000000000E+01      4.580078000000000E-01     -1.406484000000000E+02
4862000000.000000      6.341858000000000E-01      1.503174000000000E+01      4.564362000000000E-01     -1.414297000000000E+02
4863000000.000000      6.376343000000000E-01      1.517041000000000E+01      4.513855000000000E-01     -1.423984000000000E+02
4864000000.000000      6.388855000000000E-01      1.495752000000000E+01      4.499054000000000E-01     -1.431328000000000E+02
4865000000.000000      6.386108000000000E-01      1.491211000000000E+01      4.446259000000000E-01     -1.438125000000000E+02
4866000000.000000      6.406250000000000E-01      1.482715000000000E+01      4.411621000000000E-01     -1.448984000000000E+02
4867000000.000000      6.400452000000000E-01      1.485742000000000E+01      4.365234000000000E-01     -1.455937000000000E+02
4868000000.000000      6.404114000000000E-01      1.493018000000000E+01      4.336090000000000E-01     -1.462578000000000E+02
4869000000.000000      6.445923000000000E-01      1.492480000000000E+01      4.300842000000000E-01     -1.471562000000000E+02
4870000000.000000      6.449585000000000E-01      1.490967000000000E+01      4.260406000000000E-01     -1.478672000000000E+02
4871000000.000000      6.460876000000000E-01      1.488086000000000E+01      4.203186000000000E-01     -1.486250000000000E+02
4872000000.000000      6.499329000000000E-01      1.486963000000000E+01      4.168091000000000E-01     -1.490000000000000E+02
4873000000.000000      6.487732000000000E-01      1.488623000000000E+01      4.125519000000000E-01     -1.501250000000000E+02
4874000000.000000      6.512451000000000E-01      1.483154000000000E+01      4.083252000000000E-01     -1.506719000000000E+02
4875000000.000000      6.514587000000000E-01      1.474072000000000E+01      4.037628000000000E-01     -1.513984000000000E+02
4876000000.000000      6.525574000000000E-01      1.489600000000000E+01      4.006805000000000E-01     -1.520703000000000E+02
4877000000.000000      6.542969000000000E-01      1.461963000000000E+01      3.955078000000000E-01     -1.525938000000000E+02
4878000000.000000      6.530762000000000E-01      1.455957000000000E+01      3.910370000000000E-01     -1.532422000000000E+02
4879000000.000000      6.565247000000000E-01      1.440430000000000E+01      3.855438000000000E-01     -1.536797000000000E+02
4880000000.000000      6.571350000000000E-01      1.430811000000000E+01      3.824158000000000E-01     -1.544688000000000E+02
4881000000.000000      6.596985000000000E-01      1.442871000000000E+01      3.780060000000000E-01     -1.550781000000000E+02
4882000000.000000      6.601563000000000E-01      1.437549000000000E+01      3.729248000000000E-01     -1.556641000000000E+02
4883000000.000000      6.610413000000000E-01      1.419141000000000E+01      3.687134000000000E-01     -1.561641000000000E+02
4884000000.000000      6.626892000000000E-01      1.424902000000000E+01      3.659973000000000E-01     -1.564141000000000E+02
4885000000.000000      6.632996000000000E-01      1.424609000000000E+01      3.610229000000000E-01     -1.569531000000000E+02
4886000000.000000      6.651001000000000E-01      1.420898000000000E+01      3.557281000000000E-01     -1.577031000000000E+02
4887000000.000000      6.655884000000000E-01      1.391260000000000E+01      3.524780000000000E-01     -1.577578000000000E+02
4888000000.000000      6.673279000000000E-01      1.381494000000000E+01      3.479309000000000E-01     -1.586406000000000E+02
4889000000.000000      6.682129000000000E-01      1.377783000000000E+01      3.430786000000000E-01     -1.589219000000000E+02
4890000000.000000      6.678772000000000E-01      1.365576000000000E+01      3.390350000000000E-01     -1.596953000000000E+02
4891000000.000000      6.691589000000000E-01      1.366113000000000E+01      3.339081000000000E-01     -1.599375000000000E+02
4892000000.000000      6.692505000000000E-01      1.366943000000000E+01      3.306885000000000E-01     -1.601953000000000E+02
4893000000.000000      6.718140000000000E-01      1.352539000000000E+01      3.269043000000000E-01     -1.607344000000000E+02
4894000000.000000      6.703796000000000E-01      1.350488000000000E+01      3.229523000000000E-01     -1.611016000000000E+02
4895000000.000000      6.740417000000000E-01      1.335498000000000E+01      3.194885000000000E-01     -1.615000000000000E+02
4896000000.000000      6.745300000000000E-01      1.322168000000000E+01      3.154602000000000E-01     -1.618359000000000E+02
4897000000.000000      6.755066000000000E-01      1.314893000000000E+01      3.108673000000000E-01     -1.621641000000000E+02
4898000000.000000      6.772156000000000E-01      1.312451000000000E+01      3.079224000000000E-01     -1.624531000000000E+02
4899000000.000000      6.770020000000000E-01      1.314746000000000E+01      3.042450000000000E-01     -1.630156000000000E+02
4900000000.000000      6.784363000000000E-01      1.288525000000000E+01      3.004150000000000E-01     -1.631406000000000E+02
4901000000.000000      6.783447000000000E-01      1.281250000000000E+01      2.968597000000000E-01     -1.636406000000000E+02
4902000000.000000      6.793213000000000E-01      1.253125000000000E+01      2.932587000000000E-01     -1.638750000000000E+02
4903000000.000000      6.803894000000000E-01      1.259033000000000E+01      2.889099000000000E-01     -1.642734000000000E+02
4904000000.000000      6.799011000000000E-01      1.238428000000000E+01      2.854462000000000E-01     -1.646406000000000E+02
4905000000.000000      6.809082000000000E-01      1.240332000000000E+01      2.828827000000000E-01     -1.650703000000000E+02
4906000000.000000      6.833191000000000E-01      1.220947000000000E+01      2.786560000000000E-01     -1.651406000000000E+02
4907000000.000000      6.844482000000000E-01      1.216309000000000E+01      2.757263000000000E-01     -1.655234000000000E+02
4908000000.000000      6.847839000000000E-01      1.201074000000000E+01      2.728119000000000E-01     -1.658203000000000E+02
4909000000.000000      6.843872000000000E-01      1.191162000000000E+01      2.680817000000000E-01     -1.662500000000000E+02
4910000000.000000      6.838379000000000E-01      1.184326000000000E+01      2.647095000000000E-01     -1.665859000000000E+02
4911000000.000000      6.852722000000000E-01      1.170020000000000E+01      2.612915000000000E-01     -1.667031000000000E+02
4912000000.000000      6.870728000000000E-01      1.171680000000000E+01      2.581635000000000E-01     -1.672109000000000E+02
4913000000.000000      6.873779000000000E-01      1.161230000000000E+01      2.546234000000000E-01     -1.673906000000000E+02
4914000000.000000      6.858826000000000E-01      1.149170000000000E+01      2.513733000000000E-01     -1.677109000000000E+02
4915000000.000000      6.879578000000000E-01      1.145166000000000E+01      2.474442000000000E-01     -1.680000000000000E+02
4916000000.000000      6.885376000000000E-01      1.129102000000000E+01      2.434692000000000E-01     -1.684844000000000E+02
4917000000.000000      6.891785000000000E-01      1.130859000000000E+01      2.400513000000000E-01     -1.685000000000000E+02
4918000000.000000      6.901855000000000E-01      1.113184000000000E+01      2.362366000000000E-01     -1.688281000000000E+02
4919000000.000000      6.896362000000000E-01      1.095996000000000E+01      2.336426000000000E-01     -1.688750000000000E+02
4920000000.000000      6.904602000000000E-01      1.071289000000000E+01      2.293854000000000E-01     -1.694531000000000E+02
4921000000.000000      6.909180000000000E-01      1.091895000000000E+01      2.252045000000000E-01     -1.696094000000000E+02
4922000000.000000      6.903687000000000E-01      1.086914000000000E+01      2.224045000000000E-01     -1.697031000000000E+02
4923000000.000000      6.935120000000000E-01      1.065527000000000E+01      2.180710000000000E-01     -1.699141000000000E+02
4924000000.000000      6.934814000000000E-01      1.068799000000000E+01      2.141266000000000E-01     -1.700781000000000E+02
4925000000.000000      6.917725000000000E-01      1.028027000000000E+01      2.105637000000000E-01     -1.700703000000000E+02
4926000000.000000      6.928101000000000E-01      1.032568000000000E+01      2.077637000000000E-01     -1.705234000000000E+02
4927000000.000000      6.936646000000000E-01      1.013867000000000E+01      2.037048000000000E-01     -1.706016000000000E+02
4928000000.000000      6.952515000000000E-01      1.010010000000000E+01      1.998367000000000E-01     -1.706094000000000E+02
4929000000.000000      6.947937000000000E-01      9.940918000000000E+00      1.953964000000000E-01     -1.707187000000000E+02
4930000000.000000      6.951294000000000E-01      9.812012000000000E+00      1.922455000000000E-01     -1.706406000000000E+02
4931000000.000000      6.960754000000000E-01      9.678711000000000E+00      1.886826000000000E-01     -1.707344000000000E+02
4932000000.000000      6.966553000000000E-01      9.724121000000000E+00      1.843643000000000E-01     -1.706563000000000E+02
4933000000.000000      6.955261000000000E-01      9.658203000000000E+00      1.801071000000000E-01     -1.705547000000000E+02
4934000000.000000      6.987000000000000E-01      9.428711000000000E+00      1.770096000000000E-01     -1.705312000000000E+02
4935000000.000000      6.984558000000000E-01      9.452148000000000E+00      1.734848000000000E-01     -1.702500000000000E+02
4936000000.000000      6.974792000000000E-01      9.402832000000000E+00      1.695557000000000E-01     -1.700156000000000E+02
4937000000.000000      6.990662000000000E-01      9.102051000000000E+00      1.659317000000000E-01     -1.699531000000000E+02
4938000000.000000      6.994629000000000E-01      9.099121000000000E+00      1.619873000000000E-01     -1.695703000000000E+02
4939000000.000000      6.988525000000000E-01      9.110352000000000E+00      1.587677000000000E-01     -1.693750000000000E+02
4940000000.000000      7.003174000000000E-01      8.957520000000000E+00      1.546478000000000E-01     -1.690625000000000E+02
4941000000.000000      7.002869000000000E-01      8.909668000000000E+00      1.513672000000000E-01     -1.685781000000000E+02
4942000000.000000      6.990662000000000E-01      8.702148000000000E+00      1.477051000000000E-01     -1.681641000000000E+02
4943000000.000000      7.011719000000000E-01      8.789063000000000E+00      1.444397000000000E-01     -1.675781000000000E+02
4944000000.000000      7.008972000000000E-01      8.492188000000000E+00      1.409302000000000E-01     -1.670781000000000E+02
4945000000.000000      7.030640000000000E-01      8.420898000000000E+00      1.374741000000000E-01     -1.660938000000000E+02
4946000000.000000      7.027283000000000E-01      8.415527000000000E+00      1.344452000000000E-01     -1.652969000000000E+02
4947000000.000000      7.044678000000000E-01      8.158691000000000E+00      1.312637000000000E-01     -1.646484000000000E+02
4948000000.000000      7.048340000000000E-01      8.151855000000000E+00      1.284332000000000E-01     -1.635625000000000E+02
4949000000.000000      7.022705000000000E-01      8.103516000000000E+00      1.255875000000000E-01     -1.621484000000000E+02
4950000000.000000      7.062683000000000E-01      8.144531000000000E+00      1.225777000000000E-01     -1.614219000000000E+02
4951000000.000000      7.067871000000000E-01      7.978760000000000E+00      1.203308000000000E-01     -1.602656000000000E+02
4952000000.000000      7.057800000000000E-01      7.781006000000000E+00      1.179047000000000E-01     -1.590937000000000E+02
4953000000.000000      7.066650000000000E-01      7.888184000000000E+00      1.156616000000000E-01     -1.574219000000000E+02
4954000000.000000      7.078247000000000E-01      7.574951000000000E+00      1.135063000000000E-01     -1.560156000000000E+02
