! Network Analyzer HP8722D
! Hewlett-Packard
! Data name: Linha & Wilkinson
! Saver's name: Rodrigo Anjos
! Comments: Teste da utilização de aquisição
continua pelo VNA HP8722D
! Time and date: 22/5/2025 09:15
!              Frequency                     S11                                                   S21                                                   S12                                                   S22
# HZ  S  MA R 50
4800000000.000000      6.468811000000000E-01      1.034912000000000E+01      4.741058000000000E-01     -9.378124000000000E+01
4801000000.000000      6.439209000000000E-01      1.048193000000000E+01      4.749146000000000E-01     -9.434374000000000E+01
4802000000.000000      6.449280000000000E-01      1.047656000000000E+01      4.783936000000000E-01     -9.516016000000000E+01
4803000000.000000      6.421814000000000E-01      1.015137000000000E+01      4.815063000000000E-01     -9.595703000000000E+01
4804000000.000000      6.396484000000000E-01      1.040527000000000E+01      4.824371000000000E-01     -9.662889000000000E+01
4805000000.000000      6.396484000000000E-01      1.036670000000000E+01      4.823608000000000E-01     -9.753124000000000E+01
4806000000.000000      6.373596000000000E-01      1.034180000000000E+01      4.838867000000000E-01     -9.825781000000000E+01
4807000000.000000      6.355896000000000E-01      1.032959000000000E+01      4.874878000000000E-01     -9.928905000000000E+01
4808000000.000000      6.326294000000000E-01      1.047266000000000E+01      4.873962000000000E-01     -9.966015000000000E+01
4809000000.000000      6.318359000000000E-01      1.047363000000000E+01      4.880829000000000E-01     -1.007656000000000E+02
4810000000.000000      6.303711000000000E-01      1.050146000000000E+01      4.914398000000000E-01     -1.013125000000000E+02
4811000000.000000      6.297302000000000E-01      1.060840000000000E+01      4.918518000000000E-01     -1.022617000000000E+02
4812000000.000000      6.304626000000000E-01      1.081592000000000E+01      4.916687000000000E-01     -1.026875000000000E+02
4813000000.000000      6.258240000000000E-01      1.071826000000000E+01      4.935760000000000E-01     -1.037695000000000E+02
4814000000.000000      6.255188000000000E-01      1.064941000000000E+01      4.945221000000000E-01     -1.041367000000000E+02
4815000000.000000      6.230774000000000E-01      1.092578000000000E+01      4.937897000000000E-01     -1.049062000000000E+02
4816000000.000000      6.227722000000000E-01      1.089697000000000E+01      4.954071000000000E-01     -1.058828000000000E+02
4817000000.000000      6.210327000000000E-01      1.103711000000000E+01      4.959412000000000E-01     -1.066719000000000E+02
4818000000.000000      6.192017000000000E-01      1.100000000000000E+01      4.971161000000000E-01     -1.073828000000000E+02
4819000000.000000      6.207275000000000E-01      1.107520000000000E+01      4.967194000000000E-01     -1.080937000000000E+02
4820000000.000000      6.188354000000000E-01      1.117969000000000E+01      4.967499000000000E-01     -1.087969000000000E+02
4821000000.000000      6.186523000000000E-01      1.129492000000000E+01      5.002441000000000E-01     -1.098164000000000E+02
4822000000.000000      6.164551000000000E-01      1.135693000000000E+01      4.960327000000000E-01     -1.104336000000000E+02
4823000000.000000      6.165771000000000E-01      1.135400000000000E+01      4.996948000000000E-01     -1.111562000000000E+02
4824000000.000000      6.132507000000000E-01      1.149561000000000E+01      4.996338000000000E-01     -1.120039000000000E+02
4825000000.000000      6.148071000000000E-01      1.162207000000000E+01      4.991760000000000E-01     -1.127109000000000E+02
4826000000.000000      6.138000000000000E-01      1.165918000000000E+01      4.995728000000000E-01     -1.137226000000000E+02
4827000000.000000      6.128235000000000E-01      1.185254000000000E+01      4.990997000000000E-01     -1.140234000000000E+02
4828000000.000000      6.139221000000000E-01      1.198193000000000E+01      4.990540000000000E-01     -1.148164000000000E+02
4829000000.000000      6.140137000000000E-01      1.221387000000000E+01      5.005493000000000E-01     -1.155273000000000E+02
4830000000.000000      6.120911000000000E-01      1.210693000000000E+01      4.999084000000000E-01     -1.163828000000000E+02
4831000000.000000      6.117859000000000E-01      1.232373000000000E+01      5.005188000000000E-01     -1.171133000000000E+02
4832000000.000000      6.126404000000000E-01      1.251611000000000E+01      5.003357000000000E-01     -1.178164000000000E+02
4833000000.000000      6.116333000000000E-01      1.246094000000000E+01      4.989929000000000E-01     -1.186836000000000E+02
4834000000.000000      6.115723000000000E-01      1.254736000000000E+01      4.998627000000000E-01     -1.194609000000000E+02
4835000000.000000      6.104736000000000E-01      1.266699000000000E+01      4.996033000000000E-01     -1.203164000000000E+02
4836000000.000000      6.130371000000000E-01      1.287988000000000E+01      4.968567000000000E-01     -1.209180000000000E+02
4837000000.000000      6.127014000000000E-01      1.305273000000000E+01      4.959106000000000E-01     -1.221289000000000E+02
4838000000.000000      6.118774000000000E-01      1.304736000000000E+01      4.980469000000000E-01     -1.224297000000000E+02
4839000000.000000      6.137390000000000E-01      1.336475000000000E+01      4.975739000000000E-01     -1.233125000000000E+02
4840000000.000000      6.139221000000000E-01      1.321240000000000E+01      4.955139000000000E-01     -1.241406000000000E+02
4841000000.000000      6.138306000000000E-01      1.341260000000000E+01      4.971619000000000E-01     -1.249883000000000E+02
4842000000.000000      6.148071000000000E-01      1.337549000000000E+01      4.952240000000000E-01     -1.259062000000000E+02
4843000000.000000      6.176453000000000E-01      1.339502000000000E+01      4.952393000000000E-01     -1.266719000000000E+02
4844000000.000000      6.168213000000000E-01      1.351416000000000E+01      4.924316000000000E-01     -1.274336000000000E+02
4845000000.000000      6.170044000000000E-01      1.380273000000000E+01      4.930115000000000E-01     -1.282656000000000E+02
4846000000.000000      6.179810000000000E-01      1.390039000000000E+01      4.909668000000000E-01     -1.291094000000000E+02
4847000000.000000      6.186218000000000E-01      1.378906000000000E+01      4.904938000000000E-01     -1.298359000000000E+02
4848000000.000000      6.181641000000000E-01      1.394287000000000E+01      4.866638000000000E-01     -1.308281000000000E+02
4849000000.000000      6.200562000000000E-01      1.382324000000000E+01      4.875488000000000E-01     -1.315078000000000E+02
4850000000.000000      6.222229000000000E-01      1.398242000000000E+01      4.841156000000000E-01     -1.324063000000000E+02
4851000000.000000      6.231689000000000E-01      1.422412000000000E+01      4.824829000000000E-01     -1.333750000000000E+02
4852000000.000000      6.230774000000000E-01      1.425879000000000E+01      4.814911000000000E-01     -1.342109000000000E+02
4853000000.000000      6.253967000000000E-01      1.423389000000000E+01      4.787445000000000E-01     -1.350312000000000E+02
4854000000.000000      6.255493000000000E-01      1.439746000000000E+01      4.757385000000000E-01     -1.358984000000000E+02
4855000000.000000      6.264648000000000E-01      1.442090000000000E+01      4.739380000000000E-01     -1.367969000000000E+02
4856000000.000000      6.267395000000000E-01      1.425049000000000E+01      4.706268000000000E-01     -1.374922000000000E+02
4857000000.000000      6.287842000000000E-01      1.447559000000000E+01      4.685974000000000E-01     -1.383281000000000E+02
4858000000.000000      6.299133000000000E-01      1.437256000000000E+01      4.652710000000000E-01     -1.391875000000000E+02
4859000000.000000      6.336975000000000E-01      1.442090000000000E+01      4.632874000000000E-01     -1.402109000000000E+02
4860000000.000000      6.326599000000000E-01      1.437939000000000E+01      4.596710000000000E-01     -1.409141000000000E+02
4861000000.000000      6.324768000000000E-01      1.446045000000000E+01      4.561615000000000E-01     -1.418672000000000E+02
4862000000.000000      6.336975000000000E-01      1.458008000000000E+01      4.539642000000000E-01     -1.425469000000000E+02
4863000000.000000      6.377563000000000E-01      1.440430000000000E+01      4.500122000000000E-01     -1.433594000000000E+02
4864000000.000000      6.369019000000000E-01      1.450879000000000E+01      4.468689000000000E-01     -1.442109000000000E+02
4865000000.000000      6.376648000000000E-01      1.443604000000000E+01      4.424438000000000E-01     -1.448594000000000E+02
4866000000.000000      6.396484000000000E-01      1.431494000000000E+01      4.390869000000000E-01     -1.458437000000000E+02
4867000000.000000      6.392212000000000E-01      1.437793000000000E+01      4.353027000000000E-01     -1.466719000000000E+02
4868000000.000000      6.401672000000000E-01      1.422998000000000E+01      4.315948000000000E-01     -1.473672000000000E+02
4869000000.000000      6.418457000000000E-01      1.440283000000000E+01      4.274292000000000E-01     -1.481016000000000E+02
4870000000.000000      6.446228000000000E-01      1.430127000000000E+01      4.234314000000000E-01     -1.486172000000000E+02
4871000000.000000      6.451721000000000E-01      1.422705000000000E+01      4.182892000000000E-01     -1.494844000000000E+02
4872000000.000000      6.486206000000000E-01      1.424902000000000E+01      4.143372000000000E-01     -1.498281000000000E+02
4873000000.000000      6.487122000000000E-01      1.431885000000000E+01      4.100800000000000E-01     -1.508281000000000E+02
4874000000.000000      6.498108000000000E-01      1.441406000000000E+01      4.057465000000000E-01     -1.515625000000000E+02
4875000000.000000      6.502991000000000E-01      1.422852000000000E+01      3.997498000000000E-01     -1.520703000000000E+02
4876000000.000000      6.544800000000000E-01      1.424902000000000E+01      3.970032000000000E-01     -1.529687000000000E+02
4877000000.000000      6.540222000000000E-01      1.392090000000000E+01      3.925476000000000E-01     -1.535000000000000E+02
4878000000.000000      6.544495000000000E-01      1.414063000000000E+01      3.883362000000000E-01     -1.540313000000000E+02
4879000000.000000      6.555481000000000E-01      1.391797000000000E+01      3.817291000000000E-01     -1.547422000000000E+02
4880000000.000000      6.577759000000000E-01      1.388672000000000E+01      3.780670000000000E-01     -1.550156000000000E+02
4881000000.000000      6.581421000000000E-01      1.398242000000000E+01      3.743286000000000E-01     -1.556250000000000E+02
4882000000.000000      6.614685000000000E-01      1.396484000000000E+01      3.699951000000000E-01     -1.562422000000000E+02
4883000000.000000      6.612549000000000E-01      1.362012000000000E+01      3.660583000000000E-01     -1.569531000000000E+02
4884000000.000000      6.635437000000000E-01      1.378223000000000E+01      3.614044000000000E-01     -1.574141000000000E+02
4885000000.000000      6.651001000000000E-01      1.369141000000000E+01      3.556061000000000E-01     -1.577266000000000E+02
4886000000.000000      6.639709000000000E-01      1.362842000000000E+01      3.517914000000000E-01     -1.581719000000000E+02
4887000000.000000      6.661072000000000E-01      1.349219000000000E+01      3.487396000000000E-01     -1.587344000000000E+02
4888000000.000000      6.680298000000000E-01      1.336328000000000E+01      3.453522000000000E-01     -1.592734000000000E+02
4889000000.000000      6.659546000000000E-01      1.337158000000000E+01      3.393402000000000E-01     -1.595547000000000E+02
4890000000.000000      6.688843000000000E-01      1.321484000000000E+01      3.360596000000000E-01     -1.603281000000000E+02
4891000000.000000      6.686096000000000E-01      1.311035000000000E+01      3.316193000000000E-01     -1.607969000000000E+02
4892000000.000000      6.711426000000000E-01      1.294287000000000E+01      3.276825000000000E-01     -1.608359000000000E+02
4893000000.000000      6.711731000000000E-01      1.300342000000000E+01      3.235626000000000E-01     -1.613125000000000E+02
4894000000.000000      6.736450000000000E-01      1.294873000000000E+01      3.191833000000000E-01     -1.617656000000000E+02
4895000000.000000      6.764526000000000E-01      1.273584000000000E+01      3.177185000000000E-01     -1.619688000000000E+02
4896000000.000000      6.744995000000000E-01      1.265625000000000E+01      3.126373000000000E-01     -1.624844000000000E+02
4897000000.000000      6.745300000000000E-01      1.260400000000000E+01      3.084412000000000E-01     -1.628203000000000E+02
4898000000.000000      6.752014000000000E-01      1.245557000000000E+01      3.049011000000000E-01     -1.630391000000000E+02
4899000000.000000      6.776123000000000E-01      1.235938000000000E+01      3.009644000000000E-01     -1.635703000000000E+02
4900000000.000000      6.779480000000000E-01      1.238818000000000E+01      2.978516000000000E-01     -1.637109000000000E+02
4901000000.000000      6.794434000000000E-01      1.204492000000000E+01      2.940063000000000E-01     -1.641172000000000E+02
4902000000.000000      6.785889000000000E-01      1.214648000000000E+01      2.909698000000000E-01     -1.643984000000000E+02
4903000000.000000      6.804504000000000E-01      1.214355000000000E+01      2.861176000000000E-01     -1.648125000000000E+02
4904000000.000000      6.790161000000000E-01      1.187744000000000E+01      2.827148000000000E-01     -1.650859000000000E+02
4905000000.000000      6.797791000000000E-01      1.183057000000000E+01      2.803192000000000E-01     -1.656016000000000E+02
4906000000.000000      6.809692000000000E-01      1.176465000000000E+01      2.758331000000000E-01     -1.655391000000000E+02
4907000000.000000      6.824951000000000E-01      1.167529000000000E+01      2.730255000000000E-01     -1.660781000000000E+02
4908000000.000000      6.838684000000000E-01      1.158350000000000E+01      2.697601000000000E-01     -1.663672000000000E+02
4909000000.000000      6.843262000000000E-01      1.145313000000000E+01      2.654419000000000E-01     -1.667344000000000E+02
4910000000.000000      6.850281000000000E-01      1.138965000000000E+01      2.619324000000000E-01     -1.668750000000000E+02
4911000000.000000      6.858826000000000E-01      1.122070000000000E+01      2.592316000000000E-01     -1.671641000000000E+02
4912000000.000000      6.854858000000000E-01      1.116992000000000E+01      2.547455000000000E-01     -1.675781000000000E+02
4913000000.000000      6.885681000000000E-01      1.104492000000000E+01      2.517395000000000E-01     -1.677500000000000E+02
4914000000.000000      6.887207000000000E-01      1.092285000000000E+01      2.487488000000000E-01     -1.680234000000000E+02
4915000000.000000      6.870117000000000E-01      1.080078000000000E+01      2.449036000000000E-01     -1.683594000000000E+02
4916000000.000000      6.893005000000000E-01      1.068262000000000E+01      2.416229000000000E-01     -1.689062000000000E+02
4917000000.000000      6.885986000000000E-01      1.062646000000000E+01      2.375107000000000E-01     -1.690234000000000E+02
4918000000.000000      6.887512000000000E-01      1.061670000000000E+01      2.332153000000000E-01     -1.691015000000000E+02
4919000000.000000      6.906128000000000E-01      1.050684000000000E+01      2.302399000000000E-01     -1.691641000000000E+02
4920000000.000000      6.901855000000000E-01      1.026660000000000E+01      2.265549000000000E-01     -1.697344000000000E+02
4921000000.000000      6.905823000000000E-01      1.040381000000000E+01      2.235489000000000E-01     -1.697266000000000E+02
4922000000.000000      6.924438000000000E-01      9.960449000000000E+00      2.193298000000000E-01     -1.698672000000000E+02
4923000000.000000      6.912231000000000E-01      1.015527000000000E+01      2.157059000000000E-01     -1.700703000000000E+02
4924000000.000000      6.929626000000000E-01      1.000293000000000E+01      2.121277000000000E-01     -1.704687000000000E+02
4925000000.000000      6.921082000000000E-01      9.908203000000000E+00      2.084656000000000E-01     -1.704141000000000E+02
4926000000.000000      6.916809000000000E-01      9.728027000000000E+00      2.046280000000000E-01     -1.706563000000000E+02
4927000000.000000      6.944275000000000E-01      9.693848000000000E+00      2.005692000000000E-01     -1.706563000000000E+02
4928000000.000000      6.946716000000000E-01      9.621094000000000E+00      1.975479000000000E-01     -1.706563000000000E+02
4929000000.000000      6.941833000000000E-01      9.390137000000000E+00      1.929321000000000E-01     -1.707969000000000E+02
4930000000.000000      6.932068000000000E-01      9.467285000000000E+00      1.894608000000000E-01     -1.707656000000000E+02
4931000000.000000      6.959229000000000E-01      9.250488000000000E+00      1.857071000000000E-01     -1.708516000000000E+02
4932000000.000000      6.970215000000000E-01      9.352051000000000E+00      1.819229000000000E-01     -1.707813000000000E+02
4933000000.000000      6.969299000000000E-01      9.158203000000000E+00      1.776581000000000E-01     -1.705312000000000E+02
4934000000.000000      6.995239000000000E-01      8.994629000000000E+00      1.745071000000000E-01     -1.704531000000000E+02
4935000000.000000      7.007446000000000E-01      8.946777000000000E+00      1.714020000000000E-01     -1.701562000000000E+02
4936000000.000000      6.972046000000000E-01      8.794434000000000E+00      1.669540000000000E-01     -1.699922000000000E+02
4937000000.000000      6.979675000000000E-01      8.591309000000000E+00      1.636124000000000E-01     -1.697891000000000E+02
4938000000.000000      6.965942000000000E-01      8.705078000000000E+00      1.598511000000000E-01     -1.693438000000000E+02
4939000000.000000      6.987000000000000E-01      8.583008000000000E+00      1.563034000000000E-01     -1.690547000000000E+02
4940000000.000000      7.017517000000000E-01      8.374023000000000E+00      1.526871000000000E-01     -1.688984000000000E+02
4941000000.000000      7.018433000000000E-01      8.267090000000000E+00      1.495132000000000E-01     -1.682891000000000E+02
4942000000.000000      6.993408000000000E-01      8.213379000000000E+00      1.458130000000000E-01     -1.677266000000000E+02
4943000000.000000      7.025757000000000E-01      8.150391000000000E+00      1.425934000000000E-01     -1.670391000000000E+02
4944000000.000000      7.020874000000000E-01      7.919678000000000E+00      1.396179000000000E-01     -1.662891000000000E+02
4945000000.000000      7.030029000000000E-01      7.871582000000000E+00      1.360931000000000E-01     -1.656953000000000E+02
4946000000.000000      7.043457000000000E-01      7.879883000000000E+00      1.333008000000000E-01     -1.648438000000000E+02
4947000000.000000      7.016907000000000E-01      7.677979000000000E+00      1.298904000000000E-01     -1.638594000000000E+02
4948000000.000000      7.043152000000000E-01      7.783691000000000E+00      1.270828000000000E-01     -1.626953000000000E+02
4949000000.000000      7.023010000000000E-01      7.547607000000000E+00      1.244774000000000E-01     -1.614609000000000E+02
4950000000.000000      7.045288000000000E-01      7.412842000000000E+00      1.220474000000000E-01     -1.605547000000000E+02
4951000000.000000      7.055664000000000E-01      7.396484000000000E+00      1.193466000000000E-01     -1.594531000000000E+02
4952000000.000000      7.039490000000000E-01      7.268799000000000E+00      1.170273000000000E-01     -1.579922000000000E+02
4953000000.000000      7.034912000000000E-01      7.068115000000000E+00      1.153412000000000E-01     -1.563672000000000E+02
4954000000.000000      7.060242000000000E-01      7.068115000000000E+00      1.129799000000000E-01     -1.551094000000000E+02
