! Network Analyzer HP8722D
! Hewlett-Packard
! Data name: Linha & Wilkinson
! Saver's name: Rodrigo Anjos
! Comments: Teste da utilização de aquisição
continua pelo VNA HP8722D
! Time and date: 22/5/2025 08:00
!              Frequency                     S11                                                   S21                                                   S12                                                   S22
# HZ  S  MA R 50
4800000000.000000      6.463318000000000E-01      1.031055000000000E+01      4.743805000000000E-01     -9.383593000000000E+01
4801000000.000000      6.445313000000000E-01      1.046973000000000E+01      4.748535000000000E-01     -9.438280000000000E+01
4802000000.000000      6.456909000000000E-01      1.020752000000000E+01      4.763031000000000E-01     -9.531250000000000E+01
4803000000.000000      6.403503000000000E-01      1.016895000000000E+01      4.808197000000000E-01     -9.601171000000000E+01
4804000000.000000      6.386719000000000E-01      1.014844000000000E+01      4.819031000000000E-01     -9.680077000000000E+01
4805000000.000000      6.403503000000000E-01      1.029932000000000E+01      4.827728000000000E-01     -9.750780000000000E+01
4806000000.000000      6.366882000000000E-01      1.024170000000000E+01      4.860535000000000E-01     -9.824608000000000E+01
4807000000.000000      6.340637000000000E-01      1.029932000000000E+01      4.853668000000000E-01     -9.918358000000000E+01
4808000000.000000      6.323242000000000E-01      1.029102000000000E+01      4.865265000000000E-01     -9.969921000000000E+01
4809000000.000000      6.322021000000000E-01      1.047949000000000E+01      4.882813000000000E-01     -1.005625000000000E+02
4810000000.000000      6.296082000000000E-01      1.021143000000000E+01      4.906464000000000E-01     -1.014063000000000E+02
4811000000.000000      6.293335000000000E-01      1.042871000000000E+01      4.914093000000000E-01     -1.021992000000000E+02
4812000000.000000      6.306152000000000E-01      1.056299000000000E+01      4.928436000000000E-01     -1.029805000000000E+02
4813000000.000000      6.278381000000000E-01      1.036816000000000E+01      4.913330000000000E-01     -1.035703000000000E+02
4814000000.000000      6.248169000000000E-01      1.055371000000000E+01      4.950867000000000E-01     -1.044219000000000E+02
4815000000.000000      6.227112000000000E-01      1.074316000000000E+01      4.931946000000000E-01     -1.051172000000000E+02
4816000000.000000      6.238708000000000E-01      1.084863000000000E+01      4.951782000000000E-01     -1.058164000000000E+02
4817000000.000000      6.221924000000000E-01      1.100928000000000E+01      4.955750000000000E-01     -1.065312000000000E+02
4818000000.000000      6.213989000000000E-01      1.091455000000000E+01      4.969635000000000E-01     -1.073516000000000E+02
4819000000.000000      6.201477000000000E-01      1.097803000000000E+01      4.967957000000000E-01     -1.081406000000000E+02
4820000000.000000      6.181946000000000E-01      1.101904000000000E+01      4.987793000000000E-01     -1.088281000000000E+02
4821000000.000000      6.164551000000000E-01      1.131592000000000E+01      4.984436000000000E-01     -1.096601000000000E+02
4822000000.000000      6.152649000000000E-01      1.126367000000000E+01      4.974518000000000E-01     -1.104414000000000E+02
4823000000.000000      6.154785000000000E-01      1.117432000000000E+01      4.981384000000000E-01     -1.112422000000000E+02
4824000000.000000      6.142578000000000E-01      1.145557000000000E+01      4.993286000000000E-01     -1.120117000000000E+02
4825000000.000000      6.136169000000000E-01      1.158496000000000E+01      4.998932000000000E-01     -1.125312000000000E+02
4826000000.000000      6.135559000000000E-01      1.143115000000000E+01      5.007324000000000E-01     -1.135586000000000E+02
4827000000.000000      6.130676000000000E-01      1.183057000000000E+01      4.980621000000000E-01     -1.140430000000000E+02
4828000000.000000      6.129761000000000E-01      1.175635000000000E+01      4.999847000000000E-01     -1.148945000000000E+02
4829000000.000000      6.132813000000000E-01      1.205322000000000E+01      5.009766000000000E-01     -1.156953000000000E+02
4830000000.000000      6.130676000000000E-01      1.212451000000000E+01      4.999390000000000E-01     -1.165117000000000E+02
4831000000.000000      6.111755000000000E-01      1.216553000000000E+01      4.999237000000000E-01     -1.170937000000000E+02
4832000000.000000      6.121826000000000E-01      1.242383000000000E+01      4.993134000000000E-01     -1.177812000000000E+02
4833000000.000000      6.108398000000000E-01      1.238428000000000E+01      4.993439000000000E-01     -1.186406000000000E+02
4834000000.000000      6.100464000000000E-01      1.250928000000000E+01      4.993286000000000E-01     -1.194453000000000E+02
4835000000.000000      6.124268000000000E-01      1.252686000000000E+01      4.994965000000000E-01     -1.202031000000000E+02
4836000000.000000      6.123047000000000E-01      1.274512000000000E+01      4.980164000000000E-01     -1.209609000000000E+02
4837000000.000000      6.115112000000000E-01      1.299121000000000E+01      4.956970000000000E-01     -1.218828000000000E+02
4838000000.000000      6.113281000000000E-01      1.291846000000000E+01      4.972229000000000E-01     -1.223984000000000E+02
4839000000.000000      6.144409000000000E-01      1.319971000000000E+01      4.970398000000000E-01     -1.233984000000000E+02
4840000000.000000      6.132813000000000E-01      1.307373000000000E+01      4.971619000000000E-01     -1.241562000000000E+02
4841000000.000000      6.143494000000000E-01      1.337695000000000E+01      4.958344000000000E-01     -1.250781000000000E+02
4842000000.000000      6.149597000000000E-01      1.333984000000000E+01      4.951477000000000E-01     -1.257148000000000E+02
4843000000.000000      6.163330000000000E-01      1.337988000000000E+01      4.945984000000000E-01     -1.267461000000000E+02
4844000000.000000      6.156311000000000E-01      1.347998000000000E+01      4.927368000000000E-01     -1.275273000000000E+02
4845000000.000000      6.167603000000000E-01      1.377930000000000E+01      4.922028000000000E-01     -1.282500000000000E+02
4846000000.000000      6.185608000000000E-01      1.354297000000000E+01      4.920349000000000E-01     -1.291250000000000E+02
4847000000.000000      6.204224000000000E-01      1.372998000000000E+01      4.886475000000000E-01     -1.300000000000000E+02
4848000000.000000      6.202393000000000E-01      1.366553000000000E+01      4.868927000000000E-01     -1.307031000000000E+02
4849000000.000000      6.181335000000000E-01      1.381787000000000E+01      4.868469000000000E-01     -1.316094000000000E+02
4850000000.000000      6.203003000000000E-01      1.394287000000000E+01      4.851227000000000E-01     -1.323750000000000E+02
4851000000.000000      6.223145000000000E-01      1.420361000000000E+01      4.830627000000000E-01     -1.333750000000000E+02
4852000000.000000      6.242065000000000E-01      1.413916000000000E+01      4.808960000000000E-01     -1.341094000000000E+02
4853000000.000000      6.230469000000000E-01      1.423828000000000E+01      4.778748000000000E-01     -1.349141000000000E+02
4854000000.000000      6.251526000000000E-01      1.414453000000000E+01      4.762421000000000E-01     -1.359062000000000E+02
4855000000.000000      6.258850000000000E-01      1.418701000000000E+01      4.741821000000000E-01     -1.368906000000000E+02
4856000000.000000      6.278992000000000E-01      1.406348000000000E+01      4.716339000000000E-01     -1.374766000000000E+02
4857000000.000000      6.283875000000000E-01      1.448779000000000E+01      4.705048000000000E-01     -1.383984000000000E+02
4858000000.000000      6.286621000000000E-01      1.429297000000000E+01      4.658966000000000E-01     -1.390703000000000E+02
4859000000.000000      6.290283000000000E-01      1.431201000000000E+01      4.642944000000000E-01     -1.401562000000000E+02
4860000000.000000      6.307068000000000E-01      1.448242000000000E+01      4.601746000000000E-01     -1.409219000000000E+02
4861000000.000000      6.326904000000000E-01      1.450195000000000E+01      4.565430000000000E-01     -1.418281000000000E+02
4862000000.000000      6.336365000000000E-01      1.426025000000000E+01      4.541779000000000E-01     -1.425547000000000E+02
4863000000.000000      6.365051000000000E-01      1.435498000000000E+01      4.500122000000000E-01     -1.433203000000000E+02
4864000000.000000      6.372375000000000E-01      1.439893000000000E+01      4.476013000000000E-01     -1.441562000000000E+02
4865000000.000000      6.376648000000000E-01      1.441797000000000E+01      4.423523000000000E-01     -1.447969000000000E+02
4866000000.000000      6.388855000000000E-01      1.434814000000000E+01      4.386292000000000E-01     -1.459375000000000E+02
4867000000.000000      6.380310000000000E-01      1.426807000000000E+01      4.344482000000000E-01     -1.465781000000000E+02
4868000000.000000      6.410828000000000E-01      1.432715000000000E+01      4.313965000000000E-01     -1.474453000000000E+02
4869000000.000000      6.426086000000000E-01      1.427100000000000E+01      4.259949000000000E-01     -1.481094000000000E+02
4870000000.000000      6.433105000000000E-01      1.433301000000000E+01      4.228210000000000E-01     -1.485234000000000E+02
4871000000.000000      6.440735000000000E-01      1.414453000000000E+01      4.190826000000000E-01     -1.494688000000000E+02
4872000000.000000      6.481628000000000E-01      1.430420000000000E+01      4.142914000000000E-01     -1.501562000000000E+02
4873000000.000000      6.464233000000000E-01      1.427637000000000E+01      4.103851000000000E-01     -1.508828000000000E+02
4874000000.000000      6.473083000000000E-01      1.422168000000000E+01      4.059143000000000E-01     -1.513984000000000E+02
4875000000.000000      6.497192000000000E-01      1.401416000000000E+01      4.005890000000000E-01     -1.519844000000000E+02
4876000000.000000      6.531372000000000E-01      1.417090000000000E+01      3.960114000000000E-01     -1.528828000000000E+02
4877000000.000000      6.544800000000000E-01      1.388232000000000E+01      3.928223000000000E-01     -1.535391000000000E+02
4878000000.000000      6.525879000000000E-01      1.397852000000000E+01      3.882141000000000E-01     -1.540078000000000E+02
4879000000.000000      6.566162000000000E-01      1.386035000000000E+01      3.835144000000000E-01     -1.545078000000000E+02
4880000000.000000      6.585693000000000E-01      1.378906000000000E+01      3.797913000000000E-01     -1.551172000000000E+02
4881000000.000000      6.573181000000000E-01      1.393994000000000E+01      3.751526000000000E-01     -1.557031000000000E+02
4882000000.000000      6.618042000000000E-01      1.378613000000000E+01      3.711243000000000E-01     -1.564141000000000E+02
4883000000.000000      6.605530000000000E-01      1.356934000000000E+01      3.654175000000000E-01     -1.571406000000000E+02
4884000000.000000      6.617737000000000E-01      1.357080000000000E+01      3.615723000000000E-01     -1.573359000000000E+02
4885000000.000000      6.640930000000000E-01      1.354736000000000E+01      3.561707000000000E-01     -1.576875000000000E+02
4886000000.000000      6.646423000000000E-01      1.346338000000000E+01      3.524933000000000E-01     -1.583125000000000E+02
4887000000.000000      6.664734000000000E-01      1.335352000000000E+01      3.492126000000000E-01     -1.589062000000000E+02
4888000000.000000      6.669617000000000E-01      1.326025000000000E+01      3.444977000000000E-01     -1.594609000000000E+02
4889000000.000000      6.656799000000000E-01      1.319727000000000E+01      3.403015000000000E-01     -1.596953000000000E+02
4890000000.000000      6.675415000000000E-01      1.305957000000000E+01      3.369141000000000E-01     -1.606484000000000E+02
4891000000.000000      6.715393000000000E-01      1.303369000000000E+01      3.311920000000000E-01     -1.606719000000000E+02
4892000000.000000      6.699524000000000E-01      1.298438000000000E+01      3.279114000000000E-01     -1.607891000000000E+02
4893000000.000000      6.711731000000000E-01      1.283740000000000E+01      3.242340000000000E-01     -1.614609000000000E+02
4894000000.000000      6.722107000000000E-01      1.283594000000000E+01      3.201599000000000E-01     -1.617656000000000E+02
4895000000.000000      6.746521000000000E-01      1.265039000000000E+01      3.172150000000000E-01     -1.620859000000000E+02
4896000000.000000      6.742554000000000E-01      1.266699000000000E+01      3.128204000000000E-01     -1.624766000000000E+02
4897000000.000000      6.758423000000000E-01      1.272900000000000E+01      3.087158000000000E-01     -1.628359000000000E+02
4898000000.000000      6.764221000000000E-01      1.221533000000000E+01      3.055420000000000E-01     -1.631016000000000E+02
4899000000.000000      6.766357000000000E-01      1.235938000000000E+01      3.014832000000000E-01     -1.635313000000000E+02
4900000000.000000      6.777039000000000E-01      1.227979000000000E+01      2.974548000000000E-01     -1.638125000000000E+02
4901000000.000000      6.779785000000000E-01      1.231396000000000E+01      2.941284000000000E-01     -1.640156000000000E+02
4902000000.000000      6.810913000000000E-01      1.209277000000000E+01      2.911682000000000E-01     -1.644922000000000E+02
4903000000.000000      6.819458000000000E-01      1.201172000000000E+01      2.860260000000000E-01     -1.648438000000000E+02
4904000000.000000      6.830750000000000E-01      1.179785000000000E+01      2.835236000000000E-01     -1.651016000000000E+02
4905000000.000000      6.828613000000000E-01      1.171680000000000E+01      2.795258000000000E-01     -1.654687000000000E+02
4906000000.000000      6.800232000000000E-01      1.167432000000000E+01      2.759857000000000E-01     -1.656016000000000E+02
4907000000.000000      6.853638000000000E-01      1.147510000000000E+01      2.732391000000000E-01     -1.660547000000000E+02
4908000000.000000      6.842346000000000E-01      1.138281000000000E+01      2.702942000000000E-01     -1.664844000000000E+02
4909000000.000000      6.833801000000000E-01      1.130762000000000E+01      2.658234000000000E-01     -1.667344000000000E+02
4910000000.000000      6.845093000000000E-01      1.122363000000000E+01      2.621918000000000E-01     -1.669141000000000E+02
4911000000.000000      6.866760000000000E-01      1.120850000000000E+01      2.593689000000000E-01     -1.671484000000000E+02
4912000000.000000      6.875610000000000E-01      1.114697000000000E+01      2.550354000000000E-01     -1.677031000000000E+02
4913000000.000000      6.870728000000000E-01      1.094482000000000E+01      2.520905000000000E-01     -1.679141000000000E+02
4914000000.000000      6.883545000000000E-01      1.084863000000000E+01      2.486267000000000E-01     -1.682344000000000E+02
4915000000.000000      6.893005000000000E-01      1.077344000000000E+01      2.447205000000000E-01     -1.684687000000000E+02
4916000000.000000      6.874084000000000E-01      1.069092000000000E+01      2.416077000000000E-01     -1.687500000000000E+02
4917000000.000000      6.876526000000000E-01      1.065381000000000E+01      2.378387000000000E-01     -1.688516000000000E+02
4918000000.000000      6.882019000000000E-01      1.053174000000000E+01      2.334671000000000E-01     -1.694922000000000E+02
4919000000.000000      6.909790000000000E-01      1.034912000000000E+01      2.305222000000000E-01     -1.692031000000000E+02
4920000000.000000      6.918640000000000E-01      1.017334000000000E+01      2.268372000000000E-01     -1.698516000000000E+02
4921000000.000000      6.900330000000000E-01      1.027344000000000E+01      2.233124000000000E-01     -1.699375000000000E+02
4922000000.000000      6.934509000000000E-01      1.001123000000000E+01      2.198181000000000E-01     -1.698750000000000E+02
4923000000.000000      6.913452000000000E-01      1.013330000000000E+01      2.154541000000000E-01     -1.699922000000000E+02
4924000000.000000      6.914368000000000E-01      9.918945000000000E+00      2.119064000000000E-01     -1.704453000000000E+02
4925000000.000000      6.909790000000000E-01      9.829590000000000E+00      2.082977000000000E-01     -1.705781000000000E+02
4926000000.000000      6.927185000000000E-01      9.671875000000000E+00      2.046356000000000E-01     -1.706172000000000E+02
4927000000.000000      6.939392000000000E-01      9.616699000000000E+00      2.007980000000000E-01     -1.707109000000000E+02
4928000000.000000      6.951904000000000E-01      9.506836000000000E+00      1.968842000000000E-01     -1.709141000000000E+02
4929000000.000000      6.948853000000000E-01      9.254395000000000E+00      1.930161000000000E-01     -1.708516000000000E+02
4930000000.000000      6.936646000000000E-01      9.453613000000000E+00      1.898117000000000E-01     -1.707656000000000E+02
4931000000.000000      6.944885000000000E-01      9.093750000000000E+00      1.868896000000000E-01     -1.708828000000000E+02
4932000000.000000      6.955872000000000E-01      9.092285000000000E+00      1.821442000000000E-01     -1.708047000000000E+02
4933000000.000000      6.984558000000000E-01      9.008789000000000E+00      1.779480000000000E-01     -1.705703000000000E+02
4934000000.000000      6.966553000000000E-01      8.897461000000000E+00      1.746521000000000E-01     -1.705859000000000E+02
4935000000.000000      6.997375000000000E-01      8.835449000000000E+00      1.719131000000000E-01     -1.703281000000000E+02
4936000000.000000      6.983948000000000E-01      8.784668000000000E+00      1.671524000000000E-01     -1.701875000000000E+02
4937000000.000000      6.993713000000000E-01      8.430176000000000E+00      1.636047000000000E-01     -1.699062000000000E+02
4938000000.000000      6.981506000000000E-01      8.706543000000000E+00      1.604691000000000E-01     -1.695469000000000E+02
4939000000.000000      6.993408000000000E-01      8.632324000000000E+00      1.564941000000000E-01     -1.691250000000000E+02
4940000000.000000      6.983337000000000E-01      8.368652000000000E+00      1.529083000000000E-01     -1.688594000000000E+02
4941000000.000000      7.015686000000000E-01      8.172363000000000E+00      1.492462000000000E-01     -1.681641000000000E+02
4942000000.000000      7.006226000000000E-01      8.213379000000000E+00      1.460037000000000E-01     -1.678047000000000E+02
4943000000.000000      6.992188000000000E-01      8.078613000000000E+00      1.424561000000000E-01     -1.669297000000000E+02
4944000000.000000      7.009583000000000E-01      7.900391000000000E+00      1.393433000000000E-01     -1.666172000000000E+02
4945000000.000000      7.017517000000000E-01      7.822266000000000E+00      1.361542000000000E-01     -1.657500000000000E+02
4946000000.000000      7.026672000000000E-01      7.845459000000000E+00      1.333771000000000E-01     -1.649531000000000E+02
4947000000.000000      7.029114000000000E-01      7.460938000000000E+00      1.298599000000000E-01     -1.638594000000000E+02
4948000000.000000      7.043457000000000E-01      7.634033000000000E+00      1.273804000000000E-01     -1.629062000000000E+02
4949000000.000000      7.038574000000000E-01      7.521484000000000E+00      1.248894000000000E-01     -1.616641000000000E+02
4950000000.000000      7.041626000000000E-01      7.454102000000000E+00      1.217766000000000E-01     -1.606875000000000E+02
4951000000.000000      7.048950000000000E-01      7.362061000000000E+00      1.194763000000000E-01     -1.596797000000000E+02
4952000000.000000      7.040100000000000E-01      7.095703000000000E+00      1.168938000000000E-01     -1.581250000000000E+02
4953000000.000000      7.062988000000000E-01      6.992676000000000E+00      1.152153000000000E-01     -1.565000000000000E+02
4954000000.000000      7.071533000000000E-01      7.069580000000000E+00      1.129608000000000E-01     -1.551328000000000E+02
