! Network Analyzer HP8722D
! Hewlett-Packard
! Data name: Linha & Wilkinson
! Saver's name: Rodrigo Anjos
! Comments: Teste da utilização de aquisição
continua pelo VNA HP8722D
! Time and date: 22/5/2025 13:26
!              Frequency                     S11                                                   S21                                                   S12                                                   S22
# HZ  S  MA R 50
4800000000.000000      6.521912000000000E-01      1.093115000000000E+01      4.693451000000000E-01     -9.232031000000000E+01
4801000000.000000      6.512451000000000E-01      1.102197000000000E+01      4.713898000000000E-01     -9.268358000000000E+01
4802000000.000000      6.486816000000000E-01      1.076660000000000E+01      4.742432000000000E-01     -9.352734000000000E+01
4803000000.000000      6.478577000000000E-01      1.075244000000000E+01      4.779358000000000E-01     -9.416796000000000E+01
4804000000.000000      6.445923000000000E-01      1.094922000000000E+01      4.780731000000000E-01     -9.489843000000000E+01
4805000000.000000      6.446838000000000E-01      1.068115000000000E+01      4.799347000000000E-01     -9.588671000000000E+01
4806000000.000000      6.423340000000000E-01      1.075146000000000E+01      4.812317000000000E-01     -9.669140000000000E+01
4807000000.000000      6.389160000000000E-01      1.079932000000000E+01      4.808197000000000E-01     -9.772655000000000E+01
4808000000.000000      6.379089000000000E-01      1.078857000000000E+01      4.836578000000000E-01     -9.804296000000000E+01
4809000000.000000      6.362305000000000E-01      1.091211000000000E+01      4.864197000000000E-01     -9.907421000000000E+01
4810000000.000000      6.359253000000000E-01      1.092041000000000E+01      4.884186000000000E-01     -9.980469000000000E+01
4811000000.000000      6.346130000000000E-01      1.084473000000000E+01      4.889984000000000E-01     -1.004492000000000E+02
4812000000.000000      6.349487000000000E-01      1.109717000000000E+01      4.883270000000000E-01     -1.010156000000000E+02
4813000000.000000      6.333923000000000E-01      1.106592000000000E+01      4.916534000000000E-01     -1.020313000000000E+02
4814000000.000000      6.303406000000000E-01      1.113721000000000E+01      4.924622000000000E-01     -1.024492000000000E+02
4815000000.000000      6.283264000000000E-01      1.124707000000000E+01      4.919281000000000E-01     -1.034766000000000E+02
4816000000.000000      6.276550000000000E-01      1.114014000000000E+01      4.947510000000000E-01     -1.041562000000000E+02
4817000000.000000      6.263733000000000E-01      1.134570000000000E+01      4.954529000000000E-01     -1.050000000000000E+02
4818000000.000000      6.261292000000000E-01      1.124170000000000E+01      4.941559000000000E-01     -1.058125000000000E+02
4819000000.000000      6.233215000000000E-01      1.146533000000000E+01      4.963074000000000E-01     -1.064453000000000E+02
4820000000.000000      6.227722000000000E-01      1.160693000000000E+01      4.957428000000000E-01     -1.070859000000000E+02
4821000000.000000      6.217041000000000E-01      1.152295000000000E+01      4.968567000000000E-01     -1.080273000000000E+02
4822000000.000000      6.203918000000000E-01      1.153955000000000E+01      4.948120000000000E-01     -1.086016000000000E+02
4823000000.000000      6.190491000000000E-01      1.178125000000000E+01      4.975433000000000E-01     -1.093789000000000E+02
4824000000.000000      6.173096000000000E-01      1.189258000000000E+01      4.968262000000000E-01     -1.102617000000000E+02
4825000000.000000      6.184998000000000E-01      1.196094000000000E+01      4.966736000000000E-01     -1.108906000000000E+02
4826000000.000000      6.157837000000000E-01      1.202441000000000E+01      4.988708000000000E-01     -1.118125000000000E+02
4827000000.000000      6.156311000000000E-01      1.214941000000000E+01      4.984131000000000E-01     -1.122695000000000E+02
4828000000.000000      6.160583000000000E-01      1.216016000000000E+01      4.985962000000000E-01     -1.133437000000000E+02
4829000000.000000      6.140747000000000E-01      1.255566000000000E+01      4.995422000000000E-01     -1.137617000000000E+02
4830000000.000000      6.165466000000000E-01      1.245947000000000E+01      4.998016000000000E-01     -1.147109000000000E+02
4831000000.000000      6.138611000000000E-01      1.260791000000000E+01      4.999390000000000E-01     -1.155117000000000E+02
4832000000.000000      6.139832000000000E-01      1.293213000000000E+01      5.002136000000000E-01     -1.161250000000000E+02
4833000000.000000      6.125488000000000E-01      1.292920000000000E+01      4.994354000000000E-01     -1.168359000000000E+02
4834000000.000000      6.128540000000000E-01      1.292676000000000E+01      4.985046000000000E-01     -1.178242000000000E+02
4835000000.000000      6.139832000000000E-01      1.302002000000000E+01      4.996338000000000E-01     -1.186133000000000E+02
4836000000.000000      6.147156000000000E-01      1.335791000000000E+01      4.975891000000000E-01     -1.193125000000000E+02
4837000000.000000      6.116943000000000E-01      1.336621000000000E+01      4.977417000000000E-01     -1.202930000000000E+02
4838000000.000000      6.130981000000000E-01      1.352246000000000E+01      4.984436000000000E-01     -1.208125000000000E+02
4839000000.000000      6.153259000000000E-01      1.358984000000000E+01      4.990234000000000E-01     -1.216133000000000E+02
4840000000.000000      6.157532000000000E-01      1.345654000000000E+01      4.987488000000000E-01     -1.223672000000000E+02
4841000000.000000      6.158142000000000E-01      1.386182000000000E+01      4.979248000000000E-01     -1.233281000000000E+02
4842000000.000000      6.162415000000000E-01      1.375879000000000E+01      4.974670000000000E-01     -1.239648000000000E+02
4843000000.000000      6.199036000000000E-01      1.389453000000000E+01      4.973602000000000E-01     -1.248008000000000E+02
4844000000.000000      6.160889000000000E-01      1.394141000000000E+01      4.948273000000000E-01     -1.257969000000000E+02
4845000000.000000      6.170959000000000E-01      1.410498000000000E+01      4.948578000000000E-01     -1.264531000000000E+02
4846000000.000000      6.190491000000000E-01      1.416943000000000E+01      4.932404000000000E-01     -1.274844000000000E+02
4847000000.000000      6.177368000000000E-01      1.437793000000000E+01      4.935455000000000E-01     -1.280937000000000E+02
4848000000.000000      6.199646000000000E-01      1.429590000000000E+01      4.887390000000000E-01     -1.290156000000000E+02
4849000000.000000      6.203003000000000E-01      1.435742000000000E+01      4.902649000000000E-01     -1.298828000000000E+02
4850000000.000000      6.198425000000000E-01      1.447412000000000E+01      4.864197000000000E-01     -1.307500000000000E+02
4851000000.000000      6.223145000000000E-01      1.457715000000000E+01      4.862061000000000E-01     -1.316328000000000E+02
4852000000.000000      6.230164000000000E-01      1.470508000000000E+01      4.844360000000000E-01     -1.324609000000000E+02
4853000000.000000      6.238708000000000E-01      1.474463000000000E+01      4.818573000000000E-01     -1.332656000000000E+02
4854000000.000000      6.257019000000000E-01      1.471582000000000E+01      4.804840000000000E-01     -1.341563000000000E+02
4855000000.000000      6.250000000000000E-01      1.480957000000000E+01      4.779053000000000E-01     -1.350703000000000E+02
4856000000.000000      6.271667000000000E-01      1.483838000000000E+01      4.742737000000000E-01     -1.359531000000000E+02
4857000000.000000      6.290588000000000E-01      1.488086000000000E+01      4.750824000000000E-01     -1.364141000000000E+02
4858000000.000000      6.275940000000000E-01      1.478027000000000E+01      4.709473000000000E-01     -1.377344000000000E+02
4859000000.000000      6.324768000000000E-01      1.471582000000000E+01      4.685669000000000E-01     -1.383125000000000E+02
4860000000.000000      6.315613000000000E-01      1.486426000000000E+01      4.647064000000000E-01     -1.391484000000000E+02
4861000000.000000      6.321716000000000E-01      1.516895000000000E+01      4.618683000000000E-01     -1.401953000000000E+02
4862000000.000000      6.334229000000000E-01      1.511572000000000E+01      4.579010000000000E-01     -1.408437000000000E+02
4863000000.000000      6.345215000000000E-01      1.495508000000000E+01      4.558868000000000E-01     -1.418125000000000E+02
4864000000.000000      6.359253000000000E-01      1.496729000000000E+01      4.527740000000000E-01     -1.424844000000000E+02
4865000000.000000      6.372375000000000E-01      1.495508000000000E+01      4.485931000000000E-01     -1.432969000000000E+02
4866000000.000000      6.392212000000000E-01      1.485742000000000E+01      4.448090000000000E-01     -1.441875000000000E+02
4867000000.000000      6.385498000000000E-01      1.486426000000000E+01      4.413300000000000E-01     -1.449297000000000E+02
4868000000.000000      6.423035000000000E-01      1.487646000000000E+01      4.363403000000000E-01     -1.457734000000000E+02
4869000000.000000      6.428528000000000E-01      1.502100000000000E+01      4.333801000000000E-01     -1.465391000000000E+02
4870000000.000000      6.426392000000000E-01      1.501807000000000E+01      4.288177000000000E-01     -1.470000000000000E+02
4871000000.000000      6.440735000000000E-01      1.477490000000000E+01      4.261322000000000E-01     -1.480313000000000E+02
4872000000.000000      6.471863000000000E-01      1.479834000000000E+01      4.201965000000000E-01     -1.484688000000000E+02
4873000000.000000      6.464844000000000E-01      1.473389000000000E+01      4.165344000000000E-01     -1.494609000000000E+02
4874000000.000000      6.491089000000000E-01      1.488477000000000E+01      4.114990000000000E-01     -1.502578000000000E+02
4875000000.000000      6.509094000000000E-01      1.476660000000000E+01      4.071503000000000E-01     -1.508047000000000E+02
4876000000.000000      6.515198000000000E-01      1.479443000000000E+01      4.026642000000000E-01     -1.515625000000000E+02
4877000000.000000      6.541443000000000E-01      1.448779000000000E+01      3.977509000000000E-01     -1.520703000000000E+02
4878000000.000000      6.541748000000000E-01      1.456055000000000E+01      3.954773000000000E-01     -1.528359000000000E+02
4879000000.000000      6.572571000000000E-01      1.469824000000000E+01      3.892365000000000E-01     -1.532109000000000E+02
4880000000.000000      6.575012000000000E-01      1.443164000000000E+01      3.854675000000000E-01     -1.540390000000000E+02
4881000000.000000      6.572876000000000E-01      1.451270000000000E+01      3.805237000000000E-01     -1.544375000000000E+02
4882000000.000000      6.609802000000000E-01      1.464844000000000E+01      3.777924000000000E-01     -1.550937000000000E+02
4883000000.000000      6.609497000000000E-01      1.433301000000000E+01      3.709412000000000E-01     -1.556797000000000E+02
4884000000.000000      6.628418000000000E-01      1.442773000000000E+01      3.674469000000000E-01     -1.560000000000000E+02
4885000000.000000      6.627502000000000E-01      1.425049000000000E+01      3.627930000000000E-01     -1.565234000000000E+02
4886000000.000000      6.644897000000000E-01      1.429590000000000E+01      3.580017000000000E-01     -1.570703000000000E+02
4887000000.000000      6.650391000000000E-01      1.411572000000000E+01      3.553772000000000E-01     -1.575703000000000E+02
4888000000.000000      6.666870000000000E-01      1.400439000000000E+01      3.520966000000000E-01     -1.582109000000000E+02
4889000000.000000      6.675720000000000E-01      1.403467000000000E+01      3.466034000000000E-01     -1.584844000000000E+02
4890000000.000000      6.667480000000000E-01      1.389063000000000E+01      3.407593000000000E-01     -1.593125000000000E+02
4891000000.000000      6.695862000000000E-01      1.378369000000000E+01      3.371124000000000E-01     -1.597969000000000E+02
4892000000.000000      6.708679000000000E-01      1.371094000000000E+01      3.331146000000000E-01     -1.600156000000000E+02
4893000000.000000      6.719055000000000E-01      1.362012000000000E+01      3.290863000000000E-01     -1.605078000000000E+02
4894000000.000000      6.713562000000000E-01      1.340332000000000E+01      3.244781000000000E-01     -1.606641000000000E+02
4895000000.000000      6.751709000000000E-01      1.347852000000000E+01      3.219452000000000E-01     -1.611016000000000E+02
4896000000.000000      6.761780000000000E-01      1.334131000000000E+01      3.186798000000000E-01     -1.616250000000000E+02
4897000000.000000      6.744080000000000E-01      1.332910000000000E+01      3.142242000000000E-01     -1.619062000000000E+02
4898000000.000000      6.761475000000000E-01      1.316553000000000E+01      3.109741000000000E-01     -1.620859000000000E+02
4899000000.000000      6.781616000000000E-01      1.314209000000000E+01      3.069611000000000E-01     -1.628594000000000E+02
4900000000.000000      6.796570000000000E-01      1.299658000000000E+01      3.034515000000000E-01     -1.630156000000000E+02
4901000000.000000      6.788330000000000E-01      1.287598000000000E+01      3.001862000000000E-01     -1.633906000000000E+02
4902000000.000000      6.802979000000000E-01      1.267236000000000E+01      2.964325000000000E-01     -1.635859000000000E+02
4903000000.000000      6.802673000000000E-01      1.276855000000000E+01      2.918243000000000E-01     -1.640312000000000E+02
4904000000.000000      6.812439000000000E-01      1.257617000000000E+01      2.880402000000000E-01     -1.642812000000000E+02
4905000000.000000      6.838379000000000E-01      1.255859000000000E+01      2.860413000000000E-01     -1.648203000000000E+02
4906000000.000000      6.809387000000000E-01      1.219580000000000E+01      2.820129000000000E-01     -1.648203000000000E+02
4907000000.000000      6.815491000000000E-01      1.232373000000000E+01      2.783508000000000E-01     -1.653906000000000E+02
4908000000.000000      6.832581000000000E-01      1.223047000000000E+01      2.754822000000000E-01     -1.658672000000000E+02
4909000000.000000      6.849060000000000E-01      1.212744000000000E+01      2.718353000000000E-01     -1.660469000000000E+02
4910000000.000000      6.856689000000000E-01      1.195166000000000E+01      2.680054000000000E-01     -1.662578000000000E+02
4911000000.000000      6.855469000000000E-01      1.187061000000000E+01      2.644501000000000E-01     -1.666875000000000E+02
4912000000.000000      6.846619000000000E-01      1.175781000000000E+01      2.608337000000000E-01     -1.669062000000000E+02
4913000000.000000      6.874390000000000E-01      1.164941000000000E+01      2.570953000000000E-01     -1.673281000000000E+02
4914000000.000000      6.877441000000000E-01      1.152051000000000E+01      2.538300000000000E-01     -1.674687000000000E+02
4915000000.000000      6.878662000000000E-01      1.149170000000000E+01      2.497482000000000E-01     -1.679375000000000E+02
4916000000.000000      6.875610000000000E-01      1.125098000000000E+01      2.469711000000000E-01     -1.683984000000000E+02
4917000000.000000      6.879578000000000E-01      1.122656000000000E+01      2.433548000000000E-01     -1.683672000000000E+02
4918000000.000000      6.909485000000000E-01      1.120703000000000E+01      2.388000000000000E-01     -1.687656000000000E+02
4919000000.000000      6.882019000000000E-01      1.113867000000000E+01      2.357941000000000E-01     -1.688047000000000E+02
4920000000.000000      6.920471000000000E-01      1.089844000000000E+01      2.313766000000000E-01     -1.692969000000000E+02
4921000000.000000      6.901855000000000E-01      1.090771000000000E+01      2.291641000000000E-01     -1.695781000000000E+02
4922000000.000000      6.910095000000000E-01      1.081982000000000E+01      2.248154000000000E-01     -1.696563000000000E+02
4923000000.000000      6.939697000000000E-01      1.080615000000000E+01      2.205200000000000E-01     -1.697109000000000E+02
4924000000.000000      6.949768000000000E-01      1.051660000000000E+01      2.167816000000000E-01     -1.701875000000000E+02
4925000000.000000      6.910706000000000E-01      1.029785000000000E+01      2.139435000000000E-01     -1.703594000000000E+02
4926000000.000000      6.937561000000000E-01      1.036523000000000E+01      2.099609000000000E-01     -1.705078000000000E+02
4927000000.000000      6.937256000000000E-01      1.039990000000000E+01      2.060699000000000E-01     -1.705703000000000E+02
4928000000.000000      6.958313000000000E-01      1.016602000000000E+01      2.026978000000000E-01     -1.706328000000000E+02
4929000000.000000      6.949158000000000E-01      1.007959000000000E+01      1.979904000000000E-01     -1.706953000000000E+02
4930000000.000000      6.971130000000000E-01      1.007422000000000E+01      1.948700000000000E-01     -1.708906000000000E+02
4931000000.000000      6.958618000000000E-01      9.869629000000000E+00      1.919708000000000E-01     -1.708516000000000E+02
4932000000.000000      6.958923000000000E-01      9.908203000000000E+00      1.873398000000000E-01     -1.708047000000000E+02
4933000000.000000      6.959839000000000E-01      9.790039000000000E+00      1.832123000000000E-01     -1.706328000000000E+02
4934000000.000000      6.983337000000000E-01      9.417969000000000E+00      1.797943000000000E-01     -1.708047000000000E+02
4935000000.000000      6.994934000000000E-01      9.433105000000000E+00      1.763535000000000E-01     -1.706172000000000E+02
4936000000.000000      6.994629000000000E-01      9.438477000000000E+00      1.721344000000000E-01     -1.704219000000000E+02
4937000000.000000      6.994324000000000E-01      9.446777000000000E+00      1.684494000000000E-01     -1.704141000000000E+02
4938000000.000000      6.962585000000000E-01      9.396973000000000E+00      1.649780000000000E-01     -1.700938000000000E+02
4939000000.000000      6.994019000000000E-01      9.193848000000000E+00      1.608658000000000E-01     -1.698750000000000E+02
4940000000.000000      6.994629000000000E-01      9.014160000000000E+00      1.575928000000000E-01     -1.696250000000000E+02
4941000000.000000      7.010193000000000E-01      8.821777000000000E+00      1.536102000000000E-01     -1.691250000000000E+02
4942000000.000000      7.004395000000000E-01      8.879395000000000E+00      1.501541000000000E-01     -1.688125000000000E+02
4943000000.000000      7.024231000000000E-01      8.652832000000000E+00      1.467361000000000E-01     -1.682266000000000E+02
4944000000.000000      7.005310000000000E-01      8.643066000000000E+00      1.433487000000000E-01     -1.676484000000000E+02
4945000000.000000      7.037048000000000E-01      8.393555000000000E+00      1.400146000000000E-01     -1.670156000000000E+02
4946000000.000000      7.035522000000000E-01      8.504395000000000E+00      1.368561000000000E-01     -1.660625000000000E+02
4947000000.000000      7.045593000000000E-01      8.348145000000000E+00      1.328583000000000E-01     -1.654063000000000E+02
4948000000.000000      7.036438000000000E-01      8.343750000000000E+00      1.300507000000000E-01     -1.644844000000000E+02
4949000000.000000      7.039490000000000E-01      8.264160000000000E+00      1.274719000000000E-01     -1.633047000000000E+02
4950000000.000000      7.062378000000000E-01      8.102051000000000E+00      1.244583000000000E-01     -1.623516000000000E+02
4951000000.000000      7.058716000000000E-01      7.862061000000000E+00      1.219864000000000E-01     -1.613906000000000E+02
4952000000.000000      7.058411000000000E-01      7.801514000000000E+00      1.189461000000000E-01     -1.602109000000000E+02
4953000000.000000      7.065125000000000E-01      7.916992000000000E+00      1.173477000000000E-01     -1.586875000000000E+02
4954000000.000000      7.097473000000000E-01      7.753418000000000E+00      1.144485000000000E-01     -1.573594000000000E+02
