! Network Analyzer HP8722D
! Hewlett-Packard
! Data name: Linha & Wilkinson
! Saver's name: Rodrigo Anjos
! Comments: Teste da utilização de aquisição
continua pelo VNA HP8722D
! Time and date: 22/5/2025 10:11
!              Frequency                     S11                                                   S21                                                   S12                                                   S22
# HZ  S  MA R 50
4800000000.000000      6.469116000000000E-01      1.038037000000000E+01      4.748077000000000E-01     -9.356249000000000E+01
4801000000.000000      6.441040000000000E-01      1.042578000000000E+01      4.759064000000000E-01     -9.454687000000000E+01
4802000000.000000      6.441040000000000E-01      1.049023000000000E+01      4.783630000000000E-01     -9.511328000000000E+01
4803000000.000000      6.414795000000000E-01      1.035840000000000E+01      4.823608000000000E-01     -9.578516000000000E+01
4804000000.000000      6.399231000000000E-01      1.041504000000000E+01      4.817810000000000E-01     -9.658983000000000E+01
4805000000.000000      6.390076000000000E-01      1.042188000000000E+01      4.846954000000000E-01     -9.744921000000000E+01
4806000000.000000      6.351318000000000E-01      1.039990000000000E+01      4.846344000000000E-01     -9.812109000000000E+01
4807000000.000000      6.358337000000000E-01      1.029248000000000E+01      4.854736000000000E-01     -9.908983000000000E+01
4808000000.000000      6.324158000000000E-01      1.032568000000000E+01      4.880219000000000E-01     -9.966406000000000E+01
4809000000.000000      6.316223000000000E-01      1.054248000000000E+01      4.892273000000000E-01     -1.005117000000000E+02
4810000000.000000      6.288452000000000E-01      1.050830000000000E+01      4.912262000000000E-01     -1.012031000000000E+02
4811000000.000000      6.299133000000000E-01      1.068115000000000E+01      4.913177000000000E-01     -1.022031000000000E+02
4812000000.000000      6.286316000000000E-01      1.078857000000000E+01      4.928894000000000E-01     -1.027656000000000E+02
4813000000.000000      6.269836000000000E-01      1.088428000000000E+01      4.935303000000000E-01     -1.036601000000000E+02
4814000000.000000      6.226807000000000E-01      1.078955000000000E+01      4.952545000000000E-01     -1.042695000000000E+02
4815000000.000000      6.234131000000000E-01      1.095996000000000E+01      4.958801000000000E-01     -1.049648000000000E+02
4816000000.000000      6.228638000000000E-01      1.108350000000000E+01      4.958344000000000E-01     -1.057500000000000E+02
4817000000.000000      6.207581000000000E-01      1.117432000000000E+01      4.964142000000000E-01     -1.064141000000000E+02
4818000000.000000      6.205750000000000E-01      1.108496000000000E+01      4.952393000000000E-01     -1.075820000000000E+02
4819000000.000000      6.182556000000000E-01      1.113867000000000E+01      4.967346000000000E-01     -1.080547000000000E+02
4820000000.000000      6.184082000000000E-01      1.137891000000000E+01      4.976196000000000E-01     -1.087383000000000E+02
4821000000.000000      6.174622000000000E-01      1.144482000000000E+01      4.981232000000000E-01     -1.096211000000000E+02
4822000000.000000      6.162720000000000E-01      1.131982000000000E+01      4.977722000000000E-01     -1.101992000000000E+02
4823000000.000000      6.170349000000000E-01      1.156006000000000E+01      4.994202000000000E-01     -1.111094000000000E+02
4824000000.000000      6.152344000000000E-01      1.172070000000000E+01      4.990997000000000E-01     -1.119922000000000E+02
4825000000.000000      6.143799000000000E-01      1.165625000000000E+01      4.981079000000000E-01     -1.123984000000000E+02
4826000000.000000      6.129456000000000E-01      1.177148000000000E+01      4.993286000000000E-01     -1.135273000000000E+02
4827000000.000000      6.124878000000000E-01      1.191162000000000E+01      4.999542000000000E-01     -1.139453000000000E+02
4828000000.000000      6.134949000000000E-01      1.209033000000000E+01      4.997711000000000E-01     -1.150117000000000E+02
4829000000.000000      6.102905000000000E-01      1.235645000000000E+01      5.014343000000000E-01     -1.155117000000000E+02
4830000000.000000      6.117554000000000E-01      1.226318000000000E+01      4.991913000000000E-01     -1.163359000000000E+02
4831000000.000000      6.118469000000000E-01      1.239502000000000E+01      4.997559000000000E-01     -1.171719000000000E+02
4832000000.000000      6.114807000000000E-01      1.275879000000000E+01      4.983673000000000E-01     -1.177461000000000E+02
4833000000.000000      6.105957000000000E-01      1.265479000000000E+01      4.995270000000000E-01     -1.186250000000000E+02
4834000000.000000      6.095886000000000E-01      1.266699000000000E+01      4.986420000000000E-01     -1.194180000000000E+02
4835000000.000000      6.119080000000000E-01      1.294971000000000E+01      4.994507000000000E-01     -1.201601000000000E+02
4836000000.000000      6.107483000000000E-01      1.312305000000000E+01      4.970245000000000E-01     -1.208398000000000E+02
4837000000.000000      6.102600000000000E-01      1.316016000000000E+01      4.970856000000000E-01     -1.220391000000000E+02
4838000000.000000      6.117554000000000E-01      1.312695000000000E+01      4.972076000000000E-01     -1.224492000000000E+02
4839000000.000000      6.151733000000000E-01      1.350195000000000E+01      4.980469000000000E-01     -1.234414000000000E+02
4840000000.000000      6.138916000000000E-01      1.337842000000000E+01      4.964600000000000E-01     -1.241016000000000E+02
4841000000.000000      6.148376000000000E-01      1.352100000000000E+01      4.963531000000000E-01     -1.249375000000000E+02
4842000000.000000      6.144714000000000E-01      1.338818000000000E+01      4.947662000000000E-01     -1.255820000000000E+02
4843000000.000000      6.176758000000000E-01      1.351318000000000E+01      4.952087000000000E-01     -1.266953000000000E+02
4844000000.000000      6.141968000000000E-01      1.369678000000000E+01      4.932098000000000E-01     -1.273906000000000E+02
4845000000.000000      6.163940000000000E-01      1.381934000000000E+01      4.912567000000000E-01     -1.282187000000000E+02
4846000000.000000      6.174011000000000E-01      1.386719000000000E+01      4.913483000000000E-01     -1.290078000000000E+02
4847000000.000000      6.199341000000000E-01      1.403320000000000E+01      4.892273000000000E-01     -1.297734000000000E+02
4848000000.000000      6.190796000000000E-01      1.410742000000000E+01      4.880676000000000E-01     -1.307656000000000E+02
4849000000.000000      6.206055000000000E-01      1.406348000000000E+01      4.856567000000000E-01     -1.315078000000000E+02
4850000000.000000      6.200867000000000E-01      1.411035000000000E+01      4.832611000000000E-01     -1.324375000000000E+02
4851000000.000000      6.225281000000000E-01      1.422168000000000E+01      4.836121000000000E-01     -1.333125000000000E+02
4852000000.000000      6.223145000000000E-01      1.430518000000000E+01      4.812622000000000E-01     -1.340000000000000E+02
4853000000.000000      6.242981000000000E-01      1.440576000000000E+01      4.775391000000000E-01     -1.349375000000000E+02
4854000000.000000      6.250305000000000E-01      1.438086000000000E+01      4.750061000000000E-01     -1.357812000000000E+02
4855000000.000000      6.255798000000000E-01      1.448242000000000E+01      4.738922000000000E-01     -1.367812000000000E+02
4856000000.000000      6.282349000000000E-01      1.441406000000000E+01      4.717560000000000E-01     -1.374453000000000E+02
4857000000.000000      6.300659000000000E-01      1.447412000000000E+01      4.678497000000000E-01     -1.382891000000000E+02
4858000000.000000      6.294556000000000E-01      1.429980000000000E+01      4.650116000000000E-01     -1.392266000000000E+02
4859000000.000000      6.315613000000000E-01      1.441406000000000E+01      4.637604000000000E-01     -1.400156000000000E+02
4860000000.000000      6.304016000000000E-01      1.468457000000000E+01      4.580078000000000E-01     -1.408359000000000E+02
4861000000.000000      6.310120000000000E-01      1.460449000000000E+01      4.561462000000000E-01     -1.418047000000000E+02
4862000000.000000      6.343079000000000E-01      1.443848000000000E+01      4.541321000000000E-01     -1.424062000000000E+02
4863000000.000000      6.360168000000000E-01      1.469141000000000E+01      4.495087000000000E-01     -1.434141000000000E+02
4864000000.000000      6.365967000000000E-01      1.447412000000000E+01      4.457855000000000E-01     -1.441719000000000E+02
4865000000.000000      6.384888000000000E-01      1.459668000000000E+01      4.420776000000000E-01     -1.448359000000000E+02
4866000000.000000      6.385803000000000E-01      1.429297000000000E+01      4.381561000000000E-01     -1.457500000000000E+02
4867000000.000000      6.399231000000000E-01      1.454004000000000E+01      4.342041000000000E-01     -1.465937000000000E+02
4868000000.000000      6.410522000000000E-01      1.444385000000000E+01      4.311676000000000E-01     -1.473047000000000E+02
4869000000.000000      6.419678000000000E-01      1.447559000000000E+01      4.267120000000000E-01     -1.481172000000000E+02
4870000000.000000      6.436462000000000E-01      1.440674000000000E+01      4.216919000000000E-01     -1.485547000000000E+02
4871000000.000000      6.466064000000000E-01      1.427783000000000E+01      4.179840000000000E-01     -1.493359000000000E+02
4872000000.000000      6.466675000000000E-01      1.442188000000000E+01      4.128418000000000E-01     -1.500703000000000E+02
4873000000.000000      6.479797000000000E-01      1.449463000000000E+01      4.097900000000000E-01     -1.507500000000000E+02
4874000000.000000      6.474609000000000E-01      1.443701000000000E+01      4.039307000000000E-01     -1.515781000000000E+02
4875000000.000000      6.511841000000000E-01      1.424512000000000E+01      3.998718000000000E-01     -1.519063000000000E+02
4876000000.000000      6.537170000000000E-01      1.432617000000000E+01      3.977356000000000E-01     -1.528203000000000E+02
4877000000.000000      6.542358000000000E-01      1.404053000000000E+01      3.921051000000000E-01     -1.533828000000000E+02
4878000000.000000      6.535950000000000E-01      1.407031000000000E+01      3.874512000000000E-01     -1.540859000000000E+02
4879000000.000000      6.558838000000000E-01      1.410889000000000E+01      3.817749000000000E-01     -1.545234000000000E+02
4880000000.000000      6.584778000000000E-01      1.396875000000000E+01      3.791046000000000E-01     -1.553437000000000E+02
4881000000.000000      6.575012000000000E-01      1.394141000000000E+01      3.741150000000000E-01     -1.554766000000000E+02
4882000000.000000      6.598816000000000E-01      1.399902000000000E+01      3.703918000000000E-01     -1.564453000000000E+02
4883000000.000000      6.578979000000000E-01      1.382080000000000E+01      3.643951000000000E-01     -1.568281000000000E+02
4884000000.000000      6.618652000000000E-01      1.379297000000000E+01      3.608093000000000E-01     -1.573750000000000E+02
4885000000.000000      6.636658000000000E-01      1.385205000000000E+01      3.561249000000000E-01     -1.576406000000000E+02
4886000000.000000      6.641846000000000E-01      1.361572000000000E+01      3.507385000000000E-01     -1.582500000000000E+02
4887000000.000000      6.621704000000000E-01      1.350879000000000E+01      3.483734000000000E-01     -1.587656000000000E+02
4888000000.000000      6.659546000000000E-01      1.355273000000000E+01      3.448792000000000E-01     -1.593281000000000E+02
4889000000.000000      6.669312000000000E-01      1.338672000000000E+01      3.390045000000000E-01     -1.595078000000000E+02
4890000000.000000      6.658020000000000E-01      1.320264000000000E+01      3.347778000000000E-01     -1.603594000000000E+02
4891000000.000000      6.692200000000000E-01      1.331543000000000E+01      3.305817000000000E-01     -1.605469000000000E+02
4892000000.000000      6.682129000000000E-01      1.320947000000000E+01      3.266754000000000E-01     -1.606250000000000E+02
4893000000.000000      6.705017000000000E-01      1.295557000000000E+01      3.221588000000000E-01     -1.613984000000000E+02
4894000000.000000      6.715393000000000E-01      1.295557000000000E+01      3.199310000000000E-01     -1.617734000000000E+02
4895000000.000000      6.736145000000000E-01      1.284131000000000E+01      3.166809000000000E-01     -1.620703000000000E+02
4896000000.000000      6.731567000000000E-01      1.296094000000000E+01      3.122101000000000E-01     -1.623203000000000E+02
4897000000.000000      6.744385000000000E-01      1.283447000000000E+01      3.076019000000000E-01     -1.627656000000000E+02
4898000000.000000      6.752625000000000E-01      1.260791000000000E+01      3.056335000000000E-01     -1.630859000000000E+02
4899000000.000000      6.746826000000000E-01      1.252002000000000E+01      3.008728000000000E-01     -1.634140000000000E+02
4900000000.000000      6.782837000000000E-01      1.241553000000000E+01      2.973480000000000E-01     -1.638438000000000E+02
4901000000.000000      6.773376000000000E-01      1.225928000000000E+01      2.936096000000000E-01     -1.640312000000000E+02
4902000000.000000      6.776733000000000E-01      1.210791000000000E+01      2.904510000000000E-01     -1.644063000000000E+02
4903000000.000000      6.791077000000000E-01      1.231396000000000E+01      2.863007000000000E-01     -1.647422000000000E+02
4904000000.000000      6.804504000000000E-01      1.195410000000000E+01      2.822418000000000E-01     -1.650859000000000E+02
4905000000.000000      6.822510000000000E-01      1.189941000000000E+01      2.796783000000000E-01     -1.655156000000000E+02
4906000000.000000      6.791992000000000E-01      1.175098000000000E+01      2.754364000000000E-01     -1.655000000000000E+02
4907000000.000000      6.838074000000000E-01      1.181982000000000E+01      2.731934000000000E-01     -1.660234000000000E+02
4908000000.000000      6.846008000000000E-01      1.145166000000000E+01      2.696686000000000E-01     -1.663516000000000E+02
4909000000.000000      6.843872000000000E-01      1.148438000000000E+01      2.654114000000000E-01     -1.666563000000000E+02
4910000000.000000      6.844788000000000E-01      1.138037000000000E+01      2.620850000000000E-01     -1.669688000000000E+02
4911000000.000000      6.856689000000000E-01      1.136768000000000E+01      2.587433000000000E-01     -1.671172000000000E+02
4912000000.000000      6.849365000000000E-01      1.116748000000000E+01      2.549438000000000E-01     -1.674922000000000E+02
4913000000.000000      6.853333000000000E-01      1.120996000000000E+01      2.519226000000000E-01     -1.677891000000000E+02
4914000000.000000      6.878357000000000E-01      1.096143000000000E+01      2.484055000000000E-01     -1.680547000000000E+02
4915000000.000000      6.868286000000000E-01      1.117139000000000E+01      2.442093000000000E-01     -1.684922000000000E+02
4916000000.000000      6.885071000000000E-01      1.086914000000000E+01      2.410889000000000E-01     -1.685781000000000E+02
4917000000.000000      6.859131000000000E-01      1.070752000000000E+01      2.380905000000000E-01     -1.689062000000000E+02
4918000000.000000      6.904602000000000E-01      1.074463000000000E+01      2.335434000000000E-01     -1.691953000000000E+02
4919000000.000000      6.876221000000000E-01      1.071826000000000E+01      2.308426000000000E-01     -1.691719000000000E+02
4920000000.000000      6.907959000000000E-01      1.040527000000000E+01      2.265167000000000E-01     -1.696797000000000E+02
4921000000.000000      6.905212000000000E-01      1.034326000000000E+01      2.229538000000000E-01     -1.698437000000000E+02
4922000000.000000      6.918640000000000E-01      1.035303000000000E+01      2.193909000000000E-01     -1.699375000000000E+02
4923000000.000000      6.905212000000000E-01      1.007959000000000E+01      2.149200000000000E-01     -1.700234000000000E+02
4924000000.000000      6.933594000000000E-01      1.003174000000000E+01      2.113266000000000E-01     -1.703359000000000E+02
4925000000.000000      6.923523000000000E-01      9.976563000000000E+00      2.082977000000000E-01     -1.704844000000000E+02
4926000000.000000      6.939392000000000E-01      9.920410000000000E+00      2.041855000000000E-01     -1.706094000000000E+02
4927000000.000000      6.924133000000000E-01      9.673340000000000E+00      2.003784000000000E-01     -1.705156000000000E+02
4928000000.000000      6.965332000000000E-01      9.659668000000000E+00      1.969452000000000E-01     -1.706328000000000E+02
4929000000.000000      6.925964000000000E-01      9.456055000000000E+00      1.930313000000000E-01     -1.707344000000000E+02
4930000000.000000      6.948242000000000E-01      9.430176000000000E+00      1.891479000000000E-01     -1.707813000000000E+02
4931000000.000000      6.933289000000000E-01      9.264160000000000E+00      1.857071000000000E-01     -1.706797000000000E+02
4932000000.000000      6.946411000000000E-01      9.235352000000000E+00      1.823349000000000E-01     -1.706328000000000E+02
4933000000.000000      6.970825000000000E-01      8.978516000000000E+00      1.773529000000000E-01     -1.703438000000000E+02
4934000000.000000      6.974182000000000E-01      9.105957000000000E+00      1.738739000000000E-01     -1.706875000000000E+02
4935000000.000000      6.984863000000000E-01      8.874023000000000E+00      1.715469000000000E-01     -1.701562000000000E+02
4936000000.000000      6.992493000000000E-01      8.818848000000000E+00      1.674576000000000E-01     -1.699766000000000E+02
4937000000.000000      6.976929000000000E-01      8.729980000000000E+00      1.634216000000000E-01     -1.698281000000000E+02
4938000000.000000      6.999207000000000E-01      8.657227000000000E+00      1.599960000000000E-01     -1.693516000000000E+02
4939000000.000000      6.994324000000000E-01      8.715820000000000E+00      1.561050000000000E-01     -1.688125000000000E+02
4940000000.000000      6.996460000000000E-01      8.558105000000000E+00      1.520767000000000E-01     -1.686953000000000E+02
4941000000.000000      6.988525000000000E-01      8.270996000000000E+00      1.494446000000000E-01     -1.678750000000000E+02
4942000000.000000      6.980286000000000E-01      8.270996000000000E+00      1.461105000000000E-01     -1.675234000000000E+02
4943000000.000000      7.001343000000000E-01      8.345215000000000E+00      1.423645000000000E-01     -1.670156000000000E+02
4944000000.000000      7.014465000000000E-01      7.971924000000000E+00      1.395111000000000E-01     -1.662266000000000E+02
4945000000.000000      7.016907000000000E-01      7.904541000000000E+00      1.356430000000000E-01     -1.655937000000000E+02
4946000000.000000      7.029419000000000E-01      7.852295000000000E+00      1.331482000000000E-01     -1.647812000000000E+02
4947000000.000000      7.028503000000000E-01      7.775391000000000E+00      1.298447000000000E-01     -1.637734000000000E+02
4948000000.000000      7.026672000000000E-01      7.691650000000000E+00      1.271973000000000E-01     -1.627422000000000E+02
4949000000.000000      7.028809000000000E-01      7.724609000000000E+00      1.244164000000000E-01     -1.614844000000000E+02
4950000000.000000      7.055054000000000E-01      7.614746000000000E+00      1.220398000000000E-01     -1.603906000000000E+02
4951000000.000000      7.047424000000000E-01      7.406006000000000E+00      1.190948000000000E-01     -1.592422000000000E+02
4952000000.000000      7.038269000000000E-01      7.485596000000000E+00      1.170807000000000E-01     -1.579375000000000E+02
4953000000.000000      7.046204000000000E-01      7.286621000000000E+00      1.152573000000000E-01     -1.564375000000000E+02
4954000000.000000      7.067261000000000E-01      7.265869000000000E+00      1.127701000000000E-01     -1.549922000000000E+02
