! Network Analyzer HP8722D
! Hewlett-Packard
! Data name: Linha & Wilkinson
! Saver's name: Rodrigo Anjos
! Comments: Teste da utilização de aquisição
continua pelo VNA HP8722D
! Time and date: 22/5/2025 16:40
!              Frequency                     S11                                                   S21                                                   S12                                                   S22
# HZ  S  MA R 50
4800000000.000000      6.504211000000000E-01      1.099707000000000E+01      4.724731000000000E-01     -9.263281000000000E+01
4801000000.000000      6.488953000000000E-01      1.109033000000000E+01      4.723663000000000E-01     -9.343359000000000E+01
4802000000.000000      6.479492000000000E-01      1.099561000000000E+01      4.735260000000000E-01     -9.400000000000000E+01
4803000000.000000      6.465759000000000E-01      1.094482000000000E+01      4.788513000000000E-01     -9.459375000000000E+01
4804000000.000000      6.433716000000000E-01      1.108496000000000E+01      4.788055000000000E-01     -9.570313000000000E+01
4805000000.000000      6.444702000000000E-01      1.098877000000000E+01      4.804077000000000E-01     -9.647655000000000E+01
4806000000.000000      6.414490000000000E-01      1.087500000000000E+01      4.816589000000000E-01     -9.692577000000000E+01
4807000000.000000      6.373901000000000E-01      1.086230000000000E+01      4.829559000000000E-01     -9.779297000000000E+01
4808000000.000000      6.358643000000000E-01      1.102734000000000E+01      4.852448000000000E-01     -9.853125000000000E+01
4809000000.000000      6.349487000000000E-01      1.115918000000000E+01      4.863281000000000E-01     -9.936327000000000E+01
4810000000.000000      6.348572000000000E-01      1.113867000000000E+01      4.885712000000000E-01     -1.001328000000000E+02
4811000000.000000      6.328735000000000E-01      1.103271000000000E+01      4.894104000000000E-01     -1.008984000000000E+02
4812000000.000000      6.331177000000000E-01      1.127051000000000E+01      4.897461000000000E-01     -1.016914000000000E+02
4813000000.000000      6.310120000000000E-01      1.135986000000000E+01      4.920654000000000E-01     -1.023984000000000E+02
4814000000.000000      6.286011000000000E-01      1.125928000000000E+01      4.929657000000000E-01     -1.030898000000000E+02
4815000000.000000      6.277466000000000E-01      1.143945000000000E+01      4.924011000000000E-01     -1.038515000000000E+02
4816000000.000000      6.265564000000000E-01      1.138184000000000E+01      4.949646000000000E-01     -1.046797000000000E+02
4817000000.000000      6.237793000000000E-01      1.150244000000000E+01      4.936066000000000E-01     -1.053750000000000E+02
4818000000.000000      6.233215000000000E-01      1.152832000000000E+01      4.950104000000000E-01     -1.061601000000000E+02
4819000000.000000      6.213074000000000E-01      1.162354000000000E+01      4.946747000000000E-01     -1.070391000000000E+02
4820000000.000000      6.220398000000000E-01      1.190088000000000E+01      4.966278000000000E-01     -1.075742000000000E+02
4821000000.000000      6.224365000000000E-01      1.179102000000000E+01      4.966736000000000E-01     -1.085664000000000E+02
4822000000.000000      6.196289000000000E-01      1.188818000000000E+01      4.972839000000000E-01     -1.090039000000000E+02
4823000000.000000      6.192932000000000E-01      1.193506000000000E+01      4.988708000000000E-01     -1.099961000000000E+02
4824000000.000000      6.173401000000000E-01      1.234131000000000E+01      4.964752000000000E-01     -1.106094000000000E+02
4825000000.000000      6.167908000000000E-01      1.216846000000000E+01      4.986267000000000E-01     -1.113203000000000E+02
4826000000.000000      6.163940000000000E-01      1.216553000000000E+01      5.000305000000000E-01     -1.121680000000000E+02
4827000000.000000      6.160889000000000E-01      1.241992000000000E+01      4.991150000000000E-01     -1.128789000000000E+02
4828000000.000000      6.158752000000000E-01      1.264893000000000E+01      4.997253000000000E-01     -1.136797000000000E+02
4829000000.000000      6.153259000000000E-01      1.282617000000000E+01      5.003357000000000E-01     -1.143711000000000E+02
4830000000.000000      6.157532000000000E-01      1.289063000000000E+01      5.001221000000000E-01     -1.149961000000000E+02
4831000000.000000      6.136475000000000E-01      1.287598000000000E+01      4.992065000000000E-01     -1.158555000000000E+02
4832000000.000000      6.138916000000000E-01      1.309668000000000E+01      4.985657000000000E-01     -1.165859000000000E+02
4833000000.000000      6.131592000000000E-01      1.295264000000000E+01      4.975433000000000E-01     -1.172383000000000E+02
4834000000.000000      6.129456000000000E-01      1.336475000000000E+01      4.986267000000000E-01     -1.181914000000000E+02
4835000000.000000      6.138000000000000E-01      1.337842000000000E+01      4.994202000000000E-01     -1.188281000000000E+02
4836000000.000000      6.149292000000000E-01      1.337549000000000E+01      4.974823000000000E-01     -1.197305000000000E+02
4837000000.000000      6.147461000000000E-01      1.374512000000000E+01      4.967346000000000E-01     -1.207695000000000E+02
4838000000.000000      6.117554000000000E-01      1.342090000000000E+01      4.978790000000000E-01     -1.212695000000000E+02
4839000000.000000      6.169434000000000E-01      1.377246000000000E+01      4.978638000000000E-01     -1.221562000000000E+02
4840000000.000000      6.160889000000000E-01      1.385645000000000E+01      4.972382000000000E-01     -1.229297000000000E+02
4841000000.000000      6.164551000000000E-01      1.402100000000000E+01      4.970551000000000E-01     -1.237500000000000E+02
4842000000.000000      6.160889000000000E-01      1.408154000000000E+01      4.962006000000000E-01     -1.246836000000000E+02
4843000000.000000      6.174316000000000E-01      1.402100000000000E+01      4.944763000000000E-01     -1.254180000000000E+02
4844000000.000000      6.184387000000000E-01      1.416943000000000E+01      4.957428000000000E-01     -1.262695000000000E+02
4845000000.000000      6.179810000000000E-01      1.432324000000000E+01      4.940643000000000E-01     -1.269648000000000E+02
4846000000.000000      6.211548000000000E-01      1.447998000000000E+01      4.921722000000000E-01     -1.278555000000000E+02
4847000000.000000      6.195068000000000E-01      1.466260000000000E+01      4.907990000000000E-01     -1.285078000000000E+02
4848000000.000000      6.196594000000000E-01      1.441943000000000E+01      4.880981000000000E-01     -1.294219000000000E+02
4849000000.000000      6.214905000000000E-01      1.461182000000000E+01      4.880676000000000E-01     -1.303125000000000E+02
4850000000.000000      6.221619000000000E-01      1.464844000000000E+01      4.863129000000000E-01     -1.310781000000000E+02
4851000000.000000      6.227112000000000E-01      1.467871000000000E+01      4.844208000000000E-01     -1.319687000000000E+02
4852000000.000000      6.249390000000000E-01      1.488086000000000E+01      4.815826000000000E-01     -1.329297000000000E+02
4853000000.000000      6.254272000000000E-01      1.494922000000000E+01      4.795380000000000E-01     -1.336875000000000E+02
4854000000.000000      6.264954000000000E-01      1.492627000000000E+01      4.774628000000000E-01     -1.345859000000000E+02
4855000000.000000      6.276245000000000E-01      1.478857000000000E+01      4.753113000000000E-01     -1.354922000000000E+02
4856000000.000000      6.288452000000000E-01      1.483154000000000E+01      4.719696000000000E-01     -1.363047000000000E+02
4857000000.000000      6.293335000000000E-01      1.503467000000000E+01      4.715424000000000E-01     -1.370781000000000E+02
4858000000.000000      6.304016000000000E-01      1.492871000000000E+01      4.678040000000000E-01     -1.381094000000000E+02
4859000000.000000      6.295471000000000E-01      1.496191000000000E+01      4.650879000000000E-01     -1.387734000000000E+02
4860000000.000000      6.322632000000000E-01      1.507031000000000E+01      4.626160000000000E-01     -1.396250000000000E+02
4861000000.000000      6.341248000000000E-01      1.516650000000000E+01      4.582825000000000E-01     -1.405469000000000E+02
4862000000.000000      6.344604000000000E-01      1.505127000000000E+01      4.561920000000000E-01     -1.412188000000000E+02
4863000000.000000      6.347046000000000E-01      1.528467000000000E+01      4.509430000000000E-01     -1.422812000000000E+02
4864000000.000000      6.380005000000000E-01      1.507568000000000E+01      4.487762000000000E-01     -1.431250000000000E+02
4865000000.000000      6.385193000000000E-01      1.502100000000000E+01      4.452362000000000E-01     -1.437344000000000E+02
4866000000.000000      6.401062000000000E-01      1.518408000000000E+01      4.410706000000000E-01     -1.444453000000000E+02
4867000000.000000      6.400146000000000E-01      1.506055000000000E+01      4.373627000000000E-01     -1.454297000000000E+02
4868000000.000000      6.416626000000000E-01      1.493701000000000E+01      4.336700000000000E-01     -1.461641000000000E+02
4869000000.000000      6.419373000000000E-01      1.501807000000000E+01      4.295807000000000E-01     -1.469375000000000E+02
4870000000.000000      6.430359000000000E-01      1.512939000000000E+01      4.251099000000000E-01     -1.475234000000000E+02
4871000000.000000      6.440430000000000E-01      1.506201000000000E+01      4.211273000000000E-01     -1.484844000000000E+02
4872000000.000000      6.472778000000000E-01      1.484619000000000E+01      4.172363000000000E-01     -1.489766000000000E+02
4873000000.000000      6.483154000000000E-01      1.501807000000000E+01      4.138184000000000E-01     -1.499297000000000E+02
4874000000.000000      6.497192000000000E-01      1.496191000000000E+01      4.080658000000000E-01     -1.504766000000000E+02
4875000000.000000      6.506348000000000E-01      1.463477000000000E+01      4.031525000000000E-01     -1.511875000000000E+02
4876000000.000000      6.516724000000000E-01      1.497119000000000E+01      3.996124000000000E-01     -1.516797000000000E+02
4877000000.000000      6.525574000000000E-01      1.465674000000000E+01      3.962708000000000E-01     -1.523516000000000E+02
4878000000.000000      6.542358000000000E-01      1.473242000000000E+01      3.906860000000000E-01     -1.529922000000000E+02
4879000000.000000      6.566162000000000E-01      1.468018000000000E+01      3.846436000000000E-01     -1.535781000000000E+02
4880000000.000000      6.566772000000000E-01      1.456055000000000E+01      3.829193000000000E-01     -1.542031000000000E+02
4881000000.000000      6.589355000000000E-01      1.454688000000000E+01      3.784180000000000E-01     -1.546875000000000E+02
4882000000.000000      6.596680000000000E-01      1.447021000000000E+01      3.733978000000000E-01     -1.554922000000000E+02
4883000000.000000      6.606140000000000E-01      1.438086000000000E+01      3.685455000000000E-01     -1.559062000000000E+02
4884000000.000000      6.610413000000000E-01      1.440674000000000E+01      3.653259000000000E-01     -1.564219000000000E+02
4885000000.000000      6.638794000000000E-01      1.425732000000000E+01      3.606873000000000E-01     -1.568125000000000E+02
4886000000.000000      6.642151000000000E-01      1.433984000000000E+01      3.549194000000000E-01     -1.573828000000000E+02
4887000000.000000      6.661682000000000E-01      1.411865000000000E+01      3.520660000000000E-01     -1.578672000000000E+02
4888000000.000000      6.655579000000000E-01      1.410498000000000E+01      3.476257000000000E-01     -1.584453000000000E+02
4889000000.000000      6.654663000000000E-01      1.401416000000000E+01      3.424835000000000E-01     -1.587344000000000E+02
4890000000.000000      6.661072000000000E-01      1.383838000000000E+01      3.365784000000000E-01     -1.596250000000000E+02
4891000000.000000      6.699524000000000E-01      1.379980000000000E+01      3.349762000000000E-01     -1.597812000000000E+02
4892000000.000000      6.678467000000000E-01      1.371338000000000E+01      3.296661000000000E-01     -1.598047000000000E+02
4893000000.000000      6.732483000000000E-01      1.359277000000000E+01      3.254852000000000E-01     -1.606953000000000E+02
4894000000.000000      6.722412000000000E-01      1.361035000000000E+01      3.227997000000000E-01     -1.609531000000000E+02
4895000000.000000      6.723022000000000E-01      1.343994000000000E+01      3.198547000000000E-01     -1.612109000000000E+02
4896000000.000000      6.732788000000000E-01      1.345508000000000E+01      3.152618000000000E-01     -1.616875000000000E+02
4897000000.000000      6.749573000000000E-01      1.342383000000000E+01      3.111725000000000E-01     -1.620703000000000E+02
4898000000.000000      6.759644000000000E-01      1.330029000000000E+01      3.082886000000000E-01     -1.623516000000000E+02
4899000000.000000      6.782532000000000E-01      1.314063000000000E+01      3.037567000000000E-01     -1.628281000000000E+02
4900000000.000000      6.772156000000000E-01      1.302832000000000E+01      3.004608000000000E-01     -1.631016000000000E+02
4901000000.000000      6.777344000000000E-01      1.289209000000000E+01      2.964020000000000E-01     -1.634219000000000E+02
4902000000.000000      6.778564000000000E-01      1.283057000000000E+01      2.941132000000000E-01     -1.636719000000000E+02
4903000000.000000      6.798096000000000E-01      1.276318000000000E+01      2.887421000000000E-01     -1.641172000000000E+02
4904000000.000000      6.817627000000000E-01      1.249414000000000E+01      2.860107000000000E-01     -1.644766000000000E+02
4905000000.000000      6.807556000000000E-01      1.251465000000000E+01      2.825165000000000E-01     -1.649531000000000E+02
4906000000.000000      6.833496000000000E-01      1.253809000000000E+01      2.785797000000000E-01     -1.649765000000000E+02
4907000000.000000      6.827698000000000E-01      1.213135000000000E+01      2.760468000000000E-01     -1.655156000000000E+02
4908000000.000000      6.842041000000000E-01      1.217139000000000E+01      2.724457000000000E-01     -1.657500000000000E+02
4909000000.000000      6.834717000000000E-01      1.213428000000000E+01      2.684021000000000E-01     -1.660156000000000E+02
4910000000.000000      6.844177000000000E-01      1.207520000000000E+01      2.653809000000000E-01     -1.663750000000000E+02
4911000000.000000      6.863708000000000E-01      1.198047000000000E+01      2.621155000000000E-01     -1.666797000000000E+02
4912000000.000000      6.864624000000000E-01      1.182520000000000E+01      2.580109000000000E-01     -1.669219000000000E+02
4913000000.000000      6.864929000000000E-01      1.168359000000000E+01      2.550507000000000E-01     -1.673125000000000E+02
4914000000.000000      6.866150000000000E-01      1.162207000000000E+01      2.509613000000000E-01     -1.675156000000000E+02
4915000000.000000      6.863403000000000E-01      1.175537000000000E+01      2.470932000000000E-01     -1.679922000000000E+02
4916000000.000000      6.883545000000000E-01      1.144189000000000E+01      2.438583000000000E-01     -1.681172000000000E+02
4917000000.000000      6.903381000000000E-01      1.133496000000000E+01      2.404480000000000E-01     -1.684766000000000E+02
4918000000.000000      6.902161000000000E-01      1.114258000000000E+01      2.360764000000000E-01     -1.688047000000000E+02
4919000000.000000      6.887817000000000E-01      1.126758000000000E+01      2.334518000000000E-01     -1.686719000000000E+02
4920000000.000000      6.916199000000000E-01      1.101904000000000E+01      2.294312000000000E-01     -1.693281000000000E+02
4921000000.000000      6.912231000000000E-01      1.101904000000000E+01      2.260361000000000E-01     -1.693828000000000E+02
4922000000.000000      6.914368000000000E-01      1.078027000000000E+01      2.224045000000000E-01     -1.695313000000000E+02
4923000000.000000      6.897278000000000E-01      1.088184000000000E+01      2.175217000000000E-01     -1.695391000000000E+02
4924000000.000000      6.927490000000000E-01      1.074170000000000E+01      2.147980000000000E-01     -1.701406000000000E+02
4925000000.000000      6.929932000000000E-01      1.056055000000000E+01      2.108994000000000E-01     -1.703047000000000E+02
4926000000.000000      6.921692000000000E-01      1.053711000000000E+01      2.078247000000000E-01     -1.702656000000000E+02
4927000000.000000      6.938477000000000E-01      1.044922000000000E+01      2.036438000000000E-01     -1.705000000000000E+02
4928000000.000000      6.953735000000000E-01      1.019922000000000E+01      2.000732000000000E-01     -1.705078000000000E+02
4929000000.000000      6.948853000000000E-01      1.010840000000000E+01      1.959610000000000E-01     -1.705937000000000E+02
4930000000.000000      6.951294000000000E-01      1.010303000000000E+01      1.924591000000000E-01     -1.706094000000000E+02
4931000000.000000      6.963501000000000E-01      1.007129000000000E+01      1.889801000000000E-01     -1.705703000000000E+02
4932000000.000000      6.969910000000000E-01      9.915039000000000E+00      1.845398000000000E-01     -1.705937000000000E+02
4933000000.000000      6.949768000000000E-01      9.658203000000000E+00      1.802139000000000E-01     -1.703281000000000E+02
4934000000.000000      6.987000000000000E-01      9.776367000000000E+00      1.774063000000000E-01     -1.705312000000000E+02
4935000000.000000      6.970215000000000E-01      9.746094000000000E+00      1.734695000000000E-01     -1.702031000000000E+02
4936000000.000000      6.981812000000000E-01      9.389160000000000E+00      1.697235000000000E-01     -1.700234000000000E+02
4937000000.000000      6.977234000000000E-01      9.272461000000000E+00      1.662521000000000E-01     -1.700625000000000E+02
4938000000.000000      6.983643000000000E-01      9.306641000000000E+00      1.623611000000000E-01     -1.695391000000000E+02
4939000000.000000      6.985779000000000E-01      9.259766000000000E+00      1.585693000000000E-01     -1.692656000000000E+02
4940000000.000000      7.013855000000000E-01      9.110352000000000E+00      1.546021000000000E-01     -1.692188000000000E+02
4941000000.000000      7.015381000000000E-01      9.011230000000000E+00      1.517792000000000E-01     -1.683359000000000E+02
4942000000.000000      7.002258000000000E-01      8.847656000000000E+00      1.479797000000000E-01     -1.678984000000000E+02
4943000000.000000      7.021179000000000E-01      8.823242000000000E+00      1.448059000000000E-01     -1.673906000000000E+02
4944000000.000000      7.019958000000000E-01      8.649902000000000E+00      1.414490000000000E-01     -1.666953000000000E+02
4945000000.000000      7.013550000000000E-01      8.593750000000000E+00      1.376953000000000E-01     -1.660781000000000E+02
4946000000.000000      7.023010000000000E-01      8.614258000000000E+00      1.346970000000000E-01     -1.653203000000000E+02
4947000000.000000      7.049561000000000E-01      8.275391000000000E+00      1.311722000000000E-01     -1.646797000000000E+02
4948000000.000000      7.048340000000000E-01      8.405762000000000E+00      1.285858000000000E-01     -1.633437000000000E+02
4949000000.000000      7.025757000000000E-01      8.184570000000000E+00      1.262283000000000E-01     -1.622109000000000E+02
4950000000.000000      7.051086000000000E-01      8.130859000000000E+00      1.230888000000000E-01     -1.612890000000000E+02
4951000000.000000      7.052612000000000E-01      8.005859000000000E+00      1.208839000000000E-01     -1.603359000000000E+02
4952000000.000000      7.043457000000000E-01      7.813965000000000E+00      1.178246000000000E-01     -1.591172000000000E+02
4953000000.000000      7.065735000000000E-01      7.890869000000000E+00      1.157455000000000E-01     -1.575000000000000E+02
4954000000.000000      7.106934000000000E-01      7.765869000000000E+00      1.136703000000000E-01     -1.562109000000000E+02
