! Network Analyzer HP8722D
! Hewlett-Packard
! Data name: Linha & Wilkinson
! Saver's name: Rodrigo Anjos
! Comments: Teste da utilização de aquisição
continua pelo VNA HP8722D
! Time and date: 22/5/2025 10:02
!              Frequency                     S11                                                   S21                                                   S12                                                   S22
# HZ  S  MA R 50
4800000000.000000      6.464844000000000E-01      1.034619000000000E+01      4.741821000000000E-01     -9.365234000000000E+01
4801000000.000000      6.446533000000000E-01      1.045068000000000E+01      4.775696000000000E-01     -9.441015000000000E+01
4802000000.000000      6.441956000000000E-01      1.029004000000000E+01      4.781799000000000E-01     -9.512499000000000E+01
4803000000.000000      6.419373000000000E-01      1.030371000000000E+01      4.811096000000000E-01     -9.599218000000000E+01
4804000000.000000      6.401062000000000E-01      1.053418000000000E+01      4.815216000000000E-01     -9.669531000000000E+01
4805000000.000000      6.398621000000000E-01      1.041602000000000E+01      4.837952000000000E-01     -9.741405000000000E+01
4806000000.000000      6.383057000000000E-01      1.039697000000000E+01      4.850159000000000E-01     -9.835155000000000E+01
4807000000.000000      6.355896000000000E-01      1.045898000000000E+01      4.860077000000000E-01     -9.915625000000000E+01
4808000000.000000      6.318665000000000E-01      1.046143000000000E+01      4.866486000000000E-01     -9.969921000000000E+01
4809000000.000000      6.306152000000000E-01      1.053418000000000E+01      4.887085000000000E-01     -1.005976000000000E+02
4810000000.000000      6.307983000000000E-01      1.057813000000000E+01      4.903412000000000E-01     -1.010664000000000E+02
4811000000.000000      6.292114000000000E-01      1.049023000000000E+01      4.913025000000000E-01     -1.021289000000000E+02
4812000000.000000      6.303406000000000E-01      1.081152000000000E+01      4.930725000000000E-01     -1.028125000000000E+02
4813000000.000000      6.258850000000000E-01      1.082129000000000E+01      4.929962000000000E-01     -1.036914000000000E+02
4814000000.000000      6.245117000000000E-01      1.073486000000000E+01      4.946289000000000E-01     -1.043555000000000E+02
4815000000.000000      6.237183000000000E-01      1.098193000000000E+01      4.947205000000000E-01     -1.051172000000000E+02
4816000000.000000      6.248169000000000E-01      1.091748000000000E+01      4.942932000000000E-01     -1.057148000000000E+02
4817000000.000000      6.226807000000000E-01      1.109180000000000E+01      4.967041000000000E-01     -1.067461000000000E+02
4818000000.000000      6.204224000000000E-01      1.113867000000000E+01      4.965057000000000E-01     -1.072266000000000E+02
4819000000.000000      6.203918000000000E-01      1.106445000000000E+01      4.966583000000000E-01     -1.080469000000000E+02
4820000000.000000      6.173706000000000E-01      1.128662000000000E+01      4.981384000000000E-01     -1.087187000000000E+02
4821000000.000000      6.188660000000000E-01      1.156006000000000E+01      4.983826000000000E-01     -1.095351000000000E+02
4822000000.000000      6.155396000000000E-01      1.132666000000000E+01      4.972382000000000E-01     -1.104062000000000E+02
4823000000.000000      6.144409000000000E-01      1.152588000000000E+01      5.001526000000000E-01     -1.111953000000000E+02
4824000000.000000      6.139832000000000E-01      1.168359000000000E+01      4.980011000000000E-01     -1.119961000000000E+02
4825000000.000000      6.134033000000000E-01      1.177441000000000E+01      4.985046000000000E-01     -1.125156000000000E+02
4826000000.000000      6.128540000000000E-01      1.182910000000000E+01      4.997559000000000E-01     -1.136094000000000E+02
4827000000.000000      6.126404000000000E-01      1.204883000000000E+01      4.995270000000000E-01     -1.141719000000000E+02
4828000000.000000      6.128845000000000E-01      1.198584000000000E+01      5.001221000000000E-01     -1.148594000000000E+02
4829000000.000000      6.116943000000000E-01      1.228271000000000E+01      5.016174000000000E-01     -1.156172000000000E+02
4830000000.000000      6.116028000000000E-01      1.228369000000000E+01      5.000610000000000E-01     -1.163906000000000E+02
4831000000.000000      6.119690000000000E-01      1.247217000000000E+01      4.998932000000000E-01     -1.171875000000000E+02
4832000000.000000      6.119080000000000E-01      1.266553000000000E+01      4.996643000000000E-01     -1.179180000000000E+02
4833000000.000000      6.111755000000000E-01      1.261084000000000E+01      4.991913000000000E-01     -1.185625000000000E+02
4834000000.000000      6.098633000000000E-01      1.269434000000000E+01      4.999237000000000E-01     -1.193867000000000E+02
4835000000.000000      6.124573000000000E-01      1.277148000000000E+01      4.997406000000000E-01     -1.202226000000000E+02
4836000000.000000      6.121216000000000E-01      1.308984000000000E+01      4.978638000000000E-01     -1.209336000000000E+02
4837000000.000000      6.116638000000000E-01      1.310938000000000E+01      4.975128000000000E-01     -1.218867000000000E+02
4838000000.000000      6.111145000000000E-01      1.309131000000000E+01      4.974060000000000E-01     -1.224297000000000E+02
4839000000.000000      6.141968000000000E-01      1.335791000000000E+01      4.978943000000000E-01     -1.232305000000000E+02
4840000000.000000      6.156921000000000E-01      1.315576000000000E+01      4.963837000000000E-01     -1.241250000000000E+02
4841000000.000000      6.122131000000000E-01      1.350049000000000E+01      4.949646000000000E-01     -1.250703000000000E+02
4842000000.000000      6.160889000000000E-01      1.350879000000000E+01      4.944305000000000E-01     -1.257305000000000E+02
4843000000.000000      6.184387000000000E-01      1.355713000000000E+01      4.951172000000000E-01     -1.267031000000000E+02
4844000000.000000      6.164551000000000E-01      1.360498000000000E+01      4.913940000000000E-01     -1.275391000000000E+02
4845000000.000000      6.177979000000000E-01      1.385645000000000E+01      4.912872000000000E-01     -1.282734000000000E+02
4846000000.000000      6.177368000000000E-01      1.404590000000000E+01      4.910736000000000E-01     -1.290625000000000E+02
4847000000.000000      6.179810000000000E-01      1.410205000000000E+01      4.898529000000000E-01     -1.298437000000000E+02
4848000000.000000      6.191711000000000E-01      1.388379000000000E+01      4.877930000000000E-01     -1.306797000000000E+02
4849000000.000000      6.191101000000000E-01      1.389746000000000E+01      4.872437000000000E-01     -1.315938000000000E+02
4850000000.000000      6.210022000000000E-01      1.424072000000000E+01      4.827576000000000E-01     -1.322969000000000E+02
4851000000.000000      6.234436000000000E-01      1.443457000000000E+01      4.825897000000000E-01     -1.332031000000000E+02
4852000000.000000      6.229248000000000E-01      1.420361000000000E+01      4.809265000000000E-01     -1.340937000000000E+02
4853000000.000000      6.254883000000000E-01      1.426025000000000E+01      4.774017000000000E-01     -1.351172000000000E+02
4854000000.000000      6.247253000000000E-01      1.426025000000000E+01      4.758759000000000E-01     -1.360000000000000E+02
4855000000.000000      6.257935000000000E-01      1.427637000000000E+01      4.729309000000000E-01     -1.367734000000000E+02
4856000000.000000      6.292114000000000E-01      1.437939000000000E+01      4.706116000000000E-01     -1.375078000000000E+02
4857000000.000000      6.299133000000000E-01      1.441504000000000E+01      4.686127000000000E-01     -1.383047000000000E+02
4858000000.000000      6.286316000000000E-01      1.446729000000000E+01      4.660950000000000E-01     -1.391406000000000E+02
4859000000.000000      6.309204000000000E-01      1.445508000000000E+01      4.637756000000000E-01     -1.401875000000000E+02
4860000000.000000      6.307678000000000E-01      1.463623000000000E+01      4.605408000000000E-01     -1.406797000000000E+02
4861000000.000000      6.351013000000000E-01      1.450049000000000E+01      4.566650000000000E-01     -1.418750000000000E+02
4862000000.000000      6.361389000000000E-01      1.459229000000000E+01      4.533081000000000E-01     -1.424141000000000E+02
4863000000.000000      6.348877000000000E-01      1.451660000000000E+01      4.489899000000000E-01     -1.432734000000000E+02
4864000000.000000      6.369629000000000E-01      1.434912000000000E+01      4.469910000000000E-01     -1.440859000000000E+02
4865000000.000000      6.371765000000000E-01      1.451660000000000E+01      4.432373000000000E-01     -1.448047000000000E+02
4866000000.000000      6.398621000000000E-01      1.458398000000000E+01      4.389954000000000E-01     -1.457891000000000E+02
4867000000.000000      6.403198000000000E-01      1.450049000000000E+01      4.353790000000000E-01     -1.465703000000000E+02
4868000000.000000      6.428223000000000E-01      1.438623000000000E+01      4.313049000000000E-01     -1.473281000000000E+02
4869000000.000000      6.437073000000000E-01      1.436279000000000E+01      4.271545000000000E-01     -1.480469000000000E+02
4870000000.000000      6.457520000000000E-01      1.458838000000000E+01      4.226990000000000E-01     -1.487266000000000E+02
4871000000.000000      6.447449000000000E-01      1.435352000000000E+01      4.172058000000000E-01     -1.495859000000000E+02
4872000000.000000      6.477966000000000E-01      1.434668000000000E+01      4.152222000000000E-01     -1.499141000000000E+02
4873000000.000000      6.482544000000000E-01      1.440576000000000E+01      4.101715000000000E-01     -1.507813000000000E+02
4874000000.000000      6.504211000000000E-01      1.443604000000000E+01      4.057922000000000E-01     -1.515781000000000E+02
4875000000.000000      6.504211000000000E-01      1.425049000000000E+01      4.003143000000000E-01     -1.520234000000000E+02
4876000000.000000      6.522217000000000E-01      1.420801000000000E+01      3.975220000000000E-01     -1.528281000000000E+02
4877000000.000000      6.553345000000000E-01      1.402246000000000E+01      3.925934000000000E-01     -1.536250000000000E+02
4878000000.000000      6.535645000000000E-01      1.402539000000000E+01      3.889313000000000E-01     -1.539922000000000E+02
4879000000.000000      6.578064000000000E-01      1.421875000000000E+01      3.822327000000000E-01     -1.545391000000000E+02
4880000000.000000      6.576233000000000E-01      1.395508000000000E+01      3.791962000000000E-01     -1.551875000000000E+02
4881000000.000000      6.583557000000000E-01      1.384814000000000E+01      3.745880000000000E-01     -1.557031000000000E+02
4882000000.000000      6.587830000000000E-01      1.392920000000000E+01      3.700562000000000E-01     -1.562969000000000E+02
4883000000.000000      6.613464000000000E-01      1.384277000000000E+01      3.656921000000000E-01     -1.570391000000000E+02
4884000000.000000      6.628418000000000E-01      1.383691000000000E+01      3.605499000000000E-01     -1.572813000000000E+02
4885000000.000000      6.622925000000000E-01      1.369678000000000E+01      3.565521000000000E-01     -1.575156000000000E+02
4886000000.000000      6.638794000000000E-01      1.360645000000000E+01      3.540955000000000E-01     -1.580937000000000E+02
4887000000.000000      6.657715000000000E-01      1.362158000000000E+01      3.494873000000000E-01     -1.587734000000000E+02
4888000000.000000      6.661682000000000E-01      1.325732000000000E+01      3.444366000000000E-01     -1.593750000000000E+02
4889000000.000000      6.683655000000000E-01      1.349219000000000E+01      3.391266000000000E-01     -1.593594000000000E+02
4890000000.000000      6.681519000000000E-01      1.311475000000000E+01      3.364105000000000E-01     -1.603516000000000E+02
4891000000.000000      6.691895000000000E-01      1.317920000000000E+01      3.320465000000000E-01     -1.607188000000000E+02
4892000000.000000      6.718750000000000E-01      1.308594000000000E+01      3.271942000000000E-01     -1.608516000000000E+02
4893000000.000000      6.710510000000000E-01      1.311328000000000E+01      3.241119000000000E-01     -1.614063000000000E+02
4894000000.000000      6.734314000000000E-01      1.288672000000000E+01      3.192139000000000E-01     -1.616562000000000E+02
4895000000.000000      6.741333000000000E-01      1.284131000000000E+01      3.167419000000000E-01     -1.620312000000000E+02
4896000000.000000      6.747437000000000E-01      1.283740000000000E+01      3.121643000000000E-01     -1.624063000000000E+02
4897000000.000000      6.748352000000000E-01      1.266553000000000E+01      3.077393000000000E-01     -1.628047000000000E+02
4898000000.000000      6.767883000000000E-01      1.272217000000000E+01      3.054657000000000E-01     -1.629922000000000E+02
4899000000.000000      6.759644000000000E-01      1.253125000000000E+01      3.006134000000000E-01     -1.634687000000000E+02
4900000000.000000      6.777039000000000E-01      1.236084000000000E+01      2.972870000000000E-01     -1.637891000000000E+02
4901000000.000000      6.771545000000000E-01      1.231250000000000E+01      2.933197000000000E-01     -1.640312000000000E+02
4902000000.000000      6.803894000000000E-01      1.225635000000000E+01      2.904816000000000E-01     -1.643906000000000E+02
4903000000.000000      6.795959000000000E-01      1.206982000000000E+01      2.859039000000000E-01     -1.648672000000000E+02
4904000000.000000      6.812439000000000E-01      1.181982000000000E+01      2.831726000000000E-01     -1.651172000000000E+02
4905000000.000000      6.813660000000000E-01      1.192822000000000E+01      2.791290000000000E-01     -1.655234000000000E+02
4906000000.000000      6.832581000000000E-01      1.166992000000000E+01      2.756195000000000E-01     -1.656250000000000E+02
4907000000.000000      6.845398000000000E-01      1.163965000000000E+01      2.727356000000000E-01     -1.660469000000000E+02
4908000000.000000      6.849365000000000E-01      1.152588000000000E+01      2.694092000000000E-01     -1.663281000000000E+02
4909000000.000000      6.827393000000000E-01      1.163135000000000E+01      2.658539000000000E-01     -1.665781000000000E+02
4910000000.000000      6.841431000000000E-01      1.154248000000000E+01      2.621155000000000E-01     -1.668437000000000E+02
4911000000.000000      6.850586000000000E-01      1.124854000000000E+01      2.592010000000000E-01     -1.671641000000000E+02
4912000000.000000      6.865540000000000E-01      1.128564000000000E+01      2.553864000000000E-01     -1.677344000000000E+02
4913000000.000000      6.873474000000000E-01      1.117578000000000E+01      2.515717000000000E-01     -1.679688000000000E+02
4914000000.000000      6.867981000000000E-01      1.101904000000000E+01      2.482986000000000E-01     -1.680000000000000E+02
4915000000.000000      6.875916000000000E-01      1.102197000000000E+01      2.443161000000000E-01     -1.684453000000000E+02
4916000000.000000      6.878967000000000E-01      1.077344000000000E+01      2.405624000000000E-01     -1.687813000000000E+02
4917000000.000000      6.862793000000000E-01      1.079639000000000E+01      2.369308000000000E-01     -1.687266000000000E+02
4918000000.000000      6.898193000000000E-01      1.076367000000000E+01      2.340012000000000E-01     -1.691250000000000E+02
4919000000.000000      6.883545000000000E-01      1.055762000000000E+01      2.306900000000000E-01     -1.691641000000000E+02
4920000000.000000      6.899719000000000E-01      1.050684000000000E+01      2.261200000000000E-01     -1.696719000000000E+02
4921000000.000000      6.884766000000000E-01      1.035010000000000E+01      2.230911000000000E-01     -1.697656000000000E+02
4922000000.000000      6.929321000000000E-01      1.015918000000000E+01      2.191010000000000E-01     -1.699531000000000E+02
4923000000.000000      6.905518000000000E-01      1.008252000000000E+01      2.159500000000000E-01     -1.699141000000000E+02
4924000000.000000      6.925354000000000E-01      1.006348000000000E+01      2.120285000000000E-01     -1.703203000000000E+02
4925000000.000000      6.922607000000000E-01      9.939453000000000E+00      2.076492000000000E-01     -1.703750000000000E+02
4926000000.000000      6.928101000000000E-01      9.792480000000000E+00      2.044067000000000E-01     -1.705234000000000E+02
4927000000.000000      6.918030000000000E-01      9.681641000000000E+00      2.003784000000000E-01     -1.707422000000000E+02
4928000000.000000      6.947021000000000E-01      9.685547000000000E+00      1.975098000000000E-01     -1.706640000000000E+02
4929000000.000000      6.930847000000000E-01      9.497559000000000E+00      1.929398000000000E-01     -1.707578000000000E+02
4930000000.000000      6.939697000000000E-01      9.592285000000000E+00      1.893082000000000E-01     -1.706250000000000E+02
4931000000.000000      6.959534000000000E-01      9.478027000000000E+00      1.861191000000000E-01     -1.706875000000000E+02
4932000000.000000      6.950989000000000E-01      9.240723000000000E+00      1.820068000000000E-01     -1.706406000000000E+02
4933000000.000000      6.971436000000000E-01      9.185547000000000E+00      1.778183000000000E-01     -1.703828000000000E+02
4934000000.000000      6.973267000000000E-01      8.948242000000000E+00      1.745911000000000E-01     -1.705703000000000E+02
4935000000.000000      7.010193000000000E-01      8.963379000000000E+00      1.707382000000000E-01     -1.701641000000000E+02
4936000000.000000      6.958008000000000E-01      8.632324000000000E+00      1.670456000000000E-01     -1.700312000000000E+02
4937000000.000000      6.987915000000000E-01      8.624023000000000E+00      1.631927000000000E-01     -1.697734000000000E+02
4938000000.000000      6.983337000000000E-01      8.764160000000000E+00      1.601410000000000E-01     -1.694609000000000E+02
4939000000.000000      6.986084000000000E-01      8.665039000000000E+00      1.561508000000000E-01     -1.691015000000000E+02
4940000000.000000      6.976929000000000E-01      8.445313000000000E+00      1.524811000000000E-01     -1.687109000000000E+02
4941000000.000000      6.988220000000000E-01      8.393555000000000E+00      1.493301000000000E-01     -1.680938000000000E+02
4942000000.000000      7.001038000000000E-01      8.482422000000000E+00      1.456451000000000E-01     -1.676094000000000E+02
4943000000.000000      7.005920000000000E-01      8.209473000000000E+00      1.426926000000000E-01     -1.669297000000000E+02
4944000000.000000      7.008667000000000E-01      7.879883000000000E+00      1.389313000000000E-01     -1.663437000000000E+02
4945000000.000000      7.013550000000000E-01      7.907227000000000E+00      1.362534000000000E-01     -1.655391000000000E+02
4946000000.000000      7.030029000000000E-01      8.040527000000000E+00      1.331787000000000E-01     -1.645781000000000E+02
4947000000.000000      7.029419000000000E-01      7.750732000000000E+00      1.296310000000000E-01     -1.638203000000000E+02
4948000000.000000      7.045898000000000E-01      7.686279000000000E+00      1.275482000000000E-01     -1.627891000000000E+02
4949000000.000000      7.037048000000000E-01      7.555664000000000E+00      1.247864000000000E-01     -1.614297000000000E+02
4950000000.000000      7.046204000000000E-01      7.541992000000000E+00      1.215706000000000E-01     -1.606797000000000E+02
4951000000.000000      7.052307000000000E-01      7.256348000000000E+00      1.196060000000000E-01     -1.593047000000000E+02
4952000000.000000      7.015991000000000E-01      7.308594000000000E+00      1.169930000000000E-01     -1.580234000000000E+02
4953000000.000000      7.049561000000000E-01      7.091553000000000E+00      1.153259000000000E-01     -1.563594000000000E+02
4954000000.000000      7.057190000000000E-01      7.010498000000000E+00      1.129456000000000E-01     -1.548437000000000E+02
