! Network Analyzer HP8722D
! Hewlett-Packard
! Data name: Linha & Wilkinson
! Saver's name: Rodrigo Anjos
! Comments: Teste da utilização de aquisição
continua pelo VNA HP8722D
! Time and date: 22/5/2025 10:37
!              Frequency                     S11                                                   S21                                                   S12                                                   S22
# HZ  S  MA R 50
4800000000.000000      6.481628000000000E-01      1.040674000000000E+01      4.744110000000000E-01     -9.367188000000000E+01
4801000000.000000      6.437683000000000E-01      1.058350000000000E+01      4.750824000000000E-01     -9.445313000000000E+01
4802000000.000000      6.441345000000000E-01      1.052490000000000E+01      4.781189000000000E-01     -9.502733000000000E+01
4803000000.000000      6.416321000000000E-01      1.060693000000000E+01      4.814911000000000E-01     -9.583593000000000E+01
4804000000.000000      6.388550000000000E-01      1.049463000000000E+01      4.818420000000000E-01     -9.664452000000000E+01
4805000000.000000      6.395264000000000E-01      1.041357000000000E+01      4.832153000000000E-01     -9.750389000000000E+01
4806000000.000000      6.372986000000000E-01      1.044775000000000E+01      4.850311000000000E-01     -9.799217000000000E+01
4807000000.000000      6.340637000000000E-01      1.058789000000000E+01      4.859924000000000E-01     -9.894140000000000E+01
4808000000.000000      6.330566000000000E-01      1.054932000000000E+01      4.875031000000000E-01     -9.973045000000000E+01
4809000000.000000      6.329956000000000E-01      1.059180000000000E+01      4.884338000000000E-01     -1.005469000000000E+02
4810000000.000000      6.306458000000000E-01      1.063574000000000E+01      4.900360000000000E-01     -1.013477000000000E+02
4811000000.000000      6.307373000000000E-01      1.065381000000000E+01      4.920349000000000E-01     -1.022227000000000E+02
4812000000.000000      6.298218000000000E-01      1.080322000000000E+01      4.940338000000000E-01     -1.025820000000000E+02
4813000000.000000      6.268311000000000E-01      1.097510000000000E+01      4.929657000000000E-01     -1.036016000000000E+02
4814000000.000000      6.252441000000000E-01      1.085303000000000E+01      4.939575000000000E-01     -1.043086000000000E+02
4815000000.000000      6.263733000000000E-01      1.086670000000000E+01      4.933014000000000E-01     -1.051914000000000E+02
4816000000.000000      6.234436000000000E-01      1.102734000000000E+01      4.960175000000000E-01     -1.056406000000000E+02
4817000000.000000      6.213684000000000E-01      1.111084000000000E+01      4.961243000000000E-01     -1.065703000000000E+02
4818000000.000000      6.190491000000000E-01      1.106689000000000E+01      4.976501000000000E-01     -1.073633000000000E+02
4819000000.000000      6.191101000000000E-01      1.124268000000000E+01      4.974823000000000E-01     -1.080469000000000E+02
4820000000.000000      6.191101000000000E-01      1.128418000000000E+01      4.982452000000000E-01     -1.087305000000000E+02
4821000000.000000      6.161804000000000E-01      1.135840000000000E+01      4.996185000000000E-01     -1.096641000000000E+02
4822000000.000000      6.155701000000000E-01      1.152734000000000E+01      4.989929000000000E-01     -1.103281000000000E+02
4823000000.000000      6.174927000000000E-01      1.143506000000000E+01      4.980774000000000E-01     -1.110898000000000E+02
4824000000.000000      6.141052000000000E-01      1.179199000000000E+01      4.979706000000000E-01     -1.117539000000000E+02
4825000000.000000      6.145325000000000E-01      1.174951000000000E+01      4.992523000000000E-01     -1.125312000000000E+02
4826000000.000000      6.138916000000000E-01      1.182520000000000E+01      4.996033000000000E-01     -1.134101000000000E+02
4827000000.000000      6.131592000000000E-01      1.191846000000000E+01      4.999390000000000E-01     -1.138437000000000E+02
4828000000.000000      6.130981000000000E-01      1.204199000000000E+01      5.000610000000000E-01     -1.146211000000000E+02
4829000000.000000      6.130371000000000E-01      1.236768000000000E+01      5.005798000000000E-01     -1.154844000000000E+02
4830000000.000000      6.119690000000000E-01      1.228271000000000E+01      5.003967000000000E-01     -1.165039000000000E+02
4831000000.000000      6.126404000000000E-01      1.254639000000000E+01      5.009766000000000E-01     -1.171680000000000E+02
4832000000.000000      6.096497000000000E-01      1.266309000000000E+01      4.990387000000000E-01     -1.179180000000000E+02
4833000000.000000      6.104431000000000E-01      1.245410000000000E+01      4.986115000000000E-01     -1.185820000000000E+02
4834000000.000000      6.121216000000000E-01      1.270264000000000E+01      4.994507000000000E-01     -1.193633000000000E+02
4835000000.000000      6.108704000000000E-01      1.292236000000000E+01      4.995422000000000E-01     -1.203320000000000E+02
4836000000.000000      6.115112000000000E-01      1.304199000000000E+01      4.987183000000000E-01     -1.209609000000000E+02
4837000000.000000      6.113892000000000E-01      1.319141000000000E+01      4.977112000000000E-01     -1.220000000000000E+02
4838000000.000000      6.113586000000000E-01      1.336719000000000E+01      4.972839000000000E-01     -1.223438000000000E+02
4839000000.000000      6.153870000000000E-01      1.327246000000000E+01      4.975586000000000E-01     -1.232109000000000E+02
4840000000.000000      6.146851000000000E-01      1.345654000000000E+01      4.971771000000000E-01     -1.240586000000000E+02
4841000000.000000      6.124268000000000E-01      1.374072000000000E+01      4.956055000000000E-01     -1.249609000000000E+02
4842000000.000000      6.139832000000000E-01      1.356641000000000E+01      4.949341000000000E-01     -1.257383000000000E+02
4843000000.000000      6.182251000000000E-01      1.383301000000000E+01      4.953308000000000E-01     -1.265977000000000E+02
4844000000.000000      6.145935000000000E-01      1.389600000000000E+01      4.936829000000000E-01     -1.274023000000000E+02
4845000000.000000      6.164246000000000E-01      1.399512000000000E+01      4.920502000000000E-01     -1.281641000000000E+02
4846000000.000000      6.185608000000000E-01      1.392236000000000E+01      4.913483000000000E-01     -1.289766000000000E+02
4847000000.000000      6.197510000000000E-01      1.423828000000000E+01      4.898071000000000E-01     -1.298125000000000E+02
4848000000.000000      6.197510000000000E-01      1.406348000000000E+01      4.873505000000000E-01     -1.307031000000000E+02
4849000000.000000      6.199036000000000E-01      1.387939000000000E+01      4.865112000000000E-01     -1.315781000000000E+02
4850000000.000000      6.213989000000000E-01      1.426025000000000E+01      4.837952000000000E-01     -1.326328000000000E+02
4851000000.000000      6.228027000000000E-01      1.421631000000000E+01      4.826355000000000E-01     -1.333437000000000E+02
4852000000.000000      6.233215000000000E-01      1.441406000000000E+01      4.807281000000000E-01     -1.340547000000000E+02
4853000000.000000      6.237793000000000E-01      1.442334000000000E+01      4.771423000000000E-01     -1.348828000000000E+02
4854000000.000000      6.260986000000000E-01      1.442773000000000E+01      4.758453000000000E-01     -1.358516000000000E+02
4855000000.000000      6.254883000000000E-01      1.444971000000000E+01      4.733124000000000E-01     -1.367031000000000E+02
4856000000.000000      6.286316000000000E-01      1.438770000000000E+01      4.706573000000000E-01     -1.375234000000000E+02
4857000000.000000      6.278076000000000E-01      1.457324000000000E+01      4.692841000000000E-01     -1.382813000000000E+02
4858000000.000000      6.285095000000000E-01      1.460352000000000E+01      4.658508000000000E-01     -1.391641000000000E+02
4859000000.000000      6.304626000000000E-01      1.441943000000000E+01      4.639740000000000E-01     -1.399922000000000E+02
4860000000.000000      6.328125000000000E-01      1.452246000000000E+01      4.601440000000000E-01     -1.407422000000000E+02
4861000000.000000      6.324463000000000E-01      1.466260000000000E+01      4.559021000000000E-01     -1.417031000000000E+02
4862000000.000000      6.347961000000000E-01      1.461963000000000E+01      4.531097000000000E-01     -1.424141000000000E+02
4863000000.000000      6.351929000000000E-01      1.458545000000000E+01      4.491425000000000E-01     -1.434844000000000E+02
4864000000.000000      6.360168000000000E-01      1.460596000000000E+01      4.473724000000000E-01     -1.439844000000000E+02
4865000000.000000      6.379089000000000E-01      1.448242000000000E+01      4.417572000000000E-01     -1.447500000000000E+02
4866000000.000000      6.389771000000000E-01      1.453174000000000E+01      4.375000000000000E-01     -1.457813000000000E+02
4867000000.000000      6.379089000000000E-01      1.468164000000000E+01      4.336090000000000E-01     -1.464062000000000E+02
4868000000.000000      6.407776000000000E-01      1.459375000000000E+01      4.308929000000000E-01     -1.473047000000000E+02
4869000000.000000      6.441650000000000E-01      1.460205000000000E+01      4.261017000000000E-01     -1.481094000000000E+02
4870000000.000000      6.446838000000000E-01      1.444678000000000E+01      4.221497000000000E-01     -1.484922000000000E+02
4871000000.000000      6.455383000000000E-01      1.451270000000000E+01      4.180298000000000E-01     -1.495781000000000E+02
4872000000.000000      6.480103000000000E-01      1.449756000000000E+01      4.136658000000000E-01     -1.500547000000000E+02
4873000000.000000      6.466370000000000E-01      1.459766000000000E+01      4.088287000000000E-01     -1.508359000000000E+02
4874000000.000000      6.478271000000000E-01      1.450977000000000E+01      4.042969000000000E-01     -1.514688000000000E+02
4875000000.000000      6.517029000000000E-01      1.442871000000000E+01      3.996124000000000E-01     -1.518672000000000E+02
4876000000.000000      6.517029000000000E-01      1.444971000000000E+01      3.959198000000000E-01     -1.527344000000000E+02
4877000000.000000      6.533203000000000E-01      1.408154000000000E+01      3.917847000000000E-01     -1.533906000000000E+02
4878000000.000000      6.527710000000000E-01      1.420361000000000E+01      3.872986000000000E-01     -1.539297000000000E+02
4879000000.000000      6.558838000000000E-01      1.421729000000000E+01      3.825226000000000E-01     -1.544141000000000E+02
4880000000.000000      6.584778000000000E-01      1.411719000000000E+01      3.787384000000000E-01     -1.549766000000000E+02
4881000000.000000      6.603394000000000E-01      1.403906000000000E+01      3.749237000000000E-01     -1.556484000000000E+02
4882000000.000000      6.610718000000000E-01      1.403906000000000E+01      3.690491000000000E-01     -1.561563000000000E+02
4883000000.000000      6.592407000000000E-01      1.399365000000000E+01      3.651276000000000E-01     -1.567578000000000E+02
4884000000.000000      6.631470000000000E-01      1.378467000000000E+01      3.602753000000000E-01     -1.574687000000000E+02
4885000000.000000      6.637878000000000E-01      1.367090000000000E+01      3.574371000000000E-01     -1.575156000000000E+02
4886000000.000000      6.636658000000000E-01      1.381934000000000E+01      3.521729000000000E-01     -1.581640000000000E+02
4887000000.000000      6.650085000000000E-01      1.378076000000000E+01      3.478088000000000E-01     -1.586719000000000E+02
4888000000.000000      6.663208000000000E-01      1.346338000000000E+01      3.449860000000000E-01     -1.591328000000000E+02
4889000000.000000      6.670837000000000E-01      1.332324000000000E+01      3.399506000000000E-01     -1.596094000000000E+02
4890000000.000000      6.674805000000000E-01      1.338672000000000E+01      3.340912000000000E-01     -1.601953000000000E+02
4891000000.000000      6.680603000000000E-01      1.326172000000000E+01      3.303375000000000E-01     -1.605859000000000E+02
4892000000.000000      6.700439000000000E-01      1.314648000000000E+01      3.270874000000000E-01     -1.606719000000000E+02
4893000000.000000      6.731262000000000E-01      1.312842000000000E+01      3.234100000000000E-01     -1.614219000000000E+02
4894000000.000000      6.712341000000000E-01      1.308838000000000E+01      3.193817000000000E-01     -1.617969000000000E+02
4895000000.000000      6.729431000000000E-01      1.289209000000000E+01      3.159637000000000E-01     -1.619062000000000E+02
4896000000.000000      6.740723000000000E-01      1.276611000000000E+01      3.124237000000000E-01     -1.623906000000000E+02
4897000000.000000      6.732178000000000E-01      1.262451000000000E+01      3.081360000000000E-01     -1.627344000000000E+02
4898000000.000000      6.757507000000000E-01      1.268506000000000E+01      3.050842000000000E-01     -1.629766000000000E+02
4899000000.000000      6.759033000000000E-01      1.258447000000000E+01      3.009186000000000E-01     -1.635156000000000E+02
4900000000.000000      6.779480000000000E-01      1.254346000000000E+01      2.970581000000000E-01     -1.636562000000000E+02
4901000000.000000      6.778564000000000E-01      1.230029000000000E+01      2.937012000000000E-01     -1.640391000000000E+02
4902000000.000000      6.781006000000000E-01      1.229883000000000E+01      2.908783000000000E-01     -1.643750000000000E+02
4903000000.000000      6.801147000000000E-01      1.243652000000000E+01      2.859344000000000E-01     -1.646250000000000E+02
4904000000.000000      6.815491000000000E-01      1.194336000000000E+01      2.823944000000000E-01     -1.650938000000000E+02
4905000000.000000      6.808777000000000E-01      1.183496000000000E+01      2.800140000000000E-01     -1.653750000000000E+02
4906000000.000000      6.807861000000000E-01      1.185400000000000E+01      2.758331000000000E-01     -1.653828000000000E+02
4907000000.000000      6.831665000000000E-01      1.173730000000000E+01      2.727203000000000E-01     -1.660938000000000E+02
4908000000.000000      6.841125000000000E-01      1.152832000000000E+01      2.694855000000000E-01     -1.663984000000000E+02
4909000000.000000      6.826477000000000E-01      1.167285000000000E+01      2.656708000000000E-01     -1.665859000000000E+02
4910000000.000000      6.834717000000000E-01      1.137598000000000E+01      2.615356000000000E-01     -1.668828000000000E+02
4911000000.000000      6.860352000000000E-01      1.141162000000000E+01      2.588654000000000E-01     -1.670234000000000E+02
4912000000.000000      6.860657000000000E-01      1.142139000000000E+01      2.552032000000000E-01     -1.674687000000000E+02
4913000000.000000      6.867371000000000E-01      1.119482000000000E+01      2.516327000000000E-01     -1.679141000000000E+02
4914000000.000000      6.845093000000000E-01      1.115234000000000E+01      2.483215000000000E-01     -1.680625000000000E+02
4915000000.000000      6.867981000000000E-01      1.102441000000000E+01      2.442780000000000E-01     -1.684531000000000E+02
4916000000.000000      6.890564000000000E-01      1.091309000000000E+01      2.407990000000000E-01     -1.687734000000000E+02
4917000000.000000      6.900024000000000E-01      1.079639000000000E+01      2.377014000000000E-01     -1.687891000000000E+02
4918000000.000000      6.898804000000000E-01      1.068115000000000E+01      2.331848000000000E-01     -1.691953000000000E+02
4919000000.000000      6.877441000000000E-01      1.071436000000000E+01      2.306747000000000E-01     -1.691641000000000E+02
4920000000.000000      6.907349000000000E-01      1.032959000000000E+01      2.262115000000000E-01     -1.696484000000000E+02
4921000000.000000      6.900330000000000E-01      1.038867000000000E+01      2.233582000000000E-01     -1.696875000000000E+02
4922000000.000000      6.914673000000000E-01      1.032813000000000E+01      2.191391000000000E-01     -1.698125000000000E+02
4923000000.000000      6.919250000000000E-01      1.031982000000000E+01      2.152710000000000E-01     -1.700078000000000E+02
4924000000.000000      6.924133000000000E-01      1.030225000000000E+01      2.111435000000000E-01     -1.703281000000000E+02
4925000000.000000      6.915894000000000E-01      1.002637000000000E+01      2.084656000000000E-01     -1.703750000000000E+02
4926000000.000000      6.927185000000000E-01      1.001367000000000E+01      2.047653000000000E-01     -1.704453000000000E+02
4927000000.000000      6.934204000000000E-01      9.774902000000000E+00      2.002106000000000E-01     -1.706640000000000E+02
4928000000.000000      6.934814000000000E-01      9.692383000000000E+00      1.970367000000000E-01     -1.706953000000000E+02
4929000000.000000      6.932678000000000E-01      9.524902000000000E+00      1.928253000000000E-01     -1.704531000000000E+02
4930000000.000000      6.961060000000000E-01      9.653809000000000E+00      1.894150000000000E-01     -1.707422000000000E+02
4931000000.000000      6.950989000000000E-01      9.345215000000000E+00      1.857452000000000E-01     -1.708594000000000E+02
4932000000.000000      6.965332000000000E-01      9.475586000000000E+00      1.822891000000000E-01     -1.706797000000000E+02
4933000000.000000      6.979980000000000E-01      9.133301000000000E+00      1.774979000000000E-01     -1.703672000000000E+02
4934000000.000000      6.959534000000000E-01      9.221191000000000E+00      1.740189000000000E-01     -1.704844000000000E+02
4935000000.000000      6.996155000000000E-01      8.980957000000000E+00      1.710815000000000E-01     -1.700859000000000E+02
4936000000.000000      6.975403000000000E-01      8.997559000000000E+00      1.671066000000000E-01     -1.699844000000000E+02
4937000000.000000      7.007141000000000E-01      8.799805000000000E+00      1.635056000000000E-01     -1.697344000000000E+02
4938000000.000000      6.963196000000000E-01      8.754395000000000E+00      1.599274000000000E-01     -1.693594000000000E+02
4939000000.000000      6.986694000000000E-01      8.621094000000000E+00      1.564636000000000E-01     -1.690625000000000E+02
4940000000.000000      6.990967000000000E-01      8.537598000000000E+00      1.524277000000000E-01     -1.687422000000000E+02
4941000000.000000      7.005920000000000E-01      8.348145000000000E+00      1.492004000000000E-01     -1.680781000000000E+02
4942000000.000000      6.996155000000000E-01      8.419434000000000E+00      1.460114000000000E-01     -1.675390000000000E+02
4943000000.000000      7.019958000000000E-01      8.617188000000000E+00      1.426849000000000E-01     -1.667969000000000E+02
4944000000.000000      7.009583000000000E-01      8.020996000000000E+00      1.394958000000000E-01     -1.661797000000000E+02
4945000000.000000      7.026367000000000E-01      8.023926000000000E+00      1.356735000000000E-01     -1.655703000000000E+02
4946000000.000000      7.030334000000000E-01      7.932129000000000E+00      1.328278000000000E-01     -1.646484000000000E+02
4947000000.000000      7.026672000000000E-01      7.923828000000000E+00      1.299438000000000E-01     -1.637187000000000E+02
4948000000.000000      7.048035000000000E-01      7.680664000000000E+00      1.269836000000000E-01     -1.626016000000000E+02
4949000000.000000      7.042542000000000E-01      7.697266000000000E+00      1.244392000000000E-01     -1.614609000000000E+02
4950000000.000000      7.045898000000000E-01      7.532471000000000E+00      1.216774000000000E-01     -1.602500000000000E+02
4951000000.000000      7.051697000000000E-01      7.411621000000000E+00      1.197662000000000E-01     -1.594063000000000E+02
4952000000.000000      7.034912000000000E-01      7.374512000000000E+00      1.167107000000000E-01     -1.577656000000000E+02
4953000000.000000      7.065125000000000E-01      7.279785000000000E+00      1.150665000000000E-01     -1.562813000000000E+02
4954000000.000000      7.053833000000000E-01      7.024170000000000E+00      1.132469000000000E-01     -1.549219000000000E+02
