! Network Analyzer HP8722D
! Hewlett-Packard
! Data name: Linha & Wilkinson
! Saver's name: Rodrigo Anjos
! Comments: Teste da utilização de aquisição
continua pelo VNA HP8722D
! Time and date: 22/5/2025 14:57
!              Frequency                     S11                                                   S21                                                   S12                                                   S22
# HZ  S  MA R 50
4800000000.000000      6.521606000000000E-01      1.087500000000000E+01      4.700775000000000E-01     -9.203905000000000E+01
4801000000.000000      6.519775000000000E-01      1.107422000000000E+01      4.716949000000000E-01     -9.268749000000000E+01
4802000000.000000      6.501465000000000E-01      1.094092000000000E+01      4.737396000000000E-01     -9.326172000000000E+01
4803000000.000000      6.455688000000000E-01      1.100928000000000E+01      4.771271000000000E-01     -9.400391000000000E+01
4804000000.000000      6.455994000000000E-01      1.079639000000000E+01      4.787140000000000E-01     -9.465624000000000E+01
4805000000.000000      6.465454000000000E-01      1.088037000000000E+01      4.785004000000000E-01     -9.575781000000000E+01
4806000000.000000      6.435852000000000E-01      1.081055000000000E+01      4.795380000000000E-01     -9.632813000000000E+01
4807000000.000000      6.406860000000000E-01      1.086914000000000E+01      4.828491000000000E-01     -9.724998000000000E+01
4808000000.000000      6.394653000000000E-01      1.095166000000000E+01      4.831696000000000E-01     -9.770311000000000E+01
4809000000.000000      6.371155000000000E-01      1.115625000000000E+01      4.855652000000000E-01     -9.868359000000000E+01
4810000000.000000      6.364441000000000E-01      1.095605000000000E+01      4.867706000000000E-01     -9.937500000000000E+01
4811000000.000000      6.352234000000000E-01      1.100000000000000E+01      4.890137000000000E-01     -1.003203000000000E+02
4812000000.000000      6.349182000000000E-01      1.116895000000000E+01      4.897461000000000E-01     -1.008594000000000E+02
4813000000.000000      6.335754000000000E-01      1.106836000000000E+01      4.914093000000000E-01     -1.016484000000000E+02
4814000000.000000      6.298828000000000E-01      1.118506000000000E+01      4.926910000000000E-01     -1.025000000000000E+02
4815000000.000000      6.281738000000000E-01      1.129492000000000E+01      4.917145000000000E-01     -1.032187000000000E+02
4816000000.000000      6.277466000000000E-01      1.132666000000000E+01      4.934540000000000E-01     -1.037226000000000E+02
4817000000.000000      6.267090000000000E-01      1.155615000000000E+01      4.936218000000000E-01     -1.046094000000000E+02
4818000000.000000      6.243591000000000E-01      1.125098000000000E+01      4.944153000000000E-01     -1.054453000000000E+02
4819000000.000000      6.252441000000000E-01      1.145703000000000E+01      4.943695000000000E-01     -1.061601000000000E+02
4820000000.000000      6.224365000000000E-01      1.163574000000000E+01      4.961853000000000E-01     -1.068398000000000E+02
4821000000.000000      6.225586000000000E-01      1.176611000000000E+01      4.971161000000000E-01     -1.078242000000000E+02
4822000000.000000      6.206665000000000E-01      1.166992000000000E+01      4.955750000000000E-01     -1.082305000000000E+02
4823000000.000000      6.208801000000000E-01      1.173193000000000E+01      4.969788000000000E-01     -1.092695000000000E+02
4824000000.000000      6.177979000000000E-01      1.198730000000000E+01      4.987946000000000E-01     -1.101133000000000E+02
4825000000.000000      6.185303000000000E-01      1.208594000000000E+01      4.981995000000000E-01     -1.106953000000000E+02
4826000000.000000      6.153259000000000E-01      1.210693000000000E+01      4.986115000000000E-01     -1.114609000000000E+02
4827000000.000000      6.173096000000000E-01      1.214648000000000E+01      4.985352000000000E-01     -1.121484000000000E+02
4828000000.000000      6.174927000000000E-01      1.231250000000000E+01      4.998169000000000E-01     -1.129336000000000E+02
4829000000.000000      6.157837000000000E-01      1.269043000000000E+01      5.010071000000000E-01     -1.137187000000000E+02
4830000000.000000      6.184387000000000E-01      1.245557000000000E+01      5.011597000000000E-01     -1.145117000000000E+02
4831000000.000000      6.158752000000000E-01      1.259424000000000E+01      5.001831000000000E-01     -1.152617000000000E+02
4832000000.000000      6.131287000000000E-01      1.290869000000000E+01      5.000305000000000E-01     -1.157734000000000E+02
4833000000.000000      6.121521000000000E-01      1.287695000000000E+01      5.003662000000000E-01     -1.166367000000000E+02
4834000000.000000      6.136780000000000E-01      1.300781000000000E+01      4.997406000000000E-01     -1.173867000000000E+02
4835000000.000000      6.148682000000000E-01      1.317236000000000E+01      5.002136000000000E-01     -1.181562000000000E+02
4836000000.000000      6.134644000000000E-01      1.338525000000000E+01      4.991150000000000E-01     -1.189687000000000E+02
4837000000.000000      6.128845000000000E-01      1.344824000000000E+01      4.982605000000000E-01     -1.200195000000000E+02
4838000000.000000      6.129761000000000E-01      1.355127000000000E+01      5.000916000000000E-01     -1.205312000000000E+02
4839000000.000000      6.158142000000000E-01      1.370117000000000E+01      4.979401000000000E-01     -1.212344000000000E+02
4840000000.000000      6.151428000000000E-01      1.349365000000000E+01      4.980621000000000E-01     -1.221445000000000E+02
4841000000.000000      6.159363000000000E-01      1.390869000000000E+01      4.976807000000000E-01     -1.230937000000000E+02
4842000000.000000      6.154175000000000E-01      1.397852000000000E+01      4.974976000000000E-01     -1.237148000000000E+02
4843000000.000000      6.171570000000000E-01      1.401270000000000E+01      4.979706000000000E-01     -1.246172000000000E+02
4844000000.000000      6.171570000000000E-01      1.392090000000000E+01      4.947205000000000E-01     -1.254648000000000E+02
4845000000.000000      6.181641000000000E-01      1.420508000000000E+01      4.956512000000000E-01     -1.262383000000000E+02
4846000000.000000      6.192017000000000E-01      1.445801000000000E+01      4.951324000000000E-01     -1.270195000000000E+02
4847000000.000000      6.206970000000000E-01      1.436572000000000E+01      4.925385000000000E-01     -1.277812000000000E+02
4848000000.000000      6.196289000000000E-01      1.430957000000000E+01      4.900665000000000E-01     -1.287891000000000E+02
4849000000.000000      6.217957000000000E-01      1.445654000000000E+01      4.908600000000000E-01     -1.296797000000000E+02
4850000000.000000      6.210632000000000E-01      1.451123000000000E+01      4.883270000000000E-01     -1.304766000000000E+02
4851000000.000000      6.230164000000000E-01      1.461279000000000E+01      4.874573000000000E-01     -1.314062000000000E+02
4852000000.000000      6.242981000000000E-01      1.466357000000000E+01      4.861908000000000E-01     -1.321797000000000E+02
4853000000.000000      6.276550000000000E-01      1.474219000000000E+01      4.816437000000000E-01     -1.331719000000000E+02
4854000000.000000      6.266479000000000E-01      1.472021000000000E+01      4.815369000000000E-01     -1.339844000000000E+02
4855000000.000000      6.267395000000000E-01      1.484521000000000E+01      4.790344000000000E-01     -1.348281000000000E+02
4856000000.000000      6.274109000000000E-01      1.478320000000000E+01      4.777374000000000E-01     -1.356719000000000E+02
4857000000.000000      6.289673000000000E-01      1.502100000000000E+01      4.746094000000000E-01     -1.363125000000000E+02
4858000000.000000      6.293030000000000E-01      1.495215000000000E+01      4.714050000000000E-01     -1.372344000000000E+02
4859000000.000000      6.297913000000000E-01      1.488330000000000E+01      4.702148000000000E-01     -1.382734000000000E+02
4860000000.000000      6.310425000000000E-01      1.503027000000000E+01      4.660645000000000E-01     -1.389766000000000E+02
4861000000.000000      6.316223000000000E-01      1.502100000000000E+01      4.635315000000000E-01     -1.399141000000000E+02
4862000000.000000      6.331482000000000E-01      1.509375000000000E+01      4.605865000000000E-01     -1.406484000000000E+02
4863000000.000000      6.354675000000000E-01      1.512646000000000E+01      4.562073000000000E-01     -1.414766000000000E+02
4864000000.000000      6.369934000000000E-01      1.501270000000000E+01      4.536591000000000E-01     -1.421797000000000E+02
4865000000.000000      6.372986000000000E-01      1.504980000000000E+01      4.493256000000000E-01     -1.431406000000000E+02
4866000000.000000      6.393738000000000E-01      1.504541000000000E+01      4.450226000000000E-01     -1.440781000000000E+02
4867000000.000000      6.390076000000000E-01      1.512793000000000E+01      4.412994000000000E-01     -1.449453000000000E+02
4868000000.000000      6.420593000000000E-01      1.507178000000000E+01      4.378967000000000E-01     -1.456016000000000E+02
4869000000.000000      6.422729000000000E-01      1.507715000000000E+01      4.344025000000000E-01     -1.463047000000000E+02
4870000000.000000      6.439514000000000E-01      1.506494000000000E+01      4.298096000000000E-01     -1.469766000000000E+02
4871000000.000000      6.428833000000000E-01      1.484082000000000E+01      4.259644000000000E-01     -1.478359000000000E+02
4872000000.000000      6.470337000000000E-01      1.491650000000000E+01      4.208069000000000E-01     -1.485781000000000E+02
4873000000.000000      6.465149000000000E-01      1.495752000000000E+01      4.178772000000000E-01     -1.492188000000000E+02
4874000000.000000      6.498108000000000E-01      1.492334000000000E+01      4.132996000000000E-01     -1.500313000000000E+02
4875000000.000000      6.511230000000000E-01      1.479297000000000E+01      4.085083000000000E-01     -1.506328000000000E+02
4876000000.000000      6.502991000000000E-01      1.504297000000000E+01      4.047394000000000E-01     -1.513281000000000E+02
4877000000.000000      6.533508000000000E-01      1.466943000000000E+01      3.997192000000000E-01     -1.520313000000000E+02
4878000000.000000      6.534729000000000E-01      1.473242000000000E+01      3.972321000000000E-01     -1.526328000000000E+02
4879000000.000000      6.556091000000000E-01      1.466943000000000E+01      3.907318000000000E-01     -1.531250000000000E+02
4880000000.000000      6.565247000000000E-01      1.483691000000000E+01      3.865356000000000E-01     -1.538906000000000E+02
4881000000.000000      6.577759000000000E-01      1.453857000000000E+01      3.832092000000000E-01     -1.542969000000000E+02
4882000000.000000      6.602173000000000E-01      1.456201000000000E+01      3.787384000000000E-01     -1.549687000000000E+02
4883000000.000000      6.614990000000000E-01      1.453760000000000E+01      3.725281000000000E-01     -1.556094000000000E+02
4884000000.000000      6.639099000000000E-01      1.448535000000000E+01      3.699341000000000E-01     -1.560937000000000E+02
4885000000.000000      6.631775000000000E-01      1.445801000000000E+01      3.663177000000000E-01     -1.564531000000000E+02
4886000000.000000      6.649475000000000E-01      1.433154000000000E+01      3.609314000000000E-01     -1.569531000000000E+02
4887000000.000000      6.654053000000000E-01      1.433008000000000E+01      3.567963000000000E-01     -1.576953000000000E+02
4888000000.000000      6.654968000000000E-01      1.398682000000000E+01      3.524170000000000E-01     -1.579219000000000E+02
4889000000.000000      6.669617000000000E-01      1.402930000000000E+01      3.483429000000000E-01     -1.585078000000000E+02
4890000000.000000      6.679688000000000E-01      1.396875000000000E+01      3.424377000000000E-01     -1.591172000000000E+02
4891000000.000000      6.689453000000000E-01      1.389893000000000E+01      3.388367000000000E-01     -1.595391000000000E+02
4892000000.000000      6.692810000000000E-01      1.394434000000000E+01      3.348846000000000E-01     -1.597578000000000E+02
4893000000.000000      6.706543000000000E-01      1.375342000000000E+01      3.307190000000000E-01     -1.603672000000000E+02
4894000000.000000      6.710205000000000E-01      1.371338000000000E+01      3.261261000000000E-01     -1.608438000000000E+02
4895000000.000000      6.734009000000000E-01      1.352246000000000E+01      3.245697000000000E-01     -1.609922000000000E+02
4896000000.000000      6.736450000000000E-01      1.338916000000000E+01      3.196564000000000E-01     -1.613750000000000E+02
4897000000.000000      6.741638000000000E-01      1.346094000000000E+01      3.154602000000000E-01     -1.618906000000000E+02
4898000000.000000      6.773376000000000E-01      1.330957000000000E+01      3.121490000000000E-01     -1.621250000000000E+02
4899000000.000000      6.772461000000000E-01      1.336719000000000E+01      3.081055000000000E-01     -1.626953000000000E+02
4900000000.000000      6.766663000000000E-01      1.292529000000000E+01      3.042603000000000E-01     -1.628984000000000E+02
4901000000.000000      6.781616000000000E-01      1.288525000000000E+01      3.013458000000000E-01     -1.632031000000000E+02
4902000000.000000      6.798706000000000E-01      1.296387000000000E+01      2.975006000000000E-01     -1.635000000000000E+02
4903000000.000000      6.812439000000000E-01      1.282227000000000E+01      2.935944000000000E-01     -1.639141000000000E+02
4904000000.000000      6.803284000000000E-01      1.263281000000000E+01      2.899780000000000E-01     -1.641953000000000E+02
4905000000.000000      6.825867000000000E-01      1.270020000000000E+01      2.869415000000000E-01     -1.645469000000000E+02
4906000000.000000      6.795654000000000E-01      1.249121000000000E+01      2.828369000000000E-01     -1.646016000000000E+02
4907000000.000000      6.834717000000000E-01      1.235645000000000E+01      2.800598000000000E-01     -1.651875000000000E+02
4908000000.000000      6.841125000000000E-01      1.232227000000000E+01      2.766571000000000E-01     -1.656250000000000E+02
4909000000.000000      6.850281000000000E-01      1.224121000000000E+01      2.720490000000000E-01     -1.658906000000000E+02
4910000000.000000      6.844788000000000E-01      1.212988000000000E+01      2.691498000000000E-01     -1.661328000000000E+02
4911000000.000000      6.856384000000000E-01      1.209033000000000E+01      2.658539000000000E-01     -1.664219000000000E+02
4912000000.000000      6.869202000000000E-01      1.199414000000000E+01      2.621307000000000E-01     -1.669531000000000E+02
4913000000.000000      6.883240000000000E-01      1.170410000000000E+01      2.589264000000000E-01     -1.672188000000000E+02
4914000000.000000      6.873474000000000E-01      1.141992000000000E+01      2.553406000000000E-01     -1.673906000000000E+02
4915000000.000000      6.866455000000000E-01      1.164941000000000E+01      2.517395000000000E-01     -1.679297000000000E+02
4916000000.000000      6.877747000000000E-01      1.155859000000000E+01      2.477646000000000E-01     -1.682109000000000E+02
4917000000.000000      6.890869000000000E-01      1.138281000000000E+01      2.440948000000000E-01     -1.683125000000000E+02
4918000000.000000      6.893005000000000E-01      1.127881000000000E+01      2.400589000000000E-01     -1.687422000000000E+02
4919000000.000000      6.881104000000000E-01      1.116602000000000E+01      2.374268000000000E-01     -1.687656000000000E+02
4920000000.000000      6.905518000000000E-01      1.122363000000000E+01      2.332153000000000E-01     -1.692812000000000E+02
4921000000.000000      6.899719000000000E-01      1.110156000000000E+01      2.298355000000000E-01     -1.692656000000000E+02
4922000000.000000      6.914978000000000E-01      1.081738000000000E+01      2.261658000000000E-01     -1.696719000000000E+02
4923000000.000000      6.910706000000000E-01      1.099707000000000E+01      2.222595000000000E-01     -1.698906000000000E+02
4924000000.000000      6.931458000000000E-01      1.074023000000000E+01      2.185898000000000E-01     -1.701641000000000E+02
4925000000.000000      6.918945000000000E-01      1.052344000000000E+01      2.143784000000000E-01     -1.703359000000000E+02
4926000000.000000      6.913757000000000E-01      1.051904000000000E+01      2.111816000000000E-01     -1.704219000000000E+02
4927000000.000000      6.934204000000000E-01      1.038867000000000E+01      2.071457000000000E-01     -1.706016000000000E+02
4928000000.000000      6.950378000000000E-01      1.031299000000000E+01      2.042618000000000E-01     -1.707109000000000E+02
4929000000.000000      6.943970000000000E-01      1.025391000000000E+01      1.993179000000000E-01     -1.706484000000000E+02
4930000000.000000      6.940613000000000E-01      1.001807000000000E+01      1.959686000000000E-01     -1.709453000000000E+02
4931000000.000000      6.961060000000000E-01      9.978027000000000E+00      1.929016000000000E-01     -1.709922000000000E+02
4932000000.000000      6.958008000000000E-01      9.847656000000000E+00      1.884689000000000E-01     -1.709531000000000E+02
4933000000.000000      6.977539000000000E-01      9.761230000000000E+00      1.838760000000000E-01     -1.706797000000000E+02
4934000000.000000      6.976624000000000E-01      9.659668000000000E+00      1.806946000000000E-01     -1.708906000000000E+02
4935000000.000000      7.002869000000000E-01      9.665039000000000E+00      1.771164000000000E-01     -1.707031000000000E+02
4936000000.000000      6.982422000000000E-01      9.736328000000000E+00      1.729965000000000E-01     -1.706016000000000E+02
4937000000.000000      6.996155000000000E-01      9.443848000000000E+00      1.694412000000000E-01     -1.706484000000000E+02
4938000000.000000      6.986084000000000E-01      9.411133000000000E+00      1.654510000000000E-01     -1.702344000000000E+02
4939000000.000000      6.995544000000000E-01      9.292969000000000E+00      1.617050000000000E-01     -1.697969000000000E+02
4940000000.000000      6.998596000000000E-01      9.189941000000000E+00      1.583176000000000E-01     -1.697109000000000E+02
4941000000.000000      6.994629000000000E-01      8.953613000000000E+00      1.545029000000000E-01     -1.692266000000000E+02
4942000000.000000      6.989746000000000E-01      8.953613000000000E+00      1.515503000000000E-01     -1.688047000000000E+02
4943000000.000000      7.026062000000000E-01      8.965820000000000E+00      1.476517000000000E-01     -1.685078000000000E+02
4944000000.000000      7.019043000000000E-01      8.708984000000000E+00      1.438675000000000E-01     -1.677500000000000E+02
4945000000.000000      7.011414000000000E-01      8.721680000000000E+00      1.403732000000000E-01     -1.671719000000000E+02
4946000000.000000      7.049561000000000E-01      8.505859000000000E+00      1.376495000000000E-01     -1.664141000000000E+02
4947000000.000000      7.037659000000000E-01      8.485352000000000E+00      1.339417000000000E-01     -1.657344000000000E+02
4948000000.000000      7.035522000000000E-01      8.339844000000000E+00      1.311417000000000E-01     -1.646641000000000E+02
4949000000.000000      7.050781000000000E-01      8.121582000000000E+00      1.277771000000000E-01     -1.636328000000000E+02
4950000000.000000      7.039185000000000E-01      8.345215000000000E+00      1.252899000000000E-01     -1.628281000000000E+02
4951000000.000000      7.077026000000000E-01      7.966309000000000E+00      1.227303000000000E-01     -1.617578000000000E+02
4952000000.000000      7.047729000000000E-01      8.044434000000000E+00      1.192551000000000E-01     -1.605156000000000E+02
4953000000.000000      7.057190000000000E-01      7.933350000000000E+00      1.172867000000000E-01     -1.591797000000000E+02
4954000000.000000      7.087708000000000E-01      7.752197000000000E+00      1.154518000000000E-01     -1.579219000000000E+02
