! Network Analyzer HP8722D
! Hewlett-Packard
! Data name: Linha & Wilkinson
! Saver's name: Rodrigo Anjos
! Comments: Teste da utilização de aquisição
continua pelo VNA HP8722D
! Time and date: 22/5/2025 07:17
!              Frequency                     S11                                                   S21                                                   S12                                                   S22
# HZ  S  MA R 50
4800000000.000000      6.393738000000000E-01      1.075830000000000E+01      4.691467000000000E-01     -9.376171000000000E+01
4801000000.000000      6.374207000000000E-01      1.076904000000000E+01      4.697571000000000E-01     -9.429688000000000E+01
4802000000.000000      6.363525000000000E-01      1.074854000000000E+01      4.714661000000000E-01     -9.514063000000000E+01
4803000000.000000      6.330261000000000E-01      1.076904000000000E+01      4.734650000000000E-01     -9.567968000000000E+01
4804000000.000000      6.336060000000000E-01      1.068799000000000E+01      4.747009000000000E-01     -9.657812000000000E+01
4805000000.000000      6.329041000000000E-01      1.068115000000000E+01      4.757538000000000E-01     -9.734375000000000E+01
4806000000.000000      6.293030000000000E-01      1.074854000000000E+01      4.786682000000000E-01     -9.818359000000000E+01
4807000000.000000      6.280212000000000E-01      1.061523000000000E+01      4.793549000000000E-01     -9.901562000000000E+01
4808000000.000000      6.257324000000000E-01      1.086914000000000E+01      4.811554000000000E-01     -9.955467000000000E+01
4809000000.000000      6.244507000000000E-01      1.080078000000000E+01      4.813690000000000E-01     -1.006562000000000E+02
4810000000.000000      6.217346000000000E-01      1.080615000000000E+01      4.838562000000000E-01     -1.011719000000000E+02
4811000000.000000      6.234131000000000E-01      1.085156000000000E+01      4.858398000000000E-01     -1.020313000000000E+02
4812000000.000000      6.217957000000000E-01      1.105322000000000E+01      4.857025000000000E-01     -1.026289000000000E+02
4813000000.000000      6.204529000000000E-01      1.106689000000000E+01      4.862976000000000E-01     -1.035156000000000E+02
4814000000.000000      6.184998000000000E-01      1.107422000000000E+01      4.877167000000000E-01     -1.041640000000000E+02
4815000000.000000      6.158752000000000E-01      1.118799000000000E+01      4.891663000000000E-01     -1.049844000000000E+02
4816000000.000000      6.170959000000000E-01      1.132129000000000E+01      4.895782000000000E-01     -1.056523000000000E+02
4817000000.000000      6.142273000000000E-01      1.144482000000000E+01      4.906006000000000E-01     -1.064063000000000E+02
4818000000.000000      6.127319000000000E-01      1.122803000000000E+01      4.906311000000000E-01     -1.071992000000000E+02
4819000000.000000      6.113892000000000E-01      1.148730000000000E+01      4.910431000000000E-01     -1.079688000000000E+02
4820000000.000000      6.098938000000000E-01      1.153809000000000E+01      4.912415000000000E-01     -1.086523000000000E+02
4821000000.000000      6.101990000000000E-01      1.158643000000000E+01      4.936676000000000E-01     -1.093594000000000E+02
4822000000.000000      6.087341000000000E-01      1.155176000000000E+01      4.912720000000000E-01     -1.101601000000000E+02
4823000000.000000      6.081238000000000E-01      1.175635000000000E+01      4.927673000000000E-01     -1.110000000000000E+02
4824000000.000000      6.070557000000000E-01      1.190771000000000E+01      4.914551000000000E-01     -1.117383000000000E+02
4825000000.000000      6.061096000000000E-01      1.203125000000000E+01      4.936371000000000E-01     -1.123164000000000E+02
4826000000.000000      6.052246000000000E-01      1.189404000000000E+01      4.939270000000000E-01     -1.131953000000000E+02
4827000000.000000      6.056213000000000E-01      1.223291000000000E+01      4.918213000000000E-01     -1.138125000000000E+02
4828000000.000000      6.072388000000000E-01      1.222900000000000E+01      4.940643000000000E-01     -1.147539000000000E+02
4829000000.000000      6.054077000000000E-01      1.249658000000000E+01      4.947662000000000E-01     -1.154726000000000E+02
4830000000.000000      6.047363000000000E-01      1.244043000000000E+01      4.935760000000000E-01     -1.161914000000000E+02
4831000000.000000      6.053772000000000E-01      1.265625000000000E+01      4.932251000000000E-01     -1.170586000000000E+02
4832000000.000000      6.036987000000000E-01      1.285645000000000E+01      4.941864000000000E-01     -1.177969000000000E+02
4833000000.000000      6.023560000000000E-01      1.286621000000000E+01      4.932556000000000E-01     -1.184766000000000E+02
4834000000.000000      6.033630000000000E-01      1.292529000000000E+01      4.935455000000000E-01     -1.193359000000000E+02
4835000000.000000      6.023560000000000E-01      1.312695000000000E+01      4.929810000000000E-01     -1.200898000000000E+02
4836000000.000000      6.051331000000000E-01      1.334668000000000E+01      4.917450000000000E-01     -1.208633000000000E+02
4837000000.000000      6.044922000000000E-01      1.340869000000000E+01      4.916687000000000E-01     -1.218750000000000E+02
4838000000.000000      6.027527000000000E-01      1.339209000000000E+01      4.903564000000000E-01     -1.223828000000000E+02
4839000000.000000      6.076660000000000E-01      1.344434000000000E+01      4.922791000000000E-01     -1.232656000000000E+02
4840000000.000000      6.043701000000000E-01      1.356104000000000E+01      4.887695000000000E-01     -1.240273000000000E+02
4841000000.000000      6.051636000000000E-01      1.376563000000000E+01      4.916534000000000E-01     -1.247187000000000E+02
4842000000.000000      6.064758000000000E-01      1.393750000000000E+01      4.897461000000000E-01     -1.256250000000000E+02
4843000000.000000      6.091919000000000E-01      1.368994000000000E+01      4.890900000000000E-01     -1.265859000000000E+02
4844000000.000000      6.070251000000000E-01      1.381494000000000E+01      4.883270000000000E-01     -1.274023000000000E+02
4845000000.000000      6.086121000000000E-01      1.412402000000000E+01      4.860992000000000E-01     -1.281719000000000E+02
4846000000.000000      6.110840000000000E-01      1.407178000000000E+01      4.856720000000000E-01     -1.289766000000000E+02
4847000000.000000      6.104736000000000E-01      1.436572000000000E+01      4.824677000000000E-01     -1.296562000000000E+02
4848000000.000000      6.101685000000000E-01      1.438232000000000E+01      4.810028000000000E-01     -1.305078000000000E+02
4849000000.000000      6.113892000000000E-01      1.423828000000000E+01      4.810486000000000E-01     -1.315000000000000E+02
4850000000.000000      6.127625000000000E-01      1.428467000000000E+01      4.782257000000000E-01     -1.322109000000000E+02
4851000000.000000      6.137390000000000E-01      1.450586000000000E+01      4.784851000000000E-01     -1.331016000000000E+02
4852000000.000000      6.153259000000000E-01      1.467871000000000E+01      4.754486000000000E-01     -1.339141000000000E+02
4853000000.000000      6.163635000000000E-01      1.461182000000000E+01      4.719543000000000E-01     -1.347891000000000E+02
4854000000.000000      6.152954000000000E-01      1.465820000000000E+01      4.689484000000000E-01     -1.357266000000000E+02
4855000000.000000      6.190491000000000E-01      1.459766000000000E+01      4.684601000000000E-01     -1.366094000000000E+02
4856000000.000000      6.185608000000000E-01      1.451807000000000E+01      4.651031000000000E-01     -1.373984000000000E+02
4857000000.000000      6.200256000000000E-01      1.470508000000000E+01      4.639130000000000E-01     -1.382031000000000E+02
4858000000.000000      6.206970000000000E-01      1.470898000000000E+01      4.606018000000000E-01     -1.391172000000000E+02
4859000000.000000      6.213379000000000E-01      1.472021000000000E+01      4.585114000000000E-01     -1.400703000000000E+02
4860000000.000000      6.226501000000000E-01      1.479980000000000E+01      4.542236000000000E-01     -1.406406000000000E+02
4861000000.000000      6.250916000000000E-01      1.480127000000000E+01      4.509430000000000E-01     -1.418047000000000E+02
4862000000.000000      6.241455000000000E-01      1.475977000000000E+01      4.484100000000000E-01     -1.423203000000000E+02
4863000000.000000      6.275330000000000E-01      1.476270000000000E+01      4.450836000000000E-01     -1.430078000000000E+02
4864000000.000000      6.275635000000000E-01      1.471582000000000E+01      4.413300000000000E-01     -1.438828000000000E+02
4865000000.000000      6.295166000000000E-01      1.465430000000000E+01      4.371796000000000E-01     -1.448437000000000E+02
4866000000.000000      6.305237000000000E-01      1.462256000000000E+01      4.332581000000000E-01     -1.457266000000000E+02
4867000000.000000      6.311951000000000E-01      1.472021000000000E+01      4.291382000000000E-01     -1.463516000000000E+02
4868000000.000000      6.329041000000000E-01      1.454004000000000E+01      4.261169000000000E-01     -1.470937000000000E+02
4869000000.000000      6.340332000000000E-01      1.464990000000000E+01      4.222260000000000E-01     -1.479531000000000E+02
4870000000.000000      6.349487000000000E-01      1.457471000000000E+01      4.175110000000000E-01     -1.484531000000000E+02
4871000000.000000      6.348572000000000E-01      1.448779000000000E+01      4.134827000000000E-01     -1.493438000000000E+02
4872000000.000000      6.388245000000000E-01      1.447852000000000E+01      4.094696000000000E-01     -1.498672000000000E+02
4873000000.000000      6.370239000000000E-01      1.455664000000000E+01      4.049835000000000E-01     -1.508906000000000E+02
4874000000.000000      6.402588000000000E-01      1.461182000000000E+01      4.017487000000000E-01     -1.513750000000000E+02
4875000000.000000      6.403198000000000E-01      1.434521000000000E+01      3.946991000000000E-01     -1.519219000000000E+02
4876000000.000000      6.440125000000000E-01      1.463086000000000E+01      3.907623000000000E-01     -1.526797000000000E+02
4877000000.000000      6.445618000000000E-01      1.433838000000000E+01      3.865204000000000E-01     -1.532422000000000E+02
4878000000.000000      6.463623000000000E-01      1.429688000000000E+01      3.840027000000000E-01     -1.540234000000000E+02
4879000000.000000      6.473083000000000E-01      1.419287000000000E+01      3.785553000000000E-01     -1.543516000000000E+02
4880000000.000000      6.473999000000000E-01      1.425732000000000E+01      3.742218000000000E-01     -1.549844000000000E+02
4881000000.000000      6.497498000000000E-01      1.419434000000000E+01      3.694153000000000E-01     -1.555234000000000E+02
4882000000.000000      6.502075000000000E-01      1.435596000000000E+01      3.662109000000000E-01     -1.562187000000000E+02
4883000000.000000      6.522217000000000E-01      1.396484000000000E+01      3.611603000000000E-01     -1.567422000000000E+02
4884000000.000000      6.531067000000000E-01      1.407031000000000E+01      3.561554000000000E-01     -1.571953000000000E+02
4885000000.000000      6.545105000000000E-01      1.393750000000000E+01      3.530273000000000E-01     -1.576250000000000E+02
4886000000.000000      6.555786000000000E-01      1.386182000000000E+01      3.481140000000000E-01     -1.578750000000000E+02
4887000000.000000      6.578674000000000E-01      1.374365000000000E+01      3.451691000000000E-01     -1.589219000000000E+02
4888000000.000000      6.566467000000000E-01      1.358691000000000E+01      3.403473000000000E-01     -1.592109000000000E+02
4889000000.000000      6.602173000000000E-01      1.343750000000000E+01      3.363800000000000E-01     -1.595312000000000E+02
4890000000.000000      6.576233000000000E-01      1.352686000000000E+01      3.307953000000000E-01     -1.603125000000000E+02
4891000000.000000      6.602478000000000E-01      1.339063000000000E+01      3.284302000000000E-01     -1.605625000000000E+02
4892000000.000000      6.601868000000000E-01      1.361572000000000E+01      3.230896000000000E-01     -1.607031000000000E+02
4893000000.000000      6.645203000000000E-01      1.303662000000000E+01      3.207092000000000E-01     -1.611641000000000E+02
4894000000.000000      6.623230000000000E-01      1.310498000000000E+01      3.164673000000000E-01     -1.616641000000000E+02
4895000000.000000      6.653442000000000E-01      1.299268000000000E+01      3.129272000000000E-01     -1.619062000000000E+02
4896000000.000000      6.664734000000000E-01      1.310498000000000E+01      3.091278000000000E-01     -1.622969000000000E+02
4897000000.000000      6.671143000000000E-01      1.287305000000000E+01      3.047943000000000E-01     -1.627578000000000E+02
4898000000.000000      6.669312000000000E-01      1.295264000000000E+01      3.007507000000000E-01     -1.629766000000000E+02
4899000000.000000      6.666260000000000E-01      1.281104000000000E+01      2.976227000000000E-01     -1.635078000000000E+02
4900000000.000000      6.680298000000000E-01      1.266016000000000E+01      2.934265000000000E-01     -1.637500000000000E+02
4901000000.000000      6.708069000000000E-01      1.252979000000000E+01      2.901154000000000E-01     -1.640703000000000E+02
4902000000.000000      6.687927000000000E-01      1.245850000000000E+01      2.868958000000000E-01     -1.643672000000000E+02
4903000000.000000      6.716614000000000E-01      1.244727000000000E+01      2.827759000000000E-01     -1.648203000000000E+02
4904000000.000000      6.716309000000000E-01      1.208740000000000E+01      2.790833000000000E-01     -1.650234000000000E+02
4905000000.000000      6.742859000000000E-01      1.212158000000000E+01      2.772217000000000E-01     -1.654219000000000E+02
4906000000.000000      6.737366000000000E-01      1.206982000000000E+01      2.724915000000000E-01     -1.654375000000000E+02
4907000000.000000      6.758118000000000E-01      1.177734000000000E+01      2.694702000000000E-01     -1.660078000000000E+02
4908000000.000000      6.749573000000000E-01      1.176758000000000E+01      2.660370000000000E-01     -1.662344000000000E+02
4909000000.000000      6.745605000000000E-01      1.169043000000000E+01      2.622681000000000E-01     -1.665469000000000E+02
4910000000.000000      6.764832000000000E-01      1.169043000000000E+01      2.593079000000000E-01     -1.667109000000000E+02
4911000000.000000      6.766663000000000E-01      1.159863000000000E+01      2.559814000000000E-01     -1.671797000000000E+02
4912000000.000000      6.777344000000000E-01      1.156152000000000E+01      2.522278000000000E-01     -1.676016000000000E+02
4913000000.000000      6.784363000000000E-01      1.125244000000000E+01      2.485733000000000E-01     -1.677734000000000E+02
4914000000.000000      6.789246000000000E-01      1.110547000000000E+01      2.454071000000000E-01     -1.678672000000000E+02
4915000000.000000      6.801453000000000E-01      1.135693000000000E+01      2.410431000000000E-01     -1.684844000000000E+02
4916000000.000000      6.792297000000000E-01      1.113037000000000E+01      2.380066000000000E-01     -1.688047000000000E+02
4917000000.000000      6.794128000000000E-01      1.104395000000000E+01      2.350464000000000E-01     -1.687266000000000E+02
4918000000.000000      6.820374000000000E-01      1.081836000000000E+01      2.307816000000000E-01     -1.691641000000000E+02
4919000000.000000      6.812744000000000E-01      1.075146000000000E+01      2.279434000000000E-01     -1.691406000000000E+02
4920000000.000000      6.799622000000000E-01      1.068945000000000E+01      2.236328000000000E-01     -1.696172000000000E+02
4921000000.000000      6.832275000000000E-01      1.056738000000000E+01      2.205811000000000E-01     -1.697656000000000E+02
4922000000.000000      6.828918000000000E-01      1.049463000000000E+01      2.171173000000000E-01     -1.699531000000000E+02
4923000000.000000      6.831055000000000E-01      1.050977000000000E+01      2.128372000000000E-01     -1.698203000000000E+02
4924000000.000000      6.844482000000000E-01      1.028320000000000E+01      2.093735000000000E-01     -1.703594000000000E+02
4925000000.000000      6.836548000000000E-01      1.014844000000000E+01      2.056961000000000E-01     -1.704687000000000E+02
4926000000.000000      6.846619000000000E-01      1.001221000000000E+01      2.024307000000000E-01     -1.705859000000000E+02
4927000000.000000      6.860046000000000E-01      1.002344000000000E+01      1.982422000000000E-01     -1.706172000000000E+02
4928000000.000000      6.860352000000000E-01      9.850586000000000E+00      1.946640000000000E-01     -1.705547000000000E+02
4929000000.000000      6.860962000000000E-01      9.667969000000000E+00      1.910477000000000E-01     -1.705000000000000E+02
4930000000.000000      6.870422000000000E-01      9.649902000000000E+00      1.874313000000000E-01     -1.708437000000000E+02
4931000000.000000      6.864319000000000E-01      9.404297000000000E+00      1.839752000000000E-01     -1.707031000000000E+02
4932000000.000000      6.870728000000000E-01      9.558105000000000E+00      1.803055000000000E-01     -1.706484000000000E+02
4933000000.000000      6.890259000000000E-01      9.323242000000000E+00      1.756134000000000E-01     -1.703594000000000E+02
4934000000.000000      6.898499000000000E-01      9.235352000000000E+00      1.723785000000000E-01     -1.706172000000000E+02
4935000000.000000      6.894531000000000E-01      9.161133000000000E+00      1.693573000000000E-01     -1.702500000000000E+02
4936000000.000000      6.885376000000000E-01      9.174805000000000E+00      1.651077000000000E-01     -1.699609000000000E+02
4937000000.000000      6.907349000000000E-01      8.869629000000000E+00      1.614990000000000E-01     -1.699219000000000E+02
4938000000.000000      6.901855000000000E-01      8.982422000000000E+00      1.581802000000000E-01     -1.693906000000000E+02
4939000000.000000      6.900330000000000E-01      8.784668000000000E+00      1.545868000000000E-01     -1.688750000000000E+02
4940000000.000000      6.917419000000000E-01      8.740723000000000E+00      1.508636000000000E-01     -1.685937000000000E+02
4941000000.000000      6.936340000000000E-01      8.711914000000000E+00      1.477737000000000E-01     -1.681562000000000E+02
4942000000.000000      6.931152000000000E-01      8.591309000000000E+00      1.443176000000000E-01     -1.676641000000000E+02
4943000000.000000      6.929932000000000E-01      8.681641000000000E+00      1.409149000000000E-01     -1.669765000000000E+02
4944000000.000000      6.930542000000000E-01      8.284668000000000E+00      1.381149000000000E-01     -1.662812000000000E+02
4945000000.000000      6.946411000000000E-01      8.158691000000000E+00      1.345825000000000E-01     -1.655000000000000E+02
4946000000.000000      6.928406000000000E-01      8.201172000000000E+00      1.314087000000000E-01     -1.645703000000000E+02
4947000000.000000      6.948853000000000E-01      7.962158000000000E+00      1.284866000000000E-01     -1.640078000000000E+02
4948000000.000000      6.965942000000000E-01      7.998047000000000E+00      1.256180000000000E-01     -1.629141000000000E+02
4949000000.000000      6.956177000000000E-01      7.804199000000000E+00      1.233711000000000E-01     -1.617891000000000E+02
4950000000.000000      6.973572000000000E-01      7.846924000000000E+00      1.204414000000000E-01     -1.604453000000000E+02
4951000000.000000      6.960754000000000E-01      7.631348000000000E+00      1.184807000000000E-01     -1.594687000000000E+02
4952000000.000000      6.954346000000000E-01      7.521484000000000E+00      1.155663000000000E-01     -1.579766000000000E+02
4953000000.000000      6.976013000000000E-01      7.411621000000000E+00      1.138611000000000E-01     -1.563984000000000E+02
4954000000.000000      6.987000000000000E-01      7.289307000000000E+00      1.117668000000000E-01     -1.552422000000000E+02
