! Network Analyzer HP8722D
! Hewlett-Packard
! Data name: Linha & Wilkinson
! Saver's name: Rodrigo Anjos
! Comments: Teste da utilização de aquisição
continua pelo VNA HP8722D
! Time and date: 22/5/2025 09:22
!              Frequency                     S11                                                   S21                                                   S12                                                   S22
# HZ  S  MA R 50
4800000000.000000      6.467590000000000E-01      1.033643000000000E+01      4.749908000000000E-01     -9.368359000000000E+01
4801000000.000000      6.436768000000000E-01      1.041504000000000E+01      4.766083000000000E-01     -9.439453000000000E+01
4802000000.000000      6.443481000000000E-01      1.041602000000000E+01      4.775391000000000E-01     -9.511719000000000E+01
4803000000.000000      6.419067000000000E-01      1.039307000000000E+01      4.827576000000000E-01     -9.581640000000000E+01
4804000000.000000      6.405640000000000E-01      1.049707000000000E+01      4.830170000000000E-01     -9.654297000000000E+01
4805000000.000000      6.401672000000000E-01      1.030762000000000E+01      4.838257000000000E-01     -9.751953000000000E+01
4806000000.000000      6.367493000000000E-01      1.039404000000000E+01      4.851532000000000E-01     -9.826561000000000E+01
4807000000.000000      6.343079000000000E-01      1.030762000000000E+01      4.854431000000000E-01     -9.924608000000000E+01
4808000000.000000      6.333923000000000E-01      1.027881000000000E+01      4.862823000000000E-01     -9.991405000000000E+01
4809000000.000000      6.308289000000000E-01      1.044238000000000E+01      4.892273000000000E-01     -1.005742000000000E+02
4810000000.000000      6.298218000000000E-01      1.027881000000000E+01      4.909821000000000E-01     -1.011562000000000E+02
4811000000.000000      6.302490000000000E-01      1.052588000000000E+01      4.928589000000000E-01     -1.020742000000000E+02
4812000000.000000      6.309204000000000E-01      1.067041000000000E+01      4.915466000000000E-01     -1.027539000000000E+02
4813000000.000000      6.258850000000000E-01      1.072510000000000E+01      4.939728000000000E-01     -1.034727000000000E+02
4814000000.000000      6.248779000000000E-01      1.079639000000000E+01      4.953918000000000E-01     -1.044765000000000E+02
4815000000.000000      6.221008000000000E-01      1.092578000000000E+01      4.945679000000000E-01     -1.050273000000000E+02
4816000000.000000      6.241760000000000E-01      1.081445000000000E+01      4.958801000000000E-01     -1.058437000000000E+02
4817000000.000000      6.205750000000000E-01      1.103271000000000E+01      4.981232000000000E-01     -1.065312000000000E+02
4818000000.000000      6.210327000000000E-01      1.089258000000000E+01      4.955444000000000E-01     -1.072773000000000E+02
4819000000.000000      6.183167000000000E-01      1.114258000000000E+01      4.976959000000000E-01     -1.082109000000000E+02
4820000000.000000      6.180115000000000E-01      1.125244000000000E+01      4.989014000000000E-01     -1.087773000000000E+02
4821000000.000000      6.189270000000000E-01      1.131299000000000E+01      4.999542000000000E-01     -1.096367000000000E+02
4822000000.000000      6.148071000000000E-01      1.116064000000000E+01      4.980164000000000E-01     -1.101836000000000E+02
4823000000.000000      6.167297000000000E-01      1.127881000000000E+01      4.979858000000000E-01     -1.110039000000000E+02
4824000000.000000      6.128845000000000E-01      1.165918000000000E+01      4.984741000000000E-01     -1.118789000000000E+02
4825000000.000000      6.146851000000000E-01      1.162744000000000E+01      5.005493000000000E-01     -1.125859000000000E+02
4826000000.000000      6.128845000000000E-01      1.167432000000000E+01      5.015259000000000E-01     -1.134414000000000E+02
4827000000.000000      6.130676000000000E-01      1.167139000000000E+01      4.997101000000000E-01     -1.141133000000000E+02
4828000000.000000      6.142578000000000E-01      1.189111000000000E+01      4.987640000000000E-01     -1.147617000000000E+02
4829000000.000000      6.122742000000000E-01      1.216162000000000E+01      5.000916000000000E-01     -1.155664000000000E+02
4830000000.000000      6.128540000000000E-01      1.209717000000000E+01      4.992065000000000E-01     -1.163320000000000E+02
4831000000.000000      6.132202000000000E-01      1.213965000000000E+01      4.992065000000000E-01     -1.171797000000000E+02
4832000000.000000      6.114807000000000E-01      1.249951000000000E+01      4.996643000000000E-01     -1.177812000000000E+02
4833000000.000000      6.101990000000000E-01      1.239111000000000E+01      4.988251000000000E-01     -1.186016000000000E+02
4834000000.000000      6.109619000000000E-01      1.258594000000000E+01      4.984283000000000E-01     -1.195313000000000E+02
4835000000.000000      6.122437000000000E-01      1.286621000000000E+01      4.999237000000000E-01     -1.201484000000000E+02
4836000000.000000      6.134644000000000E-01      1.308594000000000E+01      4.990082000000000E-01     -1.209414000000000E+02
4837000000.000000      6.104126000000000E-01      1.295264000000000E+01      4.966278000000000E-01     -1.219687000000000E+02
4838000000.000000      6.110840000000000E-01      1.305713000000000E+01      4.996643000000000E-01     -1.224297000000000E+02
4839000000.000000      6.157532000000000E-01      1.321777000000000E+01      4.977264000000000E-01     -1.233437000000000E+02
4840000000.000000      6.141663000000000E-01      1.327002000000000E+01      4.972839000000000E-01     -1.240351000000000E+02
4841000000.000000      6.145630000000000E-01      1.338672000000000E+01      4.962616000000000E-01     -1.249258000000000E+02
4842000000.000000      6.135559000000000E-01      1.352930000000000E+01      4.958954000000000E-01     -1.256484000000000E+02
4843000000.000000      6.166382000000000E-01      1.361035000000000E+01      4.967346000000000E-01     -1.267344000000000E+02
4844000000.000000      6.167603000000000E-01      1.358301000000000E+01      4.931641000000000E-01     -1.274726000000000E+02
4845000000.000000      6.166992000000000E-01      1.381787000000000E+01      4.922638000000000E-01     -1.282656000000000E+02
4846000000.000000      6.188354000000000E-01      1.378467000000000E+01      4.918976000000000E-01     -1.290156000000000E+02
4847000000.000000      6.193237000000000E-01      1.398535000000000E+01      4.907837000000000E-01     -1.297031000000000E+02
4848000000.000000      6.170959000000000E-01      1.385889000000000E+01      4.866943000000000E-01     -1.305781000000000E+02
4849000000.000000      6.197815000000000E-01      1.391650000000000E+01      4.862976000000000E-01     -1.314687000000000E+02
4850000000.000000      6.232910000000000E-01      1.417773000000000E+01      4.832153000000000E-01     -1.323828000000000E+02
4851000000.000000      6.230774000000000E-01      1.435059000000000E+01      4.841003000000000E-01     -1.334141000000000E+02
4852000000.000000      6.229248000000000E-01      1.417236000000000E+01      4.803162000000000E-01     -1.340625000000000E+02
4853000000.000000      6.270447000000000E-01      1.422021000000000E+01      4.771881000000000E-01     -1.349375000000000E+02
4854000000.000000      6.257629000000000E-01      1.430273000000000E+01      4.758606000000000E-01     -1.358125000000000E+02
4855000000.000000      6.264038000000000E-01      1.443164000000000E+01      4.738007000000000E-01     -1.367266000000000E+02
4856000000.000000      6.286316000000000E-01      1.438232000000000E+01      4.707794000000000E-01     -1.376094000000000E+02
4857000000.000000      6.286926000000000E-01      1.447021000000000E+01      4.700317000000000E-01     -1.383047000000000E+02
4858000000.000000      6.288757000000000E-01      1.427637000000000E+01      4.659271000000000E-01     -1.392109000000000E+02
4859000000.000000      6.318970000000000E-01      1.450586000000000E+01      4.640808000000000E-01     -1.400781000000000E+02
4860000000.000000      6.331787000000000E-01      1.457324000000000E+01      4.589539000000000E-01     -1.408594000000000E+02
4861000000.000000      6.315613000000000E-01      1.458838000000000E+01      4.570923000000000E-01     -1.418281000000000E+02
4862000000.000000      6.349182000000000E-01      1.447559000000000E+01      4.527740000000000E-01     -1.424844000000000E+02
4863000000.000000      6.344604000000000E-01      1.454297000000000E+01      4.495544000000000E-01     -1.433516000000000E+02
4864000000.000000      6.378479000000000E-01      1.440576000000000E+01      4.463959000000000E-01     -1.440312000000000E+02
4865000000.000000      6.373596000000000E-01      1.435889000000000E+01      4.409485000000000E-01     -1.447734000000000E+02
4866000000.000000      6.392517000000000E-01      1.426270000000000E+01      4.388123000000000E-01     -1.456406000000000E+02
4867000000.000000      6.393433000000000E-01      1.445215000000000E+01      4.340363000000000E-01     -1.465937000000000E+02
4868000000.000000      6.425476000000000E-01      1.429980000000000E+01      4.305420000000000E-01     -1.471875000000000E+02
4869000000.000000      6.449585000000000E-01      1.441943000000000E+01      4.275360000000000E-01     -1.481953000000000E+02
4870000000.000000      6.451416000000000E-01      1.444824000000000E+01      4.226685000000000E-01     -1.486328000000000E+02
4871000000.000000      6.445923000000000E-01      1.410059000000000E+01      4.193115000000000E-01     -1.493203000000000E+02
4872000000.000000      6.472778000000000E-01      1.428223000000000E+01      4.151001000000000E-01     -1.499922000000000E+02
4873000000.000000      6.485596000000000E-01      1.444531000000000E+01      4.093628000000000E-01     -1.508516000000000E+02
4874000000.000000      6.502686000000000E-01      1.417627000000000E+01      4.045258000000000E-01     -1.515078000000000E+02
4875000000.000000      6.515198000000000E-01      1.412695000000000E+01      3.998871000000000E-01     -1.522578000000000E+02
4876000000.000000      6.534424000000000E-01      1.417334000000000E+01      3.969879000000000E-01     -1.526953000000000E+02
4877000000.000000      6.559753000000000E-01      1.376709000000000E+01      3.917542000000000E-01     -1.535391000000000E+02
4878000000.000000      6.549072000000000E-01      1.408008000000000E+01      3.881836000000000E-01     -1.540469000000000E+02
4879000000.000000      6.560669000000000E-01      1.398682000000000E+01      3.834534000000000E-01     -1.545547000000000E+02
4880000000.000000      6.578064000000000E-01      1.389063000000000E+01      3.793640000000000E-01     -1.553828000000000E+02
4881000000.000000      6.593323000000000E-01      1.393457000000000E+01      3.750610000000000E-01     -1.556484000000000E+02
4882000000.000000      6.611633000000000E-01      1.388086000000000E+01      3.710632000000000E-01     -1.560937000000000E+02
4883000000.000000      6.603699000000000E-01      1.371777000000000E+01      3.655243000000000E-01     -1.568906000000000E+02
4884000000.000000      6.632385000000000E-01      1.380127000000000E+01      3.624420000000000E-01     -1.573594000000000E+02
4885000000.000000      6.640930000000000E-01      1.374512000000000E+01      3.572540000000000E-01     -1.576015000000000E+02
4886000000.000000      6.629639000000000E-01      1.350049000000000E+01      3.529968000000000E-01     -1.582031000000000E+02
4887000000.000000      6.661072000000000E-01      1.337158000000000E+01      3.486938000000000E-01     -1.586406000000000E+02
4888000000.000000      6.661682000000000E-01      1.343750000000000E+01      3.451843000000000E-01     -1.592734000000000E+02
4889000000.000000      6.674500000000000E-01      1.332764000000000E+01      3.401947000000000E-01     -1.596484000000000E+02
4890000000.000000      6.669617000000000E-01      1.317627000000000E+01      3.359375000000000E-01     -1.603828000000000E+02
4891000000.000000      6.694031000000000E-01      1.321240000000000E+01      3.327789000000000E-01     -1.604141000000000E+02
4892000000.000000      6.697388000000000E-01      1.302002000000000E+01      3.275909000000000E-01     -1.606562000000000E+02
4893000000.000000      6.710510000000000E-01      1.281543000000000E+01      3.233490000000000E-01     -1.613203000000000E+02
4894000000.000000      6.716919000000000E-01      1.286475000000000E+01      3.197479000000000E-01     -1.617734000000000E+02
4895000000.000000      6.734619000000000E-01      1.265723000000000E+01      3.171234000000000E-01     -1.619609000000000E+02
4896000000.000000      6.744690000000000E-01      1.270703000000000E+01      3.120728000000000E-01     -1.624766000000000E+02
4897000000.000000      6.734924000000000E-01      1.266309000000000E+01      3.086700000000000E-01     -1.628047000000000E+02
4898000000.000000      6.763000000000000E-01      1.266699000000000E+01      3.041840000000000E-01     -1.629922000000000E+02
4899000000.000000      6.782532000000000E-01      1.237744000000000E+01      3.010559000000000E-01     -1.635703000000000E+02
4900000000.000000      6.770630000000000E-01      1.226172000000000E+01      2.974548000000000E-01     -1.637031000000000E+02
4901000000.000000      6.801147000000000E-01      1.212305000000000E+01      2.938843000000000E-01     -1.640156000000000E+02
4902000000.000000      6.811218000000000E-01      1.220020000000000E+01      2.906799000000000E-01     -1.642266000000000E+02
4903000000.000000      6.804199000000000E-01      1.203369000000000E+01      2.862244000000000E-01     -1.647422000000000E+02
4904000000.000000      6.816406000000000E-01      1.185938000000000E+01      2.827148000000000E-01     -1.651641000000000E+02
4905000000.000000      6.818237000000000E-01      1.172900000000000E+01      2.795105000000000E-01     -1.654687000000000E+02
4906000000.000000      6.822510000000000E-01      1.173730000000000E+01      2.760162000000000E-01     -1.655234000000000E+02
4907000000.000000      6.832581000000000E-01      1.164941000000000E+01      2.731018000000000E-01     -1.661094000000000E+02
4908000000.000000      6.837158000000000E-01      1.156006000000000E+01      2.695160000000000E-01     -1.664531000000000E+02
4909000000.000000      6.840820000000000E-01      1.146143000000000E+01      2.653351000000000E-01     -1.667344000000000E+02
4910000000.000000      6.830750000000000E-01      1.132813000000000E+01      2.623138000000000E-01     -1.668203000000000E+02
4911000000.000000      6.858826000000000E-01      1.124414000000000E+01      2.586212000000000E-01     -1.671484000000000E+02
4912000000.000000      6.870728000000000E-01      1.128662000000000E+01      2.550659000000000E-01     -1.675156000000000E+02
4913000000.000000      6.861877000000000E-01      1.116211000000000E+01      2.519531000000000E-01     -1.677344000000000E+02
4914000000.000000      6.865540000000000E-01      1.100244000000000E+01      2.481003000000000E-01     -1.681641000000000E+02
4915000000.000000      6.858521000000000E-01      1.084473000000000E+01      2.449341000000000E-01     -1.685625000000000E+02
4916000000.000000      6.876831000000000E-01      1.082129000000000E+01      2.408218000000000E-01     -1.686172000000000E+02
4917000000.000000      6.889343000000000E-01      1.066211000000000E+01      2.377777000000000E-01     -1.687891000000000E+02
4918000000.000000      6.921692000000000E-01      1.045898000000000E+01      2.339249000000000E-01     -1.691641000000000E+02
4919000000.000000      6.884766000000000E-01      1.045068000000000E+01      2.304916000000000E-01     -1.692734000000000E+02
4920000000.000000      6.899414000000000E-01      1.024463000000000E+01      2.267303000000000E-01     -1.699453000000000E+02
4921000000.000000      6.912842000000000E-01      1.036279000000000E+01      2.234039000000000E-01     -1.697656000000000E+02
4922000000.000000      6.921082000000000E-01      1.019775000000000E+01      2.194443000000000E-01     -1.699766000000000E+02
4923000000.000000      6.915894000000000E-01      1.021826000000000E+01      2.156143000000000E-01     -1.700469000000000E+02
4924000000.000000      6.948242000000000E-01      1.029932000000000E+01      2.116928000000000E-01     -1.703438000000000E+02
4925000000.000000      6.920166000000000E-01      9.932617000000000E+00      2.086487000000000E-01     -1.702969000000000E+02
4926000000.000000      6.938782000000000E-01      9.700684000000000E+00      2.049942000000000E-01     -1.705859000000000E+02
4927000000.000000      6.933899000000000E-01      9.590820000000000E+00      2.005005000000000E-01     -1.707578000000000E+02
4928000000.000000      6.952820000000000E-01      9.684082000000000E+00      1.975327000000000E-01     -1.706875000000000E+02
4929000000.000000      6.940308000000000E-01      9.545410000000000E+00      1.930923000000000E-01     -1.707422000000000E+02
4930000000.000000      6.952515000000000E-01      9.310547000000000E+00      1.901779000000000E-01     -1.707969000000000E+02
4931000000.000000      6.954041000000000E-01      9.346191000000000E+00      1.864166000000000E-01     -1.706172000000000E+02
4932000000.000000      6.958008000000000E-01      9.305176000000000E+00      1.825790000000000E-01     -1.707344000000000E+02
4933000000.000000      6.968994000000000E-01      9.007324000000000E+00      1.778488000000000E-01     -1.704141000000000E+02
4934000000.000000      6.994324000000000E-01      9.011230000000000E+00      1.746521000000000E-01     -1.703438000000000E+02
4935000000.000000      6.990662000000000E-01      9.018066000000000E+00      1.711960000000000E-01     -1.702031000000000E+02
4936000000.000000      6.974182000000000E-01      8.845215000000000E+00      1.671524000000000E-01     -1.699531000000000E+02
4937000000.000000      6.991882000000000E-01      8.624023000000000E+00      1.633606000000000E-01     -1.697969000000000E+02
4938000000.000000      6.969299000000000E-01      8.757324000000000E+00      1.597137000000000E-01     -1.694531000000000E+02
4939000000.000000      7.000122000000000E-01      8.512695000000000E+00      1.564102000000000E-01     -1.691172000000000E+02
4940000000.000000      6.994324000000000E-01      8.404297000000000E+00      1.527557000000000E-01     -1.686953000000000E+02
4941000000.000000      6.997070000000000E-01      8.246582000000000E+00      1.494827000000000E-01     -1.681875000000000E+02
4942000000.000000      6.979065000000000E-01      8.286133000000000E+00      1.457977000000000E-01     -1.676406000000000E+02
4943000000.000000      7.005920000000000E-01      8.279297000000000E+00      1.427841000000000E-01     -1.668828000000000E+02
4944000000.000000      7.031250000000000E-01      7.976074000000000E+00      1.394882000000000E-01     -1.662500000000000E+02
4945000000.000000      7.008667000000000E-01      7.875732000000000E+00      1.361618000000000E-01     -1.656016000000000E+02
4946000000.000000      7.015381000000000E-01      7.918213000000000E+00      1.332550000000000E-01     -1.646875000000000E+02
4947000000.000000      7.042236000000000E-01      7.800293000000000E+00      1.297150000000000E-01     -1.638203000000000E+02
4948000000.000000      7.057190000000000E-01      7.665527000000000E+00      1.273346000000000E-01     -1.627891000000000E+02
4949000000.000000      7.029419000000000E-01      7.474609000000000E+00      1.244278000000000E-01     -1.615703000000000E+02
4950000000.000000      7.048950000000000E-01      7.662842000000000E+00      1.221848000000000E-01     -1.606406000000000E+02
4951000000.000000      7.061157000000000E-01      7.411621000000000E+00      1.187897000000000E-01     -1.593750000000000E+02
4952000000.000000      7.048950000000000E-01      7.209717000000000E+00      1.167259000000000E-01     -1.581016000000000E+02
4953000000.000000      7.050781000000000E-01      7.219238000000000E+00      1.154327000000000E-01     -1.566875000000000E+02
4954000000.000000      7.088928000000000E-01      7.031250000000000E+00      1.130333000000000E-01     -1.551563000000000E+02
