! Network Analyzer HP8722D
! Hewlett-Packard
! Data name: Linha & Wilkinson
! Saver's name: Rodrigo Anjos
! Comments: Teste da utilização de aquisição
continua pelo VNA HP8722D
! Time and date: 22/5/2025 13:04
!              Frequency                     S11                                                   S21                                                   S12                                                   S22
# HZ  S  MA R 50
4800000000.000000      6.510925000000000E-01      1.083496000000000E+01      4.722748000000000E-01     -9.276171000000000E+01
4801000000.000000      6.478577000000000E-01      1.086816000000000E+01      4.735870000000000E-01     -9.356249000000000E+01
4802000000.000000      6.478577000000000E-01      1.080762000000000E+01      4.750671000000000E-01     -9.428905000000000E+01
4803000000.000000      6.460876000000000E-01      1.090088000000000E+01      4.781952000000000E-01     -9.483202000000000E+01
4804000000.000000      6.446228000000000E-01      1.078027000000000E+01      4.789276000000000E-01     -9.568359000000000E+01
4805000000.000000      6.430664000000000E-01      1.069238000000000E+01      4.806824000000000E-01     -9.650780000000000E+01
4806000000.000000      6.419678000000000E-01      1.076074000000000E+01      4.817505000000000E-01     -9.722656000000000E+01
4807000000.000000      6.398010000000000E-01      1.084473000000000E+01      4.841766000000000E-01     -9.810156000000000E+01
4808000000.000000      6.369324000000000E-01      1.087500000000000E+01      4.839172000000000E-01     -9.870703000000000E+01
4809000000.000000      6.365051000000000E-01      1.094629000000000E+01      4.861908000000000E-01     -9.948437000000000E+01
4810000000.000000      6.339111000000000E-01      1.090771000000000E+01      4.877472000000000E-01     -1.001992000000000E+02
4811000000.000000      6.329956000000000E-01      1.101611000000000E+01      4.907990000000000E-01     -1.010625000000000E+02
4812000000.000000      6.341553000000000E-01      1.110010000000000E+01      4.911957000000000E-01     -1.017734000000000E+02
4813000000.000000      6.305237000000000E-01      1.102881000000000E+01      4.914398000000000E-01     -1.027109000000000E+02
4814000000.000000      6.266785000000000E-01      1.108887000000000E+01      4.933929000000000E-01     -1.033047000000000E+02
4815000000.000000      6.275940000000000E-01      1.117432000000000E+01      4.928284000000000E-01     -1.038750000000000E+02
4816000000.000000      6.257629000000000E-01      1.130469000000000E+01      4.941406000000000E-01     -1.048164000000000E+02
4817000000.000000      6.242065000000000E-01      1.152295000000000E+01      4.943542000000000E-01     -1.056289000000000E+02
4818000000.000000      6.231384000000000E-01      1.132520000000000E+01      4.937897000000000E-01     -1.063320000000000E+02
4819000000.000000      6.232605000000000E-01      1.157520000000000E+01      4.954681000000000E-01     -1.071016000000000E+02
4820000000.000000      6.209412000000000E-01      1.157227000000000E+01      4.974670000000000E-01     -1.078320000000000E+02
4821000000.000000      6.207275000000000E-01      1.172510000000000E+01      4.962006000000000E-01     -1.086953000000000E+02
4822000000.000000      6.184998000000000E-01      1.168359000000000E+01      4.968414000000000E-01     -1.092695000000000E+02
4823000000.000000      6.180725000000000E-01      1.177002000000000E+01      4.982452000000000E-01     -1.101836000000000E+02
4824000000.000000      6.155701000000000E-01      1.195020000000000E+01      4.979706000000000E-01     -1.109101000000000E+02
4825000000.000000      6.164246000000000E-01      1.208496000000000E+01      4.987183000000000E-01     -1.114726000000000E+02
4826000000.000000      6.172485000000000E-01      1.208740000000000E+01      4.983521000000000E-01     -1.124844000000000E+02
4827000000.000000      6.153564000000000E-01      1.219873000000000E+01      4.984283000000000E-01     -1.129297000000000E+02
4828000000.000000      6.149902000000000E-01      1.236914000000000E+01      4.998016000000000E-01     -1.139141000000000E+02
4829000000.000000      6.154785000000000E-01      1.270410000000000E+01      5.004578000000000E-01     -1.146328000000000E+02
4830000000.000000      6.140442000000000E-01      1.262451000000000E+01      4.998474000000000E-01     -1.153281000000000E+02
4831000000.000000      6.139832000000000E-01      1.265186000000000E+01      4.999542000000000E-01     -1.161328000000000E+02
4832000000.000000      6.134949000000000E-01      1.291992000000000E+01      4.993439000000000E-01     -1.167773000000000E+02
4833000000.000000      6.124268000000000E-01      1.291016000000000E+01      5.002441000000000E-01     -1.173984000000000E+02
4834000000.000000      6.152649000000000E-01      1.302979000000000E+01      4.990234000000000E-01     -1.183437000000000E+02
4835000000.000000      6.136780000000000E-01      1.316162000000000E+01      4.996338000000000E-01     -1.191640000000000E+02
4836000000.000000      6.151428000000000E-01      1.330713000000000E+01      4.982910000000000E-01     -1.198633000000000E+02
4837000000.000000      6.138306000000000E-01      1.358594000000000E+01      4.962616000000000E-01     -1.210195000000000E+02
4838000000.000000      6.138306000000000E-01      1.338672000000000E+01      4.979706000000000E-01     -1.214961000000000E+02
4839000000.000000      6.168823000000000E-01      1.376416000000000E+01      4.966583000000000E-01     -1.222305000000000E+02
4840000000.000000      6.159973000000000E-01      1.353369000000000E+01      4.977570000000000E-01     -1.230391000000000E+02
4841000000.000000      6.137085000000000E-01      1.391260000000000E+01      4.969788000000000E-01     -1.239297000000000E+02
4842000000.000000      6.154480000000000E-01      1.391943000000000E+01      4.950256000000000E-01     -1.245781000000000E+02
4843000000.000000      6.184082000000000E-01      1.393457000000000E+01      4.956055000000000E-01     -1.255312000000000E+02
4844000000.000000      6.178894000000000E-01      1.393994000000000E+01      4.935913000000000E-01     -1.263242000000000E+02
4845000000.000000      6.189880000000000E-01      1.421191000000000E+01      4.927673000000000E-01     -1.271992000000000E+02
4846000000.000000      6.197510000000000E-01      1.429590000000000E+01      4.920807000000000E-01     -1.280391000000000E+02
4847000000.000000      6.211853000000000E-01      1.443848000000000E+01      4.912720000000000E-01     -1.287734000000000E+02
4848000000.000000      6.189575000000000E-01      1.431104000000000E+01      4.874268000000000E-01     -1.296797000000000E+02
4849000000.000000      6.199036000000000E-01      1.439307000000000E+01      4.875183000000000E-01     -1.305156000000000E+02
4850000000.000000      6.219788000000000E-01      1.441943000000000E+01      4.848022000000000E-01     -1.313047000000000E+02
4851000000.000000      6.235352000000000E-01      1.464063000000000E+01      4.845428000000000E-01     -1.322031000000000E+02
4852000000.000000      6.240845000000000E-01      1.461572000000000E+01      4.825287000000000E-01     -1.330078000000000E+02
4853000000.000000      6.256714000000000E-01      1.472559000000000E+01      4.795990000000000E-01     -1.339844000000000E+02
4854000000.000000      6.274414000000000E-01      1.467773000000000E+01      4.772491000000000E-01     -1.348125000000000E+02
4855000000.000000      6.272888000000000E-01      1.483154000000000E+01      4.741974000000000E-01     -1.356094000000000E+02
4856000000.000000      6.286621000000000E-01      1.475586000000000E+01      4.730530000000000E-01     -1.364609000000000E+02
4857000000.000000      6.314392000000000E-01      1.486133000000000E+01      4.717407000000000E-01     -1.373672000000000E+02
4858000000.000000      6.292725000000000E-01      1.481494000000000E+01      4.671021000000000E-01     -1.382578000000000E+02
4859000000.000000      6.337280000000000E-01      1.481201000000000E+01      4.655457000000000E-01     -1.391562000000000E+02
4860000000.000000      6.343079000000000E-01      1.502637000000000E+01      4.619751000000000E-01     -1.397734000000000E+02
4861000000.000000      6.336060000000000E-01      1.495752000000000E+01      4.580231000000000E-01     -1.408750000000000E+02
4862000000.000000      6.359558000000000E-01      1.503174000000000E+01      4.563446000000000E-01     -1.415234000000000E+02
4863000000.000000      6.358337000000000E-01      1.504541000000000E+01      4.510956000000000E-01     -1.425625000000000E+02
4864000000.000000      6.379395000000000E-01      1.487939000000000E+01      4.486389000000000E-01     -1.430781000000000E+02
4865000000.000000      6.377563000000000E-01      1.489014000000000E+01      4.447174000000000E-01     -1.438984000000000E+02
4866000000.000000      6.395874000000000E-01      1.487646000000000E+01      4.411926000000000E-01     -1.446797000000000E+02
4867000000.000000      6.389771000000000E-01      1.491113000000000E+01      4.367676000000000E-01     -1.457031000000000E+02
4868000000.000000      6.427612000000000E-01      1.483008000000000E+01      4.339447000000000E-01     -1.464219000000000E+02
4869000000.000000      6.442261000000000E-01      1.478027000000000E+01      4.288940000000000E-01     -1.472265000000000E+02
4870000000.000000      6.458435000000000E-01      1.495068000000000E+01      4.257965000000000E-01     -1.477109000000000E+02
4871000000.000000      6.468506000000000E-01      1.491211000000000E+01      4.207153000000000E-01     -1.487187000000000E+02
4872000000.000000      6.479797000000000E-01      1.483008000000000E+01      4.171906000000000E-01     -1.493203000000000E+02
4873000000.000000      6.477051000000000E-01      1.486426000000000E+01      4.129181000000000E-01     -1.500469000000000E+02
4874000000.000000      6.494446000000000E-01      1.479541000000000E+01      4.066772000000000E-01     -1.507031000000000E+02
4875000000.000000      6.528625000000000E-01      1.450049000000000E+01      4.036407000000000E-01     -1.511875000000000E+02
4876000000.000000      6.523438000000000E-01      1.465137000000000E+01      3.994904000000000E-01     -1.520234000000000E+02
4877000000.000000      6.540833000000000E-01      1.458252000000000E+01      3.943481000000000E-01     -1.526250000000000E+02
4878000000.000000      6.544800000000000E-01      1.460742000000000E+01      3.901672000000000E-01     -1.532187000000000E+02
4879000000.000000      6.583252000000000E-01      1.456055000000000E+01      3.845673000000000E-01     -1.536875000000000E+02
4880000000.000000      6.608582000000000E-01      1.429443000000000E+01      3.807678000000000E-01     -1.543281000000000E+02
4881000000.000000      6.587524000000000E-01      1.444385000000000E+01      3.768311000000000E-01     -1.548984000000000E+02
4882000000.000000      6.612244000000000E-01      1.444385000000000E+01      3.724670000000000E-01     -1.554922000000000E+02
4883000000.000000      6.607971000000000E-01      1.430420000000000E+01      3.680267000000000E-01     -1.562422000000000E+02
4884000000.000000      6.630859000000000E-01      1.442480000000000E+01      3.632507000000000E-01     -1.565938000000000E+02
4885000000.000000      6.640625000000000E-01      1.422998000000000E+01      3.595428000000000E-01     -1.569766000000000E+02
4886000000.000000      6.647339000000000E-01      1.406348000000000E+01      3.562927000000000E-01     -1.576406000000000E+02
4887000000.000000      6.669922000000000E-01      1.414893000000000E+01      3.516846000000000E-01     -1.580234000000000E+02
4888000000.000000      6.679077000000000E-01      1.381104000000000E+01      3.479309000000000E-01     -1.587031000000000E+02
4889000000.000000      6.682739000000000E-01      1.384814000000000E+01      3.430634000000000E-01     -1.589062000000000E+02
4890000000.000000      6.657410000000000E-01      1.383008000000000E+01      3.377228000000000E-01     -1.596953000000000E+02
4891000000.000000      6.696777000000000E-01      1.365576000000000E+01      3.336182000000000E-01     -1.599062000000000E+02
4892000000.000000      6.698608000000000E-01      1.358691000000000E+01      3.292694000000000E-01     -1.600937000000000E+02
4893000000.000000      6.714478000000000E-01      1.352100000000000E+01      3.259888000000000E-01     -1.607891000000000E+02
4894000000.000000      6.727295000000000E-01      1.329346000000000E+01      3.216858000000000E-01     -1.611016000000000E+02
4895000000.000000      6.739197000000000E-01      1.327002000000000E+01      3.188782000000000E-01     -1.612813000000000E+02
4896000000.000000      6.736450000000000E-01      1.316016000000000E+01      3.149719000000000E-01     -1.618359000000000E+02
4897000000.000000      6.748962000000000E-01      1.319971000000000E+01      3.110962000000000E-01     -1.621953000000000E+02
4898000000.000000      6.763306000000000E-01      1.313135000000000E+01      3.073883000000000E-01     -1.624375000000000E+02
4899000000.000000      6.778259000000000E-01      1.300879000000000E+01      3.040161000000000E-01     -1.629922000000000E+02
4900000000.000000      6.794434000000000E-01      1.270264000000000E+01      2.998352000000000E-01     -1.632656000000000E+02
4901000000.000000      6.799316000000000E-01      1.293066000000000E+01      2.961426000000000E-01     -1.635547000000000E+02
4902000000.000000      6.791382000000000E-01      1.260498000000000E+01      2.935028000000000E-01     -1.638984000000000E+02
4903000000.000000      6.813049000000000E-01      1.258057000000000E+01      2.889709000000000E-01     -1.642344000000000E+02
4904000000.000000      6.809998000000000E-01      1.256836000000000E+01      2.854462000000000E-01     -1.645859000000000E+02
4905000000.000000      6.833496000000000E-01      1.243750000000000E+01      2.824097000000000E-01     -1.650312000000000E+02
4906000000.000000      6.812744000000000E-01      1.223730000000000E+01      2.785797000000000E-01     -1.649688000000000E+02
4907000000.000000      6.833801000000000E-01      1.204639000000000E+01      2.749329000000000E-01     -1.656328000000000E+02
4908000000.000000      6.862793000000000E-01      1.204883000000000E+01      2.719116000000000E-01     -1.659297000000000E+02
4909000000.000000      6.840820000000000E-01      1.193213000000000E+01      2.681122000000000E-01     -1.661641000000000E+02
4910000000.000000      6.849976000000000E-01      1.188965000000000E+01      2.646484000000000E-01     -1.665859000000000E+02
4911000000.000000      6.868591000000000E-01      1.178271000000000E+01      2.613678000000000E-01     -1.667187000000000E+02
4912000000.000000      6.865540000000000E-01      1.180859000000000E+01      2.579041000000000E-01     -1.671797000000000E+02
4913000000.000000      6.876526000000000E-01      1.164551000000000E+01      2.541199000000000E-01     -1.674375000000000E+02
4914000000.000000      6.881714000000000E-01      1.140479000000000E+01      2.508087000000000E-01     -1.676406000000000E+02
4915000000.000000      6.896362000000000E-01      1.148047000000000E+01      2.465363000000000E-01     -1.680703000000000E+02
4916000000.000000      6.899719000000000E-01      1.136377000000000E+01      2.438126000000000E-01     -1.685000000000000E+02
4917000000.000000      6.893005000000000E-01      1.113428000000000E+01      2.405319000000000E-01     -1.685703000000000E+02
4918000000.000000      6.889954000000000E-01      1.114697000000000E+01      2.361603000000000E-01     -1.689297000000000E+02
4919000000.000000      6.893616000000000E-01      1.111914000000000E+01      2.331696000000000E-01     -1.688984000000000E+02
4920000000.000000      6.926575000000000E-01      1.078125000000000E+01      2.287292000000000E-01     -1.694531000000000E+02
4921000000.000000      6.918640000000000E-01      1.097510000000000E+01      2.259064000000000E-01     -1.694531000000000E+02
4922000000.000000      6.931458000000000E-01      1.083496000000000E+01      2.217178000000000E-01     -1.695859000000000E+02
4923000000.000000      6.918945000000000E-01      1.069775000000000E+01      2.176743000000000E-01     -1.698672000000000E+02
4924000000.000000      6.929321000000000E-01      1.052344000000000E+01      2.144623000000000E-01     -1.702031000000000E+02
4925000000.000000      6.939392000000000E-01      1.033496000000000E+01      2.104797000000000E-01     -1.702344000000000E+02
4926000000.000000      6.949768000000000E-01      1.038574000000000E+01      2.074203000000000E-01     -1.705156000000000E+02
4927000000.000000      6.940308000000000E-01      1.017041000000000E+01      2.027588000000000E-01     -1.704297000000000E+02
4928000000.000000      6.960144000000000E-01      1.005615000000000E+01      1.998901000000000E-01     -1.705469000000000E+02
4929000000.000000      6.954041000000000E-01      9.883301000000000E+00      1.950150000000000E-01     -1.706094000000000E+02
4930000000.000000      6.961975000000000E-01      9.943848000000000E+00      1.921997000000000E-01     -1.709766000000000E+02
4931000000.000000      6.974487000000000E-01      9.859863000000000E+00      1.885681000000000E-01     -1.707969000000000E+02
4932000000.000000      6.971436000000000E-01      9.670410000000000E+00      1.840744000000000E-01     -1.708047000000000E+02
4933000000.000000      6.958008000000000E-01      9.433105000000000E+00      1.798401000000000E-01     -1.705000000000000E+02
4934000000.000000      6.971741000000000E-01      9.288574000000000E+00      1.763840000000000E-01     -1.706172000000000E+02
4935000000.000000      6.986694000000000E-01      9.512695000000000E+00      1.734238000000000E-01     -1.702188000000000E+02
4936000000.000000      6.976624000000000E-01      9.308105000000000E+00      1.690369000000000E-01     -1.701328000000000E+02
4937000000.000000      6.983032000000000E-01      9.149902000000000E+00      1.655579000000000E-01     -1.699609000000000E+02
4938000000.000000      6.991272000000000E-01      9.210449000000000E+00      1.621017000000000E-01     -1.696094000000000E+02
4939000000.000000      7.002258000000000E-01      9.117188000000000E+00      1.583710000000000E-01     -1.692500000000000E+02
4940000000.000000      7.006226000000000E-01      8.789063000000000E+00      1.544037000000000E-01     -1.692031000000000E+02
4941000000.000000      7.015076000000000E-01      8.654297000000000E+00      1.514511000000000E-01     -1.685859000000000E+02
4942000000.000000      7.002563000000000E-01      8.674805000000000E+00      1.476212000000000E-01     -1.680312000000000E+02
4943000000.000000      7.013550000000000E-01      8.708984000000000E+00      1.443939000000000E-01     -1.675156000000000E+02
4944000000.000000      7.020264000000000E-01      8.297363000000000E+00      1.407928000000000E-01     -1.669141000000000E+02
4945000000.000000      7.021179000000000E-01      8.512695000000000E+00      1.376343000000000E-01     -1.661484000000000E+02
4946000000.000000      7.045898000000000E-01      8.458008000000000E+00      1.345596000000000E-01     -1.652891000000000E+02
4947000000.000000      7.025146000000000E-01      8.221680000000000E+00      1.312637000000000E-01     -1.643906000000000E+02
4948000000.000000      7.048340000000000E-01      8.201172000000000E+00      1.285477000000000E-01     -1.635625000000000E+02
4949000000.000000      7.039185000000000E-01      8.051270000000000E+00      1.256485000000000E-01     -1.623672000000000E+02
4950000000.000000      7.057190000000000E-01      8.041992000000000E+00      1.228485000000000E-01     -1.612344000000000E+02
4951000000.000000      7.064209000000000E-01      7.910156000000000E+00      1.203384000000000E-01     -1.602813000000000E+02
4952000000.000000      7.055969000000000E-01      7.798828000000000E+00      1.175537000000000E-01     -1.590469000000000E+02
4953000000.000000      7.058105000000000E-01      7.566650000000000E+00      1.157379000000000E-01     -1.576875000000000E+02
4954000000.000000      7.064819000000000E-01      7.829102000000000E+00      1.134644000000000E-01     -1.561016000000000E+02
