! Network Analyzer HP8722D
! Hewlett-Packard
! Data name: Linha & Wilkinson
! Saver's name: Rodrigo Anjos
! Comments: Teste da utilização de aquisição
continua pelo VNA HP8722D
! Time and date: 22/5/2025 10:47
!              Frequency                     S11                                                   S21                                                   S12                                                   S22
# HZ  S  MA R 50
4800000000.000000      6.460571000000000E-01      1.053174000000000E+01      4.749298000000000E-01     -9.384375000000000E+01
4801000000.000000      6.459351000000000E-01      1.065088000000000E+01      4.763336000000000E-01     -9.420702000000000E+01
4802000000.000000      6.439819000000000E-01      1.036816000000000E+01      4.769745000000000E-01     -9.518358000000000E+01
4803000000.000000      6.416016000000000E-01      1.046143000000000E+01      4.823456000000000E-01     -9.593359000000000E+01
4804000000.000000      6.403809000000000E-01      1.034912000000000E+01      4.812469000000000E-01     -9.664063000000000E+01
4805000000.000000      6.393433000000000E-01      1.044922000000000E+01      4.840698000000000E-01     -9.746874000000000E+01
4806000000.000000      6.368713000000000E-01      1.060547000000000E+01      4.850922000000000E-01     -9.805468000000000E+01
4807000000.000000      6.351624000000000E-01      1.050830000000000E+01      4.859924000000000E-01     -9.903515000000000E+01
4808000000.000000      6.323853000000000E-01      1.062500000000000E+01      4.873657000000000E-01     -9.955078000000000E+01
4809000000.000000      6.324768000000000E-01      1.057666000000000E+01      4.882050000000000E-01     -1.004805000000000E+02
4810000000.000000      6.302185000000000E-01      1.066455000000000E+01      4.901581000000000E-01     -1.011562000000000E+02
4811000000.000000      6.297607000000000E-01      1.076904000000000E+01      4.913788000000000E-01     -1.021562000000000E+02
4812000000.000000      6.292114000000000E-01      1.096289000000000E+01      4.920349000000000E-01     -1.027930000000000E+02
4813000000.000000      6.265869000000000E-01      1.077344000000000E+01      4.933624000000000E-01     -1.036992000000000E+02
4814000000.000000      6.233826000000000E-01      1.077051000000000E+01      4.943085000000000E-01     -1.040664000000000E+02
4815000000.000000      6.240234000000000E-01      1.092041000000000E+01      4.955902000000000E-01     -1.049531000000000E+02
4816000000.000000      6.232300000000000E-01      1.114551000000000E+01      4.972076000000000E-01     -1.058437000000000E+02
4817000000.000000      6.209412000000000E-01      1.125684000000000E+01      4.960938000000000E-01     -1.065117000000000E+02
4818000000.000000      6.206055000000000E-01      1.101514000000000E+01      4.956207000000000E-01     -1.073242000000000E+02
4819000000.000000      6.188965000000000E-01      1.124170000000000E+01      4.983978000000000E-01     -1.080742000000000E+02
4820000000.000000      6.169739000000000E-01      1.159033000000000E+01      4.973297000000000E-01     -1.085938000000000E+02
4821000000.000000      6.174622000000000E-01      1.147363000000000E+01      4.976654000000000E-01     -1.096719000000000E+02
4822000000.000000      6.154480000000000E-01      1.148877000000000E+01      4.979248000000000E-01     -1.103398000000000E+02
4823000000.000000      6.163025000000000E-01      1.159033000000000E+01      4.989624000000000E-01     -1.110898000000000E+02
4824000000.000000      6.152954000000000E-01      1.191455000000000E+01      4.989777000000000E-01     -1.119453000000000E+02
4825000000.000000      6.141052000000000E-01      1.177832000000000E+01      4.987030000000000E-01     -1.125078000000000E+02
4826000000.000000      6.142883000000000E-01      1.184717000000000E+01      4.997101000000000E-01     -1.134336000000000E+02
4827000000.000000      6.131897000000000E-01      1.206982000000000E+01      4.995422000000000E-01     -1.139844000000000E+02
4828000000.000000      6.136780000000000E-01      1.219482000000000E+01      4.997864000000000E-01     -1.146992000000000E+02
4829000000.000000      6.108398000000000E-01      1.239648000000000E+01      5.011902000000000E-01     -1.156758000000000E+02
4830000000.000000      6.114807000000000E-01      1.241992000000000E+01      5.002747000000000E-01     -1.163828000000000E+02
4831000000.000000      6.136169000000000E-01      1.253125000000000E+01      5.001831000000000E-01     -1.172031000000000E+02
4832000000.000000      6.114197000000000E-01      1.258203000000000E+01      5.006104000000000E-01     -1.178555000000000E+02
4833000000.000000      6.115723000000000E-01      1.268750000000000E+01      5.005798000000000E-01     -1.185195000000000E+02
4834000000.000000      6.105652000000000E-01      1.268213000000000E+01      5.003662000000000E-01     -1.194414000000000E+02
4835000000.000000      6.118469000000000E-01      1.295654000000000E+01      4.998322000000000E-01     -1.201484000000000E+02
4836000000.000000      6.139832000000000E-01      1.311621000000000E+01      4.977570000000000E-01     -1.210156000000000E+02
4837000000.000000      6.118774000000000E-01      1.321240000000000E+01      4.969788000000000E-01     -1.219258000000000E+02
4838000000.000000      6.112061000000000E-01      1.319141000000000E+01      4.967041000000000E-01     -1.223906000000000E+02
4839000000.000000      6.157227000000000E-01      1.352100000000000E+01      4.980469000000000E-01     -1.231992000000000E+02
4840000000.000000      6.136475000000000E-01      1.358594000000000E+01      4.969177000000000E-01     -1.240781000000000E+02
4841000000.000000      6.141663000000000E-01      1.360645000000000E+01      4.960327000000000E-01     -1.248906000000000E+02
4842000000.000000      6.154785000000000E-01      1.372852000000000E+01      4.962616000000000E-01     -1.257773000000000E+02
4843000000.000000      6.174316000000000E-01      1.369141000000000E+01      4.949951000000000E-01     -1.267422000000000E+02
4844000000.000000      6.156616000000000E-01      1.364355000000000E+01      4.945068000000000E-01     -1.273867000000000E+02
4845000000.000000      6.184692000000000E-01      1.408838000000000E+01      4.916077000000000E-01     -1.282344000000000E+02
4846000000.000000      6.173401000000000E-01      1.393604000000000E+01      4.912567000000000E-01     -1.291094000000000E+02
4847000000.000000      6.194153000000000E-01      1.420215000000000E+01      4.907990000000000E-01     -1.296406000000000E+02
4848000000.000000      6.198730000000000E-01      1.403760000000000E+01      4.861145000000000E-01     -1.307031000000000E+02
4849000000.000000      6.203308000000000E-01      1.414307000000000E+01      4.861755000000000E-01     -1.315703000000000E+02
4850000000.000000      6.219788000000000E-01      1.427783000000000E+01      4.831238000000000E-01     -1.323359000000000E+02
4851000000.000000      6.208496000000000E-01      1.447021000000000E+01      4.846191000000000E-01     -1.332656000000000E+02
4852000000.000000      6.235352000000000E-01      1.436865000000000E+01      4.807129000000000E-01     -1.340859000000000E+02
4853000000.000000      6.227722000000000E-01      1.455273000000000E+01      4.769745000000000E-01     -1.348672000000000E+02
4854000000.000000      6.250305000000000E-01      1.449219000000000E+01      4.751892000000000E-01     -1.358828000000000E+02
4855000000.000000      6.258545000000000E-01      1.447852000000000E+01      4.734802000000000E-01     -1.365703000000000E+02
4856000000.000000      6.271057000000000E-01      1.448096000000000E+01      4.703217000000000E-01     -1.375703000000000E+02
4857000000.000000      6.302185000000000E-01      1.463770000000000E+01      4.694366000000000E-01     -1.380312000000000E+02
4858000000.000000      6.284180000000000E-01      1.451416000000000E+01      4.653625000000000E-01     -1.393203000000000E+02
4859000000.000000      6.306152000000000E-01      1.444531000000000E+01      4.641876000000000E-01     -1.400703000000000E+02
4860000000.000000      6.311646000000000E-01      1.476123000000000E+01      4.591675000000000E-01     -1.408437000000000E+02
4861000000.000000      6.316833000000000E-01      1.472852000000000E+01      4.564362000000000E-01     -1.416484000000000E+02
4862000000.000000      6.329346000000000E-01      1.477246000000000E+01      4.537048000000000E-01     -1.424141000000000E+02
4863000000.000000      6.365967000000000E-01      1.461572000000000E+01      4.484100000000000E-01     -1.433672000000000E+02
4864000000.000000      6.383667000000000E-01      1.462256000000000E+01      4.466095000000000E-01     -1.438125000000000E+02
4865000000.000000      6.372375000000000E-01      1.454150000000000E+01      4.421997000000000E-01     -1.447266000000000E+02
4866000000.000000      6.401062000000000E-01      1.470361000000000E+01      4.381256000000000E-01     -1.457734000000000E+02
4867000000.000000      6.409912000000000E-01      1.447266000000000E+01      4.337006000000000E-01     -1.464609000000000E+02
4868000000.000000      6.404724000000000E-01      1.471191000000000E+01      4.317169000000000E-01     -1.473203000000000E+02
4869000000.000000      6.454163000000000E-01      1.446729000000000E+01      4.267273000000000E-01     -1.478906000000000E+02
4870000000.000000      6.444092000000000E-01      1.457715000000000E+01      4.221344000000000E-01     -1.484141000000000E+02
4871000000.000000      6.463928000000000E-01      1.437549000000000E+01      4.174957000000000E-01     -1.493359000000000E+02
4872000000.000000      6.505737000000000E-01      1.446338000000000E+01      4.131317000000000E-01     -1.500625000000000E+02
4873000000.000000      6.482239000000000E-01      1.444824000000000E+01      4.091339000000000E-01     -1.506641000000000E+02
4874000000.000000      6.500854000000000E-01      1.439209000000000E+01      4.040527000000000E-01     -1.513672000000000E+02
4875000000.000000      6.497498000000000E-01      1.417920000000000E+01      3.998108000000000E-01     -1.520547000000000E+02
4876000000.000000      6.508484000000000E-01      1.434082000000000E+01      3.970032000000000E-01     -1.528437000000000E+02
4877000000.000000      6.523132000000000E-01      1.412695000000000E+01      3.912506000000000E-01     -1.534688000000000E+02
4878000000.000000      6.537781000000000E-01      1.432617000000000E+01      3.871307000000000E-01     -1.539687000000000E+02
4879000000.000000      6.567383000000000E-01      1.433398000000000E+01      3.820038000000000E-01     -1.544219000000000E+02
4880000000.000000      6.583557000000000E-01      1.404980000000000E+01      3.777466000000000E-01     -1.551719000000000E+02
4881000000.000000      6.562805000000000E-01      1.406934000000000E+01      3.737946000000000E-01     -1.554375000000000E+02
4882000000.000000      6.598511000000000E-01      1.404590000000000E+01      3.708954000000000E-01     -1.562266000000000E+02
4883000000.000000      6.594543000000000E-01      1.384668000000000E+01      3.647766000000000E-01     -1.568594000000000E+02
4884000000.000000      6.621399000000000E-01      1.390137000000000E+01      3.613739000000000E-01     -1.573203000000000E+02
4885000000.000000      6.636353000000000E-01      1.381494000000000E+01      3.567505000000000E-01     -1.577031000000000E+02
4886000000.000000      6.655273000000000E-01      1.381787000000000E+01      3.526459000000000E-01     -1.581406000000000E+02
4887000000.000000      6.648865000000000E-01      1.368066000000000E+01      3.490448000000000E-01     -1.585859000000000E+02
4888000000.000000      6.665955000000000E-01      1.360352000000000E+01      3.441010000000000E-01     -1.591953000000000E+02
4889000000.000000      6.677246000000000E-01      1.338916000000000E+01      3.397064000000000E-01     -1.594844000000000E+02
4890000000.000000      6.666565000000000E-01      1.327930000000000E+01      3.352661000000000E-01     -1.601641000000000E+02
4891000000.000000      6.672668000000000E-01      1.331787000000000E+01      3.311920000000000E-01     -1.604687000000000E+02
4892000000.000000      6.676025000000000E-01      1.331104000000000E+01      3.266449000000000E-01     -1.609375000000000E+02
4893000000.000000      6.735535000000000E-01      1.309277000000000E+01      3.224182000000000E-01     -1.613203000000000E+02
4894000000.000000      6.738281000000000E-01      1.307617000000000E+01      3.189240000000000E-01     -1.616562000000000E+02
4895000000.000000      6.741333000000000E-01      1.284668000000000E+01      3.169861000000000E-01     -1.620156000000000E+02
4896000000.000000      6.753540000000000E-01      1.275879000000000E+01      3.122559000000000E-01     -1.623047000000000E+02
4897000000.000000      6.736145000000000E-01      1.277148000000000E+01      3.077240000000000E-01     -1.627812000000000E+02
4898000000.000000      6.747437000000000E-01      1.281396000000000E+01      3.047180000000000E-01     -1.631094000000000E+02
4899000000.000000      6.764832000000000E-01      1.275342000000000E+01      3.005829000000000E-01     -1.635469000000000E+02
4900000000.000000      6.767883000000000E-01      1.252002000000000E+01      2.970428000000000E-01     -1.637266000000000E+02
4901000000.000000      6.784973000000000E-01      1.237744000000000E+01      2.939301000000000E-01     -1.639141000000000E+02
4902000000.000000      6.795654000000000E-01      1.232373000000000E+01      2.903748000000000E-01     -1.643359000000000E+02
4903000000.000000      6.810608000000000E-01      1.241699000000000E+01      2.861786000000000E-01     -1.646875000000000E+02
4904000000.000000      6.780701000000000E-01      1.212744000000000E+01      2.823639000000000E-01     -1.649531000000000E+02
4905000000.000000      6.820374000000000E-01      1.193115000000000E+01      2.795715000000000E-01     -1.655078000000000E+02
4906000000.000000      6.818237000000000E-01      1.180713000000000E+01      2.762299000000000E-01     -1.654922000000000E+02
4907000000.000000      6.838074000000000E-01      1.187207000000000E+01      2.723236000000000E-01     -1.658750000000000E+02
4908000000.000000      6.831360000000000E-01      1.154346000000000E+01      2.692719000000000E-01     -1.663594000000000E+02
4909000000.000000      6.834717000000000E-01      1.147900000000000E+01      2.654114000000000E-01     -1.665547000000000E+02
4910000000.000000      6.838684000000000E-01      1.144336000000000E+01      2.619629000000000E-01     -1.668828000000000E+02
4911000000.000000      6.858521000000000E-01      1.133643000000000E+01      2.585907000000000E-01     -1.671484000000000E+02
4912000000.000000      6.854553000000000E-01      1.149951000000000E+01      2.552032000000000E-01     -1.675547000000000E+02
4913000000.000000      6.878662000000000E-01      1.110840000000000E+01      2.517548000000000E-01     -1.676953000000000E+02
4914000000.000000      6.851501000000000E-01      1.101514000000000E+01      2.477875000000000E-01     -1.679531000000000E+02
4915000000.000000      6.880798000000000E-01      1.101904000000000E+01      2.445755000000000E-01     -1.683594000000000E+02
4916000000.000000      6.887207000000000E-01      1.077734000000000E+01      2.411194000000000E-01     -1.686641000000000E+02
4917000000.000000      6.871643000000000E-01      1.090625000000000E+01      2.371750000000000E-01     -1.686875000000000E+02
4918000000.000000      6.891785000000000E-01      1.070166000000000E+01      2.339630000000000E-01     -1.692734000000000E+02
4919000000.000000      6.872864000000000E-01      1.063574000000000E+01      2.309189000000000E-01     -1.692656000000000E+02
4920000000.000000      6.889648000000000E-01      1.049854000000000E+01      2.264862000000000E-01     -1.695313000000000E+02
4921000000.000000      6.910706000000000E-01      1.058789000000000E+01      2.233047000000000E-01     -1.697656000000000E+02
4922000000.000000      6.890564000000000E-01      1.035986000000000E+01      2.190704000000000E-01     -1.698672000000000E+02
4923000000.000000      6.895447000000000E-01      1.030908000000000E+01      2.150421000000000E-01     -1.700312000000000E+02
4924000000.000000      6.908875000000000E-01      1.024463000000000E+01      2.109909000000000E-01     -1.703984000000000E+02
4925000000.000000      6.914978000000000E-01      1.004004000000000E+01      2.082977000000000E-01     -1.703281000000000E+02
4926000000.000000      6.926270000000000E-01      1.005225000000000E+01      2.040863000000000E-01     -1.704297000000000E+02
4927000000.000000      6.936340000000000E-01      9.846191000000000E+00      2.005997000000000E-01     -1.706875000000000E+02
4928000000.000000      6.962280000000000E-01      9.682617000000000E+00      1.970444000000000E-01     -1.706484000000000E+02
4929000000.000000      6.937866000000000E-01      9.464355000000000E+00      1.931229000000000E-01     -1.706797000000000E+02
4930000000.000000      6.936340000000000E-01      9.571777000000000E+00      1.889877000000000E-01     -1.707422000000000E+02
4931000000.000000      6.928406000000000E-01      9.317383000000000E+00      1.859436000000000E-01     -1.707891000000000E+02
4932000000.000000      6.951294000000000E-01      9.327148000000000E+00      1.822739000000000E-01     -1.705391000000000E+02
4933000000.000000      6.965332000000000E-01      9.259766000000000E+00      1.774902000000000E-01     -1.702109000000000E+02
4934000000.000000      6.983032000000000E-01      9.066406000000000E+00      1.746521000000000E-01     -1.704609000000000E+02
4935000000.000000      6.992188000000000E-01      8.993652000000000E+00      1.708527000000000E-01     -1.700234000000000E+02
4936000000.000000      6.968689000000000E-01      8.806641000000000E+00      1.671066000000000E-01     -1.699375000000000E+02
4937000000.000000      6.973267000000000E-01      8.749023000000000E+00      1.636276000000000E-01     -1.697500000000000E+02
4938000000.000000      6.979370000000000E-01      8.772461000000000E+00      1.595688000000000E-01     -1.692656000000000E+02
4939000000.000000      6.979370000000000E-01      8.637695000000000E+00      1.566162000000000E-01     -1.688906000000000E+02
4940000000.000000      6.990967000000000E-01      8.555176000000000E+00      1.526337000000000E-01     -1.686172000000000E+02
4941000000.000000      7.003479000000000E-01      8.451172000000000E+00      1.495438000000000E-01     -1.677969000000000E+02
4942000000.000000      6.985168000000000E-01      8.265625000000000E+00      1.455841000000000E-01     -1.674531000000000E+02
4943000000.000000      7.001038000000000E-01      8.471680000000000E+00      1.426849000000000E-01     -1.668281000000000E+02
4944000000.000000      7.011719000000000E-01      8.326172000000000E+00      1.391373000000000E-01     -1.662734000000000E+02
4945000000.000000      7.005920000000000E-01      8.191406000000000E+00      1.357498000000000E-01     -1.653516000000000E+02
4946000000.000000      7.010193000000000E-01      7.923828000000000E+00      1.328201000000000E-01     -1.647500000000000E+02
4947000000.000000      7.030334000000000E-01      7.768555000000000E+00      1.296997000000000E-01     -1.636016000000000E+02
4948000000.000000      7.033691000000000E-01      7.704102000000000E+00      1.271820000000000E-01     -1.626172000000000E+02
4949000000.000000      7.015076000000000E-01      7.675293000000000E+00      1.245308000000000E-01     -1.612813000000000E+02
4950000000.000000      7.048035000000000E-01      7.774170000000000E+00      1.215897000000000E-01     -1.604687000000000E+02
4951000000.000000      7.052612000000000E-01      7.370361000000000E+00      1.192207000000000E-01     -1.592344000000000E+02
4952000000.000000      7.041931000000000E-01      7.401855000000000E+00      1.171722000000000E-01     -1.579844000000000E+02
4953000000.000000      7.045288000000000E-01      7.241211000000000E+00      1.152840000000000E-01     -1.562734000000000E+02
4954000000.000000      7.055664000000000E-01      7.230225000000000E+00      1.130371000000000E-01     -1.548906000000000E+02
