! Network Analyzer HP8722D
! Hewlett-Packard
! Data name: Linha & Wilkinson
! Saver's name: Rodrigo Anjos
! Comments: Teste da utilização de aquisição
continua pelo VNA HP8722D
! Time and date: 22/5/2025 08:04
!              Frequency                     S11                                                   S21                                                   S12                                                   S22
# HZ  S  MA R 50
4800000000.000000      6.481934000000000E-01      1.020605000000000E+01      4.750977000000000E-01     -9.376171000000000E+01
4801000000.000000      6.443481000000000E-01      1.020605000000000E+01      4.765625000000000E-01     -9.431250000000000E+01
4802000000.000000      6.426086000000000E-01      1.027881000000000E+01      4.784546000000000E-01     -9.519531000000000E+01
4803000000.000000      6.419983000000000E-01      1.023926000000000E+01      4.820862000000000E-01     -9.585938000000000E+01
4804000000.000000      6.397705000000000E-01      1.022510000000000E+01      4.814301000000000E-01     -9.676561000000000E+01
4805000000.000000      6.408997000000000E-01      1.021582000000000E+01      4.838867000000000E-01     -9.754686000000000E+01
4806000000.000000      6.367188000000000E-01      1.037891000000000E+01      4.851379000000000E-01     -9.828125000000000E+01
4807000000.000000      6.342468000000000E-01      1.031885000000000E+01      4.865723000000000E-01     -9.913671000000000E+01
4808000000.000000      6.307983000000000E-01      1.025977000000000E+01      4.870453000000000E-01     -9.975780000000000E+01
4809000000.000000      6.314697000000000E-01      1.038721000000000E+01      4.881439000000000E-01     -1.006875000000000E+02
4810000000.000000      6.295776000000000E-01      1.042969000000000E+01      4.898682000000000E-01     -1.012656000000000E+02
4811000000.000000      6.299438000000000E-01      1.035303000000000E+01      4.917908000000000E-01     -1.021562000000000E+02
4812000000.000000      6.293640000000000E-01      1.068262000000000E+01      4.923706000000000E-01     -1.028359000000000E+02
4813000000.000000      6.263123000000000E-01      1.048486000000000E+01      4.924774000000000E-01     -1.037109000000000E+02
4814000000.000000      6.250000000000000E-01      1.049854000000000E+01      4.952545000000000E-01     -1.043281000000000E+02
4815000000.000000      6.227417000000000E-01      1.066895000000000E+01      4.931030000000000E-01     -1.051055000000000E+02
4816000000.000000      6.224365000000000E-01      1.073047000000000E+01      4.957581000000000E-01     -1.058984000000000E+02
4817000000.000000      6.221313000000000E-01      1.100000000000000E+01      4.948730000000000E-01     -1.066797000000000E+02
4818000000.000000      6.208801000000000E-01      1.094775000000000E+01      4.969482000000000E-01     -1.073438000000000E+02
4819000000.000000      6.197205000000000E-01      1.095605000000000E+01      4.964905000000000E-01     -1.080547000000000E+02
4820000000.000000      6.164856000000000E-01      1.116455000000000E+01      4.997253000000000E-01     -1.086875000000000E+02
4821000000.000000      6.183777000000000E-01      1.112207000000000E+01      4.989777000000000E-01     -1.097109000000000E+02
4822000000.000000      6.148682000000000E-01      1.118262000000000E+01      4.985657000000000E-01     -1.103672000000000E+02
4823000000.000000      6.150208000000000E-01      1.128662000000000E+01      4.989166000000000E-01     -1.111836000000000E+02
4824000000.000000      6.166687000000000E-01      1.152295000000000E+01      4.977570000000000E-01     -1.119258000000000E+02
4825000000.000000      6.149597000000000E-01      1.162207000000000E+01      4.991455000000000E-01     -1.125039000000000E+02
4826000000.000000      6.130676000000000E-01      1.162061000000000E+01      5.000000000000000E-01     -1.135742000000000E+02
4827000000.000000      6.145935000000000E-01      1.166162000000000E+01      4.996338000000000E-01     -1.141445000000000E+02
4828000000.000000      6.133118000000000E-01      1.187451000000000E+01      5.008545000000000E-01     -1.147578000000000E+02
4829000000.000000      6.114197000000000E-01      1.202686000000000E+01      4.997559000000000E-01     -1.155078000000000E+02
4830000000.000000      6.122437000000000E-01      1.203125000000000E+01      4.995270000000000E-01     -1.163281000000000E+02
4831000000.000000      6.111755000000000E-01      1.225098000000000E+01      5.002747000000000E-01     -1.171719000000000E+02
4832000000.000000      6.117249000000000E-01      1.233203000000000E+01      4.984589000000000E-01     -1.176641000000000E+02
4833000000.000000      6.101685000000000E-01      1.237158000000000E+01      4.997253000000000E-01     -1.184570000000000E+02
4834000000.000000      6.130066000000000E-01      1.256934000000000E+01      4.991913000000000E-01     -1.193281000000000E+02
4835000000.000000      6.123047000000000E-01      1.259033000000000E+01      4.985352000000000E-01     -1.201953000000000E+02
4836000000.000000      6.132507000000000E-01      1.280420000000000E+01      4.984589000000000E-01     -1.210000000000000E+02
4837000000.000000      6.118774000000000E-01      1.301465000000000E+01      4.975281000000000E-01     -1.218867000000000E+02
4838000000.000000      6.110229000000000E-01      1.283984000000000E+01      4.985504000000000E-01     -1.224180000000000E+02
4839000000.000000      6.138916000000000E-01      1.320410000000000E+01      4.967194000000000E-01     -1.231406000000000E+02
4840000000.000000      6.142273000000000E-01      1.307910000000000E+01      4.968109000000000E-01     -1.239726000000000E+02
4841000000.000000      6.144104000000000E-01      1.332080000000000E+01      4.963989000000000E-01     -1.248750000000000E+02
4842000000.000000      6.159363000000000E-01      1.327832000000000E+01      4.952545000000000E-01     -1.257305000000000E+02
4843000000.000000      6.163940000000000E-01      1.321631000000000E+01      4.953766000000000E-01     -1.265430000000000E+02
4844000000.000000      6.142883000000000E-01      1.342529000000000E+01      4.941864000000000E-01     -1.274180000000000E+02
4845000000.000000      6.170959000000000E-01      1.355811000000000E+01      4.926910000000000E-01     -1.281484000000000E+02
4846000000.000000      6.182251000000000E-01      1.388672000000000E+01      4.907837000000000E-01     -1.292031000000000E+02
4847000000.000000      6.199036000000000E-01      1.384814000000000E+01      4.891052000000000E-01     -1.298984000000000E+02
4848000000.000000      6.187134000000000E-01      1.380957000000000E+01      4.870148000000000E-01     -1.307812000000000E+02
4849000000.000000      6.199646000000000E-01      1.401416000000000E+01      4.868927000000000E-01     -1.315312000000000E+02
4850000000.000000      6.193237000000000E-01      1.396045000000000E+01      4.833832000000000E-01     -1.324687000000000E+02
4851000000.000000      6.220398000000000E-01      1.416650000000000E+01      4.844055000000000E-01     -1.333984000000000E+02
4852000000.000000      6.231689000000000E-01      1.413525000000000E+01      4.803467000000000E-01     -1.341094000000000E+02
4853000000.000000      6.249390000000000E-01      1.401416000000000E+01      4.787903000000000E-01     -1.348203000000000E+02
4854000000.000000      6.271362000000000E-01      1.411572000000000E+01      4.761353000000000E-01     -1.359141000000000E+02
4855000000.000000      6.252441000000000E-01      1.407617000000000E+01      4.743042000000000E-01     -1.367734000000000E+02
4856000000.000000      6.255493000000000E-01      1.411182000000000E+01      4.706268000000000E-01     -1.373750000000000E+02
4857000000.000000      6.275940000000000E-01      1.445215000000000E+01      4.694977000000000E-01     -1.382656000000000E+02
4858000000.000000      6.287231000000000E-01      1.429980000000000E+01      4.659424000000000E-01     -1.392031000000000E+02
4859000000.000000      6.305542000000000E-01      1.414063000000000E+01      4.641418000000000E-01     -1.400781000000000E+02
4860000000.000000      6.333008000000000E-01      1.442773000000000E+01      4.609833000000000E-01     -1.408672000000000E+02
4861000000.000000      6.326294000000000E-01      1.443457000000000E+01      4.564362000000000E-01     -1.416484000000000E+02
4862000000.000000      6.328125000000000E-01      1.450439000000000E+01      4.536743000000000E-01     -1.425313000000000E+02
4863000000.000000      6.334229000000000E-01      1.448242000000000E+01      4.488068000000000E-01     -1.435078000000000E+02
4864000000.000000      6.379089000000000E-01      1.448242000000000E+01      4.464417000000000E-01     -1.442031000000000E+02
4865000000.000000      6.377258000000000E-01      1.418994000000000E+01      4.426575000000000E-01     -1.446563000000000E+02
4866000000.000000      6.405640000000000E-01      1.423535000000000E+01      4.376678000000000E-01     -1.458047000000000E+02
4867000000.000000      6.387634000000000E-01      1.437793000000000E+01      4.338837000000000E-01     -1.465391000000000E+02
4868000000.000000      6.411743000000000E-01      1.436572000000000E+01      4.317627000000000E-01     -1.472969000000000E+02
4869000000.000000      6.423035000000000E-01      1.420801000000000E+01      4.278564000000000E-01     -1.480313000000000E+02
4870000000.000000      6.454773000000000E-01      1.428467000000000E+01      4.224854000000000E-01     -1.486641000000000E+02
4871000000.000000      6.437988000000000E-01      1.427490000000000E+01      4.181824000000000E-01     -1.494219000000000E+02
4872000000.000000      6.473694000000000E-01      1.422412000000000E+01      4.137878000000000E-01     -1.498984000000000E+02
4873000000.000000      6.499023000000000E-01      1.418701000000000E+01      4.095917000000000E-01     -1.508281000000000E+02
4874000000.000000      6.487122000000000E-01      1.429443000000000E+01      4.050446000000000E-01     -1.514688000000000E+02
4875000000.000000      6.516113000000000E-01      1.400342000000000E+01      4.008331000000000E-01     -1.520000000000000E+02
4876000000.000000      6.526794000000000E-01      1.416650000000000E+01      3.966827000000000E-01     -1.530156000000000E+02
4877000000.000000      6.524048000000000E-01      1.387842000000000E+01      3.918304000000000E-01     -1.534922000000000E+02
4878000000.000000      6.530762000000000E-01      1.389893000000000E+01      3.888092000000000E-01     -1.538672000000000E+02
4879000000.000000      6.564331000000000E-01      1.384668000000000E+01      3.831940000000000E-01     -1.545469000000000E+02
4880000000.000000      6.566772000000000E-01      1.376416000000000E+01      3.790131000000000E-01     -1.552344000000000E+02
4881000000.000000      6.585693000000000E-01      1.378906000000000E+01      3.747406000000000E-01     -1.555547000000000E+02
4882000000.000000      6.587830000000000E-01      1.377686000000000E+01      3.714905000000000E-01     -1.564141000000000E+02
4883000000.000000      6.610413000000000E-01      1.354590000000000E+01      3.651276000000000E-01     -1.568750000000000E+02
4884000000.000000      6.638184000000000E-01      1.371631000000000E+01      3.615875000000000E-01     -1.575234000000000E+02
4885000000.000000      6.625061000000000E-01      1.376025000000000E+01      3.565521000000000E-01     -1.575938000000000E+02
4886000000.000000      6.660461000000000E-01      1.356104000000000E+01      3.528748000000000E-01     -1.578516000000000E+02
4887000000.000000      6.654968000000000E-01      1.350732000000000E+01      3.491211000000000E-01     -1.587500000000000E+02
4888000000.000000      6.670227000000000E-01      1.330127000000000E+01      3.452301000000000E-01     -1.593984000000000E+02
4889000000.000000      6.687317000000000E-01      1.330420000000000E+01      3.397827000000000E-01     -1.593516000000000E+02
4890000000.000000      6.665955000000000E-01      1.310791000000000E+01      3.355255000000000E-01     -1.602187000000000E+02
4891000000.000000      6.685791000000000E-01      1.302246000000000E+01      3.315277000000000E-01     -1.605000000000000E+02
4892000000.000000      6.703186000000000E-01      1.287012000000000E+01      3.273315000000000E-01     -1.608516000000000E+02
4893000000.000000      6.710510000000000E-01      1.280176000000000E+01      3.241425000000000E-01     -1.614219000000000E+02
4894000000.000000      6.726074000000000E-01      1.276172000000000E+01      3.192902000000000E-01     -1.617656000000000E+02
4895000000.000000      6.734924000000000E-01      1.252979000000000E+01      3.169708000000000E-01     -1.621016000000000E+02
4896000000.000000      6.745300000000000E-01      1.256836000000000E+01      3.128204000000000E-01     -1.622969000000000E+02
4897000000.000000      6.736145000000000E-01      1.256934000000000E+01      3.086853000000000E-01     -1.628672000000000E+02
4898000000.000000      6.759644000000000E-01      1.254199000000000E+01      3.052368000000000E-01     -1.630312000000000E+02
4899000000.000000      6.755371000000000E-01      1.234570000000000E+01      3.016510000000000E-01     -1.635703000000000E+02
4900000000.000000      6.780701000000000E-01      1.211084000000000E+01      2.983246000000000E-01     -1.638515000000000E+02
4901000000.000000      6.784363000000000E-01      1.208496000000000E+01      2.942810000000000E-01     -1.640625000000000E+02
4902000000.000000      6.804810000000000E-01      1.207227000000000E+01      2.912750000000000E-01     -1.644297000000000E+02
4903000000.000000      6.817322000000000E-01      1.199707000000000E+01      2.867126000000000E-01     -1.647109000000000E+02
4904000000.000000      6.791382000000000E-01      1.192285000000000E+01      2.833710000000000E-01     -1.652031000000000E+02
4905000000.000000      6.836853000000000E-01      1.156299000000000E+01      2.798920000000000E-01     -1.654140000000000E+02
4906000000.000000      6.833496000000000E-01      1.160254000000000E+01      2.762299000000000E-01     -1.656016000000000E+02
4907000000.000000      6.827393000000000E-01      1.158203000000000E+01      2.731628000000000E-01     -1.661250000000000E+02
4908000000.000000      6.852417000000000E-01      1.145850000000000E+01      2.696075000000000E-01     -1.664375000000000E+02
4909000000.000000      6.834412000000000E-01      1.130615000000000E+01      2.655334000000000E-01     -1.667969000000000E+02
4910000000.000000      6.853943000000000E-01      1.130078000000000E+01      2.624969000000000E-01     -1.669765000000000E+02
4911000000.000000      6.850586000000000E-01      1.133887000000000E+01      2.588501000000000E-01     -1.672344000000000E+02
4912000000.000000      6.849670000000000E-01      1.102588000000000E+01      2.557526000000000E-01     -1.675547000000000E+02
4913000000.000000      6.853027000000000E-01      1.099707000000000E+01      2.519379000000000E-01     -1.679141000000000E+02
4914000000.000000      6.886597000000000E-01      1.059326000000000E+01      2.483673000000000E-01     -1.680312000000000E+02
4915000000.000000      6.857300000000000E-01      1.081055000000000E+01      2.442703000000000E-01     -1.685859000000000E+02
4916000000.000000      6.903687000000000E-01      1.059863000000000E+01      2.414398000000000E-01     -1.687344000000000E+02
4917000000.000000      6.898804000000000E-01      1.054395000000000E+01      2.380829000000000E-01     -1.690156000000000E+02
4918000000.000000      6.910706000000000E-01      1.046582000000000E+01      2.337036000000000E-01     -1.693906000000000E+02
4919000000.000000      6.896667000000000E-01      1.046973000000000E+01      2.306976000000000E-01     -1.691562000000000E+02
4920000000.000000      6.911926000000000E-01      1.023096000000000E+01      2.260208000000000E-01     -1.698047000000000E+02
4921000000.000000      6.896973000000000E-01      1.016748000000000E+01      2.237091000000000E-01     -1.697031000000000E+02
4922000000.000000      6.890564000000000E-01      9.971191000000000E+00      2.194443000000000E-01     -1.698594000000000E+02
4923000000.000000      6.924133000000000E-01      1.010840000000000E+01      2.152252000000000E-01     -1.700547000000000E+02
4924000000.000000      6.931458000000000E-01      9.842285000000000E+00      2.118530000000000E-01     -1.705000000000000E+02
4925000000.000000      6.918335000000000E-01      9.828613000000000E+00      2.080002000000000E-01     -1.704062000000000E+02
4926000000.000000      6.920776000000000E-01      9.706055000000000E+00      2.052155000000000E-01     -1.706016000000000E+02
4927000000.000000      6.950073000000000E-01      9.516602000000000E+00      2.007904000000000E-01     -1.707578000000000E+02
4928000000.000000      6.947937000000000E-01      9.479492000000000E+00      1.971130000000000E-01     -1.708828000000000E+02
4929000000.000000      6.958923000000000E-01      9.365723000000000E+00      1.927719000000000E-01     -1.707578000000000E+02
4930000000.000000      6.959839000000000E-01      9.343750000000000E+00      1.897125000000000E-01     -1.709063000000000E+02
4931000000.000000      6.956177000000000E-01      9.189941000000000E+00      1.867447000000000E-01     -1.708125000000000E+02
4932000000.000000      6.965027000000000E-01      9.014160000000000E+00      1.822968000000000E-01     -1.707422000000000E+02
4933000000.000000      6.964417000000000E-01      8.971680000000000E+00      1.775131000000000E-01     -1.703438000000000E+02
4934000000.000000      6.981812000000000E-01      8.776367000000000E+00      1.745682000000000E-01     -1.706328000000000E+02
4935000000.000000      6.996460000000000E-01      8.867188000000000E+00      1.712112000000000E-01     -1.702656000000000E+02
4936000000.000000      6.950073000000000E-01      8.555176000000000E+00      1.672974000000000E-01     -1.700312000000000E+02
4937000000.000000      6.978760000000000E-01      8.552734000000000E+00      1.634598000000000E-01     -1.698125000000000E+02
4938000000.000000      6.984253000000000E-01      8.530762000000000E+00      1.601868000000000E-01     -1.695000000000000E+02
4939000000.000000      7.012024000000000E-01      8.505859000000000E+00      1.563110000000000E-01     -1.689687000000000E+02
4940000000.000000      6.994019000000000E-01      8.416504000000000E+00      1.529617000000000E-01     -1.688125000000000E+02
4941000000.000000      6.991272000000000E-01      8.155762000000000E+00      1.498642000000000E-01     -1.680547000000000E+02
4942000000.000000      6.990967000000000E-01      8.254395000000000E+00      1.459427000000000E-01     -1.677344000000000E+02
4943000000.000000      7.009277000000000E-01      8.114746000000000E+00      1.425629000000000E-01     -1.670703000000000E+02
4944000000.000000      7.021179000000000E-01      7.996582000000000E+00      1.392822000000000E-01     -1.663828000000000E+02
4945000000.000000      7.030334000000000E-01      7.778320000000000E+00      1.362839000000000E-01     -1.655703000000000E+02
4946000000.000000      7.044373000000000E-01      7.727295000000000E+00      1.329117000000000E-01     -1.648594000000000E+02
4947000000.000000      7.016907000000000E-01      7.726074000000000E+00      1.302490000000000E-01     -1.637422000000000E+02
4948000000.000000      7.030029000000000E-01      7.708252000000000E+00      1.273804000000000E-01     -1.627578000000000E+02
4949000000.000000      7.022400000000000E-01      7.304443000000000E+00      1.245461000000000E-01     -1.615156000000000E+02
4950000000.000000      7.057190000000000E-01      7.388184000000000E+00      1.220627000000000E-01     -1.607344000000000E+02
4951000000.000000      7.050476000000000E-01      7.331787000000000E+00      1.198349000000000E-01     -1.594531000000000E+02
4952000000.000000      7.060242000000000E-01      7.042236000000000E+00      1.166840000000000E-01     -1.582656000000000E+02
4953000000.000000      7.052612000000000E-01      6.950195000000000E+00      1.151276000000000E-01     -1.567656000000000E+02
4954000000.000000      7.048340000000000E-01      6.995361000000000E+00      1.132622000000000E-01     -1.552734000000000E+02
