! Network Analyzer HP8722D
! Hewlett-Packard
! Data name: Linha & Wilkinson
! Saver's name: Rodrigo Anjos
! Comments: Teste da utilização de aquisição
continua pelo VNA HP8722D
! Time and date: 22/5/2025 13:48
!              Frequency                     S11                                                   S21                                                   S12                                                   S22
# HZ  S  MA R 50
4800000000.000000      6.495667000000000E-01      1.102295000000000E+01      4.725494000000000E-01     -9.310547000000000E+01
4801000000.000000      6.469421000000000E-01      1.096680000000000E+01      4.741364000000000E-01     -9.379686000000000E+01
4802000000.000000      6.450500000000000E-01      1.083643000000000E+01      4.750977000000000E-01     -9.447657000000000E+01
4803000000.000000      6.442871000000000E-01      1.087891000000000E+01      4.788818000000000E-01     -9.520311000000000E+01
4804000000.000000      6.429138000000000E-01      1.101074000000000E+01      4.795532000000000E-01     -9.598047000000000E+01
4805000000.000000      6.430969000000000E-01      1.073633000000000E+01      4.805450000000000E-01     -9.679688000000000E+01
4806000000.000000      6.389771000000000E-01      1.087061000000000E+01      4.821625000000000E-01     -9.752342000000000E+01
4807000000.000000      6.378174000000000E-01      1.090625000000000E+01      4.853516000000000E-01     -9.842186000000000E+01
4808000000.000000      6.351318000000000E-01      1.096533000000000E+01      4.854279000000000E-01     -9.908983000000000E+01
4809000000.000000      6.343384000000000E-01      1.087744000000000E+01      4.863586000000000E-01     -9.996094000000000E+01
4810000000.000000      6.327820000000000E-01      1.094922000000000E+01      4.884186000000000E-01     -1.004688000000000E+02
4811000000.000000      6.310730000000000E-01      1.110693000000000E+01      4.891663000000000E-01     -1.015273000000000E+02
4812000000.000000      6.326904000000000E-01      1.121680000000000E+01      4.890594000000000E-01     -1.020742000000000E+02
4813000000.000000      6.299744000000000E-01      1.114941000000000E+01      4.919586000000000E-01     -1.028516000000000E+02
4814000000.000000      6.267395000000000E-01      1.103125000000000E+01      4.919739000000000E-01     -1.035234000000000E+02
4815000000.000000      6.237793000000000E-01      1.138721000000000E+01      4.924164000000000E-01     -1.046094000000000E+02
4816000000.000000      6.254883000000000E-01      1.128271000000000E+01      4.944611000000000E-01     -1.050117000000000E+02
4817000000.000000      6.239319000000000E-01      1.151611000000000E+01      4.937592000000000E-01     -1.058047000000000E+02
4818000000.000000      6.232910000000000E-01      1.131592000000000E+01      4.962769000000000E-01     -1.067773000000000E+02
4819000000.000000      6.217651000000000E-01      1.152832000000000E+01      4.954681000000000E-01     -1.074336000000000E+02
4820000000.000000      6.193848000000000E-01      1.166455000000000E+01      4.965668000000000E-01     -1.080156000000000E+02
4821000000.000000      6.220703000000000E-01      1.171680000000000E+01      4.981384000000000E-01     -1.091406000000000E+02
4822000000.000000      6.198730000000000E-01      1.183203000000000E+01      4.969330000000000E-01     -1.095586000000000E+02
4823000000.000000      6.190796000000000E-01      1.187891000000000E+01      4.981232000000000E-01     -1.105508000000000E+02
4824000000.000000      6.169128000000000E-01      1.196924000000000E+01      4.965973000000000E-01     -1.112734000000000E+02
4825000000.000000      6.174927000000000E-01      1.212061000000000E+01      4.991913000000000E-01     -1.119062000000000E+02
4826000000.000000      6.149597000000000E-01      1.208057000000000E+01      4.989319000000000E-01     -1.128359000000000E+02
4827000000.000000      6.157532000000000E-01      1.239355000000000E+01      4.985199000000000E-01     -1.133125000000000E+02
4828000000.000000      6.138306000000000E-01      1.253809000000000E+01      4.992828000000000E-01     -1.141680000000000E+02
4829000000.000000      6.145630000000000E-01      1.261621000000000E+01      4.982147000000000E-01     -1.149609000000000E+02
4830000000.000000      6.144409000000000E-01      1.262451000000000E+01      5.005188000000000E-01     -1.157070000000000E+02
4831000000.000000      6.148071000000000E-01      1.276318000000000E+01      4.997711000000000E-01     -1.164922000000000E+02
4832000000.000000      6.147156000000000E-01      1.309277000000000E+01      4.988403000000000E-01     -1.171055000000000E+02
4833000000.000000      6.120300000000000E-01      1.298291000000000E+01      4.974670000000000E-01     -1.179180000000000E+02
4834000000.000000      6.140442000000000E-01      1.299805000000000E+01      4.987488000000000E-01     -1.187617000000000E+02
4835000000.000000      6.140747000000000E-01      1.320264000000000E+01      5.000000000000000E-01     -1.195976000000000E+02
4836000000.000000      6.152039000000000E-01      1.329736000000000E+01      4.969482000000000E-01     -1.203437000000000E+02
4837000000.000000      6.141357000000000E-01      1.341113000000000E+01      4.968872000000000E-01     -1.210976000000000E+02
4838000000.000000      6.128845000000000E-01      1.354736000000000E+01      4.972229000000000E-01     -1.216992000000000E+02
4839000000.000000      6.169434000000000E-01      1.371631000000000E+01      4.963074000000000E-01     -1.226445000000000E+02
4840000000.000000      6.168213000000000E-01      1.372461000000000E+01      4.969788000000000E-01     -1.235078000000000E+02
4841000000.000000      6.166687000000000E-01      1.391260000000000E+01      4.960938000000000E-01     -1.242578000000000E+02
4842000000.000000      6.164551000000000E-01      1.403467000000000E+01      4.948425000000000E-01     -1.249219000000000E+02
4843000000.000000      6.196899000000000E-01      1.396191000000000E+01      4.962921000000000E-01     -1.259531000000000E+02
4844000000.000000      6.195679000000000E-01      1.391113000000000E+01      4.933014000000000E-01     -1.267383000000000E+02
4845000000.000000      6.169739000000000E-01      1.442188000000000E+01      4.922485000000000E-01     -1.275703000000000E+02
4846000000.000000      6.203308000000000E-01      1.421631000000000E+01      4.905243000000000E-01     -1.283359000000000E+02
4847000000.000000      6.206360000000000E-01      1.434814000000000E+01      4.888458000000000E-01     -1.290313000000000E+02
4848000000.000000      6.202698000000000E-01      1.437402000000000E+01      4.873352000000000E-01     -1.300078000000000E+02
4849000000.000000      6.226196000000000E-01      1.455371000000000E+01      4.865112000000000E-01     -1.307969000000000E+02
4850000000.000000      6.225281000000000E-01      1.454980000000000E+01      4.845428000000000E-01     -1.317578000000000E+02
4851000000.000000      6.217651000000000E-01      1.474219000000000E+01      4.838867000000000E-01     -1.325703000000000E+02
4852000000.000000      6.244202000000000E-01      1.466113000000000E+01      4.807587000000000E-01     -1.334766000000000E+02
4853000000.000000      6.253052000000000E-01      1.479004000000000E+01      4.776611000000000E-01     -1.342187000000000E+02
4854000000.000000      6.261902000000000E-01      1.468164000000000E+01      4.753571000000000E-01     -1.351094000000000E+02
4855000000.000000      6.284485000000000E-01      1.485059000000000E+01      4.737854000000000E-01     -1.360469000000000E+02
4856000000.000000      6.284790000000000E-01      1.483838000000000E+01      4.714203000000000E-01     -1.367812000000000E+02
4857000000.000000      6.294861000000000E-01      1.491943000000000E+01      4.704895000000000E-01     -1.375469000000000E+02
4858000000.000000      6.306458000000000E-01      1.493164000000000E+01      4.659576000000000E-01     -1.385000000000000E+02
4859000000.000000      6.308899000000000E-01      1.492871000000000E+01      4.642487000000000E-01     -1.393594000000000E+02
4860000000.000000      6.327515000000000E-01      1.493018000000000E+01      4.603424000000000E-01     -1.401562000000000E+02
4861000000.000000      6.341858000000000E-01      1.486426000000000E+01      4.561310000000000E-01     -1.410078000000000E+02
4862000000.000000      6.361389000000000E-01      1.496729000000000E+01      4.543304000000000E-01     -1.418125000000000E+02
4863000000.000000      6.360474000000000E-01      1.494141000000000E+01      4.501190000000000E-01     -1.425234000000000E+02
4864000000.000000      6.388855000000000E-01      1.507178000000000E+01      4.461212000000000E-01     -1.433984000000000E+02
4865000000.000000      6.391602000000000E-01      1.496582000000000E+01      4.428711000000000E-01     -1.442500000000000E+02
4866000000.000000      6.405334000000000E-01      1.491650000000000E+01      4.377136000000000E-01     -1.449453000000000E+02
4867000000.000000      6.412659000000000E-01      1.502100000000000E+01      4.349060000000000E-01     -1.460234000000000E+02
4868000000.000000      6.424561000000000E-01      1.470068000000000E+01      4.315643000000000E-01     -1.466328000000000E+02
4869000000.000000      6.428528000000000E-01      1.491357000000000E+01      4.263153000000000E-01     -1.472734000000000E+02
4870000000.000000      6.454163000000000E-01      1.502783000000000E+01      4.227905000000000E-01     -1.480469000000000E+02
4871000000.000000      6.457825000000000E-01      1.478857000000000E+01      4.187775000000000E-01     -1.489375000000000E+02
4872000000.000000      6.478271000000000E-01      1.488086000000000E+01      4.142609000000000E-01     -1.494375000000000E+02
4873000000.000000      6.470032000000000E-01      1.485889000000000E+01      4.089508000000000E-01     -1.500625000000000E+02
4874000000.000000      6.488647000000000E-01      1.478320000000000E+01      4.069214000000000E-01     -1.510234000000000E+02
4875000000.000000      6.505432000000000E-01      1.473389000000000E+01      4.003906000000000E-01     -1.515938000000000E+02
4876000000.000000      6.546326000000000E-01      1.478027000000000E+01      3.980560000000000E-01     -1.522734000000000E+02
4877000000.000000      6.550293000000000E-01      1.450195000000000E+01      3.926697000000000E-01     -1.527891000000000E+02
4878000000.000000      6.546936000000000E-01      1.454688000000000E+01      3.885803000000000E-01     -1.535156000000000E+02
4879000000.000000      6.570740000000000E-01      1.445508000000000E+01      3.832397000000000E-01     -1.539766000000000E+02
4880000000.000000      6.580200000000000E-01      1.436865000000000E+01      3.796387000000000E-01     -1.545469000000000E+02
4881000000.000000      6.597290000000000E-01      1.442334000000000E+01      3.760376000000000E-01     -1.552734000000000E+02
4882000000.000000      6.621094000000000E-01      1.436426000000000E+01      3.720093000000000E-01     -1.557031000000000E+02
4883000000.000000      6.616211000000000E-01      1.423096000000000E+01      3.660889000000000E-01     -1.563359000000000E+02
4884000000.000000      6.630859000000000E-01      1.428320000000000E+01      3.620453000000000E-01     -1.569062000000000E+02
4885000000.000000      6.631470000000000E-01      1.420361000000000E+01      3.580933000000000E-01     -1.571640000000000E+02
4886000000.000000      6.643982000000000E-01      1.412402000000000E+01      3.528442000000000E-01     -1.576719000000000E+02
4887000000.000000      6.658325000000000E-01      1.402637000000000E+01      3.490448000000000E-01     -1.582813000000000E+02
4888000000.000000      6.661987000000000E-01      1.385059000000000E+01      3.445282000000000E-01     -1.587891000000000E+02
4889000000.000000      6.691895000000000E-01      1.385645000000000E+01      3.404236000000000E-01     -1.592109000000000E+02
4890000000.000000      6.665039000000000E-01      1.383301000000000E+01      3.354645000000000E-01     -1.598047000000000E+02
4891000000.000000      6.697388000000000E-01      1.353516000000000E+01      3.317871000000000E-01     -1.604219000000000E+02
4892000000.000000      6.690063000000000E-01      1.357471000000000E+01      3.279419000000000E-01     -1.601719000000000E+02
4893000000.000000      6.730347000000000E-01      1.363916000000000E+01      3.239441000000000E-01     -1.607344000000000E+02
4894000000.000000      6.713867000000000E-01      1.343213000000000E+01      3.191071000000000E-01     -1.612109000000000E+02
4895000000.000000      6.739197000000000E-01      1.320801000000000E+01      3.176880000000000E-01     -1.616328000000000E+02
4896000000.000000      6.745605000000000E-01      1.306250000000000E+01      3.127441000000000E-01     -1.618906000000000E+02
4897000000.000000      6.737671000000000E-01      1.327832000000000E+01      3.087616000000000E-01     -1.623359000000000E+02
4898000000.000000      6.761169000000000E-01      1.311768000000000E+01      3.060608000000000E-01     -1.625937000000000E+02
4899000000.000000      6.758728000000000E-01      1.308984000000000E+01      3.019409000000000E-01     -1.630000000000000E+02
4900000000.000000      6.782227000000000E-01      1.275488000000000E+01      2.981873000000000E-01     -1.635703000000000E+02
4901000000.000000      6.779480000000000E-01      1.267822000000000E+01      2.939606000000000E-01     -1.636094000000000E+02
4902000000.000000      6.798096000000000E-01      1.276172000000000E+01      2.910309000000000E-01     -1.638203000000000E+02
4903000000.000000      6.791077000000000E-01      1.262451000000000E+01      2.867584000000000E-01     -1.643437000000000E+02
4904000000.000000      6.822205000000000E-01      1.243896000000000E+01      2.833862000000000E-01     -1.647812000000000E+02
4905000000.000000      6.830750000000000E-01      1.255322000000000E+01      2.805328000000000E-01     -1.650859000000000E+02
4906000000.000000      6.818542000000000E-01      1.231250000000000E+01      2.765503000000000E-01     -1.651250000000000E+02
4907000000.000000      6.831970000000000E-01      1.217822000000000E+01      2.733459000000000E-01     -1.656328000000000E+02
4908000000.000000      6.847534000000000E-01      1.185547000000000E+01      2.705231000000000E-01     -1.661250000000000E+02
4909000000.000000      6.835938000000000E-01      1.191162000000000E+01      2.661591000000000E-01     -1.663828000000000E+02
4910000000.000000      6.862793000000000E-01      1.176318000000000E+01      2.627411000000000E-01     -1.663672000000000E+02
4911000000.000000      6.836243000000000E-01      1.183350000000000E+01      2.590637000000000E-01     -1.667891000000000E+02
4912000000.000000      6.863403000000000E-01      1.166602000000000E+01      2.559052000000000E-01     -1.672500000000000E+02
4913000000.000000      6.878052000000000E-01      1.138428000000000E+01      2.528229000000000E-01     -1.674062000000000E+02
4914000000.000000      6.869202000000000E-01      1.135400000000000E+01      2.493591000000000E-01     -1.676719000000000E+02
4915000000.000000      6.878052000000000E-01      1.149170000000000E+01      2.452774000000000E-01     -1.679844000000000E+02
4916000000.000000      6.878967000000000E-01      1.130469000000000E+01      2.412491000000000E-01     -1.683281000000000E+02
4917000000.000000      6.888428000000000E-01      1.103564000000000E+01      2.389755000000000E-01     -1.685156000000000E+02
4918000000.000000      6.910706000000000E-01      1.125684000000000E+01      2.337189000000000E-01     -1.688750000000000E+02
4919000000.000000      6.889954000000000E-01      1.102734000000000E+01      2.312317000000000E-01     -1.688281000000000E+02
4920000000.000000      6.908569000000000E-01      1.081738000000000E+01      2.271881000000000E-01     -1.693750000000000E+02
4921000000.000000      6.913147000000000E-01      1.083643000000000E+01      2.237930000000000E-01     -1.694062000000000E+02
4922000000.000000      6.928711000000000E-01      1.064697000000000E+01      2.195663000000000E-01     -1.697109000000000E+02
4923000000.000000      6.913147000000000E-01      1.067725000000000E+01      2.160950000000000E-01     -1.695937000000000E+02
4924000000.000000      6.945801000000000E-01      1.060303000000000E+01      2.125778000000000E-01     -1.701875000000000E+02
4925000000.000000      6.937256000000000E-01      1.046436000000000E+01      2.092056000000000E-01     -1.701562000000000E+02
4926000000.000000      6.933899000000000E-01      1.038477000000000E+01      2.055740000000000E-01     -1.702578000000000E+02
4927000000.000000      6.929932000000000E-01      1.028711000000000E+01      2.013855000000000E-01     -1.704609000000000E+02
4928000000.000000      6.940613000000000E-01      9.964355000000000E+00      1.975403000000000E-01     -1.704531000000000E+02
4929000000.000000      6.958313000000000E-01      9.937012000000000E+00      1.940460000000000E-01     -1.703438000000000E+02
4930000000.000000      6.964722000000000E-01      9.835449000000000E+00      1.907349000000000E-01     -1.704453000000000E+02
4931000000.000000      6.955872000000000E-01      9.901367000000000E+00      1.868210000000000E-01     -1.704531000000000E+02
4932000000.000000      6.970520000000000E-01      9.741699000000000E+00      1.829834000000000E-01     -1.703906000000000E+02
4933000000.000000      6.961060000000000E-01      9.494629000000000E+00      1.784058000000000E-01     -1.703047000000000E+02
4934000000.000000      6.996155000000000E-01      9.365723000000000E+00      1.749115000000000E-01     -1.704297000000000E+02
4935000000.000000      6.997375000000000E-01      9.404297000000000E+00      1.716232000000000E-01     -1.698750000000000E+02
4936000000.000000      6.986389000000000E-01      9.259766000000000E+00      1.679993000000000E-01     -1.697891000000000E+02
4937000000.000000      7.000732000000000E-01      9.075684000000000E+00      1.644135000000000E-01     -1.696640000000000E+02
4938000000.000000      6.986084000000000E-01      9.262695000000000E+00      1.603622000000000E-01     -1.693672000000000E+02
4939000000.000000      7.012634000000000E-01      9.096680000000000E+00      1.569824000000000E-01     -1.689844000000000E+02
4940000000.000000      7.011414000000000E-01      8.989258000000000E+00      1.530304000000000E-01     -1.686016000000000E+02
4941000000.000000      7.011414000000000E-01      8.861816000000000E+00      1.496048000000000E-01     -1.681094000000000E+02
4942000000.000000      7.003784000000000E-01      8.835449000000000E+00      1.463165000000000E-01     -1.677500000000000E+02
4943000000.000000      7.021179000000000E-01      8.624023000000000E+00      1.432648000000000E-01     -1.669297000000000E+02
4944000000.000000      7.029419000000000E-01      8.336914000000000E+00      1.398773000000000E-01     -1.663125000000000E+02
4945000000.000000      7.038879000000000E-01      8.475586000000000E+00      1.365509000000000E-01     -1.656250000000000E+02
4946000000.000000      7.044678000000000E-01      8.328613000000000E+00      1.335373000000000E-01     -1.646172000000000E+02
4947000000.000000      7.052612000000000E-01      8.203613000000000E+00      1.299591000000000E-01     -1.639219000000000E+02
4948000000.000000      7.049255000000000E-01      8.058105000000000E+00      1.273499000000000E-01     -1.628750000000000E+02
4949000000.000000      7.031555000000000E-01      8.152832000000000E+00      1.248894000000000E-01     -1.617891000000000E+02
4950000000.000000      7.049866000000000E-01      7.929199000000000E+00      1.218185000000000E-01     -1.607422000000000E+02
4951000000.000000      7.049255000000000E-01      7.985596000000000E+00      1.199112000000000E-01     -1.595781000000000E+02
4952000000.000000      7.058716000000000E-01      7.746582000000000E+00      1.168823000000000E-01     -1.582187000000000E+02
4953000000.000000      7.069397000000000E-01      7.642334000000000E+00      1.149979000000000E-01     -1.566875000000000E+02
4954000000.000000      7.061157000000000E-01      7.548828000000000E+00      1.126862000000000E-01     -1.551875000000000E+02
