! Network Analyzer HP8722D
! Hewlett-Packard
! Data name: Linha & Wilkinson
! Saver's name: Rodrigo Anjos
! Comments: Teste da utilização de aquisição
continua pelo VNA HP8722D
! Time and date: 22/5/2025 15:46
!              Frequency                     S11                                                   S21                                                   S12                                                   S22
# HZ  S  MA R 50
4800000000.000000      6.537476000000000E-01      1.088037000000000E+01      4.706726000000000E-01     -9.187500000000000E+01
4801000000.000000      6.507568000000000E-01      1.118506000000000E+01      4.709930000000000E-01     -9.235937000000000E+01
4802000000.000000      6.504211000000000E-01      1.099023000000000E+01      4.743805000000000E-01     -9.299219000000000E+01
4803000000.000000      6.483459000000000E-01      1.092285000000000E+01      4.775848000000000E-01     -9.405468000000000E+01
4804000000.000000      6.459656000000000E-01      1.106006000000000E+01      4.778442000000000E-01     -9.469530000000000E+01
4805000000.000000      6.457520000000000E-01      1.079395000000000E+01      4.802856000000000E-01     -9.538671000000000E+01
4806000000.000000      6.438904000000000E-01      1.084717000000000E+01      4.819183000000000E-01     -9.617577000000000E+01
4807000000.000000      6.401672000000000E-01      1.083936000000000E+01      4.820099000000000E-01     -9.711718000000000E+01
4808000000.000000      6.369629000000000E-01      1.099170000000000E+01      4.843445000000000E-01     -9.773438000000000E+01
4809000000.000000      6.373901000000000E-01      1.106006000000000E+01      4.862671000000000E-01     -9.858593000000000E+01
4810000000.000000      6.350098000000000E-01      1.095605000000000E+01      4.870911000000000E-01     -9.937889000000000E+01
4811000000.000000      6.361694000000000E-01      1.110156000000000E+01      4.896088000000000E-01     -1.000000000000000E+02
4812000000.000000      6.345215000000000E-01      1.132373000000000E+01      4.893036000000000E-01     -1.008125000000000E+02
4813000000.000000      6.316223000000000E-01      1.124707000000000E+01      4.918518000000000E-01     -1.015508000000000E+02
4814000000.000000      6.314087000000000E-01      1.102734000000000E+01      4.928741000000000E-01     -1.020664000000000E+02
4815000000.000000      6.266174000000000E-01      1.126611000000000E+01      4.928436000000000E-01     -1.029961000000000E+02
4816000000.000000      6.292725000000000E-01      1.136670000000000E+01      4.938049000000000E-01     -1.035898000000000E+02
4817000000.000000      6.266174000000000E-01      1.140381000000000E+01      4.951172000000000E-01     -1.047695000000000E+02
4818000000.000000      6.246338000000000E-01      1.146387000000000E+01      4.948730000000000E-01     -1.053711000000000E+02
4819000000.000000      6.239319000000000E-01      1.148340000000000E+01      4.957581000000000E-01     -1.059492000000000E+02
4820000000.000000      6.214294000000000E-01      1.168359000000000E+01      4.952240000000000E-01     -1.067617000000000E+02
4821000000.000000      6.214905000000000E-01      1.164795000000000E+01      4.957275000000000E-01     -1.075273000000000E+02
4822000000.000000      6.219177000000000E-01      1.181152000000000E+01      4.955292000000000E-01     -1.081719000000000E+02
4823000000.000000      6.222839000000000E-01      1.181982000000000E+01      4.981689000000000E-01     -1.090312000000000E+02
4824000000.000000      6.174927000000000E-01      1.209424000000000E+01      4.981842000000000E-01     -1.097539000000000E+02
4825000000.000000      6.175232000000000E-01      1.200781000000000E+01      4.975891000000000E-01     -1.104883000000000E+02
4826000000.000000      6.171875000000000E-01      1.203125000000000E+01      4.980469000000000E-01     -1.114648000000000E+02
4827000000.000000      6.181946000000000E-01      1.224805000000000E+01      4.983826000000000E-01     -1.118320000000000E+02
4828000000.000000      6.179504000000000E-01      1.246240000000000E+01      5.009155000000000E-01     -1.126680000000000E+02
4829000000.000000      6.165466000000000E-01      1.257227000000000E+01      5.001831000000000E-01     -1.136406000000000E+02
4830000000.000000      6.163025000000000E-01      1.262842000000000E+01      5.018311000000000E-01     -1.142969000000000E+02
4831000000.000000      6.146545000000000E-01      1.265869000000000E+01      5.000610000000000E-01     -1.149570000000000E+02
4832000000.000000      6.141968000000000E-01      1.280176000000000E+01      4.992218000000000E-01     -1.158008000000000E+02
4833000000.000000      6.134338000000000E-01      1.277979000000000E+01      5.001526000000000E-01     -1.163789000000000E+02
4834000000.000000      6.124878000000000E-01      1.290039000000000E+01      4.999542000000000E-01     -1.173476000000000E+02
4835000000.000000      6.140442000000000E-01      1.311621000000000E+01      5.001831000000000E-01     -1.181484000000000E+02
4836000000.000000      6.151123000000000E-01      1.336621000000000E+01      4.987335000000000E-01     -1.189414000000000E+02
4837000000.000000      6.133423000000000E-01      1.347314000000000E+01      4.994507000000000E-01     -1.197773000000000E+02
4838000000.000000      6.123657000000000E-01      1.353906000000000E+01      4.998474000000000E-01     -1.203477000000000E+02
4839000000.000000      6.152649000000000E-01      1.368066000000000E+01      4.980316000000000E-01     -1.211562000000000E+02
4840000000.000000      6.160278000000000E-01      1.349805000000000E+01      4.984131000000000E-01     -1.220703000000000E+02
4841000000.000000      6.148376000000000E-01      1.383447000000000E+01      4.985809000000000E-01     -1.229102000000000E+02
4842000000.000000      6.170654000000000E-01      1.384277000000000E+01      4.968567000000000E-01     -1.235234000000000E+02
4843000000.000000      6.172791000000000E-01      1.389209000000000E+01      4.976959000000000E-01     -1.244648000000000E+02
4844000000.000000      6.166382000000000E-01      1.389063000000000E+01      4.959869000000000E-01     -1.254140000000000E+02
4845000000.000000      6.175232000000000E-01      1.423389000000000E+01      4.966583000000000E-01     -1.261055000000000E+02
4846000000.000000      6.182251000000000E-01      1.428223000000000E+01      4.946594000000000E-01     -1.269219000000000E+02
4847000000.000000      6.197815000000000E-01      1.447168000000000E+01      4.936218000000000E-01     -1.276836000000000E+02
4848000000.000000      6.184998000000000E-01      1.445361000000000E+01      4.910583000000000E-01     -1.284297000000000E+02
4849000000.000000      6.201477000000000E-01      1.447412000000000E+01      4.900970000000000E-01     -1.295469000000000E+02
4850000000.000000      6.219177000000000E-01      1.447559000000000E+01      4.890594000000000E-01     -1.303516000000000E+02
4851000000.000000      6.214600000000000E-01      1.472021000000000E+01      4.881134000000000E-01     -1.311172000000000E+02
4852000000.000000      6.231689000000000E-01      1.459375000000000E+01      4.857941000000000E-01     -1.320703000000000E+02
4853000000.000000      6.242676000000000E-01      1.479688000000000E+01      4.827881000000000E-01     -1.329453000000000E+02
4854000000.000000      6.263123000000000E-01      1.470215000000000E+01      4.816589000000000E-01     -1.337812000000000E+02
4855000000.000000      6.258240000000000E-01      1.485352000000000E+01      4.797058000000000E-01     -1.346406000000000E+02
4856000000.000000      6.269531000000000E-01      1.498926000000000E+01      4.765320000000000E-01     -1.353359000000000E+02
4857000000.000000      6.292725000000000E-01      1.489844000000000E+01      4.753571000000000E-01     -1.360859000000000E+02
4858000000.000000      6.282654000000000E-01      1.505518000000000E+01      4.720612000000000E-01     -1.371172000000000E+02
4859000000.000000      6.290283000000000E-01      1.487939000000000E+01      4.712372000000000E-01     -1.381953000000000E+02
4860000000.000000      6.308899000000000E-01      1.521191000000000E+01      4.678497000000000E-01     -1.387578000000000E+02
4861000000.000000      6.331787000000000E-01      1.520508000000000E+01      4.624786000000000E-01     -1.398672000000000E+02
4862000000.000000      6.332703000000000E-01      1.508008000000000E+01      4.603271000000000E-01     -1.402891000000000E+02
4863000000.000000      6.366882000000000E-01      1.514160000000000E+01      4.564209000000000E-01     -1.412578000000000E+02
4864000000.000000      6.377258000000000E-01      1.510889000000000E+01      4.540558000000000E-01     -1.421016000000000E+02
4865000000.000000      6.375732000000000E-01      1.495898000000000E+01      4.496918000000000E-01     -1.428516000000000E+02
4866000000.000000      6.376038000000000E-01      1.509619000000000E+01      4.450989000000000E-01     -1.438516000000000E+02
4867000000.000000      6.388855000000000E-01      1.497803000000000E+01      4.424591000000000E-01     -1.445937000000000E+02
4868000000.000000      6.426086000000000E-01      1.508398000000000E+01      4.391785000000000E-01     -1.456484000000000E+02
4869000000.000000      6.427307000000000E-01      1.496875000000000E+01      4.346466000000000E-01     -1.461719000000000E+02
4870000000.000000      6.423950000000000E-01      1.501270000000000E+01      4.304352000000000E-01     -1.467969000000000E+02
4871000000.000000      6.440430000000000E-01      1.497266000000000E+01      4.266510000000000E-01     -1.477813000000000E+02
4872000000.000000      6.468201000000000E-01      1.489600000000000E+01      4.221802000000000E-01     -1.481641000000000E+02
4873000000.000000      6.476746000000000E-01      1.499902000000000E+01      4.171448000000000E-01     -1.493125000000000E+02
4874000000.000000      6.473694000000000E-01      1.500830000000000E+01      4.133606000000000E-01     -1.497734000000000E+02
4875000000.000000      6.497192000000000E-01      1.501270000000000E+01      4.085388000000000E-01     -1.505781000000000E+02
4876000000.000000      6.510925000000000E-01      1.512646000000000E+01      4.050446000000000E-01     -1.510859000000000E+02
4877000000.000000      6.544800000000000E-01      1.472559000000000E+01      4.004211000000000E-01     -1.517891000000000E+02
4878000000.000000      6.536865000000000E-01      1.473389000000000E+01      3.957825000000000E-01     -1.525312000000000E+02
4879000000.000000      6.555786000000000E-01      1.472021000000000E+01      3.906250000000000E-01     -1.530937000000000E+02
4880000000.000000      6.561890000000000E-01      1.458008000000000E+01      3.883820000000000E-01     -1.538281000000000E+02
4881000000.000000      6.567078000000000E-01      1.464746000000000E+01      3.830261000000000E-01     -1.541953000000000E+02
4882000000.000000      6.592102000000000E-01      1.472949000000000E+01      3.786621000000000E-01     -1.549062000000000E+02
4883000000.000000      6.600952000000000E-01      1.456787000000000E+01      3.717041000000000E-01     -1.553047000000000E+02
4884000000.000000      6.605530000000000E-01      1.448389000000000E+01      3.696747000000000E-01     -1.559766000000000E+02
4885000000.000000      6.634216000000000E-01      1.446338000000000E+01      3.647614000000000E-01     -1.560547000000000E+02
4886000000.000000      6.633911000000000E-01      1.432715000000000E+01      3.623047000000000E-01     -1.568906000000000E+02
4887000000.000000      6.659851000000000E-01      1.426563000000000E+01      3.576050000000000E-01     -1.573828000000000E+02
4888000000.000000      6.675110000000000E-01      1.409521000000000E+01      3.523712000000000E-01     -1.578438000000000E+02
4889000000.000000      6.676331000000000E-01      1.418164000000000E+01      3.476105000000000E-01     -1.583359000000000E+02
4890000000.000000      6.660767000000000E-01      1.409375000000000E+01      3.440094000000000E-01     -1.591953000000000E+02
4891000000.000000      6.692200000000000E-01      1.389893000000000E+01      3.385773000000000E-01     -1.593516000000000E+02
4892000000.000000      6.697388000000000E-01      1.387158000000000E+01      3.362427000000000E-01     -1.597656000000000E+02
4893000000.000000      6.732788000000000E-01      1.368311000000000E+01      3.320160000000000E-01     -1.602578000000000E+02
4894000000.000000      6.705322000000000E-01      1.358594000000000E+01      3.280945000000000E-01     -1.605469000000000E+02
4895000000.000000      6.742859000000000E-01      1.347998000000000E+01      3.241119000000000E-01     -1.606875000000000E+02
4896000000.000000      6.748962000000000E-01      1.347314000000000E+01      3.200989000000000E-01     -1.612890000000000E+02
4897000000.000000      6.738281000000000E-01      1.338379000000000E+01      3.159027000000000E-01     -1.617109000000000E+02
4898000000.000000      6.761475000000000E-01      1.342383000000000E+01      3.128510000000000E-01     -1.620391000000000E+02
4899000000.000000      6.756287000000000E-01      1.313379000000000E+01      3.088531000000000E-01     -1.625625000000000E+02
4900000000.000000      6.772156000000000E-01      1.300488000000000E+01      3.050232000000000E-01     -1.627656000000000E+02
4901000000.000000      6.791077000000000E-01      1.295654000000000E+01      3.013306000000000E-01     -1.631016000000000E+02
4902000000.000000      6.796875000000000E-01      1.297754000000000E+01      2.983398000000000E-01     -1.634140000000000E+02
4903000000.000000      6.806946000000000E-01      1.292920000000000E+01      2.934570000000000E-01     -1.637969000000000E+02
4904000000.000000      6.815796000000000E-01      1.273584000000000E+01      2.899323000000000E-01     -1.643359000000000E+02
4905000000.000000      6.810303000000000E-01      1.262451000000000E+01      2.876434000000000E-01     -1.645937000000000E+02
4906000000.000000      6.811523000000000E-01      1.236328000000000E+01      2.835236000000000E-01     -1.647187000000000E+02
4907000000.000000      6.824951000000000E-01      1.252148000000000E+01      2.806091000000000E-01     -1.651719000000000E+02
4908000000.000000      6.851196000000000E-01      1.237988000000000E+01      2.770691000000000E-01     -1.655625000000000E+02
4909000000.000000      6.828613000000000E-01      1.216846000000000E+01      2.732544000000000E-01     -1.658281000000000E+02
4910000000.000000      6.831665000000000E-01      1.226855000000000E+01      2.701416000000000E-01     -1.662188000000000E+02
4911000000.000000      6.847229000000000E-01      1.193652000000000E+01      2.663879000000000E-01     -1.664141000000000E+02
4912000000.000000      6.843872000000000E-01      1.195313000000000E+01      2.618103000000000E-01     -1.669609000000000E+02
4913000000.000000      6.862183000000000E-01      1.191309000000000E+01      2.597961000000000E-01     -1.670781000000000E+02
4914000000.000000      6.889648000000000E-01      1.170557000000000E+01      2.554169000000000E-01     -1.673437000000000E+02
4915000000.000000      6.895142000000000E-01      1.151611000000000E+01      2.518158000000000E-01     -1.678437000000000E+02
4916000000.000000      6.890869000000000E-01      1.150781000000000E+01      2.484283000000000E-01     -1.680781000000000E+02
4917000000.000000      6.891174000000000E-01      1.134180000000000E+01      2.450333000000000E-01     -1.682812000000000E+02
4918000000.000000      6.905212000000000E-01      1.124561000000000E+01      2.408218000000000E-01     -1.686719000000000E+02
4919000000.000000      6.872864000000000E-01      1.120313000000000E+01      2.379074000000000E-01     -1.688672000000000E+02
4920000000.000000      6.900635000000000E-01      1.124023000000000E+01      2.336426000000000E-01     -1.692656000000000E+02
4921000000.000000      6.911621000000000E-01      1.100537000000000E+01      2.309570000000000E-01     -1.692578000000000E+02
4922000000.000000      6.941223000000000E-01      1.083789000000000E+01      2.262573000000000E-01     -1.696250000000000E+02
4923000000.000000      6.916504000000000E-01      1.081055000000000E+01      2.227325000000000E-01     -1.697656000000000E+02
4924000000.000000      6.912842000000000E-01      1.072266000000000E+01      2.184448000000000E-01     -1.701094000000000E+02
4925000000.000000      6.926880000000000E-01      1.046680000000000E+01      2.153931000000000E-01     -1.703672000000000E+02
4926000000.000000      6.919861000000000E-01      1.065771000000000E+01      2.117615000000000E-01     -1.703750000000000E+02
4927000000.000000      6.937256000000000E-01      1.049463000000000E+01      2.076416000000000E-01     -1.704609000000000E+02
4928000000.000000      6.940002000000000E-01      1.028320000000000E+01      2.038193000000000E-01     -1.707344000000000E+02
4929000000.000000      6.934509000000000E-01      1.010449000000000E+01      2.001877000000000E-01     -1.707500000000000E+02
4930000000.000000      6.954956000000000E-01      1.026660000000000E+01      1.967621000000000E-01     -1.709531000000000E+02
4931000000.000000      6.955872000000000E-01      1.010010000000000E+01      1.930389000000000E-01     -1.710234000000000E+02
4932000000.000000      6.956177000000000E-01      1.006348000000000E+01      1.890640000000000E-01     -1.708516000000000E+02
4933000000.000000      6.951599000000000E-01      9.971191000000000E+00      1.846237000000000E-01     -1.707109000000000E+02
4934000000.000000      6.991272000000000E-01      9.734863000000000E+00      1.811905000000000E-01     -1.709766000000000E+02
4935000000.000000      6.993408000000000E-01      9.700684000000000E+00      1.777725000000000E-01     -1.706640000000000E+02
4936000000.000000      6.969910000000000E-01      9.521973000000000E+00      1.732941000000000E-01     -1.705859000000000E+02
4937000000.000000      6.990662000000000E-01      9.420410000000000E+00      1.694565000000000E-01     -1.704453000000000E+02
4938000000.000000      6.977844000000000E-01      9.509766000000000E+00      1.659622000000000E-01     -1.702656000000000E+02
4939000000.000000      6.995544000000000E-01      9.259766000000000E+00      1.624985000000000E-01     -1.698125000000000E+02
4940000000.000000      7.001648000000000E-01      9.264160000000000E+00      1.585693000000000E-01     -1.698672000000000E+02
4941000000.000000      7.033691000000000E-01      9.134766000000000E+00      1.548767000000000E-01     -1.692422000000000E+02
4942000000.000000      7.009583000000000E-01      8.949707000000000E+00      1.512833000000000E-01     -1.688750000000000E+02
4943000000.000000      7.012634000000000E-01      8.883789000000000E+00      1.482391000000000E-01     -1.683047000000000E+02
4944000000.000000      6.999817000000000E-01      8.799805000000000E+00      1.445847000000000E-01     -1.677344000000000E+02
4945000000.000000      7.021790000000000E-01      8.639160000000000E+00      1.406631000000000E-01     -1.672891000000000E+02
4946000000.000000      7.043152000000000E-01      8.615723000000000E+00      1.380539000000000E-01     -1.664063000000000E+02
4947000000.000000      7.025452000000000E-01      8.444336000000000E+00      1.338730000000000E-01     -1.657891000000000E+02
4948000000.000000      7.032776000000000E-01      8.455078000000000E+00      1.312790000000000E-01     -1.650000000000000E+02
4949000000.000000      7.041626000000000E-01      8.370117000000000E+00      1.283798000000000E-01     -1.637578000000000E+02
4950000000.000000      7.069702000000000E-01      8.353516000000000E+00      1.254807000000000E-01     -1.628438000000000E+02
4951000000.000000      7.044373000000000E-01      8.128418000000000E+00      1.227036000000000E-01     -1.620078000000000E+02
4952000000.000000      7.045898000000000E-01      8.086914000000000E+00      1.198235000000000E-01     -1.607578000000000E+02
4953000000.000000      7.065125000000000E-01      7.947021000000000E+00      1.177483000000000E-01     -1.593125000000000E+02
4954000000.000000      7.074280000000000E-01      7.877197000000000E+00      1.151733000000000E-01     -1.579453000000000E+02
