! Network Analyzer HP8722D
! Hewlett-Packard
! Data name: Linha & Wilkinson
! Saver's name: Rodrigo Anjos
! Comments: Teste da utilização de aquisição
continua pelo VNA HP8722D
! Time and date: 22/5/2025 12:30
!              Frequency                     S11                                                   S21                                                   S12                                                   S22
# HZ  S  MA R 50
4800000000.000000      6.508789000000000E-01      1.075391000000000E+01      4.718933000000000E-01     -9.269531000000000E+01
4801000000.000000      6.496277000000000E-01      1.093408000000000E+01      4.727478000000000E-01     -9.321093000000000E+01
4802000000.000000      6.470947000000000E-01      1.079932000000000E+01      4.747009000000000E-01     -9.397655000000000E+01
4803000000.000000      6.454163000000000E-01      1.077197000000000E+01      4.798737000000000E-01     -9.465235000000000E+01
4804000000.000000      6.444702000000000E-01      1.090381000000000E+01      4.786682000000000E-01     -9.559374000000000E+01
4805000000.000000      6.439819000000000E-01      1.077588000000000E+01      4.800568000000000E-01     -9.619530000000000E+01
4806000000.000000      6.417847000000000E-01      1.076660000000000E+01      4.827576000000000E-01     -9.701561000000000E+01
4807000000.000000      6.382141000000000E-01      1.070313000000000E+01      4.834442000000000E-01     -9.799608000000000E+01
4808000000.000000      6.364441000000000E-01      1.074463000000000E+01      4.847870000000000E-01     -9.837109000000000E+01
4809000000.000000      6.355896000000000E-01      1.101904000000000E+01      4.859924000000000E-01     -9.948046000000000E+01
4810000000.000000      6.333923000000000E-01      1.095850000000000E+01      4.890747000000000E-01     -9.989061000000000E+01
4811000000.000000      6.334229000000000E-01      1.106836000000000E+01      4.884338000000000E-01     -1.006211000000000E+02
4812000000.000000      6.332703000000000E-01      1.115918000000000E+01      4.898071000000000E-01     -1.018516000000000E+02
4813000000.000000      6.320190000000000E-01      1.109619000000000E+01      4.924164000000000E-01     -1.025352000000000E+02
4814000000.000000      6.285095000000000E-01      1.116455000000000E+01      4.930267000000000E-01     -1.030586000000000E+02
4815000000.000000      6.265259000000000E-01      1.120020000000000E+01      4.929657000000000E-01     -1.039453000000000E+02
4816000000.000000      6.272888000000000E-01      1.126465000000000E+01      4.938354000000000E-01     -1.047656000000000E+02
4817000000.000000      6.246033000000000E-01      1.142432000000000E+01      4.952393000000000E-01     -1.055273000000000E+02
4818000000.000000      6.253967000000000E-01      1.127734000000000E+01      4.954224000000000E-01     -1.062187000000000E+02
4819000000.000000      6.218567000000000E-01      1.148047000000000E+01      4.960175000000000E-01     -1.070664000000000E+02
4820000000.000000      6.206970000000000E-01      1.158203000000000E+01      4.963989000000000E-01     -1.075859000000000E+02
4821000000.000000      6.213684000000000E-01      1.159326000000000E+01      4.974213000000000E-01     -1.084922000000000E+02
4822000000.000000      6.203613000000000E-01      1.162891000000000E+01      4.962158000000000E-01     -1.092422000000000E+02
4823000000.000000      6.200562000000000E-01      1.161768000000000E+01      4.985352000000000E-01     -1.098359000000000E+02
4824000000.000000      6.163330000000000E-01      1.204492000000000E+01      4.984589000000000E-01     -1.106406000000000E+02
4825000000.000000      6.178589000000000E-01      1.188135000000000E+01      4.969330000000000E-01     -1.114687000000000E+02
4826000000.000000      6.159058000000000E-01      1.197510000000000E+01      4.991608000000000E-01     -1.123711000000000E+02
4827000000.000000      6.158752000000000E-01      1.226074000000000E+01      4.987488000000000E-01     -1.129453000000000E+02
4828000000.000000      6.162415000000000E-01      1.231152000000000E+01      5.000916000000000E-01     -1.135781000000000E+02
4829000000.000000      6.146851000000000E-01      1.243359000000000E+01      4.998016000000000E-01     -1.143164000000000E+02
4830000000.000000      6.149597000000000E-01      1.245117000000000E+01      4.998627000000000E-01     -1.152461000000000E+02
4831000000.000000      6.159058000000000E-01      1.269189000000000E+01      4.988708000000000E-01     -1.160000000000000E+02
4832000000.000000      6.125488000000000E-01      1.293457000000000E+01      4.999084000000000E-01     -1.165664000000000E+02
4833000000.000000      6.109314000000000E-01      1.277686000000000E+01      5.003357000000000E-01     -1.172656000000000E+02
4834000000.000000      6.130676000000000E-01      1.287598000000000E+01      4.982758000000000E-01     -1.183086000000000E+02
4835000000.000000      6.137695000000000E-01      1.296387000000000E+01      4.996338000000000E-01     -1.189180000000000E+02
4836000000.000000      6.147461000000000E-01      1.334277000000000E+01      4.978027000000000E-01     -1.196172000000000E+02
4837000000.000000      6.135559000000000E-01      1.324512000000000E+01      4.968262000000000E-01     -1.207187000000000E+02
4838000000.000000      6.129150000000000E-01      1.339063000000000E+01      4.987488000000000E-01     -1.211836000000000E+02
4839000000.000000      6.158752000000000E-01      1.360205000000000E+01      4.985657000000000E-01     -1.220586000000000E+02
4840000000.000000      6.145935000000000E-01      1.357080000000000E+01      4.970703000000000E-01     -1.228242000000000E+02
4841000000.000000      6.162720000000000E-01      1.372852000000000E+01      4.972382000000000E-01     -1.238164000000000E+02
4842000000.000000      6.163940000000000E-01      1.389209000000000E+01      4.959564000000000E-01     -1.245898000000000E+02
4843000000.000000      6.193848000000000E-01      1.394434000000000E+01      4.952545000000000E-01     -1.253008000000000E+02
4844000000.000000      6.177368000000000E-01      1.397021000000000E+01      4.942169000000000E-01     -1.262695000000000E+02
4845000000.000000      6.173706000000000E-01      1.410645000000000E+01      4.923553000000000E-01     -1.269961000000000E+02
4846000000.000000      6.199341000000000E-01      1.409131000000000E+01      4.931030000000000E-01     -1.279414000000000E+02
4847000000.000000      6.199341000000000E-01      1.447168000000000E+01      4.920044000000000E-01     -1.285312000000000E+02
4848000000.000000      6.186829000000000E-01      1.430127000000000E+01      4.871979000000000E-01     -1.294609000000000E+02
4849000000.000000      6.202698000000000E-01      1.434229000000000E+01      4.883118000000000E-01     -1.303594000000000E+02
4850000000.000000      6.214905000000000E-01      1.441406000000000E+01      4.859161000000000E-01     -1.313672000000000E+02
4851000000.000000      6.245422000000000E-01      1.459668000000000E+01      4.857330000000000E-01     -1.320469000000000E+02
4852000000.000000      6.242676000000000E-01      1.459521000000000E+01      4.828491000000000E-01     -1.327500000000000E+02
4853000000.000000      6.242371000000000E-01      1.456348000000000E+01      4.789124000000000E-01     -1.337891000000000E+02
4854000000.000000      6.262817000000000E-01      1.460742000000000E+01      4.792938000000000E-01     -1.345469000000000E+02
4855000000.000000      6.264038000000000E-01      1.457031000000000E+01      4.769592000000000E-01     -1.356094000000000E+02
4856000000.000000      6.272583000000000E-01      1.475146000000000E+01      4.725800000000000E-01     -1.363750000000000E+02
4857000000.000000      6.300659000000000E-01      1.483936000000000E+01      4.720306000000000E-01     -1.371016000000000E+02
4858000000.000000      6.296082000000000E-01      1.488232000000000E+01      4.690094000000000E-01     -1.380391000000000E+02
4859000000.000000      6.308289000000000E-01      1.467188000000000E+01      4.663239000000000E-01     -1.389375000000000E+02
4860000000.000000      6.323853000000000E-01      1.484082000000000E+01      4.631500000000000E-01     -1.395937000000000E+02
4861000000.000000      6.321716000000000E-01      1.516113000000000E+01      4.593048000000000E-01     -1.406719000000000E+02
4862000000.000000      6.338501000000000E-01      1.482568000000000E+01      4.565582000000000E-01     -1.413672000000000E+02
4863000000.000000      6.365051000000000E-01      1.492871000000000E+01      4.529724000000000E-01     -1.421875000000000E+02
4864000000.000000      6.380920000000000E-01      1.496338000000000E+01      4.499969000000000E-01     -1.429141000000000E+02
4865000000.000000      6.384277000000000E-01      1.484766000000000E+01      4.445496000000000E-01     -1.436328000000000E+02
4866000000.000000      6.389160000000000E-01      1.490430000000000E+01      4.420471000000000E-01     -1.447813000000000E+02
4867000000.000000      6.404114000000000E-01      1.489453000000000E+01      4.389801000000000E-01     -1.454141000000000E+02
4868000000.000000      6.419373000000000E-01      1.481738000000000E+01      4.355164000000000E-01     -1.462344000000000E+02
4869000000.000000      6.425781000000000E-01      1.482715000000000E+01      4.298248000000000E-01     -1.470234000000000E+02
4870000000.000000      6.449890000000000E-01      1.473779000000000E+01      4.280548000000000E-01     -1.475234000000000E+02
4871000000.000000      6.446533000000000E-01      1.484082000000000E+01      4.219666000000000E-01     -1.483750000000000E+02
4872000000.000000      6.477661000000000E-01      1.472559000000000E+01      4.199219000000000E-01     -1.490469000000000E+02
4873000000.000000      6.481323000000000E-01      1.483838000000000E+01      4.129028000000000E-01     -1.499531000000000E+02
4874000000.000000      6.487732000000000E-01      1.475830000000000E+01      4.099579000000000E-01     -1.506875000000000E+02
4875000000.000000      6.504822000000000E-01      1.458545000000000E+01      4.049988000000000E-01     -1.512422000000000E+02
4876000000.000000      6.539917000000000E-01      1.463477000000000E+01      4.004059000000000E-01     -1.519844000000000E+02
4877000000.000000      6.551819000000000E-01      1.443701000000000E+01      3.967896000000000E-01     -1.525156000000000E+02
4878000000.000000      6.535034000000000E-01      1.440137000000000E+01      3.914032000000000E-01     -1.531563000000000E+02
4879000000.000000      6.576233000000000E-01      1.438770000000000E+01      3.869171000000000E-01     -1.534453000000000E+02
4880000000.000000      6.584167000000000E-01      1.435596000000000E+01      3.830109000000000E-01     -1.544531000000000E+02
4881000000.000000      6.580505000000000E-01      1.431201000000000E+01      3.784027000000000E-01     -1.547188000000000E+02
4882000000.000000      6.594849000000000E-01      1.431348000000000E+01      3.738861000000000E-01     -1.556250000000000E+02
4883000000.000000      6.595154000000000E-01      1.420898000000000E+01      3.687897000000000E-01     -1.559141000000000E+02
4884000000.000000      6.631165000000000E-01      1.428467000000000E+01      3.658600000000000E-01     -1.566562000000000E+02
4885000000.000000      6.643982000000000E-01      1.419824000000000E+01      3.609009000000000E-01     -1.567188000000000E+02
4886000000.000000      6.643677000000000E-01      1.420361000000000E+01      3.551483000000000E-01     -1.572500000000000E+02
4887000000.000000      6.645508000000000E-01      1.402393000000000E+01      3.526154000000000E-01     -1.581016000000000E+02
4888000000.000000      6.676636000000000E-01      1.402246000000000E+01      3.477631000000000E-01     -1.585859000000000E+02
4889000000.000000      6.678467000000000E-01      1.384814000000000E+01      3.443604000000000E-01     -1.587422000000000E+02
4890000000.000000      6.670532000000000E-01      1.371094000000000E+01      3.385162000000000E-01     -1.595312000000000E+02
4891000000.000000      6.691284000000000E-01      1.365576000000000E+01      3.349915000000000E-01     -1.598438000000000E+02
4892000000.000000      6.689758000000000E-01      1.374756000000000E+01      3.309326000000000E-01     -1.600547000000000E+02
4893000000.000000      6.734924000000000E-01      1.347998000000000E+01      3.267822000000000E-01     -1.607265000000000E+02
4894000000.000000      6.710510000000000E-01      1.333154000000000E+01      3.218842000000000E-01     -1.607656000000000E+02
4895000000.000000      6.728821000000000E-01      1.322021000000000E+01      3.201294000000000E-01     -1.614375000000000E+02
4896000000.000000      6.742859000000000E-01      1.328369000000000E+01      3.161774000000000E-01     -1.617422000000000E+02
4897000000.000000      6.752625000000000E-01      1.310938000000000E+01      3.115845000000000E-01     -1.622344000000000E+02
4898000000.000000      6.780396000000000E-01      1.306250000000000E+01      3.093872000000000E-01     -1.624844000000000E+02
4899000000.000000      6.773682000000000E-01      1.288281000000000E+01      3.050079000000000E-01     -1.628984000000000E+02
4900000000.000000      6.791382000000000E-01      1.279053000000000E+01      3.007965000000000E-01     -1.632656000000000E+02
4901000000.000000      6.800232000000000E-01      1.278076000000000E+01      2.972717000000000E-01     -1.635781000000000E+02
4902000000.000000      6.782227000000000E-01      1.263818000000000E+01      2.942352000000000E-01     -1.638047000000000E+02
4903000000.000000      6.818848000000000E-01      1.260107000000000E+01      2.897644000000000E-01     -1.641641000000000E+02
4904000000.000000      6.816711000000000E-01      1.248975000000000E+01      2.859039000000000E-01     -1.645781000000000E+02
4905000000.000000      6.816101000000000E-01      1.246924000000000E+01      2.832336000000000E-01     -1.650391000000000E+02
4906000000.000000      6.832886000000000E-01      1.226318000000000E+01      2.796783000000000E-01     -1.649844000000000E+02
4907000000.000000      6.832581000000000E-01      1.224268000000000E+01      2.768250000000000E-01     -1.654922000000000E+02
4908000000.000000      6.838379000000000E-01      1.211475000000000E+01      2.725830000000000E-01     -1.658594000000000E+02
4909000000.000000      6.837158000000000E-01      1.201758000000000E+01      2.688904000000000E-01     -1.662266000000000E+02
4910000000.000000      6.851501000000000E-01      1.183496000000000E+01      2.658997000000000E-01     -1.663750000000000E+02
4911000000.000000      6.880188000000000E-01      1.193213000000000E+01      2.619934000000000E-01     -1.666719000000000E+02
4912000000.000000      6.865234000000000E-01      1.177441000000000E+01      2.586365000000000E-01     -1.670859000000000E+02
4913000000.000000      6.872253000000000E-01      1.157129000000000E+01      2.553101000000000E-01     -1.674297000000000E+02
4914000000.000000      6.882019000000000E-01      1.149707000000000E+01      2.517700000000000E-01     -1.676953000000000E+02
4915000000.000000      6.874390000000000E-01      1.142676000000000E+01      2.477570000000000E-01     -1.681875000000000E+02
4916000000.000000      6.867981000000000E-01      1.120313000000000E+01      2.441864000000000E-01     -1.683984000000000E+02
4917000000.000000      6.889038000000000E-01      1.112744000000000E+01      2.403717000000000E-01     -1.686016000000000E+02
4918000000.000000      6.896973000000000E-01      1.108350000000000E+01      2.371521000000000E-01     -1.688281000000000E+02
4919000000.000000      6.896667000000000E-01      1.085986000000000E+01      2.339325000000000E-01     -1.689531000000000E+02
4920000000.000000      6.916199000000000E-01      1.080762000000000E+01      2.295456000000000E-01     -1.695000000000000E+02
4921000000.000000      6.914673000000000E-01      1.090625000000000E+01      2.265320000000000E-01     -1.695937000000000E+02
4922000000.000000      6.924438000000000E-01      1.072266000000000E+01      2.224197000000000E-01     -1.696016000000000E+02
4923000000.000000      6.927490000000000E-01      1.077734000000000E+01      2.185211000000000E-01     -1.698516000000000E+02
4924000000.000000      6.950378000000000E-01      1.055615000000000E+01      2.147598000000000E-01     -1.703203000000000E+02
4925000000.000000      6.939697000000000E-01      1.047510000000000E+01      2.115784000000000E-01     -1.702500000000000E+02
4926000000.000000      6.932068000000000E-01      1.034082000000000E+01      2.071304000000000E-01     -1.705078000000000E+02
4927000000.000000      6.955566000000000E-01      1.028564000000000E+01      2.036819000000000E-01     -1.706719000000000E+02
4928000000.000000      6.963196000000000E-01      1.002051000000000E+01      2.006912000000000E-01     -1.707734000000000E+02
4929000000.000000      6.950684000000000E-01      9.960449000000000E+00      1.966476000000000E-01     -1.705625000000000E+02
4930000000.000000      6.947021000000000E-01      9.765137000000000E+00      1.930542000000000E-01     -1.708594000000000E+02
4931000000.000000      6.965942000000000E-01      9.984863000000000E+00      1.894989000000000E-01     -1.708906000000000E+02
4932000000.000000      6.968994000000000E-01      9.668945000000000E+00      1.851196000000000E-01     -1.707813000000000E+02
4933000000.000000      6.958618000000000E-01      9.594727000000000E+00      1.811752000000000E-01     -1.705625000000000E+02
4934000000.000000      6.983948000000000E-01      9.526367000000000E+00      1.772690000000000E-01     -1.707734000000000E+02
4935000000.000000      6.994324000000000E-01      9.384766000000000E+00      1.742630000000000E-01     -1.704453000000000E+02
4936000000.000000      7.007751000000000E-01      9.110352000000000E+00      1.699371000000000E-01     -1.701172000000000E+02
4937000000.000000      6.983643000000000E-01      9.136230000000000E+00      1.665573000000000E-01     -1.700859000000000E+02
4938000000.000000      6.980591000000000E-01      9.181641000000000E+00      1.628723000000000E-01     -1.699141000000000E+02
4939000000.000000      6.989136000000000E-01      8.997559000000000E+00      1.592407000000000E-01     -1.693281000000000E+02
4940000000.000000      7.000122000000000E-01      8.986816000000000E+00      1.553497000000000E-01     -1.692734000000000E+02
4941000000.000000      7.008057000000000E-01      8.713379000000000E+00      1.512451000000000E-01     -1.688125000000000E+02
4942000000.000000      7.001953000000000E-01      8.749023000000000E+00      1.481247000000000E-01     -1.682422000000000E+02
4943000000.000000      7.014771000000000E-01      8.809570000000000E+00      1.452332000000000E-01     -1.676484000000000E+02
4944000000.000000      7.035522000000000E-01      8.523926000000000E+00      1.415253000000000E-01     -1.670781000000000E+02
4945000000.000000      7.027893000000000E-01      8.409668000000000E+00      1.380081000000000E-01     -1.664063000000000E+02
4946000000.000000      7.042847000000000E-01      8.556641000000000E+00      1.350937000000000E-01     -1.655859000000000E+02
4947000000.000000      7.047424000000000E-01      8.235352000000000E+00      1.315308000000000E-01     -1.647500000000000E+02
4948000000.000000      7.041931000000000E-01      8.264160000000000E+00      1.285400000000000E-01     -1.638594000000000E+02
4949000000.000000      7.039795000000000E-01      8.111816000000000E+00      1.257706000000000E-01     -1.625547000000000E+02
4950000000.000000      7.053833000000000E-01      8.166504000000000E+00      1.234283000000000E-01     -1.616953000000000E+02
4951000000.000000      7.050476000000000E-01      7.926514000000000E+00      1.206284000000000E-01     -1.606797000000000E+02
4952000000.000000      7.042236000000000E-01      7.715088000000000E+00      1.175041000000000E-01     -1.593125000000000E+02
4953000000.000000      7.039795000000000E-01      7.679443000000000E+00      1.159363000000000E-01     -1.578750000000000E+02
4954000000.000000      7.075806000000000E-01      7.572266000000000E+00      1.136551000000000E-01     -1.566015000000000E+02
