! Network Analyzer HP8722D
! Hewlett-Packard
! Data name: Linha & Wilkinson
! Saver's name: Rodrigo Anjos
! Comments: Teste da utilização de aquisição
continua pelo VNA HP8722D
! Time and date: 22/5/2025 08:17
!              Frequency                     S11                                                   S21                                                   S12                                                   S22
# HZ  S  MA R 50
4800000000.000000      6.475220000000000E-01      1.027490000000000E+01      4.737091000000000E-01     -9.391016000000000E+01
4801000000.000000      6.448059000000000E-01      1.034082000000000E+01      4.758453000000000E-01     -9.450390000000000E+01
4802000000.000000      6.437988000000000E-01      1.032568000000000E+01      4.762573000000000E-01     -9.520311000000000E+01
4803000000.000000      6.419067000000000E-01      1.013721000000000E+01      4.819794000000000E-01     -9.583202000000000E+01
4804000000.000000      6.408691000000000E-01      1.015527000000000E+01      4.811554000000000E-01     -9.680077000000000E+01
4805000000.000000      6.398926000000000E-01      1.028418000000000E+01      4.846497000000000E-01     -9.741014000000000E+01
4806000000.000000      6.364441000000000E-01      1.017578000000000E+01      4.858246000000000E-01     -9.816015000000000E+01
4807000000.000000      6.342468000000000E-01      1.017578000000000E+01      4.851837000000000E-01     -9.905077000000000E+01
4808000000.000000      6.330261000000000E-01      1.027588000000000E+01      4.875183000000000E-01     -9.985155000000000E+01
4809000000.000000      6.322632000000000E-01      1.041357000000000E+01      4.881592000000000E-01     -1.006250000000000E+02
4810000000.000000      6.311035000000000E-01      1.031445000000000E+01      4.895630000000000E-01     -1.012812000000000E+02
4811000000.000000      6.302185000000000E-01      1.037109000000000E+01      4.915314000000000E-01     -1.020313000000000E+02
4812000000.000000      6.296997000000000E-01      1.056299000000000E+01      4.925232000000000E-01     -1.026953000000000E+02
4813000000.000000      6.269531000000000E-01      1.053027000000000E+01      4.929962000000000E-01     -1.036914000000000E+02
4814000000.000000      6.245422000000000E-01      1.054688000000000E+01      4.951935000000000E-01     -1.040977000000000E+02
4815000000.000000      6.237488000000000E-01      1.065088000000000E+01      4.940796000000000E-01     -1.051172000000000E+02
4816000000.000000      6.233215000000000E-01      1.083496000000000E+01      4.977417000000000E-01     -1.057500000000000E+02
4817000000.000000      6.221924000000000E-01      1.090625000000000E+01      4.957886000000000E-01     -1.067148000000000E+02
4818000000.000000      6.212769000000000E-01      1.083643000000000E+01      4.961395000000000E-01     -1.072344000000000E+02
4819000000.000000      6.191711000000000E-01      1.101221000000000E+01      4.975433000000000E-01     -1.082695000000000E+02
4820000000.000000      6.179504000000000E-01      1.116748000000000E+01      4.978943000000000E-01     -1.088750000000000E+02
4821000000.000000      6.184082000000000E-01      1.118652000000000E+01      4.985352000000000E-01     -1.095156000000000E+02
4822000000.000000      6.151733000000000E-01      1.117676000000000E+01      4.979858000000000E-01     -1.103125000000000E+02
4823000000.000000      6.159363000000000E-01      1.131982000000000E+01      4.993744000000000E-01     -1.110078000000000E+02
4824000000.000000      6.131592000000000E-01      1.148340000000000E+01      4.985199000000000E-01     -1.119297000000000E+02
4825000000.000000      6.161804000000000E-01      1.162744000000000E+01      4.986115000000000E-01     -1.125469000000000E+02
4826000000.000000      6.129150000000000E-01      1.154492000000000E+01      5.004578000000000E-01     -1.135469000000000E+02
4827000000.000000      6.135559000000000E-01      1.176611000000000E+01      4.999084000000000E-01     -1.140000000000000E+02
4828000000.000000      6.134338000000000E-01      1.195410000000000E+01      5.005493000000000E-01     -1.148203000000000E+02
4829000000.000000      6.116333000000000E-01      1.219482000000000E+01      5.003052000000000E-01     -1.154375000000000E+02
4830000000.000000      6.124268000000000E-01      1.218506000000000E+01      4.997559000000000E-01     -1.162226000000000E+02
4831000000.000000      6.116028000000000E-01      1.222754000000000E+01      5.006409000000000E-01     -1.172383000000000E+02
4832000000.000000      6.116943000000000E-01      1.244580000000000E+01      4.982147000000000E-01     -1.179570000000000E+02
4833000000.000000      6.113892000000000E-01      1.238818000000000E+01      4.993134000000000E-01     -1.185430000000000E+02
4834000000.000000      6.098938000000000E-01      1.241455000000000E+01      4.996948000000000E-01     -1.195469000000000E+02
4835000000.000000      6.101074000000000E-01      1.254492000000000E+01      5.000305000000000E-01     -1.201797000000000E+02
4836000000.000000      6.115417000000000E-01      1.283447000000000E+01      4.971466000000000E-01     -1.208711000000000E+02
4837000000.000000      6.124268000000000E-01      1.305713000000000E+01      4.969330000000000E-01     -1.220234000000000E+02
4838000000.000000      6.109924000000000E-01      1.310791000000000E+01      4.977570000000000E-01     -1.224219000000000E+02
4839000000.000000      6.157227000000000E-01      1.324805000000000E+01      4.970856000000000E-01     -1.233555000000000E+02
4840000000.000000      6.133728000000000E-01      1.285254000000000E+01      4.972534000000000E-01     -1.241914000000000E+02
4841000000.000000      6.125183000000000E-01      1.338672000000000E+01      4.962463000000000E-01     -1.249922000000000E+02
4842000000.000000      6.141357000000000E-01      1.347314000000000E+01      4.946594000000000E-01     -1.256289000000000E+02
4843000000.000000      6.163330000000000E-01      1.350879000000000E+01      4.955597000000000E-01     -1.266719000000000E+02
4844000000.000000      6.155090000000000E-01      1.341943000000000E+01      4.934235000000000E-01     -1.276094000000000E+02
4845000000.000000      6.157837000000000E-01      1.363672000000000E+01      4.919281000000000E-01     -1.282578000000000E+02
4846000000.000000      6.166992000000000E-01      1.367773000000000E+01      4.911652000000000E-01     -1.289609000000000E+02
4847000000.000000      6.193237000000000E-01      1.380273000000000E+01      4.898071000000000E-01     -1.297891000000000E+02
4848000000.000000      6.184387000000000E-01      1.382471000000000E+01      4.868469000000000E-01     -1.306953000000000E+02
4849000000.000000      6.205444000000000E-01      1.391113000000000E+01      4.857330000000000E-01     -1.315938000000000E+02
4850000000.000000      6.210327000000000E-01      1.396631000000000E+01      4.846344000000000E-01     -1.324063000000000E+02
4851000000.000000      6.227417000000000E-01      1.401855000000000E+01      4.846039000000000E-01     -1.332031000000000E+02
4852000000.000000      6.231079000000000E-01      1.406348000000000E+01      4.810638000000000E-01     -1.341406000000000E+02
4853000000.000000      6.240234000000000E-01      1.421875000000000E+01      4.772186000000000E-01     -1.348047000000000E+02
4854000000.000000      6.268616000000000E-01      1.420654000000000E+01      4.753876000000000E-01     -1.359219000000000E+02
4855000000.000000      6.252441000000000E-01      1.417090000000000E+01      4.739838000000000E-01     -1.368594000000000E+02
4856000000.000000      6.273804000000000E-01      1.425293000000000E+01      4.705048000000000E-01     -1.374609000000000E+02
4857000000.000000      6.284485000000000E-01      1.448096000000000E+01      4.694672000000000E-01     -1.383047000000000E+02
4858000000.000000      6.286316000000000E-01      1.431348000000000E+01      4.663696000000000E-01     -1.392422000000000E+02
4859000000.000000      6.300354000000000E-01      1.416943000000000E+01      4.640808000000000E-01     -1.401953000000000E+02
4860000000.000000      6.313782000000000E-01      1.440430000000000E+01      4.604645000000000E-01     -1.408437000000000E+02
4861000000.000000      6.329041000000000E-01      1.448535000000000E+01      4.562531000000000E-01     -1.419141000000000E+02
4862000000.000000      6.331177000000000E-01      1.439746000000000E+01      4.536591000000000E-01     -1.425703000000000E+02
4863000000.000000      6.355591000000000E-01      1.443604000000000E+01      4.492493000000000E-01     -1.435156000000000E+02
4864000000.000000      6.389465000000000E-01      1.425049000000000E+01      4.470062000000000E-01     -1.440234000000000E+02
4865000000.000000      6.376038000000000E-01      1.434521000000000E+01      4.418793000000000E-01     -1.449297000000000E+02
4866000000.000000      6.390076000000000E-01      1.422852000000000E+01      4.376678000000000E-01     -1.455625000000000E+02
4867000000.000000      6.392517000000000E-01      1.436719000000000E+01      4.336395000000000E-01     -1.466719000000000E+02
4868000000.000000      6.412354000000000E-01      1.426563000000000E+01      4.311066000000000E-01     -1.474062000000000E+02
4869000000.000000      6.433716000000000E-01      1.426123000000000E+01      4.269257000000000E-01     -1.480313000000000E+02
4870000000.000000      6.434631000000000E-01      1.430664000000000E+01      4.228210000000000E-01     -1.485703000000000E+02
4871000000.000000      6.449890000000000E-01      1.413086000000000E+01      4.187927000000000E-01     -1.494062000000000E+02
4872000000.000000      6.469421000000000E-01      1.423389000000000E+01      4.143524000000000E-01     -1.499063000000000E+02
4873000000.000000      6.484680000000000E-01      1.410059000000000E+01      4.101563000000000E-01     -1.509922000000000E+02
4874000000.000000      6.506042000000000E-01      1.402783000000000E+01      4.052582000000000E-01     -1.515391000000000E+02
4875000000.000000      6.522827000000000E-01      1.409912000000000E+01      3.992920000000000E-01     -1.520313000000000E+02
4876000000.000000      6.532288000000000E-01      1.416406000000000E+01      3.981171000000000E-01     -1.528672000000000E+02
4877000000.000000      6.541443000000000E-01      1.373535000000000E+01      3.908691000000000E-01     -1.535000000000000E+02
4878000000.000000      6.528625000000000E-01      1.383984000000000E+01      3.888550000000000E-01     -1.538828000000000E+02
4879000000.000000      6.571045000000000E-01      1.400439000000000E+01      3.834381000000000E-01     -1.545625000000000E+02
4880000000.000000      6.583862000000000E-01      1.384814000000000E+01      3.791656000000000E-01     -1.553359000000000E+02
4881000000.000000      6.585999000000000E-01      1.378076000000000E+01      3.735809000000000E-01     -1.556484000000000E+02
4882000000.000000      6.618042000000000E-01      1.382324000000000E+01      3.706055000000000E-01     -1.563437000000000E+02
4883000000.000000      6.600952000000000E-01      1.374072000000000E+01      3.659210000000000E-01     -1.568047000000000E+02
4884000000.000000      6.632996000000000E-01      1.363232000000000E+01      3.622894000000000E-01     -1.573281000000000E+02
4885000000.000000      6.644897000000000E-01      1.355273000000000E+01      3.574982000000000E-01     -1.577109000000000E+02
4886000000.000000      6.643982000000000E-01      1.356494000000000E+01      3.532410000000000E-01     -1.581797000000000E+02
4887000000.000000      6.665649000000000E-01      1.350732000000000E+01      3.482513000000000E-01     -1.587265000000000E+02
4888000000.000000      6.672668000000000E-01      1.309424000000000E+01      3.447266000000000E-01     -1.593047000000000E+02
4889000000.000000      6.674500000000000E-01      1.329346000000000E+01      3.394470000000000E-01     -1.596094000000000E+02
4890000000.000000      6.687317000000000E-01      1.300342000000000E+01      3.356018000000000E-01     -1.604687000000000E+02
4891000000.000000      6.707153000000000E-01      1.311475000000000E+01      3.312073000000000E-01     -1.606641000000000E+02
4892000000.000000      6.701355000000000E-01      1.303076000000000E+01      3.276978000000000E-01     -1.608125000000000E+02
4893000000.000000      6.738892000000000E-01      1.296631000000000E+01      3.228607000000000E-01     -1.615156000000000E+02
4894000000.000000      6.731873000000000E-01      1.264893000000000E+01      3.185883000000000E-01     -1.616328000000000E+02
4895000000.000000      6.780396000000000E-01      1.252295000000000E+01      3.173676000000000E-01     -1.620937000000000E+02
4896000000.000000      6.742859000000000E-01      1.252979000000000E+01      3.122864000000000E-01     -1.624297000000000E+02
4897000000.000000      6.748657000000000E-01      1.272217000000000E+01      3.086090000000000E-01     -1.627969000000000E+02
4898000000.000000      6.744690000000000E-01      1.230469000000000E+01      3.053894000000000E-01     -1.630781000000000E+02
4899000000.000000      6.788940000000000E-01      1.236475000000000E+01      3.014374000000000E-01     -1.637500000000000E+02
4900000000.000000      6.784668000000000E-01      1.219873000000000E+01      2.977600000000000E-01     -1.638828000000000E+02
4901000000.000000      6.782532000000000E-01      1.216016000000000E+01      2.940826000000000E-01     -1.641875000000000E+02
4902000000.000000      6.824036000000000E-01      1.193799000000000E+01      2.907867000000000E-01     -1.643437000000000E+02
4903000000.000000      6.816101000000000E-01      1.206543000000000E+01      2.860107000000000E-01     -1.648203000000000E+02
4904000000.000000      6.805115000000000E-01      1.176465000000000E+01      2.831573000000000E-01     -1.651953000000000E+02
4905000000.000000      6.831360000000000E-01      1.180176000000000E+01      2.802429000000000E-01     -1.654609000000000E+02
4906000000.000000      6.831970000000000E-01      1.158496000000000E+01      2.761993000000000E-01     -1.655859000000000E+02
4907000000.000000      6.847229000000000E-01      1.155615000000000E+01      2.729950000000000E-01     -1.661172000000000E+02
4908000000.000000      6.854553000000000E-01      1.153271000000000E+01      2.696991000000000E-01     -1.664922000000000E+02
4909000000.000000      6.824341000000000E-01      1.138281000000000E+01      2.655182000000000E-01     -1.667656000000000E+02
4910000000.000000      6.861877000000000E-01      1.124854000000000E+01      2.626038000000000E-01     -1.669141000000000E+02
4911000000.000000      6.858826000000000E-01      1.120020000000000E+01      2.584381000000000E-01     -1.671719000000000E+02
4912000000.000000      6.861572000000000E-01      1.106445000000000E+01      2.554169000000000E-01     -1.676406000000000E+02
4913000000.000000      6.878662000000000E-01      1.078418000000000E+01      2.517853000000000E-01     -1.678594000000000E+02
4914000000.000000      6.879883000000000E-01      1.076221000000000E+01      2.486267000000000E-01     -1.681015000000000E+02
4915000000.000000      6.898193000000000E-01      1.072510000000000E+01      2.451172000000000E-01     -1.684609000000000E+02
4916000000.000000      6.895447000000000E-01      1.086914000000000E+01      2.416077000000000E-01     -1.687656000000000E+02
4917000000.000000      6.893921000000000E-01      1.067041000000000E+01      2.377243000000000E-01     -1.688906000000000E+02
4918000000.000000      6.901245000000000E-01      1.032568000000000E+01      2.334442000000000E-01     -1.692188000000000E+02
4919000000.000000      6.900024000000000E-01      1.037646000000000E+01      2.307281000000000E-01     -1.692500000000000E+02
4920000000.000000      6.895447000000000E-01      1.034473000000000E+01      2.266769000000000E-01     -1.697969000000000E+02
4921000000.000000      6.920166000000000E-01      1.025684000000000E+01      2.230072000000000E-01     -1.698125000000000E+02
4922000000.000000      6.929626000000000E-01      1.000537000000000E+01      2.193069000000000E-01     -1.699531000000000E+02
4923000000.000000      6.928406000000000E-01      1.008936000000000E+01      2.161179000000000E-01     -1.700391000000000E+02
4924000000.000000      6.931458000000000E-01      9.759766000000000E+00      2.117538000000000E-01     -1.704062000000000E+02
4925000000.000000      6.916809000000000E-01      9.699219000000000E+00      2.074738000000000E-01     -1.705078000000000E+02
4926000000.000000      6.947021000000000E-01      9.697754000000000E+00      2.049332000000000E-01     -1.706250000000000E+02
4927000000.000000      6.947937000000000E-01      9.415039000000000E+00      2.006531000000000E-01     -1.706875000000000E+02
4928000000.000000      6.970825000000000E-01      9.439941000000000E+00      1.977158000000000E-01     -1.706719000000000E+02
4929000000.000000      6.951904000000000E-01      9.295410000000000E+00      1.930313000000000E-01     -1.708594000000000E+02
4930000000.000000      6.945801000000000E-01      9.286133000000000E+00      1.896210000000000E-01     -1.708359000000000E+02
4931000000.000000      6.944580000000000E-01      9.009766000000000E+00      1.866913000000000E-01     -1.709531000000000E+02
4932000000.000000      6.972656000000000E-01      9.044434000000000E+00      1.819534000000000E-01     -1.706719000000000E+02
4933000000.000000      6.975708000000000E-01      8.942871000000000E+00      1.778641000000000E-01     -1.704531000000000E+02
4934000000.000000      6.970215000000000E-01      8.705078000000000E+00      1.744766000000000E-01     -1.706406000000000E+02
4935000000.000000      6.973877000000000E-01      8.862793000000000E+00      1.716537000000000E-01     -1.702031000000000E+02
4936000000.000000      6.992493000000000E-01      8.746094000000000E+00      1.674500000000000E-01     -1.700703000000000E+02
4937000000.000000      6.981812000000000E-01      8.599121000000000E+00      1.639557000000000E-01     -1.698516000000000E+02
4938000000.000000      7.001953000000000E-01      8.486816000000000E+00      1.599808000000000E-01     -1.693281000000000E+02
4939000000.000000      6.980591000000000E-01      8.398926000000000E+00      1.567001000000000E-01     -1.691172000000000E+02
4940000000.000000      6.997681000000000E-01      8.343750000000000E+00      1.527634000000000E-01     -1.688594000000000E+02
4941000000.000000      7.003174000000000E-01      8.239746000000000E+00      1.497116000000000E-01     -1.682109000000000E+02
4942000000.000000      7.000122000000000E-01      8.276367000000000E+00      1.457825000000000E-01     -1.677500000000000E+02
4943000000.000000      7.008667000000000E-01      8.074707000000000E+00      1.428299000000000E-01     -1.671875000000000E+02
4944000000.000000      6.997986000000000E-01      7.824951000000000E+00      1.393127000000000E-01     -1.663750000000000E+02
4945000000.000000      7.019653000000000E-01      8.026855000000000E+00      1.361008000000000E-01     -1.657109000000000E+02
4946000000.000000      7.030640000000000E-01      7.778320000000000E+00      1.332932000000000E-01     -1.647500000000000E+02
4947000000.000000      7.026062000000000E-01      7.576416000000000E+00      1.298447000000000E-01     -1.639453000000000E+02
4948000000.000000      7.042847000000000E-01      7.691650000000000E+00      1.272430000000000E-01     -1.628906000000000E+02
4949000000.000000      7.018127000000000E-01      7.470703000000000E+00      1.242943000000000E-01     -1.617031000000000E+02
4950000000.000000      7.051697000000000E-01      7.460938000000000E+00      1.219559000000000E-01     -1.604922000000000E+02
4951000000.000000      7.030640000000000E-01      7.175293000000000E+00      1.194229000000000E-01     -1.594219000000000E+02
4952000000.000000      7.056274000000000E-01      7.198730000000000E+00      1.174088000000000E-01     -1.581094000000000E+02
4953000000.000000      7.048645000000000E-01      6.962402000000000E+00      1.149178000000000E-01     -1.565547000000000E+02
4954000000.000000      7.071228000000000E-01      6.969238000000000E+00      1.132317000000000E-01     -1.551406000000000E+02
