! Network Analyzer HP8722D
! Hewlett-Packard
! Data name: Linha & Wilkinson
! Saver's name: Rodrigo Anjos
! Comments: Teste da utilização de aquisição
continua pelo VNA HP8722D
! Time and date: 22/5/2025 07:29
!              Frequency                     S11                                                   S21                                                   S12                                                   S22
# HZ  S  MA R 50
4800000000.000000      6.445618000000000E-01      1.050684000000000E+01      4.736023000000000E-01     -9.376953000000000E+01
4801000000.000000      6.420898000000000E-01      1.056299000000000E+01      4.731293000000000E-01     -9.436327000000000E+01
4802000000.000000      6.408081000000000E-01      1.049463000000000E+01      4.764252000000000E-01     -9.509766000000000E+01
4803000000.000000      6.395264000000000E-01      1.037646000000000E+01      4.784698000000000E-01     -9.593359000000000E+01
4804000000.000000      6.362610000000000E-01      1.056055000000000E+01      4.796906000000000E-01     -9.665234000000000E+01
4805000000.000000      6.370544000000000E-01      1.035986000000000E+01      4.795990000000000E-01     -9.743359000000000E+01
4806000000.000000      6.338501000000000E-01      1.041748000000000E+01      4.815521000000000E-01     -9.826561000000000E+01
4807000000.000000      6.318359000000000E-01      1.040771000000000E+01      4.838409000000000E-01     -9.908592000000000E+01
4808000000.000000      6.301575000000000E-01      1.053027000000000E+01      4.851837000000000E-01     -9.975780000000000E+01
4809000000.000000      6.287231000000000E-01      1.061670000000000E+01      4.868011000000000E-01     -1.005117000000000E+02
4810000000.000000      6.278687000000000E-01      1.064014000000000E+01      4.882507000000000E-01     -1.012461000000000E+02
4811000000.000000      6.284485000000000E-01      1.064404000000000E+01      4.902191000000000E-01     -1.022461000000000E+02
4812000000.000000      6.274719000000000E-01      1.083936000000000E+01      4.906921000000000E-01     -1.028125000000000E+02
4813000000.000000      6.245422000000000E-01      1.089697000000000E+01      4.900513000000000E-01     -1.035820000000000E+02
4814000000.000000      6.215210000000000E-01      1.071533000000000E+01      4.930420000000000E-01     -1.042109000000000E+02
4815000000.000000      6.206970000000000E-01      1.097363000000000E+01      4.943390000000000E-01     -1.050156000000000E+02
4816000000.000000      6.223755000000000E-01      1.096680000000000E+01      4.933472000000000E-01     -1.057422000000000E+02
4817000000.000000      6.179199000000000E-01      1.118506000000000E+01      4.939423000000000E-01     -1.064687000000000E+02
4818000000.000000      6.177979000000000E-01      1.106592000000000E+01      4.944763000000000E-01     -1.073945000000000E+02
4819000000.000000      6.174622000000000E-01      1.123877000000000E+01      4.950562000000000E-01     -1.082070000000000E+02
4820000000.000000      6.141663000000000E-01      1.152148000000000E+01      4.949036000000000E-01     -1.087109000000000E+02
4821000000.000000      6.142578000000000E-01      1.138965000000000E+01      4.966583000000000E-01     -1.096211000000000E+02
4822000000.000000      6.124878000000000E-01      1.134717000000000E+01      4.948578000000000E-01     -1.103281000000000E+02
4823000000.000000      6.126709000000000E-01      1.156689000000000E+01      4.973145000000000E-01     -1.111367000000000E+02
4824000000.000000      6.120911000000000E-01      1.173340000000000E+01      4.973297000000000E-01     -1.119258000000000E+02
4825000000.000000      6.124268000000000E-01      1.179346000000000E+01      4.967499000000000E-01     -1.125977000000000E+02
4826000000.000000      6.098633000000000E-01      1.170850000000000E+01      4.976807000000000E-01     -1.133555000000000E+02
4827000000.000000      6.119080000000000E-01      1.194727000000000E+01      4.971008000000000E-01     -1.140781000000000E+02
4828000000.000000      6.109924000000000E-01      1.207666000000000E+01      4.982758000000000E-01     -1.149180000000000E+02
4829000000.000000      6.080627000000000E-01      1.224805000000000E+01      4.984589000000000E-01     -1.154726000000000E+02
4830000000.000000      6.108398000000000E-01      1.221924000000000E+01      4.972534000000000E-01     -1.164101000000000E+02
4831000000.000000      6.087646000000000E-01      1.240039000000000E+01      4.978485000000000E-01     -1.172070000000000E+02
4832000000.000000      6.079712000000000E-01      1.263672000000000E+01      4.964905000000000E-01     -1.177812000000000E+02
4833000000.000000      6.082764000000000E-01      1.264795000000000E+01      4.971161000000000E-01     -1.185586000000000E+02
4834000000.000000      6.085815000000000E-01      1.279199000000000E+01      4.955139000000000E-01     -1.193281000000000E+02
4835000000.000000      6.083679000000000E-01      1.279590000000000E+01      4.967194000000000E-01     -1.202187000000000E+02
4836000000.000000      6.110229000000000E-01      1.285791000000000E+01      4.954681000000000E-01     -1.209922000000000E+02
4837000000.000000      6.079712000000000E-01      1.319580000000000E+01      4.953308000000000E-01     -1.220898000000000E+02
4838000000.000000      6.084900000000000E-01      1.322852000000000E+01      4.965820000000000E-01     -1.223633000000000E+02
4839000000.000000      6.117554000000000E-01      1.337549000000000E+01      4.959869000000000E-01     -1.233594000000000E+02
4840000000.000000      6.109619000000000E-01      1.328760000000000E+01      4.952087000000000E-01     -1.241406000000000E+02
4841000000.000000      6.097107000000000E-01      1.356250000000000E+01      4.951324000000000E-01     -1.248867000000000E+02
4842000000.000000      6.102905000000000E-01      1.351709000000000E+01      4.932556000000000E-01     -1.257851000000000E+02
4843000000.000000      6.132202000000000E-01      1.364893000000000E+01      4.927216000000000E-01     -1.266602000000000E+02
4844000000.000000      6.133118000000000E-01      1.363086000000000E+01      4.918671000000000E-01     -1.274492000000000E+02
4845000000.000000      6.138306000000000E-01      1.391650000000000E+01      4.893951000000000E-01     -1.281406000000000E+02
4846000000.000000      6.145020000000000E-01      1.393311000000000E+01      4.880524000000000E-01     -1.289453000000000E+02
4847000000.000000      6.162415000000000E-01      1.408008000000000E+01      4.887085000000000E-01     -1.297734000000000E+02
4848000000.000000      6.165771000000000E-01      1.408984000000000E+01      4.856110000000000E-01     -1.305703000000000E+02
4849000000.000000      6.166382000000000E-01      1.406348000000000E+01      4.847260000000000E-01     -1.315547000000000E+02
4850000000.000000      6.158752000000000E-01      1.424072000000000E+01      4.819794000000000E-01     -1.324063000000000E+02
4851000000.000000      6.192322000000000E-01      1.429980000000000E+01      4.821167000000000E-01     -1.331875000000000E+02
4852000000.000000      6.193848000000000E-01      1.431201000000000E+01      4.796753000000000E-01     -1.340156000000000E+02
4853000000.000000      6.214905000000000E-01      1.453320000000000E+01      4.762268000000000E-01     -1.348984000000000E+02
4854000000.000000      6.225891000000000E-01      1.451807000000000E+01      4.743805000000000E-01     -1.358203000000000E+02
4855000000.000000      6.229248000000000E-01      1.452783000000000E+01      4.715881000000000E-01     -1.366953000000000E+02
4856000000.000000      6.242065000000000E-01      1.448682000000000E+01      4.680786000000000E-01     -1.376250000000000E+02
4857000000.000000      6.250305000000000E-01      1.458838000000000E+01      4.672852000000000E-01     -1.382031000000000E+02
4858000000.000000      6.254272000000000E-01      1.451807000000000E+01      4.640656000000000E-01     -1.391641000000000E+02
4859000000.000000      6.271667000000000E-01      1.459766000000000E+01      4.622650000000000E-01     -1.401562000000000E+02
4860000000.000000      6.285706000000000E-01      1.453613000000000E+01      4.568024000000000E-01     -1.409297000000000E+02
4861000000.000000      6.284790000000000E-01      1.463232000000000E+01      4.544830000000000E-01     -1.416875000000000E+02
4862000000.000000      6.295471000000000E-01      1.464453000000000E+01      4.519653000000000E-01     -1.424141000000000E+02
4863000000.000000      6.319275000000000E-01      1.455957000000000E+01      4.476776000000000E-01     -1.433672000000000E+02
4864000000.000000      6.333618000000000E-01      1.470654000000000E+01      4.442291000000000E-01     -1.438359000000000E+02
4865000000.000000      6.345825000000000E-01      1.456348000000000E+01      4.415131000000000E-01     -1.447187000000000E+02
4866000000.000000      6.380005000000000E-01      1.458008000000000E+01      4.364014000000000E-01     -1.456406000000000E+02
4867000000.000000      6.359253000000000E-01      1.465967000000000E+01      4.319000000000000E-01     -1.465234000000000E+02
4868000000.000000      6.382446000000000E-01      1.465820000000000E+01      4.287720000000000E-01     -1.471719000000000E+02
4869000000.000000      6.403503000000000E-01      1.449072000000000E+01      4.250031000000000E-01     -1.479453000000000E+02
4870000000.000000      6.408386000000000E-01      1.450732000000000E+01      4.210968000000000E-01     -1.484531000000000E+02
4871000000.000000      6.427307000000000E-01      1.444678000000000E+01      4.163971000000000E-01     -1.493672000000000E+02
4872000000.000000      6.445007000000000E-01      1.447705000000000E+01      4.123688000000000E-01     -1.499141000000000E+02
4873000000.000000      6.461792000000000E-01      1.452246000000000E+01      4.076691000000000E-01     -1.509063000000000E+02
4874000000.000000      6.458130000000000E-01      1.453613000000000E+01      4.028931000000000E-01     -1.514453000000000E+02
4875000000.000000      6.478271000000000E-01      1.432324000000000E+01      3.981781000000000E-01     -1.520156000000000E+02
4876000000.000000      6.495056000000000E-01      1.442627000000000E+01      3.960419000000000E-01     -1.527656000000000E+02
4877000000.000000      6.498413000000000E-01      1.404980000000000E+01      3.906860000000000E-01     -1.535234000000000E+02
4878000000.000000      6.497192000000000E-01      1.415576000000000E+01      3.872681000000000E-01     -1.540469000000000E+02
4879000000.000000      6.529541000000000E-01      1.424756000000000E+01      3.815765000000000E-01     -1.545547000000000E+02
4880000000.000000      6.546936000000000E-01      1.407715000000000E+01      3.766785000000000E-01     -1.550625000000000E+02
4881000000.000000      6.523743000000000E-01      1.405957000000000E+01      3.731384000000000E-01     -1.555469000000000E+02
4882000000.000000      6.568604000000000E-01      1.404590000000000E+01      3.691711000000000E-01     -1.562578000000000E+02
4883000000.000000      6.568909000000000E-01      1.390869000000000E+01      3.637085000000000E-01     -1.568828000000000E+02
4884000000.000000      6.609497000000000E-01      1.387158000000000E+01      3.588104000000000E-01     -1.574062000000000E+02
4885000000.000000      6.596985000000000E-01      1.390723000000000E+01      3.568878000000000E-01     -1.576250000000000E+02
4886000000.000000      6.619568000000000E-01      1.377783000000000E+01      3.511353000000000E-01     -1.580391000000000E+02
4887000000.000000      6.623535000000000E-01      1.364355000000000E+01      3.472595000000000E-01     -1.587109000000000E+02
4888000000.000000      6.639709000000000E-01      1.351025000000000E+01      3.448334000000000E-01     -1.592734000000000E+02
4889000000.000000      6.634827000000000E-01      1.328613000000000E+01      3.384094000000000E-01     -1.596953000000000E+02
4890000000.000000      6.636047000000000E-01      1.343604000000000E+01      3.345490000000000E-01     -1.603125000000000E+02
4891000000.000000      6.665039000000000E-01      1.336328000000000E+01      3.301086000000000E-01     -1.604531000000000E+02
4892000000.000000      6.682434000000000E-01      1.329883000000000E+01      3.259125000000000E-01     -1.608438000000000E+02
4893000000.000000      6.695251000000000E-01      1.307373000000000E+01      3.227234000000000E-01     -1.614531000000000E+02
4894000000.000000      6.692810000000000E-01      1.305957000000000E+01      3.182678000000000E-01     -1.618281000000000E+02
4895000000.000000      6.721497000000000E-01      1.284277000000000E+01      3.158417000000000E-01     -1.621484000000000E+02
4896000000.000000      6.718750000000000E-01      1.297852000000000E+01      3.112335000000000E-01     -1.623828000000000E+02
4897000000.000000      6.718750000000000E-01      1.273291000000000E+01      3.073578000000000E-01     -1.628281000000000E+02
4898000000.000000      6.726685000000000E-01      1.253662000000000E+01      3.039703000000000E-01     -1.631953000000000E+02
4899000000.000000      6.748962000000000E-01      1.273438000000000E+01      3.001251000000000E-01     -1.636016000000000E+02
4900000000.000000      6.747131000000000E-01      1.243213000000000E+01      2.962646000000000E-01     -1.638906000000000E+02
4901000000.000000      6.758423000000000E-01      1.229492000000000E+01      2.927246000000000E-01     -1.640781000000000E+02
4902000000.000000      6.743164000000000E-01      1.215625000000000E+01      2.901306000000000E-01     -1.643750000000000E+02
4903000000.000000      6.765747000000000E-01      1.237842000000000E+01      2.853241000000000E-01     -1.646953000000000E+02
4904000000.000000      6.783752000000000E-01      1.207373000000000E+01      2.824097000000000E-01     -1.650312000000000E+02
4905000000.000000      6.791077000000000E-01      1.213428000000000E+01      2.789459000000000E-01     -1.654766000000000E+02
4906000000.000000      6.794128000000000E-01      1.192822000000000E+01      2.749786000000000E-01     -1.655313000000000E+02
4907000000.000000      6.795654000000000E-01      1.177832000000000E+01      2.721100000000000E-01     -1.660000000000000E+02
4908000000.000000      6.798706000000000E-01      1.162598000000000E+01      2.687988000000000E-01     -1.664453000000000E+02
4909000000.000000      6.818237000000000E-01      1.149414000000000E+01      2.646790000000000E-01     -1.666719000000000E+02
4910000000.000000      6.806946000000000E-01      1.163281000000000E+01      2.612305000000000E-01     -1.671250000000000E+02
4911000000.000000      6.837158000000000E-01      1.140625000000000E+01      2.583008000000000E-01     -1.672344000000000E+02
4912000000.000000      6.831360000000000E-01      1.117578000000000E+01      2.544250000000000E-01     -1.675313000000000E+02
4913000000.000000      6.842346000000000E-01      1.125391000000000E+01      2.510834000000000E-01     -1.677891000000000E+02
4914000000.000000      6.845093000000000E-01      1.113184000000000E+01      2.472076000000000E-01     -1.679375000000000E+02
4915000000.000000      6.851196000000000E-01      1.106445000000000E+01      2.436218000000000E-01     -1.683828000000000E+02
4916000000.000000      6.855469000000000E-01      1.082959000000000E+01      2.398682000000000E-01     -1.688359000000000E+02
4917000000.000000      6.851807000000000E-01      1.100098000000000E+01      2.371902000000000E-01     -1.689375000000000E+02
4918000000.000000      6.862793000000000E-01      1.082275000000000E+01      2.326889000000000E-01     -1.692578000000000E+02
4919000000.000000      6.849060000000000E-01      1.072803000000000E+01      2.296448000000000E-01     -1.691484000000000E+02
4920000000.000000      6.862183000000000E-01      1.041504000000000E+01      2.258072000000000E-01     -1.698516000000000E+02
4921000000.000000      6.862183000000000E-01      1.045898000000000E+01      2.221222000000000E-01     -1.698516000000000E+02
4922000000.000000      6.884766000000000E-01      1.033105000000000E+01      2.188492000000000E-01     -1.698984000000000E+02
4923000000.000000      6.892090000000000E-01      1.025684000000000E+01      2.147141000000000E-01     -1.700547000000000E+02
4924000000.000000      6.909485000000000E-01      9.979492000000000E+00      2.110748000000000E-01     -1.702188000000000E+02
4925000000.000000      6.902771000000000E-01      1.000537000000000E+01      2.072525000000000E-01     -1.705078000000000E+02
4926000000.000000      6.896973000000000E-01      9.920410000000000E+00      2.041931000000000E-01     -1.706484000000000E+02
4927000000.000000      6.910095000000000E-01      9.869629000000000E+00      1.994934000000000E-01     -1.707187000000000E+02
4928000000.000000      6.924438000000000E-01      9.703613000000000E+00      1.963196000000000E-01     -1.705937000000000E+02
4929000000.000000      6.918030000000000E-01      9.656738000000000E+00      1.925964000000000E-01     -1.707422000000000E+02
4930000000.000000      6.931458000000000E-01      9.500000000000000E+00      1.889648000000000E-01     -1.708047000000000E+02
4931000000.000000      6.916809000000000E-01      9.305176000000000E+00      1.855621000000000E-01     -1.707891000000000E+02
4932000000.000000      6.931763000000000E-01      9.406738000000000E+00      1.816711000000000E-01     -1.706719000000000E+02
4933000000.000000      6.927490000000000E-01      9.377930000000000E+00      1.773682000000000E-01     -1.704531000000000E+02
4934000000.000000      6.955566000000000E-01      9.067383000000000E+00      1.740952000000000E-01     -1.705937000000000E+02
4935000000.000000      6.958008000000000E-01      9.104492000000000E+00      1.704102000000000E-01     -1.702109000000000E+02
4936000000.000000      6.947021000000000E-01      8.935547000000000E+00      1.665955000000000E-01     -1.700156000000000E+02
4937000000.000000      6.970825000000000E-01      8.780762000000000E+00      1.630936000000000E-01     -1.699062000000000E+02
4938000000.000000      6.951904000000000E-01      8.979492000000000E+00      1.595612000000000E-01     -1.694531000000000E+02
4939000000.000000      6.965942000000000E-01      8.698242000000000E+00      1.558380000000000E-01     -1.690938000000000E+02
4940000000.000000      6.966858000000000E-01      8.577148000000000E+00      1.525192000000000E-01     -1.688828000000000E+02
4941000000.000000      6.993713000000000E-01      8.289063000000000E+00      1.489182000000000E-01     -1.683203000000000E+02
4942000000.000000      6.965027000000000E-01      8.264160000000000E+00      1.453476000000000E-01     -1.678203000000000E+02
4943000000.000000      6.986389000000000E-01      8.405762000000000E+00      1.421661000000000E-01     -1.670078000000000E+02
4944000000.000000      6.986389000000000E-01      8.227051000000000E+00      1.390915000000000E-01     -1.664687000000000E+02
4945000000.000000      6.970215000000000E-01      8.118652000000000E+00      1.355438000000000E-01     -1.657031000000000E+02
4946000000.000000      6.992798000000000E-01      8.020020000000000E+00      1.328659000000000E-01     -1.648359000000000E+02
4947000000.000000      6.989441000000000E-01      7.907227000000000E+00      1.290131000000000E-01     -1.639141000000000E+02
4948000000.000000      7.008667000000000E-01      7.863281000000000E+00      1.266556000000000E-01     -1.629844000000000E+02
4949000000.000000      7.009888000000000E-01      7.705322000000000E+00      1.241379000000000E-01     -1.617891000000000E+02
4950000000.000000      7.019958000000000E-01      7.732910000000000E+00      1.212883000000000E-01     -1.606641000000000E+02
4951000000.000000      7.024841000000000E-01      7.362061000000000E+00      1.189766000000000E-01     -1.597265000000000E+02
4952000000.000000      7.025757000000000E-01      7.459717000000000E+00      1.165123000000000E-01     -1.581953000000000E+02
4953000000.000000      7.014160000000000E-01      7.368896000000000E+00      1.147041000000000E-01     -1.563594000000000E+02
4954000000.000000      7.024841000000000E-01      7.152100000000000E+00      1.123886000000000E-01     -1.550547000000000E+02
