! Network Analyzer HP8722D
! Hewlett-Packard
! Data name: Linha & Wilkinson
! Saver's name: Rodrigo Anjos
! Comments: Teste da utilização de aquisição
continua pelo VNA HP8722D
! Time and date: 22/5/2025 13:48
!              Frequency                     S11                                                   S21                                                   S12                                                   S22
# HZ  S  MA R 50
4800000000.000000      6.496887000000000E-01      1.083936000000000E+01      4.726868000000000E-01     -9.301952000000000E+01
4801000000.000000      6.467285000000000E-01      1.103027000000000E+01      4.732819000000000E-01     -9.374218000000000E+01
4802000000.000000      6.470337000000000E-01      1.093652000000000E+01      4.746857000000000E-01     -9.454687000000000E+01
4803000000.000000      6.440125000000000E-01      1.091211000000000E+01      4.783173000000000E-01     -9.529688000000000E+01
4804000000.000000      6.417236000000000E-01      1.091748000000000E+01      4.795380000000000E-01     -9.608984000000000E+01
4805000000.000000      6.425476000000000E-01      1.081152000000000E+01      4.812317000000000E-01     -9.683983000000000E+01
4806000000.000000      6.404419000000000E-01      1.085303000000000E+01      4.823151000000000E-01     -9.760155000000000E+01
4807000000.000000      6.377563000000000E-01      1.081299000000000E+01      4.838104000000000E-01     -9.847656000000000E+01
4808000000.000000      6.359253000000000E-01      1.087500000000000E+01      4.869995000000000E-01     -9.893358000000000E+01
4809000000.000000      6.341248000000000E-01      1.096826000000000E+01      4.852448000000000E-01     -1.000312000000000E+02
4810000000.000000      6.337891000000000E-01      1.105615000000000E+01      4.878235000000000E-01     -1.006523000000000E+02
4811000000.000000      6.321716000000000E-01      1.105908000000000E+01      4.898987000000000E-01     -1.017305000000000E+02
4812000000.000000      6.316833000000000E-01      1.123486000000000E+01      4.907990000000000E-01     -1.020234000000000E+02
4813000000.000000      6.309204000000000E-01      1.135547000000000E+01      4.914246000000000E-01     -1.029140000000000E+02
4814000000.000000      6.268311000000000E-01      1.133789000000000E+01      4.935303000000000E-01     -1.035195000000000E+02
4815000000.000000      6.270752000000000E-01      1.132666000000000E+01      4.926147000000000E-01     -1.044453000000000E+02
4816000000.000000      6.268616000000000E-01      1.129102000000000E+01      4.956970000000000E-01     -1.051601000000000E+02
4817000000.000000      6.238708000000000E-01      1.143115000000000E+01      4.946289000000000E-01     -1.057265000000000E+02
4818000000.000000      6.239624000000000E-01      1.152734000000000E+01      4.953918000000000E-01     -1.065859000000000E+02
4819000000.000000      6.206360000000000E-01      1.148730000000000E+01      4.937439000000000E-01     -1.074609000000000E+02
4820000000.000000      6.206665000000000E-01      1.164648000000000E+01      4.958344000000000E-01     -1.079844000000000E+02
4821000000.000000      6.214294000000000E-01      1.177588000000000E+01      4.981232000000000E-01     -1.089492000000000E+02
4822000000.000000      6.180420000000000E-01      1.175928000000000E+01      4.960327000000000E-01     -1.095625000000000E+02
4823000000.000000      6.187744000000000E-01      1.198438000000000E+01      4.979858000000000E-01     -1.105508000000000E+02
4824000000.000000      6.172485000000000E-01      1.208740000000000E+01      4.968719000000000E-01     -1.111601000000000E+02
4825000000.000000      6.162720000000000E-01      1.219482000000000E+01      4.973450000000000E-01     -1.117305000000000E+02
4826000000.000000      6.148987000000000E-01      1.219043000000000E+01      4.983978000000000E-01     -1.128711000000000E+02
4827000000.000000      6.157837000000000E-01      1.228662000000000E+01      4.988403000000000E-01     -1.134609000000000E+02
4828000000.000000      6.159973000000000E-01      1.242139000000000E+01      4.992828000000000E-01     -1.141211000000000E+02
4829000000.000000      6.148682000000000E-01      1.257373000000000E+01      4.978638000000000E-01     -1.148476000000000E+02
4830000000.000000      6.148376000000000E-01      1.253809000000000E+01      4.985046000000000E-01     -1.157539000000000E+02
4831000000.000000      6.131592000000000E-01      1.263672000000000E+01      4.989319000000000E-01     -1.164101000000000E+02
4832000000.000000      6.116638000000000E-01      1.298682000000000E+01      4.977722000000000E-01     -1.170430000000000E+02
4833000000.000000      6.131287000000000E-01      1.287695000000000E+01      4.975891000000000E-01     -1.178945000000000E+02
4834000000.000000      6.125183000000000E-01      1.317773000000000E+01      4.988403000000000E-01     -1.186797000000000E+02
4835000000.000000      6.129150000000000E-01      1.309814000000000E+01      4.983521000000000E-01     -1.195625000000000E+02
4836000000.000000      6.146851000000000E-01      1.338672000000000E+01      4.967804000000000E-01     -1.201680000000000E+02
4837000000.000000      6.136169000000000E-01      1.361865000000000E+01      4.964752000000000E-01     -1.212930000000000E+02
4838000000.000000      6.127625000000000E-01      1.357617000000000E+01      4.975128000000000E-01     -1.216445000000000E+02
4839000000.000000      6.163940000000000E-01      1.365283000000000E+01      4.968262000000000E-01     -1.224922000000000E+02
4840000000.000000      6.155396000000000E-01      1.365186000000000E+01      4.955444000000000E-01     -1.233516000000000E+02
4841000000.000000      6.159363000000000E-01      1.388770000000000E+01      4.958344000000000E-01     -1.241758000000000E+02
4842000000.000000      6.174927000000000E-01      1.396338000000000E+01      4.953308000000000E-01     -1.250234000000000E+02
4843000000.000000      6.184998000000000E-01      1.402246000000000E+01      4.946747000000000E-01     -1.259219000000000E+02
4844000000.000000      6.180420000000000E-01      1.396338000000000E+01      4.923248000000000E-01     -1.268555000000000E+02
4845000000.000000      6.171265000000000E-01      1.410059000000000E+01      4.907684000000000E-01     -1.275742000000000E+02
4846000000.000000      6.200256000000000E-01      1.443994000000000E+01      4.899139000000000E-01     -1.281719000000000E+02
4847000000.000000      6.224976000000000E-01      1.438770000000000E+01      4.902496000000000E-01     -1.292187000000000E+02
4848000000.000000      6.183167000000000E-01      1.418311000000000E+01      4.870911000000000E-01     -1.299766000000000E+02
4849000000.000000      6.223755000000000E-01      1.444531000000000E+01      4.854279000000000E-01     -1.307422000000000E+02
4850000000.000000      6.216125000000000E-01      1.439063000000000E+01      4.835205000000000E-01     -1.317188000000000E+02
4851000000.000000      6.248169000000000E-01      1.472559000000000E+01      4.831238000000000E-01     -1.326406000000000E+02
4852000000.000000      6.229248000000000E-01      1.472168000000000E+01      4.815369000000000E-01     -1.334219000000000E+02
4853000000.000000      6.271667000000000E-01      1.460059000000000E+01      4.782410000000000E-01     -1.342578000000000E+02
4854000000.000000      6.257629000000000E-01      1.464307000000000E+01      4.748993000000000E-01     -1.350703000000000E+02
4855000000.000000      6.295471000000000E-01      1.479980000000000E+01      4.743347000000000E-01     -1.360859000000000E+02
4856000000.000000      6.293945000000000E-01      1.475977000000000E+01      4.706421000000000E-01     -1.368125000000000E+02
4857000000.000000      6.311340000000000E-01      1.486279000000000E+01      4.679565000000000E-01     -1.375859000000000E+02
4858000000.000000      6.298828000000000E-01      1.498096000000000E+01      4.654846000000000E-01     -1.386563000000000E+02
4859000000.000000      6.313782000000000E-01      1.473389000000000E+01      4.633331000000000E-01     -1.394219000000000E+02
4860000000.000000      6.317749000000000E-01      1.492725000000000E+01      4.596252000000000E-01     -1.401328000000000E+02
4861000000.000000      6.343994000000000E-01      1.502344000000000E+01      4.557953000000000E-01     -1.412344000000000E+02
4862000000.000000      6.357117000000000E-01      1.493164000000000E+01      4.542236000000000E-01     -1.418203000000000E+02
4863000000.000000      6.375122000000000E-01      1.506738000000000E+01      4.491882000000000E-01     -1.425703000000000E+02
4864000000.000000      6.379089000000000E-01      1.508936000000000E+01      4.458618000000000E-01     -1.435625000000000E+02
4865000000.000000      6.384888000000000E-01      1.491113000000000E+01      4.424896000000000E-01     -1.442109000000000E+02
4866000000.000000      6.419373000000000E-01      1.478027000000000E+01      4.380341000000000E-01     -1.449141000000000E+02
4867000000.000000      6.373596000000000E-01      1.483398000000000E+01      4.349365000000000E-01     -1.460781000000000E+02
4868000000.000000      6.423645000000000E-01      1.489600000000000E+01      4.304504000000000E-01     -1.466875000000000E+02
4869000000.000000      6.428833000000000E-01      1.493311000000000E+01      4.264221000000000E-01     -1.474219000000000E+02
4870000000.000000      6.443787000000000E-01      1.478320000000000E+01      4.209442000000000E-01     -1.479453000000000E+02
4871000000.000000      6.456604000000000E-01      1.462402000000000E+01      4.182587000000000E-01     -1.488594000000000E+02
4872000000.000000      6.486206000000000E-01      1.483838000000000E+01      4.139557000000000E-01     -1.494609000000000E+02
4873000000.000000      6.484680000000000E-01      1.484912000000000E+01      4.093018000000000E-01     -1.502031000000000E+02
4874000000.000000      6.502991000000000E-01      1.484766000000000E+01      4.057922000000000E-01     -1.507813000000000E+02
4875000000.000000      6.516418000000000E-01      1.464160000000000E+01      3.996582000000000E-01     -1.515312000000000E+02
4876000000.000000      6.524963000000000E-01      1.486133000000000E+01      3.961945000000000E-01     -1.523516000000000E+02
4877000000.000000      6.536255000000000E-01      1.446045000000000E+01      3.919983000000000E-01     -1.528984000000000E+02
4878000000.000000      6.528015000000000E-01      1.455664000000000E+01      3.888092000000000E-01     -1.534297000000000E+02
4879000000.000000      6.571960000000000E-01      1.456494000000000E+01      3.825226000000000E-01     -1.540469000000000E+02
4880000000.000000      6.583557000000000E-01      1.448389000000000E+01      3.801270000000000E-01     -1.546172000000000E+02
4881000000.000000      6.580200000000000E-01      1.446582000000000E+01      3.758850000000000E-01     -1.551016000000000E+02
4882000000.000000      6.598511000000000E-01      1.453467000000000E+01      3.704224000000000E-01     -1.555938000000000E+02
4883000000.000000      6.616211000000000E-01      1.421729000000000E+01      3.646545000000000E-01     -1.562891000000000E+02
4884000000.000000      6.640625000000000E-01      1.429688000000000E+01      3.610687000000000E-01     -1.568984000000000E+02
4885000000.000000      6.627808000000000E-01      1.413232000000000E+01      3.578186000000000E-01     -1.571640000000000E+02
4886000000.000000      6.651001000000000E-01      1.412549000000000E+01      3.539734000000000E-01     -1.575312000000000E+02
4887000000.000000      6.663513000000000E-01      1.398242000000000E+01      3.492584000000000E-01     -1.581328000000000E+02
4888000000.000000      6.683960000000000E-01      1.385645000000000E+01      3.450317000000000E-01     -1.586797000000000E+02
4889000000.000000      6.674805000000000E-01      1.382617000000000E+01      3.402100000000000E-01     -1.589453000000000E+02
4890000000.000000      6.666565000000000E-01      1.379883000000000E+01      3.360443000000000E-01     -1.597265000000000E+02
4891000000.000000      6.687927000000000E-01      1.374365000000000E+01      3.314362000000000E-01     -1.601406000000000E+02
4892000000.000000      6.688538000000000E-01      1.364746000000000E+01      3.285522000000000E-01     -1.601953000000000E+02
4893000000.000000      6.710205000000000E-01      1.351172000000000E+01      3.245087000000000E-01     -1.610937000000000E+02
4894000000.000000      6.741943000000000E-01      1.339502000000000E+01      3.190918000000000E-01     -1.613437000000000E+02
4895000000.000000      6.750488000000000E-01      1.329443000000000E+01      3.175659000000000E-01     -1.616094000000000E+02
4896000000.000000      6.745300000000000E-01      1.327002000000000E+01      3.130951000000000E-01     -1.618125000000000E+02
4897000000.000000      6.734314000000000E-01      1.307373000000000E+01      3.089905000000000E-01     -1.623516000000000E+02
4898000000.000000      6.767273000000000E-01      1.311768000000000E+01      3.060303000000000E-01     -1.626719000000000E+02
4899000000.000000      6.767273000000000E-01      1.279053000000000E+01      3.020020000000000E-01     -1.630703000000000E+02
4900000000.000000      6.806030000000000E-01      1.294580000000000E+01      2.975616000000000E-01     -1.634453000000000E+02
4901000000.000000      6.786499000000000E-01      1.269434000000000E+01      2.945099000000000E-01     -1.635000000000000E+02
4902000000.000000      6.805725000000000E-01      1.259961000000000E+01      2.908936000000000E-01     -1.639453000000000E+02
4903000000.000000      6.800232000000000E-01      1.255713000000000E+01      2.864685000000000E-01     -1.644140000000000E+02
4904000000.000000      6.793213000000000E-01      1.254492000000000E+01      2.834015000000000E-01     -1.646563000000000E+02
4905000000.000000      6.813354000000000E-01      1.214648000000000E+01      2.803955000000000E-01     -1.650547000000000E+02
4906000000.000000      6.806946000000000E-01      1.217383000000000E+01      2.763062000000000E-01     -1.650312000000000E+02
4907000000.000000      6.825867000000000E-01      1.214502000000000E+01      2.740021000000000E-01     -1.655781000000000E+02
4908000000.000000      6.849060000000000E-01      1.212744000000000E+01      2.706909000000000E-01     -1.658984000000000E+02
4909000000.000000      6.841736000000000E-01      1.206982000000000E+01      2.660522000000000E-01     -1.662656000000000E+02
4910000000.000000      6.837158000000000E-01      1.193115000000000E+01      2.627716000000000E-01     -1.665313000000000E+02
4911000000.000000      6.860352000000000E-01      1.180615000000000E+01      2.592621000000000E-01     -1.666641000000000E+02
4912000000.000000      6.862488000000000E-01      1.180029000000000E+01      2.564240000000000E-01     -1.671797000000000E+02
4913000000.000000      6.859741000000000E-01      1.148584000000000E+01      2.520142000000000E-01     -1.674609000000000E+02
4914000000.000000      6.877747000000000E-01      1.137451000000000E+01      2.488403000000000E-01     -1.677109000000000E+02
4915000000.000000      6.877747000000000E-01      1.122070000000000E+01      2.454987000000000E-01     -1.680156000000000E+02
4916000000.000000      6.907043000000000E-01      1.117285000000000E+01      2.412872000000000E-01     -1.684453000000000E+02
4917000000.000000      6.882324000000000E-01      1.120605000000000E+01      2.383041000000000E-01     -1.685000000000000E+02
4918000000.000000      6.908569000000000E-01      1.124561000000000E+01      2.339401000000000E-01     -1.688828000000000E+02
4919000000.000000      6.905212000000000E-01      1.095166000000000E+01      2.309875000000000E-01     -1.689375000000000E+02
4920000000.000000      6.907959000000000E-01      1.095166000000000E+01      2.272797000000000E-01     -1.693984000000000E+02
4921000000.000000      6.890564000000000E-01      1.084326000000000E+01      2.238312000000000E-01     -1.695313000000000E+02
4922000000.000000      6.912537000000000E-01      1.084717000000000E+01      2.198181000000000E-01     -1.695703000000000E+02
4923000000.000000      6.920471000000000E-01      1.047949000000000E+01      2.163467000000000E-01     -1.697031000000000E+02
4924000000.000000      6.926270000000000E-01      1.046289000000000E+01      2.124252000000000E-01     -1.701406000000000E+02
4925000000.000000      6.923218000000000E-01      1.051221000000000E+01      2.087708000000000E-01     -1.701641000000000E+02
4926000000.000000      6.937866000000000E-01      1.036133000000000E+01      2.052536000000000E-01     -1.703750000000000E+02
4927000000.000000      6.945190000000000E-01      1.023779000000000E+01      2.012482000000000E-01     -1.703828000000000E+02
4928000000.000000      6.961060000000000E-01      1.001367000000000E+01      1.976471000000000E-01     -1.705234000000000E+02
4929000000.000000      6.944580000000000E-01      1.000293000000000E+01      1.935425000000000E-01     -1.705000000000000E+02
4930000000.000000      6.958923000000000E-01      1.010156000000000E+01      1.907806000000000E-01     -1.706640000000000E+02
4931000000.000000      6.950073000000000E-01      9.715820000000000E+00      1.866684000000000E-01     -1.705312000000000E+02
4932000000.000000      6.960449000000000E-01      9.589355000000000E+00      1.830215000000000E-01     -1.706172000000000E+02
4933000000.000000      6.971436000000000E-01      9.619629000000000E+00      1.787338000000000E-01     -1.702969000000000E+02
4934000000.000000      6.991882000000000E-01      9.426270000000000E+00      1.749344000000000E-01     -1.703125000000000E+02
4935000000.000000      6.983948000000000E-01      9.404297000000000E+00      1.718140000000000E-01     -1.699766000000000E+02
4936000000.000000      6.987610000000000E-01      9.379395000000000E+00      1.675415000000000E-01     -1.697031000000000E+02
4937000000.000000      6.988220000000000E-01      9.188477000000000E+00      1.641617000000000E-01     -1.696094000000000E+02
4938000000.000000      6.993103000000000E-01      9.189941000000000E+00      1.606903000000000E-01     -1.692500000000000E+02
4939000000.000000      6.992188000000000E-01      9.206543000000000E+00      1.568298000000000E-01     -1.687734000000000E+02
4940000000.000000      6.982422000000000E-01      8.986816000000000E+00      1.531601000000000E-01     -1.688828000000000E+02
4941000000.000000      7.005615000000000E-01      8.799805000000000E+00      1.497955000000000E-01     -1.681406000000000E+02
4942000000.000000      6.999512000000000E-01      8.724121000000000E+00      1.458969000000000E-01     -1.676641000000000E+02
4943000000.000000      7.003784000000000E-01      8.620117000000000E+00      1.429977000000000E-01     -1.670625000000000E+02
4944000000.000000      7.045288000000000E-01      8.386230000000000E+00      1.397476000000000E-01     -1.663047000000000E+02
4945000000.000000      7.023621000000000E-01      8.338379000000000E+00      1.364746000000000E-01     -1.653828000000000E+02
4946000000.000000      7.020874000000000E-01      8.402832000000000E+00      1.335602000000000E-01     -1.648281000000000E+02
4947000000.000000      7.027893000000000E-01      8.276367000000000E+00      1.296997000000000E-01     -1.639141000000000E+02
4948000000.000000      7.042542000000000E-01      8.170898000000000E+00      1.274414000000000E-01     -1.629453000000000E+02
4949000000.000000      7.032471000000000E-01      8.054199000000000E+00      1.247597000000000E-01     -1.615625000000000E+02
4950000000.000000      7.063904000000000E-01      7.976074000000000E+00      1.220016000000000E-01     -1.605625000000000E+02
4951000000.000000      7.065735000000000E-01      7.871582000000000E+00      1.195335000000000E-01     -1.595469000000000E+02
4952000000.000000      7.064209000000000E-01      7.812500000000000E+00      1.169434000000000E-01     -1.581563000000000E+02
4953000000.000000      7.070923000000000E-01      7.537842000000000E+00      1.152000000000000E-01     -1.566250000000000E+02
4954000000.000000      7.074280000000000E-01      7.502197000000000E+00      1.130486000000000E-01     -1.551797000000000E+02
