! Network Analyzer HP8722D
! Hewlett-Packard
! Data name: Linha & Wilkinson
! Saver's name: Rodrigo Anjos
! Comments: Teste da utilização de aquisição
continua pelo VNA HP8722D
! Time and date: 22/5/2025 11:40
!              Frequency                     S11                                                   S21                                                   S12                                                   S22
# HZ  S  MA R 50
4800000000.000000      6.526184000000000E-01      1.077734000000000E+01      4.715424000000000E-01     -9.267969000000000E+01
4801000000.000000      6.511536000000000E-01      1.078418000000000E+01      4.721375000000000E-01     -9.316406000000000E+01
4802000000.000000      6.492004000000000E-01      1.072510000000000E+01      4.736176000000000E-01     -9.385546000000000E+01
4803000000.000000      6.455383000000000E-01      1.067041000000000E+01      4.780579000000000E-01     -9.465235000000000E+01
4804000000.000000      6.436768000000000E-01      1.075391000000000E+01      4.782562000000000E-01     -9.549608000000000E+01
4805000000.000000      6.437378000000000E-01      1.068115000000000E+01      4.815979000000000E-01     -9.627342000000000E+01
4806000000.000000      6.404419000000000E-01      1.068799000000000E+01      4.816895000000000E-01     -9.686327000000000E+01
4807000000.000000      6.392212000000000E-01      1.068799000000000E+01      4.825745000000000E-01     -9.783203000000000E+01
4808000000.000000      6.379395000000000E-01      1.092969000000000E+01      4.841614000000000E-01     -9.831640000000000E+01
4809000000.000000      6.355896000000000E-01      1.087891000000000E+01      4.855042000000000E-01     -9.937889000000000E+01
4810000000.000000      6.342773000000000E-01      1.084326000000000E+01      4.904938000000000E-01     -9.985155000000000E+01
4811000000.000000      6.328125000000000E-01      1.088721000000000E+01      4.881287000000000E-01     -1.007578000000000E+02
4812000000.000000      6.343994000000000E-01      1.110156000000000E+01      4.904938000000000E-01     -1.014961000000000E+02
4813000000.000000      6.298218000000000E-01      1.096436000000000E+01      4.904022000000000E-01     -1.023789000000000E+02
4814000000.000000      6.286011000000000E-01      1.090771000000000E+01      4.930115000000000E-01     -1.029883000000000E+02
4815000000.000000      6.278076000000000E-01      1.120605000000000E+01      4.911194000000000E-01     -1.037461000000000E+02
4816000000.000000      6.274414000000000E-01      1.115479000000000E+01      4.945374000000000E-01     -1.044297000000000E+02
4817000000.000000      6.249084000000000E-01      1.116748000000000E+01      4.948730000000000E-01     -1.054531000000000E+02
4818000000.000000      6.252441000000000E-01      1.122900000000000E+01      4.939117000000000E-01     -1.061211000000000E+02
4819000000.000000      6.221619000000000E-01      1.142285000000000E+01      4.954376000000000E-01     -1.068008000000000E+02
4820000000.000000      6.206360000000000E-01      1.154932000000000E+01      4.959564000000000E-01     -1.074023000000000E+02
4821000000.000000      6.222534000000000E-01      1.140479000000000E+01      4.976196000000000E-01     -1.083398000000000E+02
4822000000.000000      6.186829000000000E-01      1.158643000000000E+01      4.967041000000000E-01     -1.090820000000000E+02
4823000000.000000      6.196899000000000E-01      1.160156000000000E+01      4.974976000000000E-01     -1.098750000000000E+02
4824000000.000000      6.162109000000000E-01      1.181299000000000E+01      4.978943000000000E-01     -1.106797000000000E+02
4825000000.000000      6.167297000000000E-01      1.184033000000000E+01      4.985657000000000E-01     -1.113164000000000E+02
4826000000.000000      6.158142000000000E-01      1.190771000000000E+01      4.985352000000000E-01     -1.121289000000000E+02
4827000000.000000      6.151123000000000E-01      1.215186000000000E+01      4.996338000000000E-01     -1.126992000000000E+02
4828000000.000000      6.152039000000000E-01      1.196533000000000E+01      4.988708000000000E-01     -1.134687000000000E+02
4829000000.000000      6.155090000000000E-01      1.243359000000000E+01      5.003052000000000E-01     -1.143359000000000E+02
4830000000.000000      6.145935000000000E-01      1.248975000000000E+01      4.999084000000000E-01     -1.150977000000000E+02
4831000000.000000      6.152039000000000E-01      1.247217000000000E+01      4.994965000000000E-01     -1.159062000000000E+02
4832000000.000000      6.150513000000000E-01      1.274268000000000E+01      4.992981000000000E-01     -1.164648000000000E+02
4833000000.000000      6.123962000000000E-01      1.269580000000000E+01      4.986115000000000E-01     -1.172070000000000E+02
4834000000.000000      6.136169000000000E-01      1.283057000000000E+01      4.990234000000000E-01     -1.181133000000000E+02
4835000000.000000      6.149597000000000E-01      1.302832000000000E+01      4.996643000000000E-01     -1.188125000000000E+02
4836000000.000000      6.142273000000000E-01      1.322168000000000E+01      4.975586000000000E-01     -1.196406000000000E+02
4837000000.000000      6.132813000000000E-01      1.327539000000000E+01      4.988098000000000E-01     -1.205469000000000E+02
4838000000.000000      6.132202000000000E-01      1.324805000000000E+01      4.982147000000000E-01     -1.211523000000000E+02
4839000000.000000      6.147156000000000E-01      1.358154000000000E+01      4.979248000000000E-01     -1.219492000000000E+02
4840000000.000000      6.137085000000000E-01      1.353760000000000E+01      4.981384000000000E-01     -1.226836000000000E+02
4841000000.000000      6.152954000000000E-01      1.376563000000000E+01      4.983978000000000E-01     -1.236641000000000E+02
4842000000.000000      6.162415000000000E-01      1.387256000000000E+01      4.969482000000000E-01     -1.241758000000000E+02
4843000000.000000      6.184692000000000E-01      1.376270000000000E+01      4.971619000000000E-01     -1.252266000000000E+02
4844000000.000000      6.179810000000000E-01      1.362549000000000E+01      4.946289000000000E-01     -1.261016000000000E+02
4845000000.000000      6.172180000000000E-01      1.418311000000000E+01      4.936066000000000E-01     -1.266914000000000E+02
4846000000.000000      6.183472000000000E-01      1.406104000000000E+01      4.936981000000000E-01     -1.278711000000000E+02
4847000000.000000      6.204224000000000E-01      1.431787000000000E+01      4.918365000000000E-01     -1.284765000000000E+02
4848000000.000000      6.203613000000000E-01      1.439746000000000E+01      4.893799000000000E-01     -1.292969000000000E+02
4849000000.000000      6.211243000000000E-01      1.433545000000000E+01      4.886627000000000E-01     -1.300000000000000E+02
4850000000.000000      6.218872000000000E-01      1.435742000000000E+01      4.858856000000000E-01     -1.310781000000000E+02
4851000000.000000      6.243286000000000E-01      1.459912000000000E+01      4.860687000000000E-01     -1.320313000000000E+02
4852000000.000000      6.226807000000000E-01      1.456055000000000E+01      4.832611000000000E-01     -1.328047000000000E+02
4853000000.000000      6.257629000000000E-01      1.469531000000000E+01      4.790192000000000E-01     -1.336719000000000E+02
4854000000.000000      6.253357000000000E-01      1.472168000000000E+01      4.776306000000000E-01     -1.346172000000000E+02
4855000000.000000      6.281128000000000E-01      1.478857000000000E+01      4.776001000000000E-01     -1.355469000000000E+02
4856000000.000000      6.289673000000000E-01      1.478467000000000E+01      4.728546000000000E-01     -1.361016000000000E+02
4857000000.000000      6.276550000000000E-01      1.477637000000000E+01      4.734344000000000E-01     -1.370391000000000E+02
4858000000.000000      6.306763000000000E-01      1.480518000000000E+01      4.701385000000000E-01     -1.379219000000000E+02
4859000000.000000      6.311340000000000E-01      1.481885000000000E+01      4.673309000000000E-01     -1.386875000000000E+02
4860000000.000000      6.317749000000000E-01      1.487256000000000E+01      4.632416000000000E-01     -1.395156000000000E+02
4861000000.000000      6.327820000000000E-01      1.492627000000000E+01      4.604034000000000E-01     -1.405000000000000E+02
4862000000.000000      6.344299000000000E-01      1.491797000000000E+01      4.581451000000000E-01     -1.412188000000000E+02
4863000000.000000      6.363220000000000E-01      1.497266000000000E+01      4.522858000000000E-01     -1.420703000000000E+02
4864000000.000000      6.375427000000000E-01      1.503857000000000E+01      4.502563000000000E-01     -1.428359000000000E+02
4865000000.000000      6.382141000000000E-01      1.486133000000000E+01      4.462891000000000E-01     -1.436172000000000E+02
4866000000.000000      6.381531000000000E-01      1.466943000000000E+01      4.425659000000000E-01     -1.445625000000000E+02
4867000000.000000      6.386414000000000E-01      1.486572000000000E+01      4.383240000000000E-01     -1.454375000000000E+02
4868000000.000000      6.423950000000000E-01      1.483252000000000E+01      4.356842000000000E-01     -1.460703000000000E+02
4869000000.000000      6.440125000000000E-01      1.477637000000000E+01      4.301300000000000E-01     -1.467813000000000E+02
4870000000.000000      6.451721000000000E-01      1.489014000000000E+01      4.280396000000000E-01     -1.474609000000000E+02
4871000000.000000      6.477356000000000E-01      1.465137000000000E+01      4.223480000000000E-01     -1.484531000000000E+02
4872000000.000000      6.473083000000000E-01      1.474463000000000E+01      4.188385000000000E-01     -1.489375000000000E+02
4873000000.000000      6.472168000000000E-01      1.475293000000000E+01      4.138489000000000E-01     -1.498906000000000E+02
4874000000.000000      6.502686000000000E-01      1.473242000000000E+01      4.096375000000000E-01     -1.503672000000000E+02
4875000000.000000      6.494446000000000E-01      1.474072000000000E+01      4.055481000000000E-01     -1.510937000000000E+02
4876000000.000000      6.499634000000000E-01      1.481348000000000E+01      4.026337000000000E-01     -1.518359000000000E+02
4877000000.000000      6.545715000000000E-01      1.450879000000000E+01      3.973083000000000E-01     -1.525547000000000E+02
4878000000.000000      6.530457000000000E-01      1.443848000000000E+01      3.926849000000000E-01     -1.529609000000000E+02
4879000000.000000      6.550598000000000E-01      1.455371000000000E+01      3.862457000000000E-01     -1.535312000000000E+02
4880000000.000000      6.575623000000000E-01      1.428760000000000E+01      3.824463000000000E-01     -1.542891000000000E+02
4881000000.000000      6.580505000000000E-01      1.423828000000000E+01      3.792114000000000E-01     -1.547266000000000E+02
4882000000.000000      6.600647000000000E-01      1.435205000000000E+01      3.758545000000000E-01     -1.551641000000000E+02
4883000000.000000      6.614990000000000E-01      1.415576000000000E+01      3.698730000000000E-01     -1.559297000000000E+02
4884000000.000000      6.627502000000000E-01      1.435742000000000E+01      3.659210000000000E-01     -1.563828000000000E+02
4885000000.000000      6.625366000000000E-01      1.424365000000000E+01      3.613739000000000E-01     -1.568125000000000E+02
4886000000.000000      6.653442000000000E-01      1.413379000000000E+01      3.570557000000000E-01     -1.575312000000000E+02
4887000000.000000      6.659241000000000E-01      1.402637000000000E+01      3.526459000000000E-01     -1.578516000000000E+02
4888000000.000000      6.665039000000000E-01      1.375732000000000E+01      3.492432000000000E-01     -1.583516000000000E+02
4889000000.000000      6.668701000000000E-01      1.393848000000000E+01      3.446045000000000E-01     -1.587422000000000E+02
4890000000.000000      6.674500000000000E-01      1.362402000000000E+01      3.396912000000000E-01     -1.596328000000000E+02
4891000000.000000      6.696167000000000E-01      1.358301000000000E+01      3.366089000000000E-01     -1.598125000000000E+02
4892000000.000000      6.700439000000000E-01      1.367627000000000E+01      3.312531000000000E-01     -1.600156000000000E+02
4893000000.000000      6.723938000000000E-01      1.374902000000000E+01      3.284912000000000E-01     -1.608203000000000E+02
4894000000.000000      6.726379000000000E-01      1.345264000000000E+01      3.240662000000000E-01     -1.608828000000000E+02
4895000000.000000      6.736755000000000E-01      1.311475000000000E+01      3.208160000000000E-01     -1.613594000000000E+02
4896000000.000000      6.763000000000000E-01      1.325195000000000E+01      3.168640000000000E-01     -1.617109000000000E+02
4897000000.000000      6.741333000000000E-01      1.315332000000000E+01      3.127441000000000E-01     -1.621328000000000E+02
4898000000.000000      6.766357000000000E-01      1.308594000000000E+01      3.090515000000000E-01     -1.623594000000000E+02
4899000000.000000      6.762695000000000E-01      1.293896000000000E+01      3.053284000000000E-01     -1.629141000000000E+02
4900000000.000000      6.793823000000000E-01      1.283301000000000E+01      3.016968000000000E-01     -1.631406000000000E+02
4901000000.000000      6.795349000000000E-01      1.275098000000000E+01      2.982178000000000E-01     -1.635391000000000E+02
4902000000.000000      6.810303000000000E-01      1.255859000000000E+01      2.948456000000000E-01     -1.637578000000000E+02
4903000000.000000      6.812439000000000E-01      1.256104000000000E+01      2.899475000000000E-01     -1.642656000000000E+02
4904000000.000000      6.817322000000000E-01      1.230713000000000E+01      2.865906000000000E-01     -1.646172000000000E+02
4905000000.000000      6.821899000000000E-01      1.232764000000000E+01      2.840576000000000E-01     -1.649453000000000E+02
4906000000.000000      6.841431000000000E-01      1.226855000000000E+01      2.805634000000000E-01     -1.650234000000000E+02
4907000000.000000      6.832275000000000E-01      1.203369000000000E+01      2.774048000000000E-01     -1.654609000000000E+02
4908000000.000000      6.865540000000000E-01      1.200488000000000E+01      2.739868000000000E-01     -1.659922000000000E+02
4909000000.000000      6.825562000000000E-01      1.191992000000000E+01      2.695618000000000E-01     -1.662812000000000E+02
4910000000.000000      6.858826000000000E-01      1.187451000000000E+01      2.660980000000000E-01     -1.665781000000000E+02
4911000000.000000      6.862793000000000E-01      1.186377000000000E+01      2.629089000000000E-01     -1.666641000000000E+02
4912000000.000000      6.872864000000000E-01      1.175928000000000E+01      2.598114000000000E-01     -1.672188000000000E+02
4913000000.000000      6.867981000000000E-01      1.143799000000000E+01      2.560272000000000E-01     -1.674609000000000E+02
4914000000.000000      6.867676000000000E-01      1.138965000000000E+01      2.519684000000000E-01     -1.677344000000000E+02
4915000000.000000      6.878052000000000E-01      1.145459000000000E+01      2.479248000000000E-01     -1.680625000000000E+02
4916000000.000000      6.899109000000000E-01      1.120459000000000E+01      2.451324000000000E-01     -1.683516000000000E+02
4917000000.000000      6.899414000000000E-01      1.113721000000000E+01      2.420425000000000E-01     -1.684766000000000E+02
4918000000.000000      6.916199000000000E-01      1.094775000000000E+01      2.377396000000000E-01     -1.688203000000000E+02
4919000000.000000      6.906128000000000E-01      1.099561000000000E+01      2.350235000000000E-01     -1.689141000000000E+02
4920000000.000000      6.923828000000000E-01      1.072949000000000E+01      2.304535000000000E-01     -1.695156000000000E+02
4921000000.000000      6.920166000000000E-01      1.077344000000000E+01      2.271271000000000E-01     -1.695000000000000E+02
4922000000.000000      6.916199000000000E-01      1.055615000000000E+01      2.238617000000000E-01     -1.695937000000000E+02
4923000000.000000      6.939087000000000E-01      1.063574000000000E+01      2.199249000000000E-01     -1.700859000000000E+02
4924000000.000000      6.944885000000000E-01      1.051367000000000E+01      2.160950000000000E-01     -1.702344000000000E+02
4925000000.000000      6.943665000000000E-01      1.052588000000000E+01      2.124634000000000E-01     -1.703516000000000E+02
4926000000.000000      6.944580000000000E-01      1.034473000000000E+01      2.085724000000000E-01     -1.704609000000000E+02
4927000000.000000      6.940002000000000E-01      1.019385000000000E+01      2.042542000000000E-01     -1.707031000000000E+02
4928000000.000000      6.951904000000000E-01      9.994629000000000E+00      2.015305000000000E-01     -1.707891000000000E+02
4929000000.000000      6.941833000000000E-01      9.891602000000000E+00      1.966934000000000E-01     -1.708906000000000E+02
4930000000.000000      6.946716000000000E-01      9.940918000000000E+00      1.935501000000000E-01     -1.707344000000000E+02
4931000000.000000      6.964111000000000E-01      9.800781000000000E+00      1.903610000000000E-01     -1.708672000000000E+02
4932000000.000000      6.972046000000000E-01      9.891602000000000E+00      1.859589000000000E-01     -1.709453000000000E+02
4933000000.000000      6.986389000000000E-01      9.592285000000000E+00      1.817627000000000E-01     -1.706172000000000E+02
4934000000.000000      6.987000000000000E-01      9.506836000000000E+00      1.780548000000000E-01     -1.707187000000000E+02
4935000000.000000      6.998596000000000E-01      9.283203000000000E+00      1.752472000000000E-01     -1.704687000000000E+02
4936000000.000000      7.001038000000000E-01      9.349121000000000E+00      1.704788000000000E-01     -1.703359000000000E+02
4937000000.000000      6.997070000000000E-01      9.147461000000000E+00      1.669159000000000E-01     -1.702891000000000E+02
4938000000.000000      6.995239000000000E-01      9.192383000000000E+00      1.634369000000000E-01     -1.700234000000000E+02
4939000000.000000      6.979980000000000E-01      9.181641000000000E+00      1.595840000000000E-01     -1.695313000000000E+02
4940000000.000000      6.992798000000000E-01      8.820313000000000E+00      1.558609000000000E-01     -1.694609000000000E+02
4941000000.000000      7.001038000000000E-01      8.757324000000000E+00      1.520462000000000E-01     -1.688672000000000E+02
4942000000.000000      7.019958000000000E-01      8.711914000000000E+00      1.491013000000000E-01     -1.683750000000000E+02
4943000000.000000      7.024841000000000E-01      8.671875000000000E+00      1.458359000000000E-01     -1.679375000000000E+02
4944000000.000000      7.019348000000000E-01      8.485352000000000E+00      1.423264000000000E-01     -1.672422000000000E+02
4945000000.000000      7.033691000000000E-01      8.412598000000000E+00      1.387100000000000E-01     -1.665547000000000E+02
4946000000.000000      7.035217000000000E-01      8.405762000000000E+00      1.356888000000000E-01     -1.660234000000000E+02
4947000000.000000      7.037048000000000E-01      8.124023000000000E+00      1.322403000000000E-01     -1.649688000000000E+02
4948000000.000000      7.044678000000000E-01      8.243652000000000E+00      1.294174000000000E-01     -1.640312000000000E+02
4949000000.000000      7.025757000000000E-01      8.058105000000000E+00      1.270752000000000E-01     -1.630234000000000E+02
4950000000.000000      7.072144000000000E-01      8.125488000000000E+00      1.236992000000000E-01     -1.620156000000000E+02
4951000000.000000      7.068481000000000E-01      7.804199000000000E+00      1.210785000000000E-01     -1.610156000000000E+02
4952000000.000000      7.052307000000000E-01      7.628418000000000E+00      1.183434000000000E-01     -1.597734000000000E+02
4953000000.000000      7.063293000000000E-01      7.656006000000000E+00      1.161499000000000E-01     -1.583437000000000E+02
4954000000.000000      7.067566000000000E-01      7.487061000000000E+00      1.141739000000000E-01     -1.569844000000000E+02
