! Network Analyzer HP8722D
! Hewlett-Packard
! Data name: Linha & Wilkinson
! Saver's name: Rodrigo Anjos
! Comments: Teste da utilização de aquisição
continua pelo VNA HP8722D
! Time and date: 22/5/2025 07:27
!              Frequency                     S11                                                   S21                                                   S12                                                   S22
# HZ  S  MA R 50
4800000000.000000      6.431885000000000E-01      1.045752000000000E+01      4.725189000000000E-01     -9.373827000000000E+01
4801000000.000000      6.410828000000000E-01      1.053711000000000E+01      4.729004000000000E-01     -9.434765000000000E+01
4802000000.000000      6.405334000000000E-01      1.051074000000000E+01      4.739227000000000E-01     -9.507421000000000E+01
4803000000.000000      6.378479000000000E-01      1.046289000000000E+01      4.779816000000000E-01     -9.582422000000000E+01
4804000000.000000      6.366272000000000E-01      1.053955000000000E+01      4.791107000000000E-01     -9.656250000000000E+01
4805000000.000000      6.365967000000000E-01      1.048096000000000E+01      4.811859000000000E-01     -9.730469000000000E+01
4806000000.000000      6.351624000000000E-01      1.055078000000000E+01      4.813385000000000E-01     -9.823437000000000E+01
4807000000.000000      6.317139000000000E-01      1.045068000000000E+01      4.827728000000000E-01     -9.925781000000000E+01
4808000000.000000      6.299438000000000E-01      1.055908000000000E+01      4.849091000000000E-01     -9.961718000000000E+01
4809000000.000000      6.280823000000000E-01      1.059326000000000E+01      4.848633000000000E-01     -1.005547000000000E+02
4810000000.000000      6.266785000000000E-01      1.064844000000000E+01      4.876556000000000E-01     -1.010547000000000E+02
4811000000.000000      6.266479000000000E-01      1.056738000000000E+01      4.887695000000000E-01     -1.020430000000000E+02
4812000000.000000      6.266785000000000E-01      1.079932000000000E+01      4.897766000000000E-01     -1.026406000000000E+02
4813000000.000000      6.241760000000000E-01      1.080615000000000E+01      4.910126000000000E-01     -1.034766000000000E+02
4814000000.000000      6.216431000000000E-01      1.082520000000000E+01      4.929504000000000E-01     -1.042226000000000E+02
4815000000.000000      6.200256000000000E-01      1.103125000000000E+01      4.927063000000000E-01     -1.051250000000000E+02
4816000000.000000      6.204529000000000E-01      1.103418000000000E+01      4.932251000000000E-01     -1.059023000000000E+02
4817000000.000000      6.190186000000000E-01      1.111914000000000E+01      4.951782000000000E-01     -1.065742000000000E+02
4818000000.000000      6.174622000000000E-01      1.111230000000000E+01      4.943085000000000E-01     -1.074766000000000E+02
4819000000.000000      6.165466000000000E-01      1.115234000000000E+01      4.956055000000000E-01     -1.079922000000000E+02
4820000000.000000      6.142578000000000E-01      1.145020000000000E+01      4.963837000000000E-01     -1.086445000000000E+02
4821000000.000000      6.158447000000000E-01      1.143799000000000E+01      4.955902000000000E-01     -1.094844000000000E+02
4822000000.000000      6.115417000000000E-01      1.130078000000000E+01      4.958191000000000E-01     -1.103906000000000E+02
4823000000.000000      6.129150000000000E-01      1.146387000000000E+01      4.975128000000000E-01     -1.110117000000000E+02
4824000000.000000      6.105652000000000E-01      1.176904000000000E+01      4.959869000000000E-01     -1.118516000000000E+02
4825000000.000000      6.098938000000000E-01      1.185400000000000E+01      4.965210000000000E-01     -1.125703000000000E+02
4826000000.000000      6.106567000000000E-01      1.164648000000000E+01      4.984283000000000E-01     -1.134297000000000E+02
4827000000.000000      6.107788000000000E-01      1.186914000000000E+01      4.969330000000000E-01     -1.140547000000000E+02
4828000000.000000      6.104126000000000E-01      1.220703000000000E+01      4.965210000000000E-01     -1.147656000000000E+02
4829000000.000000      6.087952000000000E-01      1.232080000000000E+01      4.965668000000000E-01     -1.155234000000000E+02
4830000000.000000      6.090088000000000E-01      1.243066000000000E+01      4.976349000000000E-01     -1.161406000000000E+02
4831000000.000000      6.089478000000000E-01      1.232227000000000E+01      4.987335000000000E-01     -1.173828000000000E+02
4832000000.000000      6.093750000000000E-01      1.269873000000000E+01      4.963531000000000E-01     -1.177305000000000E+02
4833000000.000000      6.064758000000000E-01      1.264502000000000E+01      4.974670000000000E-01     -1.184101000000000E+02
4834000000.000000      6.082458000000000E-01      1.259961000000000E+01      4.977417000000000E-01     -1.195391000000000E+02
4835000000.000000      6.081543000000000E-01      1.281934000000000E+01      4.966431000000000E-01     -1.201680000000000E+02
4836000000.000000      6.099243000000000E-01      1.320801000000000E+01      4.968872000000000E-01     -1.209101000000000E+02
4837000000.000000      6.091919000000000E-01      1.310938000000000E+01      4.935913000000000E-01     -1.220000000000000E+02
4838000000.000000      6.089783000000000E-01      1.311768000000000E+01      4.955902000000000E-01     -1.223125000000000E+02
4839000000.000000      6.114197000000000E-01      1.340430000000000E+01      4.942474000000000E-01     -1.231055000000000E+02
4840000000.000000      6.113586000000000E-01      1.328223000000000E+01      4.939423000000000E-01     -1.240469000000000E+02
4841000000.000000      6.100464000000000E-01      1.370508000000000E+01      4.941711000000000E-01     -1.250312000000000E+02
4842000000.000000      6.117249000000000E-01      1.359131000000000E+01      4.927826000000000E-01     -1.257031000000000E+02
4843000000.000000      6.118774000000000E-01      1.367383000000000E+01      4.933319000000000E-01     -1.266758000000000E+02
4844000000.000000      6.132202000000000E-01      1.376025000000000E+01      4.905701000000000E-01     -1.274023000000000E+02
4845000000.000000      6.138000000000000E-01      1.393750000000000E+01      4.904938000000000E-01     -1.282266000000000E+02
4846000000.000000      6.146240000000000E-01      1.408984000000000E+01      4.887238000000000E-01     -1.289922000000000E+02
4847000000.000000      6.141357000000000E-01      1.417334000000000E+01      4.867554000000000E-01     -1.298203000000000E+02
4848000000.000000      6.160278000000000E-01      1.405420000000000E+01      4.841919000000000E-01     -1.305547000000000E+02
4849000000.000000      6.170959000000000E-01      1.416797000000000E+01      4.846802000000000E-01     -1.314766000000000E+02
4850000000.000000      6.162720000000000E-01      1.416406000000000E+01      4.817810000000000E-01     -1.323281000000000E+02
4851000000.000000      6.193542000000000E-01      1.431641000000000E+01      4.799347000000000E-01     -1.332656000000000E+02
4852000000.000000      6.209412000000000E-01      1.436035000000000E+01      4.780273000000000E-01     -1.340859000000000E+02
4853000000.000000      6.210022000000000E-01      1.446338000000000E+01      4.747925000000000E-01     -1.349844000000000E+02
4854000000.000000      6.236572000000000E-01      1.444141000000000E+01      4.733887000000000E-01     -1.357266000000000E+02
4855000000.000000      6.224670000000000E-01      1.453320000000000E+01      4.716187000000000E-01     -1.368672000000000E+02
4856000000.000000      6.248169000000000E-01      1.459375000000000E+01      4.686279000000000E-01     -1.376484000000000E+02
4857000000.000000      6.258240000000000E-01      1.454980000000000E+01      4.666901000000000E-01     -1.382891000000000E+02
4858000000.000000      6.252441000000000E-01      1.451660000000000E+01      4.641571000000000E-01     -1.391328000000000E+02
4859000000.000000      6.292419000000000E-01      1.458008000000000E+01      4.610138000000000E-01     -1.401016000000000E+02
4860000000.000000      6.283264000000000E-01      1.458984000000000E+01      4.583435000000000E-01     -1.407578000000000E+02
4861000000.000000      6.288757000000000E-01      1.461865000000000E+01      4.533386000000000E-01     -1.417109000000000E+02
4862000000.000000      6.279602000000000E-01      1.475732000000000E+01      4.518280000000000E-01     -1.424141000000000E+02
4863000000.000000      6.323853000000000E-01      1.471729000000000E+01      4.476013000000000E-01     -1.432578000000000E+02
4864000000.000000      6.350708000000000E-01      1.461963000000000E+01      4.439240000000000E-01     -1.440859000000000E+02
4865000000.000000      6.349792000000000E-01      1.468164000000000E+01      4.411774000000000E-01     -1.446719000000000E+02
4866000000.000000      6.359253000000000E-01      1.455371000000000E+01      4.359436000000000E-01     -1.455703000000000E+02
4867000000.000000      6.363220000000000E-01      1.459668000000000E+01      4.330902000000000E-01     -1.465312000000000E+02
4868000000.000000      6.367493000000000E-01      1.451807000000000E+01      4.283142000000000E-01     -1.471094000000000E+02
4869000000.000000      6.390381000000000E-01      1.461426000000000E+01      4.248505000000000E-01     -1.479531000000000E+02
4870000000.000000      6.398010000000000E-01      1.444971000000000E+01      4.197693000000000E-01     -1.486719000000000E+02
4871000000.000000      6.416626000000000E-01      1.451416000000000E+01      4.154968000000000E-01     -1.495078000000000E+02
4872000000.000000      6.444092000000000E-01      1.459082000000000E+01      4.115906000000000E-01     -1.499844000000000E+02
4873000000.000000      6.434326000000000E-01      1.426563000000000E+01      4.079437000000000E-01     -1.508672000000000E+02
4874000000.000000      6.458435000000000E-01      1.434814000000000E+01      4.035034000000000E-01     -1.515391000000000E+02
4875000000.000000      6.476440000000000E-01      1.430127000000000E+01      3.991394000000000E-01     -1.521484000000000E+02
4876000000.000000      6.480408000000000E-01      1.433984000000000E+01      3.952332000000000E-01     -1.527969000000000E+02
4877000000.000000      6.496887000000000E-01      1.405420000000000E+01      3.908081000000000E-01     -1.534688000000000E+02
4878000000.000000      6.518250000000000E-01      1.433545000000000E+01      3.865204000000000E-01     -1.539297000000000E+02
4879000000.000000      6.543884000000000E-01      1.427930000000000E+01      3.802185000000000E-01     -1.543281000000000E+02
4880000000.000000      6.585083000000000E-01      1.410889000000000E+01      3.770142000000000E-01     -1.552578000000000E+02
4881000000.000000      6.546631000000000E-01      1.408301000000000E+01      3.731689000000000E-01     -1.557500000000000E+02
4882000000.000000      6.573181000000000E-01      1.398145000000000E+01      3.687897000000000E-01     -1.562266000000000E+02
4883000000.000000      6.567078000000000E-01      1.393311000000000E+01      3.639984000000000E-01     -1.567422000000000E+02
4884000000.000000      6.586914000000000E-01      1.378613000000000E+01      3.594513000000000E-01     -1.572656000000000E+02
4885000000.000000      6.614685000000000E-01      1.370508000000000E+01      3.554535000000000E-01     -1.575234000000000E+02
4886000000.000000      6.614685000000000E-01      1.382861000000000E+01      3.502350000000000E-01     -1.580234000000000E+02
4887000000.000000      6.600952000000000E-01      1.368311000000000E+01      3.471069000000000E-01     -1.588750000000000E+02
4888000000.000000      6.621399000000000E-01      1.356641000000000E+01      3.425751000000000E-01     -1.592344000000000E+02
4889000000.000000      6.639404000000000E-01      1.354590000000000E+01      3.377380000000000E-01     -1.596797000000000E+02
4890000000.000000      6.629944000000000E-01      1.350049000000000E+01      3.339386000000000E-01     -1.603516000000000E+02
4891000000.000000      6.657715000000000E-01      1.337549000000000E+01      3.298798000000000E-01     -1.605547000000000E+02
4892000000.000000      6.647949000000000E-01      1.322314000000000E+01      3.252411000000000E-01     -1.607891000000000E+02
4893000000.000000      6.679382000000000E-01      1.316943000000000E+01      3.225250000000000E-01     -1.612344000000000E+02
4894000000.000000      6.673889000000000E-01      1.288135000000000E+01      3.180695000000000E-01     -1.615156000000000E+02
4895000000.000000      6.707764000000000E-01      1.280713000000000E+01      3.156128000000000E-01     -1.620078000000000E+02
4896000000.000000      6.705933000000000E-01      1.291699000000000E+01      3.107605000000000E-01     -1.624609000000000E+02
4897000000.000000      6.720886000000000E-01      1.289355000000000E+01      3.074493000000000E-01     -1.627812000000000E+02
4898000000.000000      6.718445000000000E-01      1.288135000000000E+01      3.035126000000000E-01     -1.630703000000000E+02
4899000000.000000      6.731262000000000E-01      1.257764000000000E+01      2.996521000000000E-01     -1.635234000000000E+02
4900000000.000000      6.749878000000000E-01      1.236084000000000E+01      2.959290000000000E-01     -1.637422000000000E+02
4901000000.000000      6.744690000000000E-01      1.216553000000000E+01      2.926178000000000E-01     -1.642031000000000E+02
4902000000.000000      6.759949000000000E-01      1.251855000000000E+01      2.896881000000000E-01     -1.643984000000000E+02
4903000000.000000      6.765137000000000E-01      1.231006000000000E+01      2.850342000000000E-01     -1.646328000000000E+02
4904000000.000000      6.765137000000000E-01      1.207227000000000E+01      2.820740000000000E-01     -1.650547000000000E+02
4905000000.000000      6.776123000000000E-01      1.184424000000000E+01      2.789917000000000E-01     -1.655078000000000E+02
4906000000.000000      6.773376000000000E-01      1.194189000000000E+01      2.750244000000000E-01     -1.654219000000000E+02
4907000000.000000      6.795349000000000E-01      1.169482000000000E+01      2.721252000000000E-01     -1.660547000000000E+02
4908000000.000000      6.806335000000000E-01      1.155859000000000E+01      2.686920000000000E-01     -1.664922000000000E+02
4909000000.000000      6.787109000000000E-01      1.153125000000000E+01      2.649994000000000E-01     -1.666406000000000E+02
4910000000.000000      6.822205000000000E-01      1.139795000000000E+01      2.612762000000000E-01     -1.670391000000000E+02
4911000000.000000      6.818848000000000E-01      1.129395000000000E+01      2.576141000000000E-01     -1.673203000000000E+02
4912000000.000000      6.800842000000000E-01      1.126611000000000E+01      2.541962000000000E-01     -1.676172000000000E+02
4913000000.000000      6.830750000000000E-01      1.120850000000000E+01      2.506256000000000E-01     -1.678594000000000E+02
4914000000.000000      6.826172000000000E-01      1.105322000000000E+01      2.473450000000000E-01     -1.681094000000000E+02
4915000000.000000      6.859436000000000E-01      1.100000000000000E+01      2.438812000000000E-01     -1.684219000000000E+02
4916000000.000000      6.853943000000000E-01      1.094629000000000E+01      2.400589000000000E-01     -1.689453000000000E+02
4917000000.000000      6.850891000000000E-01      1.073633000000000E+01      2.366104000000000E-01     -1.687969000000000E+02
4918000000.000000      6.876831000000000E-01      1.087061000000000E+01      2.330170000000000E-01     -1.691953000000000E+02
4919000000.000000      6.864014000000000E-01      1.066357000000000E+01      2.296906000000000E-01     -1.691094000000000E+02
4920000000.000000      6.877747000000000E-01      1.047266000000000E+01      2.256165000000000E-01     -1.697734000000000E+02
4921000000.000000      6.869507000000000E-01      1.051221000000000E+01      2.219772000000000E-01     -1.698281000000000E+02
4922000000.000000      6.877136000000000E-01      1.013477000000000E+01      2.185898000000000E-01     -1.698203000000000E+02
4923000000.000000      6.891479000000000E-01      1.048340000000000E+01      2.143707000000000E-01     -1.699687000000000E+02
4924000000.000000      6.890869000000000E-01      9.990234000000000E+00      2.110901000000000E-01     -1.704609000000000E+02
4925000000.000000      6.888428000000000E-01      9.983398000000000E+00      2.072754000000000E-01     -1.704609000000000E+02
4926000000.000000      6.902771000000000E-01      9.851563000000000E+00      2.038879000000000E-01     -1.705469000000000E+02
4927000000.000000      6.890259000000000E-01      9.806641000000000E+00      1.999969000000000E-01     -1.707344000000000E+02
4928000000.000000      6.923523000000000E-01      9.728027000000000E+00      1.963196000000000E-01     -1.706484000000000E+02
4929000000.000000      6.902466000000000E-01      9.660645000000000E+00      1.923218000000000E-01     -1.707813000000000E+02
4930000000.000000      6.908264000000000E-01      9.500000000000000E+00      1.887665000000000E-01     -1.707344000000000E+02
4931000000.000000      6.909180000000000E-01      9.445313000000000E+00      1.851349000000000E-01     -1.706953000000000E+02
4932000000.000000      6.922913000000000E-01      9.519531000000000E+00      1.812897000000000E-01     -1.707969000000000E+02
4933000000.000000      6.936646000000000E-01      9.068848000000000E+00      1.769104000000000E-01     -1.705625000000000E+02
4934000000.000000      6.941528000000000E-01      9.228516000000000E+00      1.738358000000000E-01     -1.707266000000000E+02
4935000000.000000      6.947021000000000E-01      9.034668000000000E+00      1.707458000000000E-01     -1.702578000000000E+02
4936000000.000000      6.935425000000000E-01      8.945313000000000E+00      1.663437000000000E-01     -1.700703000000000E+02
4937000000.000000      6.948853000000000E-01      8.762695000000000E+00      1.625671000000000E-01     -1.697891000000000E+02
4938000000.000000      6.953735000000000E-01      8.720215000000000E+00      1.596375000000000E-01     -1.693281000000000E+02
4939000000.000000      6.955261000000000E-01      8.718750000000000E+00      1.556091000000000E-01     -1.688984000000000E+02
4940000000.000000      6.946106000000000E-01      8.577148000000000E+00      1.525269000000000E-01     -1.687734000000000E+02
4941000000.000000      6.973267000000000E-01      8.367188000000000E+00      1.492233000000000E-01     -1.681953000000000E+02
4942000000.000000      6.964417000000000E-01      8.448242000000000E+00      1.449738000000000E-01     -1.676328000000000E+02
4943000000.000000      6.972046000000000E-01      8.503418000000000E+00      1.423721000000000E-01     -1.669844000000000E+02
4944000000.000000      6.997681000000000E-01      8.041992000000000E+00      1.391754000000000E-01     -1.665000000000000E+02
4945000000.000000      6.984253000000000E-01      8.044434000000000E+00      1.351929000000000E-01     -1.656094000000000E+02
4946000000.000000      6.979980000000000E-01      8.047363000000000E+00      1.324463000000000E-01     -1.647734000000000E+02
4947000000.000000      6.981812000000000E-01      7.815186000000000E+00      1.296387000000000E-01     -1.638203000000000E+02
4948000000.000000      7.011414000000000E-01      7.826172000000000E+00      1.269531000000000E-01     -1.629609000000000E+02
4949000000.000000      7.014160000000000E-01      7.672363000000000E+00      1.236534000000000E-01     -1.617969000000000E+02
4950000000.000000      7.023010000000000E-01      7.698486000000000E+00      1.213074000000000E-01     -1.605312000000000E+02
4951000000.000000      7.006226000000000E-01      7.434814000000000E+00      1.191750000000000E-01     -1.596016000000000E+02
4952000000.000000      7.008972000000000E-01      7.235840000000000E+00      1.163712000000000E-01     -1.582344000000000E+02
4953000000.000000      7.010803000000000E-01      7.371826000000000E+00      1.147499000000000E-01     -1.565156000000000E+02
4954000000.000000      7.031555000000000E-01      7.248047000000000E+00      1.126480000000000E-01     -1.552422000000000E+02
