! Network Analyzer HP8722D
! Hewlett-Packard
! Data name: Linha & Wilkinson
! Saver's name: Rodrigo Anjos
! Comments: Teste da utilização de aquisição
continua pelo VNA HP8722D
! Time and date: 22/5/2025 11:39
!              Frequency                     S11                                                   S21                                                   S12                                                   S22
# HZ  S  MA R 50
4800000000.000000      6.518250000000000E-01      1.063184000000000E+01      4.711609000000000E-01     -9.264063000000000E+01
4801000000.000000      6.489258000000000E-01      1.086230000000000E+01      4.734802000000000E-01     -9.314453000000000E+01
4802000000.000000      6.504211000000000E-01      1.073340000000000E+01      4.728241000000000E-01     -9.362499000000000E+01
4803000000.000000      6.463928000000000E-01      1.074170000000000E+01      4.777679000000000E-01     -9.452734000000000E+01
4804000000.000000      6.445618000000000E-01      1.065674000000000E+01      4.770203000000000E-01     -9.521484000000000E+01
4805000000.000000      6.431580000000000E-01      1.066895000000000E+01      4.795837000000000E-01     -9.637108000000000E+01
4806000000.000000      6.422424000000000E-01      1.085547000000000E+01      4.811096000000000E-01     -9.698828000000000E+01
4807000000.000000      6.398621000000000E-01      1.063330000000000E+01      4.829407000000000E-01     -9.769140000000000E+01
4808000000.000000      6.389160000000000E-01      1.065771000000000E+01      4.842224000000000E-01     -9.846092000000000E+01
4809000000.000000      6.364746000000000E-01      1.072949000000000E+01      4.852905000000000E-01     -9.917969000000000E+01
4810000000.000000      6.349182000000000E-01      1.077588000000000E+01      4.880371000000000E-01     -9.998436000000000E+01
4811000000.000000      6.338501000000000E-01      1.086377000000000E+01      4.887695000000000E-01     -1.008867000000000E+02
4812000000.000000      6.350403000000000E-01      1.100537000000000E+01      4.906921000000000E-01     -1.015078000000000E+02
4813000000.000000      6.319275000000000E-01      1.098486000000000E+01      4.899750000000000E-01     -1.024687000000000E+02
4814000000.000000      6.298218000000000E-01      1.102197000000000E+01      4.914703000000000E-01     -1.028750000000000E+02
4815000000.000000      6.271667000000000E-01      1.109180000000000E+01      4.930267000000000E-01     -1.039101000000000E+02
4816000000.000000      6.269531000000000E-01      1.113037000000000E+01      4.938507000000000E-01     -1.042891000000000E+02
4817000000.000000      6.262512000000000E-01      1.126221000000000E+01      4.947510000000000E-01     -1.053242000000000E+02
4818000000.000000      6.242676000000000E-01      1.138428000000000E+01      4.947968000000000E-01     -1.061016000000000E+02
4819000000.000000      6.239319000000000E-01      1.137354000000000E+01      4.959869000000000E-01     -1.067891000000000E+02
4820000000.000000      6.220703000000000E-01      1.160254000000000E+01      4.965820000000000E-01     -1.073516000000000E+02
4821000000.000000      6.218567000000000E-01      1.157227000000000E+01      4.980011000000000E-01     -1.083398000000000E+02
4822000000.000000      6.194458000000000E-01      1.160938000000000E+01      4.969788000000000E-01     -1.089453000000000E+02
4823000000.000000      6.203308000000000E-01      1.173340000000000E+01      4.978027000000000E-01     -1.096875000000000E+02
4824000000.000000      6.181641000000000E-01      1.191016000000000E+01      4.976807000000000E-01     -1.104258000000000E+02
4825000000.000000      6.164551000000000E-01      1.189795000000000E+01      4.980469000000000E-01     -1.112070000000000E+02
4826000000.000000      6.153870000000000E-01      1.176758000000000E+01      4.981537000000000E-01     -1.122187000000000E+02
4827000000.000000      6.156921000000000E-01      1.220020000000000E+01      4.984283000000000E-01     -1.127422000000000E+02
4828000000.000000      6.171570000000000E-01      1.208887000000000E+01      4.986572000000000E-01     -1.135000000000000E+02
4829000000.000000      6.160278000000000E-01      1.243213000000000E+01      4.993896000000000E-01     -1.142617000000000E+02
4830000000.000000      6.154785000000000E-01      1.255713000000000E+01      4.991302000000000E-01     -1.151445000000000E+02
4831000000.000000      6.135864000000000E-01      1.250781000000000E+01      4.999847000000000E-01     -1.158711000000000E+02
4832000000.000000      6.136780000000000E-01      1.276611000000000E+01      4.989929000000000E-01     -1.164531000000000E+02
4833000000.000000      6.136169000000000E-01      1.302539000000000E+01      4.987183000000000E-01     -1.173476000000000E+02
4834000000.000000      6.129150000000000E-01      1.281104000000000E+01      4.989777000000000E-01     -1.180820000000000E+02
4835000000.000000      6.131897000000000E-01      1.303076000000000E+01      4.999084000000000E-01     -1.188867000000000E+02
4836000000.000000      6.135864000000000E-01      1.325732000000000E+01      4.969177000000000E-01     -1.194765000000000E+02
4837000000.000000      6.141663000000000E-01      1.331934000000000E+01      4.972534000000000E-01     -1.204570000000000E+02
4838000000.000000      6.115112000000000E-01      1.332617000000000E+01      4.981537000000000E-01     -1.210898000000000E+02
4839000000.000000      6.173706000000000E-01      1.358447000000000E+01      4.974670000000000E-01     -1.219102000000000E+02
4840000000.000000      6.166687000000000E-01      1.348291000000000E+01      4.976196000000000E-01     -1.228086000000000E+02
4841000000.000000      6.169434000000000E-01      1.383008000000000E+01      4.980011000000000E-01     -1.236055000000000E+02
4842000000.000000      6.163940000000000E-01      1.366699000000000E+01      4.958038000000000E-01     -1.243672000000000E+02
4843000000.000000      6.186218000000000E-01      1.372461000000000E+01      4.979858000000000E-01     -1.251914000000000E+02
4844000000.000000      6.172180000000000E-01      1.369824000000000E+01      4.936829000000000E-01     -1.260312000000000E+02
4845000000.000000      6.178589000000000E-01      1.402246000000000E+01      4.926453000000000E-01     -1.268086000000000E+02
4846000000.000000      6.203003000000000E-01      1.416943000000000E+01      4.929199000000000E-01     -1.277070000000000E+02
4847000000.000000      6.209106000000000E-01      1.420215000000000E+01      4.918823000000000E-01     -1.285000000000000E+02
4848000000.000000      6.200867000000000E-01      1.422412000000000E+01      4.897003000000000E-01     -1.293594000000000E+02
4849000000.000000      6.195068000000000E-01      1.439746000000000E+01      4.890442000000000E-01     -1.302109000000000E+02
4850000000.000000      6.216431000000000E-01      1.440137000000000E+01      4.876404000000000E-01     -1.310703000000000E+02
4851000000.000000      6.226196000000000E-01      1.446582000000000E+01      4.853821000000000E-01     -1.319141000000000E+02
4852000000.000000      6.239014000000000E-01      1.450977000000000E+01      4.835510000000000E-01     -1.327891000000000E+02
4853000000.000000      6.260376000000000E-01      1.461572000000000E+01      4.804840000000000E-01     -1.335312000000000E+02
4854000000.000000      6.258850000000000E-01      1.455664000000000E+01      4.791412000000000E-01     -1.343437000000000E+02
4855000000.000000      6.272888000000000E-01      1.460596000000000E+01      4.770203000000000E-01     -1.353594000000000E+02
4856000000.000000      6.282959000000000E-01      1.459668000000000E+01      4.744720000000000E-01     -1.362187000000000E+02
4857000000.000000      6.301880000000000E-01      1.473633000000000E+01      4.733276000000000E-01     -1.368047000000000E+02
4858000000.000000      6.291199000000000E-01      1.477100000000000E+01      4.688263000000000E-01     -1.377812000000000E+02
4859000000.000000      6.300659000000000E-01      1.472705000000000E+01      4.673309000000000E-01     -1.387500000000000E+02
4860000000.000000      6.314392000000000E-01      1.482715000000000E+01      4.633331000000000E-01     -1.395234000000000E+02
4861000000.000000      6.327515000000000E-01      1.494678000000000E+01      4.605103000000000E-01     -1.405000000000000E+02
4862000000.000000      6.330261000000000E-01      1.493701000000000E+01      4.574280000000000E-01     -1.412188000000000E+02
4863000000.000000      6.356201000000000E-01      1.500000000000000E+01      4.531708000000000E-01     -1.420547000000000E+02
4864000000.000000      6.381226000000000E-01      1.472949000000000E+01      4.511108000000000E-01     -1.429375000000000E+02
4865000000.000000      6.369934000000000E-01      1.493848000000000E+01      4.458160000000000E-01     -1.435313000000000E+02
4866000000.000000      6.381836000000000E-01      1.486963000000000E+01      4.421997000000000E-01     -1.445781000000000E+02
4867000000.000000      6.390381000000000E-01      1.494141000000000E+01      4.388733000000000E-01     -1.451406000000000E+02
4868000000.000000      6.417542000000000E-01      1.478320000000000E+01      4.350128000000000E-01     -1.462344000000000E+02
4869000000.000000      6.446228000000000E-01      1.480225000000000E+01      4.311981000000000E-01     -1.469141000000000E+02
4870000000.000000      6.445618000000000E-01      1.480225000000000E+01      4.260101000000000E-01     -1.473281000000000E+02
4871000000.000000      6.452942000000000E-01      1.466650000000000E+01      4.227142000000000E-01     -1.484297000000000E+02
4872000000.000000      6.478882000000000E-01      1.468164000000000E+01      4.186707000000000E-01     -1.488750000000000E+02
4873000000.000000      6.488037000000000E-01      1.475439000000000E+01      4.135742000000000E-01     -1.497500000000000E+02
4874000000.000000      6.491089000000000E-01      1.473633000000000E+01      4.087982000000000E-01     -1.504297000000000E+02
4875000000.000000      6.516113000000000E-01      1.452930000000000E+01      4.050751000000000E-01     -1.511328000000000E+02
4876000000.000000      6.518250000000000E-01      1.477637000000000E+01      4.012909000000000E-01     -1.519140000000000E+02
4877000000.000000      6.554871000000000E-01      1.451563000000000E+01      3.963776000000000E-01     -1.525938000000000E+02
4878000000.000000      6.546326000000000E-01      1.457324000000000E+01      3.927307000000000E-01     -1.530313000000000E+02
4879000000.000000      6.569214000000000E-01      1.466650000000000E+01      3.868866000000000E-01     -1.536797000000000E+02
4880000000.000000      6.590881000000000E-01      1.442090000000000E+01      3.847046000000000E-01     -1.541641000000000E+02
4881000000.000000      6.588745000000000E-01      1.436572000000000E+01      3.806152000000000E-01     -1.547031000000000E+02
4882000000.000000      6.614685000000000E-01      1.427490000000000E+01      3.760071000000000E-01     -1.554531000000000E+02
4883000000.000000      6.593018000000000E-01      1.415967000000000E+01      3.699341000000000E-01     -1.560313000000000E+02
4884000000.000000      6.629028000000000E-01      1.401270000000000E+01      3.657379000000000E-01     -1.565859000000000E+02
4885000000.000000      6.655273000000000E-01      1.409229000000000E+01      3.611145000000000E-01     -1.566406000000000E+02
4886000000.000000      6.640015000000000E-01      1.406348000000000E+01      3.588257000000000E-01     -1.574531000000000E+02
4887000000.000000      6.659546000000000E-01      1.404590000000000E+01      3.533783000000000E-01     -1.579766000000000E+02
4888000000.000000      6.670532000000000E-01      1.366943000000000E+01      3.493195000000000E-01     -1.584844000000000E+02
4889000000.000000      6.678772000000000E-01      1.376025000000000E+01      3.446655000000000E-01     -1.587656000000000E+02
4890000000.000000      6.664734000000000E-01      1.383008000000000E+01      3.392487000000000E-01     -1.595391000000000E+02
4891000000.000000      6.713867000000000E-01      1.359814000000000E+01      3.360901000000000E-01     -1.596328000000000E+02
4892000000.000000      6.698608000000000E-01      1.344434000000000E+01      3.314514000000000E-01     -1.600469000000000E+02
4893000000.000000      6.721802000000000E-01      1.348535000000000E+01      3.269501000000000E-01     -1.605469000000000E+02
4894000000.000000      6.733704000000000E-01      1.343457000000000E+01      3.248596000000000E-01     -1.608281000000000E+02
4895000000.000000      6.764526000000000E-01      1.305420000000000E+01      3.210297000000000E-01     -1.615078000000000E+02
4896000000.000000      6.745911000000000E-01      1.321094000000000E+01      3.167114000000000E-01     -1.617891000000000E+02
4897000000.000000      6.747742000000000E-01      1.327393000000000E+01      3.126984000000000E-01     -1.622656000000000E+02
4898000000.000000      6.779785000000000E-01      1.305566000000000E+01      3.094788000000000E-01     -1.623984000000000E+02
4899000000.000000      6.784668000000000E-01      1.303369000000000E+01      3.057556000000000E-01     -1.630078000000000E+02
4900000000.000000      6.792297000000000E-01      1.264355000000000E+01      3.018646000000000E-01     -1.630859000000000E+02
4901000000.000000      6.792603000000000E-01      1.275098000000000E+01      2.984161000000000E-01     -1.635469000000000E+02
4902000000.000000      6.804504000000000E-01      1.256934000000000E+01      2.948303000000000E-01     -1.638750000000000E+02
4903000000.000000      6.799927000000000E-01      1.254492000000000E+01      2.903137000000000E-01     -1.642109000000000E+02
4904000000.000000      6.820068000000000E-01      1.237842000000000E+01      2.875977000000000E-01     -1.645234000000000E+02
4905000000.000000      6.843262000000000E-01      1.243213000000000E+01      2.843628000000000E-01     -1.649375000000000E+02
4906000000.000000      6.828308000000000E-01      1.217676000000000E+01      2.800751000000000E-01     -1.649844000000000E+02
4907000000.000000      6.862488000000000E-01      1.201318000000000E+01      2.773285000000000E-01     -1.655156000000000E+02
4908000000.000000      6.856995000000000E-01      1.199707000000000E+01      2.735138000000000E-01     -1.659219000000000E+02
4909000000.000000      6.855774000000000E-01      1.200244000000000E+01      2.696991000000000E-01     -1.662578000000000E+02
4910000000.000000      6.857605000000000E-01      1.183496000000000E+01      2.664642000000000E-01     -1.664141000000000E+02
4911000000.000000      6.883240000000000E-01      1.193506000000000E+01      2.631226000000000E-01     -1.667578000000000E+02
4912000000.000000      6.868591000000000E-01      1.169043000000000E+01      2.592010000000000E-01     -1.671328000000000E+02
4913000000.000000      6.890564000000000E-01      1.147754000000000E+01      2.564087000000000E-01     -1.674375000000000E+02
4914000000.000000      6.891785000000000E-01      1.147510000000000E+01      2.527161000000000E-01     -1.675156000000000E+02
4915000000.000000      6.882935000000000E-01      1.144189000000000E+01      2.490158000000000E-01     -1.680859000000000E+02
4916000000.000000      6.898193000000000E-01      1.134717000000000E+01      2.455292000000000E-01     -1.683437000000000E+02
4917000000.000000      6.894531000000000E-01      1.120850000000000E+01      2.416077000000000E-01     -1.687656000000000E+02
4918000000.000000      6.919861000000000E-01      1.110010000000000E+01      2.372284000000000E-01     -1.689062000000000E+02
4919000000.000000      6.899719000000000E-01      1.108643000000000E+01      2.347870000000000E-01     -1.689531000000000E+02
4920000000.000000      6.915283000000000E-01      1.081738000000000E+01      2.301788000000000E-01     -1.694219000000000E+02
4921000000.000000      6.910706000000000E-01      1.082959000000000E+01      2.272263000000000E-01     -1.694453000000000E+02
4922000000.000000      6.932678000000000E-01      1.057813000000000E+01      2.234268000000000E-01     -1.695469000000000E+02
4923000000.000000      6.932373000000000E-01      1.072803000000000E+01      2.195129000000000E-01     -1.699687000000000E+02
4924000000.000000      6.925659000000000E-01      1.046973000000000E+01      2.155533000000000E-01     -1.702188000000000E+02
4925000000.000000      6.932373000000000E-01      1.032568000000000E+01      2.119751000000000E-01     -1.703750000000000E+02
4926000000.000000      6.953125000000000E-01      1.034766000000000E+01      2.088928000000000E-01     -1.704531000000000E+02
4927000000.000000      6.938782000000000E-01      1.026904000000000E+01      2.046356000000000E-01     -1.704922000000000E+02
4928000000.000000      6.963501000000000E-01      9.987793000000000E+00      2.010880000000000E-01     -1.707109000000000E+02
4929000000.000000      6.952209000000000E-01      9.853027000000000E+00      1.971817000000000E-01     -1.707500000000000E+02
4930000000.000000      6.964722000000000E-01      9.906738000000000E+00      1.941299000000000E-01     -1.708906000000000E+02
4931000000.000000      6.960754000000000E-01      9.857422000000000E+00      1.904831000000000E-01     -1.709219000000000E+02
4932000000.000000      6.957092000000000E-01      9.822754000000000E+00      1.862793000000000E-01     -1.709453000000000E+02
4933000000.000000      6.961975000000000E-01      9.589355000000000E+00      1.813354000000000E-01     -1.706563000000000E+02
4934000000.000000      6.976624000000000E-01      9.389160000000000E+00      1.783295000000000E-01     -1.707266000000000E+02
4935000000.000000      6.998291000000000E-01      9.339355000000000E+00      1.755371000000000E-01     -1.704687000000000E+02
4936000000.000000      6.997375000000000E-01      9.268066000000000E+00      1.705856000000000E-01     -1.704531000000000E+02
4937000000.000000      7.010193000000000E-01      9.002930000000000E+00      1.666565000000000E-01     -1.702344000000000E+02
4938000000.000000      6.986084000000000E-01      9.130859000000000E+00      1.633530000000000E-01     -1.698359000000000E+02
4939000000.000000      7.012634000000000E-01      9.009766000000000E+00      1.602402000000000E-01     -1.693984000000000E+02
4940000000.000000      7.023315000000000E-01      8.906738000000000E+00      1.559677000000000E-01     -1.694453000000000E+02
4941000000.000000      7.012024000000000E-01      8.768066000000000E+00      1.527405000000000E-01     -1.687891000000000E+02
4942000000.000000      7.018127000000000E-01      8.723145000000000E+00      1.488571000000000E-01     -1.685469000000000E+02
4943000000.000000      7.037048000000000E-01      8.654297000000000E+00      1.456528000000000E-01     -1.678828000000000E+02
4944000000.000000      7.019653000000000E-01      8.652832000000000E+00      1.420975000000000E-01     -1.672578000000000E+02
4945000000.000000      7.019348000000000E-01      8.439941000000000E+00      1.383972000000000E-01     -1.666563000000000E+02
4946000000.000000      7.042847000000000E-01      8.282227000000000E+00      1.356506000000000E-01     -1.656953000000000E+02
4947000000.000000      7.036438000000000E-01      8.195801000000000E+00      1.322861000000000E-01     -1.649297000000000E+02
4948000000.000000      7.036438000000000E-01      8.100586000000000E+00      1.293945000000000E-01     -1.642344000000000E+02
4949000000.000000      7.041626000000000E-01      8.026855000000000E+00      1.262131000000000E-01     -1.628594000000000E+02
4950000000.000000      7.044373000000000E-01      8.026855000000000E+00      1.235847000000000E-01     -1.619844000000000E+02
4951000000.000000      7.064514000000000E-01      7.748047000000000E+00      1.212425000000000E-01     -1.610391000000000E+02
4952000000.000000      7.055054000000000E-01      7.732910000000000E+00      1.187401000000000E-01     -1.597109000000000E+02
4953000000.000000      7.071838000000000E-01      7.627197000000000E+00      1.164551000000000E-01     -1.582813000000000E+02
4954000000.000000      7.086487000000000E-01      7.607910000000000E+00      1.140289000000000E-01     -1.569219000000000E+02
