! Network Analyzer HP8722D
! Hewlett-Packard
! Data name: Linha & Wilkinson
! Saver's name: Rodrigo Anjos
! Comments: Teste da utilização de aquisição
continua pelo VNA HP8722D
! Time and date: 22/5/2025 13:59
!              Frequency                     S11                                                   S21                                                   S12                                                   S22
# HZ  S  MA R 50
4800000000.000000      6.528625000000000E-01      1.070605000000000E+01      4.707184000000000E-01     -9.225780000000000E+01
4801000000.000000      6.499939000000000E-01      1.089697000000000E+01      4.732666000000000E-01     -9.286718000000000E+01
4802000000.000000      6.483459000000000E-01      1.085693000000000E+01      4.726105000000000E-01     -9.374609000000000E+01
4803000000.000000      6.474915000000000E-01      1.090771000000000E+01      4.773865000000000E-01     -9.441797000000000E+01
4804000000.000000      6.434937000000000E-01      1.083350000000000E+01      4.785461000000000E-01     -9.503124000000000E+01
4805000000.000000      6.455078000000000E-01      1.072363000000000E+01      4.803162000000000E-01     -9.597656000000000E+01
4806000000.000000      6.415100000000000E-01      1.083789000000000E+01      4.825134000000000E-01     -9.664452000000000E+01
4807000000.000000      6.401367000000000E-01      1.082520000000000E+01      4.825134000000000E-01     -9.766796000000000E+01
4808000000.000000      6.379700000000000E-01      1.084619000000000E+01      4.848633000000000E-01     -9.799608000000000E+01
4809000000.000000      6.357422000000000E-01      1.102197000000000E+01      4.873199000000000E-01     -9.900780000000000E+01
4810000000.000000      6.365662000000000E-01      1.098730000000000E+01      4.870911000000000E-01     -9.976563000000000E+01
4811000000.000000      6.334229000000000E-01      1.103125000000000E+01      4.892578000000000E-01     -1.007422000000000E+02
4812000000.000000      6.339417000000000E-01      1.119629000000000E+01      4.902039000000000E-01     -1.009844000000000E+02
4813000000.000000      6.309509000000000E-01      1.114941000000000E+01      4.909515000000000E-01     -1.020586000000000E+02
4814000000.000000      6.292725000000000E-01      1.110547000000000E+01      4.919891000000000E-01     -1.027500000000000E+02
4815000000.000000      6.259766000000000E-01      1.127881000000000E+01      4.919739000000000E-01     -1.037070000000000E+02
4816000000.000000      6.278687000000000E-01      1.126758000000000E+01      4.938812000000000E-01     -1.041289000000000E+02
4817000000.000000      6.269531000000000E-01      1.133496000000000E+01      4.940948000000000E-01     -1.050937000000000E+02
4818000000.000000      6.262512000000000E-01      1.143262000000000E+01      4.957123000000000E-01     -1.059805000000000E+02
4819000000.000000      6.226196000000000E-01      1.160254000000000E+01      4.964752000000000E-01     -1.065586000000000E+02
4820000000.000000      6.202087000000000E-01      1.166748000000000E+01      4.960785000000000E-01     -1.070664000000000E+02
4821000000.000000      6.218262000000000E-01      1.169336000000000E+01      4.977112000000000E-01     -1.082617000000000E+02
4822000000.000000      6.194763000000000E-01      1.172363000000000E+01      4.961548000000000E-01     -1.086680000000000E+02
4823000000.000000      6.198120000000000E-01      1.171387000000000E+01      4.977264000000000E-01     -1.096836000000000E+02
4824000000.000000      6.169739000000000E-01      1.214258000000000E+01      4.972687000000000E-01     -1.101250000000000E+02
4825000000.000000      6.167297000000000E-01      1.215088000000000E+01      4.975281000000000E-01     -1.108906000000000E+02
4826000000.000000      6.167908000000000E-01      1.217822000000000E+01      4.991150000000000E-01     -1.119492000000000E+02
4827000000.000000      6.155396000000000E-01      1.213672000000000E+01      4.980621000000000E-01     -1.124219000000000E+02
4828000000.000000      6.165466000000000E-01      1.228809000000000E+01      4.992065000000000E-01     -1.132773000000000E+02
4829000000.000000      6.148987000000000E-01      1.241455000000000E+01      5.003052000000000E-01     -1.141055000000000E+02
4830000000.000000      6.139832000000000E-01      1.251465000000000E+01      4.990845000000000E-01     -1.148516000000000E+02
4831000000.000000      6.148071000000000E-01      1.252979000000000E+01      4.998932000000000E-01     -1.156562000000000E+02
4832000000.000000      6.147461000000000E-01      1.282764000000000E+01      4.989471000000000E-01     -1.164063000000000E+02
4833000000.000000      6.118469000000000E-01      1.263818000000000E+01      4.985352000000000E-01     -1.169609000000000E+02
4834000000.000000      6.128845000000000E-01      1.296387000000000E+01      4.984283000000000E-01     -1.177617000000000E+02
4835000000.000000      6.142273000000000E-01      1.324951000000000E+01      4.998322000000000E-01     -1.186484000000000E+02
4836000000.000000      6.152649000000000E-01      1.331934000000000E+01      4.964447000000000E-01     -1.193984000000000E+02
4837000000.000000      6.134338000000000E-01      1.354297000000000E+01      4.970856000000000E-01     -1.202734000000000E+02
4838000000.000000      6.132202000000000E-01      1.345508000000000E+01      4.981995000000000E-01     -1.207734000000000E+02
4839000000.000000      6.161194000000000E-01      1.367920000000000E+01      4.983673000000000E-01     -1.218164000000000E+02
4840000000.000000      6.164246000000000E-01      1.363770000000000E+01      4.989166000000000E-01     -1.225156000000000E+02
4841000000.000000      6.142273000000000E-01      1.374219000000000E+01      4.990387000000000E-01     -1.233516000000000E+02
4842000000.000000      6.163635000000000E-01      1.386035000000000E+01      4.951782000000000E-01     -1.241992000000000E+02
4843000000.000000      6.179810000000000E-01      1.375732000000000E+01      4.966125000000000E-01     -1.250977000000000E+02
4844000000.000000      6.169128000000000E-01      1.398389000000000E+01      4.949341000000000E-01     -1.258320000000000E+02
4845000000.000000      6.179504000000000E-01      1.416113000000000E+01      4.940186000000000E-01     -1.266016000000000E+02
4846000000.000000      6.207275000000000E-01      1.424902000000000E+01      4.925537000000000E-01     -1.274180000000000E+02
4847000000.000000      6.170959000000000E-01      1.431787000000000E+01      4.915619000000000E-01     -1.281797000000000E+02
4848000000.000000      6.205750000000000E-01      1.443311000000000E+01      4.891052000000000E-01     -1.289531000000000E+02
4849000000.000000      6.231079000000000E-01      1.443994000000000E+01      4.887238000000000E-01     -1.299219000000000E+02
4850000000.000000      6.210632000000000E-01      1.442871000000000E+01      4.856110000000000E-01     -1.307422000000000E+02
4851000000.000000      6.232910000000000E-01      1.467334000000000E+01      4.860992000000000E-01     -1.316328000000000E+02
4852000000.000000      6.248779000000000E-01      1.468457000000000E+01      4.831390000000000E-01     -1.326094000000000E+02
4853000000.000000      6.256714000000000E-01      1.465283000000000E+01      4.810944000000000E-01     -1.333047000000000E+02
4854000000.000000      6.268005000000000E-01      1.484619000000000E+01      4.790039000000000E-01     -1.343672000000000E+02
4855000000.000000      6.267395000000000E-01      1.468555000000000E+01      4.779510000000000E-01     -1.352890000000000E+02
4856000000.000000      6.279907000000000E-01      1.494678000000000E+01      4.749603000000000E-01     -1.359531000000000E+02
4857000000.000000      6.303101000000000E-01      1.489746000000000E+01      4.729309000000000E-01     -1.367344000000000E+02
4858000000.000000      6.305847000000000E-01      1.491357000000000E+01      4.699554000000000E-01     -1.376562000000000E+02
4859000000.000000      6.316833000000000E-01      1.482324000000000E+01      4.690094000000000E-01     -1.386406000000000E+02
4860000000.000000      6.326904000000000E-01      1.502783000000000E+01      4.642792000000000E-01     -1.393203000000000E+02
4861000000.000000      6.328125000000000E-01      1.492725000000000E+01      4.615479000000000E-01     -1.402656000000000E+02
4862000000.000000      6.343079000000000E-01      1.498926000000000E+01      4.583282000000000E-01     -1.410625000000000E+02
4863000000.000000      6.369019000000000E-01      1.488477000000000E+01      4.532318000000000E-01     -1.418516000000000E+02
4864000000.000000      6.359558000000000E-01      1.486963000000000E+01      4.509125000000000E-01     -1.425937000000000E+02
4865000000.000000      6.365051000000000E-01      1.497559000000000E+01      4.468842000000000E-01     -1.433750000000000E+02
4866000000.000000      6.383667000000000E-01      1.500732000000000E+01      4.428864000000000E-01     -1.443906000000000E+02
4867000000.000000      6.408997000000000E-01      1.498926000000000E+01      4.391174000000000E-01     -1.451953000000000E+02
4868000000.000000      6.415100000000000E-01      1.505371000000000E+01      4.361725000000000E-01     -1.457500000000000E+02
4869000000.000000      6.452026000000000E-01      1.492871000000000E+01      4.322510000000000E-01     -1.466016000000000E+02
4870000000.000000      6.455078000000000E-01      1.487109000000000E+01      4.289246000000000E-01     -1.472344000000000E+02
4871000000.000000      6.452942000000000E-01      1.482568000000000E+01      4.221191000000000E-01     -1.481875000000000E+02
4872000000.000000      6.483765000000000E-01      1.480957000000000E+01      4.191742000000000E-01     -1.488203000000000E+02
4873000000.000000      6.473694000000000E-01      1.502344000000000E+01      4.155121000000000E-01     -1.496250000000000E+02
4874000000.000000      6.486206000000000E-01      1.489844000000000E+01      4.106598000000000E-01     -1.502734000000000E+02
4875000000.000000      6.516724000000000E-01      1.476660000000000E+01      4.049988000000000E-01     -1.508359000000000E+02
4876000000.000000      6.514893000000000E-01      1.506494000000000E+01      4.015045000000000E-01     -1.515625000000000E+02
4877000000.000000      6.542664000000000E-01      1.469238000000000E+01      3.979034000000000E-01     -1.523281000000000E+02
4878000000.000000      6.514893000000000E-01      1.459766000000000E+01      3.936615000000000E-01     -1.529453000000000E+02
4879000000.000000      6.570740000000000E-01      1.469971000000000E+01      3.874207000000000E-01     -1.533203000000000E+02
4880000000.000000      6.564636000000000E-01      1.447705000000000E+01      3.842010000000000E-01     -1.540625000000000E+02
4881000000.000000      6.584167000000000E-01      1.453760000000000E+01      3.803711000000000E-01     -1.546328000000000E+02
4882000000.000000      6.604309000000000E-01      1.446729000000000E+01      3.768005000000000E-01     -1.552500000000000E+02
4883000000.000000      6.595764000000000E-01      1.440967000000000E+01      3.701630000000000E-01     -1.557812000000000E+02
4884000000.000000      6.637268000000000E-01      1.448682000000000E+01      3.661499000000000E-01     -1.563984000000000E+02
4885000000.000000      6.636658000000000E-01      1.434375000000000E+01      3.619232000000000E-01     -1.566250000000000E+02
4886000000.000000      6.651611000000000E-01      1.414307000000000E+01      3.580017000000000E-01     -1.571640000000000E+02
4887000000.000000      6.660156000000000E-01      1.417334000000000E+01      3.544922000000000E-01     -1.577422000000000E+02
4888000000.000000      6.664734000000000E-01      1.390723000000000E+01      3.499756000000000E-01     -1.581719000000000E+02
4889000000.000000      6.686401000000000E-01      1.399658000000000E+01      3.446808000000000E-01     -1.586328000000000E+02
4890000000.000000      6.676941000000000E-01      1.375342000000000E+01      3.414001000000000E-01     -1.595859000000000E+02
4891000000.000000      6.704407000000000E-01      1.378467000000000E+01      3.367767000000000E-01     -1.597500000000000E+02
4892000000.000000      6.706238000000000E-01      1.374512000000000E+01      3.328094000000000E-01     -1.597578000000000E+02
4893000000.000000      6.724854000000000E-01      1.353516000000000E+01      3.292847000000000E-01     -1.605703000000000E+02
4894000000.000000      6.722717000000000E-01      1.353760000000000E+01      3.245850000000000E-01     -1.607812000000000E+02
4895000000.000000      6.761475000000000E-01      1.340869000000000E+01      3.214569000000000E-01     -1.613281000000000E+02
4896000000.000000      6.737061000000000E-01      1.338232000000000E+01      3.180847000000000E-01     -1.615859000000000E+02
4897000000.000000      6.744080000000000E-01      1.334668000000000E+01      3.130646000000000E-01     -1.619844000000000E+02
4898000000.000000      6.765137000000000E-01      1.301318000000000E+01      3.108673000000000E-01     -1.621875000000000E+02
4899000000.000000      6.787720000000000E-01      1.322314000000000E+01      3.064880000000000E-01     -1.628359000000000E+02
4900000000.000000      6.792908000000000E-01      1.293213000000000E+01      3.027496000000000E-01     -1.629219000000000E+02
4901000000.000000      6.790466000000000E-01      1.277539000000000E+01      2.991333000000000E-01     -1.634453000000000E+02
4902000000.000000      6.798401000000000E-01      1.278906000000000E+01      2.960510000000000E-01     -1.634609000000000E+02
4903000000.000000      6.797485000000000E-01      1.274121000000000E+01      2.909393000000000E-01     -1.639219000000000E+02
4904000000.000000      6.792908000000000E-01      1.238428000000000E+01      2.872620000000000E-01     -1.645078000000000E+02
4905000000.000000      6.828308000000000E-01      1.247314000000000E+01      2.850189000000000E-01     -1.648516000000000E+02
4906000000.000000      6.813965000000000E-01      1.227148000000000E+01      2.809753000000000E-01     -1.648672000000000E+02
4907000000.000000      6.817322000000000E-01      1.226855000000000E+01      2.782593000000000E-01     -1.655078000000000E+02
4908000000.000000      6.861572000000000E-01      1.208350000000000E+01      2.748871000000000E-01     -1.657266000000000E+02
4909000000.000000      6.837158000000000E-01      1.205859000000000E+01      2.708282000000000E-01     -1.662031000000000E+02
4910000000.000000      6.838379000000000E-01      1.194189000000000E+01      2.667999000000000E-01     -1.664141000000000E+02
4911000000.000000      6.857605000000000E-01      1.189648000000000E+01      2.640381000000000E-01     -1.666094000000000E+02
4912000000.000000      6.867065000000000E-01      1.165479000000000E+01      2.598724000000000E-01     -1.669844000000000E+02
4913000000.000000      6.879578000000000E-01      1.167676000000000E+01      2.569885000000000E-01     -1.672812000000000E+02
4914000000.000000      6.870117000000000E-01      1.136914000000000E+01      2.530060000000000E-01     -1.675156000000000E+02
4915000000.000000      6.878052000000000E-01      1.150635000000000E+01      2.496872000000000E-01     -1.679844000000000E+02
4916000000.000000      6.865845000000000E-01      1.131689000000000E+01      2.461548000000000E-01     -1.682812000000000E+02
4917000000.000000      6.881409000000000E-01      1.130322000000000E+01      2.422562000000000E-01     -1.683906000000000E+02
4918000000.000000      6.887207000000000E-01      1.119092000000000E+01      2.381516000000000E-01     -1.687891000000000E+02
4919000000.000000      6.904602000000000E-01      1.119189000000000E+01      2.352676000000000E-01     -1.689531000000000E+02
4920000000.000000      6.912842000000000E-01      1.088721000000000E+01      2.310028000000000E-01     -1.693203000000000E+02
4921000000.000000      6.906128000000000E-01      1.100098000000000E+01      2.282257000000000E-01     -1.694219000000000E+02
4922000000.000000      6.922302000000000E-01      1.074854000000000E+01      2.247620000000000E-01     -1.695156000000000E+02
4923000000.000000      6.925049000000000E-01      1.067871000000000E+01      2.202454000000000E-01     -1.696953000000000E+02
4924000000.000000      6.937866000000000E-01      1.060693000000000E+01      2.165070000000000E-01     -1.701562000000000E+02
4925000000.000000      6.936951000000000E-01      1.037891000000000E+01      2.131424000000000E-01     -1.702109000000000E+02
4926000000.000000      6.938782000000000E-01      1.034180000000000E+01      2.088852000000000E-01     -1.704531000000000E+02
4927000000.000000      6.962891000000000E-01      1.028711000000000E+01      2.054977000000000E-01     -1.706797000000000E+02
4928000000.000000      6.952209000000000E-01      1.016211000000000E+01      2.019730000000000E-01     -1.705859000000000E+02
4929000000.000000      6.949158000000000E-01      1.008789000000000E+01      1.978760000000000E-01     -1.707031000000000E+02
4930000000.000000      6.954346000000000E-01      1.017725000000000E+01      1.948318000000000E-01     -1.707422000000000E+02
4931000000.000000      6.970825000000000E-01      9.814453000000000E+00      1.911316000000000E-01     -1.707500000000000E+02
4932000000.000000      6.963806000000000E-01      9.862793000000000E+00      1.867523000000000E-01     -1.707734000000000E+02
4933000000.000000      6.968079000000000E-01      9.581055000000000E+00      1.821060000000000E-01     -1.707266000000000E+02
4934000000.000000      6.986084000000000E-01      9.637695000000000E+00      1.786499000000000E-01     -1.707891000000000E+02
4935000000.000000      6.991272000000000E-01      9.505859000000000E+00      1.754532000000000E-01     -1.705156000000000E+02
4936000000.000000      6.968689000000000E-01      9.433105000000000E+00      1.715164000000000E-01     -1.703984000000000E+02
4937000000.000000      6.980896000000000E-01      9.354492000000000E+00      1.678009000000000E-01     -1.703281000000000E+02
4938000000.000000      6.983948000000000E-01      9.331055000000000E+00      1.643982000000000E-01     -1.699687000000000E+02
4939000000.000000      7.010498000000000E-01      9.288574000000000E+00      1.602478000000000E-01     -1.695469000000000E+02
4940000000.000000      7.022400000000000E-01      9.058105000000000E+00      1.567535000000000E-01     -1.693906000000000E+02
4941000000.000000      7.017517000000000E-01      9.067383000000000E+00      1.532440000000000E-01     -1.689219000000000E+02
4942000000.000000      6.990356000000000E-01      8.845215000000000E+00      1.495895000000000E-01     -1.683516000000000E+02
4943000000.000000      7.018433000000000E-01      8.718750000000000E+00      1.464462000000000E-01     -1.679609000000000E+02
4944000000.000000      7.021484000000000E-01      8.633789000000000E+00      1.430588000000000E-01     -1.672891000000000E+02
4945000000.000000      7.035828000000000E-01      8.588379000000000E+00      1.394424000000000E-01     -1.667266000000000E+02
4946000000.000000      7.036133000000000E-01      8.500488000000000E+00      1.364212000000000E-01     -1.660625000000000E+02
4947000000.000000      7.029724000000000E-01      8.350586000000000E+00      1.328583000000000E-01     -1.651328000000000E+02
4948000000.000000      7.026978000000000E-01      8.341309000000000E+00      1.304703000000000E-01     -1.642500000000000E+02
4949000000.000000      7.053223000000000E-01      8.188477000000000E+00      1.268616000000000E-01     -1.631172000000000E+02
4950000000.000000      7.037048000000000E-01      8.333008000000000E+00      1.241646000000000E-01     -1.621406000000000E+02
4951000000.000000      7.050476000000000E-01      7.901855000000000E+00      1.215668000000000E-01     -1.611875000000000E+02
4952000000.000000      7.057800000000000E-01      7.893555000000000E+00      1.190605000000000E-01     -1.599844000000000E+02
4953000000.000000      7.048645000000000E-01      7.715088000000000E+00      1.168060000000000E-01     -1.584844000000000E+02
4954000000.000000      7.071533000000000E-01      7.621582000000000E+00      1.145248000000000E-01     -1.570234000000000E+02
