! Network Analyzer HP8722D
! Hewlett-Packard
! Data name: Linha & Wilkinson
! Saver's name: Rodrigo Anjos
! Comments: Teste da utilização de aquisição
continua pelo VNA HP8722D
! Time and date: 22/5/2025 12:13
!              Frequency                     S11                                                   S21                                                   S12                                                   S22
# HZ  S  MA R 50
4800000000.000000      6.526184000000000E-01      1.085303000000000E+01      4.706879000000000E-01     -9.242579000000000E+01
4801000000.000000      6.499023000000000E-01      1.084863000000000E+01      4.727783000000000E-01     -9.293360000000000E+01
4802000000.000000      6.483459000000000E-01      1.082666000000000E+01      4.741058000000000E-01     -9.361719000000000E+01
4803000000.000000      6.468201000000000E-01      1.080078000000000E+01      4.767914000000000E-01     -9.445313000000000E+01
4804000000.000000      6.443787000000000E-01      1.075830000000000E+01      4.786530000000000E-01     -9.526171000000000E+01
4805000000.000000      6.446838000000000E-01      1.064404000000000E+01      4.810944000000000E-01     -9.605078000000000E+01
4806000000.000000      6.405334000000000E-01      1.079102000000000E+01      4.816284000000000E-01     -9.684765000000000E+01
4807000000.000000      6.386719000000000E-01      1.068945000000000E+01      4.815979000000000E-01     -9.772264000000000E+01
4808000000.000000      6.370239000000000E-01      1.071973000000000E+01      4.849701000000000E-01     -9.822266000000000E+01
4809000000.000000      6.360779000000000E-01      1.088428000000000E+01      4.857788000000000E-01     -9.910156000000000E+01
4810000000.000000      6.350098000000000E-01      1.092285000000000E+01      4.882965000000000E-01     -9.969921000000000E+01
4811000000.000000      6.341858000000000E-01      1.088867000000000E+01      4.897003000000000E-01     -1.006523000000000E+02
4812000000.000000      6.332703000000000E-01      1.103418000000000E+01      4.895172000000000E-01     -1.014805000000000E+02
4813000000.000000      6.313477000000000E-01      1.104248000000000E+01      4.902496000000000E-01     -1.020469000000000E+02
4814000000.000000      6.287537000000000E-01      1.098877000000000E+01      4.925232000000000E-01     -1.027070000000000E+02
4815000000.000000      6.278381000000000E-01      1.104492000000000E+01      4.931793000000000E-01     -1.034766000000000E+02
4816000000.000000      6.273193000000000E-01      1.115234000000000E+01      4.936676000000000E-01     -1.044336000000000E+02
4817000000.000000      6.259155000000000E-01      1.134180000000000E+01      4.947968000000000E-01     -1.053125000000000E+02
4818000000.000000      6.235657000000000E-01      1.135693000000000E+01      4.957581000000000E-01     -1.060547000000000E+02
4819000000.000000      6.229858000000000E-01      1.137354000000000E+01      4.951477000000000E-01     -1.066836000000000E+02
4820000000.000000      6.229248000000000E-01      1.156445000000000E+01      4.956970000000000E-01     -1.072109000000000E+02
4821000000.000000      6.221619000000000E-01      1.153809000000000E+01      4.964294000000000E-01     -1.081016000000000E+02
4822000000.000000      6.192627000000000E-01      1.164111000000000E+01      4.955292000000000E-01     -1.089297000000000E+02
4823000000.000000      6.203613000000000E-01      1.166602000000000E+01      4.978333000000000E-01     -1.097461000000000E+02
4824000000.000000      6.193848000000000E-01      1.191602000000000E+01      4.974365000000000E-01     -1.104492000000000E+02
4825000000.000000      6.177368000000000E-01      1.200488000000000E+01      4.971924000000000E-01     -1.112539000000000E+02
4826000000.000000      6.163940000000000E-01      1.191016000000000E+01      4.993286000000000E-01     -1.120078000000000E+02
4827000000.000000      6.171265000000000E-01      1.219873000000000E+01      4.987335000000000E-01     -1.123047000000000E+02
4828000000.000000      6.163635000000000E-01      1.213818000000000E+01      4.995270000000000E-01     -1.133086000000000E+02
4829000000.000000      6.162109000000000E-01      1.247217000000000E+01      5.000916000000000E-01     -1.142461000000000E+02
4830000000.000000      6.161804000000000E-01      1.242822000000000E+01      5.003052000000000E-01     -1.148984000000000E+02
4831000000.000000      6.158142000000000E-01      1.246240000000000E+01      4.998016000000000E-01     -1.157305000000000E+02
4832000000.000000      6.145325000000000E-01      1.275879000000000E+01      4.990082000000000E-01     -1.164766000000000E+02
4833000000.000000      6.126404000000000E-01      1.267676000000000E+01      4.992676000000000E-01     -1.170391000000000E+02
4834000000.000000      6.126099000000000E-01      1.302979000000000E+01      4.975891000000000E-01     -1.181094000000000E+02
4835000000.000000      6.130066000000000E-01      1.302246000000000E+01      4.990540000000000E-01     -1.187539000000000E+02
4836000000.000000      6.140442000000000E-01      1.319727000000000E+01      4.982910000000000E-01     -1.193398000000000E+02
4837000000.000000      6.139526000000000E-01      1.338379000000000E+01      4.967499000000000E-01     -1.203555000000000E+02
4838000000.000000      6.132202000000000E-01      1.343457000000000E+01      4.981384000000000E-01     -1.209766000000000E+02
4839000000.000000      6.175537000000000E-01      1.354736000000000E+01      4.970398000000000E-01     -1.218242000000000E+02
4840000000.000000      6.164551000000000E-01      1.357910000000000E+01      4.972076000000000E-01     -1.226406000000000E+02
4841000000.000000      6.157227000000000E-01      1.387842000000000E+01      4.973907000000000E-01     -1.233555000000000E+02
4842000000.000000      6.153564000000000E-01      1.393164000000000E+01      4.971008000000000E-01     -1.241680000000000E+02
4843000000.000000      6.170349000000000E-01      1.373145000000000E+01      4.958801000000000E-01     -1.251172000000000E+02
4844000000.000000      6.178894000000000E-01      1.397168000000000E+01      4.938202000000000E-01     -1.260117000000000E+02
4845000000.000000      6.193542000000000E-01      1.409229000000000E+01      4.930573000000000E-01     -1.266836000000000E+02
4846000000.000000      6.202087000000000E-01      1.417480000000000E+01      4.927673000000000E-01     -1.276328000000000E+02
4847000000.000000      6.197510000000000E-01      1.434521000000000E+01      4.908905000000000E-01     -1.282109000000000E+02
4848000000.000000      6.197510000000000E-01      1.442090000000000E+01      4.893341000000000E-01     -1.292344000000000E+02
4849000000.000000      6.221924000000000E-01      1.434814000000000E+01      4.891815000000000E-01     -1.300703000000000E+02
4850000000.000000      6.205750000000000E-01      1.442334000000000E+01      4.868927000000000E-01     -1.310625000000000E+02
4851000000.000000      6.231384000000000E-01      1.474902000000000E+01      4.861450000000000E-01     -1.318438000000000E+02
4852000000.000000      6.240845000000000E-01      1.454150000000000E+01      4.837036000000000E-01     -1.324687000000000E+02
4853000000.000000      6.249084000000000E-01      1.457031000000000E+01      4.803619000000000E-01     -1.336250000000000E+02
4854000000.000000      6.240845000000000E-01      1.464307000000000E+01      4.789124000000000E-01     -1.345000000000000E+02
4855000000.000000      6.279602000000000E-01      1.471191000000000E+01      4.770813000000000E-01     -1.353359000000000E+02
4856000000.000000      6.264648000000000E-01      1.463232000000000E+01      4.736328000000000E-01     -1.361016000000000E+02
4857000000.000000      6.300659000000000E-01      1.483691000000000E+01      4.731903000000000E-01     -1.368750000000000E+02
4858000000.000000      6.310120000000000E-01      1.479688000000000E+01      4.697723000000000E-01     -1.378125000000000E+02
4859000000.000000      6.312866000000000E-01      1.465820000000000E+01      4.675293000000000E-01     -1.387031000000000E+02
4860000000.000000      6.322327000000000E-01      1.483936000000000E+01      4.635315000000000E-01     -1.393906000000000E+02
4861000000.000000      6.339111000000000E-01      1.472412000000000E+01      4.609833000000000E-01     -1.403828000000000E+02
4862000000.000000      6.328430000000000E-01      1.498242000000000E+01      4.581757000000000E-01     -1.411641000000000E+02
4863000000.000000      6.365051000000000E-01      1.493018000000000E+01      4.530945000000000E-01     -1.420703000000000E+02
4864000000.000000      6.390076000000000E-01      1.492725000000000E+01      4.508820000000000E-01     -1.428437000000000E+02
4865000000.000000      6.382446000000000E-01      1.485449000000000E+01      4.478149000000000E-01     -1.434062000000000E+02
4866000000.000000      6.388245000000000E-01      1.492334000000000E+01      4.435883000000000E-01     -1.444297000000000E+02
4867000000.000000      6.383362000000000E-01      1.502783000000000E+01      4.389954000000000E-01     -1.453047000000000E+02
4868000000.000000      6.415405000000000E-01      1.480127000000000E+01      4.358978000000000E-01     -1.461875000000000E+02
4869000000.000000      6.418762000000000E-01      1.494824000000000E+01      4.311371000000000E-01     -1.467656000000000E+02
4870000000.000000      6.433716000000000E-01      1.476953000000000E+01      4.271545000000000E-01     -1.472969000000000E+02
4871000000.000000      6.457520000000000E-01      1.487646000000000E+01      4.224701000000000E-01     -1.481875000000000E+02
4872000000.000000      6.479797000000000E-01      1.486572000000000E+01      4.192505000000000E-01     -1.489063000000000E+02
4873000000.000000      6.464844000000000E-01      1.490967000000000E+01      4.150696000000000E-01     -1.497813000000000E+02
4874000000.000000      6.491089000000000E-01      1.478027000000000E+01      4.117889000000000E-01     -1.504766000000000E+02
4875000000.000000      6.501465000000000E-01      1.458691000000000E+01      4.063721000000000E-01     -1.510156000000000E+02
4876000000.000000      6.528015000000000E-01      1.463232000000000E+01      4.015656000000000E-01     -1.517422000000000E+02
4877000000.000000      6.542358000000000E-01      1.445215000000000E+01      3.978729000000000E-01     -1.524609000000000E+02
4878000000.000000      6.561279000000000E-01      1.450439000000000E+01      3.931274000000000E-01     -1.529297000000000E+02
4879000000.000000      6.573181000000000E-01      1.463086000000000E+01      3.876801000000000E-01     -1.533516000000000E+02
4880000000.000000      6.568298000000000E-01      1.446875000000000E+01      3.833466000000000E-01     -1.543203000000000E+02
4881000000.000000      6.561890000000000E-01      1.438623000000000E+01      3.792114000000000E-01     -1.547969000000000E+02
4882000000.000000      6.623230000000000E-01      1.437256000000000E+01      3.754425000000000E-01     -1.554688000000000E+02
4883000000.000000      6.605835000000000E-01      1.426709000000000E+01      3.698273000000000E-01     -1.560390000000000E+02
4884000000.000000      6.641541000000000E-01      1.423828000000000E+01      3.669128000000000E-01     -1.563125000000000E+02
4885000000.000000      6.646423000000000E-01      1.420361000000000E+01      3.617249000000000E-01     -1.567422000000000E+02
4886000000.000000      6.656799000000000E-01      1.418164000000000E+01      3.575897000000000E-01     -1.571875000000000E+02
4887000000.000000      6.655273000000000E-01      1.418994000000000E+01      3.527069000000000E-01     -1.578203000000000E+02
4888000000.000000      6.659546000000000E-01      1.400195000000000E+01      3.508301000000000E-01     -1.582500000000000E+02
4889000000.000000      6.682739000000000E-01      1.393750000000000E+01      3.452148000000000E-01     -1.586641000000000E+02
4890000000.000000      6.677551000000000E-01      1.374658000000000E+01      3.403168000000000E-01     -1.594375000000000E+02
4891000000.000000      6.700134000000000E-01      1.372021000000000E+01      3.367157000000000E-01     -1.598281000000000E+02
4892000000.000000      6.710815000000000E-01      1.362305000000000E+01      3.325043000000000E-01     -1.598047000000000E+02
4893000000.000000      6.725159000000000E-01      1.358154000000000E+01      3.289948000000000E-01     -1.606406000000000E+02
4894000000.000000      6.723633000000000E-01      1.344971000000000E+01      3.242188000000000E-01     -1.607344000000000E+02
4895000000.000000      6.749573000000000E-01      1.334668000000000E+01      3.211517000000000E-01     -1.613672000000000E+02
4896000000.000000      6.734924000000000E-01      1.330957000000000E+01      3.172150000000000E-01     -1.616875000000000E+02
4897000000.000000      6.743469000000000E-01      1.327393000000000E+01      3.130646000000000E-01     -1.619766000000000E+02
4898000000.000000      6.764832000000000E-01      1.318896000000000E+01      3.101349000000000E-01     -1.623281000000000E+02
4899000000.000000      6.783752000000000E-01      1.305029000000000E+01      3.058929000000000E-01     -1.628672000000000E+02
4900000000.000000      6.781311000000000E-01      1.294189000000000E+01      3.022461000000000E-01     -1.631250000000000E+02
4901000000.000000      6.790771000000000E-01      1.279883000000000E+01      2.986450000000000E-01     -1.634687000000000E+02
4902000000.000000      6.809998000000000E-01      1.261230000000000E+01      2.953644000000000E-01     -1.637422000000000E+02
4903000000.000000      6.821899000000000E-01      1.264502000000000E+01      2.906342000000000E-01     -1.640938000000000E+02
4904000000.000000      6.802368000000000E-01      1.236914000000000E+01      2.877197000000000E-01     -1.646250000000000E+02
4905000000.000000      6.830139000000000E-01      1.236475000000000E+01      2.843781000000000E-01     -1.648750000000000E+02
4906000000.000000      6.838379000000000E-01      1.226611000000000E+01      2.806854000000000E-01     -1.649141000000000E+02
4907000000.000000      6.837769000000000E-01      1.213672000000000E+01      2.772675000000000E-01     -1.654844000000000E+02
4908000000.000000      6.851196000000000E-01      1.201904000000000E+01      2.740021000000000E-01     -1.659297000000000E+02
4909000000.000000      6.836548000000000E-01      1.203662000000000E+01      2.706299000000000E-01     -1.661094000000000E+02
4910000000.000000      6.859131000000000E-01      1.182129000000000E+01      2.671204000000000E-01     -1.664844000000000E+02
4911000000.000000      6.879578000000000E-01      1.171680000000000E+01      2.630005000000000E-01     -1.667891000000000E+02
4912000000.000000      6.858826000000000E-01      1.170020000000000E+01      2.591095000000000E-01     -1.670859000000000E+02
4913000000.000000      6.877441000000000E-01      1.155322000000000E+01      2.565002000000000E-01     -1.673516000000000E+02
4914000000.000000      6.880188000000000E-01      1.148193000000000E+01      2.526703000000000E-01     -1.677813000000000E+02
4915000000.000000      6.898499000000000E-01      1.154639000000000E+01      2.495041000000000E-01     -1.681172000000000E+02
4916000000.000000      6.900940000000000E-01      1.134326000000000E+01      2.459488000000000E-01     -1.682344000000000E+02
4917000000.000000      6.889648000000000E-01      1.135254000000000E+01      2.420502000000000E-01     -1.685547000000000E+02
4918000000.000000      6.908264000000000E-01      1.107520000000000E+01      2.386169000000000E-01     -1.688828000000000E+02
4919000000.000000      6.904602000000000E-01      1.101611000000000E+01      2.350616000000000E-01     -1.688359000000000E+02
4920000000.000000      6.917114000000000E-01      1.090625000000000E+01      2.304230000000000E-01     -1.694297000000000E+02
4921000000.000000      6.911011000000000E-01      1.089844000000000E+01      2.275925000000000E-01     -1.696328000000000E+02
4922000000.000000      6.946411000000000E-01      1.080078000000000E+01      2.235489000000000E-01     -1.697266000000000E+02
4923000000.000000      6.924133000000000E-01      1.064160000000000E+01      2.198410000000000E-01     -1.698047000000000E+02
4924000000.000000      6.926575000000000E-01      1.060693000000000E+01      2.156754000000000E-01     -1.702344000000000E+02
4925000000.000000      6.934814000000000E-01      1.045996000000000E+01      2.126617000000000E-01     -1.702812000000000E+02
4926000000.000000      6.949158000000000E-01      1.029004000000000E+01      2.092514000000000E-01     -1.704141000000000E+02
4927000000.000000      6.918640000000000E-01      1.018115000000000E+01      2.048492000000000E-01     -1.707500000000000E+02
4928000000.000000      6.956787000000000E-01      1.006445000000000E+01      2.014389000000000E-01     -1.708672000000000E+02
4929000000.000000      6.944580000000000E-01      9.952148000000000E+00      1.974487000000000E-01     -1.707422000000000E+02
4930000000.000000      6.965942000000000E-01      9.931641000000000E+00      1.938705000000000E-01     -1.707656000000000E+02
4931000000.000000      6.960144000000000E-01      9.799805000000000E+00      1.908798000000000E-01     -1.708437000000000E+02
4932000000.000000      6.961975000000000E-01      9.755859000000000E+00      1.862717000000000E-01     -1.708984000000000E+02
4933000000.000000      6.979980000000000E-01      9.641602000000000E+00      1.822052000000000E-01     -1.706172000000000E+02
4934000000.000000      6.972656000000000E-01      9.630859000000000E+00      1.785736000000000E-01     -1.709063000000000E+02
4935000000.000000      6.988525000000000E-01      9.453613000000000E+00      1.751862000000000E-01     -1.705547000000000E+02
4936000000.000000      6.974487000000000E-01      9.290039000000000E+00      1.707993000000000E-01     -1.705469000000000E+02
4937000000.000000      7.017517000000000E-01      9.342285000000000E+00      1.667709000000000E-01     -1.703203000000000E+02
4938000000.000000      6.968994000000000E-01      9.191406000000000E+00      1.640854000000000E-01     -1.699609000000000E+02
4939000000.000000      6.990662000000000E-01      9.014160000000000E+00      1.598740000000000E-01     -1.696328000000000E+02
4940000000.000000      7.018433000000000E-01      8.839844000000000E+00      1.559677000000000E-01     -1.694687000000000E+02
4941000000.000000      7.012939000000000E-01      8.746094000000000E+00      1.530533000000000E-01     -1.688906000000000E+02
4942000000.000000      6.987000000000000E-01      8.636230000000000E+00      1.491318000000000E-01     -1.684375000000000E+02
4943000000.000000      7.009583000000000E-01      8.784668000000000E+00      1.461487000000000E-01     -1.680391000000000E+02
4944000000.000000      7.033691000000000E-01      8.452148000000000E+00      1.428833000000000E-01     -1.673281000000000E+02
4945000000.000000      7.017212000000000E-01      8.534668000000000E+00      1.385269000000000E-01     -1.666875000000000E+02
4946000000.000000      7.034302000000000E-01      8.280762000000000E+00      1.357498000000000E-01     -1.659219000000000E+02
4947000000.000000      7.039795000000000E-01      8.239746000000000E+00      1.324997000000000E-01     -1.651719000000000E+02
4948000000.000000      7.048035000000000E-01      8.302734000000000E+00      1.293335000000000E-01     -1.641719000000000E+02
4949000000.000000      7.045288000000000E-01      8.107910000000000E+00      1.265945000000000E-01     -1.630547000000000E+02
4950000000.000000      7.059937000000000E-01      8.020996000000000E+00      1.238518000000000E-01     -1.620391000000000E+02
4951000000.000000      7.059326000000000E-01      7.996582000000000E+00      1.213799000000000E-01     -1.612344000000000E+02
4952000000.000000      7.050781000000000E-01      7.768555000000000E+00      1.185188000000000E-01     -1.599531000000000E+02
4953000000.000000      7.064819000000000E-01      7.599609000000000E+00      1.165276000000000E-01     -1.584297000000000E+02
4954000000.000000      7.082825000000000E-01      7.668457000000000E+00      1.142654000000000E-01     -1.571406000000000E+02
