! Network Analyzer HP8722D
! Hewlett-Packard
! Data name: Linha & Wilkinson
! Saver's name: Rodrigo Anjos
! Comments: Teste da utilização de aquisição
continua pelo VNA HP8722D
! Time and date: 22/5/2025 11:20
!              Frequency                     S11                                                   S21                                                   S12                                                   S22
# HZ  S  MA R 50
4800000000.000000      6.506653000000000E-01      1.077734000000000E+01      4.710846000000000E-01     -9.242968000000000E+01
4801000000.000000      6.495972000000000E-01      1.090381000000000E+01      4.718475000000000E-01     -9.319139000000000E+01
4802000000.000000      6.473999000000000E-01      1.069238000000000E+01      4.749451000000000E-01     -9.385937000000000E+01
4803000000.000000      6.462402000000000E-01      1.059863000000000E+01      4.776154000000000E-01     -9.453125000000000E+01
4804000000.000000      6.434631000000000E-01      1.072803000000000E+01      4.806671000000000E-01     -9.539454000000000E+01
4805000000.000000      6.453857000000000E-01      1.062354000000000E+01      4.793854000000000E-01     -9.623827000000000E+01
4806000000.000000      6.411438000000000E-01      1.061377000000000E+01      4.828186000000000E-01     -9.692968000000000E+01
4807000000.000000      6.378784000000000E-01      1.058936000000000E+01      4.820099000000000E-01     -9.768749000000000E+01
4808000000.000000      6.383362000000000E-01      1.067871000000000E+01      4.843445000000000E-01     -9.841015000000000E+01
4809000000.000000      6.370239000000000E-01      1.084619000000000E+01      4.852600000000000E-01     -9.940233000000000E+01
4810000000.000000      6.347046000000000E-01      1.078711000000000E+01      4.884338000000000E-01     -9.996094000000000E+01
4811000000.000000      6.339417000000000E-01      1.092139000000000E+01      4.879456000000000E-01     -1.008203000000000E+02
4812000000.000000      6.340942000000000E-01      1.092725000000000E+01      4.890442000000000E-01     -1.014726000000000E+02
4813000000.000000      6.314087000000000E-01      1.105322000000000E+01      4.900665000000000E-01     -1.021211000000000E+02
4814000000.000000      6.293030000000000E-01      1.095166000000000E+01      4.936523000000000E-01     -1.030859000000000E+02
4815000000.000000      6.293945000000000E-01      1.104639000000000E+01      4.917297000000000E-01     -1.038594000000000E+02
4816000000.000000      6.270752000000000E-01      1.121826000000000E+01      4.942322000000000E-01     -1.045781000000000E+02
4817000000.000000      6.257324000000000E-01      1.134570000000000E+01      4.937897000000000E-01     -1.053672000000000E+02
4818000000.000000      6.228943000000000E-01      1.115234000000000E+01      4.951477000000000E-01     -1.060352000000000E+02
4819000000.000000      6.246338000000000E-01      1.138281000000000E+01      4.960480000000000E-01     -1.069102000000000E+02
4820000000.000000      6.212158000000000E-01      1.150391000000000E+01      4.954376000000000E-01     -1.074726000000000E+02
4821000000.000000      6.219177000000000E-01      1.148438000000000E+01      4.970398000000000E-01     -1.083398000000000E+02
4822000000.000000      6.200867000000000E-01      1.164941000000000E+01      4.966888000000000E-01     -1.089609000000000E+02
4823000000.000000      6.183167000000000E-01      1.169873000000000E+01      4.975281000000000E-01     -1.099062000000000E+02
4824000000.000000      6.174622000000000E-01      1.178809000000000E+01      4.975739000000000E-01     -1.105547000000000E+02
4825000000.000000      6.167908000000000E-01      1.187061000000000E+01      4.977264000000000E-01     -1.111797000000000E+02
4826000000.000000      6.162109000000000E-01      1.194336000000000E+01      4.985962000000000E-01     -1.119414000000000E+02
4827000000.000000      6.160889000000000E-01      1.214502000000000E+01      4.975433000000000E-01     -1.127266000000000E+02
4828000000.000000      6.164856000000000E-01      1.216699000000000E+01      4.983215000000000E-01     -1.135781000000000E+02
4829000000.000000      6.174927000000000E-01      1.255859000000000E+01      4.993134000000000E-01     -1.141992000000000E+02
4830000000.000000      6.154785000000000E-01      1.245117000000000E+01      4.992065000000000E-01     -1.151797000000000E+02
4831000000.000000      6.162415000000000E-01      1.234570000000000E+01      5.001221000000000E-01     -1.158359000000000E+02
4832000000.000000      6.131287000000000E-01      1.277832000000000E+01      4.992676000000000E-01     -1.164141000000000E+02
4833000000.000000      6.144104000000000E-01      1.281104000000000E+01      4.991455000000000E-01     -1.173516000000000E+02
4834000000.000000      6.123352000000000E-01      1.282080000000000E+01      4.989319000000000E-01     -1.180859000000000E+02
4835000000.000000      6.138306000000000E-01      1.307471000000000E+01      4.997101000000000E-01     -1.188750000000000E+02
4836000000.000000      6.146851000000000E-01      1.322021000000000E+01      4.977875000000000E-01     -1.193984000000000E+02
4837000000.000000      6.150513000000000E-01      1.334131000000000E+01      4.972687000000000E-01     -1.208047000000000E+02
4838000000.000000      6.139832000000000E-01      1.341113000000000E+01      4.984589000000000E-01     -1.210820000000000E+02
4839000000.000000      6.168823000000000E-01      1.355127000000000E+01      4.971008000000000E-01     -1.219687000000000E+02
4840000000.000000      6.161499000000000E-01      1.338379000000000E+01      4.976654000000000E-01     -1.227226000000000E+02
4841000000.000000      6.159973000000000E-01      1.365283000000000E+01      4.971771000000000E-01     -1.236484000000000E+02
4842000000.000000      6.165466000000000E-01      1.366113000000000E+01      4.983978000000000E-01     -1.242930000000000E+02
4843000000.000000      6.178894000000000E-01      1.365186000000000E+01      4.964294000000000E-01     -1.253711000000000E+02
4844000000.000000      6.164246000000000E-01      1.381641000000000E+01      4.953766000000000E-01     -1.260508000000000E+02
4845000000.000000      6.182251000000000E-01      1.405273000000000E+01      4.940338000000000E-01     -1.268828000000000E+02
4846000000.000000      6.183777000000000E-01      1.422559000000000E+01      4.931030000000000E-01     -1.279062000000000E+02
4847000000.000000      6.207581000000000E-01      1.423926000000000E+01      4.909363000000000E-01     -1.284297000000000E+02
4848000000.000000      6.192322000000000E-01      1.420361000000000E+01      4.886017000000000E-01     -1.292656000000000E+02
4849000000.000000      6.199036000000000E-01      1.427100000000000E+01      4.894104000000000E-01     -1.301406000000000E+02
4850000000.000000      6.225891000000000E-01      1.448682000000000E+01      4.871674000000000E-01     -1.310781000000000E+02
4851000000.000000      6.222839000000000E-01      1.467334000000000E+01      4.864197000000000E-01     -1.319922000000000E+02
4852000000.000000      6.242371000000000E-01      1.454980000000000E+01      4.841766000000000E-01     -1.326484000000000E+02
4853000000.000000      6.242981000000000E-01      1.466943000000000E+01      4.804993000000000E-01     -1.337344000000000E+02
4854000000.000000      6.260071000000000E-01      1.469385000000000E+01      4.785309000000000E-01     -1.346328000000000E+02
4855000000.000000      6.264954000000000E-01      1.468555000000000E+01      4.774170000000000E-01     -1.354844000000000E+02
4856000000.000000      6.271667000000000E-01      1.456348000000000E+01      4.730225000000000E-01     -1.363125000000000E+02
4857000000.000000      6.282349000000000E-01      1.477344000000000E+01      4.725189000000000E-01     -1.369688000000000E+02
4858000000.000000      6.297302000000000E-01      1.480518000000000E+01      4.699860000000000E-01     -1.378672000000000E+02
4859000000.000000      6.316833000000000E-01      1.472021000000000E+01      4.675903000000000E-01     -1.387187000000000E+02
4860000000.000000      6.323242000000000E-01      1.490820000000000E+01      4.632874000000000E-01     -1.395156000000000E+02
4861000000.000000      6.333923000000000E-01      1.481494000000000E+01      4.608917000000000E-01     -1.404531000000000E+02
4862000000.000000      6.339417000000000E-01      1.503174000000000E+01      4.581757000000000E-01     -1.411094000000000E+02
4863000000.000000      6.362000000000000E-01      1.497803000000000E+01      4.536133000000000E-01     -1.422266000000000E+02
4864000000.000000      6.368103000000000E-01      1.484619000000000E+01      4.506226000000000E-01     -1.427266000000000E+02
4865000000.000000      6.377869000000000E-01      1.477783000000000E+01      4.468842000000000E-01     -1.436797000000000E+02
4866000000.000000      6.405334000000000E-01      1.487402000000000E+01      4.427490000000000E-01     -1.444766000000000E+02
4867000000.000000      6.401672000000000E-01      1.480664000000000E+01      4.379425000000000E-01     -1.453359000000000E+02
4868000000.000000      6.418152000000000E-01      1.476416000000000E+01      4.354095000000000E-01     -1.461484000000000E+02
4869000000.000000      6.432495000000000E-01      1.470215000000000E+01      4.317780000000000E-01     -1.468516000000000E+02
4870000000.000000      6.431885000000000E-01      1.481055000000000E+01      4.267731000000000E-01     -1.473516000000000E+02
4871000000.000000      6.455688000000000E-01      1.466504000000000E+01      4.238281000000000E-01     -1.484219000000000E+02
4872000000.000000      6.465759000000000E-01      1.468164000000000E+01      4.179688000000000E-01     -1.487734000000000E+02
4873000000.000000      6.486511000000000E-01      1.479541000000000E+01      4.146271000000000E-01     -1.498125000000000E+02
4874000000.000000      6.490784000000000E-01      1.466504000000000E+01      4.096069000000000E-01     -1.504766000000000E+02
4875000000.000000      6.512146000000000E-01      1.448779000000000E+01      4.055481000000000E-01     -1.511484000000000E+02
4876000000.000000      6.525879000000000E-01      1.463086000000000E+01      4.026947000000000E-01     -1.517266000000000E+02
4877000000.000000      6.539612000000000E-01      1.438086000000000E+01      3.963165000000000E-01     -1.526172000000000E+02
4878000000.000000      6.539917000000000E-01      1.454150000000000E+01      3.928070000000000E-01     -1.531172000000000E+02
4879000000.000000      6.567688000000000E-01      1.435742000000000E+01      3.879242000000000E-01     -1.536250000000000E+02
4880000000.000000      6.585388000000000E-01      1.435059000000000E+01      3.842926000000000E-01     -1.543750000000000E+02
4881000000.000000      6.596680000000000E-01      1.428223000000000E+01      3.785858000000000E-01     -1.545938000000000E+02
4882000000.000000      6.598511000000000E-01      1.420898000000000E+01      3.752747000000000E-01     -1.553984000000000E+02
4883000000.000000      6.623840000000000E-01      1.427100000000000E+01      3.695374000000000E-01     -1.561016000000000E+02
4884000000.000000      6.627502000000000E-01      1.438086000000000E+01      3.667603000000000E-01     -1.563828000000000E+02
4885000000.000000      6.661072000000000E-01      1.411719000000000E+01      3.604279000000000E-01     -1.569375000000000E+02
4886000000.000000      6.668396000000000E-01      1.413623000000000E+01      3.572235000000000E-01     -1.573906000000000E+02
4887000000.000000      6.665955000000000E-01      1.397705000000000E+01      3.538513000000000E-01     -1.579219000000000E+02
4888000000.000000      6.665344000000000E-01      1.379883000000000E+01      3.498535000000000E-01     -1.584766000000000E+02
4889000000.000000      6.690674000000000E-01      1.381934000000000E+01      3.439026000000000E-01     -1.587656000000000E+02
4890000000.000000      6.671448000000000E-01      1.368311000000000E+01      3.394623000000000E-01     -1.595078000000000E+02
4891000000.000000      6.700745000000000E-01      1.373828000000000E+01      3.368683000000000E-01     -1.601016000000000E+02
4892000000.000000      6.713867000000000E-01      1.352930000000000E+01      3.321533000000000E-01     -1.602187000000000E+02
4893000000.000000      6.714172000000000E-01      1.329443000000000E+01      3.276672000000000E-01     -1.608516000000000E+02
4894000000.000000      6.728210000000000E-01      1.340723000000000E+01      3.231964000000000E-01     -1.609922000000000E+02
4895000000.000000      6.758118000000000E-01      1.315723000000000E+01      3.217163000000000E-01     -1.614609000000000E+02
4896000000.000000      6.744995000000000E-01      1.329346000000000E+01      3.168030000000000E-01     -1.617109000000000E+02
4897000000.000000      6.754456000000000E-01      1.298682000000000E+01      3.130035000000000E-01     -1.621875000000000E+02
4898000000.000000      6.766663000000000E-01      1.303906000000000E+01      3.093719000000000E-01     -1.624141000000000E+02
4899000000.000000      6.778564000000000E-01      1.283887000000000E+01      3.055267000000000E-01     -1.629844000000000E+02
4900000000.000000      6.788025000000000E-01      1.279346000000000E+01      3.013000000000000E-01     -1.632031000000000E+02
4901000000.000000      6.792297000000000E-01      1.272754000000000E+01      2.980957000000000E-01     -1.635547000000000E+02
4902000000.000000      6.807556000000000E-01      1.259033000000000E+01      2.954865000000000E-01     -1.636953000000000E+02
4903000000.000000      6.805115000000000E-01      1.257910000000000E+01      2.904358000000000E-01     -1.641641000000000E+02
4904000000.000000      6.810303000000000E-01      1.243652000000000E+01      2.874908000000000E-01     -1.645547000000000E+02
4905000000.000000      6.813049000000000E-01      1.242236000000000E+01      2.840271000000000E-01     -1.649688000000000E+02
4906000000.000000      6.833496000000000E-01      1.220166000000000E+01      2.800140000000000E-01     -1.650938000000000E+02
4907000000.000000      6.844788000000000E-01      1.213428000000000E+01      2.771454000000000E-01     -1.655937000000000E+02
4908000000.000000      6.861877000000000E-01      1.181152000000000E+01      2.737274000000000E-01     -1.658984000000000E+02
4909000000.000000      6.847839000000000E-01      1.194580000000000E+01      2.699432000000000E-01     -1.661797000000000E+02
4910000000.000000      6.857910000000000E-01      1.195410000000000E+01      2.663727000000000E-01     -1.664297000000000E+02
4911000000.000000      6.862183000000000E-01      1.168115000000000E+01      2.634277000000000E-01     -1.667344000000000E+02
4912000000.000000      6.855164000000000E-01      1.163281000000000E+01      2.596741000000000E-01     -1.671719000000000E+02
4913000000.000000      6.885681000000000E-01      1.154248000000000E+01      2.561340000000000E-01     -1.674062000000000E+02
4914000000.000000      6.890564000000000E-01      1.138965000000000E+01      2.532654000000000E-01     -1.676719000000000E+02
4915000000.000000      6.877136000000000E-01      1.138281000000000E+01      2.482376000000000E-01     -1.680312000000000E+02
4916000000.000000      6.892395000000000E-01      1.135547000000000E+01      2.454224000000000E-01     -1.683750000000000E+02
4917000000.000000      6.897888000000000E-01      1.110840000000000E+01      2.420044000000000E-01     -1.686719000000000E+02
4918000000.000000      6.904907000000000E-01      1.090625000000000E+01      2.377472000000000E-01     -1.689844000000000E+02
4919000000.000000      6.907654000000000E-01      1.090625000000000E+01      2.346725000000000E-01     -1.689844000000000E+02
4920000000.000000      6.906433000000000E-01      1.080615000000000E+01      2.307587000000000E-01     -1.693750000000000E+02
4921000000.000000      6.915588000000000E-01      1.089404000000000E+01      2.273712000000000E-01     -1.696328000000000E+02
4922000000.000000      6.919556000000000E-01      1.047363000000000E+01      2.233353000000000E-01     -1.697109000000000E+02
4923000000.000000      6.936646000000000E-01      1.052734000000000E+01      2.193604000000000E-01     -1.699453000000000E+02
4924000000.000000      6.947327000000000E-01      1.060547000000000E+01      2.160492000000000E-01     -1.703359000000000E+02
4925000000.000000      6.924133000000000E-01      1.028174000000000E+01      2.123337000000000E-01     -1.703359000000000E+02
4926000000.000000      6.936646000000000E-01      1.036279000000000E+01      2.088013000000000E-01     -1.705078000000000E+02
4927000000.000000      6.955261000000000E-01      1.000000000000000E+01      2.049408000000000E-01     -1.706094000000000E+02
4928000000.000000      6.964722000000000E-01      1.000684000000000E+01      2.010345000000000E-01     -1.708516000000000E+02
4929000000.000000      6.947021000000000E-01      9.822754000000000E+00      1.967926000000000E-01     -1.706953000000000E+02
4930000000.000000      6.952515000000000E-01      1.001660000000000E+01      1.931381000000000E-01     -1.710156000000000E+02
4931000000.000000      6.941223000000000E-01      9.851563000000000E+00      1.904144000000000E-01     -1.709609000000000E+02
4932000000.000000      6.953125000000000E-01      9.585449000000000E+00      1.865463000000000E-01     -1.708594000000000E+02
4933000000.000000      6.958313000000000E-01      9.536133000000000E+00      1.813278000000000E-01     -1.707500000000000E+02
4934000000.000000      6.980591000000000E-01      9.393066000000000E+00      1.781998000000000E-01     -1.708125000000000E+02
4935000000.000000      7.002869000000000E-01      9.314941000000000E+00      1.750870000000000E-01     -1.705547000000000E+02
4936000000.000000      6.975403000000000E-01      9.180176000000000E+00      1.709518000000000E-01     -1.702578000000000E+02
4937000000.000000      6.997986000000000E-01      8.983887000000000E+00      1.671600000000000E-01     -1.703359000000000E+02
4938000000.000000      6.984863000000000E-01      9.102051000000000E+00      1.637039000000000E-01     -1.699375000000000E+02
4939000000.000000      6.986694000000000E-01      9.062012000000000E+00      1.598129000000000E-01     -1.697187000000000E+02
4940000000.000000      6.993408000000000E-01      8.847656000000000E+00      1.559753000000000E-01     -1.694687000000000E+02
4941000000.000000      7.026062000000000E-01      8.595215000000000E+00      1.530075000000000E-01     -1.688906000000000E+02
4942000000.000000      6.987610000000000E-01      8.604980000000000E+00      1.491776000000000E-01     -1.685078000000000E+02
4943000000.000000      7.009277000000000E-01      8.750488000000000E+00      1.456070000000000E-01     -1.677656000000000E+02
4944000000.000000      7.015381000000000E-01      8.495117000000000E+00      1.422882000000000E-01     -1.674687000000000E+02
4945000000.000000      7.030334000000000E-01      8.354980000000000E+00      1.387634000000000E-01     -1.666563000000000E+02
4946000000.000000      7.010498000000000E-01      8.392090000000000E+00      1.358948000000000E-01     -1.659297000000000E+02
4947000000.000000      7.048035000000000E-01      8.202637000000000E+00      1.324081000000000E-01     -1.650078000000000E+02
4948000000.000000      7.060242000000000E-01      8.255859000000000E+00      1.291580000000000E-01     -1.641562000000000E+02
4949000000.000000      7.027588000000000E-01      7.949951000000000E+00      1.264114000000000E-01     -1.629453000000000E+02
4950000000.000000      7.075806000000000E-01      8.034668000000000E+00      1.238747000000000E-01     -1.620000000000000E+02
4951000000.000000      7.073975000000000E-01      7.886719000000000E+00      1.212463000000000E-01     -1.610625000000000E+02
4952000000.000000      7.045898000000000E-01      7.713623000000000E+00      1.184082000000000E-01     -1.598281000000000E+02
4953000000.000000      7.054138000000000E-01      7.676514000000000E+00      1.164322000000000E-01     -1.582813000000000E+02
4954000000.000000      7.083435000000000E-01      7.601074000000000E+00      1.138649000000000E-01     -1.568516000000000E+02
