! Network Analyzer HP8722D
! Hewlett-Packard
! Data name: Linha & Wilkinson
! Saver's name: Rodrigo Anjos
! Comments: Teste da utilização de aquisição
continua pelo VNA HP8722D
! Time and date: 22/5/2025 13:17
!              Frequency                     S11                                                   S21                                                   S12                                                   S22
# HZ  S  MA R 50
4800000000.000000      6.524353000000000E-01      1.085303000000000E+01      4.714355000000000E-01     -9.235937000000000E+01
4801000000.000000      6.500549000000000E-01      1.102441000000000E+01      4.719086000000000E-01     -9.283594000000000E+01
4802000000.000000      6.489258000000000E-01      1.088867000000000E+01      4.741516000000000E-01     -9.347265000000000E+01
4803000000.000000      6.463013000000000E-01      1.073193000000000E+01      4.771423000000000E-01     -9.442577000000000E+01
4804000000.000000      6.434937000000000E-01      1.074561000000000E+01      4.789581000000000E-01     -9.505077000000000E+01
4805000000.000000      6.446533000000000E-01      1.073730000000000E+01      4.783478000000000E-01     -9.607422000000000E+01
4806000000.000000      6.422424000000000E-01      1.074463000000000E+01      4.820862000000000E-01     -9.674608000000000E+01
4807000000.000000      6.391602000000000E-01      1.087354000000000E+01      4.824677000000000E-01     -9.779297000000000E+01
4808000000.000000      6.363220000000000E-01      1.082959000000000E+01      4.844208000000000E-01     -9.839453000000000E+01
4809000000.000000      6.360474000000000E-01      1.078418000000000E+01      4.869995000000000E-01     -9.911718000000000E+01
4810000000.000000      6.345520000000000E-01      1.095605000000000E+01      4.874878000000000E-01     -9.980858000000000E+01
4811000000.000000      6.336670000000000E-01      1.100830000000000E+01      4.893036000000000E-01     -1.006055000000000E+02
4812000000.000000      6.343689000000000E-01      1.126465000000000E+01      4.897308000000000E-01     -1.013984000000000E+02
4813000000.000000      6.312561000000000E-01      1.103809000000000E+01      4.911652000000000E-01     -1.022422000000000E+02
4814000000.000000      6.280212000000000E-01      1.098633000000000E+01      4.944611000000000E-01     -1.026055000000000E+02
4815000000.000000      6.279297000000000E-01      1.108887000000000E+01      4.929504000000000E-01     -1.035117000000000E+02
4816000000.000000      6.272278000000000E-01      1.126074000000000E+01      4.946289000000000E-01     -1.044727000000000E+02
4817000000.000000      6.241150000000000E-01      1.139795000000000E+01      4.937897000000000E-01     -1.051563000000000E+02
4818000000.000000      6.238098000000000E-01      1.122656000000000E+01      4.948425000000000E-01     -1.059375000000000E+02
4819000000.000000      6.234131000000000E-01      1.141748000000000E+01      4.951630000000000E-01     -1.065430000000000E+02
4820000000.000000      6.207886000000000E-01      1.154102000000000E+01      4.974823000000000E-01     -1.071836000000000E+02
4821000000.000000      6.215820000000000E-01      1.163574000000000E+01      4.986267000000000E-01     -1.080859000000000E+02
4822000000.000000      6.186218000000000E-01      1.160693000000000E+01      4.961700000000000E-01     -1.085859000000000E+02
4823000000.000000      6.205139000000000E-01      1.182129000000000E+01      4.983521000000000E-01     -1.096523000000000E+02
4824000000.000000      6.181946000000000E-01      1.198584000000000E+01      4.978333000000000E-01     -1.104609000000000E+02
4825000000.000000      6.164246000000000E-01      1.201074000000000E+01      4.990234000000000E-01     -1.109727000000000E+02
4826000000.000000      6.158447000000000E-01      1.197070000000000E+01      4.979248000000000E-01     -1.118398000000000E+02
4827000000.000000      6.159058000000000E-01      1.209961000000000E+01      4.979401000000000E-01     -1.127344000000000E+02
4828000000.000000      6.174927000000000E-01      1.239111000000000E+01      4.988403000000000E-01     -1.133281000000000E+02
4829000000.000000      6.158752000000000E-01      1.237988000000000E+01      5.000916000000000E-01     -1.139844000000000E+02
4830000000.000000      6.143799000000000E-01      1.238428000000000E+01      4.997711000000000E-01     -1.149609000000000E+02
4831000000.000000      6.136169000000000E-01      1.257373000000000E+01      5.004883000000000E-01     -1.155234000000000E+02
4832000000.000000      6.140747000000000E-01      1.303516000000000E+01      4.985962000000000E-01     -1.162461000000000E+02
4833000000.000000      6.128845000000000E-01      1.261621000000000E+01      4.985352000000000E-01     -1.169375000000000E+02
4834000000.000000      6.127930000000000E-01      1.290186000000000E+01      4.989777000000000E-01     -1.179570000000000E+02
4835000000.000000      6.140137000000000E-01      1.304883000000000E+01      5.001831000000000E-01     -1.187578000000000E+02
4836000000.000000      6.134644000000000E-01      1.332324000000000E+01      4.973907000000000E-01     -1.193984000000000E+02
4837000000.000000      6.142578000000000E-01      1.341943000000000E+01      4.970093000000000E-01     -1.203750000000000E+02
4838000000.000000      6.116333000000000E-01      1.343750000000000E+01      4.976807000000000E-01     -1.208047000000000E+02
4839000000.000000      6.180420000000000E-01      1.368066000000000E+01      4.982147000000000E-01     -1.217266000000000E+02
4840000000.000000      6.157532000000000E-01      1.364893000000000E+01      4.967194000000000E-01     -1.226289000000000E+02
4841000000.000000      6.144714000000000E-01      1.375732000000000E+01      4.967041000000000E-01     -1.235352000000000E+02
4842000000.000000      6.156311000000000E-01      1.370508000000000E+01      4.961090000000000E-01     -1.242070000000000E+02
4843000000.000000      6.177063000000000E-01      1.396484000000000E+01      4.970093000000000E-01     -1.249258000000000E+02
4844000000.000000      6.170349000000000E-01      1.390723000000000E+01      4.942322000000000E-01     -1.259297000000000E+02
4845000000.000000      6.171570000000000E-01      1.415820000000000E+01      4.944153000000000E-01     -1.266094000000000E+02
4846000000.000000      6.184998000000000E-01      1.430127000000000E+01      4.917908000000000E-01     -1.274609000000000E+02
4847000000.000000      6.215210000000000E-01      1.429980000000000E+01      4.918976000000000E-01     -1.283359000000000E+02
4848000000.000000      6.192627000000000E-01      1.442334000000000E+01      4.894867000000000E-01     -1.290937000000000E+02
4849000000.000000      6.202698000000000E-01      1.428613000000000E+01      4.894409000000000E-01     -1.300390000000000E+02
4850000000.000000      6.206970000000000E-01      1.454150000000000E+01      4.865723000000000E-01     -1.309922000000000E+02
4851000000.000000      6.227417000000000E-01      1.457861000000000E+01      4.859009000000000E-01     -1.317734000000000E+02
4852000000.000000      6.223450000000000E-01      1.467627000000000E+01      4.843292000000000E-01     -1.325391000000000E+02
4853000000.000000      6.254883000000000E-01      1.456348000000000E+01      4.799194000000000E-01     -1.334297000000000E+02
4854000000.000000      6.268921000000000E-01      1.465283000000000E+01      4.791260000000000E-01     -1.343437000000000E+02
4855000000.000000      6.249695000000000E-01      1.477246000000000E+01      4.775848000000000E-01     -1.352656000000000E+02
4856000000.000000      6.278992000000000E-01      1.467871000000000E+01      4.748230000000000E-01     -1.358203000000000E+02
4857000000.000000      6.289063000000000E-01      1.493994000000000E+01      4.734802000000000E-01     -1.366797000000000E+02
4858000000.000000      6.318665000000000E-01      1.490430000000000E+01      4.690247000000000E-01     -1.376094000000000E+02
4859000000.000000      6.312256000000000E-01      1.476807000000000E+01      4.671478000000000E-01     -1.386172000000000E+02
4860000000.000000      6.318970000000000E-01      1.488770000000000E+01      4.638519000000000E-01     -1.392187000000000E+02
4861000000.000000      6.324158000000000E-01      1.501270000000000E+01      4.591522000000000E-01     -1.401641000000000E+02
4862000000.000000      6.342163000000000E-01      1.507568000000000E+01      4.569397000000000E-01     -1.410000000000000E+02
4863000000.000000      6.347351000000000E-01      1.500977000000000E+01      4.539185000000000E-01     -1.418437000000000E+02
4864000000.000000      6.366272000000000E-01      1.506885000000000E+01      4.517212000000000E-01     -1.426406000000000E+02
4865000000.000000      6.370239000000000E-01      1.498633000000000E+01      4.468994000000000E-01     -1.434297000000000E+02
4866000000.000000      6.403503000000000E-01      1.487256000000000E+01      4.425201000000000E-01     -1.444062000000000E+02
4867000000.000000      6.378784000000000E-01      1.487256000000000E+01      4.391479000000000E-01     -1.452344000000000E+02
4868000000.000000      6.416626000000000E-01      1.474219000000000E+01      4.358521000000000E-01     -1.459375000000000E+02
4869000000.000000      6.425781000000000E-01      1.496045000000000E+01      4.311371000000000E-01     -1.467031000000000E+02
4870000000.000000      6.419678000000000E-01      1.484619000000000E+01      4.283295000000000E-01     -1.473672000000000E+02
4871000000.000000      6.440430000000000E-01      1.470361000000000E+01      4.239655000000000E-01     -1.482188000000000E+02
4872000000.000000      6.472473000000000E-01      1.494531000000000E+01      4.188080000000000E-01     -1.486953000000000E+02
4873000000.000000      6.479187000000000E-01      1.482324000000000E+01      4.150696000000000E-01     -1.495625000000000E+02
4874000000.000000      6.476746000000000E-01      1.481201000000000E+01      4.098358000000000E-01     -1.502422000000000E+02
4875000000.000000      6.491394000000000E-01      1.472949000000000E+01      4.058838000000000E-01     -1.509531000000000E+02
4876000000.000000      6.523743000000000E-01      1.483936000000000E+01      4.025574000000000E-01     -1.514453000000000E+02
4877000000.000000      6.540527000000000E-01      1.450586000000000E+01      3.975525000000000E-01     -1.521719000000000E+02
4878000000.000000      6.521606000000000E-01      1.460059000000000E+01      3.927155000000000E-01     -1.528437000000000E+02
4879000000.000000      6.567383000000000E-01      1.458154000000000E+01      3.875122000000000E-01     -1.534297000000000E+02
4880000000.000000      6.568909000000000E-01      1.453857000000000E+01      3.851166000000000E-01     -1.542187000000000E+02
4881000000.000000      6.587219000000000E-01      1.432178000000000E+01      3.803101000000000E-01     -1.545547000000000E+02
4882000000.000000      6.611938000000000E-01      1.439063000000000E+01      3.757324000000000E-01     -1.551875000000000E+02
4883000000.000000      6.595459000000000E-01      1.442773000000000E+01      3.715820000000000E-01     -1.557578000000000E+02
4884000000.000000      6.618958000000000E-01      1.433154000000000E+01      3.662262000000000E-01     -1.561484000000000E+02
4885000000.000000      6.602478000000000E-01      1.414893000000000E+01      3.614502000000000E-01     -1.565234000000000E+02
4886000000.000000      6.646118000000000E-01      1.413379000000000E+01      3.594818000000000E-01     -1.573516000000000E+02
4887000000.000000      6.660461000000000E-01      1.412939000000000E+01      3.537445000000000E-01     -1.576328000000000E+02
4888000000.000000      6.657715000000000E-01      1.383691000000000E+01      3.518524000000000E-01     -1.584609000000000E+02
4889000000.000000      6.679382000000000E-01      1.390723000000000E+01      3.446960000000000E-01     -1.586328000000000E+02
4890000000.000000      6.665344000000000E-01      1.373389000000000E+01      3.411407000000000E-01     -1.593984000000000E+02
4891000000.000000      6.704712000000000E-01      1.377539000000000E+01      3.363800000000000E-01     -1.596016000000000E+02
4892000000.000000      6.695557000000000E-01      1.363379000000000E+01      3.321686000000000E-01     -1.598906000000000E+02
4893000000.000000      6.707764000000000E-01      1.349805000000000E+01      3.294067000000000E-01     -1.606484000000000E+02
4894000000.000000      6.728210000000000E-01      1.343066000000000E+01      3.245697000000000E-01     -1.609453000000000E+02
4895000000.000000      6.743774000000000E-01      1.333154000000000E+01      3.220978000000000E-01     -1.613437000000000E+02
4896000000.000000      6.758423000000000E-01      1.333447000000000E+01      3.176880000000000E-01     -1.617422000000000E+02
4897000000.000000      6.759949000000000E-01      1.310938000000000E+01      3.131866000000000E-01     -1.620781000000000E+02
4898000000.000000      6.771545000000000E-01      1.318066000000000E+01      3.097839000000000E-01     -1.624063000000000E+02
4899000000.000000      6.766968000000000E-01      1.316943000000000E+01      3.061066000000000E-01     -1.627422000000000E+02
4900000000.000000      6.792908000000000E-01      1.300049000000000E+01      3.019104000000000E-01     -1.630000000000000E+02
4901000000.000000      6.787720000000000E-01      1.274951000000000E+01      2.985840000000000E-01     -1.633594000000000E+02
4902000000.000000      6.806641000000000E-01      1.278516000000000E+01      2.959595000000000E-01     -1.636484000000000E+02
4903000000.000000      6.810608000000000E-01      1.278906000000000E+01      2.911682000000000E-01     -1.641172000000000E+02
4904000000.000000      6.823730000000000E-01      1.256543000000000E+01      2.877960000000000E-01     -1.644609000000000E+02
4905000000.000000      6.826477000000000E-01      1.260498000000000E+01      2.845764000000000E-01     -1.648438000000000E+02
4906000000.000000      6.816406000000000E-01      1.221680000000000E+01      2.810974000000000E-01     -1.649531000000000E+02
4907000000.000000      6.835327000000000E-01      1.227148000000000E+01      2.775574000000000E-01     -1.654531000000000E+02
4908000000.000000      6.859741000000000E-01      1.217676000000000E+01      2.745972000000000E-01     -1.658828000000000E+02
4909000000.000000      6.833191000000000E-01      1.208887000000000E+01      2.710724000000000E-01     -1.661406000000000E+02
4910000000.000000      6.843262000000000E-01      1.177832000000000E+01      2.673035000000000E-01     -1.663750000000000E+02
4911000000.000000      6.840515000000000E-01      1.178125000000000E+01      2.640381000000000E-01     -1.666328000000000E+02
4912000000.000000      6.862183000000000E-01      1.200928000000000E+01      2.605743000000000E-01     -1.670859000000000E+02
4913000000.000000      6.873474000000000E-01      1.160693000000000E+01      2.560883000000000E-01     -1.672969000000000E+02
4914000000.000000      6.871338000000000E-01      1.151758000000000E+01      2.530518000000000E-01     -1.675000000000000E+02
4915000000.000000      6.882324000000000E-01      1.145020000000000E+01      2.491837000000000E-01     -1.679766000000000E+02
4916000000.000000      6.904297000000000E-01      1.126465000000000E+01      2.458801000000000E-01     -1.683203000000000E+02
4917000000.000000      6.890564000000000E-01      1.130078000000000E+01      2.428894000000000E-01     -1.684687000000000E+02
4918000000.000000      6.923523000000000E-01      1.113574000000000E+01      2.383347000000000E-01     -1.686719000000000E+02
4919000000.000000      6.888428000000000E-01      1.098340000000000E+01      2.351456000000000E-01     -1.688594000000000E+02
4920000000.000000      6.921082000000000E-01      1.100244000000000E+01      2.315750000000000E-01     -1.693750000000000E+02
4921000000.000000      6.919861000000000E-01      1.089551000000000E+01      2.279663000000000E-01     -1.695000000000000E+02
4922000000.000000      6.916199000000000E-01      1.085693000000000E+01      2.238235000000000E-01     -1.697187000000000E+02
4923000000.000000      6.925659000000000E-01      1.068555000000000E+01      2.207031000000000E-01     -1.698281000000000E+02
4924000000.000000      6.938171000000000E-01      1.057666000000000E+01      2.168274000000000E-01     -1.700391000000000E+02
4925000000.000000      6.928406000000000E-01      1.045898000000000E+01      2.129974000000000E-01     -1.702188000000000E+02
4926000000.000000      6.917419000000000E-01      1.042578000000000E+01      2.095718000000000E-01     -1.704687000000000E+02
4927000000.000000      6.936340000000000E-01      1.026221000000000E+01      2.053223000000000E-01     -1.705625000000000E+02
4928000000.000000      6.964417000000000E-01      1.022119000000000E+01      2.017288000000000E-01     -1.707734000000000E+02
4929000000.000000      6.940002000000000E-01      9.965820000000000E+00      1.974945000000000E-01     -1.706016000000000E+02
4930000000.000000      6.943665000000000E-01      9.978027000000000E+00      1.940536000000000E-01     -1.709453000000000E+02
4931000000.000000      6.964111000000000E-01      9.909668000000000E+00      1.907959000000000E-01     -1.709063000000000E+02
4932000000.000000      6.964722000000000E-01      9.832520000000000E+00      1.867523000000000E-01     -1.708125000000000E+02
4933000000.000000      6.967468000000000E-01      9.660645000000000E+00      1.818695000000000E-01     -1.706484000000000E+02
4934000000.000000      6.988220000000000E-01      9.418945000000000E+00      1.790466000000000E-01     -1.707266000000000E+02
4935000000.000000      6.999817000000000E-01      9.406738000000000E+00      1.756210000000000E-01     -1.705547000000000E+02
4936000000.000000      6.965637000000000E-01      9.406738000000000E+00      1.709747000000000E-01     -1.703672000000000E+02
4937000000.000000      7.003174000000000E-01      9.148438000000000E+00      1.679001000000000E-01     -1.703672000000000E+02
4938000000.000000      6.990356000000000E-01      9.314941000000000E+00      1.639023000000000E-01     -1.700156000000000E+02
4939000000.000000      6.989441000000000E-01      9.220215000000000E+00      1.603012000000000E-01     -1.696719000000000E+02
4940000000.000000      6.992798000000000E-01      8.891602000000000E+00      1.565399000000000E-01     -1.695234000000000E+02
4941000000.000000      7.014160000000000E-01      8.893066000000000E+00      1.530304000000000E-01     -1.689531000000000E+02
4942000000.000000      6.990356000000000E-01      8.899902000000000E+00      1.492386000000000E-01     -1.686875000000000E+02
4943000000.000000      7.019653000000000E-01      8.860352000000000E+00      1.466904000000000E-01     -1.680312000000000E+02
4944000000.000000      7.006226000000000E-01      8.629395000000000E+00      1.430130000000000E-01     -1.674687000000000E+02
4945000000.000000      7.026672000000000E-01      8.574707000000000E+00      1.390152000000000E-01     -1.668906000000000E+02
4946000000.000000      7.019653000000000E-01      8.330078000000000E+00      1.362686000000000E-01     -1.659844000000000E+02
4947000000.000000      7.041626000000000E-01      8.275391000000000E+00      1.322403000000000E-01     -1.652031000000000E+02
4948000000.000000      7.033691000000000E-01      8.336914000000000E+00      1.299515000000000E-01     -1.642734000000000E+02
4949000000.000000      7.037659000000000E-01      8.055664000000000E+00      1.269073000000000E-01     -1.630391000000000E+02
4950000000.000000      7.033386000000000E-01      8.136719000000000E+00      1.240997000000000E-01     -1.621641000000000E+02
4951000000.000000      7.046509000000000E-01      8.183105000000000E+00      1.216583000000000E-01     -1.610312000000000E+02
4952000000.000000      7.048645000000000E-01      7.914063000000000E+00      1.185722000000000E-01     -1.598203000000000E+02
4953000000.000000      7.048645000000000E-01      7.852295000000000E+00      1.167908000000000E-01     -1.583437000000000E+02
4954000000.000000      7.075806000000000E-01      7.668457000000000E+00      1.144371000000000E-01     -1.570781000000000E+02
