! Network Analyzer HP8722D
! Hewlett-Packard
! Data name: Linha & Wilkinson
! Saver's name: Rodrigo Anjos
! Comments: Teste da utilização de aquisição
continua pelo VNA HP8722D
! Time and date: 22/5/2025 15:18
!              Frequency                     S11                                                   S21                                                   S12                                                   S22
# HZ  S  MA R 50
4800000000.000000      6.526489000000000E-01      1.103271000000000E+01      4.699554000000000E-01     -9.204687000000000E+01
4801000000.000000      6.497803000000000E-01      1.105322000000000E+01      4.719238000000000E-01     -9.253515000000000E+01
4802000000.000000      6.499634000000000E-01      1.096436000000000E+01      4.739227000000000E-01     -9.356640000000000E+01
4803000000.000000      6.491089000000000E-01      1.085840000000000E+01      4.759979000000000E-01     -9.429688000000000E+01
4804000000.000000      6.455383000000000E-01      1.092969000000000E+01      4.781494000000000E-01     -9.490625000000000E+01
4805000000.000000      6.445007000000000E-01      1.080615000000000E+01      4.807281000000000E-01     -9.601952000000000E+01
4806000000.000000      6.416321000000000E-01      1.097803000000000E+01      4.823456000000000E-01     -9.660936000000000E+01
4807000000.000000      6.392822000000000E-01      1.087646000000000E+01      4.832611000000000E-01     -9.737890000000000E+01
4808000000.000000      6.380005000000000E-01      1.099316000000000E+01      4.833984000000000E-01     -9.803905000000000E+01
4809000000.000000      6.367493000000000E-01      1.100391000000000E+01      4.872131000000000E-01     -9.892578000000000E+01
4810000000.000000      6.352844000000000E-01      1.083350000000000E+01      4.872894000000000E-01     -9.951561000000000E+01
4811000000.000000      6.356812000000000E-01      1.093799000000000E+01      4.888153000000000E-01     -1.004922000000000E+02
4812000000.000000      6.345520000000000E-01      1.106299000000000E+01      4.907227000000000E-01     -1.010117000000000E+02
4813000000.000000      6.320496000000000E-01      1.116309000000000E+01      4.908905000000000E-01     -1.018320000000000E+02
4814000000.000000      6.299744000000000E-01      1.123486000000000E+01      4.927063000000000E-01     -1.026094000000000E+02
4815000000.000000      6.283875000000000E-01      1.133789000000000E+01      4.922333000000000E-01     -1.034453000000000E+02
4816000000.000000      6.292114000000000E-01      1.122510000000000E+01      4.949799000000000E-01     -1.042851000000000E+02
4817000000.000000      6.257324000000000E-01      1.140234000000000E+01      4.947052000000000E-01     -1.048711000000000E+02
4818000000.000000      6.246643000000000E-01      1.145703000000000E+01      4.953461000000000E-01     -1.056289000000000E+02
4819000000.000000      6.243896000000000E-01      1.155322000000000E+01      4.956055000000000E-01     -1.064922000000000E+02
4820000000.000000      6.209106000000000E-01      1.159033000000000E+01      4.967957000000000E-01     -1.070469000000000E+02
4821000000.000000      6.210938000000000E-01      1.178662000000000E+01      4.981384000000000E-01     -1.079570000000000E+02
4822000000.000000      6.185913000000000E-01      1.166309000000000E+01      4.958344000000000E-01     -1.086484000000000E+02
4823000000.000000      6.209412000000000E-01      1.179932000000000E+01      4.986115000000000E-01     -1.095586000000000E+02
4824000000.000000      6.175232000000000E-01      1.199268000000000E+01      4.971161000000000E-01     -1.101172000000000E+02
4825000000.000000      6.177673000000000E-01      1.194482000000000E+01      4.976196000000000E-01     -1.107265000000000E+02
4826000000.000000      6.166992000000000E-01      1.201465000000000E+01      4.994812000000000E-01     -1.117500000000000E+02
4827000000.000000      6.169434000000000E-01      1.227295000000000E+01      4.972839000000000E-01     -1.123555000000000E+02
4828000000.000000      6.171265000000000E-01      1.245850000000000E+01      4.996490000000000E-01     -1.130195000000000E+02
4829000000.000000      6.156616000000000E-01      1.249805000000000E+01      4.996185000000000E-01     -1.140469000000000E+02
4830000000.000000      6.149292000000000E-01      1.250098000000000E+01      4.996643000000000E-01     -1.147578000000000E+02
4831000000.000000      6.151733000000000E-01      1.269873000000000E+01      4.993744000000000E-01     -1.155312000000000E+02
4832000000.000000      6.142578000000000E-01      1.293213000000000E+01      4.986267000000000E-01     -1.161484000000000E+02
4833000000.000000      6.127625000000000E-01      1.304346000000000E+01      4.997101000000000E-01     -1.168320000000000E+02
4834000000.000000      6.131287000000000E-01      1.302686000000000E+01      4.995575000000000E-01     -1.177344000000000E+02
4835000000.000000      6.143494000000000E-01      1.327832000000000E+01      4.990845000000000E-01     -1.184883000000000E+02
4836000000.000000      6.148682000000000E-01      1.337402000000000E+01      4.984283000000000E-01     -1.192266000000000E+02
4837000000.000000      6.145935000000000E-01      1.357080000000000E+01      4.978027000000000E-01     -1.200820000000000E+02
4838000000.000000      6.125793000000000E-01      1.337012000000000E+01      4.990082000000000E-01     -1.208047000000000E+02
4839000000.000000      6.151733000000000E-01      1.373828000000000E+01      4.984589000000000E-01     -1.215547000000000E+02
4840000000.000000      6.144104000000000E-01      1.357764000000000E+01      4.984894000000000E-01     -1.223047000000000E+02
4841000000.000000      6.130371000000000E-01      1.408154000000000E+01      4.974976000000000E-01     -1.232813000000000E+02
4842000000.000000      6.156616000000000E-01      1.416943000000000E+01      4.973755000000000E-01     -1.240547000000000E+02
4843000000.000000      6.176453000000000E-01      1.393750000000000E+01      4.974365000000000E-01     -1.248047000000000E+02
4844000000.000000      6.178894000000000E-01      1.398828000000000E+01      4.940338000000000E-01     -1.256211000000000E+02
4845000000.000000      6.180420000000000E-01      1.399512000000000E+01      4.938660000000000E-01     -1.263164000000000E+02
4846000000.000000      6.205139000000000E-01      1.437402000000000E+01      4.934082000000000E-01     -1.274375000000000E+02
4847000000.000000      6.192322000000000E-01      1.433984000000000E+01      4.922791000000000E-01     -1.279414000000000E+02
4848000000.000000      6.206360000000000E-01      1.446875000000000E+01      4.905396000000000E-01     -1.290078000000000E+02
4849000000.000000      6.211548000000000E-01      1.436035000000000E+01      4.908905000000000E-01     -1.297812000000000E+02
4850000000.000000      6.207886000000000E-01      1.464844000000000E+01      4.869690000000000E-01     -1.306250000000000E+02
4851000000.000000      6.230774000000000E-01      1.473389000000000E+01      4.875031000000000E-01     -1.315469000000000E+02
4852000000.000000      6.236572000000000E-01      1.474072000000000E+01      4.841309000000000E-01     -1.322578000000000E+02
4853000000.000000      6.245117000000000E-01      1.491943000000000E+01      4.804688000000000E-01     -1.332500000000000E+02
4854000000.000000      6.264648000000000E-01      1.488916000000000E+01      4.798126000000000E-01     -1.341797000000000E+02
4855000000.000000      6.269836000000000E-01      1.493164000000000E+01      4.776154000000000E-01     -1.350859000000000E+02
4856000000.000000      6.289673000000000E-01      1.483838000000000E+01      4.753265000000000E-01     -1.358984000000000E+02
4857000000.000000      6.294556000000000E-01      1.496875000000000E+01      4.734344000000000E-01     -1.365547000000000E+02
4858000000.000000      6.286621000000000E-01      1.477246000000000E+01      4.710846000000000E-01     -1.376406000000000E+02
4859000000.000000      6.308899000000000E-01      1.489990000000000E+01      4.675140000000000E-01     -1.384063000000000E+02
4860000000.000000      6.322632000000000E-01      1.503613000000000E+01      4.655304000000000E-01     -1.390547000000000E+02
4861000000.000000      6.310120000000000E-01      1.504004000000000E+01      4.614868000000000E-01     -1.401016000000000E+02
4862000000.000000      6.320190000000000E-01      1.522949000000000E+01      4.595795000000000E-01     -1.407734000000000E+02
4863000000.000000      6.347351000000000E-01      1.520068000000000E+01      4.538422000000000E-01     -1.417578000000000E+02
4864000000.000000      6.362915000000000E-01      1.512646000000000E+01      4.519958000000000E-01     -1.424375000000000E+02
4865000000.000000      6.378479000000000E-01      1.517041000000000E+01      4.477234000000000E-01     -1.432969000000000E+02
4866000000.000000      6.394043000000000E-01      1.496875000000000E+01      4.438477000000000E-01     -1.443203000000000E+02
4867000000.000000      6.389160000000000E-01      1.501123000000000E+01      4.392700000000000E-01     -1.451562000000000E+02
4868000000.000000      6.409607000000000E-01      1.505664000000000E+01      4.383087000000000E-01     -1.456484000000000E+02
4869000000.000000      6.437988000000000E-01      1.496436000000000E+01      4.322968000000000E-01     -1.464766000000000E+02
4870000000.000000      6.430969000000000E-01      1.501514000000000E+01      4.278870000000000E-01     -1.472500000000000E+02
4871000000.000000      6.438293000000000E-01      1.495068000000000E+01      4.248047000000000E-01     -1.479531000000000E+02
4872000000.000000      6.476135000000000E-01      1.502637000000000E+01      4.192963000000000E-01     -1.486797000000000E+02
4873000000.000000      6.478577000000000E-01      1.502783000000000E+01      4.162903000000000E-01     -1.494766000000000E+02
4874000000.000000      6.497803000000000E-01      1.502637000000000E+01      4.114532000000000E-01     -1.501406000000000E+02
4875000000.000000      6.514587000000000E-01      1.486035000000000E+01      4.062653000000000E-01     -1.506094000000000E+02
4876000000.000000      6.496582000000000E-01      1.498535000000000E+01      4.031219000000000E-01     -1.513750000000000E+02
4877000000.000000      6.523438000000000E-01      1.465137000000000E+01      3.983307000000000E-01     -1.521406000000000E+02
4878000000.000000      6.524963000000000E-01      1.466650000000000E+01      3.943024000000000E-01     -1.528125000000000E+02
4879000000.000000      6.570740000000000E-01      1.465137000000000E+01      3.897705000000000E-01     -1.532266000000000E+02
4880000000.000000      6.592102000000000E-01      1.439307000000000E+01      3.852386000000000E-01     -1.539297000000000E+02
4881000000.000000      6.597900000000000E-01      1.474756000000000E+01      3.812714000000000E-01     -1.544688000000000E+02
4882000000.000000      6.600952000000000E-01      1.460596000000000E+01      3.769226000000000E-01     -1.549922000000000E+02
4883000000.000000      6.621094000000000E-01      1.444678000000000E+01      3.715973000000000E-01     -1.557422000000000E+02
4884000000.000000      6.619568000000000E-01      1.438916000000000E+01      3.677826000000000E-01     -1.560859000000000E+02
4885000000.000000      6.651611000000000E-01      1.425732000000000E+01      3.627777000000000E-01     -1.564609000000000E+02
4886000000.000000      6.661377000000000E-01      1.427393000000000E+01      3.584290000000000E-01     -1.570469000000000E+02
4887000000.000000      6.655273000000000E-01      1.424609000000000E+01      3.548889000000000E-01     -1.576641000000000E+02
4888000000.000000      6.665344000000000E-01      1.402539000000000E+01      3.520203000000000E-01     -1.583672000000000E+02
4889000000.000000      6.670532000000000E-01      1.403467000000000E+01      3.460541000000000E-01     -1.587109000000000E+02
4890000000.000000      6.683655000000000E-01      1.376953000000000E+01      3.419189000000000E-01     -1.592578000000000E+02
4891000000.000000      6.692810000000000E-01      1.381934000000000E+01      3.371887000000000E-01     -1.598359000000000E+02
4892000000.000000      6.696167000000000E-01      1.385889000000000E+01      3.337708000000000E-01     -1.598828000000000E+02
4893000000.000000      6.697388000000000E-01      1.366113000000000E+01      3.298798000000000E-01     -1.604531000000000E+02
4894000000.000000      6.717834000000000E-01      1.369678000000000E+01      3.248138000000000E-01     -1.607500000000000E+02
4895000000.000000      6.747131000000000E-01      1.368457000000000E+01      3.230896000000000E-01     -1.611016000000000E+02
4896000000.000000      6.738586000000000E-01      1.335791000000000E+01      3.181763000000000E-01     -1.614141000000000E+02
4897000000.000000      6.739197000000000E-01      1.347998000000000E+01      3.141327000000000E-01     -1.619297000000000E+02
4898000000.000000      6.741333000000000E-01      1.331396000000000E+01      3.106384000000000E-01     -1.620937000000000E+02
4899000000.000000      6.770630000000000E-01      1.318359000000000E+01      3.071136000000000E-01     -1.627266000000000E+02
4900000000.000000      6.762390000000000E-01      1.295654000000000E+01      3.028870000000000E-01     -1.629609000000000E+02
4901000000.000000      6.796570000000000E-01      1.291699000000000E+01      2.995758000000000E-01     -1.632344000000000E+02
4902000000.000000      6.788940000000000E-01      1.279883000000000E+01      2.966919000000000E-01     -1.634687000000000E+02
4903000000.000000      6.811523000000000E-01      1.276172000000000E+01      2.919922000000000E-01     -1.639922000000000E+02
4904000000.000000      6.806946000000000E-01      1.257373000000000E+01      2.885132000000000E-01     -1.643516000000000E+02
4905000000.000000      6.839600000000000E-01      1.238672000000000E+01      2.853546000000000E-01     -1.648672000000000E+02
4906000000.000000      6.832275000000000E-01      1.247900000000000E+01      2.815399000000000E-01     -1.648672000000000E+02
4907000000.000000      6.835022000000000E-01      1.227832000000000E+01      2.790680000000000E-01     -1.653359000000000E+02
4908000000.000000      6.849976000000000E-01      1.230029000000000E+01      2.751465000000000E-01     -1.657578000000000E+02
4909000000.000000      6.833496000000000E-01      1.205322000000000E+01      2.710114000000000E-01     -1.659375000000000E+02
4910000000.000000      6.825562000000000E-01      1.212158000000000E+01      2.679749000000000E-01     -1.662734000000000E+02
4911000000.000000      6.867065000000000E-01      1.202588000000000E+01      2.649384000000000E-01     -1.665547000000000E+02
4912000000.000000      6.861877000000000E-01      1.179639000000000E+01      2.603302000000000E-01     -1.670859000000000E+02
4913000000.000000      6.864929000000000E-01      1.179639000000000E+01      2.576447000000000E-01     -1.672188000000000E+02
4914000000.000000      6.879883000000000E-01      1.145166000000000E+01      2.536926000000000E-01     -1.674922000000000E+02
4915000000.000000      6.871338000000000E-01      1.158496000000000E+01      2.496948000000000E-01     -1.678750000000000E+02
4916000000.000000      6.889038000000000E-01      1.146143000000000E+01      2.467117000000000E-01     -1.682500000000000E+02
4917000000.000000      6.872559000000000E-01      1.145313000000000E+01      2.427521000000000E-01     -1.684141000000000E+02
4918000000.000000      6.898804000000000E-01      1.121533000000000E+01      2.387848000000000E-01     -1.686094000000000E+02
4919000000.000000      6.898804000000000E-01      1.115918000000000E+01      2.356110000000000E-01     -1.688984000000000E+02
4920000000.000000      6.913452000000000E-01      1.103564000000000E+01      2.319794000000000E-01     -1.693125000000000E+02
4921000000.000000      6.908569000000000E-01      1.097510000000000E+01      2.287903000000000E-01     -1.694609000000000E+02
4922000000.000000      6.921997000000000E-01      1.084180000000000E+01      2.247009000000000E-01     -1.696172000000000E+02
4923000000.000000      6.913147000000000E-01      1.080225000000000E+01      2.208099000000000E-01     -1.697500000000000E+02
4924000000.000000      6.933594000000000E-01      1.070850000000000E+01      2.173996000000000E-01     -1.701797000000000E+02
4925000000.000000      6.916809000000000E-01      1.053711000000000E+01      2.137527000000000E-01     -1.703203000000000E+02
4926000000.000000      6.942749000000000E-01      1.059473000000000E+01      2.098389000000000E-01     -1.703828000000000E+02
4927000000.000000      6.931152000000000E-01      1.040088000000000E+01      2.061081000000000E-01     -1.705703000000000E+02
4928000000.000000      6.927795000000000E-01      1.028320000000000E+01      2.025375000000000E-01     -1.707031000000000E+02
4929000000.000000      6.933289000000000E-01      1.018701000000000E+01      1.982803000000000E-01     -1.705781000000000E+02
4930000000.000000      6.967163000000000E-01      1.017334000000000E+01      1.945724000000000E-01     -1.709141000000000E+02
4931000000.000000      6.957092000000000E-01      1.002734000000000E+01      1.912994000000000E-01     -1.708828000000000E+02
4932000000.000000      6.957397000000000E-01      9.821777000000000E+00      1.876984000000000E-01     -1.708672000000000E+02
4933000000.000000      6.977844000000000E-01      9.752930000000000E+00      1.829376000000000E-01     -1.706328000000000E+02
4934000000.000000      6.984863000000000E-01      9.649902000000000E+00      1.793594000000000E-01     -1.707734000000000E+02
4935000000.000000      6.981812000000000E-01      9.627930000000000E+00      1.761169000000000E-01     -1.703906000000000E+02
4936000000.000000      6.983337000000000E-01      9.417969000000000E+00      1.716614000000000E-01     -1.705000000000000E+02
4937000000.000000      7.002869000000000E-01      9.460449000000000E+00      1.678848000000000E-01     -1.702500000000000E+02
4938000000.000000      6.976318000000000E-01      9.391602000000000E+00      1.645508000000000E-01     -1.699219000000000E+02
4939000000.000000      6.983948000000000E-01      9.308105000000000E+00      1.606140000000000E-01     -1.695000000000000E+02
4940000000.000000      6.983032000000000E-01      9.228516000000000E+00      1.572571000000000E-01     -1.695000000000000E+02
4941000000.000000      7.023621000000000E-01      9.033203000000000E+00      1.536789000000000E-01     -1.689844000000000E+02
4942000000.000000      7.014465000000000E-01      9.014160000000000E+00      1.499405000000000E-01     -1.687109000000000E+02
4943000000.000000      7.014771000000000E-01      8.747559000000000E+00      1.463547000000000E-01     -1.678750000000000E+02
4944000000.000000      7.015076000000000E-01      8.659668000000000E+00      1.432571000000000E-01     -1.674531000000000E+02
4945000000.000000      7.006531000000000E-01      8.715820000000000E+00      1.398087000000000E-01     -1.668359000000000E+02
4946000000.000000      7.040405000000000E-01      8.504395000000000E+00      1.363678000000000E-01     -1.659922000000000E+02
4947000000.000000      7.047424000000000E-01      8.374023000000000E+00      1.331024000000000E-01     -1.653906000000000E+02
4948000000.000000      7.045288000000000E-01      8.239746000000000E+00      1.301651000000000E-01     -1.645313000000000E+02
4949000000.000000      7.031555000000000E-01      8.250488000000000E+00      1.272125000000000E-01     -1.632500000000000E+02
4950000000.000000      7.055359000000000E-01      8.235352000000000E+00      1.243477000000000E-01     -1.622578000000000E+02
4951000000.000000      7.058105000000000E-01      8.033691000000000E+00      1.220169000000000E-01     -1.613203000000000E+02
4952000000.000000      7.050476000000000E-01      7.878418000000000E+00      1.190338000000000E-01     -1.598906000000000E+02
4953000000.000000      7.069702000000000E-01      7.914063000000000E+00      1.167259000000000E-01     -1.586172000000000E+02
4954000000.000000      7.058411000000000E-01      7.728760000000000E+00      1.143608000000000E-01     -1.572187000000000E+02
