! Network Analyzer HP8722D
! Hewlett-Packard
! Data name: Linha & Wilkinson
! Saver's name: Rodrigo Anjos
! Comments: Teste da utilização de aquisição
continua pelo VNA HP8722D
! Time and date: 22/5/2025 13:32
!              Frequency                     S11                                                   S21                                                   S12                                                   S22
# HZ  S  MA R 50
4800000000.000000      6.524353000000000E-01      1.092432000000000E+01      4.700775000000000E-01     -9.207031000000000E+01
4801000000.000000      6.504822000000000E-01      1.092969000000000E+01      4.725647000000000E-01     -9.286327000000000E+01
4802000000.000000      6.499634000000000E-01      1.084863000000000E+01      4.749298000000000E-01     -9.350000000000000E+01
4803000000.000000      6.468811000000000E-01      1.082129000000000E+01      4.770966000000000E-01     -9.419531000000000E+01
4804000000.000000      6.459656000000000E-01      1.089258000000000E+01      4.791107000000000E-01     -9.508593000000000E+01
4805000000.000000      6.442261000000000E-01      1.083643000000000E+01      4.792938000000000E-01     -9.600000000000000E+01
4806000000.000000      6.427307000000000E-01      1.088574000000000E+01      4.813690000000000E-01     -9.667578000000000E+01
4807000000.000000      6.404114000000000E-01      1.097363000000000E+01      4.828491000000000E-01     -9.744921000000000E+01
4808000000.000000      6.374207000000000E-01      1.083643000000000E+01      4.846802000000000E-01     -9.808203000000000E+01
4809000000.000000      6.363831000000000E-01      1.091211000000000E+01      4.862823000000000E-01     -9.885546000000000E+01
4810000000.000000      6.352844000000000E-01      1.092578000000000E+01      4.879913000000000E-01     -9.946875000000000E+01
4811000000.000000      6.351624000000000E-01      1.095850000000000E+01      4.888306000000000E-01     -1.004570000000000E+02
4812000000.000000      6.346130000000000E-01      1.115625000000000E+01      4.902802000000000E-01     -1.010820000000000E+02
4813000000.000000      6.312866000000000E-01      1.114551000000000E+01      4.906769000000000E-01     -1.019765000000000E+02
4814000000.000000      6.291199000000000E-01      1.109717000000000E+01      4.920044000000000E-01     -1.026641000000000E+02
4815000000.000000      6.275330000000000E-01      1.128418000000000E+01      4.923706000000000E-01     -1.034180000000000E+02
4816000000.000000      6.289368000000000E-01      1.138965000000000E+01      4.934845000000000E-01     -1.041562000000000E+02
4817000000.000000      6.267395000000000E-01      1.143506000000000E+01      4.944611000000000E-01     -1.049297000000000E+02
4818000000.000000      6.246643000000000E-01      1.136523000000000E+01      4.946747000000000E-01     -1.056133000000000E+02
4819000000.000000      6.227417000000000E-01      1.128662000000000E+01      4.964600000000000E-01     -1.064063000000000E+02
4820000000.000000      6.206970000000000E-01      1.157666000000000E+01      4.973907000000000E-01     -1.069805000000000E+02
4821000000.000000      6.217346000000000E-01      1.175781000000000E+01      4.976196000000000E-01     -1.079297000000000E+02
4822000000.000000      6.206055000000000E-01      1.156152000000000E+01      4.950256000000000E-01     -1.085898000000000E+02
4823000000.000000      6.195679000000000E-01      1.164941000000000E+01      4.973602000000000E-01     -1.094687000000000E+02
4824000000.000000      6.191101000000000E-01      1.187744000000000E+01      4.979553000000000E-01     -1.102773000000000E+02
4825000000.000000      6.186829000000000E-01      1.199268000000000E+01      4.983978000000000E-01     -1.110000000000000E+02
4826000000.000000      6.154480000000000E-01      1.190625000000000E+01      4.971466000000000E-01     -1.118437000000000E+02
4827000000.000000      6.156616000000000E-01      1.212744000000000E+01      4.981384000000000E-01     -1.121953000000000E+02
4828000000.000000      6.154175000000000E-01      1.231689000000000E+01      4.993286000000000E-01     -1.131211000000000E+02
4829000000.000000      6.152039000000000E-01      1.255029000000000E+01      5.008545000000000E-01     -1.138984000000000E+02
4830000000.000000      6.167297000000000E-01      1.244580000000000E+01      4.999084000000000E-01     -1.145625000000000E+02
4831000000.000000      6.135559000000000E-01      1.259033000000000E+01      4.998016000000000E-01     -1.155742000000000E+02
4832000000.000000      6.135559000000000E-01      1.271094000000000E+01      4.984894000000000E-01     -1.160469000000000E+02
4833000000.000000      6.146545000000000E-01      1.272461000000000E+01      4.983368000000000E-01     -1.169297000000000E+02
4834000000.000000      6.117859000000000E-01      1.293457000000000E+01      4.984741000000000E-01     -1.177773000000000E+02
4835000000.000000      6.138916000000000E-01      1.299512000000000E+01      4.998474000000000E-01     -1.184414000000000E+02
4836000000.000000      6.142883000000000E-01      1.328516000000000E+01      4.993286000000000E-01     -1.191797000000000E+02
4837000000.000000      6.131897000000000E-01      1.323828000000000E+01      4.972076000000000E-01     -1.202109000000000E+02
4838000000.000000      6.129761000000000E-01      1.343750000000000E+01      4.984589000000000E-01     -1.206016000000000E+02
4839000000.000000      6.159363000000000E-01      1.361572000000000E+01      4.984131000000000E-01     -1.215312000000000E+02
4840000000.000000      6.154785000000000E-01      1.359131000000000E+01      4.983521000000000E-01     -1.223633000000000E+02
4841000000.000000      6.159973000000000E-01      1.383691000000000E+01      4.975433000000000E-01     -1.233516000000000E+02
4842000000.000000      6.161804000000000E-01      1.378076000000000E+01      4.972687000000000E-01     -1.238984000000000E+02
4843000000.000000      6.181946000000000E-01      1.383154000000000E+01      4.972687000000000E-01     -1.249766000000000E+02
4844000000.000000      6.174927000000000E-01      1.402246000000000E+01      4.959106000000000E-01     -1.255117000000000E+02
4845000000.000000      6.179199000000000E-01      1.425732000000000E+01      4.941711000000000E-01     -1.264531000000000E+02
4846000000.000000      6.181946000000000E-01      1.421191000000000E+01      4.943237000000000E-01     -1.273203000000000E+02
4847000000.000000      6.205444000000000E-01      1.419287000000000E+01      4.924774000000000E-01     -1.280313000000000E+02
4848000000.000000      6.205139000000000E-01      1.428076000000000E+01      4.904175000000000E-01     -1.289297000000000E+02
4849000000.000000      6.216736000000000E-01      1.424219000000000E+01      4.906311000000000E-01     -1.297734000000000E+02
4850000000.000000      6.205139000000000E-01      1.441650000000000E+01      4.867554000000000E-01     -1.306719000000000E+02
4851000000.000000      6.233826000000000E-01      1.462402000000000E+01      4.864044000000000E-01     -1.315625000000000E+02
4852000000.000000      6.242065000000000E-01      1.462256000000000E+01      4.836731000000000E-01     -1.323672000000000E+02
4853000000.000000      6.243591000000000E-01      1.468848000000000E+01      4.818573000000000E-01     -1.332578000000000E+02
4854000000.000000      6.248779000000000E-01      1.471045000000000E+01      4.803467000000000E-01     -1.341797000000000E+02
4855000000.000000      6.262207000000000E-01      1.482324000000000E+01      4.784393000000000E-01     -1.350469000000000E+02
4856000000.000000      6.280212000000000E-01      1.475586000000000E+01      4.748688000000000E-01     -1.358281000000000E+02
4857000000.000000      6.278381000000000E-01      1.486133000000000E+01      4.734650000000000E-01     -1.365313000000000E+02
4858000000.000000      6.294250000000000E-01      1.500439000000000E+01      4.711609000000000E-01     -1.375547000000000E+02
4859000000.000000      6.299744000000000E-01      1.476123000000000E+01      4.686737000000000E-01     -1.384453000000000E+02
4860000000.000000      6.323853000000000E-01      1.502344000000000E+01      4.642181000000000E-01     -1.392656000000000E+02
4861000000.000000      6.320496000000000E-01      1.493994000000000E+01      4.615173000000000E-01     -1.401172000000000E+02
4862000000.000000      6.314392000000000E-01      1.489014000000000E+01      4.592438000000000E-01     -1.409688000000000E+02
4863000000.000000      6.363831000000000E-01      1.506738000000000E+01      4.530334000000000E-01     -1.416641000000000E+02
4864000000.000000      6.372986000000000E-01      1.481738000000000E+01      4.516296000000000E-01     -1.426094000000000E+02
4865000000.000000      6.370239000000000E-01      1.497266000000000E+01      4.486237000000000E-01     -1.433906000000000E+02
4866000000.000000      6.401062000000000E-01      1.500830000000000E+01      4.443359000000000E-01     -1.441406000000000E+02
4867000000.000000      6.394653000000000E-01      1.502637000000000E+01      4.399414000000000E-01     -1.451328000000000E+02
4868000000.000000      6.408081000000000E-01      1.490967000000000E+01      4.381409000000000E-01     -1.457422000000000E+02
4869000000.000000      6.405640000000000E-01      1.493848000000000E+01      4.329681000000000E-01     -1.466016000000000E+02
4870000000.000000      6.428223000000000E-01      1.484375000000000E+01      4.292450000000000E-01     -1.471719000000000E+02
4871000000.000000      6.457520000000000E-01      1.485205000000000E+01      4.261017000000000E-01     -1.480078000000000E+02
4872000000.000000      6.471252000000000E-01      1.475732000000000E+01      4.206543000000000E-01     -1.486328000000000E+02
4873000000.000000      6.474304000000000E-01      1.489844000000000E+01      4.169922000000000E-01     -1.495859000000000E+02
4874000000.000000      6.488037000000000E-01      1.488330000000000E+01      4.109802000000000E-01     -1.501172000000000E+02
4875000000.000000      6.489258000000000E-01      1.471729000000000E+01      4.072723000000000E-01     -1.508437000000000E+02
4876000000.000000      6.521606000000000E-01      1.493555000000000E+01      4.035645000000000E-01     -1.515156000000000E+02
4877000000.000000      6.532593000000000E-01      1.454980000000000E+01      3.986511000000000E-01     -1.521406000000000E+02
4878000000.000000      6.544495000000000E-01      1.463379000000000E+01      3.946533000000000E-01     -1.526484000000000E+02
4879000000.000000      6.549683000000000E-01      1.460205000000000E+01      3.888550000000000E-01     -1.533516000000000E+02
4880000000.000000      6.585083000000000E-01      1.467773000000000E+01      3.857117000000000E-01     -1.541484000000000E+02
4881000000.000000      6.592712000000000E-01      1.450195000000000E+01      3.822632000000000E-01     -1.544765000000000E+02
4882000000.000000      6.590881000000000E-01      1.450049000000000E+01      3.778229000000000E-01     -1.550937000000000E+02
4883000000.000000      6.602478000000000E-01      1.428613000000000E+01      3.718109000000000E-01     -1.557500000000000E+02
4884000000.000000      6.625977000000000E-01      1.451416000000000E+01      3.677216000000000E-01     -1.563672000000000E+02
4885000000.000000      6.631165000000000E-01      1.429590000000000E+01      3.638916000000000E-01     -1.566328000000000E+02
4886000000.000000      6.663208000000000E-01      1.414453000000000E+01      3.587341000000000E-01     -1.571953000000000E+02
4887000000.000000      6.651001000000000E-01      1.415820000000000E+01      3.553314000000000E-01     -1.577266000000000E+02
4888000000.000000      6.651306000000000E-01      1.399756000000000E+01      3.513031000000000E-01     -1.582109000000000E+02
4889000000.000000      6.676025000000000E-01      1.392627000000000E+01      3.466644000000000E-01     -1.584063000000000E+02
4890000000.000000      6.648254000000000E-01      1.383301000000000E+01      3.420868000000000E-01     -1.592187000000000E+02
4891000000.000000      6.682434000000000E-01      1.380664000000000E+01      3.393707000000000E-01     -1.596719000000000E+02
4892000000.000000      6.701050000000000E-01      1.369434000000000E+01      3.339844000000000E-01     -1.598516000000000E+02
4893000000.000000      6.713257000000000E-01      1.366943000000000E+01      3.290863000000000E-01     -1.605000000000000E+02
4894000000.000000      6.721497000000000E-01      1.353906000000000E+01      3.261719000000000E-01     -1.606094000000000E+02
4895000000.000000      6.747437000000000E-01      1.336719000000000E+01      3.229675000000000E-01     -1.611875000000000E+02
4896000000.000000      6.756592000000000E-01      1.350586000000000E+01      3.186798000000000E-01     -1.615156000000000E+02
4897000000.000000      6.739197000000000E-01      1.332764000000000E+01      3.141785000000000E-01     -1.619688000000000E+02
4898000000.000000      6.766663000000000E-01      1.315186000000000E+01      3.106384000000000E-01     -1.623594000000000E+02
4899000000.000000      6.778870000000000E-01      1.311621000000000E+01      3.076172000000000E-01     -1.626719000000000E+02
4900000000.000000      6.778259000000000E-01      1.290479000000000E+01      3.034821000000000E-01     -1.629141000000000E+02
4901000000.000000      6.788940000000000E-01      1.291162000000000E+01      2.998199000000000E-01     -1.633672000000000E+02
4902000000.000000      6.796570000000000E-01      1.285400000000000E+01      2.964325000000000E-01     -1.636172000000000E+02
4903000000.000000      6.804199000000000E-01      1.276709000000000E+01      2.918243000000000E-01     -1.639453000000000E+02
4904000000.000000      6.819458000000000E-01      1.252148000000000E+01      2.890778000000000E-01     -1.643828000000000E+02
4905000000.000000      6.809998000000000E-01      1.240479000000000E+01      2.853088000000000E-01     -1.647656000000000E+02
4906000000.000000      6.823730000000000E-01      1.231250000000000E+01      2.819519000000000E-01     -1.647969000000000E+02
4907000000.000000      6.832581000000000E-01      1.231396000000000E+01      2.790222000000000E-01     -1.654687000000000E+02
4908000000.000000      6.848755000000000E-01      1.211914000000000E+01      2.752533000000000E-01     -1.656719000000000E+02
4909000000.000000      6.840820000000000E-01      1.202002000000000E+01      2.715454000000000E-01     -1.660781000000000E+02
4910000000.000000      6.859436000000000E-01      1.193115000000000E+01      2.679291000000000E-01     -1.664063000000000E+02
4911000000.000000      6.856384000000000E-01      1.203516000000000E+01      2.650757000000000E-01     -1.665000000000000E+02
4912000000.000000      6.862183000000000E-01      1.171533000000000E+01      2.610016000000000E-01     -1.670781000000000E+02
4913000000.000000      6.865540000000000E-01      1.158203000000000E+01      2.576141000000000E-01     -1.672656000000000E+02
4914000000.000000      6.889038000000000E-01      1.151611000000000E+01      2.539368000000000E-01     -1.673828000000000E+02
4915000000.000000      6.864929000000000E-01      1.127441000000000E+01      2.502594000000000E-01     -1.679141000000000E+02
4916000000.000000      6.898499000000000E-01      1.129785000000000E+01      2.471008000000000E-01     -1.683906000000000E+02
4917000000.000000      6.896973000000000E-01      1.122070000000000E+01      2.434082000000000E-01     -1.684609000000000E+02
4918000000.000000      6.901245000000000E-01      1.108643000000000E+01      2.395554000000000E-01     -1.688281000000000E+02
4919000000.000000      6.896362000000000E-01      1.107129000000000E+01      2.366257000000000E-01     -1.688437000000000E+02
4920000000.000000      6.892700000000000E-01      1.098193000000000E+01      2.326355000000000E-01     -1.693906000000000E+02
4921000000.000000      6.913757000000000E-01      1.092725000000000E+01      2.289124000000000E-01     -1.694766000000000E+02
4922000000.000000      6.922913000000000E-01      1.090527000000000E+01      2.246246000000000E-01     -1.696640000000000E+02
4923000000.000000      6.911621000000000E-01      1.079541000000000E+01      2.209473000000000E-01     -1.699297000000000E+02
4924000000.000000      6.928406000000000E-01      1.051904000000000E+01      2.170639000000000E-01     -1.703359000000000E+02
4925000000.000000      6.937256000000000E-01      1.054688000000000E+01      2.139816000000000E-01     -1.702969000000000E+02
4926000000.000000      6.930847000000000E-01      1.048340000000000E+01      2.103195000000000E-01     -1.704062000000000E+02
4927000000.000000      6.946716000000000E-01      1.021436000000000E+01      2.066879000000000E-01     -1.705469000000000E+02
4928000000.000000      6.956177000000000E-01      1.008936000000000E+01      2.027740000000000E-01     -1.707187000000000E+02
4929000000.000000      6.956482000000000E-01      1.002051000000000E+01      1.986008000000000E-01     -1.708047000000000E+02
4930000000.000000      6.940613000000000E-01      9.928711000000000E+00      1.948547000000000E-01     -1.708594000000000E+02
4931000000.000000      6.962585000000000E-01      9.915039000000000E+00      1.914749000000000E-01     -1.710703000000000E+02
4932000000.000000      6.945496000000000E-01      9.833984000000000E+00      1.875076000000000E-01     -1.709766000000000E+02
4933000000.000000      6.956482000000000E-01      9.684082000000000E+00      1.829834000000000E-01     -1.707031000000000E+02
4934000000.000000      7.000732000000000E-01      9.520996000000000E+00      1.798706000000000E-01     -1.711016000000000E+02
4935000000.000000      7.002563000000000E-01      9.479492000000000E+00      1.760406000000000E-01     -1.705703000000000E+02
4936000000.000000      6.979980000000000E-01      9.450684000000000E+00      1.720276000000000E-01     -1.705078000000000E+02
4937000000.000000      6.993103000000000E-01      9.456055000000000E+00      1.688538000000000E-01     -1.704062000000000E+02
4938000000.000000      6.979675000000000E-01      9.352051000000000E+00      1.647491000000000E-01     -1.700703000000000E+02
4939000000.000000      6.987000000000000E-01      9.183105000000000E+00      1.604843000000000E-01     -1.698750000000000E+02
4940000000.000000      7.003479000000000E-01      9.046875000000000E+00      1.568604000000000E-01     -1.697187000000000E+02
4941000000.000000      7.001343000000000E-01      8.994629000000000E+00      1.539764000000000E-01     -1.691172000000000E+02
4942000000.000000      7.024231000000000E-01      8.990723000000000E+00      1.505051000000000E-01     -1.688125000000000E+02
4943000000.000000      7.014771000000000E-01      8.809570000000000E+00      1.469345000000000E-01     -1.682969000000000E+02
4944000000.000000      7.032776000000000E-01      8.774902000000000E+00      1.438751000000000E-01     -1.676641000000000E+02
4945000000.000000      7.024231000000000E-01      8.586914000000000E+00      1.401215000000000E-01     -1.670938000000000E+02
4946000000.000000      7.018738000000000E-01      8.452148000000000E+00      1.368790000000000E-01     -1.662656000000000E+02
4947000000.000000      7.037964000000000E-01      8.449707000000000E+00      1.333542000000000E-01     -1.654609000000000E+02
4948000000.000000      7.043762000000000E-01      8.284668000000000E+00      1.306992000000000E-01     -1.645000000000000E+02
4949000000.000000      7.039185000000000E-01      8.280762000000000E+00      1.277237000000000E-01     -1.632656000000000E+02
4950000000.000000      7.040100000000000E-01      8.218750000000000E+00      1.247253000000000E-01     -1.624063000000000E+02
4951000000.000000      7.061157000000000E-01      7.984131000000000E+00      1.223526000000000E-01     -1.614375000000000E+02
4952000000.000000      7.064514000000000E-01      8.052734000000000E+00      1.190414000000000E-01     -1.604687000000000E+02
4953000000.000000      7.058105000000000E-01      7.860596000000000E+00      1.170006000000000E-01     -1.588906000000000E+02
4954000000.000000      7.056274000000000E-01      7.886719000000000E+00      1.146622000000000E-01     -1.576094000000000E+02
