! Network Analyzer HP8722D
! Hewlett-Packard
! Data name: Linha & Wilkinson
! Saver's name: Rodrigo Anjos
! Comments: Teste da utilização de aquisição
continua pelo VNA HP8722D
! Time and date: 22/5/2025 09:42
!              Frequency                     S11                                                   S21                                                   S12                                                   S22
# HZ  S  MA R 50
4800000000.000000      6.490479000000000E-01      1.037646000000000E+01      4.741211000000000E-01     -9.376171000000000E+01
4801000000.000000      6.441956000000000E-01      1.055762000000000E+01      4.749756000000000E-01     -9.457811000000000E+01
4802000000.000000      6.439514000000000E-01      1.029102000000000E+01      4.765320000000000E-01     -9.507813000000000E+01
4803000000.000000      6.430969000000000E-01      1.043408000000000E+01      4.809418000000000E-01     -9.573828000000000E+01
4804000000.000000      6.412354000000000E-01      1.031299000000000E+01      4.816589000000000E-01     -9.666016000000000E+01
4805000000.000000      6.404114000000000E-01      1.042285000000000E+01      4.832611000000000E-01     -9.746483000000000E+01
4806000000.000000      6.382446000000000E-01      1.046973000000000E+01      4.846802000000000E-01     -9.813280000000000E+01
4807000000.000000      6.345825000000000E-01      1.035693000000000E+01      4.862061000000000E-01     -9.914063000000000E+01
4808000000.000000      6.333008000000000E-01      1.036377000000000E+01      4.880524000000000E-01     -9.963280000000000E+01
4809000000.000000      6.324463000000000E-01      1.056738000000000E+01      4.875183000000000E-01     -1.003984000000000E+02
4810000000.000000      6.287842000000000E-01      1.051660000000000E+01      4.908600000000000E-01     -1.010742000000000E+02
4811000000.000000      6.290283000000000E-01      1.053564000000000E+01      4.919586000000000E-01     -1.020898000000000E+02
4812000000.000000      6.294250000000000E-01      1.075830000000000E+01      4.923401000000000E-01     -1.026758000000000E+02
4813000000.000000      6.274109000000000E-01      1.071680000000000E+01      4.925385000000000E-01     -1.035742000000000E+02
4814000000.000000      6.264038000000000E-01      1.064014000000000E+01      4.950867000000000E-01     -1.041680000000000E+02
4815000000.000000      6.231384000000000E-01      1.074170000000000E+01      4.938354000000000E-01     -1.049570000000000E+02
4816000000.000000      6.221008000000000E-01      1.095996000000000E+01      4.965363000000000E-01     -1.059023000000000E+02
4817000000.000000      6.219788000000000E-01      1.108203000000000E+01      4.961853000000000E-01     -1.066719000000000E+02
4818000000.000000      6.196594000000000E-01      1.095166000000000E+01      4.972382000000000E-01     -1.073984000000000E+02
4819000000.000000      6.196899000000000E-01      1.120459000000000E+01      4.984741000000000E-01     -1.081211000000000E+02
4820000000.000000      6.172180000000000E-01      1.134717000000000E+01      4.981384000000000E-01     -1.087852000000000E+02
4821000000.000000      6.185913000000000E-01      1.129639000000000E+01      5.004578000000000E-01     -1.095117000000000E+02
4822000000.000000      6.167297000000000E-01      1.141602000000000E+01      4.977875000000000E-01     -1.101328000000000E+02
4823000000.000000      6.152954000000000E-01      1.141309000000000E+01      4.986572000000000E-01     -1.110195000000000E+02
4824000000.000000      6.132507000000000E-01      1.158740000000000E+01      4.985657000000000E-01     -1.118437000000000E+02
4825000000.000000      6.145020000000000E-01      1.182227000000000E+01      4.999390000000000E-01     -1.125039000000000E+02
4826000000.000000      6.135254000000000E-01      1.158887000000000E+01      5.004883000000000E-01     -1.134766000000000E+02
4827000000.000000      6.136169000000000E-01      1.197070000000000E+01      4.995422000000000E-01     -1.141211000000000E+02
4828000000.000000      6.148071000000000E-01      1.197070000000000E+01      5.004883000000000E-01     -1.148242000000000E+02
4829000000.000000      6.118164000000000E-01      1.239258000000000E+01      5.004272000000000E-01     -1.156602000000000E+02
4830000000.000000      6.120911000000000E-01      1.220264000000000E+01      5.002136000000000E-01     -1.163906000000000E+02
4831000000.000000      6.119690000000000E-01      1.237598000000000E+01      5.008240000000000E-01     -1.171719000000000E+02
4832000000.000000      6.123657000000000E-01      1.250342000000000E+01      4.994659000000000E-01     -1.179062000000000E+02
4833000000.000000      6.098328000000000E-01      1.252148000000000E+01      4.995575000000000E-01     -1.185898000000000E+02
4834000000.000000      6.115112000000000E-01      1.261328000000000E+01      4.991913000000000E-01     -1.195117000000000E+02
4835000000.000000      6.120300000000000E-01      1.278223000000000E+01      5.000305000000000E-01     -1.201601000000000E+02
4836000000.000000      6.103821000000000E-01      1.290723000000000E+01      4.972839000000000E-01     -1.208672000000000E+02
4837000000.000000      6.127014000000000E-01      1.308594000000000E+01      4.965668000000000E-01     -1.218555000000000E+02
4838000000.000000      6.114502000000000E-01      1.320947000000000E+01      4.982758000000000E-01     -1.223828000000000E+02
4839000000.000000      6.158752000000000E-01      1.336035000000000E+01      4.971008000000000E-01     -1.232930000000000E+02
4840000000.000000      6.156311000000000E-01      1.316162000000000E+01      4.969177000000000E-01     -1.241758000000000E+02
4841000000.000000      6.152954000000000E-01      1.353076000000000E+01      4.975891000000000E-01     -1.249648000000000E+02
4842000000.000000      6.140137000000000E-01      1.359277000000000E+01      4.956360000000000E-01     -1.256914000000000E+02
4843000000.000000      6.166687000000000E-01      1.367236000000000E+01      4.943695000000000E-01     -1.267695000000000E+02
4844000000.000000      6.139221000000000E-01      1.378223000000000E+01      4.932861000000000E-01     -1.273789000000000E+02
4845000000.000000      6.163940000000000E-01      1.384814000000000E+01      4.919586000000000E-01     -1.279609000000000E+02
4846000000.000000      6.161804000000000E-01      1.384131000000000E+01      4.909058000000000E-01     -1.290156000000000E+02
4847000000.000000      6.189270000000000E-01      1.406494000000000E+01      4.901276000000000E-01     -1.298750000000000E+02
4848000000.000000      6.174622000000000E-01      1.397314000000000E+01      4.876556000000000E-01     -1.306641000000000E+02
4849000000.000000      6.190491000000000E-01      1.407031000000000E+01      4.869843000000000E-01     -1.316015000000000E+02
4850000000.000000      6.221619000000000E-01      1.407178000000000E+01      4.836273000000000E-01     -1.324063000000000E+02
4851000000.000000      6.226501000000000E-01      1.430811000000000E+01      4.833984000000000E-01     -1.333125000000000E+02
4852000000.000000      6.222534000000000E-01      1.421631000000000E+01      4.800262000000000E-01     -1.341641000000000E+02
4853000000.000000      6.240234000000000E-01      1.446729000000000E+01      4.774017000000000E-01     -1.348984000000000E+02
4854000000.000000      6.245117000000000E-01      1.440674000000000E+01      4.759064000000000E-01     -1.357266000000000E+02
4855000000.000000      6.264954000000000E-01      1.427100000000000E+01      4.739380000000000E-01     -1.365781000000000E+02
4856000000.000000      6.265564000000000E-01      1.429834000000000E+01      4.704285000000000E-01     -1.375000000000000E+02
4857000000.000000      6.289978000000000E-01      1.448535000000000E+01      4.689941000000000E-01     -1.383047000000000E+02
4858000000.000000      6.297607000000000E-01      1.446729000000000E+01      4.658508000000000E-01     -1.391328000000000E+02
4859000000.000000      6.306152000000000E-01      1.442773000000000E+01      4.638519000000000E-01     -1.400312000000000E+02
4860000000.000000      6.320190000000000E-01      1.450049000000000E+01      4.599762000000000E-01     -1.407891000000000E+02
4861000000.000000      6.351318000000000E-01      1.448242000000000E+01      4.547577000000000E-01     -1.417891000000000E+02
4862000000.000000      6.335754000000000E-01      1.438477000000000E+01      4.526672000000000E-01     -1.424687000000000E+02
4863000000.000000      6.363525000000000E-01      1.441650000000000E+01      4.485168000000000E-01     -1.433984000000000E+02
4864000000.000000      6.371460000000000E-01      1.444678000000000E+01      4.468384000000000E-01     -1.441406000000000E+02
4865000000.000000      6.365967000000000E-01      1.451660000000000E+01      4.424896000000000E-01     -1.449609000000000E+02
4866000000.000000      6.387939000000000E-01      1.431494000000000E+01      4.370422000000000E-01     -1.456328000000000E+02
4867000000.000000      6.388550000000000E-01      1.443848000000000E+01      4.332733000000000E-01     -1.466016000000000E+02
4868000000.000000      6.417847000000000E-01      1.437695000000000E+01      4.297180000000000E-01     -1.471953000000000E+02
4869000000.000000      6.419983000000000E-01      1.443018000000000E+01      4.269104000000000E-01     -1.480000000000000E+02
4870000000.000000      6.429138000000000E-01      1.438477000000000E+01      4.216766000000000E-01     -1.485391000000000E+02
4871000000.000000      6.440735000000000E-01      1.428223000000000E+01      4.174652000000000E-01     -1.492969000000000E+02
4872000000.000000      6.480713000000000E-01      1.430127000000000E+01      4.142914000000000E-01     -1.500000000000000E+02
4873000000.000000      6.479492000000000E-01      1.434521000000000E+01      4.089661000000000E-01     -1.509063000000000E+02
4874000000.000000      6.495056000000000E-01      1.418604000000000E+01      4.043732000000000E-01     -1.514688000000000E+02
4875000000.000000      6.495056000000000E-01      1.424365000000000E+01      4.002686000000000E-01     -1.519766000000000E+02
4876000000.000000      6.510315000000000E-01      1.414307000000000E+01      3.961487000000000E-01     -1.528906000000000E+02
4877000000.000000      6.547852000000000E-01      1.403613000000000E+01      3.930054000000000E-01     -1.534297000000000E+02
4878000000.000000      6.546936000000000E-01      1.390283000000000E+01      3.878937000000000E-01     -1.540000000000000E+02
4879000000.000000      6.569824000000000E-01      1.417480000000000E+01      3.820343000000000E-01     -1.545469000000000E+02
4880000000.000000      6.574707000000000E-01      1.397461000000000E+01      3.781586000000000E-01     -1.554141000000000E+02
4881000000.000000      6.585388000000000E-01      1.397559000000000E+01      3.744049000000000E-01     -1.554766000000000E+02
4882000000.000000      6.597290000000000E-01      1.394141000000000E+01      3.699188000000000E-01     -1.561328000000000E+02
4883000000.000000      6.602173000000000E-01      1.381934000000000E+01      3.653259000000000E-01     -1.567656000000000E+02
4884000000.000000      6.627808000000000E-01      1.363916000000000E+01      3.610840000000000E-01     -1.572187000000000E+02
4885000000.000000      6.625977000000000E-01      1.372559000000000E+01      3.569031000000000E-01     -1.575938000000000E+02
4886000000.000000      6.650696000000000E-01      1.362842000000000E+01      3.521118000000000E-01     -1.582109000000000E+02
4887000000.000000      6.662292000000000E-01      1.369287000000000E+01      3.490906000000000E-01     -1.586719000000000E+02
4888000000.000000      6.654053000000000E-01      1.358301000000000E+01      3.448181000000000E-01     -1.592031000000000E+02
4889000000.000000      6.667786000000000E-01      1.343750000000000E+01      3.392792000000000E-01     -1.596172000000000E+02
4890000000.000000      6.677246000000000E-01      1.328516000000000E+01      3.338776000000000E-01     -1.603672000000000E+02
4891000000.000000      6.689453000000000E-01      1.323291000000000E+01      3.315430000000000E-01     -1.605859000000000E+02
4892000000.000000      6.699829000000000E-01      1.309961000000000E+01      3.273773000000000E-01     -1.607578000000000E+02
4893000000.000000      6.719360000000000E-01      1.314355000000000E+01      3.221588000000000E-01     -1.613984000000000E+02
4894000000.000000      6.711121000000000E-01      1.293750000000000E+01      3.194122000000000E-01     -1.615078000000000E+02
4895000000.000000      6.746521000000000E-01      1.274121000000000E+01      3.170013000000000E-01     -1.620234000000000E+02
4896000000.000000      6.752625000000000E-01      1.269189000000000E+01      3.123627000000000E-01     -1.623047000000000E+02
4897000000.000000      6.746826000000000E-01      1.263428000000000E+01      3.085785000000000E-01     -1.629297000000000E+02
4898000000.000000      6.748352000000000E-01      1.253516000000000E+01      3.051453000000000E-01     -1.630469000000000E+02
4899000000.000000      6.754761000000000E-01      1.265039000000000E+01      3.013611000000000E-01     -1.634766000000000E+02
4900000000.000000      6.790466000000000E-01      1.246631000000000E+01      2.975006000000000E-01     -1.637031000000000E+02
4901000000.000000      6.799011000000000E-01      1.226758000000000E+01      2.940826000000000E-01     -1.640859000000000E+02
4902000000.000000      6.807251000000000E-01      1.207080000000000E+01      2.907410000000000E-01     -1.644063000000000E+02
4903000000.000000      6.805115000000000E-01      1.211621000000000E+01      2.858429000000000E-01     -1.647969000000000E+02
4904000000.000000      6.799927000000000E-01      1.203125000000000E+01      2.828369000000000E-01     -1.652031000000000E+02
4905000000.000000      6.830444000000000E-01      1.191846000000000E+01      2.805939000000000E-01     -1.654687000000000E+02
4906000000.000000      6.808472000000000E-01      1.174805000000000E+01      2.760620000000000E-01     -1.656094000000000E+02
4907000000.000000      6.834717000000000E-01      1.170557000000000E+01      2.729950000000000E-01     -1.660391000000000E+02
4908000000.000000      6.854553000000000E-01      1.172510000000000E+01      2.693939000000000E-01     -1.664219000000000E+02
4909000000.000000      6.824646000000000E-01      1.144043000000000E+01      2.653046000000000E-01     -1.666875000000000E+02
4910000000.000000      6.844788000000000E-01      1.143262000000000E+01      2.615509000000000E-01     -1.669531000000000E+02
4911000000.000000      6.828613000000000E-01      1.132129000000000E+01      2.590790000000000E-01     -1.671797000000000E+02
4912000000.000000      6.844482000000000E-01      1.128955000000000E+01      2.552795000000000E-01     -1.675859000000000E+02
4913000000.000000      6.871948000000000E-01      1.099316000000000E+01      2.519073000000000E-01     -1.678125000000000E+02
4914000000.000000      6.868286000000000E-01      1.094336000000000E+01      2.473297000000000E-01     -1.681250000000000E+02
4915000000.000000      6.871948000000000E-01      1.092139000000000E+01      2.447968000000000E-01     -1.683281000000000E+02
4916000000.000000      6.888428000000000E-01      1.073047000000000E+01      2.412567000000000E-01     -1.686328000000000E+02
4917000000.000000      6.892090000000000E-01      1.068115000000000E+01      2.379227000000000E-01     -1.689219000000000E+02
4918000000.000000      6.884766000000000E-01      1.045068000000000E+01      2.336044000000000E-01     -1.691953000000000E+02
4919000000.000000      6.894226000000000E-01      1.058252000000000E+01      2.303162000000000E-01     -1.691953000000000E+02
4920000000.000000      6.899109000000000E-01      1.029248000000000E+01      2.264557000000000E-01     -1.696640000000000E+02
4921000000.000000      6.913757000000000E-01      1.033105000000000E+01      2.234039000000000E-01     -1.697578000000000E+02
4922000000.000000      6.925354000000000E-01      1.009473000000000E+01      2.194748000000000E-01     -1.698203000000000E+02
4923000000.000000      6.932678000000000E-01      1.008105000000000E+01      2.152176000000000E-01     -1.699297000000000E+02
4924000000.000000      6.948242000000000E-01      1.010156000000000E+01      2.113953000000000E-01     -1.702500000000000E+02
4925000000.000000      6.925964000000000E-01      9.891602000000000E+00      2.082748000000000E-01     -1.705000000000000E+02
4926000000.000000      6.952209000000000E-01      9.739258000000000E+00      2.042084000000000E-01     -1.705391000000000E+02
4927000000.000000      6.940918000000000E-01      9.774902000000000E+00      1.999817000000000E-01     -1.707109000000000E+02
4928000000.000000      6.961975000000000E-01      9.580078000000000E+00      1.969299000000000E-01     -1.707422000000000E+02
4929000000.000000      6.939697000000000E-01      9.618164000000000E+00      1.929474000000000E-01     -1.707031000000000E+02
4930000000.000000      6.947632000000000E-01      9.406738000000000E+00      1.894073000000000E-01     -1.707656000000000E+02
4931000000.000000      6.942749000000000E-01      9.389160000000000E+00      1.862411000000000E-01     -1.706563000000000E+02
4932000000.000000      6.950989000000000E-01      9.220215000000000E+00      1.822128000000000E-01     -1.707813000000000E+02
4933000000.000000      6.960754000000000E-01      8.902832000000000E+00      1.779785000000000E-01     -1.705078000000000E+02
4934000000.000000      6.980286000000000E-01      9.077148000000000E+00      1.746979000000000E-01     -1.704531000000000E+02
4935000000.000000      6.976318000000000E-01      8.964844000000000E+00      1.708755000000000E-01     -1.701015000000000E+02
4936000000.000000      6.976318000000000E-01      8.786133000000000E+00      1.669083000000000E-01     -1.699375000000000E+02
4937000000.000000      7.004700000000000E-01      8.693848000000000E+00      1.635056000000000E-01     -1.696640000000000E+02
4938000000.000000      6.984253000000000E-01      8.705078000000000E+00      1.598282000000000E-01     -1.695000000000000E+02
4939000000.000000      6.972046000000000E-01      8.674805000000000E+00      1.563034000000000E-01     -1.689297000000000E+02
4940000000.000000      7.002869000000000E-01      8.437500000000000E+00      1.529541000000000E-01     -1.687891000000000E+02
4941000000.000000      6.997070000000000E-01      8.456543000000000E+00      1.493912000000000E-01     -1.680938000000000E+02
4942000000.000000      6.989746000000000E-01      8.235352000000000E+00      1.460953000000000E-01     -1.676172000000000E+02
4943000000.000000      7.023926000000000E-01      8.077637000000000E+00      1.428604000000000E-01     -1.668047000000000E+02
4944000000.000000      7.011719000000000E-01      8.061035000000000E+00      1.393356000000000E-01     -1.662109000000000E+02
4945000000.000000      7.003479000000000E-01      7.856445000000000E+00      1.355362000000000E-01     -1.654922000000000E+02
4946000000.000000      7.029114000000000E-01      7.879883000000000E+00      1.331406000000000E-01     -1.646797000000000E+02
4947000000.000000      7.024536000000000E-01      7.673828000000000E+00      1.299057000000000E-01     -1.638359000000000E+02
4948000000.000000      7.045593000000000E-01      7.786377000000000E+00      1.274567000000000E-01     -1.626172000000000E+02
4949000000.000000      7.022095000000000E-01      7.528320000000000E+00      1.247673000000000E-01     -1.613359000000000E+02
4950000000.000000      7.063293000000000E-01      7.552979000000000E+00      1.218185000000000E-01     -1.605859000000000E+02
4951000000.000000      7.047729000000000E-01      7.458252000000000E+00      1.193962000000000E-01     -1.592969000000000E+02
4952000000.000000      7.053223000000000E-01      7.230225000000000E+00      1.170807000000000E-01     -1.579062000000000E+02
4953000000.000000      7.044067000000000E-01      7.254883000000000E+00      1.150780000000000E-01     -1.565078000000000E+02
4954000000.000000      7.066650000000000E-01      7.083252000000000E+00      1.132240000000000E-01     -1.548437000000000E+02
