! Network Analyzer HP8722D
! Hewlett-Packard
! Data name: Linha & Wilkinson
! Saver's name: Rodrigo Anjos
! Comments: Teste da utilização de aquisição
continua pelo VNA HP8722D
! Time and date: 22/5/2025 12:30
!              Frequency                     S11                                                   S21                                                   S12                                                   S22
# HZ  S  MA R 50
4800000000.000000      6.516113000000000E-01      1.078857000000000E+01      4.714508000000000E-01     -9.258204000000000E+01
4801000000.000000      6.482849000000000E-01      1.087744000000000E+01      4.732056000000000E-01     -9.336329000000000E+01
4802000000.000000      6.488342000000000E-01      1.091211000000000E+01      4.741211000000000E-01     -9.387499000000000E+01
4803000000.000000      6.454468000000000E-01      1.083252000000000E+01      4.784241000000000E-01     -9.482422000000000E+01
4804000000.000000      6.441956000000000E-01      1.089941000000000E+01      4.791718000000000E-01     -9.540625000000000E+01
4805000000.000000      6.435547000000000E-01      1.069238000000000E+01      4.799652000000000E-01     -9.612499000000000E+01
4806000000.000000      6.406250000000000E-01      1.077881000000000E+01      4.823456000000000E-01     -9.703125000000000E+01
4807000000.000000      6.382141000000000E-01      1.072510000000000E+01      4.819946000000000E-01     -9.794140000000000E+01
4808000000.000000      6.364136000000000E-01      1.080615000000000E+01      4.839020000000000E-01     -9.851952000000000E+01
4809000000.000000      6.358948000000000E-01      1.091602000000000E+01      4.871063000000000E-01     -9.946093000000000E+01
4810000000.000000      6.350403000000000E-01      1.104785000000000E+01      4.885254000000000E-01     -1.001055000000000E+02
4811000000.000000      6.327515000000000E-01      1.083789000000000E+01      4.889221000000000E-01     -1.007539000000000E+02
4812000000.000000      6.317139000000000E-01      1.109326000000000E+01      4.901886000000000E-01     -1.015898000000000E+02
4813000000.000000      6.305542000000000E-01      1.103418000000000E+01      4.911957000000000E-01     -1.025508000000000E+02
4814000000.000000      6.283569000000000E-01      1.103711000000000E+01      4.920959000000000E-01     -1.030625000000000E+02
4815000000.000000      6.280823000000000E-01      1.116064000000000E+01      4.921265000000000E-01     -1.038125000000000E+02
4816000000.000000      6.264954000000000E-01      1.126367000000000E+01      4.933472000000000E-01     -1.046836000000000E+02
4817000000.000000      6.230164000000000E-01      1.137891000000000E+01      4.951324000000000E-01     -1.055898000000000E+02
4818000000.000000      6.247864000000000E-01      1.130615000000000E+01      4.937897000000000E-01     -1.062539000000000E+02
4819000000.000000      6.235352000000000E-01      1.142676000000000E+01      4.954987000000000E-01     -1.068476000000000E+02
4820000000.000000      6.203613000000000E-01      1.145703000000000E+01      4.960175000000000E-01     -1.075898000000000E+02
4821000000.000000      6.213684000000000E-01      1.159863000000000E+01      4.957428000000000E-01     -1.085586000000000E+02
4822000000.000000      6.198120000000000E-01      1.163721000000000E+01      4.973450000000000E-01     -1.091953000000000E+02
4823000000.000000      6.184387000000000E-01      1.170313000000000E+01      4.984741000000000E-01     -1.099726000000000E+02
4824000000.000000      6.174011000000000E-01      1.198047000000000E+01      4.982147000000000E-01     -1.105781000000000E+02
4825000000.000000      6.167297000000000E-01      1.205469000000000E+01      4.975586000000000E-01     -1.114687000000000E+02
4826000000.000000      6.158142000000000E-01      1.202295000000000E+01      4.982452000000000E-01     -1.124726000000000E+02
4827000000.000000      6.145630000000000E-01      1.231689000000000E+01      4.978790000000000E-01     -1.127734000000000E+02
4828000000.000000      6.166992000000000E-01      1.225244000000000E+01      5.004578000000000E-01     -1.136562000000000E+02
4829000000.000000      6.151733000000000E-01      1.262598000000000E+01      5.003052000000000E-01     -1.142930000000000E+02
4830000000.000000      6.152344000000000E-01      1.253809000000000E+01      4.989319000000000E-01     -1.154102000000000E+02
4831000000.000000      6.130676000000000E-01      1.256250000000000E+01      5.000916000000000E-01     -1.160859000000000E+02
4832000000.000000      6.137695000000000E-01      1.291260000000000E+01      4.997406000000000E-01     -1.166602000000000E+02
4833000000.000000      6.126099000000000E-01      1.274805000000000E+01      4.985962000000000E-01     -1.172812000000000E+02
4834000000.000000      6.133423000000000E-01      1.291260000000000E+01      4.985504000000000E-01     -1.182344000000000E+02
4835000000.000000      6.131287000000000E-01      1.305273000000000E+01      4.996033000000000E-01     -1.190234000000000E+02
4836000000.000000      6.135559000000000E-01      1.327832000000000E+01      4.980927000000000E-01     -1.197695000000000E+02
4837000000.000000      6.132202000000000E-01      1.340430000000000E+01      4.962311000000000E-01     -1.207851000000000E+02
4838000000.000000      6.131287000000000E-01      1.340039000000000E+01      4.975433000000000E-01     -1.211562000000000E+02
4839000000.000000      6.163940000000000E-01      1.358594000000000E+01      4.984131000000000E-01     -1.220898000000000E+02
4840000000.000000      6.163330000000000E-01      1.354883000000000E+01      4.973145000000000E-01     -1.228281000000000E+02
4841000000.000000      6.144409000000000E-01      1.375879000000000E+01      4.973297000000000E-01     -1.238477000000000E+02
4842000000.000000      6.169128000000000E-01      1.369971000000000E+01      4.956665000000000E-01     -1.243047000000000E+02
4843000000.000000      6.184387000000000E-01      1.374365000000000E+01      4.956818000000000E-01     -1.254726000000000E+02
4844000000.000000      6.188660000000000E-01      1.376855000000000E+01      4.940796000000000E-01     -1.262734000000000E+02
4845000000.000000      6.194153000000000E-01      1.419531000000000E+01      4.912262000000000E-01     -1.270234000000000E+02
4846000000.000000      6.197510000000000E-01      1.435059000000000E+01      4.918976000000000E-01     -1.281563000000000E+02
4847000000.000000      6.192017000000000E-01      1.438086000000000E+01      4.919891000000000E-01     -1.286875000000000E+02
4848000000.000000      6.205444000000000E-01      1.430420000000000E+01      4.879456000000000E-01     -1.294297000000000E+02
4849000000.000000      6.232910000000000E-01      1.432861000000000E+01      4.888916000000000E-01     -1.302500000000000E+02
4850000000.000000      6.215515000000000E-01      1.459668000000000E+01      4.861755000000000E-01     -1.312891000000000E+02
4851000000.000000      6.231689000000000E-01      1.464746000000000E+01      4.861450000000000E-01     -1.319766000000000E+02
4852000000.000000      6.232300000000000E-01      1.457568000000000E+01      4.825134000000000E-01     -1.327812000000000E+02
4853000000.000000      6.269226000000000E-01      1.455127000000000E+01      4.798737000000000E-01     -1.337578000000000E+02
4854000000.000000      6.261292000000000E-01      1.469531000000000E+01      4.781647000000000E-01     -1.346641000000000E+02
4855000000.000000      6.270142000000000E-01      1.472021000000000E+01      4.763489000000000E-01     -1.354844000000000E+02
4856000000.000000      6.282959000000000E-01      1.483545000000000E+01      4.744873000000000E-01     -1.363047000000000E+02
4857000000.000000      6.301270000000000E-01      1.494141000000000E+01      4.718933000000000E-01     -1.370078000000000E+02
4858000000.000000      6.300049000000000E-01      1.490137000000000E+01      4.691620000000000E-01     -1.380938000000000E+02
4859000000.000000      6.324768000000000E-01      1.477930000000000E+01      4.656372000000000E-01     -1.388281000000000E+02
4860000000.000000      6.319580000000000E-01      1.492627000000000E+01      4.624786000000000E-01     -1.397500000000000E+02
4861000000.000000      6.325073000000000E-01      1.490967000000000E+01      4.593811000000000E-01     -1.406719000000000E+02
4862000000.000000      6.337280000000000E-01      1.488232000000000E+01      4.556885000000000E-01     -1.414141000000000E+02
4863000000.000000      6.359863000000000E-01      1.514990000000000E+01      4.523315000000000E-01     -1.422656000000000E+02
4864000000.000000      6.360779000000000E-01      1.484375000000000E+01      4.502716000000000E-01     -1.429297000000000E+02
4865000000.000000      6.388550000000000E-01      1.498779000000000E+01      4.446411000000000E-01     -1.436875000000000E+02
4866000000.000000      6.399231000000000E-01      1.485742000000000E+01      4.426422000000000E-01     -1.446563000000000E+02
4867000000.000000      6.385498000000000E-01      1.499219000000000E+01      4.369659000000000E-01     -1.454844000000000E+02
4868000000.000000      6.429443000000000E-01      1.486719000000000E+01      4.345856000000000E-01     -1.460703000000000E+02
4869000000.000000      6.437988000000000E-01      1.492627000000000E+01      4.311371000000000E-01     -1.469844000000000E+02
4870000000.000000      6.471252000000000E-01      1.485352000000000E+01      4.257660000000000E-01     -1.477422000000000E+02
4871000000.000000      6.461792000000000E-01      1.464063000000000E+01      4.218140000000000E-01     -1.484609000000000E+02
4872000000.000000      6.496582000000000E-01      1.470752000000000E+01      4.160004000000000E-01     -1.490469000000000E+02
4873000000.000000      6.497803000000000E-01      1.458838000000000E+01      4.124756000000000E-01     -1.500547000000000E+02
4874000000.000000      6.493225000000000E-01      1.484375000000000E+01      4.089661000000000E-01     -1.505469000000000E+02
4875000000.000000      6.505432000000000E-01      1.469141000000000E+01      4.037933000000000E-01     -1.512422000000000E+02
4876000000.000000      6.525879000000000E-01      1.476416000000000E+01      4.010468000000000E-01     -1.519219000000000E+02
4877000000.000000      6.547546000000000E-01      1.429297000000000E+01      3.964539000000000E-01     -1.524375000000000E+02
4878000000.000000      6.540527000000000E-01      1.452100000000000E+01      3.917236000000000E-01     -1.532109000000000E+02
4879000000.000000      6.575012000000000E-01      1.461572000000000E+01      3.861694000000000E-01     -1.534688000000000E+02
4880000000.000000      6.569824000000000E-01      1.439746000000000E+01      3.833313000000000E-01     -1.544297000000000E+02
4881000000.000000      6.589050000000000E-01      1.445215000000000E+01      3.779907000000000E-01     -1.549141000000000E+02
4882000000.000000      6.604919000000000E-01      1.443604000000000E+01      3.740540000000000E-01     -1.554922000000000E+02
4883000000.000000      6.593018000000000E-01      1.425195000000000E+01      3.690186000000000E-01     -1.558594000000000E+02
4884000000.000000      6.628723000000000E-01      1.417334000000000E+01      3.641968000000000E-01     -1.564141000000000E+02
4885000000.000000      6.627502000000000E-01      1.402539000000000E+01      3.599091000000000E-01     -1.566953000000000E+02
4886000000.000000      6.661072000000000E-01      1.406104000000000E+01      3.554688000000000E-01     -1.572266000000000E+02
4887000000.000000      6.665039000000000E-01      1.408838000000000E+01      3.524933000000000E-01     -1.579141000000000E+02
4888000000.000000      6.680298000000000E-01      1.397559000000000E+01      3.492126000000000E-01     -1.585078000000000E+02
4889000000.000000      6.677856000000000E-01      1.383838000000000E+01      3.431702000000000E-01     -1.590000000000000E+02
4890000000.000000      6.672974000000000E-01      1.369678000000000E+01      3.389282000000000E-01     -1.595625000000000E+02
4891000000.000000      6.695862000000000E-01      1.379980000000000E+01      3.348846000000000E-01     -1.597812000000000E+02
4892000000.000000      6.704407000000000E-01      1.366406000000000E+01      3.308563000000000E-01     -1.601328000000000E+02
4893000000.000000      6.726379000000000E-01      1.339600000000000E+01      3.270111000000000E-01     -1.606641000000000E+02
4894000000.000000      6.730652000000000E-01      1.337012000000000E+01      3.226471000000000E-01     -1.609141000000000E+02
4895000000.000000      6.720886000000000E-01      1.327393000000000E+01      3.208008000000000E-01     -1.614063000000000E+02
4896000000.000000      6.752930000000000E-01      1.318066000000000E+01      3.158569000000000E-01     -1.617734000000000E+02
4897000000.000000      6.745300000000000E-01      1.315869000000000E+01      3.120270000000000E-01     -1.622266000000000E+02
4898000000.000000      6.773682000000000E-01      1.315869000000000E+01      3.081512000000000E-01     -1.625078000000000E+02
4899000000.000000      6.769714000000000E-01      1.303662000000000E+01      3.046265000000000E-01     -1.629141000000000E+02
4900000000.000000      6.777954000000000E-01      1.294434000000000E+01      3.008728000000000E-01     -1.631719000000000E+02
4901000000.000000      6.795044000000000E-01      1.287305000000000E+01      2.974854000000000E-01     -1.634219000000000E+02
4902000000.000000      6.783142000000000E-01      1.265186000000000E+01      2.943420000000000E-01     -1.638828000000000E+02
4903000000.000000      6.796875000000000E-01      1.259424000000000E+01      2.891083000000000E-01     -1.641953000000000E+02
4904000000.000000      6.819763000000000E-01      1.254199000000000E+01      2.863007000000000E-01     -1.646563000000000E+02
4905000000.000000      6.852722000000000E-01      1.246631000000000E+01      2.834015000000000E-01     -1.649297000000000E+02
4906000000.000000      6.835632000000000E-01      1.221924000000000E+01      2.795105000000000E-01     -1.650703000000000E+02
4907000000.000000      6.845093000000000E-01      1.214502000000000E+01      2.769470000000000E-01     -1.655313000000000E+02
4908000000.000000      6.836243000000000E-01      1.206299000000000E+01      2.726135000000000E-01     -1.660312000000000E+02
4909000000.000000      6.841736000000000E-01      1.198877000000000E+01      2.690582000000000E-01     -1.663359000000000E+02
4910000000.000000      6.844177000000000E-01      1.190479000000000E+01      2.651825000000000E-01     -1.664375000000000E+02
4911000000.000000      6.862793000000000E-01      1.198730000000000E+01      2.621765000000000E-01     -1.667734000000000E+02
4912000000.000000      6.874695000000000E-01      1.168213000000000E+01      2.591705000000000E-01     -1.670391000000000E+02
4913000000.000000      6.873779000000000E-01      1.160938000000000E+01      2.556915000000000E-01     -1.675469000000000E+02
4914000000.000000      6.877441000000000E-01      1.138281000000000E+01      2.513885000000000E-01     -1.676563000000000E+02
4915000000.000000      6.885986000000000E-01      1.147510000000000E+01      2.481537000000000E-01     -1.680078000000000E+02
4916000000.000000      6.892700000000000E-01      1.116309000000000E+01      2.446976000000000E-01     -1.683516000000000E+02
4917000000.000000      6.896057000000000E-01      1.118652000000000E+01      2.408524000000000E-01     -1.683984000000000E+02
4918000000.000000      6.906128000000000E-01      1.105078000000000E+01      2.364502000000000E-01     -1.688750000000000E+02
4919000000.000000      6.893005000000000E-01      1.094482000000000E+01      2.337723000000000E-01     -1.690625000000000E+02
4920000000.000000      6.917419000000000E-01      1.085986000000000E+01      2.298813000000000E-01     -1.694687000000000E+02
4921000000.000000      6.911316000000000E-01      1.086230000000000E+01      2.273560000000000E-01     -1.695859000000000E+02
4922000000.000000      6.929016000000000E-01      1.060010000000000E+01      2.224960000000000E-01     -1.695781000000000E+02
4923000000.000000      6.924133000000000E-01      1.050537000000000E+01      2.186432000000000E-01     -1.698125000000000E+02
4924000000.000000      6.936340000000000E-01      1.046289000000000E+01      2.150955000000000E-01     -1.701094000000000E+02
4925000000.000000      6.936035000000000E-01      1.050391000000000E+01      2.117004000000000E-01     -1.702031000000000E+02
4926000000.000000      6.924438000000000E-01      1.029248000000000E+01      2.080078000000000E-01     -1.703906000000000E+02
4927000000.000000      6.944275000000000E-01      1.024854000000000E+01      2.039795000000000E-01     -1.705000000000000E+02
4928000000.000000      6.951904000000000E-01      1.003711000000000E+01      1.999588000000000E-01     -1.706953000000000E+02
4929000000.000000      6.946716000000000E-01      9.945313000000000E+00      1.962204000000000E-01     -1.707344000000000E+02
4930000000.000000      6.956177000000000E-01      9.916504000000000E+00      1.930466000000000E-01     -1.707344000000000E+02
4931000000.000000      6.961060000000000E-01      9.754395000000000E+00      1.890106000000000E-01     -1.708281000000000E+02
4932000000.000000      6.963806000000000E-01      9.702148000000000E+00      1.851349000000000E-01     -1.708828000000000E+02
4933000000.000000      6.984253000000000E-01      9.652832000000000E+00      1.807938000000000E-01     -1.704531000000000E+02
4934000000.000000      7.006836000000000E-01      9.492188000000000E+00      1.777191000000000E-01     -1.707031000000000E+02
4935000000.000000      7.004700000000000E-01      9.443848000000000E+00      1.745224000000000E-01     -1.705000000000000E+02
4936000000.000000      6.983032000000000E-01      9.411133000000000E+00      1.706085000000000E-01     -1.702812000000000E+02
4937000000.000000      6.985779000000000E-01      9.042969000000000E+00      1.664581000000000E-01     -1.701172000000000E+02
4938000000.000000      6.997070000000000E-01      9.073242000000000E+00      1.625519000000000E-01     -1.697187000000000E+02
4939000000.000000      6.982422000000000E-01      9.023438000000000E+00      1.590958000000000E-01     -1.693906000000000E+02
4940000000.000000      6.988220000000000E-01      8.989258000000000E+00      1.554489000000000E-01     -1.692812000000000E+02
4941000000.000000      7.002869000000000E-01      8.828613000000000E+00      1.520767000000000E-01     -1.684609000000000E+02
4942000000.000000      7.002258000000000E-01      8.786133000000000E+00      1.481552000000000E-01     -1.682422000000000E+02
4943000000.000000      7.010498000000000E-01      8.798340000000000E+00      1.452484000000000E-01     -1.677187000000000E+02
4944000000.000000      7.012939000000000E-01      8.445313000000000E+00      1.417770000000000E-01     -1.670547000000000E+02
4945000000.000000      7.020264000000000E-01      8.518066000000000E+00      1.378479000000000E-01     -1.663359000000000E+02
4946000000.000000      7.036133000000000E-01      8.277832000000000E+00      1.346207000000000E-01     -1.656719000000000E+02
4947000000.000000      7.026062000000000E-01      8.408203000000000E+00      1.315155000000000E-01     -1.648047000000000E+02
4948000000.000000      7.056274000000000E-01      8.144531000000000E+00      1.290207000000000E-01     -1.638359000000000E+02
4949000000.000000      7.047729000000000E-01      8.202637000000000E+00      1.262512000000000E-01     -1.627734000000000E+02
4950000000.000000      7.048645000000000E-01      8.206543000000000E+00      1.232872000000000E-01     -1.616641000000000E+02
4951000000.000000      7.061462000000000E-01      8.030762000000000E+00      1.208496000000000E-01     -1.603984000000000E+02
4952000000.000000      7.055969000000000E-01      7.712402000000000E+00      1.182327000000000E-01     -1.594609000000000E+02
4953000000.000000      7.075500000000000E-01      7.818115000000000E+00      1.161156000000000E-01     -1.577578000000000E+02
4954000000.000000      7.065125000000000E-01      7.596924000000000E+00      1.136131000000000E-01     -1.564922000000000E+02
