! Network Analyzer HP8722D
! Hewlett-Packard
! Data name: Linha & Wilkinson
! Saver's name: Rodrigo Anjos
! Comments: Teste da utilização de aquisição
continua pelo VNA HP8722D
! Time and date: 22/5/2025 08:34
!              Frequency                     S11                                                   S21                                                   S12                                                   S22
# HZ  S  MA R 50
4800000000.000000      6.457214000000000E-01      1.028711000000000E+01      4.742126000000000E-01     -9.363672000000000E+01
4801000000.000000      6.450806000000000E-01      1.048486000000000E+01      4.771423000000000E-01     -9.445704000000000E+01
4802000000.000000      6.431580000000000E-01      1.039014000000000E+01      4.776001000000000E-01     -9.512110000000000E+01
4803000000.000000      6.427307000000000E-01      1.027490000000000E+01      4.801025000000000E-01     -9.593359000000000E+01
4804000000.000000      6.405945000000000E-01      1.018701000000000E+01      4.831543000000000E-01     -9.665234000000000E+01
4805000000.000000      6.400146000000000E-01      1.023779000000000E+01      4.846954000000000E-01     -9.753124000000000E+01
4806000000.000000      6.374207000000000E-01      1.018555000000000E+01      4.842987000000000E-01     -9.826952000000000E+01
4807000000.000000      6.361389000000000E-01      1.025977000000000E+01      4.869690000000000E-01     -9.922264000000000E+01
4808000000.000000      6.319580000000000E-01      1.033398000000000E+01      4.886932000000000E-01     -9.975389000000000E+01
4809000000.000000      6.319580000000000E-01      1.050293000000000E+01      4.888916000000000E-01     -1.006758000000000E+02
4810000000.000000      6.299744000000000E-01      1.038867000000000E+01      4.889221000000000E-01     -1.012187000000000E+02
4811000000.000000      6.297607000000000E-01      1.050977000000000E+01      4.924622000000000E-01     -1.022305000000000E+02
4812000000.000000      6.299438000000000E-01      1.057666000000000E+01      4.925385000000000E-01     -1.027148000000000E+02
4813000000.000000      6.271973000000000E-01      1.057129000000000E+01      4.926758000000000E-01     -1.035039000000000E+02
4814000000.000000      6.244507000000000E-01      1.049170000000000E+01      4.945221000000000E-01     -1.042266000000000E+02
4815000000.000000      6.242065000000000E-01      1.080322000000000E+01      4.958954000000000E-01     -1.050039000000000E+02
4816000000.000000      6.212463000000000E-01      1.072949000000000E+01      4.968262000000000E-01     -1.058633000000000E+02
4817000000.000000      6.219482000000000E-01      1.091064000000000E+01      4.951172000000000E-01     -1.066055000000000E+02
4818000000.000000      6.199646000000000E-01      1.085449000000000E+01      4.969635000000000E-01     -1.074922000000000E+02
4819000000.000000      6.211243000000000E-01      1.105225000000000E+01      4.978485000000000E-01     -1.081289000000000E+02
4820000000.000000      6.180115000000000E-01      1.117676000000000E+01      4.980316000000000E-01     -1.087461000000000E+02
4821000000.000000      6.186829000000000E-01      1.111914000000000E+01      4.984894000000000E-01     -1.096367000000000E+02
4822000000.000000      6.156921000000000E-01      1.120313000000000E+01      4.982300000000000E-01     -1.101992000000000E+02
4823000000.000000      6.158752000000000E-01      1.127979000000000E+01      5.025940000000000E-01     -1.111172000000000E+02
4824000000.000000      6.142883000000000E-01      1.135400000000000E+01      4.998627000000000E-01     -1.118633000000000E+02
4825000000.000000      6.140747000000000E-01      1.157227000000000E+01      5.002441000000000E-01     -1.125742000000000E+02
4826000000.000000      6.137695000000000E-01      1.145850000000000E+01      5.003052000000000E-01     -1.134023000000000E+02
4827000000.000000      6.124268000000000E-01      1.179102000000000E+01      4.984436000000000E-01     -1.141719000000000E+02
4828000000.000000      6.136169000000000E-01      1.202686000000000E+01      5.010986000000000E-01     -1.148828000000000E+02
4829000000.000000      6.137085000000000E-01      1.210693000000000E+01      5.003052000000000E-01     -1.157148000000000E+02
4830000000.000000      6.116943000000000E-01      1.214648000000000E+01      5.000000000000000E-01     -1.164375000000000E+02
4831000000.000000      6.128235000000000E-01      1.219482000000000E+01      4.993896000000000E-01     -1.171875000000000E+02
4832000000.000000      6.109619000000000E-01      1.241992000000000E+01      5.004883000000000E-01     -1.178594000000000E+02
4833000000.000000      6.110840000000000E-01      1.232666000000000E+01      4.986115000000000E-01     -1.184922000000000E+02
4834000000.000000      6.106262000000000E-01      1.253125000000000E+01      4.996338000000000E-01     -1.194844000000000E+02
4835000000.000000      6.108398000000000E-01      1.268750000000000E+01      5.009766000000000E-01     -1.202187000000000E+02
4836000000.000000      6.122131000000000E-01      1.278906000000000E+01      4.978638000000000E-01     -1.210430000000000E+02
4837000000.000000      6.111755000000000E-01      1.295117000000000E+01      4.975891000000000E-01     -1.218789000000000E+02
4838000000.000000      6.119690000000000E-01      1.311328000000000E+01      4.975281000000000E-01     -1.224492000000000E+02
4839000000.000000      6.152039000000000E-01      1.323682000000000E+01      4.972839000000000E-01     -1.233047000000000E+02
4840000000.000000      6.147156000000000E-01      1.307617000000000E+01      4.980774000000000E-01     -1.241640000000000E+02
4841000000.000000      6.143799000000000E-01      1.356641000000000E+01      4.968109000000000E-01     -1.249805000000000E+02
4842000000.000000      6.148071000000000E-01      1.339355000000000E+01      4.962769000000000E-01     -1.257344000000000E+02
4843000000.000000      6.169434000000000E-01      1.329736000000000E+01      4.953766000000000E-01     -1.266289000000000E+02
4844000000.000000      6.152344000000000E-01      1.336865000000000E+01      4.935150000000000E-01     -1.276445000000000E+02
4845000000.000000      6.166687000000000E-01      1.372852000000000E+01      4.928436000000000E-01     -1.284141000000000E+02
4846000000.000000      6.169739000000000E-01      1.384668000000000E+01      4.913177000000000E-01     -1.290078000000000E+02
4847000000.000000      6.204224000000000E-01      1.387012000000000E+01      4.892426000000000E-01     -1.296719000000000E+02
4848000000.000000      6.186218000000000E-01      1.389453000000000E+01      4.880371000000000E-01     -1.308516000000000E+02
4849000000.000000      6.202393000000000E-01      1.386572000000000E+01      4.871521000000000E-01     -1.314687000000000E+02
4850000000.000000      6.207886000000000E-01      1.407715000000000E+01      4.850616000000000E-01     -1.323516000000000E+02
4851000000.000000      6.223755000000000E-01      1.419971000000000E+01      4.828949000000000E-01     -1.332578000000000E+02
4852000000.000000      6.234436000000000E-01      1.406787000000000E+01      4.811249000000000E-01     -1.340703000000000E+02
4853000000.000000      6.249390000000000E-01      1.420361000000000E+01      4.776459000000000E-01     -1.348594000000000E+02
4854000000.000000      6.245422000000000E-01      1.416113000000000E+01      4.757996000000000E-01     -1.358672000000000E+02
4855000000.000000      6.257019000000000E-01      1.428906000000000E+01      4.731293000000000E-01     -1.365703000000000E+02
4856000000.000000      6.263428000000000E-01      1.415430000000000E+01      4.714508000000000E-01     -1.375234000000000E+02
4857000000.000000      6.277771000000000E-01      1.436182000000000E+01      4.693604000000000E-01     -1.384297000000000E+02
4858000000.000000      6.301575000000000E-01      1.434082000000000E+01      4.662628000000000E-01     -1.392344000000000E+02
4859000000.000000      6.305542000000000E-01      1.417090000000000E+01      4.631042000000000E-01     -1.400469000000000E+02
4860000000.000000      6.323853000000000E-01      1.443164000000000E+01      4.600525000000000E-01     -1.407656000000000E+02
4861000000.000000      6.330566000000000E-01      1.439307000000000E+01      4.573975000000000E-01     -1.419062000000000E+02
4862000000.000000      6.323853000000000E-01      1.428760000000000E+01      4.540100000000000E-01     -1.424844000000000E+02
4863000000.000000      6.347656000000000E-01      1.448535000000000E+01      4.490814000000000E-01     -1.432891000000000E+02
4864000000.000000      6.369934000000000E-01      1.427246000000000E+01      4.466248000000000E-01     -1.441641000000000E+02
4865000000.000000      6.370544000000000E-01      1.439453000000000E+01      4.419861000000000E-01     -1.448125000000000E+02
4866000000.000000      6.389465000000000E-01      1.432617000000000E+01      4.395142000000000E-01     -1.458437000000000E+02
4867000000.000000      6.386414000000000E-01      1.439746000000000E+01      4.346466000000000E-01     -1.465625000000000E+02
4868000000.000000      6.410217000000000E-01      1.433838000000000E+01      4.306488000000000E-01     -1.471641000000000E+02
4869000000.000000      6.423035000000000E-01      1.406787000000000E+01      4.273834000000000E-01     -1.481562000000000E+02
4870000000.000000      6.447754000000000E-01      1.420801000000000E+01      4.235840000000000E-01     -1.485625000000000E+02
4871000000.000000      6.445923000000000E-01      1.425879000000000E+01      4.189758000000000E-01     -1.495312000000000E+02
4872000000.000000      6.474609000000000E-01      1.420898000000000E+01      4.131165000000000E-01     -1.499922000000000E+02
4873000000.000000      6.479492000000000E-01      1.423682000000000E+01      4.096375000000000E-01     -1.507422000000000E+02
4874000000.000000      6.495361000000000E-01      1.416504000000000E+01      4.045105000000000E-01     -1.515859000000000E+02
4875000000.000000      6.511230000000000E-01      1.393311000000000E+01      4.011688000000000E-01     -1.520859000000000E+02
4876000000.000000      6.512451000000000E-01      1.413623000000000E+01      3.976288000000000E-01     -1.527969000000000E+02
4877000000.000000      6.549683000000000E-01      1.401270000000000E+01      3.928070000000000E-01     -1.534688000000000E+02
4878000000.000000      6.522827000000000E-01      1.397314000000000E+01      3.876038000000000E-01     -1.540469000000000E+02
4879000000.000000      6.569519000000000E-01      1.385498000000000E+01      3.831024000000000E-01     -1.545547000000000E+02
4880000000.000000      6.582947000000000E-01      1.380664000000000E+01      3.792572000000000E-01     -1.552031000000000E+02
4881000000.000000      6.561584000000000E-01      1.395947000000000E+01      3.738556000000000E-01     -1.557266000000000E+02
4882000000.000000      6.596069000000000E-01      1.374512000000000E+01      3.712311000000000E-01     -1.563828000000000E+02
4883000000.000000      6.621704000000000E-01      1.371191000000000E+01      3.660583000000000E-01     -1.569844000000000E+02
4884000000.000000      6.635132000000000E-01      1.356787000000000E+01      3.616638000000000E-01     -1.573828000000000E+02
4885000000.000000      6.629333000000000E-01      1.351172000000000E+01      3.562622000000000E-01     -1.576797000000000E+02
4886000000.000000      6.655579000000000E-01      1.362305000000000E+01      3.525543000000000E-01     -1.582422000000000E+02
4887000000.000000      6.638794000000000E-01      1.344580000000000E+01      3.487244000000000E-01     -1.588125000000000E+02
4888000000.000000      6.675110000000000E-01      1.320264000000000E+01      3.441925000000000E-01     -1.591406000000000E+02
4889000000.000000      6.675110000000000E-01      1.316846000000000E+01      3.398438000000000E-01     -1.595234000000000E+02
4890000000.000000      6.685791000000000E-01      1.306787000000000E+01      3.353729000000000E-01     -1.602969000000000E+02
4891000000.000000      6.704712000000000E-01      1.314648000000000E+01      3.323669000000000E-01     -1.604687000000000E+02
4892000000.000000      6.703796000000000E-01      1.306641000000000E+01      3.282318000000000E-01     -1.608672000000000E+02
4893000000.000000      6.726685000000000E-01      1.302686000000000E+01      3.234100000000000E-01     -1.613984000000000E+02
4894000000.000000      6.718445000000000E-01      1.286182000000000E+01      3.185272000000000E-01     -1.616797000000000E+02
4895000000.000000      6.756897000000000E-01      1.249951000000000E+01      3.163757000000000E-01     -1.619922000000000E+02
4896000000.000000      6.748047000000000E-01      1.258447000000000E+01      3.134918000000000E-01     -1.623750000000000E+02
4897000000.000000      6.783752000000000E-01      1.246094000000000E+01      3.091125000000000E-01     -1.628594000000000E+02
4898000000.000000      6.772766000000000E-01      1.260400000000000E+01      3.056641000000000E-01     -1.629688000000000E+02
4899000000.000000      6.787415000000000E-01      1.231006000000000E+01      3.012085000000000E-01     -1.636406000000000E+02
4900000000.000000      6.793823000000000E-01      1.203369000000000E+01      2.975922000000000E-01     -1.637969000000000E+02
4901000000.000000      6.785889000000000E-01      1.223047000000000E+01      2.939606000000000E-01     -1.642187000000000E+02
4902000000.000000      6.792908000000000E-01      1.212305000000000E+01      2.911682000000000E-01     -1.644219000000000E+02
4903000000.000000      6.823120000000000E-01      1.209180000000000E+01      2.861938000000000E-01     -1.648359000000000E+02
4904000000.000000      6.785889000000000E-01      1.187744000000000E+01      2.830353000000000E-01     -1.651641000000000E+02
4905000000.000000      6.835022000000000E-01      1.177295000000000E+01      2.797241000000000E-01     -1.654922000000000E+02
4906000000.000000      6.819458000000000E-01      1.148877000000000E+01      2.764435000000000E-01     -1.655703000000000E+02
4907000000.000000      6.827698000000000E-01      1.164404000000000E+01      2.731476000000000E-01     -1.660156000000000E+02
4908000000.000000      6.849365000000000E-01      1.141992000000000E+01      2.698975000000000E-01     -1.664141000000000E+02
4909000000.000000      6.840210000000000E-01      1.140088000000000E+01      2.658539000000000E-01     -1.667422000000000E+02
4910000000.000000      6.822510000000000E-01      1.119775000000000E+01      2.628021000000000E-01     -1.669141000000000E+02
4911000000.000000      6.871948000000000E-01      1.131982000000000E+01      2.592316000000000E-01     -1.672422000000000E+02
4912000000.000000      6.866150000000000E-01      1.112061000000000E+01      2.550507000000000E-01     -1.677109000000000E+02
4913000000.000000      6.861572000000000E-01      1.083643000000000E+01      2.526398000000000E-01     -1.679141000000000E+02
4914000000.000000      6.876221000000000E-01      1.079932000000000E+01      2.489548000000000E-01     -1.680391000000000E+02
4915000000.000000      6.870422000000000E-01      1.076367000000000E+01      2.450333000000000E-01     -1.685547000000000E+02
4916000000.000000      6.884766000000000E-01      1.078857000000000E+01      2.413025000000000E-01     -1.689141000000000E+02
4917000000.000000      6.883240000000000E-01      1.053418000000000E+01      2.379761000000000E-01     -1.688516000000000E+02
4918000000.000000      6.890564000000000E-01      1.056445000000000E+01      2.335815000000000E-01     -1.692422000000000E+02
4919000000.000000      6.899719000000000E-01      1.037207000000000E+01      2.307968000000000E-01     -1.692422000000000E+02
4920000000.000000      6.900330000000000E-01      1.019531000000000E+01      2.264938000000000E-01     -1.698594000000000E+02
4921000000.000000      6.907349000000000E-01      1.026807000000000E+01      2.235107000000000E-01     -1.698984000000000E+02
4922000000.000000      6.894531000000000E-01      9.886230000000000E+00      2.194824000000000E-01     -1.700156000000000E+02
4923000000.000000      6.904297000000000E-01      1.000537000000000E+01      2.159271000000000E-01     -1.699844000000000E+02
4924000000.000000      6.914368000000000E-01      1.001807000000000E+01      2.115860000000000E-01     -1.704375000000000E+02
4925000000.000000      6.918640000000000E-01      9.788574000000000E+00      2.082825000000000E-01     -1.704687000000000E+02
4926000000.000000      6.946106000000000E-01      9.774902000000000E+00      2.048798000000000E-01     -1.706797000000000E+02
4927000000.000000      6.922607000000000E-01      9.587891000000000E+00      2.005768000000000E-01     -1.706875000000000E+02
4928000000.000000      6.926270000000000E-01      9.449219000000000E+00      1.975174000000000E-01     -1.708984000000000E+02
4929000000.000000      6.932678000000000E-01      9.288574000000000E+00      1.929626000000000E-01     -1.707109000000000E+02
4930000000.000000      6.952820000000000E-01      9.375000000000000E+00      1.898880000000000E-01     -1.708281000000000E+02
4931000000.000000      6.943665000000000E-01      9.192383000000000E+00      1.863937000000000E-01     -1.708047000000000E+02
4932000000.000000      6.964111000000000E-01      9.141602000000000E+00      1.819611000000000E-01     -1.706953000000000E+02
4933000000.000000      6.957397000000000E-01      9.051270000000000E+00      1.774826000000000E-01     -1.703047000000000E+02
4934000000.000000      6.989441000000000E-01      8.931641000000000E+00      1.744156000000000E-01     -1.705234000000000E+02
4935000000.000000      6.991882000000000E-01      8.905762000000000E+00      1.710205000000000E-01     -1.702891000000000E+02
4936000000.000000      6.960449000000000E-01      8.740723000000000E+00      1.671066000000000E-01     -1.700859000000000E+02
4937000000.000000      6.990967000000000E-01      8.573242000000000E+00      1.640701000000000E-01     -1.699062000000000E+02
4938000000.000000      6.966248000000000E-01      8.669434000000000E+00      1.600113000000000E-01     -1.694766000000000E+02
4939000000.000000      6.997070000000000E-01      8.510254000000000E+00      1.565094000000000E-01     -1.690312000000000E+02
4940000000.000000      6.994019000000000E-01      8.361816000000000E+00      1.526871000000000E-01     -1.688203000000000E+02
4941000000.000000      6.997986000000000E-01      8.228516000000000E+00      1.493912000000000E-01     -1.681250000000000E+02
4942000000.000000      6.986084000000000E-01      8.214844000000000E+00      1.459503000000000E-01     -1.678281000000000E+02
4943000000.000000      7.017212000000000E-01      8.014160000000000E+00      1.425323000000000E-01     -1.670312000000000E+02
4944000000.000000      7.004089000000000E-01      7.936035000000000E+00      1.395111000000000E-01     -1.664609000000000E+02
4945000000.000000      7.020264000000000E-01      7.893555000000000E+00      1.361084000000000E-01     -1.654844000000000E+02
4946000000.000000      7.032166000000000E-01      7.775391000000000E+00      1.331635000000000E-01     -1.647656000000000E+02
4947000000.000000      7.026367000000000E-01      7.558594000000000E+00      1.297684000000000E-01     -1.639453000000000E+02
4948000000.000000      7.041321000000000E-01      7.525635000000000E+00      1.271973000000000E-01     -1.627344000000000E+02
4949000000.000000      7.025452000000000E-01      7.368896000000000E+00      1.247559000000000E-01     -1.618047000000000E+02
4950000000.000000      7.053528000000000E-01      7.416992000000000E+00      1.221046000000000E-01     -1.605859000000000E+02
4951000000.000000      7.049255000000000E-01      7.268799000000000E+00      1.194420000000000E-01     -1.596328000000000E+02
4952000000.000000      7.032166000000000E-01      7.120361000000000E+00      1.170807000000000E-01     -1.581719000000000E+02
4953000000.000000      7.057800000000000E-01      6.877441000000000E+00      1.152115000000000E-01     -1.565078000000000E+02
4954000000.000000      7.059326000000000E-01      6.893799000000000E+00      1.134109000000000E-01     -1.552187000000000E+02
