! Network Analyzer HP8722D
! Hewlett-Packard
! Data name: Linha & Wilkinson
! Saver's name: Rodrigo Anjos
! Comments: Teste da utilização de aquisição
continua pelo VNA HP8722D
! Time and date: 22/5/2025 07:29
!              Frequency                     S11                                                   S21                                                   S12                                                   S22
# HZ  S  MA R 50
4800000000.000000      6.448059000000000E-01      1.052051000000000E+01      4.720459000000000E-01     -9.381250000000000E+01
4801000000.000000      6.426086000000000E-01      1.061523000000000E+01      4.734344000000000E-01     -9.455858000000000E+01
4802000000.000000      6.411438000000000E-01      1.056738000000000E+01      4.752045000000000E-01     -9.503515000000000E+01
4803000000.000000      6.378479000000000E-01      1.051074000000000E+01      4.794006000000000E-01     -9.572657000000000E+01
4804000000.000000      6.358948000000000E-01      1.044482000000000E+01      4.803467000000000E-01     -9.660156000000000E+01
4805000000.000000      6.386414000000000E-01      1.043945000000000E+01      4.815521000000000E-01     -9.755077000000000E+01
4806000000.000000      6.341248000000000E-01      1.050830000000000E+01      4.819031000000000E-01     -9.824608000000000E+01
4807000000.000000      6.307678000000000E-01      1.041211000000000E+01      4.824524000000000E-01     -9.904297000000000E+01
4808000000.000000      6.292419000000000E-01      1.053955000000000E+01      4.865417000000000E-01     -9.975780000000000E+01
4809000000.000000      6.284180000000000E-01      1.080615000000000E+01      4.859314000000000E-01     -1.007305000000000E+02
4810000000.000000      6.286011000000000E-01      1.068408000000000E+01      4.895630000000000E-01     -1.011172000000000E+02
4811000000.000000      6.272888000000000E-01      1.062500000000000E+01      4.898071000000000E-01     -1.021601000000000E+02
4812000000.000000      6.270447000000000E-01      1.096289000000000E+01      4.909363000000000E-01     -1.028398000000000E+02
4813000000.000000      6.241455000000000E-01      1.084473000000000E+01      4.917145000000000E-01     -1.036172000000000E+02
4814000000.000000      6.223755000000000E-01      1.080078000000000E+01      4.934387000000000E-01     -1.041836000000000E+02
4815000000.000000      6.214600000000000E-01      1.077051000000000E+01      4.933014000000000E-01     -1.050820000000000E+02
4816000000.000000      6.209106000000000E-01      1.103809000000000E+01      4.945984000000000E-01     -1.056836000000000E+02
4817000000.000000      6.199951000000000E-01      1.117578000000000E+01      4.945374000000000E-01     -1.065937000000000E+02
4818000000.000000      6.174622000000000E-01      1.111230000000000E+01      4.953461000000000E-01     -1.073203000000000E+02
4819000000.000000      6.162109000000000E-01      1.131592000000000E+01      4.949036000000000E-01     -1.081094000000000E+02
4820000000.000000      6.141052000000000E-01      1.132520000000000E+01      4.961395000000000E-01     -1.087578000000000E+02
4821000000.000000      6.150513000000000E-01      1.153418000000000E+01      4.973450000000000E-01     -1.098008000000000E+02
4822000000.000000      6.126404000000000E-01      1.137891000000000E+01      4.946899000000000E-01     -1.101797000000000E+02
4823000000.000000      6.130676000000000E-01      1.146973000000000E+01      4.968109000000000E-01     -1.111406000000000E+02
4824000000.000000      6.107788000000000E-01      1.176221000000000E+01      4.975281000000000E-01     -1.118047000000000E+02
4825000000.000000      6.126709000000000E-01      1.179785000000000E+01      4.965515000000000E-01     -1.124805000000000E+02
4826000000.000000      6.109619000000000E-01      1.165918000000000E+01      4.982758000000000E-01     -1.135586000000000E+02
4827000000.000000      6.105957000000000E-01      1.199561000000000E+01      4.976959000000000E-01     -1.140977000000000E+02
4828000000.000000      6.110535000000000E-01      1.209570000000000E+01      4.980164000000000E-01     -1.147422000000000E+02
4829000000.000000      6.119690000000000E-01      1.246240000000000E+01      4.990692000000000E-01     -1.154492000000000E+02
4830000000.000000      6.113892000000000E-01      1.235791000000000E+01      4.978485000000000E-01     -1.165039000000000E+02
4831000000.000000      6.094055000000000E-01      1.239941000000000E+01      4.979401000000000E-01     -1.171406000000000E+02
4832000000.000000      6.105042000000000E-01      1.266846000000000E+01      4.977112000000000E-01     -1.178359000000000E+02
4833000000.000000      6.076050000000000E-01      1.256250000000000E+01      4.977722000000000E-01     -1.185195000000000E+02
4834000000.000000      6.076660000000000E-01      1.269434000000000E+01      4.972992000000000E-01     -1.193750000000000E+02
4835000000.000000      6.088257000000000E-01      1.291699000000000E+01      4.989014000000000E-01     -1.201953000000000E+02
4836000000.000000      6.091309000000000E-01      1.314893000000000E+01      4.961090000000000E-01     -1.209375000000000E+02
4837000000.000000      6.103821000000000E-01      1.318750000000000E+01      4.953003000000000E-01     -1.219844000000000E+02
4838000000.000000      6.085510000000000E-01      1.328223000000000E+01      4.963226000000000E-01     -1.223359000000000E+02
4839000000.000000      6.109924000000000E-01      1.339355000000000E+01      4.949036000000000E-01     -1.233476000000000E+02
4840000000.000000      6.114807000000000E-01      1.331250000000000E+01      4.951172000000000E-01     -1.239648000000000E+02
4841000000.000000      6.104126000000000E-01      1.355957000000000E+01      4.943085000000000E-01     -1.249023000000000E+02
4842000000.000000      6.111450000000000E-01      1.349512000000000E+01      4.940491000000000E-01     -1.255937000000000E+02
4843000000.000000      6.166077000000000E-01      1.375879000000000E+01      4.931793000000000E-01     -1.266797000000000E+02
4844000000.000000      6.130981000000000E-01      1.364893000000000E+01      4.903412000000000E-01     -1.273047000000000E+02
4845000000.000000      6.150818000000000E-01      1.386035000000000E+01      4.904938000000000E-01     -1.280703000000000E+02
4846000000.000000      6.138000000000000E-01      1.388525000000000E+01      4.892273000000000E-01     -1.292500000000000E+02
4847000000.000000      6.158752000000000E-01      1.404297000000000E+01      4.886322000000000E-01     -1.297578000000000E+02
4848000000.000000      6.154785000000000E-01      1.411572000000000E+01      4.844971000000000E-01     -1.305938000000000E+02
4849000000.000000      6.182861000000000E-01      1.411182000000000E+01      4.845581000000000E-01     -1.313906000000000E+02
4850000000.000000      6.192932000000000E-01      1.393994000000000E+01      4.823303000000000E-01     -1.324141000000000E+02
4851000000.000000      6.187134000000000E-01      1.443994000000000E+01      4.813385000000000E-01     -1.332969000000000E+02
4852000000.000000      6.204529000000000E-01      1.458984000000000E+01      4.796600000000000E-01     -1.341797000000000E+02
4853000000.000000      6.220703000000000E-01      1.438916000000000E+01      4.754791000000000E-01     -1.350703000000000E+02
4854000000.000000      6.210938000000000E-01      1.450293000000000E+01      4.738007000000000E-01     -1.356484000000000E+02
4855000000.000000      6.238708000000000E-01      1.431201000000000E+01      4.711304000000000E-01     -1.367656000000000E+02
4856000000.000000      6.240845000000000E-01      1.468994000000000E+01      4.682922000000000E-01     -1.374297000000000E+02
4857000000.000000      6.262817000000000E-01      1.456787000000000E+01      4.682007000000000E-01     -1.383516000000000E+02
4858000000.000000      6.268005000000000E-01      1.452930000000000E+01      4.638977000000000E-01     -1.392578000000000E+02
4859000000.000000      6.287537000000000E-01      1.444531000000000E+01      4.611969000000000E-01     -1.401094000000000E+02
4860000000.000000      6.277466000000000E-01      1.471875000000000E+01      4.573517000000000E-01     -1.407187000000000E+02
4861000000.000000      6.304016000000000E-01      1.461279000000000E+01      4.542389000000000E-01     -1.417422000000000E+02
4862000000.000000      6.305542000000000E-01      1.460596000000000E+01      4.515533000000000E-01     -1.423672000000000E+02
4863000000.000000      6.328430000000000E-01      1.464307000000000E+01      4.468994000000000E-01     -1.433672000000000E+02
4864000000.000000      6.350708000000000E-01      1.456641000000000E+01      4.440918000000000E-01     -1.440000000000000E+02
4865000000.000000      6.339417000000000E-01      1.449902000000000E+01      4.408112000000000E-01     -1.450312000000000E+02
4866000000.000000      6.374512000000000E-01      1.442871000000000E+01      4.371796000000000E-01     -1.457187000000000E+02
4867000000.000000      6.368408000000000E-01      1.468018000000000E+01      4.329681000000000E-01     -1.466250000000000E+02
4868000000.000000      6.384277000000000E-01      1.454443000000000E+01      4.290771000000000E-01     -1.471641000000000E+02
4869000000.000000      6.412659000000000E-01      1.456494000000000E+01      4.249268000000000E-01     -1.482578000000000E+02
4870000000.000000      6.411133000000000E-01      1.450586000000000E+01      4.209595000000000E-01     -1.485469000000000E+02
4871000000.000000      6.417236000000000E-01      1.433301000000000E+01      4.173431000000000E-01     -1.494375000000000E+02
4872000000.000000      6.441345000000000E-01      1.439893000000000E+01      4.132538000000000E-01     -1.499297000000000E+02
4873000000.000000      6.446533000000000E-01      1.445068000000000E+01      4.089813000000000E-01     -1.507578000000000E+02
4874000000.000000      6.468201000000000E-01      1.435498000000000E+01      4.027557000000000E-01     -1.515234000000000E+02
4875000000.000000      6.473389000000000E-01      1.438623000000000E+01      3.990173000000000E-01     -1.521484000000000E+02
4876000000.000000      6.486206000000000E-01      1.421338000000000E+01      3.950348000000000E-01     -1.529140000000000E+02
4877000000.000000      6.502380000000000E-01      1.420215000000000E+01      3.904419000000000E-01     -1.532969000000000E+02
4878000000.000000      6.511536000000000E-01      1.403906000000000E+01      3.859558000000000E-01     -1.540234000000000E+02
4879000000.000000      6.530151000000000E-01      1.430957000000000E+01      3.810883000000000E-01     -1.546328000000000E+02
4880000000.000000      6.554260000000000E-01      1.408008000000000E+01      3.776245000000000E-01     -1.551641000000000E+02
4881000000.000000      6.542664000000000E-01      1.404150000000000E+01      3.729248000000000E-01     -1.555859000000000E+02
4882000000.000000      6.570740000000000E-01      1.393311000000000E+01      3.693695000000000E-01     -1.562891000000000E+02
4883000000.000000      6.560669000000000E-01      1.384814000000000E+01      3.649902000000000E-01     -1.570000000000000E+02
4884000000.000000      6.585083000000000E-01      1.365967000000000E+01      3.596497000000000E-01     -1.573594000000000E+02
4885000000.000000      6.604004000000000E-01      1.373145000000000E+01      3.556366000000000E-01     -1.575859000000000E+02
4886000000.000000      6.609192000000000E-01      1.378906000000000E+01      3.524780000000000E-01     -1.581719000000000E+02
4887000000.000000      6.620483000000000E-01      1.361182000000000E+01      3.475800000000000E-01     -1.586484000000000E+02
4888000000.000000      6.620178000000000E-01      1.341699000000000E+01      3.446198000000000E-01     -1.591875000000000E+02
4889000000.000000      6.625977000000000E-01      1.342090000000000E+01      3.389130000000000E-01     -1.595078000000000E+02
4890000000.000000      6.639709000000000E-01      1.336328000000000E+01      3.334961000000000E-01     -1.602031000000000E+02
4891000000.000000      6.651306000000000E-01      1.331396000000000E+01      3.312225000000000E-01     -1.605156000000000E+02
4892000000.000000      6.661987000000000E-01      1.312451000000000E+01      3.256989000000000E-01     -1.605781000000000E+02
4893000000.000000      6.675415000000000E-01      1.316406000000000E+01      3.221893000000000E-01     -1.615156000000000E+02
4894000000.000000      6.702271000000000E-01      1.286328000000000E+01      3.190308000000000E-01     -1.616328000000000E+02
4895000000.000000      6.708069000000000E-01      1.288965000000000E+01      3.159790000000000E-01     -1.620391000000000E+02
4896000000.000000      6.726990000000000E-01      1.284814000000000E+01      3.112335000000000E-01     -1.625547000000000E+02
4897000000.000000      6.732483000000000E-01      1.280713000000000E+01      3.068695000000000E-01     -1.628047000000000E+02
4898000000.000000      6.737976000000000E-01      1.254053000000000E+01      3.042297000000000E-01     -1.630781000000000E+02
4899000000.000000      6.748047000000000E-01      1.265039000000000E+01      3.000031000000000E-01     -1.636094000000000E+02
4900000000.000000      6.744080000000000E-01      1.246240000000000E+01      2.958679000000000E-01     -1.638672000000000E+02
4901000000.000000      6.769714000000000E-01      1.232227000000000E+01      2.929230000000000E-01     -1.640469000000000E+02
4902000000.000000      6.775513000000000E-01      1.231250000000000E+01      2.899628000000000E-01     -1.644375000000000E+02
4903000000.000000      6.761780000000000E-01      1.239258000000000E+01      2.849884000000000E-01     -1.647266000000000E+02
4904000000.000000      6.781311000000000E-01      1.203125000000000E+01      2.817535000000000E-01     -1.651250000000000E+02
4905000000.000000      6.784058000000000E-01      1.197070000000000E+01      2.793274000000000E-01     -1.655547000000000E+02
4906000000.000000      6.777039000000000E-01      1.179639000000000E+01      2.745056000000000E-01     -1.655391000000000E+02
4907000000.000000      6.798096000000000E-01      1.178271000000000E+01      2.725220000000000E-01     -1.660625000000000E+02
4908000000.000000      6.801758000000000E-01      1.170020000000000E+01      2.680969000000000E-01     -1.664219000000000E+02
4909000000.000000      6.812134000000000E-01      1.138574000000000E+01      2.644806000000000E-01     -1.666172000000000E+02
4910000000.000000      6.806335000000000E-01      1.153955000000000E+01      2.616425000000000E-01     -1.669688000000000E+02
4911000000.000000      6.819763000000000E-01      1.134326000000000E+01      2.580566000000000E-01     -1.672734000000000E+02
4912000000.000000      6.816101000000000E-01      1.121680000000000E+01      2.538757000000000E-01     -1.676094000000000E+02
4913000000.000000      6.840210000000000E-01      1.103809000000000E+01      2.510071000000000E-01     -1.678359000000000E+02
4914000000.000000      6.820984000000000E-01      1.100537000000000E+01      2.475586000000000E-01     -1.679297000000000E+02
4915000000.000000      6.848755000000000E-01      1.109473000000000E+01      2.437057000000000E-01     -1.684297000000000E+02
4916000000.000000      6.850281000000000E-01      1.083252000000000E+01      2.399063000000000E-01     -1.687969000000000E+02
4917000000.000000      6.867371000000000E-01      1.080762000000000E+01      2.365952000000000E-01     -1.687969000000000E+02
4918000000.000000      6.867981000000000E-01      1.064697000000000E+01      2.327881000000000E-01     -1.692109000000000E+02
4919000000.000000      6.858215000000000E-01      1.069775000000000E+01      2.293472000000000E-01     -1.692969000000000E+02
4920000000.000000      6.868286000000000E-01      1.036133000000000E+01      2.255096000000000E-01     -1.696875000000000E+02
4921000000.000000      6.874390000000000E-01      1.029932000000000E+01      2.221146000000000E-01     -1.698437000000000E+02
4922000000.000000      6.876221000000000E-01      1.028564000000000E+01      2.184906000000000E-01     -1.699609000000000E+02
4923000000.000000      6.907349000000000E-01      1.021143000000000E+01      2.145920000000000E-01     -1.700078000000000E+02
4924000000.000000      6.900024000000000E-01      9.996094000000000E+00      2.106476000000000E-01     -1.703984000000000E+02
4925000000.000000      6.904602000000000E-01      9.971191000000000E+00      2.073517000000000E-01     -1.706250000000000E+02
4926000000.000000      6.900940000000000E-01      1.006592000000000E+01      2.038803000000000E-01     -1.705937000000000E+02
4927000000.000000      6.901855000000000E-01      9.849121000000000E+00      1.998215000000000E-01     -1.705625000000000E+02
4928000000.000000      6.915588000000000E-01      9.626465000000000E+00      1.965485000000000E-01     -1.708437000000000E+02
4929000000.000000      6.914368000000000E-01      9.636230000000000E+00      1.924057000000000E-01     -1.707813000000000E+02
4930000000.000000      6.913147000000000E-01      9.611328000000000E+00      1.891556000000000E-01     -1.708672000000000E+02
4931000000.000000      6.912231000000000E-01      9.336914000000000E+00      1.856918000000000E-01     -1.709531000000000E+02
4932000000.000000      6.933289000000000E-01      9.353027000000000E+00      1.812134000000000E-01     -1.707891000000000E+02
4933000000.000000      6.931152000000000E-01      9.134766000000000E+00      1.772461000000000E-01     -1.704453000000000E+02
4934000000.000000      6.974182000000000E-01      9.174805000000000E+00      1.738281000000000E-01     -1.706719000000000E+02
4935000000.000000      6.950073000000000E-01      8.996094000000000E+00      1.708755000000000E-01     -1.702344000000000E+02
4936000000.000000      6.946411000000000E-01      8.889160000000000E+00      1.664658000000000E-01     -1.700391000000000E+02
4937000000.000000      6.953430000000000E-01      8.838379000000000E+00      1.630554000000000E-01     -1.699844000000000E+02
4938000000.000000      6.950378000000000E-01      8.833984000000000E+00      1.595001000000000E-01     -1.693828000000000E+02
4939000000.000000      6.950684000000000E-01      8.759766000000000E+00      1.558838000000000E-01     -1.690547000000000E+02
4940000000.000000      6.973877000000000E-01      8.558105000000000E+00      1.525040000000000E-01     -1.687656000000000E+02
4941000000.000000      6.979370000000000E-01      8.328613000000000E+00      1.484222000000000E-01     -1.681719000000000E+02
4942000000.000000      6.971130000000000E-01      8.422363000000000E+00      1.454239000000000E-01     -1.678750000000000E+02
4943000000.000000      6.991577000000000E-01      8.255859000000000E+00      1.420746000000000E-01     -1.670859000000000E+02
4944000000.000000      6.988525000000000E-01      8.170898000000000E+00      1.389542000000000E-01     -1.663906000000000E+02
4945000000.000000      6.984863000000000E-01      8.104980000000000E+00      1.353836000000000E-01     -1.656016000000000E+02
4946000000.000000      7.009583000000000E-01      7.995117000000000E+00      1.325531000000000E-01     -1.648203000000000E+02
4947000000.000000      6.993408000000000E-01      7.915527000000000E+00      1.294861000000000E-01     -1.638750000000000E+02
4948000000.000000      7.012939000000000E-01      7.743896000000000E+00      1.270599000000000E-01     -1.630156000000000E+02
4949000000.000000      6.996460000000000E-01      7.535156000000000E+00      1.244240000000000E-01     -1.615625000000000E+02
4950000000.000000      7.039795000000000E-01      7.691650000000000E+00      1.212845000000000E-01     -1.604844000000000E+02
4951000000.000000      7.042542000000000E-01      7.443115000000000E+00      1.191788000000000E-01     -1.594609000000000E+02
4952000000.000000      7.023621000000000E-01      7.415771000000000E+00      1.159782000000000E-01     -1.579609000000000E+02
4953000000.000000      7.015991000000000E-01      7.283936000000000E+00      1.148453000000000E-01     -1.566875000000000E+02
4954000000.000000      7.031555000000000E-01      7.105225000000000E+00      1.126671000000000E-01     -1.552344000000000E+02
