! Network Analyzer HP8722D
! Hewlett-Packard
! Data name: Linha & Wilkinson
! Saver's name: Rodrigo Anjos
! Comments: Teste da utilização de aquisição
continua pelo VNA HP8722D
! Time and date: 22/5/2025 08:41
!              Frequency                     S11                                                   S21                                                   S12                                                   S22
# HZ  S  MA R 50
4800000000.000000      6.475220000000000E-01      1.015137000000000E+01      4.748840000000000E-01     -9.375780000000000E+01
4801000000.000000      6.432190000000000E-01      1.043555000000000E+01      4.763336000000000E-01     -9.458984000000000E+01
4802000000.000000      6.430054000000000E-01      1.037500000000000E+01      4.775848000000000E-01     -9.510937000000000E+01
4803000000.000000      6.414490000000000E-01      1.021289000000000E+01      4.813538000000000E-01     -9.596094000000000E+01
4804000000.000000      6.404419000000000E-01      1.042285000000000E+01      4.821472000000000E-01     -9.655859000000000E+01
4805000000.000000      6.394043000000000E-01      1.024023000000000E+01      4.836578000000000E-01     -9.757030000000000E+01
4806000000.000000      6.375427000000000E-01      1.026660000000000E+01      4.849854000000000E-01     -9.820702000000000E+01
4807000000.000000      6.338806000000000E-01      1.030225000000000E+01      4.865723000000000E-01     -9.898046000000000E+01
4808000000.000000      6.325989000000000E-01      1.033105000000000E+01      4.877014000000000E-01     -9.950390000000000E+01
4809000000.000000      6.302795000000000E-01      1.042041000000000E+01      4.888458000000000E-01     -1.006289000000000E+02
4810000000.000000      6.320496000000000E-01      1.050684000000000E+01      4.906006000000000E-01     -1.010898000000000E+02
4811000000.000000      6.289673000000000E-01      1.051074000000000E+01      4.913940000000000E-01     -1.020586000000000E+02
4812000000.000000      6.293335000000000E-01      1.073633000000000E+01      4.926605000000000E-01     -1.027969000000000E+02
4813000000.000000      6.282349000000000E-01      1.065381000000000E+01      4.929504000000000E-01     -1.038008000000000E+02
4814000000.000000      6.253967000000000E-01      1.069092000000000E+01      4.930573000000000E-01     -1.041875000000000E+02
4815000000.000000      6.232300000000000E-01      1.079102000000000E+01      4.949951000000000E-01     -1.051055000000000E+02
4816000000.000000      6.236267000000000E-01      1.088184000000000E+01      4.964447000000000E-01     -1.057383000000000E+02
4817000000.000000      6.207581000000000E-01      1.106445000000000E+01      4.963684000000000E-01     -1.066406000000000E+02
4818000000.000000      6.203613000000000E-01      1.090527000000000E+01      4.958038000000000E-01     -1.074141000000000E+02
4819000000.000000      6.200562000000000E-01      1.102441000000000E+01      4.973145000000000E-01     -1.080312000000000E+02
4820000000.000000      6.173706000000000E-01      1.119482000000000E+01      4.976807000000000E-01     -1.086484000000000E+02
4821000000.000000      6.182251000000000E-01      1.115625000000000E+01      4.986420000000000E-01     -1.095820000000000E+02
4822000000.000000      6.168213000000000E-01      1.119336000000000E+01      4.981995000000000E-01     -1.102344000000000E+02
4823000000.000000      6.164246000000000E-01      1.136377000000000E+01      4.984436000000000E-01     -1.110273000000000E+02
4824000000.000000      6.148682000000000E-01      1.161768000000000E+01      4.987030000000000E-01     -1.120430000000000E+02
4825000000.000000      6.123657000000000E-01      1.172754000000000E+01      5.002747000000000E-01     -1.127109000000000E+02
4826000000.000000      6.132507000000000E-01      1.156836000000000E+01      4.995117000000000E-01     -1.134375000000000E+02
4827000000.000000      6.140747000000000E-01      1.188281000000000E+01      4.993591000000000E-01     -1.140664000000000E+02
4828000000.000000      6.149292000000000E-01      1.191016000000000E+01      5.005798000000000E-01     -1.149375000000000E+02
4829000000.000000      6.137085000000000E-01      1.213574000000000E+01      4.998932000000000E-01     -1.155234000000000E+02
4830000000.000000      6.124268000000000E-01      1.206152000000000E+01      5.004272000000000E-01     -1.163867000000000E+02
4831000000.000000      6.133118000000000E-01      1.215186000000000E+01      4.994507000000000E-01     -1.174844000000000E+02
4832000000.000000      6.134033000000000E-01      1.238965000000000E+01      5.000000000000000E-01     -1.177891000000000E+02
4833000000.000000      6.100464000000000E-01      1.235400000000000E+01      4.995117000000000E-01     -1.184336000000000E+02
4834000000.000000      6.119995000000000E-01      1.263281000000000E+01      5.000916000000000E-01     -1.196133000000000E+02
4835000000.000000      6.119385000000000E-01      1.283887000000000E+01      4.997559000000000E-01     -1.202070000000000E+02
4836000000.000000      6.111755000000000E-01      1.276318000000000E+01      4.969025000000000E-01     -1.210078000000000E+02
4837000000.000000      6.119690000000000E-01      1.297461000000000E+01      4.963531000000000E-01     -1.219023000000000E+02
4838000000.000000      6.098022000000000E-01      1.293604000000000E+01      4.982300000000000E-01     -1.223476000000000E+02
4839000000.000000      6.156311000000000E-01      1.330811000000000E+01      4.981232000000000E-01     -1.233047000000000E+02
4840000000.000000      6.139221000000000E-01      1.304736000000000E+01      4.965515000000000E-01     -1.242070000000000E+02
4841000000.000000      6.127625000000000E-01      1.338672000000000E+01      4.955597000000000E-01     -1.250547000000000E+02
4842000000.000000      6.161804000000000E-01      1.324951000000000E+01      4.950867000000000E-01     -1.258633000000000E+02
4843000000.000000      6.172180000000000E-01      1.342529000000000E+01      4.941864000000000E-01     -1.267305000000000E+02
4844000000.000000      6.162109000000000E-01      1.348389000000000E+01      4.927673000000000E-01     -1.275039000000000E+02
4845000000.000000      6.164856000000000E-01      1.365283000000000E+01      4.920044000000000E-01     -1.282344000000000E+02
4846000000.000000      6.197510000000000E-01      1.367627000000000E+01      4.904480000000000E-01     -1.289687000000000E+02
4847000000.000000      6.200256000000000E-01      1.377539000000000E+01      4.905243000000000E-01     -1.298281000000000E+02
4848000000.000000      6.182556000000000E-01      1.393994000000000E+01      4.865723000000000E-01     -1.307656000000000E+02
4849000000.000000      6.206360000000000E-01      1.381641000000000E+01      4.867401000000000E-01     -1.315234000000000E+02
4850000000.000000      6.206665000000000E-01      1.408838000000000E+01      4.841309000000000E-01     -1.324297000000000E+02
4851000000.000000      6.225891000000000E-01      1.408984000000000E+01      4.831085000000000E-01     -1.332031000000000E+02
4852000000.000000      6.233826000000000E-01      1.410498000000000E+01      4.809265000000000E-01     -1.341172000000000E+02
4853000000.000000      6.231384000000000E-01      1.411865000000000E+01      4.768372000000000E-01     -1.349375000000000E+02
4854000000.000000      6.262512000000000E-01      1.415967000000000E+01      4.753418000000000E-01     -1.360234000000000E+02
4855000000.000000      6.248474000000000E-01      1.430127000000000E+01      4.735107000000000E-01     -1.366953000000000E+02
4856000000.000000      6.275940000000000E-01      1.417920000000000E+01      4.713745000000000E-01     -1.375859000000000E+02
4857000000.000000      6.296692000000000E-01      1.425732000000000E+01      4.685516000000000E-01     -1.385391000000000E+02
4858000000.000000      6.283875000000000E-01      1.432471000000000E+01      4.657745000000000E-01     -1.392812000000000E+02
4859000000.000000      6.290588000000000E-01      1.419824000000000E+01      4.626160000000000E-01     -1.401562000000000E+02
4860000000.000000      6.314087000000000E-01      1.436865000000000E+01      4.595184000000000E-01     -1.408125000000000E+02
4861000000.000000      6.332397000000000E-01      1.439453000000000E+01      4.545288000000000E-01     -1.419297000000000E+02
4862000000.000000      6.337585000000000E-01      1.436572000000000E+01      4.541626000000000E-01     -1.425000000000000E+02
4863000000.000000      6.350403000000000E-01      1.431104000000000E+01      4.498444000000000E-01     -1.433828000000000E+02
4864000000.000000      6.364441000000000E-01      1.430127000000000E+01      4.474792000000000E-01     -1.440312000000000E+02
4865000000.000000      6.367798000000000E-01      1.444385000000000E+01      4.426727000000000E-01     -1.448047000000000E+02
4866000000.000000      6.394653000000000E-01      1.438232000000000E+01      4.381561000000000E-01     -1.457031000000000E+02
4867000000.000000      6.394653000000000E-01      1.435889000000000E+01      4.349823000000000E-01     -1.465469000000000E+02
4868000000.000000      6.419983000000000E-01      1.422168000000000E+01      4.311066000000000E-01     -1.472734000000000E+02
4869000000.000000      6.420288000000000E-01      1.427783000000000E+01      4.278107000000000E-01     -1.482188000000000E+02
4870000000.000000      6.437988000000000E-01      1.431494000000000E+01      4.235687000000000E-01     -1.485391000000000E+02
4871000000.000000      6.456299000000000E-01      1.413232000000000E+01      4.181824000000000E-01     -1.495547000000000E+02
4872000000.000000      6.472778000000000E-01      1.424072000000000E+01      4.135132000000000E-01     -1.501016000000000E+02
4873000000.000000      6.474915000000000E-01      1.428906000000000E+01      4.101410000000000E-01     -1.508906000000000E+02
4874000000.000000      6.497803000000000E-01      1.400195000000000E+01      4.051819000000000E-01     -1.515469000000000E+02
4875000000.000000      6.488342000000000E-01      1.410059000000000E+01      4.002228000000000E-01     -1.520859000000000E+02
4876000000.000000      6.523132000000000E-01      1.405811000000000E+01      3.976440000000000E-01     -1.528203000000000E+02
4877000000.000000      6.529541000000000E-01      1.390283000000000E+01      3.925781000000000E-01     -1.535859000000000E+02
4878000000.000000      6.531372000000000E-01      1.392627000000000E+01      3.874512000000000E-01     -1.540234000000000E+02
4879000000.000000      6.571960000000000E-01      1.403613000000000E+01      3.816833000000000E-01     -1.545078000000000E+02
4880000000.000000      6.569214000000000E-01      1.395361000000000E+01      3.786011000000000E-01     -1.552031000000000E+02
4881000000.000000      6.578064000000000E-01      1.374512000000000E+01      3.745422000000000E-01     -1.557031000000000E+02
4882000000.000000      6.605530000000000E-01      1.383447000000000E+01      3.699341000000000E-01     -1.563984000000000E+02
4883000000.000000      6.610413000000000E-01      1.351855000000000E+01      3.652649000000000E-01     -1.569219000000000E+02
4884000000.000000      6.629333000000000E-01      1.363086000000000E+01      3.622742000000000E-01     -1.576172000000000E+02
4885000000.000000      6.654358000000000E-01      1.360107000000000E+01      3.573761000000000E-01     -1.577188000000000E+02
4886000000.000000      6.636658000000000E-01      1.349365000000000E+01      3.529663000000000E-01     -1.580781000000000E+02
4887000000.000000      6.640015000000000E-01      1.334424000000000E+01      3.490448000000000E-01     -1.587031000000000E+02
4888000000.000000      6.658325000000000E-01      1.330713000000000E+01      3.453369000000000E-01     -1.593125000000000E+02
4889000000.000000      6.664734000000000E-01      1.308447000000000E+01      3.402405000000000E-01     -1.596641000000000E+02
4890000000.000000      6.661987000000000E-01      1.300342000000000E+01      3.357849000000000E-01     -1.601406000000000E+02
4891000000.000000      6.700134000000000E-01      1.305273000000000E+01      3.313904000000000E-01     -1.606250000000000E+02
4892000000.000000      6.699829000000000E-01      1.297314000000000E+01      3.269806000000000E-01     -1.608047000000000E+02
4893000000.000000      6.728821000000000E-01      1.291699000000000E+01      3.238373000000000E-01     -1.615000000000000E+02
4894000000.000000      6.729431000000000E-01      1.280566000000000E+01      3.179474000000000E-01     -1.617344000000000E+02
4895000000.000000      6.738892000000000E-01      1.260938000000000E+01      3.168030000000000E-01     -1.621328000000000E+02
4896000000.000000      6.755371000000000E-01      1.265869000000000E+01      3.126221000000000E-01     -1.625469000000000E+02
4897000000.000000      6.739197000000000E-01      1.266309000000000E+01      3.081665000000000E-01     -1.628828000000000E+02
4898000000.000000      6.768494000000000E-01      1.256934000000000E+01      3.055420000000000E-01     -1.630703000000000E+02
4899000000.000000      6.768188000000000E-01      1.239941000000000E+01      3.010864000000000E-01     -1.635859000000000E+02
4900000000.000000      6.779175000000000E-01      1.234863000000000E+01      2.972565000000000E-01     -1.636484000000000E+02
4901000000.000000      6.788635000000000E-01      1.232373000000000E+01      2.938843000000000E-01     -1.641172000000000E+02
4902000000.000000      6.812134000000000E-01      1.211084000000000E+01      2.911987000000000E-01     -1.643125000000000E+02
4903000000.000000      6.796875000000000E-01      1.217676000000000E+01      2.861786000000000E-01     -1.648203000000000E+02
4904000000.000000      6.820068000000000E-01      1.186377000000000E+01      2.832489000000000E-01     -1.651797000000000E+02
4905000000.000000      6.792603000000000E-01      1.181836000000000E+01      2.801971000000000E-01     -1.655313000000000E+02
4906000000.000000      6.819153000000000E-01      1.163281000000000E+01      2.764587000000000E-01     -1.656094000000000E+02
4907000000.000000      6.828918000000000E-01      1.150635000000000E+01      2.729797000000000E-01     -1.661562000000000E+02
4908000000.000000      6.836243000000000E-01      1.141064000000000E+01      2.701874000000000E-01     -1.663672000000000E+02
4909000000.000000      6.845093000000000E-01      1.130615000000000E+01      2.659454000000000E-01     -1.666797000000000E+02
4910000000.000000      6.848145000000000E-01      1.140088000000000E+01      2.624512000000000E-01     -1.669375000000000E+02
4911000000.000000      6.846924000000000E-01      1.127979000000000E+01      2.593842000000000E-01     -1.672734000000000E+02
4912000000.000000      6.858215000000000E-01      1.107422000000000E+01      2.553101000000000E-01     -1.676719000000000E+02
4913000000.000000      6.860657000000000E-01      1.103809000000000E+01      2.514954000000000E-01     -1.678672000000000E+02
4914000000.000000      6.880188000000000E-01      1.111230000000000E+01      2.489090000000000E-01     -1.680391000000000E+02
4915000000.000000      6.870728000000000E-01      1.083789000000000E+01      2.443619000000000E-01     -1.684844000000000E+02
4916000000.000000      6.888428000000000E-01      1.068652000000000E+01      2.415085000000000E-01     -1.689062000000000E+02
4917000000.000000      6.891785000000000E-01      1.051660000000000E+01      2.379379000000000E-01     -1.688125000000000E+02
4918000000.000000      6.896057000000000E-01      1.057959000000000E+01      2.338791000000000E-01     -1.692578000000000E+02
4919000000.000000      6.876221000000000E-01      1.046973000000000E+01      2.306137000000000E-01     -1.692578000000000E+02
4920000000.000000      6.893311000000000E-01      1.034326000000000E+01      2.262802000000000E-01     -1.697734000000000E+02
4921000000.000000      6.907043000000000E-01      1.034326000000000E+01      2.232208000000000E-01     -1.697500000000000E+02
4922000000.000000      6.921692000000000E-01      1.018262000000000E+01      2.195892000000000E-01     -1.699687000000000E+02
4923000000.000000      6.918640000000000E-01      9.873535000000000E+00      2.156906000000000E-01     -1.701172000000000E+02
4924000000.000000      6.942444000000000E-01      9.964355000000000E+00      2.115707000000000E-01     -1.703828000000000E+02
4925000000.000000      6.908264000000000E-01      9.739258000000000E+00      2.082672000000000E-01     -1.705703000000000E+02
4926000000.000000      6.916504000000000E-01      9.832520000000000E+00      2.044907000000000E-01     -1.706797000000000E+02
4927000000.000000      6.936646000000000E-01      9.652832000000000E+00      2.008514000000000E-01     -1.706797000000000E+02
4928000000.000000      6.946411000000000E-01      9.308105000000000E+00      1.975021000000000E-01     -1.708203000000000E+02
4929000000.000000      6.942444000000000E-01      9.296875000000000E+00      1.931839000000000E-01     -1.707734000000000E+02
4930000000.000000      6.949768000000000E-01      9.438477000000000E+00      1.899567000000000E-01     -1.708984000000000E+02
4931000000.000000      6.940613000000000E-01      9.269531000000000E+00      1.867676000000000E-01     -1.709063000000000E+02
4932000000.000000      6.949158000000000E-01      9.170410000000000E+00      1.819153000000000E-01     -1.708437000000000E+02
4933000000.000000      6.966858000000000E-01      9.019531000000000E+00      1.779709000000000E-01     -1.703828000000000E+02
4934000000.000000      6.972961000000000E-01      8.879395000000000E+00      1.751785000000000E-01     -1.703594000000000E+02
4935000000.000000      6.994629000000000E-01      8.664063000000000E+00      1.714249000000000E-01     -1.701875000000000E+02
4936000000.000000      6.975708000000000E-01      8.853516000000000E+00      1.673965000000000E-01     -1.701015000000000E+02
4937000000.000000      7.003479000000000E-01      8.517090000000000E+00      1.639328000000000E-01     -1.699062000000000E+02
4938000000.000000      6.985779000000000E-01      8.673340000000000E+00      1.603394000000000E-01     -1.693125000000000E+02
4939000000.000000      7.009583000000000E-01      8.445313000000000E+00      1.568069000000000E-01     -1.690781000000000E+02
4940000000.000000      6.997681000000000E-01      8.316406000000000E+00      1.528473000000000E-01     -1.686953000000000E+02
4941000000.000000      7.008972000000000E-01      8.114746000000000E+00      1.493530000000000E-01     -1.683047000000000E+02
4942000000.000000      6.988525000000000E-01      8.165527000000000E+00      1.461029000000000E-01     -1.676563000000000E+02
4943000000.000000      7.008057000000000E-01      8.140625000000000E+00      1.427002000000000E-01     -1.670625000000000E+02
4944000000.000000      7.017212000000000E-01      7.842773000000000E+00      1.398392000000000E-01     -1.663594000000000E+02
4945000000.000000      7.026367000000000E-01      7.794678000000000E+00      1.359024000000000E-01     -1.657891000000000E+02
4946000000.000000      7.047424000000000E-01      7.634033000000000E+00      1.329193000000000E-01     -1.647031000000000E+02
4947000000.000000      7.033691000000000E-01      7.579102000000000E+00      1.303253000000000E-01     -1.638438000000000E+02
4948000000.000000      7.021484000000000E-01      7.543457000000000E+00      1.269760000000000E-01     -1.630312000000000E+02
4949000000.000000      7.038269000000000E-01      7.334717000000000E+00      1.243553000000000E-01     -1.616641000000000E+02
4950000000.000000      7.032776000000000E-01      7.488525000000000E+00      1.219063000000000E-01     -1.604531000000000E+02
4951000000.000000      7.067261000000000E-01      7.132813000000000E+00      1.191063000000000E-01     -1.595234000000000E+02
4952000000.000000      7.062378000000000E-01      7.110840000000000E+00      1.172867000000000E-01     -1.580469000000000E+02
4953000000.000000      7.044983000000000E-01      7.079102000000000E+00      1.147995000000000E-01     -1.564922000000000E+02
4954000000.000000      7.054138000000000E-01      7.051758000000000E+00      1.129189000000000E-01     -1.550078000000000E+02
