! Network Analyzer HP8722D
! Hewlett-Packard
! Data name: Linha & Wilkinson
! Saver's name: Rodrigo Anjos
! Comments: Teste da utilização de aquisição
continua pelo VNA HP8722D
! Time and date: 22/5/2025 11:31
!              Frequency                     S11                                                   S21                                                   S12                                                   S22
# HZ  S  MA R 50
4800000000.000000      6.512451000000000E-01      1.079639000000000E+01      4.705353000000000E-01     -9.232031000000000E+01
4801000000.000000      6.495361000000000E-01      1.076221000000000E+01      4.713745000000000E-01     -9.300781000000000E+01
4802000000.000000      6.490784000000000E-01      1.058936000000000E+01      4.743500000000000E-01     -9.373438000000000E+01
4803000000.000000      6.456604000000000E-01      1.071826000000000E+01      4.772644000000000E-01     -9.465235000000000E+01
4804000000.000000      6.440125000000000E-01      1.068799000000000E+01      4.784088000000000E-01     -9.526562000000000E+01
4805000000.000000      6.455383000000000E-01      1.079932000000000E+01      4.800873000000000E-01     -9.605469000000000E+01
4806000000.000000      6.422729000000000E-01      1.083643000000000E+01      4.808350000000000E-01     -9.697266000000000E+01
4807000000.000000      6.387329000000000E-01      1.068555000000000E+01      4.825897000000000E-01     -9.757813000000000E+01
4808000000.000000      6.366577000000000E-01      1.082129000000000E+01      4.840546000000000E-01     -9.839844000000000E+01
4809000000.000000      6.369629000000000E-01      1.079639000000000E+01      4.858551000000000E-01     -9.922655000000000E+01
4810000000.000000      6.352234000000000E-01      1.079785000000000E+01      4.886627000000000E-01     -9.969921000000000E+01
4811000000.000000      6.342773000000000E-01      1.086816000000000E+01      4.889526000000000E-01     -1.007695000000000E+02
4812000000.000000      6.351929000000000E-01      1.101514000000000E+01      4.891968000000000E-01     -1.014492000000000E+02
4813000000.000000      6.309814000000000E-01      1.104395000000000E+01      4.921417000000000E-01     -1.022461000000000E+02
4814000000.000000      6.290588000000000E-01      1.106836000000000E+01      4.920044000000000E-01     -1.029258000000000E+02
4815000000.000000      6.265869000000000E-01      1.105078000000000E+01      4.917908000000000E-01     -1.036836000000000E+02
4816000000.000000      6.277161000000000E-01      1.111523000000000E+01      4.931488000000000E-01     -1.044570000000000E+02
4817000000.000000      6.250305000000000E-01      1.121533000000000E+01      4.942932000000000E-01     -1.052344000000000E+02
4818000000.000000      6.251221000000000E-01      1.120313000000000E+01      4.957275000000000E-01     -1.059883000000000E+02
4819000000.000000      6.236877000000000E-01      1.129102000000000E+01      4.966888000000000E-01     -1.066445000000000E+02
4820000000.000000      6.202698000000000E-01      1.149854000000000E+01      4.973907000000000E-01     -1.072461000000000E+02
4821000000.000000      6.206665000000000E-01      1.158887000000000E+01      4.974365000000000E-01     -1.080703000000000E+02
4822000000.000000      6.189575000000000E-01      1.152979000000000E+01      4.957733000000000E-01     -1.090508000000000E+02
4823000000.000000      6.195068000000000E-01      1.172900000000000E+01      4.968109000000000E-01     -1.095625000000000E+02
4824000000.000000      6.162109000000000E-01      1.191309000000000E+01      4.975281000000000E-01     -1.104570000000000E+02
4825000000.000000      6.189270000000000E-01      1.188428000000000E+01      4.976349000000000E-01     -1.110938000000000E+02
4826000000.000000      6.154785000000000E-01      1.188135000000000E+01      4.976196000000000E-01     -1.120781000000000E+02
4827000000.000000      6.159058000000000E-01      1.204492000000000E+01      4.990692000000000E-01     -1.126172000000000E+02
4828000000.000000      6.174622000000000E-01      1.229883000000000E+01      4.984283000000000E-01     -1.134844000000000E+02
4829000000.000000      6.153259000000000E-01      1.243213000000000E+01      4.988403000000000E-01     -1.142305000000000E+02
4830000000.000000      6.149292000000000E-01      1.233740000000000E+01      4.996338000000000E-01     -1.148789000000000E+02
4831000000.000000      6.151123000000000E-01      1.258740000000000E+01      4.996948000000000E-01     -1.158633000000000E+02
4832000000.000000      6.145325000000000E-01      1.270117000000000E+01      4.995117000000000E-01     -1.163633000000000E+02
4833000000.000000      6.127319000000000E-01      1.280713000000000E+01      4.992218000000000E-01     -1.170547000000000E+02
4834000000.000000      6.127014000000000E-01      1.291260000000000E+01      4.991455000000000E-01     -1.180586000000000E+02
4835000000.000000      6.128540000000000E-01      1.292676000000000E+01      4.996796000000000E-01     -1.188672000000000E+02
4836000000.000000      6.142578000000000E-01      1.320654000000000E+01      4.978485000000000E-01     -1.194102000000000E+02
4837000000.000000      6.124268000000000E-01      1.345508000000000E+01      4.984436000000000E-01     -1.204102000000000E+02
4838000000.000000      6.127319000000000E-01      1.337549000000000E+01      4.982910000000000E-01     -1.208711000000000E+02
4839000000.000000      6.173401000000000E-01      1.349512000000000E+01      4.980774000000000E-01     -1.218476000000000E+02
4840000000.000000      6.168823000000000E-01      1.353369000000000E+01      4.967041000000000E-01     -1.225820000000000E+02
4841000000.000000      6.170959000000000E-01      1.369824000000000E+01      4.965668000000000E-01     -1.236055000000000E+02
4842000000.000000      6.167908000000000E-01      1.371094000000000E+01      4.952393000000000E-01     -1.242617000000000E+02
4843000000.000000      6.185913000000000E-01      1.372021000000000E+01      4.962006000000000E-01     -1.251523000000000E+02
4844000000.000000      6.174927000000000E-01      1.393457000000000E+01      4.949951000000000E-01     -1.259258000000000E+02
4845000000.000000      6.189880000000000E-01      1.410205000000000E+01      4.929199000000000E-01     -1.267500000000000E+02
4846000000.000000      6.201477000000000E-01      1.421338000000000E+01      4.924622000000000E-01     -1.276133000000000E+02
4847000000.000000      6.210327000000000E-01      1.430518000000000E+01      4.913483000000000E-01     -1.283750000000000E+02
4848000000.000000      6.207886000000000E-01      1.429150000000000E+01      4.885101000000000E-01     -1.292266000000000E+02
4849000000.000000      6.188049000000000E-01      1.441406000000000E+01      4.884338000000000E-01     -1.301875000000000E+02
4850000000.000000      6.211853000000000E-01      1.444141000000000E+01      4.860535000000000E-01     -1.310391000000000E+02
4851000000.000000      6.237793000000000E-01      1.445215000000000E+01      4.859619000000000E-01     -1.318594000000000E+02
4852000000.000000      6.251526000000000E-01      1.448096000000000E+01      4.824066000000000E-01     -1.326172000000000E+02
4853000000.000000      6.246643000000000E-01      1.456494000000000E+01      4.793243000000000E-01     -1.333594000000000E+02
4854000000.000000      6.251526000000000E-01      1.477100000000000E+01      4.782257000000000E-01     -1.345156000000000E+02
4855000000.000000      6.275330000000000E-01      1.461963000000000E+01      4.759064000000000E-01     -1.352813000000000E+02
4856000000.000000      6.287537000000000E-01      1.469238000000000E+01      4.738159000000000E-01     -1.361016000000000E+02
4857000000.000000      6.281128000000000E-01      1.479150000000000E+01      4.730072000000000E-01     -1.368359000000000E+02
4858000000.000000      6.293945000000000E-01      1.468994000000000E+01      4.693909000000000E-01     -1.377109000000000E+02
4859000000.000000      6.314697000000000E-01      1.452490000000000E+01      4.674072000000000E-01     -1.386641000000000E+02
4860000000.000000      6.319275000000000E-01      1.462256000000000E+01      4.637756000000000E-01     -1.395859000000000E+02
4861000000.000000      6.324463000000000E-01      1.463086000000000E+01      4.602509000000000E-01     -1.403828000000000E+02
4862000000.000000      6.343994000000000E-01      1.474609000000000E+01      4.582825000000000E-01     -1.411953000000000E+02
4863000000.000000      6.351929000000000E-01      1.503027000000000E+01      4.529724000000000E-01     -1.420156000000000E+02
4864000000.000000      6.376648000000000E-01      1.479541000000000E+01      4.503174000000000E-01     -1.428516000000000E+02
4865000000.000000      6.372070000000000E-01      1.485449000000000E+01      4.473572000000000E-01     -1.434766000000000E+02
4866000000.000000      6.391296000000000E-01      1.474072000000000E+01      4.416046000000000E-01     -1.443516000000000E+02
4867000000.000000      6.390076000000000E-01      1.472559000000000E+01      4.393463000000000E-01     -1.454062000000000E+02
4868000000.000000      6.412964000000000E-01      1.473389000000000E+01      4.351807000000000E-01     -1.460469000000000E+02
4869000000.000000      6.432190000000000E-01      1.479834000000000E+01      4.317474000000000E-01     -1.468359000000000E+02
4870000000.000000      6.442566000000000E-01      1.485059000000000E+01      4.275970000000000E-01     -1.474453000000000E+02
4871000000.000000      6.460876000000000E-01      1.464990000000000E+01      4.226532000000000E-01     -1.482969000000000E+02
4872000000.000000      6.492615000000000E-01      1.453174000000000E+01      4.193420000000000E-01     -1.487890000000000E+02
4873000000.000000      6.483765000000000E-01      1.477344000000000E+01      4.149475000000000E-01     -1.498906000000000E+02
4874000000.000000      6.510925000000000E-01      1.481885000000000E+01      4.096069000000000E-01     -1.503438000000000E+02
4875000000.000000      6.511536000000000E-01      1.463623000000000E+01      4.058228000000000E-01     -1.510469000000000E+02
4876000000.000000      6.536560000000000E-01      1.466504000000000E+01      4.011536000000000E-01     -1.516328000000000E+02
4877000000.000000      6.548767000000000E-01      1.450439000000000E+01      3.976593000000000E-01     -1.524765000000000E+02
4878000000.000000      6.544189000000000E-01      1.455371000000000E+01      3.934937000000000E-01     -1.531328000000000E+02
4879000000.000000      6.586914000000000E-01      1.450049000000000E+01      3.860016000000000E-01     -1.533437000000000E+02
4880000000.000000      6.588745000000000E-01      1.438770000000000E+01      3.836212000000000E-01     -1.540390000000000E+02
4881000000.000000      6.597900000000000E-01      1.425732000000000E+01      3.801727000000000E-01     -1.546875000000000E+02
4882000000.000000      6.613464000000000E-01      1.431348000000000E+01      3.754425000000000E-01     -1.554062000000000E+02
4883000000.000000      6.627197000000000E-01      1.416113000000000E+01      3.713379000000000E-01     -1.559531000000000E+02
4884000000.000000      6.631470000000000E-01      1.410889000000000E+01      3.658447000000000E-01     -1.564141000000000E+02
4885000000.000000      6.655579000000000E-01      1.403223000000000E+01      3.625641000000000E-01     -1.566328000000000E+02
4886000000.000000      6.648254000000000E-01      1.412842000000000E+01      3.590546000000000E-01     -1.570547000000000E+02
4887000000.000000      6.670227000000000E-01      1.400342000000000E+01      3.548584000000000E-01     -1.579297000000000E+02
4888000000.000000      6.665344000000000E-01      1.384668000000000E+01      3.506012000000000E-01     -1.584375000000000E+02
4889000000.000000      6.686401000000000E-01      1.367920000000000E+01      3.449707000000000E-01     -1.588438000000000E+02
4890000000.000000      6.683960000000000E-01      1.368994000000000E+01      3.396912000000000E-01     -1.595781000000000E+02
4891000000.000000      6.715393000000000E-01      1.363232000000000E+01      3.354187000000000E-01     -1.597969000000000E+02
4892000000.000000      6.704712000000000E-01      1.355273000000000E+01      3.326416000000000E-01     -1.600547000000000E+02
4893000000.000000      6.733704000000000E-01      1.330957000000000E+01      3.290405000000000E-01     -1.606562000000000E+02
4894000000.000000      6.729126000000000E-01      1.344141000000000E+01      3.237762000000000E-01     -1.610703000000000E+02
4895000000.000000      6.759338000000000E-01      1.336475000000000E+01      3.208923000000000E-01     -1.614531000000000E+02
4896000000.000000      6.739807000000000E-01      1.313818000000000E+01      3.173370000000000E-01     -1.616562000000000E+02
4897000000.000000      6.753540000000000E-01      1.317236000000000E+01      3.127289000000000E-01     -1.621328000000000E+02
4898000000.000000      6.768799000000000E-01      1.309814000000000E+01      3.097839000000000E-01     -1.624531000000000E+02
4899000000.000000      6.772766000000000E-01      1.292920000000000E+01      3.059082000000000E-01     -1.628281000000000E+02
4900000000.000000      6.789246000000000E-01      1.262598000000000E+01      3.025208000000000E-01     -1.631641000000000E+02
4901000000.000000      6.792297000000000E-01      1.266846000000000E+01      2.985687000000000E-01     -1.633750000000000E+02
4902000000.000000      6.812439000000000E-01      1.269189000000000E+01      2.960052000000000E-01     -1.636641000000000E+02
4903000000.000000      6.820679000000000E-01      1.254736000000000E+01      2.906494000000000E-01     -1.640391000000000E+02
4904000000.000000      6.812744000000000E-01      1.245947000000000E+01      2.874298000000000E-01     -1.646172000000000E+02
4905000000.000000      6.832275000000000E-01      1.230566000000000E+01      2.845459000000000E-01     -1.647969000000000E+02
4906000000.000000      6.838379000000000E-01      1.235254000000000E+01      2.806244000000000E-01     -1.649844000000000E+02
4907000000.000000      6.848450000000000E-01      1.211230000000000E+01      2.776184000000000E-01     -1.654844000000000E+02
4908000000.000000      6.860352000000000E-01      1.196533000000000E+01      2.746277000000000E-01     -1.658984000000000E+02
4909000000.000000      6.828613000000000E-01      1.178418000000000E+01      2.703552000000000E-01     -1.662500000000000E+02
4910000000.000000      6.849976000000000E-01      1.184570000000000E+01      2.666473000000000E-01     -1.663594000000000E+02
4911000000.000000      6.859436000000000E-01      1.166016000000000E+01      2.635956000000000E-01     -1.666328000000000E+02
4912000000.000000      6.888428000000000E-01      1.160938000000000E+01      2.599030000000000E-01     -1.671641000000000E+02
4913000000.000000      6.879272000000000E-01      1.154102000000000E+01      2.570038000000000E-01     -1.673359000000000E+02
4914000000.000000      6.866150000000000E-01      1.142822000000000E+01      2.529144000000000E-01     -1.675469000000000E+02
4915000000.000000      6.882935000000000E-01      1.121533000000000E+01      2.489777000000000E-01     -1.679609000000000E+02
4916000000.000000      6.901245000000000E-01      1.119336000000000E+01      2.459106000000000E-01     -1.684062000000000E+02
4917000000.000000      6.899719000000000E-01      1.117676000000000E+01      2.423401000000000E-01     -1.685859000000000E+02
4918000000.000000      6.936646000000000E-01      1.098877000000000E+01      2.382202000000000E-01     -1.687500000000000E+02
4919000000.000000      6.882935000000000E-01      1.097363000000000E+01      2.352676000000000E-01     -1.689766000000000E+02
4920000000.000000      6.913757000000000E-01      1.096826000000000E+01      2.308884000000000E-01     -1.694062000000000E+02
4921000000.000000      6.923523000000000E-01      1.074023000000000E+01      2.278976000000000E-01     -1.694922000000000E+02
4922000000.000000      6.909180000000000E-01      1.069482000000000E+01      2.241058000000000E-01     -1.697266000000000E+02
4923000000.000000      6.929016000000000E-01      1.076221000000000E+01      2.202988000000000E-01     -1.698828000000000E+02
4924000000.000000      6.936340000000000E-01      1.046826000000000E+01      2.162552000000000E-01     -1.702344000000000E+02
4925000000.000000      6.933594000000000E-01      1.042578000000000E+01      2.131119000000000E-01     -1.704219000000000E+02
4926000000.000000      6.948242000000000E-01      1.041211000000000E+01      2.090759000000000E-01     -1.706797000000000E+02
4927000000.000000      6.946411000000000E-01      1.018115000000000E+01      2.055130000000000E-01     -1.707187000000000E+02
4928000000.000000      6.959229000000000E-01      1.000684000000000E+01      2.014923000000000E-01     -1.709297000000000E+02
4929000000.000000      6.957703000000000E-01      9.887695000000000E+00      1.972961000000000E-01     -1.707891000000000E+02
4930000000.000000      6.952209000000000E-01      9.792480000000000E+00      1.937790000000000E-01     -1.709922000000000E+02
4931000000.000000      6.969299000000000E-01      9.964355000000000E+00      1.907120000000000E-01     -1.709219000000000E+02
4932000000.000000      6.970825000000000E-01      9.817383000000000E+00      1.867065000000000E-01     -1.708437000000000E+02
4933000000.000000      6.955872000000000E-01      9.496094000000000E+00      1.821060000000000E-01     -1.708359000000000E+02
4934000000.000000      6.982422000000000E-01      9.389160000000000E+00      1.783752000000000E-01     -1.708281000000000E+02
4935000000.000000      7.001953000000000E-01      9.258301000000000E+00      1.761398000000000E-01     -1.705469000000000E+02
4936000000.000000      6.985474000000000E-01      9.229492000000000E+00      1.715240000000000E-01     -1.704141000000000E+02
4937000000.000000      6.980896000000000E-01      9.213379000000000E+00      1.675720000000000E-01     -1.704219000000000E+02
4938000000.000000      7.010498000000000E-01      9.163574000000000E+00      1.642685000000000E-01     -1.699141000000000E+02
4939000000.000000      6.979675000000000E-01      8.862793000000000E+00      1.601181000000000E-01     -1.696563000000000E+02
4940000000.000000      6.997375000000000E-01      8.949707000000000E+00      1.566696000000000E-01     -1.695078000000000E+02
4941000000.000000      7.011414000000000E-01      8.843750000000000E+00      1.528854000000000E-01     -1.688906000000000E+02
4942000000.000000      7.003479000000000E-01      8.718750000000000E+00      1.493912000000000E-01     -1.684844000000000E+02
4943000000.000000      7.026062000000000E-01      8.655762000000000E+00      1.461182000000000E-01     -1.680000000000000E+02
4944000000.000000      7.038269000000000E-01      8.461914000000000E+00      1.429214000000000E-01     -1.674531000000000E+02
4945000000.000000      7.017212000000000E-01      8.283691000000000E+00      1.389084000000000E-01     -1.667578000000000E+02
4946000000.000000      7.048340000000000E-01      8.339844000000000E+00      1.360474000000000E-01     -1.659375000000000E+02
4947000000.000000      7.041931000000000E-01      8.254395000000000E+00      1.325150000000000E-01     -1.652656000000000E+02
4948000000.000000      7.051697000000000E-01      8.242188000000000E+00      1.299362000000000E-01     -1.642734000000000E+02
4949000000.000000      7.040710000000000E-01      7.886719000000000E+00      1.267014000000000E-01     -1.631797000000000E+02
4950000000.000000      7.053528000000000E-01      8.145996000000000E+00      1.238365000000000E-01     -1.622890000000000E+02
4951000000.000000      7.052307000000000E-01      7.838623000000000E+00      1.215134000000000E-01     -1.612734000000000E+02
4952000000.000000      7.064819000000000E-01      7.761719000000000E+00      1.187592000000000E-01     -1.598281000000000E+02
4953000000.000000      7.068176000000000E-01      7.540527000000000E+00      1.167679000000000E-01     -1.583906000000000E+02
4954000000.000000      7.066345000000000E-01      7.470703000000000E+00      1.141281000000000E-01     -1.571328000000000E+02
