! Network Analyzer HP8722D
! Hewlett-Packard
! Data name: Linha & Wilkinson
! Saver's name: Rodrigo Anjos
! Comments: Teste da utilização de aquisição
continua pelo VNA HP8722D
! Time and date: 22/5/2025 11:23
!              Frequency                     S11                                                   S21                                                   S12                                                   S22
# HZ  S  MA R 50
4800000000.000000      6.512756000000000E-01      1.068799000000000E+01      4.720764000000000E-01     -9.254297000000000E+01
4801000000.000000      6.503601000000000E-01      1.083643000000000E+01      4.716034000000000E-01     -9.303514000000000E+01
4802000000.000000      6.489563000000000E-01      1.084863000000000E+01      4.748993000000000E-01     -9.394140000000000E+01
4803000000.000000      6.467285000000000E-01      1.065381000000000E+01      4.783630000000000E-01     -9.469530000000000E+01
4804000000.000000      6.441040000000000E-01      1.073340000000000E+01      4.790039000000000E-01     -9.536327000000000E+01
4805000000.000000      6.450806000000000E-01      1.074707000000000E+01      4.793091000000000E-01     -9.634375000000000E+01
4806000000.000000      6.413879000000000E-01      1.071289000000000E+01      4.808350000000000E-01     -9.699219000000000E+01
4807000000.000000      6.401062000000000E-01      1.079785000000000E+01      4.807129000000000E-01     -9.778515000000000E+01
4808000000.000000      6.365051000000000E-01      1.069775000000000E+01      4.838257000000000E-01     -9.855469000000000E+01
4809000000.000000      6.370544000000000E-01      1.078125000000000E+01      4.862823000000000E-01     -9.943748000000000E+01
4810000000.000000      6.350708000000000E-01      1.071680000000000E+01      4.872284000000000E-01     -9.991796000000000E+01
4811000000.000000      6.332092000000000E-01      1.085840000000000E+01      4.884491000000000E-01     -1.007305000000000E+02
4812000000.000000      6.357727000000000E-01      1.095996000000000E+01      4.907990000000000E-01     -1.015312000000000E+02
4813000000.000000      6.303711000000000E-01      1.096436000000000E+01      4.897308000000000E-01     -1.024023000000000E+02
4814000000.000000      6.289368000000000E-01      1.100928000000000E+01      4.924164000000000E-01     -1.030664000000000E+02
4815000000.000000      6.282654000000000E-01      1.107813000000000E+01      4.936676000000000E-01     -1.037422000000000E+02
4816000000.000000      6.268311000000000E-01      1.125098000000000E+01      4.939423000000000E-01     -1.044765000000000E+02
4817000000.000000      6.251221000000000E-01      1.123730000000000E+01      4.930725000000000E-01     -1.054140000000000E+02
4818000000.000000      6.233521000000000E-01      1.110400000000000E+01      4.940796000000000E-01     -1.059336000000000E+02
4819000000.000000      6.234741000000000E-01      1.125537000000000E+01      4.948273000000000E-01     -1.068828000000000E+02
4820000000.000000      6.226196000000000E-01      1.145459000000000E+01      4.963837000000000E-01     -1.072969000000000E+02
4821000000.000000      6.219482000000000E-01      1.157666000000000E+01      4.981232000000000E-01     -1.083555000000000E+02
4822000000.000000      6.210632000000000E-01      1.147217000000000E+01      4.956360000000000E-01     -1.089180000000000E+02
4823000000.000000      6.196289000000000E-01      1.167139000000000E+01      4.974823000000000E-01     -1.097148000000000E+02
4824000000.000000      6.184387000000000E-01      1.197510000000000E+01      4.963226000000000E-01     -1.106719000000000E+02
4825000000.000000      6.159363000000000E-01      1.189941000000000E+01      4.984589000000000E-01     -1.112070000000000E+02
4826000000.000000      6.156311000000000E-01      1.174561000000000E+01      4.968109000000000E-01     -1.122656000000000E+02
4827000000.000000      6.170044000000000E-01      1.207520000000000E+01      4.987946000000000E-01     -1.128164000000000E+02
4828000000.000000      6.152039000000000E-01      1.200391000000000E+01      4.991760000000000E-01     -1.136719000000000E+02
4829000000.000000      6.163940000000000E-01      1.245947000000000E+01      5.003357000000000E-01     -1.142226000000000E+02
4830000000.000000      6.139832000000000E-01      1.235254000000000E+01      4.996338000000000E-01     -1.151015000000000E+02
4831000000.000000      6.143494000000000E-01      1.247217000000000E+01      4.994659000000000E-01     -1.159492000000000E+02
4832000000.000000      6.129456000000000E-01      1.261768000000000E+01      4.985199000000000E-01     -1.166133000000000E+02
4833000000.000000      6.127625000000000E-01      1.258594000000000E+01      4.991455000000000E-01     -1.171445000000000E+02
4834000000.000000      6.127014000000000E-01      1.271387000000000E+01      4.980774000000000E-01     -1.180195000000000E+02
4835000000.000000      6.152039000000000E-01      1.294287000000000E+01      4.999390000000000E-01     -1.188281000000000E+02
4836000000.000000      6.159668000000000E-01      1.322461000000000E+01      4.977417000000000E-01     -1.195937000000000E+02
4837000000.000000      6.142273000000000E-01      1.321924000000000E+01      4.971161000000000E-01     -1.206289000000000E+02
4838000000.000000      6.128235000000000E-01      1.346631000000000E+01      4.980316000000000E-01     -1.209570000000000E+02
4839000000.000000      6.172485000000000E-01      1.342090000000000E+01      4.976196000000000E-01     -1.218320000000000E+02
4840000000.000000      6.169434000000000E-01      1.344141000000000E+01      4.967957000000000E-01     -1.226680000000000E+02
4841000000.000000      6.155701000000000E-01      1.375342000000000E+01      4.972534000000000E-01     -1.235625000000000E+02
4842000000.000000      6.151733000000000E-01      1.361182000000000E+01      4.963379000000000E-01     -1.243242000000000E+02
4843000000.000000      6.196594000000000E-01      1.383008000000000E+01      4.947205000000000E-01     -1.253984000000000E+02
4844000000.000000      6.183777000000000E-01      1.369580000000000E+01      4.941406000000000E-01     -1.259805000000000E+02
4845000000.000000      6.170959000000000E-01      1.417773000000000E+01      4.927979000000000E-01     -1.268125000000000E+02
4846000000.000000      6.200562000000000E-01      1.405957000000000E+01      4.927826000000000E-01     -1.276055000000000E+02
4847000000.000000      6.196594000000000E-01      1.432324000000000E+01      4.918823000000000E-01     -1.285859000000000E+02
4848000000.000000      6.203613000000000E-01      1.431885000000000E+01      4.876099000000000E-01     -1.292734000000000E+02
4849000000.000000      6.212158000000000E-01      1.437109000000000E+01      4.883270000000000E-01     -1.302422000000000E+02
4850000000.000000      6.234741000000000E-01      1.437793000000000E+01      4.861603000000000E-01     -1.310781000000000E+02
4851000000.000000      6.233521000000000E-01      1.459912000000000E+01      4.852905000000000E-01     -1.320156000000000E+02
4852000000.000000      6.245422000000000E-01      1.449902000000000E+01      4.824982000000000E-01     -1.327031000000000E+02
4853000000.000000      6.276245000000000E-01      1.446582000000000E+01      4.796906000000000E-01     -1.335859000000000E+02
4854000000.000000      6.275330000000000E-01      1.467871000000000E+01      4.788361000000000E-01     -1.346016000000000E+02
4855000000.000000      6.270752000000000E-01      1.469824000000000E+01      4.768524000000000E-01     -1.354063000000000E+02
4856000000.000000      6.292114000000000E-01      1.471875000000000E+01      4.738007000000000E-01     -1.362500000000000E+02
4857000000.000000      6.304321000000000E-01      1.476660000000000E+01      4.715576000000000E-01     -1.369141000000000E+02
4858000000.000000      6.311951000000000E-01      1.460742000000000E+01      4.695740000000000E-01     -1.378906000000000E+02
4859000000.000000      6.321411000000000E-01      1.476660000000000E+01      4.666138000000000E-01     -1.389297000000000E+02
4860000000.000000      6.343079000000000E-01      1.474072000000000E+01      4.635925000000000E-01     -1.397500000000000E+02
4861000000.000000      6.334229000000000E-01      1.485059000000000E+01      4.601593000000000E-01     -1.404766000000000E+02
4862000000.000000      6.337585000000000E-01      1.480518000000000E+01      4.581146000000000E-01     -1.412422000000000E+02
4863000000.000000      6.358948000000000E-01      1.496436000000000E+01      4.544067000000000E-01     -1.420938000000000E+02
4864000000.000000      6.374512000000000E-01      1.484229000000000E+01      4.511261000000000E-01     -1.426875000000000E+02
4865000000.000000      6.383362000000000E-01      1.489160000000000E+01      4.458008000000000E-01     -1.436094000000000E+02
4866000000.000000      6.391907000000000E-01      1.467041000000000E+01      4.429474000000000E-01     -1.445781000000000E+02
4867000000.000000      6.390381000000000E-01      1.468311000000000E+01      4.375458000000000E-01     -1.453984000000000E+02
4868000000.000000      6.435852000000000E-01      1.486035000000000E+01      4.351654000000000E-01     -1.460938000000000E+02
4869000000.000000      6.426086000000000E-01      1.477344000000000E+01      4.317169000000000E-01     -1.468672000000000E+02
4870000000.000000      6.446533000000000E-01      1.467188000000000E+01      4.276886000000000E-01     -1.474766000000000E+02
4871000000.000000      6.462402000000000E-01      1.480127000000000E+01      4.234161000000000E-01     -1.484531000000000E+02
4872000000.000000      6.493835000000000E-01      1.470752000000000E+01      4.187775000000000E-01     -1.486875000000000E+02
4873000000.000000      6.474609000000000E-01      1.490137000000000E+01      4.134674000000000E-01     -1.498203000000000E+02
4874000000.000000      6.498413000000000E-01      1.476416000000000E+01      4.107971000000000E-01     -1.506094000000000E+02
4875000000.000000      6.498413000000000E-01      1.469141000000000E+01      4.055481000000000E-01     -1.509453000000000E+02
4876000000.000000      6.534729000000000E-01      1.460742000000000E+01      4.018097000000000E-01     -1.517266000000000E+02
4877000000.000000      6.546021000000000E-01      1.440283000000000E+01      3.980255000000000E-01     -1.523516000000000E+02
4878000000.000000      6.521912000000000E-01      1.447705000000000E+01      3.930664000000000E-01     -1.531172000000000E+02
4879000000.000000      6.570740000000000E-01      1.447168000000000E+01      3.883362000000000E-01     -1.535781000000000E+02
4880000000.000000      6.580505000000000E-01      1.423828000000000E+01      3.843536000000000E-01     -1.543672000000000E+02
4881000000.000000      6.580811000000000E-01      1.438916000000000E+01      3.796844000000000E-01     -1.548750000000000E+02
4882000000.000000      6.607666000000000E-01      1.427637000000000E+01      3.742676000000000E-01     -1.552891000000000E+02
4883000000.000000      6.612549000000000E-01      1.418701000000000E+01      3.703918000000000E-01     -1.560937000000000E+02
4884000000.000000      6.633911000000000E-01      1.425439000000000E+01      3.667145000000000E-01     -1.564453000000000E+02
4885000000.000000      6.631775000000000E-01      1.420801000000000E+01      3.609924000000000E-01     -1.567969000000000E+02
4886000000.000000      6.650085000000000E-01      1.392773000000000E+01      3.578033000000000E-01     -1.572109000000000E+02
4887000000.000000      6.651611000000000E-01      1.399219000000000E+01      3.536224000000000E-01     -1.578203000000000E+02
4888000000.000000      6.668091000000000E-01      1.373975000000000E+01      3.501434000000000E-01     -1.586484000000000E+02
4889000000.000000      6.665039000000000E-01      1.382178000000000E+01      3.453064000000000E-01     -1.589766000000000E+02
4890000000.000000      6.695251000000000E-01      1.364502000000000E+01      3.406067000000000E-01     -1.594766000000000E+02
4891000000.000000      6.699219000000000E-01      1.370947000000000E+01      3.361816000000000E-01     -1.597969000000000E+02
4892000000.000000      6.715698000000000E-01      1.355957000000000E+01      3.330688000000000E-01     -1.601094000000000E+02
4893000000.000000      6.734619000000000E-01      1.347852000000000E+01      3.277283000000000E-01     -1.605937000000000E+02
4894000000.000000      6.739807000000000E-01      1.331641000000000E+01      3.243408000000000E-01     -1.609844000000000E+02
4895000000.000000      6.751404000000000E-01      1.323975000000000E+01      3.216400000000000E-01     -1.613594000000000E+02
4896000000.000000      6.737976000000000E-01      1.322168000000000E+01      3.170471000000000E-01     -1.617734000000000E+02
4897000000.000000      6.752014000000000E-01      1.310791000000000E+01      3.125458000000000E-01     -1.622187000000000E+02
4898000000.000000      6.762390000000000E-01      1.292773000000000E+01      3.097839000000000E-01     -1.624219000000000E+02
4899000000.000000      6.772156000000000E-01      1.292529000000000E+01      3.052826000000000E-01     -1.629062000000000E+02
4900000000.000000      6.772766000000000E-01      1.279736000000000E+01      3.018494000000000E-01     -1.631328000000000E+02
4901000000.000000      6.794739000000000E-01      1.267822000000000E+01      2.982635000000000E-01     -1.635000000000000E+02
4902000000.000000      6.804810000000000E-01      1.248584000000000E+01      2.947235000000000E-01     -1.636797000000000E+02
4903000000.000000      6.794739000000000E-01      1.259961000000000E+01      2.901917000000000E-01     -1.640781000000000E+02
4904000000.000000      6.820679000000000E-01      1.233350000000000E+01      2.875977000000000E-01     -1.645547000000000E+02
4905000000.000000      6.819458000000000E-01      1.225635000000000E+01      2.846069000000000E-01     -1.648672000000000E+02
4906000000.000000      6.810608000000000E-01      1.221094000000000E+01      2.797241000000000E-01     -1.651250000000000E+02
4907000000.000000      6.821899000000000E-01      1.217139000000000E+01      2.777557000000000E-01     -1.655547000000000E+02
4908000000.000000      6.851807000000000E-01      1.199121000000000E+01      2.744293000000000E-01     -1.659922000000000E+02
4909000000.000000      6.851196000000000E-01      1.187451000000000E+01      2.693329000000000E-01     -1.662031000000000E+02
4910000000.000000      6.863403000000000E-01      1.184033000000000E+01      2.665558000000000E-01     -1.665390000000000E+02
4911000000.000000      6.868286000000000E-01      1.176221000000000E+01      2.632446000000000E-01     -1.667578000000000E+02
4912000000.000000      6.857605000000000E-01      1.165479000000000E+01      2.594910000000000E-01     -1.671797000000000E+02
4913000000.000000      6.870422000000000E-01      1.176758000000000E+01      2.564087000000000E-01     -1.674141000000000E+02
4914000000.000000      6.843872000000000E-01      1.126758000000000E+01      2.530670000000000E-01     -1.676172000000000E+02
4915000000.000000      6.860962000000000E-01      1.137598000000000E+01      2.491913000000000E-01     -1.680703000000000E+02
4916000000.000000      6.873169000000000E-01      1.126465000000000E+01      2.458038000000000E-01     -1.682969000000000E+02
4917000000.000000      6.884155000000000E-01      1.104492000000000E+01      2.419586000000000E-01     -1.686797000000000E+02
4918000000.000000      6.902771000000000E-01      1.111523000000000E+01      2.378464000000000E-01     -1.688828000000000E+02
4919000000.000000      6.901855000000000E-01      1.097217000000000E+01      2.344513000000000E-01     -1.689297000000000E+02
4920000000.000000      6.904297000000000E-01      1.078564000000000E+01      2.311172000000000E-01     -1.694219000000000E+02
4921000000.000000      6.917419000000000E-01      1.081592000000000E+01      2.278519000000000E-01     -1.696563000000000E+02
4922000000.000000      6.917419000000000E-01      1.061133000000000E+01      2.237320000000000E-01     -1.697578000000000E+02
4923000000.000000      6.914368000000000E-01      1.059766000000000E+01      2.198792000000000E-01     -1.698437000000000E+02
4924000000.000000      6.921082000000000E-01      1.046582000000000E+01      2.158051000000000E-01     -1.702812000000000E+02
4925000000.000000      6.944885000000000E-01      1.034473000000000E+01      2.123566000000000E-01     -1.704219000000000E+02
4926000000.000000      6.934509000000000E-01      1.035303000000000E+01      2.090530000000000E-01     -1.704531000000000E+02
4927000000.000000      6.944885000000000E-01      1.007568000000000E+01      2.051697000000000E-01     -1.705781000000000E+02
4928000000.000000      6.982117000000000E-01      1.013867000000000E+01      2.014236000000000E-01     -1.707891000000000E+02
4929000000.000000      6.956787000000000E-01      9.836426000000000E+00      1.973114000000000E-01     -1.707734000000000E+02
4930000000.000000      6.961670000000000E-01      9.939453000000000E+00      1.935577000000000E-01     -1.709609000000000E+02
4931000000.000000      6.971741000000000E-01      9.622559000000000E+00      1.905289000000000E-01     -1.708750000000000E+02
4932000000.000000      6.987610000000000E-01      9.627930000000000E+00      1.862411000000000E-01     -1.708828000000000E+02
4933000000.000000      6.971741000000000E-01      9.482422000000000E+00      1.820602000000000E-01     -1.706172000000000E+02
4934000000.000000      6.993713000000000E-01      9.581055000000000E+00      1.785507000000000E-01     -1.709297000000000E+02
4935000000.000000      6.995850000000000E-01      9.320313000000000E+00      1.750031000000000E-01     -1.704609000000000E+02
4936000000.000000      6.980286000000000E-01      9.270996000000000E+00      1.710739000000000E-01     -1.705000000000000E+02
4937000000.000000      7.003174000000000E-01      9.070313000000000E+00      1.673126000000000E-01     -1.701875000000000E+02
4938000000.000000      6.992493000000000E-01      9.127930000000000E+00      1.635590000000000E-01     -1.700156000000000E+02
4939000000.000000      7.001953000000000E-01      9.026367000000000E+00      1.600266000000000E-01     -1.696016000000000E+02
4940000000.000000      7.020569000000000E-01      9.048340000000000E+00      1.559830000000000E-01     -1.695937000000000E+02
4941000000.000000      7.001038000000000E-01      8.883789000000000E+00      1.530914000000000E-01     -1.688437000000000E+02
4942000000.000000      7.015686000000000E-01      8.729980000000000E+00      1.490936000000000E-01     -1.685000000000000E+02
4943000000.000000      7.011108000000000E-01      8.670898000000000E+00      1.456299000000000E-01     -1.681094000000000E+02
4944000000.000000      7.015076000000000E-01      8.433105000000000E+00      1.425018000000000E-01     -1.672188000000000E+02
4945000000.000000      7.030334000000000E-01      8.371582000000000E+00      1.389389000000000E-01     -1.666953000000000E+02
4946000000.000000      7.046814000000000E-01      8.277832000000000E+00      1.359253000000000E-01     -1.659375000000000E+02
4947000000.000000      7.075500000000000E-01      8.249023000000000E+00      1.324615000000000E-01     -1.651562000000000E+02
4948000000.000000      7.046204000000000E-01      8.142090000000000E+00      1.298828000000000E-01     -1.641953000000000E+02
4949000000.000000      7.034912000000000E-01      7.992432000000000E+00      1.270065000000000E-01     -1.630078000000000E+02
4950000000.000000      7.052307000000000E-01      8.040527000000000E+00      1.235809000000000E-01     -1.620781000000000E+02
4951000000.000000      7.071838000000000E-01      7.971924000000000E+00      1.210632000000000E-01     -1.610156000000000E+02
4952000000.000000      7.049255000000000E-01      7.801514000000000E+00      1.185760000000000E-01     -1.596719000000000E+02
4953000000.000000      7.060242000000000E-01      7.569580000000000E+00      1.168900000000000E-01     -1.581797000000000E+02
4954000000.000000      7.073669000000000E-01      7.449951000000000E+00      1.141968000000000E-01     -1.569375000000000E+02
