! Network Analyzer HP8722D
! Hewlett-Packard
! Data name: Linha & Wilkinson
! Saver's name: Rodrigo Anjos
! Comments: Teste da utilização de aquisição
continua pelo VNA HP8722D
! Time and date: 22/5/2025 13:58
!              Frequency                     S11                                                   S21                                                   S12                                                   S22
# HZ  S  MA R 50
4800000000.000000      6.507874000000000E-01      1.078857000000000E+01      4.711304000000000E-01     -9.239843000000000E+01
4801000000.000000      6.509094000000000E-01      1.109717000000000E+01      4.736633000000000E-01     -9.307421000000000E+01
4802000000.000000      6.488037000000000E-01      1.095850000000000E+01      4.745178000000000E-01     -9.363281000000000E+01
4803000000.000000      6.456909000000000E-01      1.095166000000000E+01      4.774628000000000E-01     -9.439453000000000E+01
4804000000.000000      6.454468000000000E-01      1.081836000000000E+01      4.790955000000000E-01     -9.522264000000000E+01
4805000000.000000      6.447144000000000E-01      1.072119000000000E+01      4.803619000000000E-01     -9.608984000000000E+01
4806000000.000000      6.422119000000000E-01      1.079248000000000E+01      4.819794000000000E-01     -9.669140000000000E+01
4807000000.000000      6.391602000000000E-01      1.085303000000000E+01      4.814606000000000E-01     -9.776953000000000E+01
4808000000.000000      6.362000000000000E-01      1.088184000000000E+01      4.847107000000000E-01     -9.824999000000000E+01
4809000000.000000      6.362610000000000E-01      1.096436000000000E+01      4.865723000000000E-01     -9.911718000000000E+01
4810000000.000000      6.352234000000000E-01      1.086230000000000E+01      4.894257000000000E-01     -9.983202000000000E+01
4811000000.000000      6.332092000000000E-01      1.088037000000000E+01      4.893799000000000E-01     -1.005742000000000E+02
4812000000.000000      6.340637000000000E-01      1.120020000000000E+01      4.901428000000000E-01     -1.013672000000000E+02
4813000000.000000      6.294250000000000E-01      1.103955000000000E+01      4.900513000000000E-01     -1.021601000000000E+02
4814000000.000000      6.293335000000000E-01      1.108105000000000E+01      4.918060000000000E-01     -1.028203000000000E+02
4815000000.000000      6.284485000000000E-01      1.119336000000000E+01      4.927521000000000E-01     -1.034805000000000E+02
4816000000.000000      6.267700000000000E-01      1.118945000000000E+01      4.942322000000000E-01     -1.041758000000000E+02
4817000000.000000      6.247864000000000E-01      1.136377000000000E+01      4.940796000000000E-01     -1.052500000000000E+02
4818000000.000000      6.246948000000000E-01      1.146240000000000E+01      4.970398000000000E-01     -1.058516000000000E+02
4819000000.000000      6.239319000000000E-01      1.143652000000000E+01      4.945984000000000E-01     -1.067695000000000E+02
4820000000.000000      6.231995000000000E-01      1.166748000000000E+01      4.965973000000000E-01     -1.070469000000000E+02
4821000000.000000      6.220703000000000E-01      1.163721000000000E+01      4.986420000000000E-01     -1.081602000000000E+02
4822000000.000000      6.199646000000000E-01      1.163037000000000E+01      4.948883000000000E-01     -1.087930000000000E+02
4823000000.000000      6.202393000000000E-01      1.174707000000000E+01      4.985199000000000E-01     -1.095898000000000E+02
4824000000.000000      6.185303000000000E-01      1.176221000000000E+01      4.976044000000000E-01     -1.102773000000000E+02
4825000000.000000      6.160889000000000E-01      1.189404000000000E+01      4.991760000000000E-01     -1.112031000000000E+02
4826000000.000000      6.170349000000000E-01      1.196387000000000E+01      4.997101000000000E-01     -1.118359000000000E+02
4827000000.000000      6.159058000000000E-01      1.209717000000000E+01      4.985046000000000E-01     -1.125078000000000E+02
4828000000.000000      6.165771000000000E-01      1.237744000000000E+01      4.994202000000000E-01     -1.132695000000000E+02
4829000000.000000      6.150818000000000E-01      1.250928000000000E+01      5.002136000000000E-01     -1.140234000000000E+02
4830000000.000000      6.146240000000000E-01      1.246094000000000E+01      4.986572000000000E-01     -1.148867000000000E+02
4831000000.000000      6.142578000000000E-01      1.261914000000000E+01      4.996033000000000E-01     -1.157539000000000E+02
4832000000.000000      6.138000000000000E-01      1.280273000000000E+01      4.997406000000000E-01     -1.164063000000000E+02
4833000000.000000      6.133728000000000E-01      1.273145000000000E+01      4.992523000000000E-01     -1.169883000000000E+02
4834000000.000000      6.119080000000000E-01      1.308301000000000E+01      4.988861000000000E-01     -1.179883000000000E+02
4835000000.000000      6.121521000000000E-01      1.304736000000000E+01      4.986420000000000E-01     -1.187539000000000E+02
4836000000.000000      6.128235000000000E-01      1.330273000000000E+01      4.981689000000000E-01     -1.193867000000000E+02
4837000000.000000      6.136169000000000E-01      1.344971000000000E+01      4.979706000000000E-01     -1.204922000000000E+02
4838000000.000000      6.140442000000000E-01      1.357764000000000E+01      4.973602000000000E-01     -1.209531000000000E+02
4839000000.000000      6.169739000000000E-01      1.364502000000000E+01      4.979401000000000E-01     -1.216680000000000E+02
4840000000.000000      6.181030000000000E-01      1.360645000000000E+01      4.981232000000000E-01     -1.224766000000000E+02
4841000000.000000      6.159058000000000E-01      1.381494000000000E+01      4.980927000000000E-01     -1.235976000000000E+02
4842000000.000000      6.164551000000000E-01      1.388232000000000E+01      4.953918000000000E-01     -1.243828000000000E+02
4843000000.000000      6.177368000000000E-01      1.391406000000000E+01      4.969177000000000E-01     -1.249609000000000E+02
4844000000.000000      6.166687000000000E-01      1.410498000000000E+01      4.944763000000000E-01     -1.259414000000000E+02
4845000000.000000      6.187439000000000E-01      1.417773000000000E+01      4.934235000000000E-01     -1.266758000000000E+02
4846000000.000000      6.195374000000000E-01      1.427100000000000E+01      4.931183000000000E-01     -1.274336000000000E+02
4847000000.000000      6.198730000000000E-01      1.451416000000000E+01      4.918671000000000E-01     -1.282578000000000E+02
4848000000.000000      6.201782000000000E-01      1.429980000000000E+01      4.899139000000000E-01     -1.292656000000000E+02
4849000000.000000      6.207886000000000E-01      1.447168000000000E+01      4.889526000000000E-01     -1.299922000000000E+02
4850000000.000000      6.202393000000000E-01      1.456641000000000E+01      4.871979000000000E-01     -1.307734000000000E+02
4851000000.000000      6.215820000000000E-01      1.474609000000000E+01      4.850006000000000E-01     -1.317500000000000E+02
4852000000.000000      6.245422000000000E-01      1.473926000000000E+01      4.839325000000000E-01     -1.325078000000000E+02
4853000000.000000      6.247253000000000E-01      1.452930000000000E+01      4.795837000000000E-01     -1.333281000000000E+02
4854000000.000000      6.280823000000000E-01      1.471729000000000E+01      4.800568000000000E-01     -1.342422000000000E+02
4855000000.000000      6.259155000000000E-01      1.471729000000000E+01      4.773560000000000E-01     -1.351172000000000E+02
4856000000.000000      6.274109000000000E-01      1.471582000000000E+01      4.741211000000000E-01     -1.360859000000000E+02
4857000000.000000      6.294861000000000E-01      1.487939000000000E+01      4.743805000000000E-01     -1.368359000000000E+02
4858000000.000000      6.295166000000000E-01      1.484375000000000E+01      4.689026000000000E-01     -1.377422000000000E+02
4859000000.000000      6.291199000000000E-01      1.487402000000000E+01      4.678497000000000E-01     -1.385703000000000E+02
4860000000.000000      6.322327000000000E-01      1.503027000000000E+01      4.643097000000000E-01     -1.395859000000000E+02
4861000000.000000      6.336365000000000E-01      1.504834000000000E+01      4.609833000000000E-01     -1.404453000000000E+02
4862000000.000000      6.347046000000000E-01      1.501416000000000E+01      4.598999000000000E-01     -1.410625000000000E+02
4863000000.000000      6.341553000000000E-01      1.513770000000000E+01      4.535217000000000E-01     -1.420156000000000E+02
4864000000.000000      6.372070000000000E-01      1.511426000000000E+01      4.521027000000000E-01     -1.426563000000000E+02
4865000000.000000      6.361389000000000E-01      1.494824000000000E+01      4.461365000000000E-01     -1.434453000000000E+02
4866000000.000000      6.382751000000000E-01      1.482568000000000E+01      4.433746000000000E-01     -1.444062000000000E+02
4867000000.000000      6.404114000000000E-01      1.506592000000000E+01      4.397888000000000E-01     -1.451328000000000E+02
4868000000.000000      6.414185000000000E-01      1.494824000000000E+01      4.347687000000000E-01     -1.460078000000000E+02
4869000000.000000      6.417847000000000E-01      1.490820000000000E+01      4.323730000000000E-01     -1.467578000000000E+02
4870000000.000000      6.427002000000000E-01      1.479297000000000E+01      4.273224000000000E-01     -1.471172000000000E+02
4871000000.000000      6.440125000000000E-01      1.483691000000000E+01      4.237366000000000E-01     -1.480859000000000E+02
4872000000.000000      6.486816000000000E-01      1.487256000000000E+01      4.190063000000000E-01     -1.487266000000000E+02
4873000000.000000      6.486206000000000E-01      1.505371000000000E+01      4.158478000000000E-01     -1.496250000000000E+02
4874000000.000000      6.473999000000000E-01      1.477930000000000E+01      4.106293000000000E-01     -1.503515000000000E+02
4875000000.000000      6.487122000000000E-01      1.481348000000000E+01      4.057159000000000E-01     -1.508906000000000E+02
4876000000.000000      6.527405000000000E-01      1.488086000000000E+01      4.028320000000000E-01     -1.516875000000000E+02
4877000000.000000      6.546021000000000E-01      1.455273000000000E+01      3.978119000000000E-01     -1.523047000000000E+02
4878000000.000000      6.522522000000000E-01      1.453857000000000E+01      3.928680000000000E-01     -1.528516000000000E+02
4879000000.000000      6.563416000000000E-01      1.461719000000000E+01      3.889771000000000E-01     -1.535469000000000E+02
4880000000.000000      6.581421000000000E-01      1.457031000000000E+01      3.843536000000000E-01     -1.539844000000000E+02
4881000000.000000      6.564941000000000E-01      1.448242000000000E+01      3.810120000000000E-01     -1.547969000000000E+02
4882000000.000000      6.602478000000000E-01      1.443848000000000E+01      3.765411000000000E-01     -1.551094000000000E+02
4883000000.000000      6.601868000000000E-01      1.437402000000000E+01      3.702393000000000E-01     -1.557578000000000E+02
4884000000.000000      6.616211000000000E-01      1.435596000000000E+01      3.669434000000000E-01     -1.564219000000000E+02
4885000000.000000      6.625977000000000E-01      1.417773000000000E+01      3.620300000000000E-01     -1.566641000000000E+02
4886000000.000000      6.647644000000000E-01      1.426025000000000E+01      3.569794000000000E-01     -1.570937000000000E+02
4887000000.000000      6.641541000000000E-01      1.418994000000000E+01      3.538513000000000E-01     -1.577031000000000E+02
4888000000.000000      6.657104000000000E-01      1.395264000000000E+01      3.506470000000000E-01     -1.583750000000000E+02
4889000000.000000      6.665039000000000E-01      1.384961000000000E+01      3.450775000000000E-01     -1.586328000000000E+02
4890000000.000000      6.663513000000000E-01      1.375732000000000E+01      3.407898000000000E-01     -1.595312000000000E+02
4891000000.000000      6.687927000000000E-01      1.374072000000000E+01      3.371277000000000E-01     -1.597188000000000E+02
4892000000.000000      6.695557000000000E-01      1.365967000000000E+01      3.326111000000000E-01     -1.599688000000000E+02
4893000000.000000      6.730347000000000E-01      1.356250000000000E+01      3.291931000000000E-01     -1.604766000000000E+02
4894000000.000000      6.722412000000000E-01      1.353516000000000E+01      3.234100000000000E-01     -1.608281000000000E+02
4895000000.000000      6.739502000000000E-01      1.354883000000000E+01      3.211670000000000E-01     -1.611875000000000E+02
4896000000.000000      6.744995000000000E-01      1.334814000000000E+01      3.174286000000000E-01     -1.615937000000000E+02
4897000000.000000      6.745911000000000E-01      1.318066000000000E+01      3.130188000000000E-01     -1.619531000000000E+02
4898000000.000000      6.760559000000000E-01      1.318896000000000E+01      3.097229000000000E-01     -1.623594000000000E+02
4899000000.000000      6.766357000000000E-01      1.294971000000000E+01      3.063202000000000E-01     -1.628359000000000E+02
4900000000.000000      6.781311000000000E-01      1.282471000000000E+01      3.022919000000000E-01     -1.630938000000000E+02
4901000000.000000      6.777954000000000E-01      1.297461000000000E+01      2.982788000000000E-01     -1.634453000000000E+02
4902000000.000000      6.799622000000000E-01      1.280029000000000E+01      2.961273000000000E-01     -1.636641000000000E+02
4903000000.000000      6.791992000000000E-01      1.271240000000000E+01      2.908325000000000E-01     -1.640312000000000E+02
4904000000.000000      6.822815000000000E-01      1.272217000000000E+01      2.870331000000000E-01     -1.645547000000000E+02
4905000000.000000      6.843262000000000E-01      1.253369000000000E+01      2.848663000000000E-01     -1.647109000000000E+02
4906000000.000000      6.824036000000000E-01      1.239795000000000E+01      2.808533000000000E-01     -1.648984000000000E+02
4907000000.000000      6.826782000000000E-01      1.228271000000000E+01      2.776489000000000E-01     -1.653828000000000E+02
4908000000.000000      6.848145000000000E-01      1.221777000000000E+01      2.746887000000000E-01     -1.657109000000000E+02
4909000000.000000      6.841736000000000E-01      1.203516000000000E+01      2.704773000000000E-01     -1.659844000000000E+02
4910000000.000000      6.837463000000000E-01      1.198047000000000E+01      2.666779000000000E-01     -1.664609000000000E+02
4911000000.000000      6.889954000000000E-01      1.191602000000000E+01      2.641602000000000E-01     -1.666484000000000E+02
4912000000.000000      6.856995000000000E-01      1.172363000000000E+01      2.596436000000000E-01     -1.671250000000000E+02
4913000000.000000      6.864624000000000E-01      1.167432000000000E+01      2.571716000000000E-01     -1.674297000000000E+02
4914000000.000000      6.872864000000000E-01      1.159033000000000E+01      2.528687000000000E-01     -1.675781000000000E+02
4915000000.000000      6.893921000000000E-01      1.152832000000000E+01      2.495422000000000E-01     -1.678672000000000E+02
4916000000.000000      6.903076000000000E-01      1.139941000000000E+01      2.462234000000000E-01     -1.684375000000000E+02
4917000000.000000      6.881409000000000E-01      1.116064000000000E+01      2.421799000000000E-01     -1.685156000000000E+02
4918000000.000000      6.900940000000000E-01      1.118262000000000E+01      2.384033000000000E-01     -1.687578000000000E+02
4919000000.000000      6.891479000000000E-01      1.120605000000000E+01      2.356339000000000E-01     -1.688125000000000E+02
4920000000.000000      6.917114000000000E-01      1.086230000000000E+01      2.307510000000000E-01     -1.693828000000000E+02
4921000000.000000      6.906128000000000E-01      1.096533000000000E+01      2.278290000000000E-01     -1.694375000000000E+02
4922000000.000000      6.908875000000000E-01      1.064258000000000E+01      2.242432000000000E-01     -1.696250000000000E+02
4923000000.000000      6.936951000000000E-01      1.067285000000000E+01      2.204208000000000E-01     -1.697031000000000E+02
4924000000.000000      6.915894000000000E-01      1.048877000000000E+01      2.163925000000000E-01     -1.701641000000000E+02
4925000000.000000      6.932983000000000E-01      1.061963000000000E+01      2.129898000000000E-01     -1.701562000000000E+02
4926000000.000000      6.930542000000000E-01      1.052734000000000E+01      2.098770000000000E-01     -1.704844000000000E+02
4927000000.000000      6.936340000000000E-01      1.017725000000000E+01      2.049637000000000E-01     -1.706563000000000E+02
4928000000.000000      6.959534000000000E-01      1.025977000000000E+01      2.017593000000000E-01     -1.706875000000000E+02
4929000000.000000      6.959839000000000E-01      1.011523000000000E+01      1.972885000000000E-01     -1.706406000000000E+02
4930000000.000000      6.954956000000000E-01      1.007959000000000E+01      1.944962000000000E-01     -1.707891000000000E+02
4931000000.000000      6.959839000000000E-01      9.915039000000000E+00      1.905594000000000E-01     -1.708281000000000E+02
4932000000.000000      6.969299000000000E-01      9.732422000000000E+00      1.864014000000000E-01     -1.709141000000000E+02
4933000000.000000      6.971436000000000E-01      9.828613000000000E+00      1.816406000000000E-01     -1.706640000000000E+02
4934000000.000000      6.997986000000000E-01      9.599121000000000E+00      1.785583000000000E-01     -1.707500000000000E+02
4935000000.000000      6.985168000000000E-01      9.563477000000000E+00      1.756821000000000E-01     -1.704219000000000E+02
4936000000.000000      6.965942000000000E-01      9.439941000000000E+00      1.712494000000000E-01     -1.701562000000000E+02
4937000000.000000      6.997070000000000E-01      9.211914000000000E+00      1.675034000000000E-01     -1.702266000000000E+02
4938000000.000000      6.972351000000000E-01      9.288574000000000E+00      1.636429000000000E-01     -1.697734000000000E+02
4939000000.000000      6.989441000000000E-01      9.277832000000000E+00      1.601410000000000E-01     -1.696953000000000E+02
4940000000.000000      6.991882000000000E-01      9.118652000000000E+00      1.558533000000000E-01     -1.695156000000000E+02
4941000000.000000      7.012024000000000E-01      8.862793000000000E+00      1.531982000000000E-01     -1.688516000000000E+02
4942000000.000000      7.010498000000000E-01      9.000488000000000E+00      1.490860000000000E-01     -1.684453000000000E+02
4943000000.000000      7.011414000000000E-01      8.937012000000000E+00      1.461945000000000E-01     -1.678203000000000E+02
4944000000.000000      7.030334000000000E-01      8.652832000000000E+00      1.426773000000000E-01     -1.674062000000000E+02
4945000000.000000      7.010498000000000E-01      8.681641000000000E+00      1.391373000000000E-01     -1.666719000000000E+02
4946000000.000000      7.042847000000000E-01      8.464844000000000E+00      1.359711000000000E-01     -1.659375000000000E+02
4947000000.000000      7.039490000000000E-01      8.372559000000000E+00      1.328354000000000E-01     -1.651641000000000E+02
4948000000.000000      7.059631000000000E-01      8.319336000000000E+00      1.299820000000000E-01     -1.641094000000000E+02
4949000000.000000      7.028198000000000E-01      8.159668000000000E+00      1.271210000000000E-01     -1.630234000000000E+02
4950000000.000000      7.061462000000000E-01      8.203613000000000E+00      1.237793000000000E-01     -1.621016000000000E+02
4951000000.000000      7.047119000000000E-01      7.982910000000000E+00      1.210899000000000E-01     -1.609297000000000E+02
4952000000.000000      7.056580000000000E-01      7.890869000000000E+00      1.184006000000000E-01     -1.597578000000000E+02
4953000000.000000      7.049866000000000E-01      7.904541000000000E+00      1.167221000000000E-01     -1.584531000000000E+02
4954000000.000000      7.076721000000000E-01      7.591553000000000E+00      1.143188000000000E-01     -1.571406000000000E+02
