! Network Analyzer HP8722D
! Hewlett-Packard
! Data name: Linha & Wilkinson
! Saver's name: Rodrigo Anjos
! Comments: Teste da utilização de aquisição
continua pelo VNA HP8722D
! Time and date: 22/5/2025 16:07
!              Frequency                     S11                                                   S21                                                   S12                                                   S22
# HZ  S  MA R 50
4800000000.000000      6.522217000000000E-01      1.085986000000000E+01      4.709015000000000E-01     -9.244532000000000E+01
4801000000.000000      6.504822000000000E-01      1.101221000000000E+01      4.727020000000000E-01     -9.303905000000000E+01
4802000000.000000      6.489868000000000E-01      1.094238000000000E+01      4.733276000000000E-01     -9.364843000000000E+01
4803000000.000000      6.464844000000000E-01      1.113037000000000E+01      4.788208000000000E-01     -9.455078000000000E+01
4804000000.000000      6.440430000000000E-01      1.103027000000000E+01      4.778748000000000E-01     -9.552343000000000E+01
4805000000.000000      6.439209000000000E-01      1.085547000000000E+01      4.803925000000000E-01     -9.605858000000000E+01
4806000000.000000      6.417542000000000E-01      1.091602000000000E+01      4.820557000000000E-01     -9.686718000000000E+01
4807000000.000000      6.382446000000000E-01      1.096143000000000E+01      4.829254000000000E-01     -9.764843000000000E+01
4808000000.000000      6.370850000000000E-01      1.085547000000000E+01      4.836884000000000E-01     -9.827343000000000E+01
4809000000.000000      6.349487000000000E-01      1.108887000000000E+01      4.881744000000000E-01     -9.931250000000000E+01
4810000000.000000      6.350403000000000E-01      1.097510000000000E+01      4.896240000000000E-01     -9.980469000000000E+01
4811000000.000000      6.331787000000000E-01      1.104932000000000E+01      4.896698000000000E-01     -1.008086000000000E+02
4812000000.000000      6.336975000000000E-01      1.126074000000000E+01      4.915009000000000E-01     -1.015273000000000E+02
4813000000.000000      6.312561000000000E-01      1.116064000000000E+01      4.923553000000000E-01     -1.022070000000000E+02
4814000000.000000      6.291504000000000E-01      1.120313000000000E+01      4.935760000000000E-01     -1.030234000000000E+02
4815000000.000000      6.268616000000000E-01      1.129102000000000E+01      4.914551000000000E-01     -1.037305000000000E+02
4816000000.000000      6.261292000000000E-01      1.138428000000000E+01      4.942017000000000E-01     -1.043672000000000E+02
4817000000.000000      6.244202000000000E-01      1.150781000000000E+01      4.933014000000000E-01     -1.051133000000000E+02
4818000000.000000      6.233521000000000E-01      1.139551000000000E+01      4.952545000000000E-01     -1.060039000000000E+02
4819000000.000000      6.228638000000000E-01      1.159863000000000E+01      4.951782000000000E-01     -1.066445000000000E+02
4820000000.000000      6.217651000000000E-01      1.158643000000000E+01      4.959717000000000E-01     -1.072890000000000E+02
4821000000.000000      6.210632000000000E-01      1.179932000000000E+01      4.978485000000000E-01     -1.081953000000000E+02
4822000000.000000      6.186829000000000E-01      1.175098000000000E+01      4.962921000000000E-01     -1.090000000000000E+02
4823000000.000000      6.186829000000000E-01      1.200781000000000E+01      4.975281000000000E-01     -1.095859000000000E+02
4824000000.000000      6.169434000000000E-01      1.206543000000000E+01      4.985199000000000E-01     -1.105547000000000E+02
4825000000.000000      6.157532000000000E-01      1.206836000000000E+01      4.981842000000000E-01     -1.111133000000000E+02
4826000000.000000      6.158142000000000E-01      1.210254000000000E+01      4.984894000000000E-01     -1.122617000000000E+02
4827000000.000000      6.145630000000000E-01      1.230713000000000E+01      4.991150000000000E-01     -1.126328000000000E+02
4828000000.000000      6.163940000000000E-01      1.232227000000000E+01      4.996338000000000E-01     -1.134766000000000E+02
4829000000.000000      6.158752000000000E-01      1.255029000000000E+01      5.008545000000000E-01     -1.144219000000000E+02
4830000000.000000      6.138000000000000E-01      1.277002000000000E+01      4.998016000000000E-01     -1.150391000000000E+02
4831000000.000000      6.131897000000000E-01      1.264795000000000E+01      4.990082000000000E-01     -1.157109000000000E+02
4832000000.000000      6.128845000000000E-01      1.302539000000000E+01      4.990387000000000E-01     -1.163008000000000E+02
4833000000.000000      6.126709000000000E-01      1.295410000000000E+01      4.985352000000000E-01     -1.170586000000000E+02
4834000000.000000      6.138611000000000E-01      1.302246000000000E+01      4.981232000000000E-01     -1.180547000000000E+02
4835000000.000000      6.133423000000000E-01      1.316553000000000E+01      4.992981000000000E-01     -1.187695000000000E+02
4836000000.000000      6.146240000000000E-01      1.335107000000000E+01      4.976501000000000E-01     -1.194648000000000E+02
4837000000.000000      6.131287000000000E-01      1.347998000000000E+01      4.970093000000000E-01     -1.206680000000000E+02
4838000000.000000      6.131592000000000E-01      1.360791000000000E+01      4.988708000000000E-01     -1.209961000000000E+02
4839000000.000000      6.162109000000000E-01      1.388770000000000E+01      4.972839000000000E-01     -1.219570000000000E+02
4840000000.000000      6.147156000000000E-01      1.371191000000000E+01      4.980316000000000E-01     -1.227539000000000E+02
4841000000.000000      6.140442000000000E-01      1.395654000000000E+01      4.966888000000000E-01     -1.234375000000000E+02
4842000000.000000      6.158447000000000E-01      1.401025000000000E+01      4.963531000000000E-01     -1.242578000000000E+02
4843000000.000000      6.178589000000000E-01      1.405127000000000E+01      4.962158000000000E-01     -1.251289000000000E+02
4844000000.000000      6.170044000000000E-01      1.400732000000000E+01      4.928131000000000E-01     -1.261055000000000E+02
4845000000.000000      6.193542000000000E-01      1.447998000000000E+01      4.938507000000000E-01     -1.267539000000000E+02
4846000000.000000      6.203308000000000E-01      1.431787000000000E+01      4.936523000000000E-01     -1.277812000000000E+02
4847000000.000000      6.189575000000000E-01      1.450049000000000E+01      4.915924000000000E-01     -1.283828000000000E+02
4848000000.000000      6.191406000000000E-01      1.451660000000000E+01      4.884796000000000E-01     -1.292266000000000E+02
4849000000.000000      6.197510000000000E-01      1.462402000000000E+01      4.876862000000000E-01     -1.301172000000000E+02
4850000000.000000      6.226807000000000E-01      1.467871000000000E+01      4.868164000000000E-01     -1.310313000000000E+02
4851000000.000000      6.227722000000000E-01      1.472266000000000E+01      4.857330000000000E-01     -1.319375000000000E+02
4852000000.000000      6.244812000000000E-01      1.471436000000000E+01      4.824982000000000E-01     -1.327578000000000E+02
4853000000.000000      6.235352000000000E-01      1.475732000000000E+01      4.802856000000000E-01     -1.335625000000000E+02
4854000000.000000      6.252441000000000E-01      1.473633000000000E+01      4.790802000000000E-01     -1.345312000000000E+02
4855000000.000000      6.263733000000000E-01      1.481055000000000E+01      4.756622000000000E-01     -1.352656000000000E+02
4856000000.000000      6.271667000000000E-01      1.478857000000000E+01      4.741974000000000E-01     -1.360547000000000E+02
4857000000.000000      6.283264000000000E-01      1.502197000000000E+01      4.731293000000000E-01     -1.368359000000000E+02
4858000000.000000      6.283875000000000E-01      1.505811000000000E+01      4.691315000000000E-01     -1.377578000000000E+02
4859000000.000000      6.311646000000000E-01      1.490820000000000E+01      4.663239000000000E-01     -1.386953000000000E+02
4860000000.000000      6.312866000000000E-01      1.513086000000000E+01      4.635925000000000E-01     -1.394297000000000E+02
4861000000.000000      6.325073000000000E-01      1.517041000000000E+01      4.602051000000000E-01     -1.403594000000000E+02
4862000000.000000      6.335449000000000E-01      1.508252000000000E+01      4.572296000000000E-01     -1.412500000000000E+02
4863000000.000000      6.374207000000000E-01      1.526367000000000E+01      4.528656000000000E-01     -1.420078000000000E+02
4864000000.000000      6.372070000000000E-01      1.515820000000000E+01      4.511871000000000E-01     -1.429531000000000E+02
4865000000.000000      6.369324000000000E-01      1.496875000000000E+01      4.466553000000000E-01     -1.435391000000000E+02
4866000000.000000      6.387024000000000E-01      1.508936000000000E+01      4.425812000000000E-01     -1.445078000000000E+02
4867000000.000000      6.401672000000000E-01      1.500977000000000E+01      4.396820000000000E-01     -1.453750000000000E+02
4868000000.000000      6.419678000000000E-01      1.494678000000000E+01      4.349213000000000E-01     -1.460781000000000E+02
4869000000.000000      6.412964000000000E-01      1.504297000000000E+01      4.326019000000000E-01     -1.467578000000000E+02
4870000000.000000      6.416321000000000E-01      1.507324000000000E+01      4.252625000000000E-01     -1.472812000000000E+02
4871000000.000000      6.430664000000000E-01      1.508691000000000E+01      4.220428000000000E-01     -1.482500000000000E+02
4872000000.000000      6.486206000000000E-01      1.510449000000000E+01      4.183807000000000E-01     -1.487813000000000E+02
4873000000.000000      6.461182000000000E-01      1.500146000000000E+01      4.140930000000000E-01     -1.496562000000000E+02
4874000000.000000      6.492310000000000E-01      1.491504000000000E+01      4.091492000000000E-01     -1.502891000000000E+02
4875000000.000000      6.528931000000000E-01      1.484912000000000E+01      4.046631000000000E-01     -1.509531000000000E+02
4876000000.000000      6.527100000000000E-01      1.494385000000000E+01      4.002533000000000E-01     -1.516641000000000E+02
4877000000.000000      6.528320000000000E-01      1.468701000000000E+01      3.956146000000000E-01     -1.523203000000000E+02
4878000000.000000      6.532288000000000E-01      1.475586000000000E+01      3.917847000000000E-01     -1.528750000000000E+02
4879000000.000000      6.564331000000000E-01      1.461963000000000E+01      3.870544000000000E-01     -1.533359000000000E+02
4880000000.000000      6.578979000000000E-01      1.449463000000000E+01      3.838501000000000E-01     -1.543047000000000E+02
4881000000.000000      6.576843000000000E-01      1.466357000000000E+01      3.788757000000000E-01     -1.545625000000000E+02
4882000000.000000      6.596680000000000E-01      1.460449000000000E+01      3.752747000000000E-01     -1.554141000000000E+02
4883000000.000000      6.599731000000000E-01      1.439893000000000E+01      3.706207000000000E-01     -1.560078000000000E+02
4884000000.000000      6.638489000000000E-01      1.439893000000000E+01      3.652344000000000E-01     -1.564609000000000E+02
4885000000.000000      6.640015000000000E-01      1.442627000000000E+01      3.605957000000000E-01     -1.567344000000000E+02
4886000000.000000      6.651306000000000E-01      1.435498000000000E+01      3.561249000000000E-01     -1.574609000000000E+02
4887000000.000000      6.637573000000000E-01      1.405518000000000E+01      3.524780000000000E-01     -1.578672000000000E+02
4888000000.000000      6.670837000000000E-01      1.414209000000000E+01      3.485107000000000E-01     -1.582031000000000E+02
4889000000.000000      6.693420000000000E-01      1.398535000000000E+01      3.432159000000000E-01     -1.585938000000000E+02
4890000000.000000      6.676331000000000E-01      1.391260000000000E+01      3.397369000000000E-01     -1.594297000000000E+02
4891000000.000000      6.694946000000000E-01      1.387158000000000E+01      3.362732000000000E-01     -1.596016000000000E+02
4892000000.000000      6.676941000000000E-01      1.375586000000000E+01      3.326721000000000E-01     -1.598828000000000E+02
4893000000.000000      6.719360000000000E-01      1.358984000000000E+01      3.272858000000000E-01     -1.606484000000000E+02
4894000000.000000      6.725159000000000E-01      1.352686000000000E+01      3.235779000000000E-01     -1.610156000000000E+02
4895000000.000000      6.743774000000000E-01      1.336328000000000E+01      3.204651000000000E-01     -1.612109000000000E+02
4896000000.000000      6.765137000000000E-01      1.327148000000000E+01      3.170776000000000E-01     -1.616562000000000E+02
4897000000.000000      6.754761000000000E-01      1.325488000000000E+01      3.126526000000000E-01     -1.620547000000000E+02
4898000000.000000      6.766663000000000E-01      1.333838000000000E+01      3.093414000000000E-01     -1.623437000000000E+02
4899000000.000000      6.780701000000000E-01      1.320557000000000E+01      3.048706000000000E-01     -1.628203000000000E+02
4900000000.000000      6.793213000000000E-01      1.290332000000000E+01      3.012390000000000E-01     -1.631641000000000E+02
4901000000.000000      6.788940000000000E-01      1.291162000000000E+01      2.985077000000000E-01     -1.634687000000000E+02
4902000000.000000      6.824036000000000E-01      1.289795000000000E+01      2.952423000000000E-01     -1.635937000000000E+02
4903000000.000000      6.795349000000000E-01      1.272314000000000E+01      2.901611000000000E-01     -1.640391000000000E+02
4904000000.000000      6.803589000000000E-01      1.251025000000000E+01      2.866516000000000E-01     -1.643828000000000E+02
4905000000.000000      6.822510000000000E-01      1.258447000000000E+01      2.835541000000000E-01     -1.648203000000000E+02
4906000000.000000      6.831970000000000E-01      1.251318000000000E+01      2.802582000000000E-01     -1.647656000000000E+02
4907000000.000000      6.844788000000000E-01      1.236768000000000E+01      2.772827000000000E-01     -1.653750000000000E+02
4908000000.000000      6.846313000000000E-01      1.225244000000000E+01      2.738342000000000E-01     -1.657500000000000E+02
4909000000.000000      6.844177000000000E-01      1.223291000000000E+01      2.698822000000000E-01     -1.661094000000000E+02
4910000000.000000      6.854858000000000E-01      1.199561000000000E+01      2.662201000000000E-01     -1.663281000000000E+02
4911000000.000000      6.868286000000000E-01      1.191162000000000E+01      2.634735000000000E-01     -1.666328000000000E+02
4912000000.000000      6.859741000000000E-01      1.191455000000000E+01      2.587128000000000E-01     -1.669844000000000E+02
4913000000.000000      6.879272000000000E-01      1.161084000000000E+01      2.556915000000000E-01     -1.673516000000000E+02
4914000000.000000      6.876526000000000E-01      1.165625000000000E+01      2.522125000000000E-01     -1.676406000000000E+02
4915000000.000000      6.868896000000000E-01      1.165625000000000E+01      2.487335000000000E-01     -1.679609000000000E+02
4916000000.000000      6.891785000000000E-01      1.145703000000000E+01      2.454376000000000E-01     -1.682031000000000E+02
4917000000.000000      6.903992000000000E-01      1.127197000000000E+01      2.413635000000000E-01     -1.685078000000000E+02
4918000000.000000      6.886902000000000E-01      1.116211000000000E+01      2.376480000000000E-01     -1.687031000000000E+02
4919000000.000000      6.886292000000000E-01      1.127441000000000E+01      2.341309000000000E-01     -1.689219000000000E+02
4920000000.000000      6.917725000000000E-01      1.119629000000000E+01      2.304459000000000E-01     -1.692422000000000E+02
4921000000.000000      6.898804000000000E-01      1.110840000000000E+01      2.269440000000000E-01     -1.693906000000000E+02
4922000000.000000      6.913147000000000E-01      1.095996000000000E+01      2.233810000000000E-01     -1.695000000000000E+02
4923000000.000000      6.932373000000000E-01      1.087744000000000E+01      2.191620000000000E-01     -1.698359000000000E+02
4924000000.000000      6.914673000000000E-01      1.075537000000000E+01      2.153549000000000E-01     -1.700312000000000E+02
4925000000.000000      6.906433000000000E-01      1.064844000000000E+01      2.113953000000000E-01     -1.701484000000000E+02
4926000000.000000      6.938477000000000E-01      1.045166000000000E+01      2.083664000000000E-01     -1.703438000000000E+02
4927000000.000000      6.934509000000000E-01      1.038867000000000E+01      2.040863000000000E-01     -1.705625000000000E+02
4928000000.000000      6.953430000000000E-01      1.019922000000000E+01      2.003326000000000E-01     -1.706172000000000E+02
4929000000.000000      6.950378000000000E-01      1.005225000000000E+01      1.969452000000000E-01     -1.706640000000000E+02
4930000000.000000      6.955872000000000E-01      1.015527000000000E+01      1.929932000000000E-01     -1.706640000000000E+02
4931000000.000000      6.935425000000000E-01      9.795410000000000E+00      1.898346000000000E-01     -1.706719000000000E+02
4932000000.000000      6.949463000000000E-01      9.850586000000000E+00      1.856995000000000E-01     -1.706797000000000E+02
4933000000.000000      6.977234000000000E-01      9.739258000000000E+00      1.809387000000000E-01     -1.703594000000000E+02
4934000000.000000      6.990662000000000E-01      9.687012000000000E+00      1.783142000000000E-01     -1.704766000000000E+02
4935000000.000000      6.989746000000000E-01      9.649902000000000E+00      1.749039000000000E-01     -1.702344000000000E+02
4936000000.000000      6.974182000000000E-01      9.511230000000000E+00      1.705704000000000E-01     -1.703750000000000E+02
4937000000.000000      6.980591000000000E-01      9.310547000000000E+00      1.670227000000000E-01     -1.701719000000000E+02
4938000000.000000      6.975403000000000E-01      9.339355000000000E+00      1.634369000000000E-01     -1.696875000000000E+02
4939000000.000000      7.008362000000000E-01      9.081543000000000E+00      1.593094000000000E-01     -1.694609000000000E+02
4940000000.000000      6.999512000000000E-01      9.031738000000000E+00      1.558533000000000E-01     -1.693125000000000E+02
4941000000.000000      7.005310000000000E-01      8.982422000000000E+00      1.525345000000000E-01     -1.687109000000000E+02
4942000000.000000      6.997375000000000E-01      8.889160000000000E+00      1.487350000000000E-01     -1.681484000000000E+02
4943000000.000000      7.015076000000000E-01      8.784668000000000E+00      1.456223000000000E-01     -1.674844000000000E+02
4944000000.000000      7.025146000000000E-01      8.757324000000000E+00      1.425095000000000E-01     -1.670547000000000E+02
4945000000.000000      7.048035000000000E-01      8.504395000000000E+00      1.379471000000000E-01     -1.664375000000000E+02
4946000000.000000      7.020264000000000E-01      8.473145000000000E+00      1.355209000000000E-01     -1.657422000000000E+02
4947000000.000000      7.045898000000000E-01      8.473145000000000E+00      1.320343000000000E-01     -1.648750000000000E+02
4948000000.000000      7.046509000000000E-01      8.544434000000000E+00      1.296234000000000E-01     -1.637969000000000E+02
4949000000.000000      7.031860000000000E-01      8.155762000000000E+00      1.265640000000000E-01     -1.626328000000000E+02
4950000000.000000      7.024841000000000E-01      8.276367000000000E+00      1.237221000000000E-01     -1.615937000000000E+02
4951000000.000000      7.060852000000000E-01      8.064941000000000E+00      1.213417000000000E-01     -1.605859000000000E+02
4952000000.000000      7.049866000000000E-01      7.877197000000000E+00      1.182404000000000E-01     -1.594844000000000E+02
4953000000.000000      7.047119000000000E-01      7.804199000000000E+00      1.164055000000000E-01     -1.578047000000000E+02
4954000000.000000      7.084961000000000E-01      7.767334000000000E+00      1.142883000000000E-01     -1.567422000000000E+02
