! Network Analyzer HP8722D
! Hewlett-Packard
! Data name: Linha & Wilkinson
! Saver's name: Rodrigo Anjos
! Comments: Teste da utilização de aquisição
continua pelo VNA HP8722D
! Time and date: 22/5/2025 08:08
!              Frequency                     S11                                                   S21                                                   S12                                                   S22
# HZ  S  MA R 50
4800000000.000000      6.481323000000000E-01      1.016895000000000E+01      4.746857000000000E-01     -9.367188000000000E+01
4801000000.000000      6.458130000000000E-01      1.022510000000000E+01      4.750519000000000E-01     -9.436718000000000E+01
4802000000.000000      6.432800000000000E-01      1.029541000000000E+01      4.769897000000000E-01     -9.521484000000000E+01
4803000000.000000      6.418457000000000E-01      1.022412000000000E+01      4.812012000000000E-01     -9.585155000000000E+01
4804000000.000000      6.402588000000000E-01      1.027881000000000E+01      4.805908000000000E-01     -9.672655000000000E+01
4805000000.000000      6.397095000000000E-01      1.029541000000000E+01      4.837494000000000E-01     -9.751562000000000E+01
4806000000.000000      6.360474000000000E-01      1.024463000000000E+01      4.844971000000000E-01     -9.812889000000000E+01
4807000000.000000      6.357117000000000E-01      1.027197000000000E+01      4.853058000000000E-01     -9.900780000000000E+01
4808000000.000000      6.316223000000000E-01      1.034473000000000E+01      4.881439000000000E-01     -9.961327000000000E+01
4809000000.000000      6.322632000000000E-01      1.034180000000000E+01      4.892883000000000E-01     -1.005937000000000E+02
4810000000.000000      6.301880000000000E-01      1.039990000000000E+01      4.908752000000000E-01     -1.011641000000000E+02
4811000000.000000      6.296387000000000E-01      1.058105000000000E+01      4.920807000000000E-01     -1.021289000000000E+02
4812000000.000000      6.302795000000000E-01      1.059326000000000E+01      4.920654000000000E-01     -1.027617000000000E+02
4813000000.000000      6.267700000000000E-01      1.055078000000000E+01      4.935303000000000E-01     -1.036758000000000E+02
4814000000.000000      6.243896000000000E-01      1.053174000000000E+01      4.935150000000000E-01     -1.042773000000000E+02
4815000000.000000      6.240540000000000E-01      1.060693000000000E+01      4.934692000000000E-01     -1.050703000000000E+02
4816000000.000000      6.236572000000000E-01      1.069238000000000E+01      4.955902000000000E-01     -1.059062000000000E+02
4817000000.000000      6.219177000000000E-01      1.078564000000000E+01      4.972076000000000E-01     -1.066211000000000E+02
4818000000.000000      6.215515000000000E-01      1.092969000000000E+01      4.954529000000000E-01     -1.075000000000000E+02
4819000000.000000      6.195374000000000E-01      1.103418000000000E+01      4.972229000000000E-01     -1.080195000000000E+02
4820000000.000000      6.171265000000000E-01      1.116455000000000E+01      4.973145000000000E-01     -1.088750000000000E+02
4821000000.000000      6.174011000000000E-01      1.120313000000000E+01      4.982910000000000E-01     -1.096523000000000E+02
4822000000.000000      6.158142000000000E-01      1.120605000000000E+01      4.973907000000000E-01     -1.102344000000000E+02
4823000000.000000      6.164856000000000E-01      1.124023000000000E+01      4.996796000000000E-01     -1.112070000000000E+02
4824000000.000000      6.152954000000000E-01      1.149414000000000E+01      4.988861000000000E-01     -1.119023000000000E+02
4825000000.000000      6.144409000000000E-01      1.147217000000000E+01      4.980927000000000E-01     -1.124922000000000E+02
4826000000.000000      6.127014000000000E-01      1.154932000000000E+01      5.008545000000000E-01     -1.135859000000000E+02
4827000000.000000      6.136475000000000E-01      1.188281000000000E+01      4.992676000000000E-01     -1.140430000000000E+02
4828000000.000000      6.138306000000000E-01      1.174268000000000E+01      5.004883000000000E-01     -1.150234000000000E+02
4829000000.000000      6.140442000000000E-01      1.220703000000000E+01      5.006409000000000E-01     -1.155039000000000E+02
4830000000.000000      6.123352000000000E-01      1.207227000000000E+01      5.008850000000000E-01     -1.163359000000000E+02
4831000000.000000      6.126709000000000E-01      1.212744000000000E+01      4.995117000000000E-01     -1.172656000000000E+02
4832000000.000000      6.119080000000000E-01      1.258203000000000E+01      4.995728000000000E-01     -1.177695000000000E+02
4833000000.000000      6.111145000000000E-01      1.245117000000000E+01      4.989014000000000E-01     -1.186328000000000E+02
4834000000.000000      6.108093000000000E-01      1.237305000000000E+01      4.994659000000000E-01     -1.194375000000000E+02
4835000000.000000      6.120911000000000E-01      1.277539000000000E+01      4.997559000000000E-01     -1.202539000000000E+02
4836000000.000000      6.122742000000000E-01      1.281006000000000E+01      4.968719000000000E-01     -1.209219000000000E+02
4837000000.000000      6.131897000000000E-01      1.292529000000000E+01      4.976044000000000E-01     -1.220508000000000E+02
4838000000.000000      6.110229000000000E-01      1.287842000000000E+01      4.970703000000000E-01     -1.223203000000000E+02
4839000000.000000      6.149292000000000E-01      1.316553000000000E+01      4.972229000000000E-01     -1.232109000000000E+02
4840000000.000000      6.143494000000000E-01      1.298584000000000E+01      4.976349000000000E-01     -1.241133000000000E+02
4841000000.000000      6.139221000000000E-01      1.339893000000000E+01      4.964142000000000E-01     -1.251250000000000E+02
4842000000.000000      6.140747000000000E-01      1.335352000000000E+01      4.953156000000000E-01     -1.258125000000000E+02
4843000000.000000      6.156006000000000E-01      1.347461000000000E+01      4.951019000000000E-01     -1.265937000000000E+02
4844000000.000000      6.171875000000000E-01      1.351318000000000E+01      4.927368000000000E-01     -1.274336000000000E+02
4845000000.000000      6.159363000000000E-01      1.372461000000000E+01      4.913177000000000E-01     -1.280625000000000E+02
4846000000.000000      6.172791000000000E-01      1.379883000000000E+01      4.902496000000000E-01     -1.291250000000000E+02
4847000000.000000      6.195068000000000E-01      1.384277000000000E+01      4.890137000000000E-01     -1.297188000000000E+02
4848000000.000000      6.173706000000000E-01      1.372705000000000E+01      4.875336000000000E-01     -1.307188000000000E+02
4849000000.000000      6.197815000000000E-01      1.387012000000000E+01      4.865112000000000E-01     -1.316328000000000E+02
4850000000.000000      6.207275000000000E-01      1.392920000000000E+01      4.839172000000000E-01     -1.324687000000000E+02
4851000000.000000      6.239319000000000E-01      1.423828000000000E+01      4.834137000000000E-01     -1.331406000000000E+02
4852000000.000000      6.240234000000000E-01      1.420215000000000E+01      4.814148000000000E-01     -1.341328000000000E+02
4853000000.000000      6.246338000000000E-01      1.397998000000000E+01      4.769135000000000E-01     -1.349219000000000E+02
4854000000.000000      6.261292000000000E-01      1.411865000000000E+01      4.746704000000000E-01     -1.358750000000000E+02
4855000000.000000      6.268005000000000E-01      1.424609000000000E+01      4.723663000000000E-01     -1.366797000000000E+02
4856000000.000000      6.273193000000000E-01      1.426025000000000E+01      4.705353000000000E-01     -1.376016000000000E+02
4857000000.000000      6.291199000000000E-01      1.437109000000000E+01      4.689026000000000E-01     -1.384844000000000E+02
4858000000.000000      6.289673000000000E-01      1.426563000000000E+01      4.666901000000000E-01     -1.391875000000000E+02
4859000000.000000      6.322021000000000E-01      1.414893000000000E+01      4.628754000000000E-01     -1.400938000000000E+02
4860000000.000000      6.324158000000000E-01      1.427100000000000E+01      4.597778000000000E-01     -1.407266000000000E+02
4861000000.000000      6.324463000000000E-01      1.440576000000000E+01      4.572296000000000E-01     -1.417891000000000E+02
4862000000.000000      6.330566000000000E-01      1.437695000000000E+01      4.526062000000000E-01     -1.425547000000000E+02
4863000000.000000      6.351624000000000E-01      1.439063000000000E+01      4.489441000000000E-01     -1.434062000000000E+02
4864000000.000000      6.372070000000000E-01      1.420801000000000E+01      4.459381000000000E-01     -1.441875000000000E+02
4865000000.000000      6.365356000000000E-01      1.430811000000000E+01      4.421539000000000E-01     -1.448672000000000E+02
4866000000.000000      6.401367000000000E-01      1.416943000000000E+01      4.393921000000000E-01     -1.456875000000000E+02
4867000000.000000      6.402283000000000E-01      1.443457000000000E+01      4.347687000000000E-01     -1.466328000000000E+02
4868000000.000000      6.416931000000000E-01      1.445898000000000E+01      4.320831000000000E-01     -1.473438000000000E+02
4869000000.000000      6.442566000000000E-01      1.421631000000000E+01      4.259491000000000E-01     -1.480313000000000E+02
4870000000.000000      6.445618000000000E-01      1.425732000000000E+01      4.237518000000000E-01     -1.487109000000000E+02
4871000000.000000      6.463013000000000E-01      1.412402000000000E+01      4.192200000000000E-01     -1.495312000000000E+02
4872000000.000000      6.484070000000000E-01      1.420654000000000E+01      4.138489000000000E-01     -1.502578000000000E+02
4873000000.000000      6.490784000000000E-01      1.417773000000000E+01      4.100647000000000E-01     -1.508203000000000E+02
4874000000.000000      6.489868000000000E-01      1.411426000000000E+01      4.053040000000000E-01     -1.515703000000000E+02
4875000000.000000      6.508789000000000E-01      1.402783000000000E+01      3.995972000000000E-01     -1.520781000000000E+02
4876000000.000000      6.532593000000000E-01      1.405957000000000E+01      3.973541000000000E-01     -1.530234000000000E+02
4877000000.000000      6.551819000000000E-01      1.382178000000000E+01      3.910828000000000E-01     -1.535391000000000E+02
4878000000.000000      6.557922000000000E-01      1.393164000000000E+01      3.874969000000000E-01     -1.540156000000000E+02
4879000000.000000      6.557312000000000E-01      1.393311000000000E+01      3.821411000000000E-01     -1.546484000000000E+02
4880000000.000000      6.591492000000000E-01      1.399365000000000E+01      3.782349000000000E-01     -1.552891000000000E+02
4881000000.000000      6.591187000000000E-01      1.368994000000000E+01      3.740997000000000E-01     -1.557109000000000E+02
4882000000.000000      6.610718000000000E-01      1.374072000000000E+01      3.695831000000000E-01     -1.563828000000000E+02
4883000000.000000      6.590576000000000E-01      1.366113000000000E+01      3.649445000000000E-01     -1.568828000000000E+02
4884000000.000000      6.640625000000000E-01      1.365186000000000E+01      3.619843000000000E-01     -1.572813000000000E+02
4885000000.000000      6.634216000000000E-01      1.362988000000000E+01      3.565979000000000E-01     -1.575625000000000E+02
4886000000.000000      6.671753000000000E-01      1.349512000000000E+01      3.527985000000000E-01     -1.583203000000000E+02
4887000000.000000      6.667480000000000E-01      1.336328000000000E+01      3.496399000000000E-01     -1.588438000000000E+02
4888000000.000000      6.678772000000000E-01      1.329443000000000E+01      3.453369000000000E-01     -1.592656000000000E+02
4889000000.000000      6.687927000000000E-01      1.313135000000000E+01      3.392334000000000E-01     -1.596484000000000E+02
4890000000.000000      6.665955000000000E-01      1.300635000000000E+01      3.355713000000000E-01     -1.603437000000000E+02
4891000000.000000      6.723022000000000E-01      1.307764000000000E+01      3.321838000000000E-01     -1.606250000000000E+02
4892000000.000000      6.720581000000000E-01      1.293213000000000E+01      3.282318000000000E-01     -1.608125000000000E+02
4893000000.000000      6.725159000000000E-01      1.283301000000000E+01      3.237762000000000E-01     -1.613203000000000E+02
4894000000.000000      6.725464000000000E-01      1.291016000000000E+01      3.202515000000000E-01     -1.617578000000000E+02
4895000000.000000      6.732483000000000E-01      1.259717000000000E+01      3.173981000000000E-01     -1.621172000000000E+02
4896000000.000000      6.750488000000000E-01      1.256689000000000E+01      3.124542000000000E-01     -1.624219000000000E+02
4897000000.000000      6.751099000000000E-01      1.261621000000000E+01      3.083801000000000E-01     -1.628906000000000E+02
4898000000.000000      6.776733000000000E-01      1.239258000000000E+01      3.055115000000000E-01     -1.630547000000000E+02
4899000000.000000      6.781311000000000E-01      1.225488000000000E+01      3.014679000000000E-01     -1.635703000000000E+02
4900000000.000000      6.796875000000000E-01      1.219043000000000E+01      2.975159000000000E-01     -1.639062000000000E+02
4901000000.000000      6.798401000000000E-01      1.217676000000000E+01      2.938385000000000E-01     -1.642266000000000E+02
4902000000.000000      6.799316000000000E-01      1.196680000000000E+01      2.906189000000000E-01     -1.644140000000000E+02
4903000000.000000      6.798401000000000E-01      1.201074000000000E+01      2.866821000000000E-01     -1.648125000000000E+02
4904000000.000000      6.817017000000000E-01      1.177002000000000E+01      2.829437000000000E-01     -1.652187000000000E+02
4905000000.000000      6.803894000000000E-01      1.168213000000000E+01      2.799225000000000E-01     -1.655547000000000E+02
4906000000.000000      6.817627000000000E-01      1.169043000000000E+01      2.757721000000000E-01     -1.656250000000000E+02
4907000000.000000      6.842041000000000E-01      1.164795000000000E+01      2.731628000000000E-01     -1.661562000000000E+02
4908000000.000000      6.848755000000000E-01      1.125391000000000E+01      2.699432000000000E-01     -1.664844000000000E+02
4909000000.000000      6.838684000000000E-01      1.127588000000000E+01      2.657776000000000E-01     -1.666719000000000E+02
4910000000.000000      6.847229000000000E-01      1.130322000000000E+01      2.626190000000000E-01     -1.668594000000000E+02
4911000000.000000      6.864929000000000E-01      1.112744000000000E+01      2.595673000000000E-01     -1.673594000000000E+02
4912000000.000000      6.859436000000000E-01      1.110010000000000E+01      2.555847000000000E-01     -1.677031000000000E+02
4913000000.000000      6.872559000000000E-01      1.098633000000000E+01      2.515869000000000E-01     -1.679062000000000E+02
4914000000.000000      6.887512000000000E-01      1.072510000000000E+01      2.482300000000000E-01     -1.679062000000000E+02
4915000000.000000      6.877747000000000E-01      1.074316000000000E+01      2.448654000000000E-01     -1.685547000000000E+02
4916000000.000000      6.875305000000000E-01      1.068652000000000E+01      2.413025000000000E-01     -1.688594000000000E+02
4917000000.000000      6.884155000000000E-01      1.050977000000000E+01      2.374802000000000E-01     -1.690078000000000E+02
4918000000.000000      6.905823000000000E-01      1.042188000000000E+01      2.337723000000000E-01     -1.692188000000000E+02
4919000000.000000      6.895142000000000E-01      1.032422000000000E+01      2.307434000000000E-01     -1.693516000000000E+02
4920000000.000000      6.919556000000000E-01      1.020605000000000E+01      2.266159000000000E-01     -1.697656000000000E+02
4921000000.000000      6.901855000000000E-01      1.011523000000000E+01      2.241211000000000E-01     -1.698828000000000E+02
4922000000.000000      6.914978000000000E-01      1.001514000000000E+01      2.192459000000000E-01     -1.698828000000000E+02
4923000000.000000      6.930237000000000E-01      1.006885000000000E+01      2.157288000000000E-01     -1.700938000000000E+02
4924000000.000000      6.928101000000000E-01      9.868164000000000E+00      2.124481000000000E-01     -1.705156000000000E+02
4925000000.000000      6.921082000000000E-01      9.744629000000000E+00      2.087021000000000E-01     -1.703750000000000E+02
4926000000.000000      6.930847000000000E-01      9.743164000000000E+00      2.048874000000000E-01     -1.706172000000000E+02
4927000000.000000      6.939697000000000E-01      9.552246000000000E+00      2.012711000000000E-01     -1.707500000000000E+02
4928000000.000000      6.944580000000000E-01      9.435547000000000E+00      1.977692000000000E-01     -1.706797000000000E+02
4929000000.000000      6.945190000000000E-01      9.332520000000000E+00      1.931763000000000E-01     -1.708203000000000E+02
4930000000.000000      6.964111000000000E-01      9.424805000000000E+00      1.900711000000000E-01     -1.708047000000000E+02
4931000000.000000      6.946106000000000E-01      9.203613000000000E+00      1.866760000000000E-01     -1.706016000000000E+02
4932000000.000000      6.966248000000000E-01      9.040039000000000E+00      1.822281000000000E-01     -1.708047000000000E+02
4933000000.000000      6.971130000000000E-01      9.000488000000000E+00      1.781845000000000E-01     -1.705469000000000E+02
4934000000.000000      6.976318000000000E-01      8.889160000000000E+00      1.750183000000000E-01     -1.706719000000000E+02
4935000000.000000      6.996460000000000E-01      8.930176000000000E+00      1.714249000000000E-01     -1.701484000000000E+02
4936000000.000000      6.985779000000000E-01      8.789063000000000E+00      1.672211000000000E-01     -1.701406000000000E+02
4937000000.000000      6.996155000000000E-01      8.718750000000000E+00      1.635437000000000E-01     -1.697656000000000E+02
4938000000.000000      6.980591000000000E-01      8.627930000000000E+00      1.601257000000000E-01     -1.693594000000000E+02
4939000000.000000      6.965942000000000E-01      8.598145000000000E+00      1.567078000000000E-01     -1.690547000000000E+02
4940000000.000000      7.002869000000000E-01      8.225586000000000E+00      1.525955000000000E-01     -1.689453000000000E+02
4941000000.000000      7.003174000000000E-01      8.211914000000000E+00      1.495895000000000E-01     -1.682266000000000E+02
4942000000.000000      6.992798000000000E-01      8.180664000000000E+00      1.459274000000000E-01     -1.677656000000000E+02
4943000000.000000      6.997375000000000E-01      8.194336000000000E+00      1.430511000000000E-01     -1.670859000000000E+02
4944000000.000000      7.018433000000000E-01      7.895020000000000E+00      1.392746000000000E-01     -1.663437000000000E+02
4945000000.000000      7.005005000000000E-01      7.783691000000000E+00      1.361771000000000E-01     -1.657187000000000E+02
4946000000.000000      7.024231000000000E-01      7.794678000000000E+00      1.332245000000000E-01     -1.646797000000000E+02
4947000000.000000      7.039795000000000E-01      7.584473000000000E+00      1.299057000000000E-01     -1.640625000000000E+02
4948000000.000000      7.039490000000000E-01      7.536621000000000E+00      1.272202000000000E-01     -1.627734000000000E+02
4949000000.000000      7.028809000000000E-01      7.397705000000000E+00      1.241951000000000E-01     -1.616797000000000E+02
4950000000.000000      7.033386000000000E-01      7.378662000000000E+00      1.218605000000000E-01     -1.606797000000000E+02
4951000000.000000      7.061462000000000E-01      7.403320000000000E+00      1.198158000000000E-01     -1.596172000000000E+02
4952000000.000000      7.059631000000000E-01      7.238525000000000E+00      1.169891000000000E-01     -1.581875000000000E+02
4953000000.000000      7.064514000000000E-01      6.994141000000000E+00      1.152954000000000E-01     -1.564062000000000E+02
4954000000.000000      7.069397000000000E-01      6.981689000000000E+00      1.127777000000000E-01     -1.552031000000000E+02
