! Network Analyzer HP8722D
! Hewlett-Packard
! Data name: Linha & Wilkinson
! Saver's name: Rodrigo Anjos
! Comments: Teste da utilização de aquisição
continua pelo VNA HP8722D
! Time and date: 22/5/2025 14:50
!              Frequency                     S11                                                   S21                                                   S12                                                   S22
# HZ  S  MA R 50
4800000000.000000      6.534119000000000E-01      1.097119000000000E+01      4.714355000000000E-01     -9.189453000000000E+01
4801000000.000000      6.495972000000000E-01      1.106006000000000E+01      4.731293000000000E-01     -9.253906000000000E+01
4802000000.000000      6.495361000000000E-01      1.102734000000000E+01      4.737549000000000E-01     -9.330078000000000E+01
4803000000.000000      6.466675000000000E-01      1.082520000000000E+01      4.788208000000000E-01     -9.417578000000000E+01
4804000000.000000      6.437988000000000E-01      1.109717000000000E+01      4.790344000000000E-01     -9.485546000000000E+01
4805000000.000000      6.455078000000000E-01      1.079785000000000E+01      4.798431000000000E-01     -9.574219000000000E+01
4806000000.000000      6.429749000000000E-01      1.091211000000000E+01      4.820709000000000E-01     -9.650391000000000E+01
4807000000.000000      6.405334000000000E-01      1.079639000000000E+01      4.812164000000000E-01     -9.744141000000000E+01
4808000000.000000      6.375427000000000E-01      1.081445000000000E+01      4.852753000000000E-01     -9.798046000000000E+01
4809000000.000000      6.366577000000000E-01      1.096680000000000E+01      4.865112000000000E-01     -9.878906000000000E+01
4810000000.000000      6.357117000000000E-01      1.090771000000000E+01      4.882660000000000E-01     -9.940233000000000E+01
4811000000.000000      6.339722000000000E-01      1.113721000000000E+01      4.903412000000000E-01     -1.004102000000000E+02
4812000000.000000      6.344604000000000E-01      1.109473000000000E+01      4.898529000000000E-01     -1.009922000000000E+02
4813000000.000000      6.317444000000000E-01      1.112354000000000E+01      4.913177000000000E-01     -1.018633000000000E+02
4814000000.000000      6.297302000000000E-01      1.111377000000000E+01      4.930725000000000E-01     -1.026367000000000E+02
4815000000.000000      6.298523000000000E-01      1.117969000000000E+01      4.926300000000000E-01     -1.032031000000000E+02
4816000000.000000      6.293945000000000E-01      1.130762000000000E+01      4.946899000000000E-01     -1.040391000000000E+02
4817000000.000000      6.246033000000000E-01      1.150391000000000E+01      4.940186000000000E-01     -1.047617000000000E+02
4818000000.000000      6.242371000000000E-01      1.145313000000000E+01      4.959259000000000E-01     -1.055508000000000E+02
4819000000.000000      6.240540000000000E-01      1.148438000000000E+01      4.956207000000000E-01     -1.063203000000000E+02
4820000000.000000      6.201477000000000E-01      1.160938000000000E+01      4.949799000000000E-01     -1.069844000000000E+02
4821000000.000000      6.212158000000000E-01      1.169873000000000E+01      4.981842000000000E-01     -1.080195000000000E+02
4822000000.000000      6.204529000000000E-01      1.169629000000000E+01      4.952698000000000E-01     -1.084883000000000E+02
4823000000.000000      6.197205000000000E-01      1.161768000000000E+01      4.995422000000000E-01     -1.091836000000000E+02
4824000000.000000      6.169434000000000E-01      1.198877000000000E+01      4.970856000000000E-01     -1.098984000000000E+02
4825000000.000000      6.187744000000000E-01      1.198193000000000E+01      4.989014000000000E-01     -1.107227000000000E+02
4826000000.000000      6.159973000000000E-01      1.205469000000000E+01      4.983215000000000E-01     -1.117188000000000E+02
4827000000.000000      6.157227000000000E-01      1.226855000000000E+01      4.993591000000000E-01     -1.123242000000000E+02
4828000000.000000      6.159058000000000E-01      1.238525000000000E+01      4.994659000000000E-01     -1.129688000000000E+02
4829000000.000000      6.165161000000000E-01      1.265332000000000E+01      4.995117000000000E-01     -1.138789000000000E+02
4830000000.000000      6.156921000000000E-01      1.253125000000000E+01      4.993896000000000E-01     -1.147344000000000E+02
4831000000.000000      6.139526000000000E-01      1.258594000000000E+01      5.003052000000000E-01     -1.152930000000000E+02
4832000000.000000      6.144409000000000E-01      1.291016000000000E+01      4.989166000000000E-01     -1.161055000000000E+02
4833000000.000000      6.133423000000000E-01      1.277393000000000E+01      4.991455000000000E-01     -1.168320000000000E+02
4834000000.000000      6.129150000000000E-01      1.296631000000000E+01      5.000610000000000E-01     -1.176289000000000E+02
4835000000.000000      6.139526000000000E-01      1.297852000000000E+01      4.996796000000000E-01     -1.184961000000000E+02
4836000000.000000      6.143494000000000E-01      1.336621000000000E+01      4.992676000000000E-01     -1.190586000000000E+02
4837000000.000000      6.135559000000000E-01      1.347021000000000E+01      4.987030000000000E-01     -1.201094000000000E+02
4838000000.000000      6.130371000000000E-01      1.355811000000000E+01      4.980316000000000E-01     -1.205391000000000E+02
4839000000.000000      6.168213000000000E-01      1.359961000000000E+01      4.985962000000000E-01     -1.213828000000000E+02
4840000000.000000      6.157837000000000E-01      1.352686000000000E+01      4.990845000000000E-01     -1.222070000000000E+02
4841000000.000000      6.159363000000000E-01      1.375342000000000E+01      4.990692000000000E-01     -1.232031000000000E+02
4842000000.000000      6.157837000000000E-01      1.388672000000000E+01      4.979706000000000E-01     -1.238672000000000E+02
4843000000.000000      6.177063000000000E-01      1.392627000000000E+01      4.978638000000000E-01     -1.247109000000000E+02
4844000000.000000      6.158752000000000E-01      1.416113000000000E+01      4.956818000000000E-01     -1.253711000000000E+02
4845000000.000000      6.168213000000000E-01      1.428320000000000E+01      4.951935000000000E-01     -1.263828000000000E+02
4846000000.000000      6.206665000000000E-01      1.423926000000000E+01      4.939728000000000E-01     -1.271328000000000E+02
4847000000.000000      6.192322000000000E-01      1.440283000000000E+01      4.930573000000000E-01     -1.277969000000000E+02
4848000000.000000      6.192017000000000E-01      1.439063000000000E+01      4.907684000000000E-01     -1.287891000000000E+02
4849000000.000000      6.205750000000000E-01      1.433984000000000E+01      4.891663000000000E-01     -1.296875000000000E+02
4850000000.000000      6.224670000000000E-01      1.470752000000000E+01      4.885559000000000E-01     -1.305469000000000E+02
4851000000.000000      6.225281000000000E-01      1.449072000000000E+01      4.862518000000000E-01     -1.314609000000000E+02
4852000000.000000      6.248474000000000E-01      1.480664000000000E+01      4.834595000000000E-01     -1.322266000000000E+02
4853000000.000000      6.250610000000000E-01      1.486816000000000E+01      4.825745000000000E-01     -1.330859000000000E+02
4854000000.000000      6.259766000000000E-01      1.482324000000000E+01      4.817505000000000E-01     -1.340000000000000E+02
4855000000.000000      6.278687000000000E-01      1.480225000000000E+01      4.776459000000000E-01     -1.349062000000000E+02
4856000000.000000      6.275024000000000E-01      1.484082000000000E+01      4.753265000000000E-01     -1.357500000000000E+02
4857000000.000000      6.285400000000000E-01      1.487646000000000E+01      4.750977000000000E-01     -1.364609000000000E+02
4858000000.000000      6.293030000000000E-01      1.493164000000000E+01      4.722137000000000E-01     -1.374609000000000E+02
4859000000.000000      6.318054000000000E-01      1.482568000000000E+01      4.689331000000000E-01     -1.383125000000000E+02
4860000000.000000      6.323853000000000E-01      1.501514000000000E+01      4.649353000000000E-01     -1.389609000000000E+02
4861000000.000000      6.325378000000000E-01      1.495508000000000E+01      4.634247000000000E-01     -1.401328000000000E+02
4862000000.000000      6.334534000000000E-01      1.501270000000000E+01      4.600067000000000E-01     -1.406563000000000E+02
4863000000.000000      6.340942000000000E-01      1.506201000000000E+01      4.558411000000000E-01     -1.416719000000000E+02
4864000000.000000      6.332092000000000E-01      1.511133000000000E+01      4.529114000000000E-01     -1.422969000000000E+02
4865000000.000000      6.371460000000000E-01      1.512793000000000E+01      4.484100000000000E-01     -1.430234000000000E+02
4866000000.000000      6.389160000000000E-01      1.507715000000000E+01      4.440002000000000E-01     -1.441172000000000E+02
4867000000.000000      6.387024000000000E-01      1.498633000000000E+01      4.411011000000000E-01     -1.448984000000000E+02
4868000000.000000      6.404114000000000E-01      1.504541000000000E+01      4.378052000000000E-01     -1.456875000000000E+02
4869000000.000000      6.414490000000000E-01      1.495605000000000E+01      4.326324000000000E-01     -1.465234000000000E+02
4870000000.000000      6.441040000000000E-01      1.494922000000000E+01      4.282990000000000E-01     -1.470391000000000E+02
4871000000.000000      6.439209000000000E-01      1.496436000000000E+01      4.261169000000000E-01     -1.479297000000000E+02
4872000000.000000      6.452637000000000E-01      1.493018000000000E+01      4.217987000000000E-01     -1.485000000000000E+02
4873000000.000000      6.470032000000000E-01      1.492041000000000E+01      4.163818000000000E-01     -1.493828000000000E+02
4874000000.000000      6.478577000000000E-01      1.501416000000000E+01      4.135895000000000E-01     -1.499844000000000E+02
4875000000.000000      6.512146000000000E-01      1.490967000000000E+01      4.074860000000000E-01     -1.506094000000000E+02
4876000000.000000      6.513977000000000E-01      1.510303000000000E+01      4.037628000000000E-01     -1.514453000000000E+02
4877000000.000000      6.528320000000000E-01      1.461182000000000E+01      3.995056000000000E-01     -1.520391000000000E+02
4878000000.000000      6.539307000000000E-01      1.463379000000000E+01      3.949890000000000E-01     -1.527344000000000E+02
4879000000.000000      6.558533000000000E-01      1.472168000000000E+01      3.884430000000000E-01     -1.531875000000000E+02
4880000000.000000      6.563110000000000E-01      1.475049000000000E+01      3.853149000000000E-01     -1.539531000000000E+02
4881000000.000000      6.578674000000000E-01      1.458838000000000E+01      3.813629000000000E-01     -1.544609000000000E+02
4882000000.000000      6.596375000000000E-01      1.458838000000000E+01      3.779907000000000E-01     -1.551406000000000E+02
4883000000.000000      6.591492000000000E-01      1.447559000000000E+01      3.721161000000000E-01     -1.555781000000000E+02
4884000000.000000      6.618347000000000E-01      1.449365000000000E+01      3.678894000000000E-01     -1.561563000000000E+02
4885000000.000000      6.638489000000000E-01      1.432031000000000E+01      3.645782000000000E-01     -1.564844000000000E+02
4886000000.000000      6.654053000000000E-01      1.418701000000000E+01      3.596191000000000E-01     -1.569844000000000E+02
4887000000.000000      6.648254000000000E-01      1.408008000000000E+01      3.562164000000000E-01     -1.575391000000000E+02
4888000000.000000      6.669006000000000E-01      1.409229000000000E+01      3.536377000000000E-01     -1.581640000000000E+02
4889000000.000000      6.671753000000000E-01      1.415137000000000E+01      3.468323000000000E-01     -1.586406000000000E+02
4890000000.000000      6.661072000000000E-01      1.391406000000000E+01      3.431244000000000E-01     -1.591172000000000E+02
4891000000.000000      6.705017000000000E-01      1.385059000000000E+01      3.386383000000000E-01     -1.595000000000000E+02
4892000000.000000      6.687012000000000E-01      1.377539000000000E+01      3.342590000000000E-01     -1.598438000000000E+02
4893000000.000000      6.709595000000000E-01      1.377393000000000E+01      3.287964000000000E-01     -1.604609000000000E+02
4894000000.000000      6.710815000000000E-01      1.349805000000000E+01      3.250580000000000E-01     -1.605234000000000E+02
4895000000.000000      6.721191000000000E-01      1.337012000000000E+01      3.225098000000000E-01     -1.610625000000000E+02
4896000000.000000      6.741333000000000E-01      1.346191000000000E+01      3.187866000000000E-01     -1.614375000000000E+02
4897000000.000000      6.755371000000000E-01      1.335107000000000E+01      3.148193000000000E-01     -1.618828000000000E+02
4898000000.000000      6.750488000000000E-01      1.336865000000000E+01      3.121490000000000E-01     -1.621250000000000E+02
4899000000.000000      6.752014000000000E-01      1.298584000000000E+01      3.071442000000000E-01     -1.626641000000000E+02
4900000000.000000      6.770935000000000E-01      1.291699000000000E+01      3.040314000000000E-01     -1.628672000000000E+02
4901000000.000000      6.800232000000000E-01      1.305859000000000E+01      2.998352000000000E-01     -1.632344000000000E+02
4902000000.000000      6.799622000000000E-01      1.279736000000000E+01      2.967529000000000E-01     -1.634375000000000E+02
4903000000.000000      6.795959000000000E-01      1.297461000000000E+01      2.920074000000000E-01     -1.639531000000000E+02
4904000000.000000      6.827393000000000E-01      1.261914000000000E+01      2.893219000000000E-01     -1.643281000000000E+02
4905000000.000000      6.835938000000000E-01      1.246240000000000E+01      2.860870000000000E-01     -1.647266000000000E+02
4906000000.000000      6.826172000000000E-01      1.257227000000000E+01      2.817993000000000E-01     -1.646406000000000E+02
4907000000.000000      6.844177000000000E-01      1.238672000000000E+01      2.793732000000000E-01     -1.651172000000000E+02
4908000000.000000      6.842651000000000E-01      1.227441000000000E+01      2.758179000000000E-01     -1.657266000000000E+02
4909000000.000000      6.848145000000000E-01      1.211475000000000E+01      2.711639000000000E-01     -1.660156000000000E+02
4910000000.000000      6.839600000000000E-01      1.210938000000000E+01      2.682953000000000E-01     -1.663828000000000E+02
4911000000.000000      6.875610000000000E-01      1.186377000000000E+01      2.652283000000000E-01     -1.665625000000000E+02
4912000000.000000      6.853027000000000E-01      1.185400000000000E+01      2.612457000000000E-01     -1.669453000000000E+02
4913000000.000000      6.882019000000000E-01      1.170703000000000E+01      2.584991000000000E-01     -1.673125000000000E+02
4914000000.000000      6.893311000000000E-01      1.152148000000000E+01      2.537384000000000E-01     -1.673984000000000E+02
4915000000.000000      6.882935000000000E-01      1.166992000000000E+01      2.506714000000000E-01     -1.679453000000000E+02
4916000000.000000      6.877136000000000E-01      1.153662000000000E+01      2.476120000000000E-01     -1.681719000000000E+02
4917000000.000000      6.895447000000000E-01      1.138281000000000E+01      2.443619000000000E-01     -1.683047000000000E+02
4918000000.000000      6.902771000000000E-01      1.123730000000000E+01      2.397308000000000E-01     -1.687422000000000E+02
4919000000.000000      6.894531000000000E-01      1.120166000000000E+01      2.370224000000000E-01     -1.687187000000000E+02
4920000000.000000      6.917114000000000E-01      1.095605000000000E+01      2.322617000000000E-01     -1.691875000000000E+02
4921000000.000000      6.913147000000000E-01      1.095605000000000E+01      2.288513000000000E-01     -1.695313000000000E+02
4922000000.000000      6.913147000000000E-01      1.088721000000000E+01      2.253265000000000E-01     -1.695078000000000E+02
4923000000.000000      6.929321000000000E-01      1.066455000000000E+01      2.213135000000000E-01     -1.697422000000000E+02
4924000000.000000      6.934814000000000E-01      1.068408000000000E+01      2.174835000000000E-01     -1.702422000000000E+02
4925000000.000000      6.919556000000000E-01      1.052344000000000E+01      2.142944000000000E-01     -1.701953000000000E+02
4926000000.000000      6.934509000000000E-01      1.047656000000000E+01      2.106247000000000E-01     -1.703672000000000E+02
4927000000.000000      6.940613000000000E-01      1.040234000000000E+01      2.064590000000000E-01     -1.706016000000000E+02
4928000000.000000      6.953125000000000E-01      1.017578000000000E+01      2.032394000000000E-01     -1.707344000000000E+02
4929000000.000000      6.954956000000000E-01      1.017334000000000E+01      1.987839000000000E-01     -1.707656000000000E+02
4930000000.000000      6.947327000000000E-01      1.001367000000000E+01      1.952820000000000E-01     -1.707578000000000E+02
4931000000.000000      6.967773000000000E-01      9.851563000000000E+00      1.918488000000000E-01     -1.709844000000000E+02
4932000000.000000      6.963501000000000E-01      9.895508000000000E+00      1.877899000000000E-01     -1.709609000000000E+02
4933000000.000000      6.967163000000000E-01      9.839355000000000E+00      1.831741000000000E-01     -1.706484000000000E+02
4934000000.000000      6.985474000000000E-01      9.681641000000000E+00      1.804047000000000E-01     -1.708125000000000E+02
4935000000.000000      6.995239000000000E-01      9.526367000000000E+00      1.768188000000000E-01     -1.704922000000000E+02
4936000000.000000      6.976318000000000E-01      9.424805000000000E+00      1.728134000000000E-01     -1.705391000000000E+02
4937000000.000000      6.979675000000000E-01      9.281738000000000E+00      1.685791000000000E-01     -1.703750000000000E+02
4938000000.000000      6.982422000000000E-01      9.361328000000000E+00      1.651611000000000E-01     -1.701172000000000E+02
4939000000.000000      6.997375000000000E-01      9.270996000000000E+00      1.619568000000000E-01     -1.698437000000000E+02
4940000000.000000      7.010193000000000E-01      9.273438000000000E+00      1.575546000000000E-01     -1.695703000000000E+02
4941000000.000000      6.997070000000000E-01      9.038574000000000E+00      1.541748000000000E-01     -1.690938000000000E+02
4942000000.000000      6.998291000000000E-01      8.939941000000000E+00      1.505432000000000E-01     -1.687656000000000E+02
4943000000.000000      7.018738000000000E-01      8.917969000000000E+00      1.468735000000000E-01     -1.679922000000000E+02
4944000000.000000      7.019043000000000E-01      8.742188000000000E+00      1.432037000000000E-01     -1.674453000000000E+02
4945000000.000000      7.019958000000000E-01      8.607422000000000E+00      1.402130000000000E-01     -1.669375000000000E+02
4946000000.000000      7.035828000000000E-01      8.500488000000000E+00      1.372223000000000E-01     -1.664063000000000E+02
4947000000.000000      7.039795000000000E-01      8.305664000000000E+00      1.338272000000000E-01     -1.653359000000000E+02
4948000000.000000      7.054749000000000E-01      8.269531000000000E+00      1.307373000000000E-01     -1.647422000000000E+02
4949000000.000000      7.044373000000000E-01      8.346680000000000E+00      1.279907000000000E-01     -1.633437000000000E+02
4950000000.000000      7.044678000000000E-01      8.386230000000000E+00      1.248436000000000E-01     -1.625703000000000E+02
4951000000.000000      7.056885000000000E-01      8.004883000000000E+00      1.222343000000000E-01     -1.617031000000000E+02
4952000000.000000      7.053528000000000E-01      8.052734000000000E+00      1.189804000000000E-01     -1.603281000000000E+02
4953000000.000000      7.051086000000000E-01      7.976074000000000E+00      1.172295000000000E-01     -1.588906000000000E+02
4954000000.000000      7.072144000000000E-01      7.859131000000000E+00      1.145172000000000E-01     -1.573672000000000E+02
