! Network Analyzer HP8722D
! Hewlett-Packard
! Data name: Linha & Wilkinson
! Saver's name: Rodrigo Anjos
! Comments: Teste da utilização de aquisição
continua pelo VNA HP8722D
! Time and date: 22/5/2025 13:16
!              Frequency                     S11                                                   S21                                                   S12                                                   S22
# HZ  S  MA R 50
4800000000.000000      6.520691000000000E-01      1.083789000000000E+01      4.721375000000000E-01     -9.238672000000000E+01
4801000000.000000      6.499023000000000E-01      1.113721000000000E+01      4.720459000000000E-01     -9.300390000000000E+01
4802000000.000000      6.490173000000000E-01      1.094922000000000E+01      4.739685000000000E-01     -9.381639000000000E+01
4803000000.000000      6.458435000000000E-01      1.083643000000000E+01      4.767609000000000E-01     -9.448046000000000E+01
4804000000.000000      6.447144000000000E-01      1.080078000000000E+01      4.793243000000000E-01     -9.520311000000000E+01
4805000000.000000      6.436462000000000E-01      1.067432000000000E+01      4.798279000000000E-01     -9.610155000000000E+01
4806000000.000000      6.413879000000000E-01      1.070996000000000E+01      4.822235000000000E-01     -9.675781000000000E+01
4807000000.000000      6.386719000000000E-01      1.068945000000000E+01      4.831696000000000E-01     -9.781250000000000E+01
4808000000.000000      6.363525000000000E-01      1.086230000000000E+01      4.845734000000000E-01     -9.837109000000000E+01
4809000000.000000      6.356506000000000E-01      1.101514000000000E+01      4.848785000000000E-01     -9.910156000000000E+01
4810000000.000000      6.350098000000000E-01      1.098193000000000E+01      4.877319000000000E-01     -9.983984000000000E+01
4811000000.000000      6.343384000000000E-01      1.090771000000000E+01      4.886017000000000E-01     -1.005547000000000E+02
4812000000.000000      6.351929000000000E-01      1.109863000000000E+01      4.884491000000000E-01     -1.013867000000000E+02
4813000000.000000      6.341248000000000E-01      1.103809000000000E+01      4.930725000000000E-01     -1.020351000000000E+02
4814000000.000000      6.286316000000000E-01      1.110547000000000E+01      4.928894000000000E-01     -1.027656000000000E+02
4815000000.000000      6.279602000000000E-01      1.125781000000000E+01      4.916840000000000E-01     -1.035430000000000E+02
4816000000.000000      6.278076000000000E-01      1.123877000000000E+01      4.946747000000000E-01     -1.042344000000000E+02
4817000000.000000      6.255188000000000E-01      1.132666000000000E+01      4.939117000000000E-01     -1.050703000000000E+02
4818000000.000000      6.237488000000000E-01      1.129102000000000E+01      4.944305000000000E-01     -1.059492000000000E+02
4819000000.000000      6.239319000000000E-01      1.128662000000000E+01      4.939270000000000E-01     -1.066094000000000E+02
4820000000.000000      6.210938000000000E-01      1.147217000000000E+01      4.960327000000000E-01     -1.071680000000000E+02
4821000000.000000      6.215210000000000E-01      1.152148000000000E+01      4.986267000000000E-01     -1.082422000000000E+02
4822000000.000000      6.191101000000000E-01      1.178809000000000E+01      4.970551000000000E-01     -1.087734000000000E+02
4823000000.000000      6.193542000000000E-01      1.157129000000000E+01      4.979095000000000E-01     -1.096172000000000E+02
4824000000.000000      6.176453000000000E-01      1.187207000000000E+01      4.985199000000000E-01     -1.105742000000000E+02
4825000000.000000      6.166382000000000E-01      1.206836000000000E+01      4.979401000000000E-01     -1.109883000000000E+02
4826000000.000000      6.163025000000000E-01      1.199707000000000E+01      4.975891000000000E-01     -1.120547000000000E+02
4827000000.000000      6.139526000000000E-01      1.220264000000000E+01      4.984894000000000E-01     -1.125234000000000E+02
4828000000.000000      6.160889000000000E-01      1.228516000000000E+01      4.994354000000000E-01     -1.134414000000000E+02
4829000000.000000      6.148987000000000E-01      1.256543000000000E+01      5.007019000000000E-01     -1.140000000000000E+02
4830000000.000000      6.159668000000000E-01      1.248828000000000E+01      4.991760000000000E-01     -1.149062000000000E+02
4831000000.000000      6.149292000000000E-01      1.258203000000000E+01      4.995880000000000E-01     -1.156719000000000E+02
4832000000.000000      6.138306000000000E-01      1.275342000000000E+01      4.981079000000000E-01     -1.162891000000000E+02
4833000000.000000      6.114197000000000E-01      1.284961000000000E+01      4.988861000000000E-01     -1.170781000000000E+02
4834000000.000000      6.128845000000000E-01      1.297070000000000E+01      4.987335000000000E-01     -1.180586000000000E+02
4835000000.000000      6.144104000000000E-01      1.310107000000000E+01      4.989319000000000E-01     -1.187812000000000E+02
4836000000.000000      6.145630000000000E-01      1.330811000000000E+01      4.998932000000000E-01     -1.193789000000000E+02
4837000000.000000      6.139221000000000E-01      1.351855000000000E+01      4.982300000000000E-01     -1.205273000000000E+02
4838000000.000000      6.114502000000000E-01      1.339502000000000E+01      4.988251000000000E-01     -1.209453000000000E+02
4839000000.000000      6.180420000000000E-01      1.372021000000000E+01      4.984131000000000E-01     -1.217851000000000E+02
4840000000.000000      6.147766000000000E-01      1.347607000000000E+01      4.973450000000000E-01     -1.226015000000000E+02
4841000000.000000      6.158752000000000E-01      1.389600000000000E+01      4.973602000000000E-01     -1.235039000000000E+02
4842000000.000000      6.144409000000000E-01      1.384961000000000E+01      4.957275000000000E-01     -1.242461000000000E+02
4843000000.000000      6.181946000000000E-01      1.383984000000000E+01      4.959564000000000E-01     -1.251406000000000E+02
4844000000.000000      6.181030000000000E-01      1.402100000000000E+01      4.941559000000000E-01     -1.258750000000000E+02
4845000000.000000      6.169739000000000E-01      1.416504000000000E+01      4.928894000000000E-01     -1.266289000000000E+02
4846000000.000000      6.195984000000000E-01      1.423535000000000E+01      4.940186000000000E-01     -1.275703000000000E+02
4847000000.000000      6.199036000000000E-01      1.427783000000000E+01      4.905701000000000E-01     -1.283750000000000E+02
4848000000.000000      6.197205000000000E-01      1.449463000000000E+01      4.883423000000000E-01     -1.292969000000000E+02
4849000000.000000      6.211243000000000E-01      1.442480000000000E+01      4.884186000000000E-01     -1.300390000000000E+02
4850000000.000000      6.236572000000000E-01      1.456494000000000E+01      4.860687000000000E-01     -1.308359000000000E+02
4851000000.000000      6.234741000000000E-01      1.464307000000000E+01      4.866943000000000E-01     -1.317812000000000E+02
4852000000.000000      6.251831000000000E-01      1.458838000000000E+01      4.828033000000000E-01     -1.325547000000000E+02
4853000000.000000      6.250000000000000E-01      1.487646000000000E+01      4.809418000000000E-01     -1.335312000000000E+02
4854000000.000000      6.256714000000000E-01      1.471191000000000E+01      4.787598000000000E-01     -1.343516000000000E+02
4855000000.000000      6.278381000000000E-01      1.485596000000000E+01      4.769745000000000E-01     -1.351953000000000E+02
4856000000.000000      6.263733000000000E-01      1.477490000000000E+01      4.740143000000000E-01     -1.359219000000000E+02
4857000000.000000      6.289368000000000E-01      1.477490000000000E+01      4.724731000000000E-01     -1.368672000000000E+02
4858000000.000000      6.300049000000000E-01      1.488770000000000E+01      4.698334000000000E-01     -1.377422000000000E+02
4859000000.000000      6.305237000000000E-01      1.486816000000000E+01      4.674683000000000E-01     -1.387812000000000E+02
4860000000.000000      6.300049000000000E-01      1.492627000000000E+01      4.637451000000000E-01     -1.392969000000000E+02
4861000000.000000      6.327209000000000E-01      1.486816000000000E+01      4.611206000000000E-01     -1.403047000000000E+02
4862000000.000000      6.337280000000000E-01      1.488086000000000E+01      4.588013000000000E-01     -1.410391000000000E+02
4863000000.000000      6.355286000000000E-01      1.505225000000000E+01      4.537506000000000E-01     -1.420078000000000E+02
4864000000.000000      6.360779000000000E-01      1.510303000000000E+01      4.527588000000000E-01     -1.425781000000000E+02
4865000000.000000      6.378784000000000E-01      1.484082000000000E+01      4.472198000000000E-01     -1.433984000000000E+02
4866000000.000000      6.405334000000000E-01      1.485352000000000E+01      4.430237000000000E-01     -1.445156000000000E+02
4867000000.000000      6.390381000000000E-01      1.495508000000000E+01      4.399567000000000E-01     -1.453281000000000E+02
4868000000.000000      6.402893000000000E-01      1.497021000000000E+01      4.360504000000000E-01     -1.461094000000000E+02
4869000000.000000      6.451416000000000E-01      1.506738000000000E+01      4.323273000000000E-01     -1.466250000000000E+02
4870000000.000000      6.438293000000000E-01      1.479004000000000E+01      4.276581000000000E-01     -1.474844000000000E+02
4871000000.000000      6.448669000000000E-01      1.475439000000000E+01      4.241028000000000E-01     -1.482188000000000E+02
4872000000.000000      6.463623000000000E-01      1.480371000000000E+01      4.201660000000000E-01     -1.489063000000000E+02
4873000000.000000      6.463013000000000E-01      1.498633000000000E+01      4.143677000000000E-01     -1.497734000000000E+02
4874000000.000000      6.478271000000000E-01      1.473633000000000E+01      4.097900000000000E-01     -1.503984000000000E+02
4875000000.000000      6.488647000000000E-01      1.460205000000000E+01      4.067841000000000E-01     -1.508906000000000E+02
4876000000.000000      6.536255000000000E-01      1.490674000000000E+01      4.033508000000000E-01     -1.516875000000000E+02
4877000000.000000      6.533508000000000E-01      1.458008000000000E+01      3.982849000000000E-01     -1.524297000000000E+02
4878000000.000000      6.523132000000000E-01      1.472949000000000E+01      3.935852000000000E-01     -1.530703000000000E+02
4879000000.000000      6.567993000000000E-01      1.467871000000000E+01      3.876648000000000E-01     -1.535234000000000E+02
4880000000.000000      6.562805000000000E-01      1.443457000000000E+01      3.853455000000000E-01     -1.540937000000000E+02
4881000000.000000      6.567383000000000E-01      1.438086000000000E+01      3.795166000000000E-01     -1.547109000000000E+02
4882000000.000000      6.605530000000000E-01      1.440137000000000E+01      3.757019000000000E-01     -1.550703000000000E+02
4883000000.000000      6.602478000000000E-01      1.428320000000000E+01      3.709259000000000E-01     -1.558984000000000E+02
4884000000.000000      6.620789000000000E-01      1.429980000000000E+01      3.665009000000000E-01     -1.564062000000000E+02
4885000000.000000      6.640015000000000E-01      1.436426000000000E+01      3.626404000000000E-01     -1.566015000000000E+02
4886000000.000000      6.648254000000000E-01      1.423242000000000E+01      3.584137000000000E-01     -1.572813000000000E+02
4887000000.000000      6.652527000000000E-01      1.403906000000000E+01      3.538513000000000E-01     -1.580000000000000E+02
4888000000.000000      6.667175000000000E-01      1.404980000000000E+01      3.498688000000000E-01     -1.583359000000000E+02
4889000000.000000      6.681824000000000E-01      1.401855000000000E+01      3.453827000000000E-01     -1.587500000000000E+02
4890000000.000000      6.668396000000000E-01      1.370654000000000E+01      3.416595000000000E-01     -1.593750000000000E+02
4891000000.000000      6.691284000000000E-01      1.375488000000000E+01      3.367462000000000E-01     -1.599531000000000E+02
4892000000.000000      6.705933000000000E-01      1.372168000000000E+01      3.326874000000000E-01     -1.599531000000000E+02
4893000000.000000      6.711121000000000E-01      1.357910000000000E+01      3.288879000000000E-01     -1.604609000000000E+02
4894000000.000000      6.710205000000000E-01      1.363232000000000E+01      3.254547000000000E-01     -1.609531000000000E+02
4895000000.000000      6.749878000000000E-01      1.336035000000000E+01      3.218536000000000E-01     -1.613281000000000E+02
4896000000.000000      6.738586000000000E-01      1.326318000000000E+01      3.173981000000000E-01     -1.616094000000000E+02
4897000000.000000      6.735229000000000E-01      1.320557000000000E+01      3.136444000000000E-01     -1.620625000000000E+02
4898000000.000000      6.757813000000000E-01      1.298438000000000E+01      3.101501000000000E-01     -1.622656000000000E+02
4899000000.000000      6.788940000000000E-01      1.309668000000000E+01      3.059387000000000E-01     -1.627891000000000E+02
4900000000.000000      6.782532000000000E-01      1.306934000000000E+01      3.017426000000000E-01     -1.631250000000000E+02
4901000000.000000      6.792603000000000E-01      1.297070000000000E+01      2.989197000000000E-01     -1.633437000000000E+02
4902000000.000000      6.803589000000000E-01      1.267676000000000E+01      2.957611000000000E-01     -1.638125000000000E+02
4903000000.000000      6.803589000000000E-01      1.264502000000000E+01      2.907562000000000E-01     -1.641094000000000E+02
4904000000.000000      6.815491000000000E-01      1.254199000000000E+01      2.877197000000000E-01     -1.643984000000000E+02
4905000000.000000      6.820374000000000E-01      1.247461000000000E+01      2.853394000000000E-01     -1.648672000000000E+02
4906000000.000000      6.809998000000000E-01      1.228955000000000E+01      2.808380000000000E-01     -1.650625000000000E+02
4907000000.000000      6.838684000000000E-01      1.225488000000000E+01      2.782135000000000E-01     -1.655000000000000E+02
4908000000.000000      6.867371000000000E-01      1.228662000000000E+01      2.743988000000000E-01     -1.659765000000000E+02
4909000000.000000      6.850586000000000E-01      1.209033000000000E+01      2.705078000000000E-01     -1.660781000000000E+02
4910000000.000000      6.841431000000000E-01      1.206396000000000E+01      2.670898000000000E-01     -1.664141000000000E+02
4911000000.000000      6.854553000000000E-01      1.196533000000000E+01      2.642975000000000E-01     -1.666250000000000E+02
4912000000.000000      6.878662000000000E-01      1.181836000000000E+01      2.598877000000000E-01     -1.669922000000000E+02
4913000000.000000      6.861877000000000E-01      1.150244000000000E+01      2.565765000000000E-01     -1.672656000000000E+02
4914000000.000000      6.872864000000000E-01      1.138037000000000E+01      2.532654000000000E-01     -1.675625000000000E+02
4915000000.000000      6.882629000000000E-01      1.137598000000000E+01      2.493362000000000E-01     -1.680781000000000E+02
4916000000.000000      6.893311000000000E-01      1.129395000000000E+01      2.460251000000000E-01     -1.683672000000000E+02
4917000000.000000      6.873779000000000E-01      1.120166000000000E+01      2.423782000000000E-01     -1.684297000000000E+02
4918000000.000000      6.904602000000000E-01      1.114551000000000E+01      2.385635000000000E-01     -1.688906000000000E+02
4919000000.000000      6.883545000000000E-01      1.116992000000000E+01      2.353287000000000E-01     -1.689141000000000E+02
4920000000.000000      6.914673000000000E-01      1.090234000000000E+01      2.315292000000000E-01     -1.693281000000000E+02
4921000000.000000      6.899719000000000E-01      1.072510000000000E+01      2.282333000000000E-01     -1.695156000000000E+02
4922000000.000000      6.928101000000000E-01      1.073486000000000E+01      2.242889000000000E-01     -1.696016000000000E+02
4923000000.000000      6.916809000000000E-01      1.067041000000000E+01      2.206116000000000E-01     -1.698984000000000E+02
4924000000.000000      6.927795000000000E-01      1.071973000000000E+01      2.162857000000000E-01     -1.701328000000000E+02
4925000000.000000      6.915283000000000E-01      1.027881000000000E+01      2.125931000000000E-01     -1.702891000000000E+02
4926000000.000000      6.945496000000000E-01      1.042578000000000E+01      2.089386000000000E-01     -1.704219000000000E+02
4927000000.000000      6.940918000000000E-01      1.022510000000000E+01      2.056503000000000E-01     -1.705781000000000E+02
4928000000.000000      6.963806000000000E-01      9.883301000000000E+00      2.020950000000000E-01     -1.708594000000000E+02
4929000000.000000      6.943054000000000E-01      1.001367000000000E+01      1.977692000000000E-01     -1.707578000000000E+02
4930000000.000000      6.949768000000000E-01      1.009619000000000E+01      1.943283000000000E-01     -1.708906000000000E+02
4931000000.000000      6.955261000000000E-01      9.881836000000000E+00      1.907425000000000E-01     -1.709766000000000E+02
4932000000.000000      6.972961000000000E-01      9.783203000000000E+00      1.865158000000000E-01     -1.708828000000000E+02
4933000000.000000      6.966858000000000E-01      9.519531000000000E+00      1.821976000000000E-01     -1.706875000000000E+02
4934000000.000000      6.968384000000000E-01      9.638672000000000E+00      1.786041000000000E-01     -1.708984000000000E+02
4935000000.000000      7.005920000000000E-01      9.577148000000000E+00      1.752548000000000E-01     -1.705625000000000E+02
4936000000.000000      6.979065000000000E-01      9.314941000000000E+00      1.711655000000000E-01     -1.705000000000000E+02
4937000000.000000      6.987305000000000E-01      9.199219000000000E+00      1.677322000000000E-01     -1.704297000000000E+02
4938000000.000000      6.989136000000000E-01      9.243164000000000E+00      1.640472000000000E-01     -1.700156000000000E+02
4939000000.000000      6.986084000000000E-01      9.191406000000000E+00      1.600037000000000E-01     -1.696328000000000E+02
4940000000.000000      7.004700000000000E-01      8.919434000000000E+00      1.564331000000000E-01     -1.696640000000000E+02
4941000000.000000      7.008057000000000E-01      8.868652000000000E+00      1.527100000000000E-01     -1.689375000000000E+02
4942000000.000000      6.994629000000000E-01      8.792969000000000E+00      1.493912000000000E-01     -1.685469000000000E+02
4943000000.000000      7.004395000000000E-01      8.847656000000000E+00      1.465530000000000E-01     -1.680000000000000E+02
4944000000.000000      7.017517000000000E-01      8.633789000000000E+00      1.429596000000000E-01     -1.673281000000000E+02
4945000000.000000      7.028198000000000E-01      8.459473000000000E+00      1.390762000000000E-01     -1.667656000000000E+02
4946000000.000000      7.031555000000000E-01      8.455078000000000E+00      1.360321000000000E-01     -1.660312000000000E+02
4947000000.000000      7.030029000000000E-01      8.125488000000000E+00      1.322708000000000E-01     -1.651797000000000E+02
4948000000.000000      7.051086000000000E-01      8.280762000000000E+00      1.301117000000000E-01     -1.642266000000000E+02
4949000000.000000      7.029419000000000E-01      8.213379000000000E+00      1.268158000000000E-01     -1.632266000000000E+02
4950000000.000000      7.052307000000000E-01      8.162598000000000E+00      1.240921000000000E-01     -1.623203000000000E+02
4951000000.000000      7.066956000000000E-01      7.987061000000000E+00      1.215134000000000E-01     -1.611172000000000E+02
4952000000.000000      7.047424000000000E-01      7.845459000000000E+00      1.187096000000000E-01     -1.597500000000000E+02
4953000000.000000      7.055359000000000E-01      7.866211000000000E+00      1.166458000000000E-01     -1.584844000000000E+02
4954000000.000000      7.062073000000000E-01      7.794678000000000E+00      1.146049000000000E-01     -1.570391000000000E+02
