! Network Analyzer HP8722D
! Hewlett-Packard
! Data name: Linha & Wilkinson
! Saver's name: Rodrigo Anjos
! Comments: Teste da utilização de aquisição
continua pelo VNA HP8722D
! Time and date: 22/5/2025 16:26
!              Frequency                     S11                                                   S21                                                   S12                                                   S22
# HZ  S  MA R 50
4800000000.000000      6.526184000000000E-01      1.092969000000000E+01      4.705505000000000E-01     -9.188671000000000E+01
4801000000.000000      6.502075000000000E-01      1.094922000000000E+01      4.720154000000000E-01     -9.255859000000000E+01
4802000000.000000      6.492615000000000E-01      1.096973000000000E+01      4.734802000000000E-01     -9.307812000000000E+01
4803000000.000000      6.483154000000000E-01      1.087891000000000E+01      4.773560000000000E-01     -9.370312000000000E+01
4804000000.000000      6.459045000000000E-01      1.098877000000000E+01      4.780579000000000E-01     -9.459764000000000E+01
4805000000.000000      6.463318000000000E-01      1.088330000000000E+01      4.802399000000000E-01     -9.544531000000000E+01
4806000000.000000      6.428223000000000E-01      1.087061000000000E+01      4.796295000000000E-01     -9.618750000000000E+01
4807000000.000000      6.393433000000000E-01      1.084717000000000E+01      4.834442000000000E-01     -9.717186000000000E+01
4808000000.000000      6.402893000000000E-01      1.086230000000000E+01      4.839935000000000E-01     -9.767187000000000E+01
4809000000.000000      6.372375000000000E-01      1.101514000000000E+01      4.845886000000000E-01     -9.876171000000000E+01
4810000000.000000      6.365356000000000E-01      1.091211000000000E+01      4.871979000000000E-01     -9.923046000000000E+01
4811000000.000000      6.349792000000000E-01      1.104248000000000E+01      4.871826000000000E-01     -1.000352000000000E+02
4812000000.000000      6.349487000000000E-01      1.119482000000000E+01      4.908295000000000E-01     -1.007734000000000E+02
4813000000.000000      6.328735000000000E-01      1.118262000000000E+01      4.899445000000000E-01     -1.015664000000000E+02
4814000000.000000      6.291199000000000E-01      1.126758000000000E+01      4.920959000000000E-01     -1.021523000000000E+02
4815000000.000000      6.275024000000000E-01      1.126758000000000E+01      4.911804000000000E-01     -1.031094000000000E+02
4816000000.000000      6.294250000000000E-01      1.132373000000000E+01      4.940186000000000E-01     -1.038398000000000E+02
4817000000.000000      6.256714000000000E-01      1.160254000000000E+01      4.950562000000000E-01     -1.044375000000000E+02
4818000000.000000      6.246643000000000E-01      1.127979000000000E+01      4.940643000000000E-01     -1.053828000000000E+02
4819000000.000000      6.242676000000000E-01      1.147656000000000E+01      4.962769000000000E-01     -1.060078000000000E+02
4820000000.000000      6.213379000000000E-01      1.177734000000000E+01      4.965515000000000E-01     -1.067383000000000E+02
4821000000.000000      6.210938000000000E-01      1.160938000000000E+01      4.974976000000000E-01     -1.076641000000000E+02
4822000000.000000      6.196594000000000E-01      1.170020000000000E+01      4.964600000000000E-01     -1.082500000000000E+02
4823000000.000000      6.198120000000000E-01      1.184033000000000E+01      4.980011000000000E-01     -1.091914000000000E+02
4824000000.000000      6.188965000000000E-01      1.206982000000000E+01      4.972534000000000E-01     -1.098750000000000E+02
4825000000.000000      6.180420000000000E-01      1.207227000000000E+01      4.974823000000000E-01     -1.105234000000000E+02
4826000000.000000      6.166077000000000E-01      1.200488000000000E+01      4.990234000000000E-01     -1.113828000000000E+02
4827000000.000000      6.170044000000000E-01      1.234033000000000E+01      4.990234000000000E-01     -1.120273000000000E+02
4828000000.000000      6.151733000000000E-01      1.230322000000000E+01      4.995422000000000E-01     -1.128125000000000E+02
4829000000.000000      6.152344000000000E-01      1.259570000000000E+01      5.001526000000000E-01     -1.133906000000000E+02
4830000000.000000      6.151428000000000E-01      1.256934000000000E+01      4.991760000000000E-01     -1.142344000000000E+02
4831000000.000000      6.145630000000000E-01      1.269189000000000E+01      5.004272000000000E-01     -1.152539000000000E+02
4832000000.000000      6.138916000000000E-01      1.271777000000000E+01      4.983521000000000E-01     -1.158203000000000E+02
4833000000.000000      6.126709000000000E-01      1.280566000000000E+01      4.986725000000000E-01     -1.164687000000000E+02
4834000000.000000      6.125183000000000E-01      1.289648000000000E+01      4.992218000000000E-01     -1.173945000000000E+02
4835000000.000000      6.144409000000000E-01      1.310254000000000E+01      4.999237000000000E-01     -1.182930000000000E+02
4836000000.000000      6.138611000000000E-01      1.326855000000000E+01      4.979248000000000E-01     -1.188515000000000E+02
4837000000.000000      6.139221000000000E-01      1.357080000000000E+01      4.982910000000000E-01     -1.199023000000000E+02
4838000000.000000      6.122437000000000E-01      1.346338000000000E+01      4.994659000000000E-01     -1.203633000000000E+02
4839000000.000000      6.167908000000000E-01      1.376025000000000E+01      4.981995000000000E-01     -1.210469000000000E+02
4840000000.000000      6.153564000000000E-01      1.374072000000000E+01      4.996185000000000E-01     -1.219609000000000E+02
4841000000.000000      6.157227000000000E-01      1.384668000000000E+01      4.989777000000000E-01     -1.229766000000000E+02
4842000000.000000      6.155701000000000E-01      1.400586000000000E+01      4.980316000000000E-01     -1.235703000000000E+02
4843000000.000000      6.179810000000000E-01      1.392920000000000E+01      4.983978000000000E-01     -1.245273000000000E+02
4844000000.000000      6.175232000000000E-01      1.411719000000000E+01      4.960022000000000E-01     -1.253477000000000E+02
4845000000.000000      6.183777000000000E-01      1.417627000000000E+01      4.950714000000000E-01     -1.261094000000000E+02
4846000000.000000      6.203308000000000E-01      1.439453000000000E+01      4.943237000000000E-01     -1.268516000000000E+02
4847000000.000000      6.190186000000000E-01      1.446338000000000E+01      4.921722000000000E-01     -1.276641000000000E+02
4848000000.000000      6.182251000000000E-01      1.435498000000000E+01      4.901886000000000E-01     -1.285547000000000E+02
4849000000.000000      6.197205000000000E-01      1.445654000000000E+01      4.904327000000000E-01     -1.292500000000000E+02
4850000000.000000      6.220093000000000E-01      1.459668000000000E+01      4.870453000000000E-01     -1.302266000000000E+02
4851000000.000000      6.234436000000000E-01      1.479541000000000E+01      4.876251000000000E-01     -1.312266000000000E+02
4852000000.000000      6.225891000000000E-01      1.465820000000000E+01      4.836426000000000E-01     -1.319922000000000E+02
4853000000.000000      6.261902000000000E-01      1.467627000000000E+01      4.814453000000000E-01     -1.329219000000000E+02
4854000000.000000      6.242371000000000E-01      1.476660000000000E+01      4.800720000000000E-01     -1.337578000000000E+02
4855000000.000000      6.256714000000000E-01      1.485596000000000E+01      4.794922000000000E-01     -1.346875000000000E+02
4856000000.000000      6.286011000000000E-01      1.480225000000000E+01      4.750214000000000E-01     -1.354844000000000E+02
4857000000.000000      6.291809000000000E-01      1.510986000000000E+01      4.746857000000000E-01     -1.362500000000000E+02
4858000000.000000      6.279907000000000E-01      1.492725000000000E+01      4.712067000000000E-01     -1.371562000000000E+02
4859000000.000000      6.307983000000000E-01      1.486426000000000E+01      4.697418000000000E-01     -1.381016000000000E+02
4860000000.000000      6.305542000000000E-01      1.508252000000000E+01      4.647980000000000E-01     -1.387969000000000E+02
4861000000.000000      6.312561000000000E-01      1.521875000000000E+01      4.618530000000000E-01     -1.398281000000000E+02
4862000000.000000      6.336670000000000E-01      1.517041000000000E+01      4.608459000000000E-01     -1.404766000000000E+02
4863000000.000000      6.351929000000000E-01      1.510986000000000E+01      4.566956000000000E-01     -1.415781000000000E+02
4864000000.000000      6.358643000000000E-01      1.502490000000000E+01      4.530334000000000E-01     -1.420781000000000E+02
4865000000.000000      6.367798000000000E-01      1.512793000000000E+01      4.492188000000000E-01     -1.430469000000000E+02
4866000000.000000      6.373596000000000E-01      1.500439000000000E+01      4.466400000000000E-01     -1.438906000000000E+02
4867000000.000000      6.376038000000000E-01      1.516797000000000E+01      4.415894000000000E-01     -1.447344000000000E+02
4868000000.000000      6.429749000000000E-01      1.501270000000000E+01      4.377289000000000E-01     -1.454375000000000E+02
4869000000.000000      6.434326000000000E-01      1.505225000000000E+01      4.343262000000000E-01     -1.462969000000000E+02
4870000000.000000      6.432800000000000E-01      1.519385000000000E+01      4.300079000000000E-01     -1.468047000000000E+02
4871000000.000000      6.446228000000000E-01      1.503174000000000E+01      4.253387000000000E-01     -1.477890000000000E+02
4872000000.000000      6.469421000000000E-01      1.492480000000000E+01      4.223328000000000E-01     -1.482109000000000E+02
4873000000.000000      6.469727000000000E-01      1.494824000000000E+01      4.180756000000000E-01     -1.491094000000000E+02
4874000000.000000      6.508789000000000E-01      1.514600000000000E+01      4.135742000000000E-01     -1.498203000000000E+02
4875000000.000000      6.492004000000000E-01      1.480664000000000E+01      4.087372000000000E-01     -1.505078000000000E+02
4876000000.000000      6.510620000000000E-01      1.497266000000000E+01      4.054565000000000E-01     -1.512109000000000E+02
4877000000.000000      6.525269000000000E-01      1.453076000000000E+01      3.989258000000000E-01     -1.519297000000000E+02
4878000000.000000      6.523743000000000E-01      1.470068000000000E+01      3.960876000000000E-01     -1.525938000000000E+02
4879000000.000000      6.567383000000000E-01      1.480127000000000E+01      3.907166000000000E-01     -1.530547000000000E+02
4880000000.000000      6.561279000000000E-01      1.464990000000000E+01      3.880615000000000E-01     -1.537344000000000E+02
4881000000.000000      6.586914000000000E-01      1.460205000000000E+01      3.824158000000000E-01     -1.542891000000000E+02
4882000000.000000      6.589966000000000E-01      1.473633000000000E+01      3.784180000000000E-01     -1.548672000000000E+02
4883000000.000000      6.603699000000000E-01      1.455127000000000E+01      3.732147000000000E-01     -1.555078000000000E+02
4884000000.000000      6.620178000000000E-01      1.445068000000000E+01      3.695679000000000E-01     -1.560469000000000E+02
4885000000.000000      6.638184000000000E-01      1.455518000000000E+01      3.642120000000000E-01     -1.562500000000000E+02
4886000000.000000      6.630554000000000E-01      1.430518000000000E+01      3.595276000000000E-01     -1.569922000000000E+02
4887000000.000000      6.676636000000000E-01      1.426953000000000E+01      3.576202000000000E-01     -1.573359000000000E+02
4888000000.000000      6.652527000000000E-01      1.410889000000000E+01      3.534393000000000E-01     -1.582656000000000E+02
4889000000.000000      6.672668000000000E-01      1.421631000000000E+01      3.479309000000000E-01     -1.583281000000000E+02
4890000000.000000      6.663818000000000E-01      1.393066000000000E+01      3.438873000000000E-01     -1.589453000000000E+02
4891000000.000000      6.685181000000000E-01      1.393848000000000E+01      3.387146000000000E-01     -1.595781000000000E+02
4892000000.000000      6.699524000000000E-01      1.372168000000000E+01      3.355255000000000E-01     -1.598203000000000E+02
4893000000.000000      6.726685000000000E-01      1.389453000000000E+01      3.311462000000000E-01     -1.602031000000000E+02
4894000000.000000      6.704407000000000E-01      1.365283000000000E+01      3.265686000000000E-01     -1.607891000000000E+02
4895000000.000000      6.728210000000000E-01      1.351025000000000E+01      3.242188000000000E-01     -1.608203000000000E+02
4896000000.000000      6.732483000000000E-01      1.330957000000000E+01      3.193665000000000E-01     -1.613125000000000E+02
4897000000.000000      6.751099000000000E-01      1.343213000000000E+01      3.151093000000000E-01     -1.616719000000000E+02
4898000000.000000      6.772156000000000E-01      1.340430000000000E+01      3.131714000000000E-01     -1.620547000000000E+02
4899000000.000000      6.779175000000000E-01      1.325635000000000E+01      3.086243000000000E-01     -1.625078000000000E+02
4900000000.000000      6.806030000000000E-01      1.316553000000000E+01      3.048096000000000E-01     -1.627734000000000E+02
4901000000.000000      6.779480000000000E-01      1.293750000000000E+01      3.013306000000000E-01     -1.631172000000000E+02
4902000000.000000      6.798096000000000E-01      1.275098000000000E+01      2.978821000000000E-01     -1.634219000000000E+02
4903000000.000000      6.798706000000000E-01      1.287598000000000E+01      2.934113000000000E-01     -1.638125000000000E+02
4904000000.000000      6.800537000000000E-01      1.270410000000000E+01      2.906036000000000E-01     -1.642734000000000E+02
4905000000.000000      6.803284000000000E-01      1.263818000000000E+01      2.872620000000000E-01     -1.645937000000000E+02
4906000000.000000      6.798706000000000E-01      1.256006000000000E+01      2.830048000000000E-01     -1.647812000000000E+02
4907000000.000000      6.837769000000000E-01      1.236768000000000E+01      2.803955000000000E-01     -1.652344000000000E+02
4908000000.000000      6.858521000000000E-01      1.223291000000000E+01      2.768097000000000E-01     -1.657422000000000E+02
4909000000.000000      6.828613000000000E-01      1.228271000000000E+01      2.725067000000000E-01     -1.658906000000000E+02
4910000000.000000      6.849670000000000E-01      1.216992000000000E+01      2.689667000000000E-01     -1.662266000000000E+02
4911000000.000000      6.863403000000000E-01      1.213428000000000E+01      2.658539000000000E-01     -1.664063000000000E+02
4912000000.000000      6.848450000000000E-01      1.179932000000000E+01      2.617950000000000E-01     -1.669844000000000E+02
4913000000.000000      6.871643000000000E-01      1.179492000000000E+01      2.589111000000000E-01     -1.673125000000000E+02
4914000000.000000      6.874390000000000E-01      1.165479000000000E+01      2.558136000000000E-01     -1.673828000000000E+02
4915000000.000000      6.876526000000000E-01      1.155029000000000E+01      2.519836000000000E-01     -1.678516000000000E+02
4916000000.000000      6.882935000000000E-01      1.158203000000000E+01      2.483521000000000E-01     -1.683359000000000E+02
4917000000.000000      6.883850000000000E-01      1.150391000000000E+01      2.447357000000000E-01     -1.684141000000000E+02
4918000000.000000      6.905518000000000E-01      1.140479000000000E+01      2.409592000000000E-01     -1.687813000000000E+02
4919000000.000000      6.890869000000000E-01      1.120703000000000E+01      2.375793000000000E-01     -1.686172000000000E+02
4920000000.000000      6.895447000000000E-01      1.103955000000000E+01      2.335434000000000E-01     -1.693125000000000E+02
4921000000.000000      6.892700000000000E-01      1.109033000000000E+01      2.303314000000000E-01     -1.694687000000000E+02
4922000000.000000      6.919861000000000E-01      1.102588000000000E+01      2.268448000000000E-01     -1.695469000000000E+02
4923000000.000000      6.926880000000000E-01      1.087354000000000E+01      2.227859000000000E-01     -1.697891000000000E+02
4924000000.000000      6.925354000000000E-01      1.074854000000000E+01      2.188263000000000E-01     -1.701172000000000E+02
4925000000.000000      6.924744000000000E-01      1.057275000000000E+01      2.148743000000000E-01     -1.703594000000000E+02
4926000000.000000      6.928711000000000E-01      1.063184000000000E+01      2.115097000000000E-01     -1.704922000000000E+02
4927000000.000000      6.934509000000000E-01      1.043945000000000E+01      2.075424000000000E-01     -1.705156000000000E+02
4928000000.000000      6.968384000000000E-01      1.022510000000000E+01      2.043610000000000E-01     -1.706484000000000E+02
4929000000.000000      6.967163000000000E-01      1.031201000000000E+01      1.997223000000000E-01     -1.708203000000000E+02
4930000000.000000      6.971436000000000E-01      1.019238000000000E+01      1.964645000000000E-01     -1.708125000000000E+02
4931000000.000000      6.964417000000000E-01      1.004932000000000E+01      1.932297000000000E-01     -1.708906000000000E+02
4932000000.000000      6.961975000000000E-01      1.012500000000000E+01      1.886444000000000E-01     -1.710469000000000E+02
4933000000.000000      6.974792000000000E-01      9.880371000000000E+00      1.841278000000000E-01     -1.707500000000000E+02
4934000000.000000      6.989441000000000E-01      9.703613000000000E+00      1.811295000000000E-01     -1.708359000000000E+02
4935000000.000000      7.005615000000000E-01      9.585449000000000E+00      1.778030000000000E-01     -1.706875000000000E+02
4936000000.000000      6.977539000000000E-01      9.519531000000000E+00      1.735077000000000E-01     -1.705781000000000E+02
4937000000.000000      6.992188000000000E-01      9.296875000000000E+00      1.700134000000000E-01     -1.705078000000000E+02
4938000000.000000      6.984863000000000E-01      9.453613000000000E+00      1.660156000000000E-01     -1.702188000000000E+02
4939000000.000000      6.997986000000000E-01      9.318848000000000E+00      1.625748000000000E-01     -1.699766000000000E+02
4940000000.000000      7.002563000000000E-01      9.152832000000000E+00      1.580734000000000E-01     -1.698281000000000E+02
4941000000.000000      7.018127000000000E-01      8.996094000000000E+00      1.552429000000000E-01     -1.692578000000000E+02
4942000000.000000      7.008362000000000E-01      9.093750000000000E+00      1.515884000000000E-01     -1.687031000000000E+02
4943000000.000000      7.013550000000000E-01      9.110352000000000E+00      1.476440000000000E-01     -1.683047000000000E+02
4944000000.000000      7.007141000000000E-01      8.787598000000000E+00      1.445999000000000E-01     -1.677422000000000E+02
4945000000.000000      7.017212000000000E-01      8.624023000000000E+00      1.409378000000000E-01     -1.671328000000000E+02
4946000000.000000      7.032166000000000E-01      8.552734000000000E+00      1.376190000000000E-01     -1.664453000000000E+02
4947000000.000000      7.044067000000000E-01      8.376953000000000E+00      1.340332000000000E-01     -1.656797000000000E+02
4948000000.000000      7.056580000000000E-01      8.385254000000000E+00      1.313019000000000E-01     -1.648984000000000E+02
4949000000.000000      7.051086000000000E-01      8.323242000000000E+00      1.283493000000000E-01     -1.636719000000000E+02
4950000000.000000      7.062683000000000E-01      8.217773000000000E+00      1.252289000000000E-01     -1.628125000000000E+02
4951000000.000000      7.071228000000000E-01      8.174805000000000E+00      1.224518000000000E-01     -1.619531000000000E+02
4952000000.000000      7.067566000000000E-01      7.999268000000000E+00      1.195488000000000E-01     -1.606719000000000E+02
4953000000.000000      7.062073000000000E-01      7.860596000000000E+00      1.175232000000000E-01     -1.593281000000000E+02
4954000000.000000      7.056274000000000E-01      7.834473000000000E+00      1.148415000000000E-01     -1.579766000000000E+02
