! Network Analyzer HP8722D
! Hewlett-Packard
! Data name: Linha & Wilkinson
! Saver's name: Rodrigo Anjos
! Comments: Teste da utilização de aquisição
continua pelo VNA HP8722D
! Time and date: 22/5/2025 08:57
!              Frequency                     S11                                                   S21                                                   S12                                                   S22
# HZ  S  MA R 50
4800000000.000000      6.477966000000000E-01      1.030762000000000E+01      4.747925000000000E-01     -9.376562000000000E+01
4801000000.000000      6.449890000000000E-01      1.040381000000000E+01      4.750977000000000E-01     -9.427343000000000E+01
4802000000.000000      6.437378000000000E-01      1.031885000000000E+01      4.787445000000000E-01     -9.517578000000000E+01
4803000000.000000      6.419983000000000E-01      1.033105000000000E+01      4.808960000000000E-01     -9.582031000000000E+01
4804000000.000000      6.390991000000000E-01      1.026904000000000E+01      4.804230000000000E-01     -9.676561000000000E+01
4805000000.000000      6.404419000000000E-01      1.014307000000000E+01      4.829254000000000E-01     -9.745703000000000E+01
4806000000.000000      6.381226000000000E-01      1.020752000000000E+01      4.842834000000000E-01     -9.808594000000000E+01
4807000000.000000      6.345520000000000E-01      1.029932000000000E+01      4.849701000000000E-01     -9.905468000000000E+01
4808000000.000000      6.322327000000000E-01      1.029785000000000E+01      4.876251000000000E-01     -9.983593000000000E+01
4809000000.000000      6.314087000000000E-01      1.046436000000000E+01      4.891815000000000E-01     -1.005391000000000E+02
4810000000.000000      6.295471000000000E-01      1.046436000000000E+01      4.914246000000000E-01     -1.012148000000000E+02
4811000000.000000      6.301575000000000E-01      1.050830000000000E+01      4.911804000000000E-01     -1.020898000000000E+02
4812000000.000000      6.305847000000000E-01      1.061670000000000E+01      4.930115000000000E-01     -1.028633000000000E+02
4813000000.000000      6.262512000000000E-01      1.056055000000000E+01      4.937744000000000E-01     -1.037422000000000E+02
4814000000.000000      6.253967000000000E-01      1.062207000000000E+01      4.943085000000000E-01     -1.041797000000000E+02
4815000000.000000      6.239624000000000E-01      1.077344000000000E+01      4.954681000000000E-01     -1.051172000000000E+02
4816000000.000000      6.244507000000000E-01      1.089014000000000E+01      4.963074000000000E-01     -1.057578000000000E+02
4817000000.000000      6.215515000000000E-01      1.084863000000000E+01      4.967346000000000E-01     -1.067109000000000E+02
4818000000.000000      6.206360000000000E-01      1.082520000000000E+01      4.962616000000000E-01     -1.073750000000000E+02
4819000000.000000      6.205750000000000E-01      1.112500000000000E+01      4.962769000000000E-01     -1.080469000000000E+02
4820000000.000000      6.188660000000000E-01      1.116748000000000E+01      4.972382000000000E-01     -1.086953000000000E+02
4821000000.000000      6.176453000000000E-01      1.139795000000000E+01      4.974823000000000E-01     -1.095391000000000E+02
4822000000.000000      6.166382000000000E-01      1.118506000000000E+01      4.976959000000000E-01     -1.101953000000000E+02
4823000000.000000      6.164856000000000E-01      1.143359000000000E+01      4.996796000000000E-01     -1.111406000000000E+02
4824000000.000000      6.147156000000000E-01      1.156689000000000E+01      4.987793000000000E-01     -1.118242000000000E+02
4825000000.000000      6.141968000000000E-01      1.156152000000000E+01      4.985962000000000E-01     -1.124609000000000E+02
4826000000.000000      6.146240000000000E-01      1.152979000000000E+01      4.992828000000000E-01     -1.134844000000000E+02
4827000000.000000      6.133118000000000E-01      1.172363000000000E+01      4.988251000000000E-01     -1.140469000000000E+02
4828000000.000000      6.133728000000000E-01      1.182129000000000E+01      4.993591000000000E-01     -1.148750000000000E+02
4829000000.000000      6.132202000000000E-01      1.216553000000000E+01      4.997711000000000E-01     -1.155859000000000E+02
4830000000.000000      6.142883000000000E-01      1.209424000000000E+01      5.002747000000000E-01     -1.163515000000000E+02
4831000000.000000      6.116638000000000E-01      1.229053000000000E+01      5.011597000000000E-01     -1.171719000000000E+02
4832000000.000000      6.122437000000000E-01      1.233740000000000E+01      4.986115000000000E-01     -1.178750000000000E+02
4833000000.000000      6.095276000000000E-01      1.232910000000000E+01      4.993896000000000E-01     -1.185742000000000E+02
4834000000.000000      6.106262000000000E-01      1.262158000000000E+01      4.993896000000000E-01     -1.194765000000000E+02
4835000000.000000      6.126404000000000E-01      1.265869000000000E+01      4.993439000000000E-01     -1.202695000000000E+02
4836000000.000000      6.128235000000000E-01      1.277148000000000E+01      4.976196000000000E-01     -1.209766000000000E+02
4837000000.000000      6.115112000000000E-01      1.305566000000000E+01      4.972839000000000E-01     -1.219336000000000E+02
4838000000.000000      6.127014000000000E-01      1.302686000000000E+01      4.989014000000000E-01     -1.226094000000000E+02
4839000000.000000      6.147461000000000E-01      1.323145000000000E+01      4.962769000000000E-01     -1.232773000000000E+02
4840000000.000000      6.142273000000000E-01      1.309277000000000E+01      4.974670000000000E-01     -1.241523000000000E+02
4841000000.000000      6.136169000000000E-01      1.356934000000000E+01      4.977264000000000E-01     -1.250625000000000E+02
4842000000.000000      6.146851000000000E-01      1.343750000000000E+01      4.962006000000000E-01     -1.257578000000000E+02
4843000000.000000      6.152954000000000E-01      1.334424000000000E+01      4.950104000000000E-01     -1.267109000000000E+02
4844000000.000000      6.152649000000000E-01      1.340332000000000E+01      4.938965000000000E-01     -1.274883000000000E+02
4845000000.000000      6.179199000000000E-01      1.372314000000000E+01      4.931641000000000E-01     -1.281484000000000E+02
4846000000.000000      6.166077000000000E-01      1.372998000000000E+01      4.904633000000000E-01     -1.291250000000000E+02
4847000000.000000      6.193237000000000E-01      1.384814000000000E+01      4.895325000000000E-01     -1.296250000000000E+02
4848000000.000000      6.190491000000000E-01      1.391406000000000E+01      4.866486000000000E-01     -1.307344000000000E+02
4849000000.000000      6.191711000000000E-01      1.410645000000000E+01      4.865265000000000E-01     -1.316562000000000E+02
4850000000.000000      6.200562000000000E-01      1.398926000000000E+01      4.842682000000000E-01     -1.324609000000000E+02
4851000000.000000      6.230164000000000E-01      1.414063000000000E+01      4.834595000000000E-01     -1.332266000000000E+02
4852000000.000000      6.244812000000000E-01      1.396875000000000E+01      4.812469000000000E-01     -1.341094000000000E+02
4853000000.000000      6.250610000000000E-01      1.403906000000000E+01      4.773254000000000E-01     -1.348906000000000E+02
4854000000.000000      6.246338000000000E-01      1.432324000000000E+01      4.763184000000000E-01     -1.357500000000000E+02
4855000000.000000      6.257019000000000E-01      1.442188000000000E+01      4.739838000000000E-01     -1.366875000000000E+02
4856000000.000000      6.274719000000000E-01      1.405957000000000E+01      4.720612000000000E-01     -1.377109000000000E+02
4857000000.000000      6.292114000000000E-01      1.434814000000000E+01      4.705658000000000E-01     -1.383516000000000E+02
4858000000.000000      6.295776000000000E-01      1.426563000000000E+01      4.669647000000000E-01     -1.391875000000000E+02
4859000000.000000      6.308594000000000E-01      1.436719000000000E+01      4.628448000000000E-01     -1.400703000000000E+02
4860000000.000000      6.315308000000000E-01      1.437549000000000E+01      4.600525000000000E-01     -1.409375000000000E+02
4861000000.000000      6.344910000000000E-01      1.447412000000000E+01      4.563141000000000E-01     -1.418203000000000E+02
4862000000.000000      6.348572000000000E-01      1.437256000000000E+01      4.532471000000000E-01     -1.424141000000000E+02
4863000000.000000      6.359863000000000E-01      1.440820000000000E+01      4.478149000000000E-01     -1.433359000000000E+02
4864000000.000000      6.376648000000000E-01      1.446582000000000E+01      4.476624000000000E-01     -1.440938000000000E+02
4865000000.000000      6.348877000000000E-01      1.438477000000000E+01      4.430237000000000E-01     -1.447500000000000E+02
4866000000.000000      6.395874000000000E-01      1.428613000000000E+01      4.375000000000000E-01     -1.458437000000000E+02
4867000000.000000      6.401978000000000E-01      1.436426000000000E+01      4.340057000000000E-01     -1.465000000000000E+02
4868000000.000000      6.423950000000000E-01      1.432617000000000E+01      4.299774000000000E-01     -1.471172000000000E+02
4869000000.000000      6.444702000000000E-01      1.430664000000000E+01      4.273529000000000E-01     -1.480703000000000E+02
4870000000.000000      6.441956000000000E-01      1.432715000000000E+01      4.234161000000000E-01     -1.488047000000000E+02
4871000000.000000      6.454773000000000E-01      1.424756000000000E+01      4.189301000000000E-01     -1.495000000000000E+02
4872000000.000000      6.476135000000000E-01      1.425049000000000E+01      4.136810000000000E-01     -1.500625000000000E+02
4873000000.000000      6.484070000000000E-01      1.406348000000000E+01      4.084015000000000E-01     -1.509922000000000E+02
4874000000.000000      6.501160000000000E-01      1.428320000000000E+01      4.057159000000000E-01     -1.515312000000000E+02
4875000000.000000      6.504517000000000E-01      1.410059000000000E+01      4.004211000000000E-01     -1.521953000000000E+02
4876000000.000000      6.522522000000000E-01      1.426270000000000E+01      3.959503000000000E-01     -1.527969000000000E+02
4877000000.000000      6.525574000000000E-01      1.391943000000000E+01      3.920898000000000E-01     -1.534531000000000E+02
4878000000.000000      6.535339000000000E-01      1.404443000000000E+01      3.882751000000000E-01     -1.540703000000000E+02
4879000000.000000      6.572266000000000E-01      1.389746000000000E+01      3.819122000000000E-01     -1.547188000000000E+02
4880000000.000000      6.571350000000000E-01      1.382617000000000E+01      3.800354000000000E-01     -1.552422000000000E+02
4881000000.000000      6.592712000000000E-01      1.379053000000000E+01      3.737793000000000E-01     -1.556875000000000E+02
4882000000.000000      6.610413000000000E-01      1.381348000000000E+01      3.714600000000000E-01     -1.564844000000000E+02
4883000000.000000      6.619873000000000E-01      1.376855000000000E+01      3.650055000000000E-01     -1.568438000000000E+02
4884000000.000000      6.623840000000000E-01      1.372998000000000E+01      3.624420000000000E-01     -1.575703000000000E+02
4885000000.000000      6.632996000000000E-01      1.365967000000000E+01      3.574982000000000E-01     -1.575938000000000E+02
4886000000.000000      6.653748000000000E-01      1.354297000000000E+01      3.520355000000000E-01     -1.582656000000000E+02
4887000000.000000      6.653748000000000E-01      1.350195000000000E+01      3.496552000000000E-01     -1.587578000000000E+02
4888000000.000000      6.671143000000000E-01      1.313818000000000E+01      3.447266000000000E-01     -1.592656000000000E+02
4889000000.000000      6.668701000000000E-01      1.323682000000000E+01      3.400726000000000E-01     -1.594687000000000E+02
4890000000.000000      6.669617000000000E-01      1.313379000000000E+01      3.355255000000000E-01     -1.604531000000000E+02
4891000000.000000      6.705017000000000E-01      1.313232000000000E+01      3.295135000000000E-01     -1.606562000000000E+02
4892000000.000000      6.701965000000000E-01      1.313525000000000E+01      3.269196000000000E-01     -1.608281000000000E+02
4893000000.000000      6.719055000000000E-01      1.283447000000000E+01      3.233337000000000E-01     -1.613594000000000E+02
4894000000.000000      6.730042000000000E-01      1.282080000000000E+01      3.199005000000000E-01     -1.617812000000000E+02
4895000000.000000      6.739502000000000E-01      1.263965000000000E+01      3.169708000000000E-01     -1.621172000000000E+02
4896000000.000000      6.743469000000000E-01      1.259814000000000E+01      3.123779000000000E-01     -1.624766000000000E+02
4897000000.000000      6.751709000000000E-01      1.266406000000000E+01      3.077545000000000E-01     -1.628359000000000E+02
4898000000.000000      6.746216000000000E-01      1.241846000000000E+01      3.055725000000000E-01     -1.630859000000000E+02
4899000000.000000      6.791992000000000E-01      1.231396000000000E+01      3.017731000000000E-01     -1.637109000000000E+02
4900000000.000000      6.793518000000000E-01      1.233350000000000E+01      2.980499000000000E-01     -1.637578000000000E+02
4901000000.000000      6.807251000000000E-01      1.225488000000000E+01      2.944031000000000E-01     -1.642187000000000E+02
4902000000.000000      6.804504000000000E-01      1.203125000000000E+01      2.904968000000000E-01     -1.643125000000000E+02
4903000000.000000      6.816711000000000E-01      1.204346000000000E+01      2.860718000000000E-01     -1.646797000000000E+02
4904000000.000000      6.809082000000000E-01      1.178955000000000E+01      2.835236000000000E-01     -1.650469000000000E+02
4905000000.000000      6.817017000000000E-01      1.184863000000000E+01      2.802124000000000E-01     -1.655078000000000E+02
4906000000.000000      6.803589000000000E-01      1.160693000000000E+01      2.760162000000000E-01     -1.654766000000000E+02
4907000000.000000      6.827698000000000E-01      1.162891000000000E+01      2.729187000000000E-01     -1.661875000000000E+02
4908000000.000000      6.859436000000000E-01      1.137207000000000E+01      2.695923000000000E-01     -1.664766000000000E+02
4909000000.000000      6.855164000000000E-01      1.137354000000000E+01      2.654572000000000E-01     -1.666406000000000E+02
4910000000.000000      6.829834000000000E-01      1.130859000000000E+01      2.625732000000000E-01     -1.669531000000000E+02
4911000000.000000      6.857605000000000E-01      1.122363000000000E+01      2.595367000000000E-01     -1.672969000000000E+02
4912000000.000000      6.871643000000000E-01      1.111670000000000E+01      2.556610000000000E-01     -1.676094000000000E+02
4913000000.000000      6.875305000000000E-01      1.099707000000000E+01      2.521973000000000E-01     -1.679375000000000E+02
4914000000.000000      6.888123000000000E-01      1.079785000000000E+01      2.483902000000000E-01     -1.681094000000000E+02
4915000000.000000      6.884766000000000E-01      1.088574000000000E+01      2.450333000000000E-01     -1.686016000000000E+02
4916000000.000000      6.877747000000000E-01      1.082959000000000E+01      2.414856000000000E-01     -1.687500000000000E+02
4917000000.000000      6.892700000000000E-01      1.060547000000000E+01      2.379379000000000E-01     -1.690391000000000E+02
4918000000.000000      6.884766000000000E-01      1.062500000000000E+01      2.335739000000000E-01     -1.692109000000000E+02
4919000000.000000      6.896057000000000E-01      1.041602000000000E+01      2.307510000000000E-01     -1.692812000000000E+02
4920000000.000000      6.925354000000000E-01      1.026660000000000E+01      2.267456000000000E-01     -1.697500000000000E+02
4921000000.000000      6.896973000000000E-01      1.033643000000000E+01      2.234879000000000E-01     -1.698125000000000E+02
4922000000.000000      6.900024000000000E-01      1.008545000000000E+01      2.198334000000000E-01     -1.699141000000000E+02
4923000000.000000      6.911926000000000E-01      1.011426000000000E+01      2.161331000000000E-01     -1.699531000000000E+02
4924000000.000000      6.921692000000000E-01      9.971191000000000E+00      2.120972000000000E-01     -1.704609000000000E+02
4925000000.000000      6.905212000000000E-01      9.857422000000000E+00      2.082825000000000E-01     -1.705859000000000E+02
4926000000.000000      6.931458000000000E-01      9.750000000000000E+00      2.052078000000000E-01     -1.705937000000000E+02
4927000000.000000      6.934814000000000E-01      9.652832000000000E+00      2.007523000000000E-01     -1.708281000000000E+02
4928000000.000000      6.945496000000000E-01      9.383301000000000E+00      1.969681000000000E-01     -1.708672000000000E+02
4929000000.000000      6.954346000000000E-01      9.389160000000000E+00      1.935730000000000E-01     -1.707109000000000E+02
4930000000.000000      6.945496000000000E-01      9.318848000000000E+00      1.896286000000000E-01     -1.707031000000000E+02
4931000000.000000      6.947632000000000E-01      9.174805000000000E+00      1.863556000000000E-01     -1.707578000000000E+02
4932000000.000000      6.967773000000000E-01      9.192383000000000E+00      1.822662000000000E-01     -1.706953000000000E+02
4933000000.000000      6.963501000000000E-01      8.945313000000000E+00      1.779633000000000E-01     -1.704531000000000E+02
4934000000.000000      6.972656000000000E-01      8.933105000000000E+00      1.746216000000000E-01     -1.706172000000000E+02
4935000000.000000      6.991882000000000E-01      8.850586000000000E+00      1.715851000000000E-01     -1.701562000000000E+02
4936000000.000000      6.964722000000000E-01      8.664063000000000E+00      1.676712000000000E-01     -1.699219000000000E+02
4937000000.000000      6.980896000000000E-01      8.645996000000000E+00      1.634216000000000E-01     -1.697969000000000E+02
4938000000.000000      6.971741000000000E-01      8.604980000000000E+00      1.601181000000000E-01     -1.695469000000000E+02
4939000000.000000      6.975708000000000E-01      8.541504000000000E+00      1.563492000000000E-01     -1.691719000000000E+02
4940000000.000000      6.996460000000000E-01      8.350586000000000E+00      1.524887000000000E-01     -1.688359000000000E+02
4941000000.000000      6.996155000000000E-01      8.319336000000000E+00      1.495132000000000E-01     -1.680859000000000E+02
4942000000.000000      6.988525000000000E-01      8.176270000000000E+00      1.456146000000000E-01     -1.677734000000000E+02
4943000000.000000      7.012329000000000E-01      8.014160000000000E+00      1.430206000000000E-01     -1.670938000000000E+02
4944000000.000000      7.008972000000000E-01      7.976074000000000E+00      1.395950000000000E-01     -1.664687000000000E+02
4945000000.000000      7.005920000000000E-01      7.838623000000000E+00      1.359177000000000E-01     -1.655781000000000E+02
4946000000.000000      7.037354000000000E-01      7.812500000000000E+00      1.327286000000000E-01     -1.646719000000000E+02
4947000000.000000      7.029419000000000E-01      7.662842000000000E+00      1.301117000000000E-01     -1.639688000000000E+02
4948000000.000000      7.048035000000000E-01      7.634033000000000E+00      1.276855000000000E-01     -1.629062000000000E+02
4949000000.000000      7.025757000000000E-01      7.541992000000000E+00      1.245804000000000E-01     -1.616641000000000E+02
4950000000.000000      7.035828000000000E-01      7.363525000000000E+00      1.217842000000000E-01     -1.604922000000000E+02
4951000000.000000      7.052917000000000E-01      7.323730000000000E+00      1.195946000000000E-01     -1.595000000000000E+02
4952000000.000000      7.057800000000000E-01      7.202881000000000E+00      1.172943000000000E-01     -1.581563000000000E+02
4953000000.000000      7.076111000000000E-01      7.109375000000000E+00      1.153564000000000E-01     -1.563750000000000E+02
4954000000.000000      7.066956000000000E-01      7.043457000000000E+00      1.128960000000000E-01     -1.553047000000000E+02
