! Network Analyzer HP8722D
! Hewlett-Packard
! Data name: Linha & Wilkinson
! Saver's name: Rodrigo Anjos
! Comments: Teste da utilização de aquisição
continua pelo VNA HP8722D
! Time and date: 22/5/2025 08:37
!              Frequency                     S11                                                   S21                                                   S12                                                   S22
# HZ  S  MA R 50
4800000000.000000      6.473694000000000E-01      1.025684000000000E+01      4.741364000000000E-01     -9.391016000000000E+01
4801000000.000000      6.456604000000000E-01      1.038477000000000E+01      4.762878000000000E-01     -9.436327000000000E+01
4802000000.000000      6.434326000000000E-01      1.028174000000000E+01      4.768066000000000E-01     -9.505077000000000E+01
4803000000.000000      6.415405000000000E-01      1.031885000000000E+01      4.812012000000000E-01     -9.599609000000000E+01
4804000000.000000      6.399231000000000E-01      1.034619000000000E+01      4.801483000000000E-01     -9.680077000000000E+01
4805000000.000000      6.392822000000000E-01      1.025000000000000E+01      4.833069000000000E-01     -9.749609000000000E+01
4806000000.000000      6.375732000000000E-01      1.023096000000000E+01      4.855804000000000E-01     -9.833593000000000E+01
4807000000.000000      6.351013000000000E-01      1.014990000000000E+01      4.864807000000000E-01     -9.904686000000000E+01
4808000000.000000      6.320801000000000E-01      1.017334000000000E+01      4.867554000000000E-01     -9.964844000000000E+01
4809000000.000000      6.316528000000000E-01      1.037207000000000E+01      4.897003000000000E-01     -1.006367000000000E+02
4810000000.000000      6.300659000000000E-01      1.038867000000000E+01      4.893646000000000E-01     -1.012617000000000E+02
4811000000.000000      6.293640000000000E-01      1.029541000000000E+01      4.908142000000000E-01     -1.020781000000000E+02
4812000000.000000      6.296387000000000E-01      1.045752000000000E+01      4.927521000000000E-01     -1.028867000000000E+02
4813000000.000000      6.262817000000000E-01      1.059326000000000E+01      4.937592000000000E-01     -1.035703000000000E+02
4814000000.000000      6.240234000000000E-01      1.065234000000000E+01      4.951630000000000E-01     -1.043476000000000E+02
4815000000.000000      6.238708000000000E-01      1.067725000000000E+01      4.950867000000000E-01     -1.051133000000000E+02
4816000000.000000      6.240540000000000E-01      1.076514000000000E+01      4.955444000000000E-01     -1.058125000000000E+02
4817000000.000000      6.225891000000000E-01      1.089404000000000E+01      4.972382000000000E-01     -1.067070000000000E+02
4818000000.000000      6.219788000000000E-01      1.078418000000000E+01      4.962158000000000E-01     -1.074297000000000E+02
4819000000.000000      6.189880000000000E-01      1.107813000000000E+01      4.972229000000000E-01     -1.082031000000000E+02
4820000000.000000      6.179199000000000E-01      1.100537000000000E+01      4.982300000000000E-01     -1.088789000000000E+02
4821000000.000000      6.184998000000000E-01      1.133350000000000E+01      4.982452000000000E-01     -1.097109000000000E+02
4822000000.000000      6.171265000000000E-01      1.115918000000000E+01      4.976807000000000E-01     -1.103711000000000E+02
4823000000.000000      6.159973000000000E-01      1.138281000000000E+01      4.997864000000000E-01     -1.112109000000000E+02
4824000000.000000      6.138611000000000E-01      1.157959000000000E+01      4.996033000000000E-01     -1.120117000000000E+02
4825000000.000000      6.136475000000000E-01      1.157227000000000E+01      4.983063000000000E-01     -1.124531000000000E+02
4826000000.000000      6.135254000000000E-01      1.143262000000000E+01      4.992828000000000E-01     -1.135976000000000E+02
4827000000.000000      6.153564000000000E-01      1.155029000000000E+01      4.997101000000000E-01     -1.139219000000000E+02
4828000000.000000      6.142578000000000E-01      1.181006000000000E+01      4.995117000000000E-01     -1.148047000000000E+02
4829000000.000000      6.118469000000000E-01      1.195850000000000E+01      5.016174000000000E-01     -1.157539000000000E+02
4830000000.000000      6.142273000000000E-01      1.200488000000000E+01      5.004272000000000E-01     -1.165430000000000E+02
4831000000.000000      6.127319000000000E-01      1.217529000000000E+01      5.015259000000000E-01     -1.172031000000000E+02
4832000000.000000      6.125488000000000E-01      1.251465000000000E+01      4.997864000000000E-01     -1.176172000000000E+02
4833000000.000000      6.094360000000000E-01      1.245703000000000E+01      4.989014000000000E-01     -1.184883000000000E+02
4834000000.000000      6.110535000000000E-01      1.247900000000000E+01      4.995270000000000E-01     -1.196211000000000E+02
4835000000.000000      6.125183000000000E-01      1.261230000000000E+01      5.006409000000000E-01     -1.202734000000000E+02
4836000000.000000      6.138306000000000E-01      1.281787000000000E+01      4.990540000000000E-01     -1.209219000000000E+02
4837000000.000000      6.112976000000000E-01      1.305713000000000E+01      4.967804000000000E-01     -1.219844000000000E+02
4838000000.000000      6.121216000000000E-01      1.289648000000000E+01      4.966736000000000E-01     -1.225000000000000E+02
4839000000.000000      6.144104000000000E-01      1.312695000000000E+01      4.965515000000000E-01     -1.233672000000000E+02
4840000000.000000      6.151733000000000E-01      1.319971000000000E+01      4.965515000000000E-01     -1.239336000000000E+02
4841000000.000000      6.127319000000000E-01      1.344580000000000E+01      4.973297000000000E-01     -1.250859000000000E+02
4842000000.000000      6.149597000000000E-01      1.341260000000000E+01      4.944153000000000E-01     -1.257773000000000E+02
4843000000.000000      6.156616000000000E-01      1.341553000000000E+01      4.954987000000000E-01     -1.267226000000000E+02
4844000000.000000      6.166687000000000E-01      1.342090000000000E+01      4.929657000000000E-01     -1.274805000000000E+02
4845000000.000000      6.167603000000000E-01      1.367383000000000E+01      4.921570000000000E-01     -1.283125000000000E+02
4846000000.000000      6.182251000000000E-01      1.371338000000000E+01      4.902954000000000E-01     -1.291875000000000E+02
4847000000.000000      6.194153000000000E-01      1.389355000000000E+01      4.888763000000000E-01     -1.298594000000000E+02
4848000000.000000      6.186523000000000E-01      1.391113000000000E+01      4.867249000000000E-01     -1.307266000000000E+02
4849000000.000000      6.203308000000000E-01      1.390967000000000E+01      4.859772000000000E-01     -1.315234000000000E+02
4850000000.000000      6.203308000000000E-01      1.409912000000000E+01      4.845886000000000E-01     -1.324687000000000E+02
4851000000.000000      6.217957000000000E-01      1.404590000000000E+01      4.846344000000000E-01     -1.334297000000000E+02
4852000000.000000      6.235352000000000E-01      1.408545000000000E+01      4.802856000000000E-01     -1.340234000000000E+02
4853000000.000000      6.233215000000000E-01      1.415723000000000E+01      4.780121000000000E-01     -1.350547000000000E+02
4854000000.000000      6.244202000000000E-01      1.416113000000000E+01      4.764709000000000E-01     -1.359531000000000E+02
4855000000.000000      6.261292000000000E-01      1.426025000000000E+01      4.735565000000000E-01     -1.367891000000000E+02
4856000000.000000      6.282043000000000E-01      1.433398000000000E+01      4.710541000000000E-01     -1.375391000000000E+02
4857000000.000000      6.283875000000000E-01      1.441113000000000E+01      4.700775000000000E-01     -1.383125000000000E+02
4858000000.000000      6.275635000000000E-01      1.433838000000000E+01      4.670715000000000E-01     -1.391250000000000E+02
4859000000.000000      6.322937000000000E-01      1.424072000000000E+01      4.631195000000000E-01     -1.400000000000000E+02
4860000000.000000      6.331177000000000E-01      1.451660000000000E+01      4.600525000000000E-01     -1.408594000000000E+02
4861000000.000000      6.322632000000000E-01      1.438086000000000E+01      4.562073000000000E-01     -1.417969000000000E+02
4862000000.000000      6.327820000000000E-01      1.435596000000000E+01      4.539337000000000E-01     -1.425000000000000E+02
4863000000.000000      6.358643000000000E-01      1.452490000000000E+01      4.503174000000000E-01     -1.433359000000000E+02
4864000000.000000      6.369019000000000E-01      1.426807000000000E+01      4.471588000000000E-01     -1.441484000000000E+02
4865000000.000000      6.383667000000000E-01      1.437695000000000E+01      4.436798000000000E-01     -1.451094000000000E+02
4866000000.000000      6.392822000000000E-01      1.432324000000000E+01      4.381104000000000E-01     -1.458594000000000E+02
4867000000.000000      6.397400000000000E-01      1.440137000000000E+01      4.348450000000000E-01     -1.466172000000000E+02
4868000000.000000      6.414185000000000E-01      1.425293000000000E+01      4.317169000000000E-01     -1.472109000000000E+02
4869000000.000000      6.421204000000000E-01      1.445215000000000E+01      4.275970000000000E-01     -1.482188000000000E+02
4870000000.000000      6.428528000000000E-01      1.432617000000000E+01      4.231110000000000E-01     -1.487500000000000E+02
4871000000.000000      6.445313000000000E-01      1.425879000000000E+01      4.186249000000000E-01     -1.495781000000000E+02
4872000000.000000      6.482544000000000E-01      1.421338000000000E+01      4.133301000000000E-01     -1.499531000000000E+02
4873000000.000000      6.487427000000000E-01      1.424072000000000E+01      4.100647000000000E-01     -1.508281000000000E+02
4874000000.000000      6.494141000000000E-01      1.407324000000000E+01      4.062042000000000E-01     -1.516094000000000E+02
4875000000.000000      6.501770000000000E-01      1.411182000000000E+01      4.003906000000000E-01     -1.520859000000000E+02
4876000000.000000      6.531982000000000E-01      1.413916000000000E+01      3.985138000000000E-01     -1.528750000000000E+02
4877000000.000000      6.532288000000000E-01      1.385205000000000E+01      3.927002000000000E-01     -1.533906000000000E+02
4878000000.000000      6.541138000000000E-01      1.397021000000000E+01      3.882599000000000E-01     -1.539609000000000E+02
4879000000.000000      6.581116000000000E-01      1.395264000000000E+01      3.830414000000000E-01     -1.546250000000000E+02
4880000000.000000      6.587524000000000E-01      1.372852000000000E+01      3.791351000000000E-01     -1.553203000000000E+02
4881000000.000000      6.596680000000000E-01      1.370361000000000E+01      3.743439000000000E-01     -1.556406000000000E+02
4882000000.000000      6.608276000000000E-01      1.378223000000000E+01      3.710022000000000E-01     -1.563516000000000E+02
4883000000.000000      6.625671000000000E-01      1.358691000000000E+01      3.664856000000000E-01     -1.568516000000000E+02
4884000000.000000      6.620789000000000E-01      1.375342000000000E+01      3.622131000000000E-01     -1.574531000000000E+02
4885000000.000000      6.661072000000000E-01      1.355713000000000E+01      3.573608000000000E-01     -1.576719000000000E+02
4886000000.000000      6.636963000000000E-01      1.367480000000000E+01      3.519287000000000E-01     -1.582266000000000E+02
4887000000.000000      6.652222000000000E-01      1.338672000000000E+01      3.490143000000000E-01     -1.587734000000000E+02
4888000000.000000      6.664429000000000E-01      1.327246000000000E+01      3.456421000000000E-01     -1.593047000000000E+02
4889000000.000000      6.678772000000000E-01      1.309277000000000E+01      3.409729000000000E-01     -1.597188000000000E+02
4890000000.000000      6.658936000000000E-01      1.309424000000000E+01      3.356934000000000E-01     -1.604766000000000E+02
4891000000.000000      6.694031000000000E-01      1.303223000000000E+01      3.322449000000000E-01     -1.606484000000000E+02
4892000000.000000      6.705933000000000E-01      1.301172000000000E+01      3.270721000000000E-01     -1.608906000000000E+02
4893000000.000000      6.723328000000000E-01      1.276709000000000E+01      3.245850000000000E-01     -1.612500000000000E+02
4894000000.000000      6.747131000000000E-01      1.279053000000000E+01      3.201904000000000E-01     -1.618359000000000E+02
4895000000.000000      6.756287000000000E-01      1.275098000000000E+01      3.172302000000000E-01     -1.620469000000000E+02
4896000000.000000      6.750793000000000E-01      1.260498000000000E+01      3.124695000000000E-01     -1.623594000000000E+02
4897000000.000000      6.762695000000000E-01      1.266016000000000E+01      3.086395000000000E-01     -1.627969000000000E+02
4898000000.000000      6.780090000000000E-01      1.243213000000000E+01      3.049316000000000E-01     -1.629219000000000E+02
4899000000.000000      6.772461000000000E-01      1.245850000000000E+01      3.011017000000000E-01     -1.636094000000000E+02
4900000000.000000      6.782837000000000E-01      1.216846000000000E+01      2.975464000000000E-01     -1.638359000000000E+02
4901000000.000000      6.789856000000000E-01      1.218896000000000E+01      2.939606000000000E-01     -1.642266000000000E+02
4902000000.000000      6.802979000000000E-01      1.205469000000000E+01      2.910156000000000E-01     -1.643047000000000E+02
4903000000.000000      6.799316000000000E-01      1.200781000000000E+01      2.866058000000000E-01     -1.647891000000000E+02
4904000000.000000      6.807251000000000E-01      1.182129000000000E+01      2.828979000000000E-01     -1.650781000000000E+02
4905000000.000000      6.817932000000000E-01      1.162207000000000E+01      2.801056000000000E-01     -1.655000000000000E+02
4906000000.000000      6.831055000000000E-01      1.173193000000000E+01      2.760315000000000E-01     -1.655625000000000E+02
4907000000.000000      6.849060000000000E-01      1.149414000000000E+01      2.736816000000000E-01     -1.660469000000000E+02
4908000000.000000      6.862488000000000E-01      1.134326000000000E+01      2.700653000000000E-01     -1.665547000000000E+02
4909000000.000000      6.854858000000000E-01      1.132129000000000E+01      2.661133000000000E-01     -1.668047000000000E+02
4910000000.000000      6.853943000000000E-01      1.128662000000000E+01      2.620697000000000E-01     -1.669141000000000E+02
4911000000.000000      6.872253000000000E-01      1.121533000000000E+01      2.592316000000000E-01     -1.672422000000000E+02
4912000000.000000      6.843262000000000E-01      1.117432000000000E+01      2.556763000000000E-01     -1.675390000000000E+02
4913000000.000000      6.868591000000000E-01      1.106006000000000E+01      2.522278000000000E-01     -1.678516000000000E+02
4914000000.000000      6.887817000000000E-01      1.073877000000000E+01      2.486267000000000E-01     -1.680703000000000E+02
4915000000.000000      6.863403000000000E-01      1.075537000000000E+01      2.445068000000000E-01     -1.684844000000000E+02
4916000000.000000      6.885681000000000E-01      1.069922000000000E+01      2.416611000000000E-01     -1.687969000000000E+02
4917000000.000000      6.889648000000000E-01      1.061523000000000E+01      2.378006000000000E-01     -1.689766000000000E+02
4918000000.000000      6.904602000000000E-01      1.046973000000000E+01      2.334290000000000E-01     -1.692422000000000E+02
4919000000.000000      6.895447000000000E-01      1.027490000000000E+01      2.301483000000000E-01     -1.692031000000000E+02
4920000000.000000      6.920471000000000E-01      1.009619000000000E+01      2.265778000000000E-01     -1.697891000000000E+02
4921000000.000000      6.891479000000000E-01      1.023096000000000E+01      2.236710000000000E-01     -1.699297000000000E+02
4922000000.000000      6.928406000000000E-01      1.009766000000000E+01      2.192001000000000E-01     -1.698516000000000E+02
4923000000.000000      6.922913000000000E-01      1.001123000000000E+01      2.159195000000000E-01     -1.701015000000000E+02
4924000000.000000      6.913147000000000E-01      1.000293000000000E+01      2.121582000000000E-01     -1.704141000000000E+02
4925000000.000000      6.937866000000000E-01      9.810547000000000E+00      2.082901000000000E-01     -1.703281000000000E+02
4926000000.000000      6.923523000000000E-01      9.759766000000000E+00      2.052765000000000E-01     -1.706172000000000E+02
4927000000.000000      6.930237000000000E-01      9.605957000000000E+00      2.005234000000000E-01     -1.707969000000000E+02
4928000000.000000      6.958313000000000E-01      9.500000000000000E+00      1.972961000000000E-01     -1.706875000000000E+02
4929000000.000000      6.952209000000000E-01      9.456055000000000E+00      1.934814000000000E-01     -1.707578000000000E+02
4930000000.000000      6.960144000000000E-01      9.354492000000000E+00      1.900940000000000E-01     -1.708906000000000E+02
4931000000.000000      6.963196000000000E-01      9.247559000000000E+00      1.863022000000000E-01     -1.708672000000000E+02
4932000000.000000      6.952820000000000E-01      9.124023000000000E+00      1.824265000000000E-01     -1.706563000000000E+02
4933000000.000000      6.980591000000000E-01      9.071777000000000E+00      1.775360000000000E-01     -1.703750000000000E+02
4934000000.000000      6.992493000000000E-01      8.772461000000000E+00      1.745682000000000E-01     -1.707813000000000E+02
4935000000.000000      6.990356000000000E-01      8.671875000000000E+00      1.711731000000000E-01     -1.702188000000000E+02
4936000000.000000      6.972046000000000E-01      8.635254000000000E+00      1.669464000000000E-01     -1.701328000000000E+02
4937000000.000000      6.987915000000000E-01      8.576172000000000E+00      1.635513000000000E-01     -1.699453000000000E+02
4938000000.000000      6.979675000000000E-01      8.710449000000000E+00      1.602097000000000E-01     -1.693984000000000E+02
4939000000.000000      6.988220000000000E-01      8.578613000000000E+00      1.562729000000000E-01     -1.691172000000000E+02
4940000000.000000      7.000427000000000E-01      8.184570000000000E+00      1.526108000000000E-01     -1.688047000000000E+02
4941000000.000000      7.022400000000000E-01      8.124023000000000E+00      1.494598000000000E-01     -1.683281000000000E+02
4942000000.000000      6.994019000000000E-01      8.174805000000000E+00      1.463928000000000E-01     -1.678203000000000E+02
4943000000.000000      7.014465000000000E-01      8.164063000000000E+00      1.428909000000000E-01     -1.670000000000000E+02
4944000000.000000      7.023621000000000E-01      7.944336000000000E+00      1.398468000000000E-01     -1.663437000000000E+02
4945000000.000000      7.021790000000000E-01      7.760254000000000E+00      1.363144000000000E-01     -1.656484000000000E+02
4946000000.000000      7.015076000000000E-01      7.706787000000000E+00      1.327515000000000E-01     -1.647031000000000E+02
4947000000.000000      7.028503000000000E-01      7.500732000000000E+00      1.298370000000000E-01     -1.640156000000000E+02
4948000000.000000      7.044983000000000E-01      7.596924000000000E+00      1.271133000000000E-01     -1.628281000000000E+02
4949000000.000000      7.044678000000000E-01      7.493896000000000E+00      1.247559000000000E-01     -1.616562000000000E+02
4950000000.000000      7.053833000000000E-01      7.371826000000000E+00      1.217613000000000E-01     -1.606797000000000E+02
4951000000.000000      7.052917000000000E-01      7.260498000000000E+00      1.197319000000000E-01     -1.595156000000000E+02
4952000000.000000      7.053528000000000E-01      7.057129000000000E+00      1.168671000000000E-01     -1.580469000000000E+02
4953000000.000000      7.046814000000000E-01      6.963867000000000E+00      1.153259000000000E-01     -1.565156000000000E+02
4954000000.000000      7.066650000000000E-01      7.058594000000000E+00      1.131744000000000E-01     -1.549687000000000E+02
