! Network Analyzer HP8722D
! Hewlett-Packard
! Data name: Linha & Wilkinson
! Saver's name: Rodrigo Anjos
! Comments: Teste da utilização de aquisição
continua pelo VNA HP8722D
! Time and date: 22/5/2025 14:57
!              Frequency                     S11                                                   S21                                                   S12                                                   S22
# HZ  S  MA R 50
4800000000.000000      6.538086000000000E-01      1.087061000000000E+01      4.701996000000000E-01     -9.203905000000000E+01
4801000000.000000      6.498718000000000E-01      1.092969000000000E+01      4.716339000000000E-01     -9.266796000000000E+01
4802000000.000000      6.496887000000000E-01      1.104492000000000E+01      4.734802000000000E-01     -9.322266000000000E+01
4803000000.000000      6.475220000000000E-01      1.082666000000000E+01      4.777985000000000E-01     -9.383204000000000E+01
4804000000.000000      6.446228000000000E-01      1.091748000000000E+01      4.783478000000000E-01     -9.461718000000000E+01
4805000000.000000      6.451416000000000E-01      1.085547000000000E+01      4.801483000000000E-01     -9.540625000000000E+01
4806000000.000000      6.440430000000000E-01      1.079541000000000E+01      4.809113000000000E-01     -9.628906000000000E+01
4807000000.000000      6.400757000000000E-01      1.080078000000000E+01      4.817200000000000E-01     -9.696093000000000E+01
4808000000.000000      6.386414000000000E-01      1.082129000000000E+01      4.852295000000000E-01     -9.781639000000000E+01
4809000000.000000      6.372375000000000E-01      1.100391000000000E+01      4.849548000000000E-01     -9.864061000000000E+01
4810000000.000000      6.347351000000000E-01      1.095996000000000E+01      4.873505000000000E-01     -9.933983000000000E+01
4811000000.000000      6.343384000000000E-01      1.105225000000000E+01      4.887848000000000E-01     -1.002109000000000E+02
4812000000.000000      6.348572000000000E-01      1.116895000000000E+01      4.888306000000000E-01     -1.009961000000000E+02
4813000000.000000      6.315308000000000E-01      1.109619000000000E+01      4.901733000000000E-01     -1.017812000000000E+02
4814000000.000000      6.294861000000000E-01      1.120459000000000E+01      4.929810000000000E-01     -1.023906000000000E+02
4815000000.000000      6.284180000000000E-01      1.137598000000000E+01      4.927521000000000E-01     -1.031406000000000E+02
4816000000.000000      6.264648000000000E-01      1.131592000000000E+01      4.952850000000000E-01     -1.038203000000000E+02
4817000000.000000      6.268311000000000E-01      1.130176000000000E+01      4.930573000000000E-01     -1.048398000000000E+02
4818000000.000000      6.248779000000000E-01      1.135010000000000E+01      4.945526000000000E-01     -1.055859000000000E+02
4819000000.000000      6.242676000000000E-01      1.152734000000000E+01      4.953918000000000E-01     -1.062344000000000E+02
4820000000.000000      6.218262000000000E-01      1.164111000000000E+01      4.950867000000000E-01     -1.068867000000000E+02
4821000000.000000      6.224670000000000E-01      1.167529000000000E+01      4.970703000000000E-01     -1.075977000000000E+02
4822000000.000000      6.206055000000000E-01      1.169873000000000E+01      4.964600000000000E-01     -1.081406000000000E+02
4823000000.000000      6.213074000000000E-01      1.183740000000000E+01      4.982758000000000E-01     -1.091445000000000E+02
4824000000.000000      6.169434000000000E-01      1.195410000000000E+01      4.985657000000000E-01     -1.099375000000000E+02
4825000000.000000      6.171875000000000E-01      1.181982000000000E+01      4.992371000000000E-01     -1.106953000000000E+02
4826000000.000000      6.169128000000000E-01      1.217529000000000E+01      4.989166000000000E-01     -1.114922000000000E+02
4827000000.000000      6.177063000000000E-01      1.229883000000000E+01      4.989777000000000E-01     -1.120508000000000E+02
4828000000.000000      6.156311000000000E-01      1.235938000000000E+01      4.990082000000000E-01     -1.128359000000000E+02
4829000000.000000      6.158142000000000E-01      1.270947000000000E+01      5.008850000000000E-01     -1.135781000000000E+02
4830000000.000000      6.163025000000000E-01      1.273438000000000E+01      4.996490000000000E-01     -1.144648000000000E+02
4831000000.000000      6.153564000000000E-01      1.263428000000000E+01      4.999695000000000E-01     -1.153867000000000E+02
4832000000.000000      6.144409000000000E-01      1.293604000000000E+01      4.985352000000000E-01     -1.159219000000000E+02
4833000000.000000      6.139526000000000E-01      1.278369000000000E+01      4.995728000000000E-01     -1.165898000000000E+02
4834000000.000000      6.118774000000000E-01      1.289209000000000E+01      4.997101000000000E-01     -1.174687000000000E+02
4835000000.000000      6.137085000000000E-01      1.322461000000000E+01      5.005188000000000E-01     -1.182656000000000E+02
4836000000.000000      6.133728000000000E-01      1.324805000000000E+01      4.987030000000000E-01     -1.189648000000000E+02
4837000000.000000      6.141052000000000E-01      1.329443000000000E+01      5.002747000000000E-01     -1.199766000000000E+02
4838000000.000000      6.125183000000000E-01      1.340332000000000E+01      4.992523000000000E-01     -1.204414000000000E+02
4839000000.000000      6.186829000000000E-01      1.361328000000000E+01      4.980927000000000E-01     -1.213047000000000E+02
4840000000.000000      6.157837000000000E-01      1.363086000000000E+01      4.997406000000000E-01     -1.220508000000000E+02
4841000000.000000      6.150208000000000E-01      1.389893000000000E+01      4.980621000000000E-01     -1.230117000000000E+02
4842000000.000000      6.148376000000000E-01      1.393994000000000E+01      4.966888000000000E-01     -1.238125000000000E+02
4843000000.000000      6.183777000000000E-01      1.388525000000000E+01      4.984741000000000E-01     -1.246601000000000E+02
4844000000.000000      6.166382000000000E-01      1.418164000000000E+01      4.959564000000000E-01     -1.254688000000000E+02
4845000000.000000      6.181030000000000E-01      1.429980000000000E+01      4.954224000000000E-01     -1.261914000000000E+02
4846000000.000000      6.186829000000000E-01      1.430957000000000E+01      4.935608000000000E-01     -1.270586000000000E+02
4847000000.000000      6.191101000000000E-01      1.444971000000000E+01      4.931488000000000E-01     -1.277578000000000E+02
4848000000.000000      6.190186000000000E-01      1.431787000000000E+01      4.902954000000000E-01     -1.286172000000000E+02
4849000000.000000      6.201782000000000E-01      1.430518000000000E+01      4.908447000000000E-01     -1.296406000000000E+02
4850000000.000000      6.211853000000000E-01      1.475830000000000E+01      4.881744000000000E-01     -1.303359000000000E+02
4851000000.000000      6.234436000000000E-01      1.463232000000000E+01      4.880219000000000E-01     -1.312891000000000E+02
4852000000.000000      6.231079000000000E-01      1.454980000000000E+01      4.856262000000000E-01     -1.320547000000000E+02
4853000000.000000      6.235657000000000E-01      1.476270000000000E+01      4.818573000000000E-01     -1.329609000000000E+02
4854000000.000000      6.260681000000000E-01      1.474219000000000E+01      4.812317000000000E-01     -1.337812000000000E+02
4855000000.000000      6.262207000000000E-01      1.488086000000000E+01      4.779663000000000E-01     -1.347734000000000E+02
4856000000.000000      6.262817000000000E-01      1.476807000000000E+01      4.762726000000000E-01     -1.357109000000000E+02
4857000000.000000      6.303711000000000E-01      1.480518000000000E+01      4.748688000000000E-01     -1.364219000000000E+02
4858000000.000000      6.304321000000000E-01      1.494824000000000E+01      4.729767000000000E-01     -1.372891000000000E+02
4859000000.000000      6.306458000000000E-01      1.488770000000000E+01      4.683380000000000E-01     -1.380000000000000E+02
4860000000.000000      6.320190000000000E-01      1.509619000000000E+01      4.665222000000000E-01     -1.390156000000000E+02
4861000000.000000      6.321716000000000E-01      1.519238000000000E+01      4.620667000000000E-01     -1.399844000000000E+02
4862000000.000000      6.325378000000000E-01      1.503711000000000E+01      4.601746000000000E-01     -1.404922000000000E+02
4863000000.000000      6.335449000000000E-01      1.513330000000000E+01      4.551697000000000E-01     -1.414297000000000E+02
4864000000.000000      6.363525000000000E-01      1.505908000000000E+01      4.537811000000000E-01     -1.421719000000000E+02
4865000000.000000      6.383667000000000E-01      1.509619000000000E+01      4.497223000000000E-01     -1.428828000000000E+02
4866000000.000000      6.385803000000000E-01      1.510205000000000E+01      4.449158000000000E-01     -1.439375000000000E+02
4867000000.000000      6.380920000000000E-01      1.515674000000000E+01      4.418488000000000E-01     -1.447500000000000E+02
4868000000.000000      6.411438000000000E-01      1.488232000000000E+01      4.376678000000000E-01     -1.455312000000000E+02
4869000000.000000      6.406555000000000E-01      1.505371000000000E+01      4.345703000000000E-01     -1.462891000000000E+02
4870000000.000000      6.440125000000000E-01      1.503857000000000E+01      4.305267000000000E-01     -1.468516000000000E+02
4871000000.000000      6.447144000000000E-01      1.481885000000000E+01      4.262848000000000E-01     -1.477813000000000E+02
4872000000.000000      6.485596000000000E-01      1.497021000000000E+01      4.212646000000000E-01     -1.484375000000000E+02
4873000000.000000      6.497192000000000E-01      1.487256000000000E+01      4.175568000000000E-01     -1.491406000000000E+02
4874000000.000000      6.493835000000000E-01      1.501660000000000E+01      4.123230000000000E-01     -1.498672000000000E+02
4875000000.000000      6.495361000000000E-01      1.481885000000000E+01      4.090271000000000E-01     -1.505312000000000E+02
4876000000.000000      6.514282000000000E-01      1.505225000000000E+01      4.056396000000000E-01     -1.511875000000000E+02
4877000000.000000      6.535339000000000E-01      1.466504000000000E+01      4.004364000000000E-01     -1.516875000000000E+02
4878000000.000000      6.527100000000000E-01      1.470508000000000E+01      3.958435000000000E-01     -1.525469000000000E+02
4879000000.000000      6.564636000000000E-01      1.469971000000000E+01      3.908997000000000E-01     -1.531250000000000E+02
4880000000.000000      6.549072000000000E-01      1.460352000000000E+01      3.866730000000000E-01     -1.538437000000000E+02
4881000000.000000      6.592712000000000E-01      1.470752000000000E+01      3.817902000000000E-01     -1.542422000000000E+02
4882000000.000000      6.604004000000000E-01      1.460742000000000E+01      3.793182000000000E-01     -1.548594000000000E+02
4883000000.000000      6.587524000000000E-01      1.449072000000000E+01      3.723602000000000E-01     -1.556406000000000E+02
4884000000.000000      6.632080000000000E-01      1.459082000000000E+01      3.689270000000000E-01     -1.560937000000000E+02
4885000000.000000      6.615906000000000E-01      1.426953000000000E+01      3.650360000000000E-01     -1.562109000000000E+02
4886000000.000000      6.642151000000000E-01      1.410205000000000E+01      3.607178000000000E-01     -1.569609000000000E+02
4887000000.000000      6.659241000000000E-01      1.428906000000000E+01      3.571167000000000E-01     -1.576406000000000E+02
4888000000.000000      6.658020000000000E-01      1.412939000000000E+01      3.524323000000000E-01     -1.579609000000000E+02
4889000000.000000      6.674805000000000E-01      1.396631000000000E+01      3.478851000000000E-01     -1.585938000000000E+02
4890000000.000000      6.651306000000000E-01      1.391650000000000E+01      3.435059000000000E-01     -1.592187000000000E+02
4891000000.000000      6.698303000000000E-01      1.393994000000000E+01      3.390350000000000E-01     -1.593750000000000E+02
4892000000.000000      6.687012000000000E-01      1.393457000000000E+01      3.342285000000000E-01     -1.597500000000000E+02
4893000000.000000      6.715393000000000E-01      1.368311000000000E+01      3.312683000000000E-01     -1.601641000000000E+02
4894000000.000000      6.701355000000000E-01      1.378613000000000E+01      3.274078000000000E-01     -1.605391000000000E+02
4895000000.000000      6.737671000000000E-01      1.352246000000000E+01      3.240814000000000E-01     -1.609922000000000E+02
4896000000.000000      6.745300000000000E-01      1.340576000000000E+01      3.201904000000000E-01     -1.613828000000000E+02
4897000000.000000      6.744995000000000E-01      1.340723000000000E+01      3.153076000000000E-01     -1.618125000000000E+02
4898000000.000000      6.763611000000000E-01      1.327148000000000E+01      3.125458000000000E-01     -1.620859000000000E+02
4899000000.000000      6.763306000000000E-01      1.303516000000000E+01      3.086853000000000E-01     -1.625547000000000E+02
4900000000.000000      6.783142000000000E-01      1.287988000000000E+01      3.045349000000000E-01     -1.628203000000000E+02
4901000000.000000      6.771545000000000E-01      1.300049000000000E+01      3.011475000000000E-01     -1.631172000000000E+02
4902000000.000000      6.772766000000000E-01      1.291553000000000E+01      2.974091000000000E-01     -1.634375000000000E+02
4903000000.000000      6.800537000000000E-01      1.297607000000000E+01      2.932892000000000E-01     -1.638359000000000E+02
4904000000.000000      6.807251000000000E-01      1.263525000000000E+01      2.899017000000000E-01     -1.643516000000000E+02
4905000000.000000      6.803894000000000E-01      1.267676000000000E+01      2.867584000000000E-01     -1.646797000000000E+02
4906000000.000000      6.829224000000000E-01      1.227832000000000E+01      2.829895000000000E-01     -1.647500000000000E+02
4907000000.000000      6.832275000000000E-01      1.239502000000000E+01      2.801514000000000E-01     -1.652656000000000E+02
4908000000.000000      6.853638000000000E-01      1.213428000000000E+01      2.768097000000000E-01     -1.657031000000000E+02
4909000000.000000      6.833191000000000E-01      1.215625000000000E+01      2.720795000000000E-01     -1.659453000000000E+02
4910000000.000000      6.856689000000000E-01      1.219043000000000E+01      2.691193000000000E-01     -1.661328000000000E+02
4911000000.000000      6.843872000000000E-01      1.202588000000000E+01      2.656860000000000E-01     -1.665625000000000E+02
4912000000.000000      6.843262000000000E-01      1.179785000000000E+01      2.618866000000000E-01     -1.669453000000000E+02
4913000000.000000      6.869812000000000E-01      1.170996000000000E+01      2.582245000000000E-01     -1.672031000000000E+02
4914000000.000000      6.871948000000000E-01      1.157129000000000E+01      2.544403000000000E-01     -1.672656000000000E+02
4915000000.000000      6.886292000000000E-01      1.157813000000000E+01      2.512054000000000E-01     -1.679531000000000E+02
4916000000.000000      6.897278000000000E-01      1.137598000000000E+01      2.474442000000000E-01     -1.682500000000000E+02
4917000000.000000      6.898499000000000E-01      1.140625000000000E+01      2.444534000000000E-01     -1.682578000000000E+02
4918000000.000000      6.895142000000000E-01      1.138721000000000E+01      2.401505000000000E-01     -1.685078000000000E+02
4919000000.000000      6.886597000000000E-01      1.137744000000000E+01      2.378616000000000E-01     -1.685937000000000E+02
4920000000.000000      6.894531000000000E-01      1.103027000000000E+01      2.333527000000000E-01     -1.691562000000000E+02
4921000000.000000      6.895447000000000E-01      1.103418000000000E+01      2.298203000000000E-01     -1.695547000000000E+02
4922000000.000000      6.918030000000000E-01      1.094922000000000E+01      2.262573000000000E-01     -1.696484000000000E+02
4923000000.000000      6.920776000000000E-01      1.081055000000000E+01      2.221298000000000E-01     -1.697031000000000E+02
4924000000.000000      6.940308000000000E-01      1.083936000000000E+01      2.184143000000000E-01     -1.701719000000000E+02
4925000000.000000      6.919250000000000E-01      1.058496000000000E+01      2.148666000000000E-01     -1.702031000000000E+02
4926000000.000000      6.924744000000000E-01      1.046289000000000E+01      2.110062000000000E-01     -1.703828000000000E+02
4927000000.000000      6.930542000000000E-01      1.055615000000000E+01      2.068634000000000E-01     -1.706719000000000E+02
4928000000.000000      6.961975000000000E-01      1.045068000000000E+01      2.036133000000000E-01     -1.706484000000000E+02
4929000000.000000      6.946106000000000E-01      1.019775000000000E+01      1.991425000000000E-01     -1.706719000000000E+02
4930000000.000000      6.967163000000000E-01      1.007959000000000E+01      1.961594000000000E-01     -1.708750000000000E+02
4931000000.000000      6.950989000000000E-01      9.967285000000000E+00      1.924667000000000E-01     -1.708594000000000E+02
4932000000.000000      6.969604000000000E-01      9.879395000000000E+00      1.887665000000000E-01     -1.709766000000000E+02
4933000000.000000      6.957397000000000E-01      9.947754000000000E+00      1.838913000000000E-01     -1.706953000000000E+02
4934000000.000000      6.984253000000000E-01      9.806641000000000E+00      1.804428000000000E-01     -1.707813000000000E+02
4935000000.000000      7.005615000000000E-01      9.671875000000000E+00      1.773758000000000E-01     -1.706484000000000E+02
4936000000.000000      6.984558000000000E-01      9.372559000000000E+00      1.730957000000000E-01     -1.705547000000000E+02
4937000000.000000      6.989441000000000E-01      9.352051000000000E+00      1.694641000000000E-01     -1.705781000000000E+02
4938000000.000000      6.988831000000000E-01      9.361328000000000E+00      1.657257000000000E-01     -1.700859000000000E+02
4939000000.000000      6.991577000000000E-01      9.299805000000000E+00      1.616440000000000E-01     -1.699375000000000E+02
4940000000.000000      6.995544000000000E-01      9.058105000000000E+00      1.579437000000000E-01     -1.696328000000000E+02
4941000000.000000      7.015076000000000E-01      8.968750000000000E+00      1.543884000000000E-01     -1.690703000000000E+02
4942000000.000000      6.996765000000000E-01      9.023438000000000E+00      1.511993000000000E-01     -1.688203000000000E+02
4943000000.000000      7.008972000000000E-01      8.846680000000000E+00      1.476135000000000E-01     -1.683437000000000E+02
4944000000.000000      7.015076000000000E-01      8.691406000000000E+00      1.440506000000000E-01     -1.677891000000000E+02
4945000000.000000      7.009888000000000E-01      8.635254000000000E+00      1.406708000000000E-01     -1.669609000000000E+02
4946000000.000000      7.036133000000000E-01      8.661133000000000E+00      1.372681000000000E-01     -1.664766000000000E+02
4947000000.000000      7.035828000000000E-01      8.510254000000000E+00      1.342392000000000E-01     -1.654922000000000E+02
4948000000.000000      7.036743000000000E-01      8.429199000000000E+00      1.306763000000000E-01     -1.647734000000000E+02
4949000000.000000      7.042236000000000E-01      8.206543000000000E+00      1.281662000000000E-01     -1.636406000000000E+02
4950000000.000000      7.053223000000000E-01      8.192871000000000E+00      1.251984000000000E-01     -1.629531000000000E+02
4951000000.000000      7.053223000000000E-01      8.055664000000000E+00      1.225052000000000E-01     -1.618203000000000E+02
4952000000.000000      7.057800000000000E-01      7.921143000000000E+00      1.195564000000000E-01     -1.605156000000000E+02
4953000000.000000      7.056885000000000E-01      7.771240000000000E+00      1.175766000000000E-01     -1.592031000000000E+02
4954000000.000000      7.091370000000000E-01      7.873047000000000E+00      1.151543000000000E-01     -1.577422000000000E+02
