! Network Analyzer HP8722D
! Hewlett-Packard
! Data name: Linha & Wilkinson
! Saver's name: Rodrigo Anjos
! Comments: Teste da utilização de aquisição
continua pelo VNA HP8722D
! Time and date: 22/5/2025 07:53
!              Frequency                     S11                                                   S21                                                   S12                                                   S22
# HZ  S  MA R 50
4800000000.000000      6.483765000000000E-01      1.024609000000000E+01      4.755859000000000E-01     -9.408594000000000E+01
4801000000.000000      6.448669000000000E-01      1.027490000000000E+01      4.762421000000000E-01     -9.444530000000000E+01
4802000000.000000      6.442566000000000E-01      1.027197000000000E+01      4.759979000000000E-01     -9.515625000000000E+01
4803000000.000000      6.418762000000000E-01      1.031592000000000E+01      4.819031000000000E-01     -9.589062000000000E+01
4804000000.000000      6.401978000000000E-01      1.041602000000000E+01      4.824829000000000E-01     -9.673828000000000E+01
4805000000.000000      6.392212000000000E-01      1.028711000000000E+01      4.829254000000000E-01     -9.745703000000000E+01
4806000000.000000      6.362610000000000E-01      1.033252000000000E+01      4.836426000000000E-01     -9.823046000000000E+01
4807000000.000000      6.346741000000000E-01      1.042188000000000E+01      4.857330000000000E-01     -9.916405000000000E+01
4808000000.000000      6.316528000000000E-01      1.034766000000000E+01      4.872894000000000E-01     -9.998047000000000E+01
4809000000.000000      6.320190000000000E-01      1.032715000000000E+01      4.889069000000000E-01     -1.007031000000000E+02
4810000000.000000      6.301880000000000E-01      1.037646000000000E+01      4.903259000000000E-01     -1.014375000000000E+02
4811000000.000000      6.298218000000000E-01      1.060693000000000E+01      4.914703000000000E-01     -1.021172000000000E+02
4812000000.000000      6.291809000000000E-01      1.051367000000000E+01      4.920349000000000E-01     -1.029375000000000E+02
4813000000.000000      6.275024000000000E-01      1.077051000000000E+01      4.919434000000000E-01     -1.035781000000000E+02
4814000000.000000      6.236572000000000E-01      1.069238000000000E+01      4.935455000000000E-01     -1.040937000000000E+02
4815000000.000000      6.242065000000000E-01      1.075146000000000E+01      4.931183000000000E-01     -1.051094000000000E+02
4816000000.000000      6.231079000000000E-01      1.075391000000000E+01      4.964447000000000E-01     -1.057656000000000E+02
4817000000.000000      6.203918000000000E-01      1.092139000000000E+01      4.958801000000000E-01     -1.065781000000000E+02
4818000000.000000      6.192932000000000E-01      1.092969000000000E+01      4.969635000000000E-01     -1.073945000000000E+02
4819000000.000000      6.198730000000000E-01      1.098877000000000E+01      4.973450000000000E-01     -1.081367000000000E+02
4820000000.000000      6.169128000000000E-01      1.120850000000000E+01      4.975586000000000E-01     -1.088086000000000E+02
4821000000.000000      6.184082000000000E-01      1.129102000000000E+01      4.986267000000000E-01     -1.097109000000000E+02
4822000000.000000      6.150208000000000E-01      1.120605000000000E+01      4.962769000000000E-01     -1.102226000000000E+02
4823000000.000000      6.152344000000000E-01      1.137354000000000E+01      4.992218000000000E-01     -1.112266000000000E+02
4824000000.000000      6.132507000000000E-01      1.141992000000000E+01      4.984283000000000E-01     -1.118555000000000E+02
4825000000.000000      6.142578000000000E-01      1.147363000000000E+01      4.988098000000000E-01     -1.125977000000000E+02
4826000000.000000      6.134338000000000E-01      1.160547000000000E+01      5.004578000000000E-01     -1.135195000000000E+02
4827000000.000000      6.141663000000000E-01      1.179102000000000E+01      5.000000000000000E-01     -1.139219000000000E+02
4828000000.000000      6.159668000000000E-01      1.186914000000000E+01      5.008240000000000E-01     -1.147773000000000E+02
4829000000.000000      6.135559000000000E-01      1.212061000000000E+01      5.000610000000000E-01     -1.156172000000000E+02
4830000000.000000      6.125488000000000E-01      1.205859000000000E+01      5.008545000000000E-01     -1.163320000000000E+02
4831000000.000000      6.128845000000000E-01      1.224268000000000E+01      4.999084000000000E-01     -1.172773000000000E+02
4832000000.000000      6.120300000000000E-01      1.241455000000000E+01      4.990234000000000E-01     -1.178477000000000E+02
4833000000.000000      6.102600000000000E-01      1.237744000000000E+01      4.995880000000000E-01     -1.186250000000000E+02
4834000000.000000      6.094055000000000E-01      1.265625000000000E+01      4.992981000000000E-01     -1.193750000000000E+02
4835000000.000000      6.111145000000000E-01      1.259424000000000E+01      5.004272000000000E-01     -1.202344000000000E+02
4836000000.000000      6.099548000000000E-01      1.295117000000000E+01      4.987488000000000E-01     -1.210273000000000E+02
4837000000.000000      6.129456000000000E-01      1.305029000000000E+01      4.978790000000000E-01     -1.218672000000000E+02
4838000000.000000      6.118164000000000E-01      1.294873000000000E+01      4.967346000000000E-01     -1.223438000000000E+02
4839000000.000000      6.141968000000000E-01      1.315869000000000E+01      4.974213000000000E-01     -1.232969000000000E+02
4840000000.000000      6.150818000000000E-01      1.310352000000000E+01      4.967346000000000E-01     -1.241406000000000E+02
4841000000.000000      6.136475000000000E-01      1.332617000000000E+01      4.954681000000000E-01     -1.249609000000000E+02
4842000000.000000      6.144409000000000E-01      1.332227000000000E+01      4.950409000000000E-01     -1.257461000000000E+02
4843000000.000000      6.163330000000000E-01      1.348535000000000E+01      4.947357000000000E-01     -1.267070000000000E+02
4844000000.000000      6.151428000000000E-01      1.339209000000000E+01      4.932251000000000E-01     -1.275195000000000E+02
4845000000.000000      6.179504000000000E-01      1.362012000000000E+01      4.905701000000000E-01     -1.282109000000000E+02
4846000000.000000      6.189575000000000E-01      1.364209000000000E+01      4.907684000000000E-01     -1.291953000000000E+02
4847000000.000000      6.197205000000000E-01      1.373291000000000E+01      4.902649000000000E-01     -1.298359000000000E+02
4848000000.000000      6.181030000000000E-01      1.389746000000000E+01      4.867249000000000E-01     -1.307578000000000E+02
4849000000.000000      6.205444000000000E-01      1.387695000000000E+01      4.852142000000000E-01     -1.315859000000000E+02
4850000000.000000      6.194153000000000E-01      1.413525000000000E+01      4.841919000000000E-01     -1.322813000000000E+02
4851000000.000000      6.230774000000000E-01      1.422998000000000E+01      4.842377000000000E-01     -1.332344000000000E+02
4852000000.000000      6.217346000000000E-01      1.408691000000000E+01      4.803467000000000E-01     -1.340156000000000E+02
4853000000.000000      6.245117000000000E-01      1.417920000000000E+01      4.764709000000000E-01     -1.349531000000000E+02
4854000000.000000      6.250916000000000E-01      1.421191000000000E+01      4.756165000000000E-01     -1.359141000000000E+02
4855000000.000000      6.260681000000000E-01      1.427246000000000E+01      4.733276000000000E-01     -1.368828000000000E+02
4856000000.000000      6.281738000000000E-01      1.420898000000000E+01      4.712982000000000E-01     -1.375547000000000E+02
4857000000.000000      6.279907000000000E-01      1.434814000000000E+01      4.697571000000000E-01     -1.382422000000000E+02
4858000000.000000      6.298523000000000E-01      1.435889000000000E+01      4.675903000000000E-01     -1.393203000000000E+02
4859000000.000000      6.309204000000000E-01      1.423535000000000E+01      4.636841000000000E-01     -1.401172000000000E+02
4860000000.000000      6.325378000000000E-01      1.420117000000000E+01      4.598236000000000E-01     -1.408906000000000E+02
4861000000.000000      6.326904000000000E-01      1.444531000000000E+01      4.567413000000000E-01     -1.419219000000000E+02
4862000000.000000      6.340027000000000E-01      1.445361000000000E+01      4.543915000000000E-01     -1.424141000000000E+02
4863000000.000000      6.347656000000000E-01      1.440137000000000E+01      4.497375000000000E-01     -1.435000000000000E+02
4864000000.000000      6.369934000000000E-01      1.450586000000000E+01      4.467621000000000E-01     -1.440625000000000E+02
4865000000.000000      6.375122000000000E-01      1.443604000000000E+01      4.433899000000000E-01     -1.448437000000000E+02
4866000000.000000      6.393433000000000E-01      1.425439000000000E+01      4.389038000000000E-01     -1.456563000000000E+02
4867000000.000000      6.408081000000000E-01      1.425439000000000E+01      4.350586000000000E-01     -1.465937000000000E+02
4868000000.000000      6.420898000000000E-01      1.424902000000000E+01      4.307404000000000E-01     -1.473047000000000E+02
4869000000.000000      6.419373000000000E-01      1.443701000000000E+01      4.270172000000000E-01     -1.481641000000000E+02
4870000000.000000      6.429443000000000E-01      1.438916000000000E+01      4.231262000000000E-01     -1.485625000000000E+02
4871000000.000000      6.455383000000000E-01      1.424072000000000E+01      4.180603000000000E-01     -1.494531000000000E+02
4872000000.000000      6.481628000000000E-01      1.426416000000000E+01      4.142303000000000E-01     -1.500781000000000E+02
4873000000.000000      6.467896000000000E-01      1.412402000000000E+01      4.104004000000000E-01     -1.508516000000000E+02
4874000000.000000      6.494446000000000E-01      1.426953000000000E+01      4.058075000000000E-01     -1.517422000000000E+02
4875000000.000000      6.502380000000000E-01      1.398682000000000E+01      4.000549000000000E-01     -1.522187000000000E+02
4876000000.000000      6.495361000000000E-01      1.424219000000000E+01      3.972473000000000E-01     -1.527187000000000E+02
4877000000.000000      6.542053000000000E-01      1.381934000000000E+01      3.933563000000000E-01     -1.534062000000000E+02
4878000000.000000      6.537476000000000E-01      1.393994000000000E+01      3.874359000000000E-01     -1.542031000000000E+02
4879000000.000000      6.553955000000000E-01      1.401025000000000E+01      3.828430000000000E-01     -1.545625000000000E+02
4880000000.000000      6.578979000000000E-01      1.390039000000000E+01      3.783875000000000E-01     -1.552031000000000E+02
4881000000.000000      6.570435000000000E-01      1.379736000000000E+01      3.750763000000000E-01     -1.557656000000000E+02
4882000000.000000      6.597290000000000E-01      1.371631000000000E+01      3.716583000000000E-01     -1.563125000000000E+02
4883000000.000000      6.602478000000000E-01      1.368750000000000E+01      3.650360000000000E-01     -1.569687000000000E+02
4884000000.000000      6.643677000000000E-01      1.371631000000000E+01      3.619232000000000E-01     -1.576172000000000E+02
4885000000.000000      6.638794000000000E-01      1.346338000000000E+01      3.569183000000000E-01     -1.576797000000000E+02
4886000000.000000      6.636353000000000E-01      1.355713000000000E+01      3.531799000000000E-01     -1.581250000000000E+02
4887000000.000000      6.667175000000000E-01      1.334277000000000E+01      3.496857000000000E-01     -1.587812000000000E+02
4888000000.000000      6.661072000000000E-01      1.329883000000000E+01      3.455963000000000E-01     -1.593516000000000E+02
4889000000.000000      6.668091000000000E-01      1.320117000000000E+01      3.398132000000000E-01     -1.597344000000000E+02
4890000000.000000      6.665955000000000E-01      1.321924000000000E+01      3.343506000000000E-01     -1.602578000000000E+02
4891000000.000000      6.691284000000000E-01      1.307080000000000E+01      3.315277000000000E-01     -1.607656000000000E+02
4892000000.000000      6.680603000000000E-01      1.303760000000000E+01      3.273468000000000E-01     -1.608906000000000E+02
4893000000.000000      6.730652000000000E-01      1.300879000000000E+01      3.235168000000000E-01     -1.614609000000000E+02
4894000000.000000      6.699219000000000E-01      1.278662000000000E+01      3.199768000000000E-01     -1.617734000000000E+02
4895000000.000000      6.735535000000000E-01      1.280176000000000E+01      3.173981000000000E-01     -1.621172000000000E+02
4896000000.000000      6.733704000000000E-01      1.246240000000000E+01      3.121185000000000E-01     -1.623828000000000E+02
4897000000.000000      6.743164000000000E-01      1.258301000000000E+01      3.086395000000000E-01     -1.628203000000000E+02
4898000000.000000      6.758423000000000E-01      1.253516000000000E+01      3.056946000000000E-01     -1.630078000000000E+02
4899000000.000000      6.769104000000000E-01      1.232227000000000E+01      3.013153000000000E-01     -1.635469000000000E+02
4900000000.000000      6.781616000000000E-01      1.215186000000000E+01      2.973785000000000E-01     -1.638594000000000E+02
4901000000.000000      6.797180000000000E-01      1.217285000000000E+01      2.941132000000000E-01     -1.640938000000000E+02
4902000000.000000      6.799927000000000E-01      1.191016000000000E+01      2.904358000000000E-01     -1.643828000000000E+02
4903000000.000000      6.811829000000000E-01      1.204639000000000E+01      2.858734000000000E-01     -1.648125000000000E+02
4904000000.000000      6.817322000000000E-01      1.173047000000000E+01      2.825470000000000E-01     -1.650859000000000E+02
4905000000.000000      6.817322000000000E-01      1.195020000000000E+01      2.799377000000000E-01     -1.656250000000000E+02
4906000000.000000      6.807861000000000E-01      1.162451000000000E+01      2.765350000000000E-01     -1.656328000000000E+02
4907000000.000000      6.830139000000000E-01      1.146533000000000E+01      2.730103000000000E-01     -1.661953000000000E+02
4908000000.000000      6.835327000000000E-01      1.147510000000000E+01      2.696228000000000E-01     -1.666016000000000E+02
4909000000.000000      6.817932000000000E-01      1.147656000000000E+01      2.656097000000000E-01     -1.667109000000000E+02
4910000000.000000      6.834412000000000E-01      1.128809000000000E+01      2.623596000000000E-01     -1.670156000000000E+02
4911000000.000000      6.854858000000000E-01      1.126758000000000E+01      2.591095000000000E-01     -1.672266000000000E+02
4912000000.000000      6.851196000000000E-01      1.126758000000000E+01      2.551422000000000E-01     -1.676328000000000E+02
4913000000.000000      6.879272000000000E-01      1.096973000000000E+01      2.522125000000000E-01     -1.679219000000000E+02
4914000000.000000      6.893616000000000E-01      1.077197000000000E+01      2.485352000000000E-01     -1.679688000000000E+02
4915000000.000000      6.871643000000000E-01      1.093262000000000E+01      2.443771000000000E-01     -1.685469000000000E+02
4916000000.000000      6.879883000000000E-01      1.057813000000000E+01      2.416382000000000E-01     -1.688047000000000E+02
4917000000.000000      6.906738000000000E-01      1.054932000000000E+01      2.375412000000000E-01     -1.690469000000000E+02
4918000000.000000      6.895752000000000E-01      1.056738000000000E+01      2.329102000000000E-01     -1.691484000000000E+02
4919000000.000000      6.878052000000000E-01      1.060986000000000E+01      2.306595000000000E-01     -1.693047000000000E+02
4920000000.000000      6.913452000000000E-01      1.018701000000000E+01      2.268829000000000E-01     -1.697266000000000E+02
4921000000.000000      6.911316000000000E-01      1.024170000000000E+01      2.233734000000000E-01     -1.697187000000000E+02
4922000000.000000      6.924438000000000E-01      1.014014000000000E+01      2.194366000000000E-01     -1.700469000000000E+02
4923000000.000000      6.909790000000000E-01      1.016602000000000E+01      2.159195000000000E-01     -1.701015000000000E+02
4924000000.000000      6.918335000000000E-01      1.003320000000000E+01      2.118683000000000E-01     -1.704297000000000E+02
4925000000.000000      6.902466000000000E-01      9.814453000000000E+00      2.082214000000000E-01     -1.704453000000000E+02
4926000000.000000      6.925659000000000E-01      9.707520000000000E+00      2.047729000000000E-01     -1.705859000000000E+02
4927000000.000000      6.921387000000000E-01      9.597656000000000E+00      2.004089000000000E-01     -1.707187000000000E+02
4928000000.000000      6.947021000000000E-01      9.460449000000000E+00      1.975403000000000E-01     -1.707734000000000E+02
4929000000.000000      6.931763000000000E-01      9.418945000000000E+00      1.928329000000000E-01     -1.707031000000000E+02
4930000000.000000      6.947327000000000E-01      9.401367000000000E+00      1.896820000000000E-01     -1.708594000000000E+02
4931000000.000000      6.955261000000000E-01      9.174805000000000E+00      1.865158000000000E-01     -1.708359000000000E+02
4932000000.000000      6.954041000000000E-01      9.030762000000000E+00      1.825562000000000E-01     -1.706797000000000E+02
4933000000.000000      6.968384000000000E-01      9.004395000000000E+00      1.779251000000000E-01     -1.704844000000000E+02
4934000000.000000      6.993713000000000E-01      9.077148000000000E+00      1.747665000000000E-01     -1.704844000000000E+02
4935000000.000000      6.997070000000000E-01      8.795898000000000E+00      1.713562000000000E-01     -1.702500000000000E+02
4936000000.000000      6.992188000000000E-01      8.758789000000000E+00      1.667633000000000E-01     -1.700000000000000E+02
4937000000.000000      6.998291000000000E-01      8.621094000000000E+00      1.636810000000000E-01     -1.698594000000000E+02
4938000000.000000      6.953125000000000E-01      8.583984000000000E+00      1.602097000000000E-01     -1.695547000000000E+02
4939000000.000000      6.989441000000000E-01      8.458008000000000E+00      1.561813000000000E-01     -1.690938000000000E+02
4940000000.000000      6.984558000000000E-01      8.345215000000000E+00      1.528320000000000E-01     -1.688047000000000E+02
4941000000.000000      6.995239000000000E-01      8.148926000000000E+00      1.497345000000000E-01     -1.681875000000000E+02
4942000000.000000      6.993713000000000E-01      8.069336000000000E+00      1.458054000000000E-01     -1.679453000000000E+02
4943000000.000000      7.009277000000000E-01      8.217773000000000E+00      1.428452000000000E-01     -1.669844000000000E+02
4944000000.000000      7.011719000000000E-01      7.853760000000000E+00      1.392441000000000E-01     -1.663125000000000E+02
4945000000.000000      7.008362000000000E-01      7.643555000000000E+00      1.361618000000000E-01     -1.657109000000000E+02
4946000000.000000      7.032471000000000E-01      7.778320000000000E+00      1.329651000000000E-01     -1.648906000000000E+02
4947000000.000000      7.036438000000000E-01      7.592773000000000E+00      1.297150000000000E-01     -1.639375000000000E+02
4948000000.000000      7.059326000000000E-01      7.614746000000000E+00      1.275406000000000E-01     -1.628906000000000E+02
4949000000.000000      7.009583000000000E-01      7.476074000000000E+00      1.248169000000000E-01     -1.616562000000000E+02
4950000000.000000      7.057190000000000E-01      7.557129000000000E+00      1.215515000000000E-01     -1.605000000000000E+02
4951000000.000000      7.034607000000000E-01      7.474609000000000E+00      1.194611000000000E-01     -1.594766000000000E+02
4952000000.000000      7.029419000000000E-01      7.179443000000000E+00      1.168327000000000E-01     -1.582969000000000E+02
4953000000.000000      7.047424000000000E-01      7.021484000000000E+00      1.150970000000000E-01     -1.565859000000000E+02
4954000000.000000      7.067566000000000E-01      6.972168000000000E+00      1.131668000000000E-01     -1.552109000000000E+02
