! Network Analyzer HP8722D
! Hewlett-Packard
! Data name: Linha & Wilkinson
! Saver's name: Rodrigo Anjos
! Comments: Teste da utilização de aquisição
continua pelo VNA HP8722D
! Time and date: 22/5/2025 16:16
!              Frequency                     S11                                                   S21                                                   S12                                                   S22
# HZ  S  MA R 50
4800000000.000000      6.513062000000000E-01      1.087744000000000E+01      4.702148000000000E-01     -9.201172000000000E+01
4801000000.000000      6.490784000000000E-01      1.097803000000000E+01      4.722748000000000E-01     -9.261328000000000E+01
4802000000.000000      6.494141000000000E-01      1.085840000000000E+01      4.724731000000000E-01     -9.316015000000000E+01
4803000000.000000      6.460876000000000E-01      1.093945000000000E+01      4.772797000000000E-01     -9.382030000000000E+01
4804000000.000000      6.448975000000000E-01      1.084863000000000E+01      4.772339000000000E-01     -9.491014000000000E+01
4805000000.000000      6.446838000000000E-01      1.087500000000000E+01      4.796448000000000E-01     -9.564844000000000E+01
4806000000.000000      6.419983000000000E-01      1.091602000000000E+01      4.812317000000000E-01     -9.639452000000000E+01
4807000000.000000      6.383972000000000E-01      1.088574000000000E+01      4.821930000000000E-01     -9.719921000000000E+01
4808000000.000000      6.372375000000000E-01      1.100391000000000E+01      4.853363000000000E-01     -9.785545000000000E+01
4809000000.000000      6.377258000000000E-01      1.101514000000000E+01      4.844971000000000E-01     -9.897655000000000E+01
4810000000.000000      6.359863000000000E-01      1.108789000000000E+01      4.878845000000000E-01     -9.941015000000000E+01
4811000000.000000      6.353760000000000E-01      1.102588000000000E+01      4.905396000000000E-01     -1.003203000000000E+02
4812000000.000000      6.338196000000000E-01      1.120703000000000E+01      4.895782000000000E-01     -1.011055000000000E+02
4813000000.000000      6.321411000000000E-01      1.110840000000000E+01      4.902496000000000E-01     -1.017695000000000E+02
4814000000.000000      6.288452000000000E-01      1.117578000000000E+01      4.920349000000000E-01     -1.024219000000000E+02
4815000000.000000      6.287537000000000E-01      1.122070000000000E+01      4.922333000000000E-01     -1.031328000000000E+02
4816000000.000000      6.272888000000000E-01      1.139648000000000E+01      4.947968000000000E-01     -1.040000000000000E+02
4817000000.000000      6.250610000000000E-01      1.137598000000000E+01      4.953918000000000E-01     -1.046758000000000E+02
4818000000.000000      6.240540000000000E-01      1.137598000000000E+01      4.938202000000000E-01     -1.053828000000000E+02
4819000000.000000      6.244507000000000E-01      1.155176000000000E+01      4.968262000000000E-01     -1.063242000000000E+02
4820000000.000000      6.223145000000000E-01      1.163281000000000E+01      4.967194000000000E-01     -1.068711000000000E+02
4821000000.000000      6.213684000000000E-01      1.174268000000000E+01      4.967194000000000E-01     -1.078398000000000E+02
4822000000.000000      6.207886000000000E-01      1.170703000000000E+01      4.970856000000000E-01     -1.084453000000000E+02
4823000000.000000      6.201172000000000E-01      1.189258000000000E+01      4.985962000000000E-01     -1.093867000000000E+02
4824000000.000000      6.173706000000000E-01      1.212061000000000E+01      4.987030000000000E-01     -1.100937000000000E+02
4825000000.000000      6.157837000000000E-01      1.210254000000000E+01      4.989624000000000E-01     -1.104805000000000E+02
4826000000.000000      6.176758000000000E-01      1.198438000000000E+01      4.993591000000000E-01     -1.115351000000000E+02
4827000000.000000      6.171265000000000E-01      1.243213000000000E+01      4.992371000000000E-01     -1.122695000000000E+02
4828000000.000000      6.159363000000000E-01      1.224805000000000E+01      4.990234000000000E-01     -1.130430000000000E+02
4829000000.000000      6.166992000000000E-01      1.266699000000000E+01      5.003662000000000E-01     -1.136992000000000E+02
4830000000.000000      6.171875000000000E-01      1.261084000000000E+01      4.998779000000000E-01     -1.145391000000000E+02
4831000000.000000      6.130371000000000E-01      1.259277000000000E+01      5.009766000000000E-01     -1.154180000000000E+02
4832000000.000000      6.135254000000000E-01      1.291260000000000E+01      4.999847000000000E-01     -1.159883000000000E+02
4833000000.000000      6.131287000000000E-01      1.293896000000000E+01      4.991455000000000E-01     -1.165625000000000E+02
4834000000.000000      6.122742000000000E-01      1.306250000000000E+01      4.995117000000000E-01     -1.176133000000000E+02
4835000000.000000      6.142578000000000E-01      1.321240000000000E+01      4.993896000000000E-01     -1.182109000000000E+02
4836000000.000000      6.138611000000000E-01      1.351416000000000E+01      4.981537000000000E-01     -1.190937000000000E+02
4837000000.000000      6.119690000000000E-01      1.348535000000000E+01      4.988403000000000E-01     -1.200195000000000E+02
4838000000.000000      6.136780000000000E-01      1.344141000000000E+01      4.992676000000000E-01     -1.205937000000000E+02
4839000000.000000      6.153564000000000E-01      1.375879000000000E+01      4.986267000000000E-01     -1.214180000000000E+02
4840000000.000000      6.140442000000000E-01      1.370508000000000E+01      4.980621000000000E-01     -1.222187000000000E+02
4841000000.000000      6.154175000000000E-01      1.388232000000000E+01      4.982452000000000E-01     -1.230039000000000E+02
4842000000.000000      6.155090000000000E-01      1.408545000000000E+01      4.963989000000000E-01     -1.238047000000000E+02
4843000000.000000      6.181335000000000E-01      1.388770000000000E+01      4.984131000000000E-01     -1.246562000000000E+02
4844000000.000000      6.175232000000000E-01      1.406494000000000E+01      4.954071000000000E-01     -1.255586000000000E+02
4845000000.000000      6.175842000000000E-01      1.418311000000000E+01      4.949036000000000E-01     -1.263437000000000E+02
4846000000.000000      6.182556000000000E-01      1.434814000000000E+01      4.944611000000000E-01     -1.271641000000000E+02
4847000000.000000      6.190186000000000E-01      1.461865000000000E+01      4.922485000000000E-01     -1.278203000000000E+02
4848000000.000000      6.210938000000000E-01      1.458398000000000E+01      4.885406000000000E-01     -1.288359000000000E+02
4849000000.000000      6.212158000000000E-01      1.451660000000000E+01      4.909668000000000E-01     -1.295391000000000E+02
4850000000.000000      6.228027000000000E-01      1.458008000000000E+01      4.877472000000000E-01     -1.305859000000000E+02
4851000000.000000      6.238403000000000E-01      1.484619000000000E+01      4.873047000000000E-01     -1.314141000000000E+02
4852000000.000000      6.235046000000000E-01      1.476660000000000E+01      4.854126000000000E-01     -1.321250000000000E+02
4853000000.000000      6.248474000000000E-01      1.486133000000000E+01      4.815979000000000E-01     -1.329062000000000E+02
4854000000.000000      6.253357000000000E-01      1.496191000000000E+01      4.791107000000000E-01     -1.339609000000000E+02
4855000000.000000      6.273499000000000E-01      1.488770000000000E+01      4.783173000000000E-01     -1.347422000000000E+02
4856000000.000000      6.257019000000000E-01      1.489307000000000E+01      4.768372000000000E-01     -1.356641000000000E+02
4857000000.000000      6.283875000000000E-01      1.499902000000000E+01      4.747009000000000E-01     -1.363437000000000E+02
4858000000.000000      6.285706000000000E-01      1.489844000000000E+01      4.723053000000000E-01     -1.373437000000000E+02
4859000000.000000      6.306763000000000E-01      1.488232000000000E+01      4.688568000000000E-01     -1.382500000000000E+02
4860000000.000000      6.319885000000000E-01      1.520215000000000E+01      4.648285000000000E-01     -1.392344000000000E+02
4861000000.000000      6.333313000000000E-01      1.517871000000000E+01      4.615631000000000E-01     -1.398828000000000E+02
4862000000.000000      6.324158000000000E-01      1.505225000000000E+01      4.599762000000000E-01     -1.405313000000000E+02
4863000000.000000      6.340332000000000E-01      1.517480000000000E+01      4.556885000000000E-01     -1.415234000000000E+02
4864000000.000000      6.362000000000000E-01      1.518848000000000E+01      4.519958000000000E-01     -1.423750000000000E+02
4865000000.000000      6.348877000000000E-01      1.505811000000000E+01      4.479675000000000E-01     -1.431562000000000E+02
4866000000.000000      6.388550000000000E-01      1.486572000000000E+01      4.440155000000000E-01     -1.439609000000000E+02
4867000000.000000      6.391907000000000E-01      1.510059000000000E+01      4.416046000000000E-01     -1.447266000000000E+02
4868000000.000000      6.417236000000000E-01      1.499219000000000E+01      4.376373000000000E-01     -1.457734000000000E+02
4869000000.000000      6.426086000000000E-01      1.517871000000000E+01      4.332886000000000E-01     -1.463203000000000E+02
4870000000.000000      6.425171000000000E-01      1.508789000000000E+01      4.303589000000000E-01     -1.470000000000000E+02
4871000000.000000      6.455383000000000E-01      1.497266000000000E+01      4.246216000000000E-01     -1.478828000000000E+02
4872000000.000000      6.469116000000000E-01      1.498926000000000E+01      4.211731000000000E-01     -1.484531000000000E+02
4873000000.000000      6.484985000000000E-01      1.504004000000000E+01      4.165039000000000E-01     -1.494141000000000E+02
4874000000.000000      6.493530000000000E-01      1.512646000000000E+01      4.117279000000000E-01     -1.500078000000000E+02
4875000000.000000      6.506958000000000E-01      1.495605000000000E+01      4.072418000000000E-01     -1.505469000000000E+02
4876000000.000000      6.505127000000000E-01      1.483838000000000E+01      4.046173000000000E-01     -1.513203000000000E+02
4877000000.000000      6.528015000000000E-01      1.477100000000000E+01      4.006500000000000E-01     -1.520703000000000E+02
4878000000.000000      6.512756000000000E-01      1.479297000000000E+01      3.949890000000000E-01     -1.525469000000000E+02
4879000000.000000      6.553345000000000E-01      1.470654000000000E+01      3.884430000000000E-01     -1.531016000000000E+02
4880000000.000000      6.567993000000000E-01      1.475293000000000E+01      3.865356000000000E-01     -1.538047000000000E+02
4881000000.000000      6.593933000000000E-01      1.463623000000000E+01      3.819427000000000E-01     -1.542656000000000E+02
4882000000.000000      6.589966000000000E-01      1.461865000000000E+01      3.780518000000000E-01     -1.550313000000000E+02
4883000000.000000      6.610413000000000E-01      1.446191000000000E+01      3.714752000000000E-01     -1.553750000000000E+02
4884000000.000000      6.627502000000000E-01      1.447021000000000E+01      3.679657000000000E-01     -1.561172000000000E+02
4885000000.000000      6.623230000000000E-01      1.429590000000000E+01      3.635864000000000E-01     -1.564062000000000E+02
4886000000.000000      6.652832000000000E-01      1.433545000000000E+01      3.606415000000000E-01     -1.569609000000000E+02
4887000000.000000      6.648254000000000E-01      1.419531000000000E+01      3.573608000000000E-01     -1.574687000000000E+02
4888000000.000000      6.662903000000000E-01      1.412939000000000E+01      3.519440000000000E-01     -1.581328000000000E+02
4889000000.000000      6.649475000000000E-01      1.418848000000000E+01      3.461609000000000E-01     -1.583203000000000E+02
4890000000.000000      6.647034000000000E-01      1.388379000000000E+01      3.416901000000000E-01     -1.592187000000000E+02
4891000000.000000      6.683350000000000E-01      1.393164000000000E+01      3.382416000000000E-01     -1.596562000000000E+02
4892000000.000000      6.700134000000000E-01      1.384277000000000E+01      3.347473000000000E-01     -1.598047000000000E+02
4893000000.000000      6.712341000000000E-01      1.381641000000000E+01      3.309021000000000E-01     -1.606016000000000E+02
4894000000.000000      6.711731000000000E-01      1.360205000000000E+01      3.258362000000000E-01     -1.606094000000000E+02
4895000000.000000      6.733093000000000E-01      1.362549000000000E+01      3.242188000000000E-01     -1.611484000000000E+02
4896000000.000000      6.734009000000000E-01      1.339209000000000E+01      3.186646000000000E-01     -1.614297000000000E+02
4897000000.000000      6.762085000000000E-01      1.339893000000000E+01      3.148041000000000E-01     -1.618438000000000E+02
4898000000.000000      6.763306000000000E-01      1.314063000000000E+01      3.118591000000000E-01     -1.621172000000000E+02
4899000000.000000      6.767883000000000E-01      1.330713000000000E+01      3.079376000000000E-01     -1.625937000000000E+02
4900000000.000000      6.787720000000000E-01      1.321777000000000E+01      3.043213000000000E-01     -1.630156000000000E+02
4901000000.000000      6.783142000000000E-01      1.291992000000000E+01      2.998352000000000E-01     -1.630859000000000E+02
4902000000.000000      6.806946000000000E-01      1.279883000000000E+01      2.972565000000000E-01     -1.634766000000000E+02
4903000000.000000      6.815186000000000E-01      1.289355000000000E+01      2.923889000000000E-01     -1.638672000000000E+02
4904000000.000000      6.801758000000000E-01      1.277002000000000E+01      2.894135000000000E-01     -1.643203000000000E+02
4905000000.000000      6.827393000000000E-01      1.259277000000000E+01      2.865601000000000E-01     -1.647578000000000E+02
4906000000.000000      6.803589000000000E-01      1.233057000000000E+01      2.820129000000000E-01     -1.647109000000000E+02
4907000000.000000      6.831665000000000E-01      1.234131000000000E+01      2.793427000000000E-01     -1.652812000000000E+02
4908000000.000000      6.848145000000000E-01      1.216699000000000E+01      2.757568000000000E-01     -1.656328000000000E+02
4909000000.000000      6.837158000000000E-01      1.217969000000000E+01      2.718353000000000E-01     -1.657969000000000E+02
4910000000.000000      6.853027000000000E-01      1.209180000000000E+01      2.686615000000000E-01     -1.661250000000000E+02
4911000000.000000      6.863708000000000E-01      1.207910000000000E+01      2.655945000000000E-01     -1.665078000000000E+02
4912000000.000000      6.863403000000000E-01      1.204639000000000E+01      2.616119000000000E-01     -1.668750000000000E+02
4913000000.000000      6.854248000000000E-01      1.175244000000000E+01      2.579193000000000E-01     -1.671641000000000E+02
4914000000.000000      6.861572000000000E-01      1.162061000000000E+01      2.547760000000000E-01     -1.673516000000000E+02
4915000000.000000      6.864319000000000E-01      1.164404000000000E+01      2.509460000000000E-01     -1.679062000000000E+02
4916000000.000000      6.901550000000000E-01      1.141992000000000E+01      2.473145000000000E-01     -1.681484000000000E+02
4917000000.000000      6.902161000000000E-01      1.133350000000000E+01      2.442703000000000E-01     -1.684609000000000E+02
4918000000.000000      6.896057000000000E-01      1.130469000000000E+01      2.394867000000000E-01     -1.686875000000000E+02
4919000000.000000      6.903076000000000E-01      1.120020000000000E+01      2.362366000000000E-01     -1.686641000000000E+02
4920000000.000000      6.901245000000000E-01      1.106299000000000E+01      2.328186000000000E-01     -1.692734000000000E+02
4921000000.000000      6.899109000000000E-01      1.099561000000000E+01      2.299423000000000E-01     -1.693672000000000E+02
4922000000.000000      6.922302000000000E-01      1.096826000000000E+01      2.255249000000000E-01     -1.695078000000000E+02
4923000000.000000      6.930542000000000E-01      1.087207000000000E+01      2.216110000000000E-01     -1.697344000000000E+02
4924000000.000000      6.944885000000000E-01      1.087744000000000E+01      2.176361000000000E-01     -1.701484000000000E+02
4925000000.000000      6.917725000000000E-01      1.057129000000000E+01      2.143173000000000E-01     -1.702109000000000E+02
4926000000.000000      6.923828000000000E-01      1.059326000000000E+01      2.105713000000000E-01     -1.703516000000000E+02
4927000000.000000      6.916809000000000E-01      1.053955000000000E+01      2.068405000000000E-01     -1.704922000000000E+02
4928000000.000000      6.960449000000000E-01      1.017871000000000E+01      2.033615000000000E-01     -1.704844000000000E+02
4929000000.000000      6.956787000000000E-01      1.028564000000000E+01      1.989594000000000E-01     -1.706719000000000E+02
4930000000.000000      6.941223000000000E-01      1.037646000000000E+01      1.956100000000000E-01     -1.709609000000000E+02
4931000000.000000      6.952820000000000E-01      9.931641000000000E+00      1.921463000000000E-01     -1.708984000000000E+02
4932000000.000000      6.943665000000000E-01      1.000000000000000E+01      1.881409000000000E-01     -1.708906000000000E+02
4933000000.000000      6.976624000000000E-01      9.714355000000000E+00      1.834869000000000E-01     -1.706250000000000E+02
4934000000.000000      6.972961000000000E-01      9.868164000000000E+00      1.807861000000000E-01     -1.708203000000000E+02
4935000000.000000      6.973572000000000E-01      9.607422000000000E+00      1.770477000000000E-01     -1.706640000000000E+02
4936000000.000000      6.959534000000000E-01      9.611328000000000E+00      1.727142000000000E-01     -1.704219000000000E+02
4937000000.000000      6.999512000000000E-01      9.235352000000000E+00      1.689682000000000E-01     -1.704453000000000E+02
4938000000.000000      6.985474000000000E-01      9.406738000000000E+00      1.654205000000000E-01     -1.701250000000000E+02
4939000000.000000      6.985168000000000E-01      9.232422000000000E+00      1.612854000000000E-01     -1.697422000000000E+02
4940000000.000000      6.998291000000000E-01      9.252930000000000E+00      1.578217000000000E-01     -1.697187000000000E+02
4941000000.000000      7.014160000000000E-01      8.971680000000000E+00      1.542587000000000E-01     -1.690938000000000E+02
4942000000.000000      6.990662000000000E-01      9.270996000000000E+00      1.502075000000000E-01     -1.686563000000000E+02
4943000000.000000      7.007446000000000E-01      8.942871000000000E+00      1.471252000000000E-01     -1.682266000000000E+02
4944000000.000000      7.022095000000000E-01      8.746094000000000E+00      1.433411000000000E-01     -1.676328000000000E+02
4945000000.000000      7.011108000000000E-01      8.645996000000000E+00      1.401672000000000E-01     -1.669531000000000E+02
4946000000.000000      7.043762000000000E-01      8.614258000000000E+00      1.374283000000000E-01     -1.662891000000000E+02
4947000000.000000      7.050781000000000E-01      8.429199000000000E+00      1.335220000000000E-01     -1.656875000000000E+02
4948000000.000000      7.037659000000000E-01      8.451172000000000E+00      1.310272000000000E-01     -1.646797000000000E+02
4949000000.000000      7.035522000000000E-01      8.297363000000000E+00      1.277618000000000E-01     -1.634609000000000E+02
4950000000.000000      7.050476000000000E-01      8.389160000000000E+00      1.251297000000000E-01     -1.625469000000000E+02
4951000000.000000      7.060242000000000E-01      8.159668000000000E+00      1.223755000000000E-01     -1.615000000000000E+02
4952000000.000000      7.060547000000000E-01      7.864746000000000E+00      1.196938000000000E-01     -1.602109000000000E+02
4953000000.000000      7.061462000000000E-01      7.866211000000000E+00      1.171036000000000E-01     -1.590937000000000E+02
4954000000.000000      7.055054000000000E-01      7.730225000000000E+00      1.148109000000000E-01     -1.573359000000000E+02
