! Network Analyzer HP8722D
! Hewlett-Packard
! Data name: Linha & Wilkinson
! Saver's name: Rodrigo Anjos
! Comments: Teste da utilização de aquisição
continua pelo VNA HP8722D
! Time and date: 22/5/2025 16:29
!              Frequency                     S11                                                   S21                                                   S12                                                   S22
# HZ  S  MA R 50
4800000000.000000      6.532593000000000E-01      1.098877000000000E+01      4.696960000000000E-01     -9.166407000000000E+01
4801000000.000000      6.504822000000000E-01      1.105078000000000E+01      4.709625000000000E-01     -9.241796000000000E+01
4802000000.000000      6.489258000000000E-01      1.097803000000000E+01      4.737091000000000E-01     -9.304688000000000E+01
4803000000.000000      6.473694000000000E-01      1.101367000000000E+01      4.763641000000000E-01     -9.382030000000000E+01
4804000000.000000      6.447144000000000E-01      1.098486000000000E+01      4.775238000000000E-01     -9.475389000000000E+01
4805000000.000000      6.467285000000000E-01      1.085449000000000E+01      4.789581000000000E-01     -9.552343000000000E+01
4806000000.000000      6.442566000000000E-01      1.082959000000000E+01      4.801025000000000E-01     -9.607422000000000E+01
4807000000.000000      6.402588000000000E-01      1.087646000000000E+01      4.822693000000000E-01     -9.716797000000000E+01
4808000000.000000      6.380310000000000E-01      1.089258000000000E+01      4.858093000000000E-01     -9.743359000000000E+01
4809000000.000000      6.371765000000000E-01      1.106445000000000E+01      4.847870000000000E-01     -9.844530000000000E+01
4810000000.000000      6.361084000000000E-01      1.108789000000000E+01      4.869537000000000E-01     -9.933203000000000E+01
4811000000.000000      6.354675000000000E-01      1.099023000000000E+01      4.885406000000000E-01     -1.001680000000000E+02
4812000000.000000      6.350403000000000E-01      1.130078000000000E+01      4.901428000000000E-01     -1.007383000000000E+02
4813000000.000000      6.324463000000000E-01      1.114795000000000E+01      4.917755000000000E-01     -1.015625000000000E+02
4814000000.000000      6.297913000000000E-01      1.112354000000000E+01      4.927368000000000E-01     -1.021289000000000E+02
4815000000.000000      6.286926000000000E-01      1.125098000000000E+01      4.929199000000000E-01     -1.031289000000000E+02
4816000000.000000      6.288147000000000E-01      1.153271000000000E+01      4.949951000000000E-01     -1.036523000000000E+02
4817000000.000000      6.263428000000000E-01      1.144873000000000E+01      4.938812000000000E-01     -1.045000000000000E+02
4818000000.000000      6.248169000000000E-01      1.146533000000000E+01      4.951019000000000E-01     -1.052031000000000E+02
4819000000.000000      6.232910000000000E-01      1.147656000000000E+01      4.972076000000000E-01     -1.061719000000000E+02
4820000000.000000      6.220703000000000E-01      1.172363000000000E+01      4.969330000000000E-01     -1.066367000000000E+02
4821000000.000000      6.216736000000000E-01      1.165625000000000E+01      4.961090000000000E-01     -1.075742000000000E+02
4822000000.000000      6.196289000000000E-01      1.171240000000000E+01      4.966278000000000E-01     -1.081523000000000E+02
4823000000.000000      6.199646000000000E-01      1.171143000000000E+01      4.976654000000000E-01     -1.090898000000000E+02
4824000000.000000      6.180420000000000E-01      1.202295000000000E+01      4.991150000000000E-01     -1.098359000000000E+02
4825000000.000000      6.174011000000000E-01      1.211768000000000E+01      4.977112000000000E-01     -1.104219000000000E+02
4826000000.000000      6.170349000000000E-01      1.203369000000000E+01      4.995880000000000E-01     -1.114101000000000E+02
4827000000.000000      6.166992000000000E-01      1.213672000000000E+01      4.990540000000000E-01     -1.119414000000000E+02
4828000000.000000      6.169739000000000E-01      1.255713000000000E+01      4.996338000000000E-01     -1.127070000000000E+02
4829000000.000000      6.161804000000000E-01      1.260400000000000E+01      4.999390000000000E-01     -1.136523000000000E+02
4830000000.000000      6.158142000000000E-01      1.258740000000000E+01      4.991150000000000E-01     -1.143125000000000E+02
4831000000.000000      6.135559000000000E-01      1.267822000000000E+01      5.007935000000000E-01     -1.150898000000000E+02
4832000000.000000      6.135864000000000E-01      1.282373000000000E+01      4.992218000000000E-01     -1.156250000000000E+02
4833000000.000000      6.122437000000000E-01      1.299805000000000E+01      4.991608000000000E-01     -1.163945000000000E+02
4834000000.000000      6.114807000000000E-01      1.307910000000000E+01      4.993286000000000E-01     -1.172539000000000E+02
4835000000.000000      6.131592000000000E-01      1.318457000000000E+01      5.002441000000000E-01     -1.179102000000000E+02
4836000000.000000      6.140137000000000E-01      1.344824000000000E+01      4.982452000000000E-01     -1.187305000000000E+02
4837000000.000000      6.131897000000000E-01      1.343750000000000E+01      4.991608000000000E-01     -1.197461000000000E+02
4838000000.000000      6.132507000000000E-01      1.356641000000000E+01      4.983826000000000E-01     -1.203398000000000E+02
4839000000.000000      6.179504000000000E-01      1.370508000000000E+01      4.989777000000000E-01     -1.212461000000000E+02
4840000000.000000      6.146545000000000E-01      1.363379000000000E+01      4.981995000000000E-01     -1.219648000000000E+02
4841000000.000000      6.144104000000000E-01      1.390869000000000E+01      4.985046000000000E-01     -1.227539000000000E+02
4842000000.000000      6.145020000000000E-01      1.390430000000000E+01      4.970245000000000E-01     -1.235352000000000E+02
4843000000.000000      6.185303000000000E-01      1.392334000000000E+01      4.975281000000000E-01     -1.245195000000000E+02
4844000000.000000      6.163635000000000E-01      1.399902000000000E+01      4.955292000000000E-01     -1.252070000000000E+02
4845000000.000000      6.186218000000000E-01      1.418848000000000E+01      4.952240000000000E-01     -1.259844000000000E+02
4846000000.000000      6.199036000000000E-01      1.422021000000000E+01      4.937286000000000E-01     -1.268828000000000E+02
4847000000.000000      6.199036000000000E-01      1.440820000000000E+01      4.931946000000000E-01     -1.276601000000000E+02
4848000000.000000      6.189880000000000E-01      1.453857000000000E+01      4.912872000000000E-01     -1.286094000000000E+02
4849000000.000000      6.201477000000000E-01      1.442480000000000E+01      4.898376000000000E-01     -1.293437000000000E+02
4850000000.000000      6.209412000000000E-01      1.463379000000000E+01      4.893494000000000E-01     -1.301953000000000E+02
4851000000.000000      6.223145000000000E-01      1.479541000000000E+01      4.883728000000000E-01     -1.312656000000000E+02
4852000000.000000      6.202698000000000E-01      1.479004000000000E+01      4.859009000000000E-01     -1.319219000000000E+02
4853000000.000000      6.243591000000000E-01      1.460352000000000E+01      4.836121000000000E-01     -1.328047000000000E+02
4854000000.000000      6.243896000000000E-01      1.481494000000000E+01      4.807587000000000E-01     -1.337812000000000E+02
4855000000.000000      6.249084000000000E-01      1.495068000000000E+01      4.780426000000000E-01     -1.346250000000000E+02
4856000000.000000      6.282349000000000E-01      1.491797000000000E+01      4.764709000000000E-01     -1.354687000000000E+02
4857000000.000000      6.292114000000000E-01      1.505225000000000E+01      4.752350000000000E-01     -1.361641000000000E+02
4858000000.000000      6.285095000000000E-01      1.497803000000000E+01      4.718475000000000E-01     -1.371250000000000E+02
4859000000.000000      6.310120000000000E-01      1.496875000000000E+01      4.697113000000000E-01     -1.380156000000000E+02
4860000000.000000      6.307068000000000E-01      1.510449000000000E+01      4.670410000000000E-01     -1.388281000000000E+02
4861000000.000000      6.328430000000000E-01      1.523926000000000E+01      4.628601000000000E-01     -1.397109000000000E+02
4862000000.000000      6.323853000000000E-01      1.502344000000000E+01      4.598083000000000E-01     -1.405703000000000E+02
4863000000.000000      6.345825000000000E-01      1.533398000000000E+01      4.557648000000000E-01     -1.412578000000000E+02
4864000000.000000      6.371155000000000E-01      1.503613000000000E+01      4.534454000000000E-01     -1.421172000000000E+02
4865000000.000000      6.359863000000000E-01      1.508545000000000E+01      4.493256000000000E-01     -1.428828000000000E+02
4866000000.000000      6.385193000000000E-01      1.508691000000000E+01      4.459381000000000E-01     -1.436484000000000E+02
4867000000.000000      6.392212000000000E-01      1.501270000000000E+01      4.415588000000000E-01     -1.447187000000000E+02
4868000000.000000      6.410217000000000E-01      1.504004000000000E+01      4.386597000000000E-01     -1.454531000000000E+02
4869000000.000000      6.427307000000000E-01      1.506348000000000E+01      4.343414000000000E-01     -1.461797000000000E+02
4870000000.000000      6.446838000000000E-01      1.510596000000000E+01      4.316711000000000E-01     -1.468516000000000E+02
4871000000.000000      6.426697000000000E-01      1.495605000000000E+01      4.262238000000000E-01     -1.477969000000000E+02
4872000000.000000      6.468506000000000E-01      1.505811000000000E+01      4.223328000000000E-01     -1.482500000000000E+02
4873000000.000000      6.462402000000000E-01      1.505664000000000E+01      4.193115000000000E-01     -1.492031000000000E+02
4874000000.000000      6.475220000000000E-01      1.511719000000000E+01      4.143677000000000E-01     -1.498906000000000E+02
4875000000.000000      6.494141000000000E-01      1.477490000000000E+01      4.085388000000000E-01     -1.503047000000000E+02
4876000000.000000      6.500244000000000E-01      1.493994000000000E+01      4.058380000000000E-01     -1.511641000000000E+02
4877000000.000000      6.524353000000000E-01      1.464063000000000E+01      4.001465000000000E-01     -1.518594000000000E+02
4878000000.000000      6.548767000000000E-01      1.478320000000000E+01      3.955383000000000E-01     -1.524688000000000E+02
4879000000.000000      6.546326000000000E-01      1.487793000000000E+01      3.915100000000000E-01     -1.528672000000000E+02
4880000000.000000      6.577454000000000E-01      1.476416000000000E+01      3.856049000000000E-01     -1.536641000000000E+02
4881000000.000000      6.567078000000000E-01      1.469971000000000E+01      3.834839000000000E-01     -1.541016000000000E+02
4882000000.000000      6.589355000000000E-01      1.455518000000000E+01      3.787994000000000E-01     -1.549297000000000E+02
4883000000.000000      6.582642000000000E-01      1.437109000000000E+01      3.747711000000000E-01     -1.554766000000000E+02
4884000000.000000      6.607971000000000E-01      1.458154000000000E+01      3.705597000000000E-01     -1.557031000000000E+02
4885000000.000000      6.625671000000000E-01      1.446875000000000E+01      3.649445000000000E-01     -1.561875000000000E+02
4886000000.000000      6.621094000000000E-01      1.432324000000000E+01      3.609161000000000E-01     -1.567891000000000E+02
4887000000.000000      6.652832000000000E-01      1.421045000000000E+01      3.579102000000000E-01     -1.573984000000000E+02
4888000000.000000      6.660461000000000E-01      1.407031000000000E+01      3.529205000000000E-01     -1.580391000000000E+02
4889000000.000000      6.661377000000000E-01      1.410645000000000E+01      3.477936000000000E-01     -1.583203000000000E+02
4890000000.000000      6.665344000000000E-01      1.390039000000000E+01      3.444672000000000E-01     -1.589844000000000E+02
4891000000.000000      6.684265000000000E-01      1.393750000000000E+01      3.389435000000000E-01     -1.593828000000000E+02
4892000000.000000      6.687012000000000E-01      1.379980000000000E+01      3.358002000000000E-01     -1.595547000000000E+02
4893000000.000000      6.715088000000000E-01      1.380566000000000E+01      3.318939000000000E-01     -1.602969000000000E+02
4894000000.000000      6.712952000000000E-01      1.365186000000000E+01      3.279266000000000E-01     -1.607500000000000E+02
4895000000.000000      6.738586000000000E-01      1.361719000000000E+01      3.241272000000000E-01     -1.612187000000000E+02
4896000000.000000      6.746216000000000E-01      1.343604000000000E+01      3.183594000000000E-01     -1.613828000000000E+02
4897000000.000000      6.740112000000000E-01      1.340332000000000E+01      3.161469000000000E-01     -1.617812000000000E+02
4898000000.000000      6.758728000000000E-01      1.338672000000000E+01      3.125000000000000E-01     -1.621094000000000E+02
4899000000.000000      6.765137000000000E-01      1.327148000000000E+01      3.090515000000000E-01     -1.625313000000000E+02
4900000000.000000      6.777649000000000E-01      1.303076000000000E+01      3.045959000000000E-01     -1.628281000000000E+02
4901000000.000000      6.768188000000000E-01      1.302832000000000E+01      3.016968000000000E-01     -1.631406000000000E+02
4902000000.000000      6.788635000000000E-01      1.296777000000000E+01      2.985229000000000E-01     -1.633437000000000E+02
4903000000.000000      6.791992000000000E-01      1.287158000000000E+01      2.939911000000000E-01     -1.638281000000000E+02
4904000000.000000      6.802063000000000E-01      1.278809000000000E+01      2.907410000000000E-01     -1.641484000000000E+02
4905000000.000000      6.818237000000000E-01      1.252148000000000E+01      2.872009000000000E-01     -1.646250000000000E+02
4906000000.000000      6.807251000000000E-01      1.251465000000000E+01      2.837830000000000E-01     -1.646484000000000E+02
4907000000.000000      6.826782000000000E-01      1.275879000000000E+01      2.805786000000000E-01     -1.651328000000000E+02
4908000000.000000      6.834412000000000E-01      1.234424000000000E+01      2.770691000000000E-01     -1.655000000000000E+02
4909000000.000000      6.818237000000000E-01      1.220557000000000E+01      2.732849000000000E-01     -1.658047000000000E+02
4910000000.000000      6.827087000000000E-01      1.210107000000000E+01      2.695007000000000E-01     -1.661484000000000E+02
4911000000.000000      6.864624000000000E-01      1.207520000000000E+01      2.666321000000000E-01     -1.662812000000000E+02
4912000000.000000      6.847534000000000E-01      1.205566000000000E+01      2.624512000000000E-01     -1.669765000000000E+02
4913000000.000000      6.862183000000000E-01      1.194189000000000E+01      2.589569000000000E-01     -1.670781000000000E+02
4914000000.000000      6.884155000000000E-01      1.193652000000000E+01      2.557983000000000E-01     -1.673828000000000E+02
4915000000.000000      6.874695000000000E-01      1.159424000000000E+01      2.518005000000000E-01     -1.677813000000000E+02
4916000000.000000      6.878052000000000E-01      1.155615000000000E+01      2.486115000000000E-01     -1.680156000000000E+02
4917000000.000000      6.893921000000000E-01      1.140625000000000E+01      2.454147000000000E-01     -1.683984000000000E+02
4918000000.000000      6.890564000000000E-01      1.136084000000000E+01      2.409286000000000E-01     -1.686719000000000E+02
4919000000.000000      6.887207000000000E-01      1.119336000000000E+01      2.383575000000000E-01     -1.686563000000000E+02
4920000000.000000      6.897888000000000E-01      1.114111000000000E+01      2.335052000000000E-01     -1.691484000000000E+02
4921000000.000000      6.918030000000000E-01      1.107813000000000E+01      2.303772000000000E-01     -1.693906000000000E+02
4922000000.000000      6.930542000000000E-01      1.093408000000000E+01      2.265244000000000E-01     -1.695000000000000E+02
4923000000.000000      6.913147000000000E-01      1.093652000000000E+01      2.223053000000000E-01     -1.696797000000000E+02
4924000000.000000      6.923218000000000E-01      1.078418000000000E+01      2.189102000000000E-01     -1.703594000000000E+02
4925000000.000000      6.938477000000000E-01      1.058105000000000E+01      2.157516000000000E-01     -1.701328000000000E+02
4926000000.000000      6.934509000000000E-01      1.055371000000000E+01      2.119293000000000E-01     -1.703828000000000E+02
4927000000.000000      6.926880000000000E-01      1.038721000000000E+01      2.076035000000000E-01     -1.706563000000000E+02
4928000000.000000      6.969604000000000E-01      1.031445000000000E+01      2.047577000000000E-01     -1.706719000000000E+02
4929000000.000000      6.959534000000000E-01      1.025684000000000E+01      2.000122000000000E-01     -1.707187000000000E+02
4930000000.000000      6.946411000000000E-01      1.016602000000000E+01      1.963043000000000E-01     -1.708437000000000E+02
4931000000.000000      6.953125000000000E-01      9.938477000000000E+00      1.934128000000000E-01     -1.707578000000000E+02
4932000000.000000      6.965942000000000E-01      1.002051000000000E+01      1.889496000000000E-01     -1.709375000000000E+02
4933000000.000000      6.965332000000000E-01      9.844727000000000E+00      1.842270000000000E-01     -1.708047000000000E+02
4934000000.000000      6.999512000000000E-01      9.728027000000000E+00      1.812210000000000E-01     -1.710156000000000E+02
4935000000.000000      6.985168000000000E-01      9.663574000000000E+00      1.777649000000000E-01     -1.705781000000000E+02
4936000000.000000      6.977539000000000E-01      9.587891000000000E+00      1.737366000000000E-01     -1.706640000000000E+02
4937000000.000000      6.995850000000000E-01      9.582520000000000E+00      1.698151000000000E-01     -1.705469000000000E+02
4938000000.000000      6.996460000000000E-01      9.519531000000000E+00      1.658707000000000E-01     -1.701719000000000E+02
4939000000.000000      7.008362000000000E-01      9.442383000000000E+00      1.620865000000000E-01     -1.698437000000000E+02
4940000000.000000      7.008057000000000E-01      9.154297000000000E+00      1.586533000000000E-01     -1.697344000000000E+02
4941000000.000000      7.006836000000000E-01      9.073242000000000E+00      1.550369000000000E-01     -1.691797000000000E+02
4942000000.000000      6.991882000000000E-01      8.968750000000000E+00      1.518097000000000E-01     -1.689062000000000E+02
4943000000.000000      7.008972000000000E-01      8.943848000000000E+00      1.483917000000000E-01     -1.681484000000000E+02
4944000000.000000      7.011414000000000E-01      8.883789000000000E+00      1.441116000000000E-01     -1.679062000000000E+02
4945000000.000000      7.025146000000000E-01      8.629395000000000E+00      1.407852000000000E-01     -1.672422000000000E+02
4946000000.000000      7.051697000000000E-01      8.673340000000000E+00      1.377945000000000E-01     -1.665781000000000E+02
4947000000.000000      7.030640000000000E-01      8.566406000000000E+00      1.342468000000000E-01     -1.657969000000000E+02
4948000000.000000      7.055664000000000E-01      8.415527000000000E+00      1.317749000000000E-01     -1.648359000000000E+02
4949000000.000000      7.039795000000000E-01      8.333008000000000E+00      1.282730000000000E-01     -1.636953000000000E+02
4950000000.000000      7.069397000000000E-01      8.257324000000000E+00      1.255264000000000E-01     -1.627734000000000E+02
4951000000.000000      7.059021000000000E-01      8.152832000000000E+00      1.226654000000000E-01     -1.619609000000000E+02
4952000000.000000      7.053223000000000E-01      8.042969000000000E+00      1.195717000000000E-01     -1.607891000000000E+02
4953000000.000000      7.046509000000000E-01      7.824951000000000E+00      1.176262000000000E-01     -1.591640000000000E+02
4954000000.000000      7.068176000000000E-01      7.835938000000000E+00      1.149559000000000E-01     -1.578672000000000E+02
