! Network Analyzer HP8722D
! Hewlett-Packard
! Data name: Linha & Wilkinson
! Saver's name: Rodrigo Anjos
! Comments: Teste da utilização de aquisição
continua pelo VNA HP8722D
! Time and date: 22/5/2025 15:36
!              Frequency                     S11                                                   S21                                                   S12                                                   S22
# HZ  S  MA R 50
4800000000.000000      6.516113000000000E-01      1.093506000000000E+01      4.699707000000000E-01     -9.191015000000000E+01
4801000000.000000      6.507568000000000E-01      1.101514000000000E+01      4.714203000000000E-01     -9.267578000000000E+01
4802000000.000000      6.491089000000000E-01      1.092285000000000E+01      4.729614000000000E-01     -9.328905000000000E+01
4803000000.000000      6.476746000000000E-01      1.095020000000000E+01      4.765472000000000E-01     -9.398046000000000E+01
4804000000.000000      6.452026000000000E-01      1.084863000000000E+01      4.785919000000000E-01     -9.485155000000000E+01
4805000000.000000      6.464539000000000E-01      1.087500000000000E+01      4.806213000000000E-01     -9.560547000000000E+01
4806000000.000000      6.419983000000000E-01      1.092969000000000E+01      4.825287000000000E-01     -9.646873000000000E+01
4807000000.000000      6.407471000000000E-01      1.094922000000000E+01      4.831238000000000E-01     -9.741405000000000E+01
4808000000.000000      6.389160000000000E-01      1.086230000000000E+01      4.837952000000000E-01     -9.782812000000000E+01
4809000000.000000      6.373596000000000E-01      1.104102000000000E+01      4.866486000000000E-01     -9.873436000000000E+01
4810000000.000000      6.379700000000000E-01      1.110303000000000E+01      4.864349000000000E-01     -9.948437000000000E+01
4811000000.000000      6.343384000000000E-01      1.100928000000000E+01      4.898224000000000E-01     -1.001601000000000E+02
4812000000.000000      6.342773000000000E-01      1.131982000000000E+01      4.891968000000000E-01     -1.007500000000000E+02
4813000000.000000      6.326904000000000E-01      1.118799000000000E+01      4.907532000000000E-01     -1.017188000000000E+02
4814000000.000000      6.304321000000000E-01      1.103418000000000E+01      4.917145000000000E-01     -1.023164000000000E+02
4815000000.000000      6.289063000000000E-01      1.129395000000000E+01      4.924011000000000E-01     -1.032813000000000E+02
4816000000.000000      6.276550000000000E-01      1.131592000000000E+01      4.949036000000000E-01     -1.037852000000000E+02
4817000000.000000      6.261292000000000E-01      1.141309000000000E+01      4.932709000000000E-01     -1.047383000000000E+02
4818000000.000000      6.241760000000000E-01      1.145996000000000E+01      4.938812000000000E-01     -1.054609000000000E+02
4819000000.000000      6.248779000000000E-01      1.137891000000000E+01      4.960022000000000E-01     -1.061992000000000E+02
4820000000.000000      6.218262000000000E-01      1.183594000000000E+01      4.957275000000000E-01     -1.067148000000000E+02
4821000000.000000      6.227112000000000E-01      1.163721000000000E+01      4.975891000000000E-01     -1.078086000000000E+02
4822000000.000000      6.192932000000000E-01      1.172510000000000E+01      4.965210000000000E-01     -1.082461000000000E+02
4823000000.000000      6.200867000000000E-01      1.175537000000000E+01      4.975891000000000E-01     -1.090664000000000E+02
4824000000.000000      6.182251000000000E-01      1.197607000000000E+01      4.983673000000000E-01     -1.098438000000000E+02
4825000000.000000      6.179810000000000E-01      1.192822000000000E+01      4.991760000000000E-01     -1.106719000000000E+02
4826000000.000000      6.168213000000000E-01      1.194727000000000E+01      4.984894000000000E-01     -1.114531000000000E+02
4827000000.000000      6.157837000000000E-01      1.229199000000000E+01      4.980927000000000E-01     -1.120898000000000E+02
4828000000.000000      6.164246000000000E-01      1.248975000000000E+01      4.991760000000000E-01     -1.128555000000000E+02
4829000000.000000      6.159363000000000E-01      1.259717000000000E+01      5.007324000000000E-01     -1.135898000000000E+02
4830000000.000000      6.161499000000000E-01      1.250244000000000E+01      4.997559000000000E-01     -1.144297000000000E+02
4831000000.000000      6.141357000000000E-01      1.256104000000000E+01      5.017395000000000E-01     -1.153008000000000E+02
4832000000.000000      6.146545000000000E-01      1.287158000000000E+01      4.999084000000000E-01     -1.159492000000000E+02
4833000000.000000      6.128540000000000E-01      1.286182000000000E+01      4.995728000000000E-01     -1.166992000000000E+02
4834000000.000000      6.120911000000000E-01      1.300781000000000E+01      4.991608000000000E-01     -1.173828000000000E+02
4835000000.000000      6.134338000000000E-01      1.298682000000000E+01      5.011292000000000E-01     -1.182891000000000E+02
4836000000.000000      6.133728000000000E-01      1.354883000000000E+01      4.986115000000000E-01     -1.188984000000000E+02
4837000000.000000      6.131592000000000E-01      1.329443000000000E+01      4.990997000000000E-01     -1.199375000000000E+02
4838000000.000000      6.131287000000000E-01      1.365869000000000E+01      4.990692000000000E-01     -1.205625000000000E+02
4839000000.000000      6.157532000000000E-01      1.379590000000000E+01      4.989929000000000E-01     -1.213242000000000E+02
4840000000.000000      6.157532000000000E-01      1.355811000000000E+01      4.994507000000000E-01     -1.221680000000000E+02
4841000000.000000      6.155396000000000E-01      1.403320000000000E+01      4.981842000000000E-01     -1.230703000000000E+02
4842000000.000000      6.157837000000000E-01      1.393604000000000E+01      4.971161000000000E-01     -1.237305000000000E+02
4843000000.000000      6.176453000000000E-01      1.396875000000000E+01      4.972229000000000E-01     -1.246484000000000E+02
4844000000.000000      6.163330000000000E-01      1.405811000000000E+01      4.957581000000000E-01     -1.254805000000000E+02
4845000000.000000      6.182861000000000E-01      1.419531000000000E+01      4.939728000000000E-01     -1.261328000000000E+02
4846000000.000000      6.185913000000000E-01      1.425293000000000E+01      4.946136000000000E-01     -1.270508000000000E+02
4847000000.000000      6.195679000000000E-01      1.438623000000000E+01      4.933472000000000E-01     -1.279375000000000E+02
4848000000.000000      6.194458000000000E-01      1.428760000000000E+01      4.894562000000000E-01     -1.287188000000000E+02
4849000000.000000      6.206665000000000E-01      1.434668000000000E+01      4.907227000000000E-01     -1.295781000000000E+02
4850000000.000000      6.207581000000000E-01      1.450439000000000E+01      4.869843000000000E-01     -1.305000000000000E+02
4851000000.000000      6.227417000000000E-01      1.456787000000000E+01      4.869843000000000E-01     -1.312500000000000E+02
4852000000.000000      6.233215000000000E-01      1.468701000000000E+01      4.848785000000000E-01     -1.321250000000000E+02
4853000000.000000      6.246948000000000E-01      1.500439000000000E+01      4.813080000000000E-01     -1.331250000000000E+02
4854000000.000000      6.256409000000000E-01      1.489844000000000E+01      4.803467000000000E-01     -1.339141000000000E+02
4855000000.000000      6.263428000000000E-01      1.496436000000000E+01      4.783783000000000E-01     -1.347656000000000E+02
4856000000.000000      6.287842000000000E-01      1.491650000000000E+01      4.760895000000000E-01     -1.356094000000000E+02
4857000000.000000      6.291504000000000E-01      1.492480000000000E+01      4.743805000000000E-01     -1.365234000000000E+02
4858000000.000000      6.299438000000000E-01      1.503467000000000E+01      4.707642000000000E-01     -1.373281000000000E+02
4859000000.000000      6.315613000000000E-01      1.490674000000000E+01      4.686127000000000E-01     -1.382109000000000E+02
4860000000.000000      6.314087000000000E-01      1.497266000000000E+01      4.663849000000000E-01     -1.390938000000000E+02
4861000000.000000      6.315308000000000E-01      1.507568000000000E+01      4.631958000000000E-01     -1.398906000000000E+02
4862000000.000000      6.325073000000000E-01      1.521875000000000E+01      4.602814000000000E-01     -1.407891000000000E+02
4863000000.000000      6.365967000000000E-01      1.525977000000000E+01      4.551544000000000E-01     -1.416797000000000E+02
4864000000.000000      6.382446000000000E-01      1.507031000000000E+01      4.528503000000000E-01     -1.422031000000000E+02
4865000000.000000      6.369019000000000E-01      1.508789000000000E+01      4.490814000000000E-01     -1.432266000000000E+02
4866000000.000000      6.395874000000000E-01      1.501807000000000E+01      4.455566000000000E-01     -1.439297000000000E+02
4867000000.000000      6.387634000000000E-01      1.502930000000000E+01      4.418488000000000E-01     -1.449219000000000E+02
4868000000.000000      6.401367000000000E-01      1.508398000000000E+01      4.381561000000000E-01     -1.455859000000000E+02
4869000000.000000      6.424255000000000E-01      1.499463000000000E+01      4.337158000000000E-01     -1.462578000000000E+02
4870000000.000000      6.444092000000000E-01      1.502344000000000E+01      4.295197000000000E-01     -1.468828000000000E+02
4871000000.000000      6.445923000000000E-01      1.492627000000000E+01      4.257355000000000E-01     -1.478594000000000E+02
4872000000.000000      6.469421000000000E-01      1.479834000000000E+01      4.219513000000000E-01     -1.483828000000000E+02
4873000000.000000      6.474609000000000E-01      1.513623000000000E+01      4.164581000000000E-01     -1.493828000000000E+02
4874000000.000000      6.499939000000000E-01      1.508008000000000E+01      4.129181000000000E-01     -1.498906000000000E+02
4875000000.000000      6.508484000000000E-01      1.485059000000000E+01      4.067841000000000E-01     -1.507187000000000E+02
4876000000.000000      6.523132000000000E-01      1.497412000000000E+01      4.053955000000000E-01     -1.512578000000000E+02
4877000000.000000      6.535950000000000E-01      1.472168000000000E+01      4.014130000000000E-01     -1.519687000000000E+02
4878000000.000000      6.535950000000000E-01      1.455957000000000E+01      3.955841000000000E-01     -1.526172000000000E+02
4879000000.000000      6.560974000000000E-01      1.473389000000000E+01      3.897552000000000E-01     -1.531172000000000E+02
4880000000.000000      6.587219000000000E-01      1.461035000000000E+01      3.864899000000000E-01     -1.538750000000000E+02
4881000000.000000      6.592407000000000E-01      1.470215000000000E+01      3.825226000000000E-01     -1.542969000000000E+02
4882000000.000000      6.592102000000000E-01      1.456348000000000E+01      3.797607000000000E-01     -1.550625000000000E+02
4883000000.000000      6.593018000000000E-01      1.458545000000000E+01      3.727722000000000E-01     -1.557266000000000E+02
4884000000.000000      6.631775000000000E-01      1.447705000000000E+01      3.694458000000000E-01     -1.559531000000000E+02
4885000000.000000      6.632690000000000E-01      1.438916000000000E+01      3.643188000000000E-01     -1.563125000000000E+02
4886000000.000000      6.648560000000000E-01      1.438086000000000E+01      3.601990000000000E-01     -1.569531000000000E+02
4887000000.000000      6.651001000000000E-01      1.421484000000000E+01      3.557281000000000E-01     -1.573125000000000E+02
4888000000.000000      6.656799000000000E-01      1.411035000000000E+01      3.527679000000000E-01     -1.580469000000000E+02
4889000000.000000      6.675415000000000E-01      1.405420000000000E+01      3.468018000000000E-01     -1.584375000000000E+02
4890000000.000000      6.689758000000000E-01      1.388770000000000E+01      3.424225000000000E-01     -1.591250000000000E+02
4891000000.000000      6.704712000000000E-01      1.401025000000000E+01      3.379211000000000E-01     -1.593125000000000E+02
4892000000.000000      6.691895000000000E-01      1.378906000000000E+01      3.341370000000000E-01     -1.596250000000000E+02
4893000000.000000      6.726379000000000E-01      1.357324000000000E+01      3.293152000000000E-01     -1.602578000000000E+02
4894000000.000000      6.721191000000000E-01      1.365039000000000E+01      3.265533000000000E-01     -1.608828000000000E+02
4895000000.000000      6.756592000000000E-01      1.343896000000000E+01      3.227539000000000E-01     -1.609531000000000E+02
4896000000.000000      6.765747000000000E-01      1.339893000000000E+01      3.200378000000000E-01     -1.613125000000000E+02
4897000000.000000      6.738586000000000E-01      1.333740000000000E+01      3.148804000000000E-01     -1.617344000000000E+02
4898000000.000000      6.766663000000000E-01      1.331543000000000E+01      3.123627000000000E-01     -1.621641000000000E+02
4899000000.000000      6.777649000000000E-01      1.330713000000000E+01      3.081512000000000E-01     -1.624844000000000E+02
4900000000.000000      6.783142000000000E-01      1.294873000000000E+01      3.042145000000000E-01     -1.628750000000000E+02
4901000000.000000      6.808167000000000E-01      1.302686000000000E+01      3.006744000000000E-01     -1.631875000000000E+02
4902000000.000000      6.795654000000000E-01      1.293750000000000E+01      2.973022000000000E-01     -1.634297000000000E+02
4903000000.000000      6.798706000000000E-01      1.299512000000000E+01      2.923126000000000E-01     -1.639062000000000E+02
4904000000.000000      6.811218000000000E-01      1.261768000000000E+01      2.894440000000000E-01     -1.643516000000000E+02
4905000000.000000      6.827698000000000E-01      1.262842000000000E+01      2.858276000000000E-01     -1.646797000000000E+02
4906000000.000000      6.816711000000000E-01      1.251025000000000E+01      2.830353000000000E-01     -1.647422000000000E+02
4907000000.000000      6.840515000000000E-01      1.238281000000000E+01      2.801056000000000E-01     -1.652734000000000E+02
4908000000.000000      6.844177000000000E-01      1.237305000000000E+01      2.757111000000000E-01     -1.656797000000000E+02
4909000000.000000      6.851501000000000E-01      1.207764000000000E+01      2.722778000000000E-01     -1.659844000000000E+02
4910000000.000000      6.864014000000000E-01      1.204199000000000E+01      2.684174000000000E-01     -1.662266000000000E+02
4911000000.000000      6.855164000000000E-01      1.191455000000000E+01      2.652435000000000E-01     -1.665781000000000E+02
4912000000.000000      6.873779000000000E-01      1.198877000000000E+01      2.622070000000000E-01     -1.669141000000000E+02
4913000000.000000      6.870117000000000E-01      1.177734000000000E+01      2.583618000000000E-01     -1.670391000000000E+02
4914000000.000000      6.859436000000000E-01      1.171680000000000E+01      2.546539000000000E-01     -1.672812000000000E+02
4915000000.000000      6.869202000000000E-01      1.157129000000000E+01      2.513580000000000E-01     -1.678516000000000E+02
4916000000.000000      6.896973000000000E-01      1.149951000000000E+01      2.475891000000000E-01     -1.681953000000000E+02
4917000000.000000      6.865234000000000E-01      1.140918000000000E+01      2.442551000000000E-01     -1.683516000000000E+02
4918000000.000000      6.916199000000000E-01      1.126611000000000E+01      2.404709000000000E-01     -1.686797000000000E+02
4919000000.000000      6.892090000000000E-01      1.134570000000000E+01      2.369690000000000E-01     -1.686172000000000E+02
4920000000.000000      6.904602000000000E-01      1.102197000000000E+01      2.330627000000000E-01     -1.691719000000000E+02
4921000000.000000      6.920776000000000E-01      1.104248000000000E+01      2.301102000000000E-01     -1.693672000000000E+02
4922000000.000000      6.928711000000000E-01      1.091895000000000E+01      2.260132000000000E-01     -1.694766000000000E+02
4923000000.000000      6.910095000000000E-01      1.079248000000000E+01      2.217560000000000E-01     -1.697969000000000E+02
4924000000.000000      6.926270000000000E-01      1.064844000000000E+01      2.183228000000000E-01     -1.700234000000000E+02
4925000000.000000      6.928101000000000E-01      1.063330000000000E+01      2.150879000000000E-01     -1.703438000000000E+02
4926000000.000000      6.935120000000000E-01      1.058252000000000E+01      2.114792000000000E-01     -1.704297000000000E+02
4927000000.000000      6.933289000000000E-01      1.042188000000000E+01      2.069702000000000E-01     -1.706328000000000E+02
4928000000.000000      6.965027000000000E-01      1.027881000000000E+01      2.035217000000000E-01     -1.706719000000000E+02
4929000000.000000      6.921082000000000E-01      1.019092000000000E+01      1.990509000000000E-01     -1.707578000000000E+02
4930000000.000000      6.968384000000000E-01      1.016504000000000E+01      1.959076000000000E-01     -1.708594000000000E+02
4931000000.000000      6.937866000000000E-01      1.010840000000000E+01      1.924820000000000E-01     -1.708437000000000E+02
4932000000.000000      6.939392000000000E-01      9.876465000000000E+00      1.881638000000000E-01     -1.709063000000000E+02
4933000000.000000      6.965332000000000E-01      9.668945000000000E+00      1.839218000000000E-01     -1.707031000000000E+02
4934000000.000000      6.970825000000000E-01      9.643066000000000E+00      1.797867000000000E-01     -1.708047000000000E+02
4935000000.000000      6.992798000000000E-01      9.668945000000000E+00      1.769180000000000E-01     -1.706640000000000E+02
4936000000.000000      6.966553000000000E-01      9.479492000000000E+00      1.730576000000000E-01     -1.704609000000000E+02
4937000000.000000      6.995239000000000E-01      9.457520000000000E+00      1.688614000000000E-01     -1.705312000000000E+02
4938000000.000000      6.989441000000000E-01      9.368164000000000E+00      1.657562000000000E-01     -1.701094000000000E+02
4939000000.000000      6.997070000000000E-01      9.283203000000000E+00      1.619034000000000E-01     -1.697891000000000E+02
4940000000.000000      6.993103000000000E-01      9.192383000000000E+00      1.577454000000000E-01     -1.696875000000000E+02
4941000000.000000      7.007141000000000E-01      9.093750000000000E+00      1.545792000000000E-01     -1.691484000000000E+02
4942000000.000000      7.004089000000000E-01      8.950684000000000E+00      1.507034000000000E-01     -1.687187000000000E+02
4943000000.000000      7.009583000000000E-01      8.935547000000000E+00      1.471939000000000E-01     -1.681875000000000E+02
4944000000.000000      7.008667000000000E-01      8.812012000000000E+00      1.439056000000000E-01     -1.677266000000000E+02
4945000000.000000      7.024536000000000E-01      8.539063000000000E+00      1.402130000000000E-01     -1.669765000000000E+02
4946000000.000000      7.038574000000000E-01      8.511230000000000E+00      1.376038000000000E-01     -1.663203000000000E+02
4947000000.000000      7.030029000000000E-01      8.356445000000000E+00      1.337357000000000E-01     -1.656094000000000E+02
4948000000.000000      7.067261000000000E-01      8.459473000000000E+00      1.304855000000000E-01     -1.647734000000000E+02
4949000000.000000      7.026672000000000E-01      8.302734000000000E+00      1.279984000000000E-01     -1.635391000000000E+02
4950000000.000000      7.049561000000000E-01      8.189941000000000E+00      1.249962000000000E-01     -1.626094000000000E+02
4951000000.000000      7.036743000000000E-01      8.155762000000000E+00      1.222763000000000E-01     -1.615313000000000E+02
4952000000.000000      7.052307000000000E-01      7.954102000000000E+00      1.193886000000000E-01     -1.603594000000000E+02
4953000000.000000      7.048645000000000E-01      7.881104000000000E+00      1.174927000000000E-01     -1.590078000000000E+02
4954000000.000000      7.071838000000000E-01      7.779541000000000E+00      1.147995000000000E-01     -1.577031000000000E+02
