! Network Analyzer HP8722D
! Hewlett-Packard
! Data name: Linha & Wilkinson
! Saver's name: Rodrigo Anjos
! Comments: Teste da utilização de aquisição
continua pelo VNA HP8722D
! Time and date: 22/5/2025 15:56
!              Frequency                     S11                                                   S21                                                   S12                                                   S22
# HZ  S  MA R 50
4800000000.000000      6.527710000000000E-01      1.090234000000000E+01      4.705200000000000E-01     -9.221483000000000E+01
4801000000.000000      6.502686000000000E-01      1.105762000000000E+01      4.719543000000000E-01     -9.295702000000000E+01
4802000000.000000      6.498413000000000E-01      1.109717000000000E+01      4.731750000000000E-01     -9.353516000000000E+01
4803000000.000000      6.466064000000000E-01      1.085156000000000E+01      4.763489000000000E-01     -9.432421000000000E+01
4804000000.000000      6.450195000000000E-01      1.091309000000000E+01      4.798737000000000E-01     -9.516405000000000E+01
4805000000.000000      6.450806000000000E-01      1.078564000000000E+01      4.797821000000000E-01     -9.599218000000000E+01
4806000000.000000      6.412964000000000E-01      1.091602000000000E+01      4.818268000000000E-01     -9.659765000000000E+01
4807000000.000000      6.400452000000000E-01      1.084033000000000E+01      4.832458000000000E-01     -9.746874000000000E+01
4808000000.000000      6.378784000000000E-01      1.095313000000000E+01      4.844055000000000E-01     -9.820702000000000E+01
4809000000.000000      6.362305000000000E-01      1.090625000000000E+01      4.857635000000000E-01     -9.900000000000000E+01
4810000000.000000      6.347046000000000E-01      1.106299000000000E+01      4.881592000000000E-01     -9.954687000000000E+01
4811000000.000000      6.350098000000000E-01      1.098193000000000E+01      4.885864000000000E-01     -1.003437000000000E+02
4812000000.000000      6.334839000000000E-01      1.118506000000000E+01      4.906158000000000E-01     -1.011172000000000E+02
4813000000.000000      6.310425000000000E-01      1.125781000000000E+01      4.905396000000000E-01     -1.020703000000000E+02
4814000000.000000      6.292114000000000E-01      1.106006000000000E+01      4.929657000000000E-01     -1.028359000000000E+02
4815000000.000000      6.296082000000000E-01      1.137744000000000E+01      4.922791000000000E-01     -1.036484000000000E+02
4816000000.000000      6.275635000000000E-01      1.141455000000000E+01      4.958496000000000E-01     -1.040859000000000E+02
4817000000.000000      6.245117000000000E-01      1.143652000000000E+01      4.940186000000000E-01     -1.051719000000000E+02
4818000000.000000      6.263428000000000E-01      1.150635000000000E+01      4.950104000000000E-01     -1.058008000000000E+02
4819000000.000000      6.237488000000000E-01      1.151465000000000E+01      4.966431000000000E-01     -1.064492000000000E+02
4820000000.000000      6.215210000000000E-01      1.174414000000000E+01      4.967499000000000E-01     -1.070976000000000E+02
4821000000.000000      6.220093000000000E-01      1.177588000000000E+01      4.977417000000000E-01     -1.080000000000000E+02
4822000000.000000      6.209412000000000E-01      1.168213000000000E+01      4.951477000000000E-01     -1.087305000000000E+02
4823000000.000000      6.203003000000000E-01      1.182520000000000E+01      4.988403000000000E-01     -1.093476000000000E+02
4824000000.000000      6.174927000000000E-01      1.201318000000000E+01      4.985199000000000E-01     -1.102305000000000E+02
4825000000.000000      6.177673000000000E-01      1.208057000000000E+01      4.985199000000000E-01     -1.110859000000000E+02
4826000000.000000      6.163635000000000E-01      1.210254000000000E+01      4.992371000000000E-01     -1.117461000000000E+02
4827000000.000000      6.166382000000000E-01      1.232910000000000E+01      4.989624000000000E-01     -1.122695000000000E+02
4828000000.000000      6.155090000000000E-01      1.252979000000000E+01      5.010681000000000E-01     -1.132773000000000E+02
4829000000.000000      6.153564000000000E-01      1.269580000000000E+01      4.994812000000000E-01     -1.138750000000000E+02
4830000000.000000      6.147156000000000E-01      1.266309000000000E+01      4.995117000000000E-01     -1.148906000000000E+02
4831000000.000000      6.142578000000000E-01      1.281006000000000E+01      5.010376000000000E-01     -1.156367000000000E+02
4832000000.000000      6.127930000000000E-01      1.288379000000000E+01      4.994659000000000E-01     -1.161601000000000E+02
4833000000.000000      6.155396000000000E-01      1.297998000000000E+01      5.000000000000000E-01     -1.168906000000000E+02
4834000000.000000      6.123352000000000E-01      1.311768000000000E+01      4.998932000000000E-01     -1.176680000000000E+02
4835000000.000000      6.149597000000000E-01      1.325342000000000E+01      4.989777000000000E-01     -1.186484000000000E+02
4836000000.000000      6.144714000000000E-01      1.339209000000000E+01      4.968414000000000E-01     -1.194180000000000E+02
4837000000.000000      6.139221000000000E-01      1.354199000000000E+01      4.979095000000000E-01     -1.203086000000000E+02
4838000000.000000      6.136169000000000E-01      1.356934000000000E+01      4.987183000000000E-01     -1.207227000000000E+02
4839000000.000000      6.174927000000000E-01      1.363086000000000E+01      4.973145000000000E-01     -1.216992000000000E+02
4840000000.000000      6.144409000000000E-01      1.364063000000000E+01      4.976654000000000E-01     -1.223281000000000E+02
4841000000.000000      6.151123000000000E-01      1.400195000000000E+01      4.973297000000000E-01     -1.233281000000000E+02
4842000000.000000      6.148682000000000E-01      1.398926000000000E+01      4.972687000000000E-01     -1.241211000000000E+02
4843000000.000000      6.177368000000000E-01      1.421191000000000E+01      4.961395000000000E-01     -1.250781000000000E+02
4844000000.000000      6.160889000000000E-01      1.393164000000000E+01      4.944916000000000E-01     -1.257656000000000E+02
4845000000.000000      6.181946000000000E-01      1.425049000000000E+01      4.946747000000000E-01     -1.265312000000000E+02
4846000000.000000      6.183167000000000E-01      1.439746000000000E+01      4.936371000000000E-01     -1.273984000000000E+02
4847000000.000000      6.189575000000000E-01      1.472559000000000E+01      4.923859000000000E-01     -1.280313000000000E+02
4848000000.000000      6.194763000000000E-01      1.443604000000000E+01      4.889832000000000E-01     -1.292109000000000E+02
4849000000.000000      6.187439000000000E-01      1.451416000000000E+01      4.899902000000000E-01     -1.298906000000000E+02
4850000000.000000      6.212158000000000E-01      1.460352000000000E+01      4.872131000000000E-01     -1.308828000000000E+02
4851000000.000000      6.212463000000000E-01      1.468164000000000E+01      4.859772000000000E-01     -1.315859000000000E+02
4852000000.000000      6.232605000000000E-01      1.461279000000000E+01      4.832306000000000E-01     -1.324609000000000E+02
4853000000.000000      6.258240000000000E-01      1.483252000000000E+01      4.799194000000000E-01     -1.333203000000000E+02
4854000000.000000      6.270142000000000E-01      1.486963000000000E+01      4.797363000000000E-01     -1.341016000000000E+02
4855000000.000000      6.253052000000000E-01      1.489990000000000E+01      4.774017000000000E-01     -1.350703000000000E+02
4856000000.000000      6.274109000000000E-01      1.499072000000000E+01      4.741821000000000E-01     -1.357656000000000E+02
4857000000.000000      6.308899000000000E-01      1.504980000000000E+01      4.733276000000000E-01     -1.366406000000000E+02
4858000000.000000      6.301880000000000E-01      1.497412000000000E+01      4.707336000000000E-01     -1.375078000000000E+02
4859000000.000000      6.312866000000000E-01      1.500439000000000E+01      4.682159000000000E-01     -1.385781000000000E+02
4860000000.000000      6.315002000000000E-01      1.511963000000000E+01      4.633179000000000E-01     -1.392500000000000E+02
4861000000.000000      6.334534000000000E-01      1.515820000000000E+01      4.604645000000000E-01     -1.403281000000000E+02
4862000000.000000      6.343689000000000E-01      1.515283000000000E+01      4.575195000000000E-01     -1.409531000000000E+02
4863000000.000000      6.364136000000000E-01      1.514014000000000E+01      4.536591000000000E-01     -1.419062000000000E+02
4864000000.000000      6.360168000000000E-01      1.502637000000000E+01      4.521484000000000E-01     -1.424766000000000E+02
4865000000.000000      6.371765000000000E-01      1.511816000000000E+01      4.479980000000000E-01     -1.431797000000000E+02
4866000000.000000      6.402588000000000E-01      1.506055000000000E+01      4.421844000000000E-01     -1.443438000000000E+02
4867000000.000000      6.405334000000000E-01      1.505225000000000E+01      4.387817000000000E-01     -1.450234000000000E+02
4868000000.000000      6.418152000000000E-01      1.523486000000000E+01      4.357300000000000E-01     -1.458203000000000E+02
4869000000.000000      6.416626000000000E-01      1.490674000000000E+01      4.323578000000000E-01     -1.465859000000000E+02
4870000000.000000      6.434021000000000E-01      1.522705000000000E+01      4.273376000000000E-01     -1.469531000000000E+02
4871000000.000000      6.432495000000000E-01      1.510205000000000E+01      4.238129000000000E-01     -1.481406000000000E+02
4872000000.000000      6.475220000000000E-01      1.510059000000000E+01      4.187164000000000E-01     -1.486953000000000E+02
4873000000.000000      6.479187000000000E-01      1.489307000000000E+01      4.150238000000000E-01     -1.494531000000000E+02
4874000000.000000      6.486816000000000E-01      1.506201000000000E+01      4.099274000000000E-01     -1.502500000000000E+02
4875000000.000000      6.497192000000000E-01      1.470752000000000E+01      4.050140000000000E-01     -1.508594000000000E+02
4876000000.000000      6.527100000000000E-01      1.498633000000000E+01      4.026489000000000E-01     -1.514141000000000E+02
4877000000.000000      6.517639000000000E-01      1.471191000000000E+01      3.972321000000000E-01     -1.521719000000000E+02
4878000000.000000      6.521301000000000E-01      1.464453000000000E+01      3.932343000000000E-01     -1.528281000000000E+02
4879000000.000000      6.583862000000000E-01      1.471191000000000E+01      3.877869000000000E-01     -1.533203000000000E+02
4880000000.000000      6.572571000000000E-01      1.469824000000000E+01      3.848572000000000E-01     -1.541250000000000E+02
4881000000.000000      6.578979000000000E-01      1.458984000000000E+01      3.799133000000000E-01     -1.543359000000000E+02
4882000000.000000      6.609802000000000E-01      1.460742000000000E+01      3.764801000000000E-01     -1.552813000000000E+02
4883000000.000000      6.611023000000000E-01      1.416943000000000E+01      3.701935000000000E-01     -1.557734000000000E+02
4884000000.000000      6.622314000000000E-01      1.460742000000000E+01      3.667755000000000E-01     -1.562578000000000E+02
4885000000.000000      6.606750000000000E-01      1.442871000000000E+01      3.613281000000000E-01     -1.564766000000000E+02
4886000000.000000      6.644592000000000E-01      1.436719000000000E+01      3.590088000000000E-01     -1.570469000000000E+02
4887000000.000000      6.669617000000000E-01      1.427930000000000E+01      3.543091000000000E-01     -1.575859000000000E+02
4888000000.000000      6.668091000000000E-01      1.416113000000000E+01      3.503723000000000E-01     -1.582578000000000E+02
4889000000.000000      6.672363000000000E-01      1.396631000000000E+01      3.442383000000000E-01     -1.588047000000000E+02
4890000000.000000      6.677551000000000E-01      1.407617000000000E+01      3.402710000000000E-01     -1.593125000000000E+02
4891000000.000000      6.693726000000000E-01      1.391650000000000E+01      3.355865000000000E-01     -1.596719000000000E+02
4892000000.000000      6.709900000000000E-01      1.364600000000000E+01      3.321991000000000E-01     -1.597578000000000E+02
4893000000.000000      6.705322000000000E-01      1.361572000000000E+01      3.278351000000000E-01     -1.605625000000000E+02
4894000000.000000      6.728821000000000E-01      1.363232000000000E+01      3.246460000000000E-01     -1.608672000000000E+02
4895000000.000000      6.747437000000000E-01      1.373389000000000E+01      3.212738000000000E-01     -1.611797000000000E+02
4896000000.000000      6.747437000000000E-01      1.357764000000000E+01      3.175812000000000E-01     -1.615547000000000E+02
4897000000.000000      6.750488000000000E-01      1.353369000000000E+01      3.134613000000000E-01     -1.619688000000000E+02
4898000000.000000      6.767273000000000E-01      1.341699000000000E+01      3.106384000000000E-01     -1.622656000000000E+02
4899000000.000000      6.774292000000000E-01      1.323438000000000E+01      3.061676000000000E-01     -1.627344000000000E+02
4900000000.000000      6.797791000000000E-01      1.291260000000000E+01      3.032074000000000E-01     -1.630469000000000E+02
4901000000.000000      6.770020000000000E-01      1.291260000000000E+01      2.989655000000000E-01     -1.633125000000000E+02
4902000000.000000      6.813660000000000E-01      1.275488000000000E+01      2.951660000000000E-01     -1.636250000000000E+02
4903000000.000000      6.804504000000000E-01      1.269873000000000E+01      2.914124000000000E-01     -1.639688000000000E+02
4904000000.000000      6.825867000000000E-01      1.258057000000000E+01      2.879791000000000E-01     -1.643594000000000E+02
4905000000.000000      6.807251000000000E-01      1.268506000000000E+01      2.851868000000000E-01     -1.647656000000000E+02
4906000000.000000      6.818542000000000E-01      1.235254000000000E+01      2.809143000000000E-01     -1.648906000000000E+02
4907000000.000000      6.836548000000000E-01      1.219873000000000E+01      2.772369000000000E-01     -1.652656000000000E+02
4908000000.000000      6.852112000000000E-01      1.221777000000000E+01      2.745056000000000E-01     -1.657344000000000E+02
4909000000.000000      6.850586000000000E-01      1.203955000000000E+01      2.708130000000000E-01     -1.659531000000000E+02
4910000000.000000      6.844788000000000E-01      1.209570000000000E+01      2.669525000000000E-01     -1.662500000000000E+02
4911000000.000000      6.844482000000000E-01      1.189258000000000E+01      2.641602000000000E-01     -1.665625000000000E+02
4912000000.000000      6.854553000000000E-01      1.191846000000000E+01      2.603760000000000E-01     -1.669688000000000E+02
4913000000.000000      6.865540000000000E-01      1.179492000000000E+01      2.564850000000000E-01     -1.672344000000000E+02
4914000000.000000      6.855164000000000E-01      1.160010000000000E+01      2.523041000000000E-01     -1.675078000000000E+02
4915000000.000000      6.883850000000000E-01      1.150244000000000E+01      2.493362000000000E-01     -1.679453000000000E+02
4916000000.000000      6.885071000000000E-01      1.151221000000000E+01      2.463150000000000E-01     -1.683125000000000E+02
4917000000.000000      6.874695000000000E-01      1.140088000000000E+01      2.423706000000000E-01     -1.683672000000000E+02
4918000000.000000      6.908875000000000E-01      1.124268000000000E+01      2.389145000000000E-01     -1.686641000000000E+02
4919000000.000000      6.905518000000000E-01      1.126367000000000E+01      2.356720000000000E-01     -1.687891000000000E+02
4920000000.000000      6.919250000000000E-01      1.110547000000000E+01      2.310028000000000E-01     -1.693203000000000E+02
4921000000.000000      6.918030000000000E-01      1.108496000000000E+01      2.286072000000000E-01     -1.694219000000000E+02
4922000000.000000      6.902466000000000E-01      1.100830000000000E+01      2.243423000000000E-01     -1.696172000000000E+02
4923000000.000000      6.917725000000000E-01      1.086230000000000E+01      2.202682000000000E-01     -1.697187000000000E+02
4924000000.000000      6.933594000000000E-01      1.075391000000000E+01      2.160339000000000E-01     -1.701953000000000E+02
4925000000.000000      6.909180000000000E-01      1.060547000000000E+01      2.126617000000000E-01     -1.701484000000000E+02
4926000000.000000      6.939087000000000E-01      1.069092000000000E+01      2.094574000000000E-01     -1.702969000000000E+02
4927000000.000000      6.949463000000000E-01      1.054541000000000E+01      2.054825000000000E-01     -1.705391000000000E+02
4928000000.000000      6.950684000000000E-01      1.026904000000000E+01      2.015762000000000E-01     -1.706953000000000E+02
4929000000.000000      6.911316000000000E-01      1.019922000000000E+01      1.974869000000000E-01     -1.706406000000000E+02
4930000000.000000      6.963501000000000E-01      1.024316000000000E+01      1.943665000000000E-01     -1.708750000000000E+02
4931000000.000000      6.957703000000000E-01      9.846191000000000E+00      1.908569000000000E-01     -1.707813000000000E+02
4932000000.000000      6.958008000000000E-01      9.993164000000000E+00      1.867371000000000E-01     -1.708594000000000E+02
4933000000.000000      6.983643000000000E-01      9.748535000000000E+00      1.822433000000000E-01     -1.706797000000000E+02
4934000000.000000      6.972961000000000E-01      9.762695000000000E+00      1.789627000000000E-01     -1.707187000000000E+02
4935000000.000000      6.980286000000000E-01      9.685547000000000E+00      1.757965000000000E-01     -1.704297000000000E+02
4936000000.000000      6.992493000000000E-01      9.572754000000000E+00      1.711044000000000E-01     -1.702812000000000E+02
4937000000.000000      6.985168000000000E-01      9.265137000000000E+00      1.679764000000000E-01     -1.702656000000000E+02
4938000000.000000      6.962585000000000E-01      9.452148000000000E+00      1.642227000000000E-01     -1.697500000000000E+02
4939000000.000000      6.995239000000000E-01      9.286133000000000E+00      1.601257000000000E-01     -1.695469000000000E+02
4940000000.000000      7.005920000000000E-01      9.206543000000000E+00      1.566162000000000E-01     -1.693594000000000E+02
4941000000.000000      6.995239000000000E-01      9.085449000000000E+00      1.531143000000000E-01     -1.689062000000000E+02
4942000000.000000      7.011108000000000E-01      8.861816000000000E+00      1.494217000000000E-01     -1.685234000000000E+02
4943000000.000000      7.026978000000000E-01      8.849121000000000E+00      1.461182000000000E-01     -1.679453000000000E+02
4944000000.000000      7.029419000000000E-01      8.790039000000000E+00      1.430206000000000E-01     -1.674844000000000E+02
4945000000.000000      7.025757000000000E-01      8.545898000000000E+00      1.393585000000000E-01     -1.668281000000000E+02
4946000000.000000      7.028809000000000E-01      8.527832000000000E+00      1.358566000000000E-01     -1.658750000000000E+02
4947000000.000000      7.032166000000000E-01      8.482422000000000E+00      1.326752000000000E-01     -1.651328000000000E+02
4948000000.000000      7.042236000000000E-01      8.430176000000000E+00      1.295700000000000E-01     -1.642344000000000E+02
4949000000.000000      7.034607000000000E-01      8.199707000000000E+00      1.270142000000000E-01     -1.629609000000000E+02
4950000000.000000      7.037659000000000E-01      8.349609000000000E+00      1.238441000000000E-01     -1.620469000000000E+02
4951000000.000000      7.056885000000000E-01      8.017090000000000E+00      1.215515000000000E-01     -1.611953000000000E+02
4952000000.000000      7.060242000000000E-01      7.951172000000000E+00      1.187172000000000E-01     -1.598281000000000E+02
4953000000.000000      7.058716000000000E-01      7.826172000000000E+00      1.167030000000000E-01     -1.585156000000000E+02
4954000000.000000      7.086792000000000E-01      7.735596000000000E+00      1.144066000000000E-01     -1.569531000000000E+02
