! Network Analyzer HP8722D
! Hewlett-Packard
! Data name: Linha & Wilkinson
! Saver's name: Rodrigo Anjos
! Comments: Teste da utilização de aquisição
continua pelo VNA HP8722D
! Time and date: 22/5/2025 09:27
!              Frequency                     S11                                                   S21                                                   S12                                                   S22
# HZ  S  MA R 50
4800000000.000000      6.463928000000000E-01      1.033936000000000E+01      4.751129000000000E-01     -9.388281000000000E+01
4801000000.000000      6.447449000000000E-01      1.029688000000000E+01      4.758606000000000E-01     -9.442968000000000E+01
4802000000.000000      6.431274000000000E-01      1.034912000000000E+01      4.779358000000000E-01     -9.516405000000000E+01
4803000000.000000      6.405334000000000E-01      1.043555000000000E+01      4.810333000000000E-01     -9.584764000000000E+01
4804000000.000000      6.407776000000000E-01      1.037891000000000E+01      4.808197000000000E-01     -9.667969000000000E+01
4805000000.000000      6.413269000000000E-01      1.025830000000000E+01      4.831390000000000E-01     -9.757030000000000E+01
4806000000.000000      6.366272000000000E-01      1.028174000000000E+01      4.846497000000000E-01     -9.830078000000000E+01
4807000000.000000      6.354980000000000E-01      1.036133000000000E+01      4.848633000000000E-01     -9.918358000000000E+01
4808000000.000000      6.320801000000000E-01      1.037354000000000E+01      4.894257000000000E-01     -9.975389000000000E+01
4809000000.000000      6.309509000000000E-01      1.051660000000000E+01      4.898834000000000E-01     -1.004570000000000E+02
4810000000.000000      6.314392000000000E-01      1.064697000000000E+01      4.907837000000000E-01     -1.014141000000000E+02
4811000000.000000      6.288452000000000E-01      1.059473000000000E+01      4.920502000000000E-01     -1.020117000000000E+02
4812000000.000000      6.297302000000000E-01      1.061377000000000E+01      4.935303000000000E-01     -1.028711000000000E+02
4813000000.000000      6.261902000000000E-01      1.064014000000000E+01      4.932404000000000E-01     -1.036562000000000E+02
4814000000.000000      6.247864000000000E-01      1.069629000000000E+01      4.942932000000000E-01     -1.043203000000000E+02
4815000000.000000      6.229858000000000E-01      1.084180000000000E+01      4.948883000000000E-01     -1.050547000000000E+02
4816000000.000000      6.227417000000000E-01      1.075928000000000E+01      4.973602000000000E-01     -1.057734000000000E+02
4817000000.000000      6.210327000000000E-01      1.107129000000000E+01      4.957733000000000E-01     -1.066133000000000E+02
4818000000.000000      6.199341000000000E-01      1.105615000000000E+01      4.966583000000000E-01     -1.073750000000000E+02
4819000000.000000      6.218262000000000E-01      1.118799000000000E+01      4.976959000000000E-01     -1.080312000000000E+02
4820000000.000000      6.185913000000000E-01      1.146826000000000E+01      4.984741000000000E-01     -1.086992000000000E+02
4821000000.000000      6.165161000000000E-01      1.142139000000000E+01      4.992523000000000E-01     -1.097031000000000E+02
4822000000.000000      6.145630000000000E-01      1.129492000000000E+01      4.977264000000000E-01     -1.102969000000000E+02
4823000000.000000      6.167297000000000E-01      1.134326000000000E+01      5.003967000000000E-01     -1.109961000000000E+02
4824000000.000000      6.146240000000000E-01      1.170703000000000E+01      4.977112000000000E-01     -1.119687000000000E+02
4825000000.000000      6.134949000000000E-01      1.162207000000000E+01      4.993134000000000E-01     -1.125469000000000E+02
4826000000.000000      6.134949000000000E-01      1.161377000000000E+01      4.996338000000000E-01     -1.132734000000000E+02
4827000000.000000      6.144104000000000E-01      1.189404000000000E+01      4.995728000000000E-01     -1.138203000000000E+02
4828000000.000000      6.145020000000000E-01      1.202002000000000E+01      5.001221000000000E-01     -1.148438000000000E+02
4829000000.000000      6.119080000000000E-01      1.222754000000000E+01      5.014038000000000E-01     -1.156523000000000E+02
4830000000.000000      6.135559000000000E-01      1.224658000000000E+01      4.993286000000000E-01     -1.163359000000000E+02
4831000000.000000      6.129761000000000E-01      1.239941000000000E+01      5.010071000000000E-01     -1.172148000000000E+02
4832000000.000000      6.110229000000000E-01      1.245947000000000E+01      5.001526000000000E-01     -1.178242000000000E+02
4833000000.000000      6.108398000000000E-01      1.247070000000000E+01      4.996796000000000E-01     -1.184609000000000E+02
4834000000.000000      6.109314000000000E-01      1.261914000000000E+01      4.998322000000000E-01     -1.193750000000000E+02
4835000000.000000      6.129761000000000E-01      1.284814000000000E+01      4.988403000000000E-01     -1.202617000000000E+02
4836000000.000000      6.123352000000000E-01      1.297852000000000E+01      4.981537000000000E-01     -1.208789000000000E+02
4837000000.000000      6.108093000000000E-01      1.318896000000000E+01      4.974365000000000E-01     -1.217695000000000E+02
4838000000.000000      6.119385000000000E-01      1.313232000000000E+01      4.977875000000000E-01     -1.224414000000000E+02
4839000000.000000      6.155396000000000E-01      1.337695000000000E+01      4.967041000000000E-01     -1.233281000000000E+02
4840000000.000000      6.145630000000000E-01      1.327246000000000E+01      4.977722000000000E-01     -1.241055000000000E+02
4841000000.000000      6.151733000000000E-01      1.352783000000000E+01      4.955597000000000E-01     -1.250820000000000E+02
4842000000.000000      6.159363000000000E-01      1.350195000000000E+01      4.954987000000000E-01     -1.257851000000000E+02
4843000000.000000      6.176147000000000E-01      1.363672000000000E+01      4.950256000000000E-01     -1.265508000000000E+02
4844000000.000000      6.152039000000000E-01      1.348682000000000E+01      4.927368000000000E-01     -1.275859000000000E+02
4845000000.000000      6.184998000000000E-01      1.400879000000000E+01      4.920349000000000E-01     -1.282969000000000E+02
4846000000.000000      6.195068000000000E-01      1.378906000000000E+01      4.911652000000000E-01     -1.290781000000000E+02
4847000000.000000      6.196289000000000E-01      1.402930000000000E+01      4.899902000000000E-01     -1.298594000000000E+02
4848000000.000000      6.196899000000000E-01      1.386865000000000E+01      4.866943000000000E-01     -1.307422000000000E+02
4849000000.000000      6.201477000000000E-01      1.409229000000000E+01      4.866333000000000E-01     -1.315234000000000E+02
4850000000.000000      6.195374000000000E-01      1.410059000000000E+01      4.841003000000000E-01     -1.324609000000000E+02
4851000000.000000      6.206055000000000E-01      1.411035000000000E+01      4.831848000000000E-01     -1.332187000000000E+02
4852000000.000000      6.227112000000000E-01      1.414893000000000E+01      4.822540000000000E-01     -1.339766000000000E+02
4853000000.000000      6.235962000000000E-01      1.418311000000000E+01      4.777527000000000E-01     -1.348906000000000E+02
4854000000.000000      6.252136000000000E-01      1.420361000000000E+01      4.751740000000000E-01     -1.358906000000000E+02
4855000000.000000      6.271973000000000E-01      1.432031000000000E+01      4.738159000000000E-01     -1.365156000000000E+02
4856000000.000000      6.276855000000000E-01      1.427246000000000E+01      4.716187000000000E-01     -1.375000000000000E+02
4857000000.000000      6.300354000000000E-01      1.435498000000000E+01      4.689026000000000E-01     -1.381484000000000E+02
4858000000.000000      6.281738000000000E-01      1.453613000000000E+01      4.664612000000000E-01     -1.391797000000000E+02
4859000000.000000      6.324158000000000E-01      1.424609000000000E+01      4.635620000000000E-01     -1.398281000000000E+02
4860000000.000000      6.329651000000000E-01      1.448389000000000E+01      4.606628000000000E-01     -1.407500000000000E+02
4861000000.000000      6.333313000000000E-01      1.444678000000000E+01      4.564362000000000E-01     -1.418281000000000E+02
4862000000.000000      6.341248000000000E-01      1.430420000000000E+01      4.532013000000000E-01     -1.426172000000000E+02
4863000000.000000      6.372681000000000E-01      1.450586000000000E+01      4.503632000000000E-01     -1.434141000000000E+02
4864000000.000000      6.365051000000000E-01      1.461182000000000E+01      4.468842000000000E-01     -1.439687000000000E+02
4865000000.000000      6.368713000000000E-01      1.446729000000000E+01      4.439392000000000E-01     -1.447109000000000E+02
4866000000.000000      6.386414000000000E-01      1.443701000000000E+01      4.391174000000000E-01     -1.456719000000000E+02
4867000000.000000      6.394653000000000E-01      1.446875000000000E+01      4.347687000000000E-01     -1.465703000000000E+02
4868000000.000000      6.416321000000000E-01      1.441943000000000E+01      4.314117000000000E-01     -1.471875000000000E+02
4869000000.000000      6.440125000000000E-01      1.454150000000000E+01      4.269104000000000E-01     -1.480859000000000E+02
4870000000.000000      6.432495000000000E-01      1.445215000000000E+01      4.229584000000000E-01     -1.484453000000000E+02
4871000000.000000      6.457520000000000E-01      1.445068000000000E+01      4.181213000000000E-01     -1.494297000000000E+02
4872000000.000000      6.481934000000000E-01      1.442871000000000E+01      4.138947000000000E-01     -1.499844000000000E+02
4873000000.000000      6.496582000000000E-01      1.422412000000000E+01      4.098511000000000E-01     -1.508594000000000E+02
4874000000.000000      6.494446000000000E-01      1.441406000000000E+01      4.047699000000000E-01     -1.513594000000000E+02
4875000000.000000      6.499329000000000E-01      1.421729000000000E+01      4.008484000000000E-01     -1.520547000000000E+02
4876000000.000000      6.515503000000000E-01      1.429980000000000E+01      3.962708000000000E-01     -1.527031000000000E+02
4877000000.000000      6.552734000000000E-01      1.385498000000000E+01      3.924103000000000E-01     -1.535156000000000E+02
4878000000.000000      6.531372000000000E-01      1.408984000000000E+01      3.858490000000000E-01     -1.539844000000000E+02
4879000000.000000      6.577148000000000E-01      1.402637000000000E+01      3.829651000000000E-01     -1.547188000000000E+02
4880000000.000000      6.570435000000000E-01      1.403320000000000E+01      3.786469000000000E-01     -1.554219000000000E+02
4881000000.000000      6.577148000000000E-01      1.406494000000000E+01      3.746643000000000E-01     -1.556015000000000E+02
4882000000.000000      6.606445000000000E-01      1.378906000000000E+01      3.706818000000000E-01     -1.560547000000000E+02
4883000000.000000      6.613770000000000E-01      1.382764000000000E+01      3.649445000000000E-01     -1.568906000000000E+02
4884000000.000000      6.619873000000000E-01      1.375488000000000E+01      3.620300000000000E-01     -1.572813000000000E+02
4885000000.000000      6.629028000000000E-01      1.357178000000000E+01      3.572693000000000E-01     -1.575234000000000E+02
4886000000.000000      6.649780000000000E-01      1.361572000000000E+01      3.532410000000000E-01     -1.582031000000000E+02
4887000000.000000      6.668396000000000E-01      1.353076000000000E+01      3.493195000000000E-01     -1.588984000000000E+02
4888000000.000000      6.672363000000000E-01      1.340723000000000E+01      3.444824000000000E-01     -1.591172000000000E+02
4889000000.000000      6.656799000000000E-01      1.337988000000000E+01      3.392487000000000E-01     -1.595312000000000E+02
4890000000.000000      6.668396000000000E-01      1.322168000000000E+01      3.358917000000000E-01     -1.601875000000000E+02
4891000000.000000      6.691589000000000E-01      1.325195000000000E+01      3.307495000000000E-01     -1.606484000000000E+02
4892000000.000000      6.702271000000000E-01      1.324805000000000E+01      3.267365000000000E-01     -1.607578000000000E+02
4893000000.000000      6.720886000000000E-01      1.301465000000000E+01      3.235626000000000E-01     -1.613359000000000E+02
4894000000.000000      6.722107000000000E-01      1.288379000000000E+01      3.190155000000000E-01     -1.616016000000000E+02
4895000000.000000      6.749268000000000E-01      1.282080000000000E+01      3.168335000000000E-01     -1.621562000000000E+02
4896000000.000000      6.745911000000000E-01      1.275342000000000E+01      3.123779000000000E-01     -1.622734000000000E+02
4897000000.000000      6.742859000000000E-01      1.257373000000000E+01      3.085327000000000E-01     -1.627969000000000E+02
4898000000.000000      6.766357000000000E-01      1.250488000000000E+01      3.053436000000000E-01     -1.631484000000000E+02
4899000000.000000      6.761780000000000E-01      1.251025000000000E+01      3.008881000000000E-01     -1.634922000000000E+02
4900000000.000000      6.779175000000000E-01      1.223730000000000E+01      2.969513000000000E-01     -1.637266000000000E+02
4901000000.000000      6.791382000000000E-01      1.228369000000000E+01      2.941895000000000E-01     -1.640859000000000E+02
4902000000.000000      6.793213000000000E-01      1.211768000000000E+01      2.910156000000000E-01     -1.642969000000000E+02
4903000000.000000      6.802673000000000E-01      1.229199000000000E+01      2.868958000000000E-01     -1.647266000000000E+02
4904000000.000000      6.791077000000000E-01      1.201318000000000E+01      2.829895000000000E-01     -1.650312000000000E+02
4905000000.000000      6.816101000000000E-01      1.185791000000000E+01      2.798462000000000E-01     -1.655000000000000E+02
4906000000.000000      6.808472000000000E-01      1.180615000000000E+01      2.757721000000000E-01     -1.655391000000000E+02
4907000000.000000      6.827698000000000E-01      1.158740000000000E+01      2.726288000000000E-01     -1.660312000000000E+02
4908000000.000000      6.834717000000000E-01      1.137598000000000E+01      2.696991000000000E-01     -1.666250000000000E+02
4909000000.000000      6.829834000000000E-01      1.139258000000000E+01      2.657776000000000E-01     -1.666563000000000E+02
4910000000.000000      6.845703000000000E-01      1.141064000000000E+01      2.620697000000000E-01     -1.668828000000000E+02
4911000000.000000      6.847229000000000E-01      1.135010000000000E+01      2.586670000000000E-01     -1.671250000000000E+02
4912000000.000000      6.851501000000000E-01      1.109033000000000E+01      2.547302000000000E-01     -1.675937000000000E+02
4913000000.000000      6.871338000000000E-01      1.108887000000000E+01      2.513885000000000E-01     -1.679453000000000E+02
4914000000.000000      6.875916000000000E-01      1.098877000000000E+01      2.475967000000000E-01     -1.681015000000000E+02
4915000000.000000      6.888733000000000E-01      1.091064000000000E+01      2.444382000000000E-01     -1.684297000000000E+02
4916000000.000000      6.887207000000000E-01      1.083789000000000E+01      2.411880000000000E-01     -1.687187000000000E+02
4917000000.000000      6.875000000000000E-01      1.070313000000000E+01      2.378387000000000E-01     -1.688203000000000E+02
4918000000.000000      6.891479000000000E-01      1.067139000000000E+01      2.337952000000000E-01     -1.692109000000000E+02
4919000000.000000      6.903992000000000E-01      1.040088000000000E+01      2.305756000000000E-01     -1.691250000000000E+02
4920000000.000000      6.892395000000000E-01      1.030078000000000E+01      2.265854000000000E-01     -1.696719000000000E+02
4921000000.000000      6.900635000000000E-01      1.028320000000000E+01      2.232666000000000E-01     -1.699531000000000E+02
4922000000.000000      6.910706000000000E-01      1.024463000000000E+01      2.200089000000000E-01     -1.701328000000000E+02
4923000000.000000      6.927795000000000E-01      1.026514000000000E+01      2.154160000000000E-01     -1.700000000000000E+02
4924000000.000000      6.933594000000000E-01      1.004150000000000E+01      2.116165000000000E-01     -1.704062000000000E+02
4925000000.000000      6.909180000000000E-01      9.940918000000000E+00      2.081909000000000E-01     -1.704453000000000E+02
4926000000.000000      6.918945000000000E-01      9.947754000000000E+00      2.049637000000000E-01     -1.704687000000000E+02
4927000000.000000      6.938782000000000E-01      9.724121000000000E+00      2.007980000000000E-01     -1.707266000000000E+02
4928000000.000000      6.954346000000000E-01      9.674805000000000E+00      1.972122000000000E-01     -1.706328000000000E+02
4929000000.000000      6.950684000000000E-01      9.355957000000000E+00      1.926041000000000E-01     -1.706328000000000E+02
4930000000.000000      6.934814000000000E-01      9.431641000000000E+00      1.893921000000000E-01     -1.708437000000000E+02
4931000000.000000      6.949158000000000E-01      9.276367000000000E+00      1.861038000000000E-01     -1.708125000000000E+02
4932000000.000000      6.975708000000000E-01      9.411133000000000E+00      1.822739000000000E-01     -1.707734000000000E+02
4933000000.000000      6.956177000000000E-01      9.155273000000000E+00      1.777115000000000E-01     -1.704687000000000E+02
4934000000.000000      6.968384000000000E-01      8.890625000000000E+00      1.743546000000000E-01     -1.705859000000000E+02
4935000000.000000      6.976624000000000E-01      8.727051000000000E+00      1.715851000000000E-01     -1.702031000000000E+02
4936000000.000000      6.970215000000000E-01      8.805176000000000E+00      1.667862000000000E-01     -1.698750000000000E+02
4937000000.000000      6.993713000000000E-01      8.761230000000000E+00      1.635284000000000E-01     -1.698906000000000E+02
4938000000.000000      6.989136000000000E-01      8.621094000000000E+00      1.600037000000000E-01     -1.693516000000000E+02
4939000000.000000      6.990967000000000E-01      8.790039000000000E+00      1.566315000000000E-01     -1.688906000000000E+02
4940000000.000000      7.010193000000000E-01      8.430176000000000E+00      1.524353000000000E-01     -1.688125000000000E+02
4941000000.000000      7.007141000000000E-01      8.145996000000000E+00      1.493835000000000E-01     -1.680000000000000E+02
4942000000.000000      6.986694000000000E-01      8.246582000000000E+00      1.460724000000000E-01     -1.676094000000000E+02
4943000000.000000      7.000122000000000E-01      8.023926000000000E+00      1.427994000000000E-01     -1.668594000000000E+02
4944000000.000000      7.018738000000000E-01      8.121582000000000E+00      1.392822000000000E-01     -1.663203000000000E+02
4945000000.000000      7.013550000000000E-01      7.807129000000000E+00      1.364517000000000E-01     -1.655234000000000E+02
4946000000.000000      7.016602000000000E-01      7.922363000000000E+00      1.332245000000000E-01     -1.646953000000000E+02
4947000000.000000      7.022705000000000E-01      7.661377000000000E+00      1.299057000000000E-01     -1.637656000000000E+02
4948000000.000000      7.050476000000000E-01      7.738281000000000E+00      1.273193000000000E-01     -1.628515000000000E+02
4949000000.000000      7.031250000000000E-01      7.548828000000000E+00      1.244850000000000E-01     -1.614297000000000E+02
4950000000.000000      7.050781000000000E-01      7.569580000000000E+00      1.218071000000000E-01     -1.603516000000000E+02
4951000000.000000      7.040100000000000E-01      7.454102000000000E+00      1.197777000000000E-01     -1.593203000000000E+02
4952000000.000000      7.056580000000000E-01      7.289307000000000E+00      1.171951000000000E-01     -1.580000000000000E+02
4953000000.000000      7.055054000000000E-01      7.143799000000000E+00      1.150818000000000E-01     -1.565078000000000E+02
4954000000.000000      7.065125000000000E-01      7.108154000000000E+00      1.131897000000000E-01     -1.552109000000000E+02
