! Network Analyzer HP8722D
! Hewlett-Packard
! Data name: Linha & Wilkinson
! Saver's name: Rodrigo Anjos
! Comments: Teste da utilização de aquisição
continua pelo VNA HP8722D
! Time and date: 22/5/2025 08:56
!              Frequency                     S11                                                   S21                                                   S12                                                   S22
# HZ  S  MA R 50
4800000000.000000      6.480408000000000E-01      1.021436000000000E+01      4.753418000000000E-01     -9.385937000000000E+01
4801000000.000000      6.443176000000000E-01      1.038330000000000E+01      4.762878000000000E-01     -9.446484000000000E+01
4802000000.000000      6.436768000000000E-01      1.030908000000000E+01      4.796753000000000E-01     -9.519140000000000E+01
4803000000.000000      6.417542000000000E-01      1.023779000000000E+01      4.813080000000000E-01     -9.591015000000000E+01
4804000000.000000      6.413269000000000E-01      1.026367000000000E+01      4.818268000000000E-01     -9.669531000000000E+01
4805000000.000000      6.397400000000000E-01      1.016504000000000E+01      4.849243000000000E-01     -9.735546000000000E+01
4806000000.000000      6.364746000000000E-01      1.032715000000000E+01      4.853210000000000E-01     -9.832811000000000E+01
4807000000.000000      6.350403000000000E-01      1.024023000000000E+01      4.857788000000000E-01     -9.921875000000000E+01
4808000000.000000      6.335754000000000E-01      1.028418000000000E+01      4.880524000000000E-01     -9.978125000000000E+01
4809000000.000000      6.311951000000000E-01      1.042578000000000E+01      4.888916000000000E-01     -1.006016000000000E+02
4810000000.000000      6.319275000000000E-01      1.034180000000000E+01      4.914551000000000E-01     -1.013047000000000E+02
4811000000.000000      6.287231000000000E-01      1.041895000000000E+01      4.916382000000000E-01     -1.022266000000000E+02
4812000000.000000      6.295776000000000E-01      1.065381000000000E+01      4.914093000000000E-01     -1.028633000000000E+02
4813000000.000000      6.272888000000000E-01      1.055615000000000E+01      4.941101000000000E-01     -1.036758000000000E+02
4814000000.000000      6.254578000000000E-01      1.068408000000000E+01      4.946289000000000E-01     -1.042734000000000E+02
4815000000.000000      6.242371000000000E-01      1.078564000000000E+01      4.946747000000000E-01     -1.051563000000000E+02
4816000000.000000      6.239929000000000E-01      1.085156000000000E+01      4.969330000000000E-01     -1.058828000000000E+02
4817000000.000000      6.206055000000000E-01      1.095166000000000E+01      4.962311000000000E-01     -1.065156000000000E+02
4818000000.000000      6.199036000000000E-01      1.094238000000000E+01      4.963837000000000E-01     -1.075117000000000E+02
4819000000.000000      6.204224000000000E-01      1.106982000000000E+01      4.989166000000000E-01     -1.081406000000000E+02
4820000000.000000      6.172791000000000E-01      1.127197000000000E+01      4.989014000000000E-01     -1.087773000000000E+02
4821000000.000000      6.181335000000000E-01      1.135986000000000E+01      4.984436000000000E-01     -1.096016000000000E+02
4822000000.000000      6.156921000000000E-01      1.118506000000000E+01      4.978333000000000E-01     -1.104023000000000E+02
4823000000.000000      6.163025000000000E-01      1.122900000000000E+01      5.006104000000000E-01     -1.112187000000000E+02
4824000000.000000      6.137085000000000E-01      1.148877000000000E+01      4.985809000000000E-01     -1.119727000000000E+02
4825000000.000000      6.156311000000000E-01      1.152295000000000E+01      4.981384000000000E-01     -1.127930000000000E+02
4826000000.000000      6.133118000000000E-01      1.145020000000000E+01      4.999847000000000E-01     -1.134727000000000E+02
4827000000.000000      6.132202000000000E-01      1.177002000000000E+01      4.990845000000000E-01     -1.139844000000000E+02
4828000000.000000      6.132507000000000E-01      1.203662000000000E+01      4.997559000000000E-01     -1.147656000000000E+02
4829000000.000000      6.131287000000000E-01      1.223145000000000E+01      5.002747000000000E-01     -1.156523000000000E+02
4830000000.000000      6.126404000000000E-01      1.213672000000000E+01      5.009766000000000E-01     -1.164570000000000E+02
4831000000.000000      6.126404000000000E-01      1.209277000000000E+01      4.997711000000000E-01     -1.172773000000000E+02
4832000000.000000      6.109924000000000E-01      1.245703000000000E+01      5.007324000000000E-01     -1.179062000000000E+02
4833000000.000000      6.115723000000000E-01      1.215186000000000E+01      5.003052000000000E-01     -1.186758000000000E+02
4834000000.000000      6.106873000000000E-01      1.268213000000000E+01      4.997711000000000E-01     -1.193750000000000E+02
4835000000.000000      6.129456000000000E-01      1.258887000000000E+01      4.990997000000000E-01     -1.203203000000000E+02
4836000000.000000      6.123962000000000E-01      1.299512000000000E+01      4.977722000000000E-01     -1.209961000000000E+02
4837000000.000000      6.117554000000000E-01      1.305713000000000E+01      4.990387000000000E-01     -1.218203000000000E+02
4838000000.000000      6.119690000000000E-01      1.309668000000000E+01      4.975281000000000E-01     -1.225078000000000E+02
4839000000.000000      6.138000000000000E-01      1.326709000000000E+01      4.969482000000000E-01     -1.234648000000000E+02
4840000000.000000      6.136169000000000E-01      1.303369000000000E+01      4.981384000000000E-01     -1.241172000000000E+02
4841000000.000000      6.153259000000000E-01      1.330029000000000E+01      4.970245000000000E-01     -1.250195000000000E+02
4842000000.000000      6.132202000000000E-01      1.339063000000000E+01      4.963989000000000E-01     -1.256289000000000E+02
4843000000.000000      6.161499000000000E-01      1.350586000000000E+01      4.955750000000000E-01     -1.267539000000000E+02
4844000000.000000      6.156006000000000E-01      1.342529000000000E+01      4.936676000000000E-01     -1.275820000000000E+02
4845000000.000000      6.174011000000000E-01      1.381104000000000E+01      4.913635000000000E-01     -1.281094000000000E+02
4846000000.000000      6.185303000000000E-01      1.380566000000000E+01      4.915924000000000E-01     -1.292187000000000E+02
4847000000.000000      6.183472000000000E-01      1.396729000000000E+01      4.902496000000000E-01     -1.300625000000000E+02
4848000000.000000      6.193542000000000E-01      1.383008000000000E+01      4.875946000000000E-01     -1.307578000000000E+02
4849000000.000000      6.205444000000000E-01      1.384375000000000E+01      4.876556000000000E-01     -1.315703000000000E+02
4850000000.000000      6.216125000000000E-01      1.404980000000000E+01      4.843750000000000E-01     -1.323984000000000E+02
4851000000.000000      6.231079000000000E-01      1.401270000000000E+01      4.833069000000000E-01     -1.332344000000000E+02
4852000000.000000      6.241760000000000E-01      1.424072000000000E+01      4.800568000000000E-01     -1.341406000000000E+02
4853000000.000000      6.245728000000000E-01      1.410645000000000E+01      4.783478000000000E-01     -1.350547000000000E+02
4854000000.000000      6.244507000000000E-01      1.424072000000000E+01      4.763031000000000E-01     -1.357891000000000E+02
4855000000.000000      6.270447000000000E-01      1.422705000000000E+01      4.739990000000000E-01     -1.366484000000000E+02
4856000000.000000      6.277161000000000E-01      1.425439000000000E+01      4.718628000000000E-01     -1.374375000000000E+02
4857000000.000000      6.299744000000000E-01      1.430811000000000E+01      4.686890000000000E-01     -1.381719000000000E+02
4858000000.000000      6.295471000000000E-01      1.437012000000000E+01      4.662170000000000E-01     -1.390703000000000E+02
4859000000.000000      6.297302000000000E-01      1.437402000000000E+01      4.635620000000000E-01     -1.400391000000000E+02
4860000000.000000      6.307983000000000E-01      1.452100000000000E+01      4.600220000000000E-01     -1.408047000000000E+02
4861000000.000000      6.325989000000000E-01      1.450439000000000E+01      4.563141000000000E-01     -1.415390000000000E+02
4862000000.000000      6.347046000000000E-01      1.445215000000000E+01      4.541626000000000E-01     -1.425000000000000E+02
4863000000.000000      6.372986000000000E-01      1.444971000000000E+01      4.506989000000000E-01     -1.435469000000000E+02
4864000000.000000      6.395569000000000E-01      1.443018000000000E+01      4.463196000000000E-01     -1.441172000000000E+02
4865000000.000000      6.372681000000000E-01      1.437695000000000E+01      4.431000000000000E-01     -1.447422000000000E+02
4866000000.000000      6.398315000000000E-01      1.427246000000000E+01      4.386597000000000E-01     -1.457813000000000E+02
4867000000.000000      6.380615000000000E-01      1.437109000000000E+01      4.344330000000000E-01     -1.466953000000000E+02
4868000000.000000      6.424561000000000E-01      1.438086000000000E+01      4.313965000000000E-01     -1.472578000000000E+02
4869000000.000000      6.431274000000000E-01      1.415723000000000E+01      4.278717000000000E-01     -1.481016000000000E+02
4870000000.000000      6.449890000000000E-01      1.433691000000000E+01      4.229279000000000E-01     -1.484766000000000E+02
4871000000.000000      6.444092000000000E-01      1.421631000000000E+01      4.184265000000000E-01     -1.494141000000000E+02
4872000000.000000      6.459961000000000E-01      1.414209000000000E+01      4.142151000000000E-01     -1.500078000000000E+02
4873000000.000000      6.487122000000000E-01      1.433545000000000E+01      4.095917000000000E-01     -1.508594000000000E+02
4874000000.000000      6.491089000000000E-01      1.431348000000000E+01      4.057312000000000E-01     -1.515234000000000E+02
4875000000.000000      6.506042000000000E-01      1.398926000000000E+01      4.012756000000000E-01     -1.520781000000000E+02
4876000000.000000      6.521301000000000E-01      1.406104000000000E+01      3.969269000000000E-01     -1.528281000000000E+02
4877000000.000000      6.539001000000000E-01      1.393750000000000E+01      3.923950000000000E-01     -1.536406000000000E+02
4878000000.000000      6.530151000000000E-01      1.390137000000000E+01      3.866882000000000E-01     -1.540781000000000E+02
4879000000.000000      6.567078000000000E-01      1.408154000000000E+01      3.830719000000000E-01     -1.546250000000000E+02
4880000000.000000      6.583252000000000E-01      1.390723000000000E+01      3.788757000000000E-01     -1.551563000000000E+02
4881000000.000000      6.583557000000000E-01      1.378613000000000E+01      3.740234000000000E-01     -1.556484000000000E+02
4882000000.000000      6.611023000000000E-01      1.380957000000000E+01      3.701935000000000E-01     -1.561797000000000E+02
4883000000.000000      6.606445000000000E-01      1.354297000000000E+01      3.657837000000000E-01     -1.568750000000000E+02
4884000000.000000      6.631165000000000E-01      1.370361000000000E+01      3.616180000000000E-01     -1.573750000000000E+02
4885000000.000000      6.628418000000000E-01      1.358691000000000E+01      3.561401000000000E-01     -1.577344000000000E+02
4886000000.000000      6.650085000000000E-01      1.365283000000000E+01      3.531494000000000E-01     -1.581250000000000E+02
4887000000.000000      6.661987000000000E-01      1.342529000000000E+01      3.487244000000000E-01     -1.588047000000000E+02
4888000000.000000      6.661377000000000E-01      1.340039000000000E+01      3.459015000000000E-01     -1.592031000000000E+02
4889000000.000000      6.678162000000000E-01      1.318604000000000E+01      3.401794000000000E-01     -1.596328000000000E+02
4890000000.000000      6.670532000000000E-01      1.320117000000000E+01      3.361664000000000E-01     -1.604453000000000E+02
4891000000.000000      6.715393000000000E-01      1.320801000000000E+01      3.323059000000000E-01     -1.604609000000000E+02
4892000000.000000      6.730652000000000E-01      1.306543000000000E+01      3.269653000000000E-01     -1.608125000000000E+02
4893000000.000000      6.735229000000000E-01      1.277832000000000E+01      3.235626000000000E-01     -1.612890000000000E+02
4894000000.000000      6.716003000000000E-01      1.293604000000000E+01      3.201904000000000E-01     -1.617109000000000E+02
4895000000.000000      6.747742000000000E-01      1.269873000000000E+01      3.178101000000000E-01     -1.620625000000000E+02
4896000000.000000      6.752014000000000E-01      1.262451000000000E+01      3.126221000000000E-01     -1.623437000000000E+02
4897000000.000000      6.761780000000000E-01      1.242676000000000E+01      3.086853000000000E-01     -1.627969000000000E+02
4898000000.000000      6.773682000000000E-01      1.247461000000000E+01      3.050079000000000E-01     -1.631172000000000E+02
4899000000.000000      6.784363000000000E-01      1.244434000000000E+01      3.013306000000000E-01     -1.636406000000000E+02
4900000000.000000      6.785583000000000E-01      1.232666000000000E+01      2.971497000000000E-01     -1.638984000000000E+02
4901000000.000000      6.786194000000000E-01      1.212158000000000E+01      2.941437000000000E-01     -1.641797000000000E+02
4902000000.000000      6.814270000000000E-01      1.212158000000000E+01      2.914124000000000E-01     -1.643750000000000E+02
4903000000.000000      6.786194000000000E-01      1.190625000000000E+01      2.861633000000000E-01     -1.648906000000000E+02
4904000000.000000      6.813049000000000E-01      1.182910000000000E+01      2.826385000000000E-01     -1.650859000000000E+02
4905000000.000000      6.808777000000000E-01      1.165332000000000E+01      2.800751000000000E-01     -1.653984000000000E+02
4906000000.000000      6.818542000000000E-01      1.158740000000000E+01      2.763977000000000E-01     -1.653984000000000E+02
4907000000.000000      6.842957000000000E-01      1.164941000000000E+01      2.727661000000000E-01     -1.660469000000000E+02
4908000000.000000      6.854858000000000E-01      1.134180000000000E+01      2.699585000000000E-01     -1.664219000000000E+02
4909000000.000000      6.832581000000000E-01      1.122070000000000E+01      2.659302000000000E-01     -1.667500000000000E+02
4910000000.000000      6.846313000000000E-01      1.143799000000000E+01      2.621155000000000E-01     -1.670156000000000E+02
4911000000.000000      6.869507000000000E-01      1.119336000000000E+01      2.589417000000000E-01     -1.672109000000000E+02
4912000000.000000      6.859741000000000E-01      1.116992000000000E+01      2.558136000000000E-01     -1.676719000000000E+02
4913000000.000000      6.875305000000000E-01      1.103271000000000E+01      2.519836000000000E-01     -1.679141000000000E+02
4914000000.000000      6.868896000000000E-01      1.100391000000000E+01      2.485809000000000E-01     -1.681875000000000E+02
4915000000.000000      6.892395000000000E-01      1.084326000000000E+01      2.448883000000000E-01     -1.685781000000000E+02
4916000000.000000      6.882629000000000E-01      1.078418000000000E+01      2.406998000000000E-01     -1.688125000000000E+02
4917000000.000000      6.890564000000000E-01      1.065771000000000E+01      2.374802000000000E-01     -1.689922000000000E+02
4918000000.000000      6.902161000000000E-01      1.052588000000000E+01      2.335968000000000E-01     -1.692188000000000E+02
4919000000.000000      6.900330000000000E-01      1.042578000000000E+01      2.309418000000000E-01     -1.693594000000000E+02
4920000000.000000      6.913147000000000E-01      1.004004000000000E+01      2.266388000000000E-01     -1.697500000000000E+02
4921000000.000000      6.907043000000000E-01      1.033496000000000E+01      2.231293000000000E-01     -1.698672000000000E+02
4922000000.000000      6.926575000000000E-01      1.000293000000000E+01      2.199326000000000E-01     -1.698516000000000E+02
4923000000.000000      6.926270000000000E-01      1.003174000000000E+01      2.157898000000000E-01     -1.700625000000000E+02
4924000000.000000      6.925659000000000E-01      1.001660000000000E+01      2.115784000000000E-01     -1.703750000000000E+02
4925000000.000000      6.922607000000000E-01      9.902344000000000E+00      2.085266000000000E-01     -1.705234000000000E+02
4926000000.000000      6.943665000000000E-01      9.719727000000000E+00      2.045135000000000E-01     -1.706875000000000E+02
4927000000.000000      6.947021000000000E-01      9.700684000000000E+00      2.004318000000000E-01     -1.708516000000000E+02
4928000000.000000      6.966858000000000E-01      9.506836000000000E+00      1.966629000000000E-01     -1.708203000000000E+02
4929000000.000000      6.950989000000000E-01      9.500000000000000E+00      1.930771000000000E-01     -1.706719000000000E+02
4930000000.000000      6.962280000000000E-01      9.318848000000000E+00      1.899109000000000E-01     -1.708750000000000E+02
4931000000.000000      6.959534000000000E-01      9.147461000000000E+00      1.862411000000000E-01     -1.709297000000000E+02
4932000000.000000      6.966858000000000E-01      9.022461000000000E+00      1.819534000000000E-01     -1.706328000000000E+02
4933000000.000000      6.979065000000000E-01      8.972656000000000E+00      1.778793000000000E-01     -1.704609000000000E+02
4934000000.000000      6.989746000000000E-01      8.953613000000000E+00      1.746521000000000E-01     -1.706016000000000E+02
4935000000.000000      6.972351000000000E-01      8.687012000000000E+00      1.713867000000000E-01     -1.702969000000000E+02
4936000000.000000      6.982727000000000E-01      8.752930000000000E+00      1.671753000000000E-01     -1.701641000000000E+02
4937000000.000000      6.981812000000000E-01      8.642090000000000E+00      1.636658000000000E-01     -1.700703000000000E+02
4938000000.000000      6.983337000000000E-01      8.715820000000000E+00      1.600037000000000E-01     -1.693750000000000E+02
4939000000.000000      6.989136000000000E-01      8.610352000000000E+00      1.564941000000000E-01     -1.689375000000000E+02
4940000000.000000      6.991882000000000E-01      8.371582000000000E+00      1.528168000000000E-01     -1.688516000000000E+02
4941000000.000000      7.022705000000000E-01      8.243652000000000E+00      1.498947000000000E-01     -1.681953000000000E+02
4942000000.000000      7.010498000000000E-01      8.255859000000000E+00      1.458588000000000E-01     -1.676484000000000E+02
4943000000.000000      7.028503000000000E-01      8.194336000000000E+00      1.424713000000000E-01     -1.670469000000000E+02
4944000000.000000      7.002563000000000E-01      8.030762000000000E+00      1.392059000000000E-01     -1.663203000000000E+02
4945000000.000000      7.008972000000000E-01      7.767334000000000E+00      1.361008000000000E-01     -1.657500000000000E+02
4946000000.000000      7.019043000000000E-01      7.717773000000000E+00      1.334457000000000E-01     -1.648906000000000E+02
4947000000.000000      7.029114000000000E-01      7.809814000000000E+00      1.298904000000000E-01     -1.637969000000000E+02
4948000000.000000      7.041626000000000E-01      7.629883000000000E+00      1.271896000000000E-01     -1.629688000000000E+02
4949000000.000000      7.029724000000000E-01      7.359375000000000E+00      1.248093000000000E-01     -1.616016000000000E+02
4950000000.000000      7.033386000000000E-01      7.393799000000000E+00      1.222610000000000E-01     -1.604844000000000E+02
4951000000.000000      7.052612000000000E-01      7.324951000000000E+00      1.195755000000000E-01     -1.594453000000000E+02
4952000000.000000      7.057800000000000E-01      7.199951000000000E+00      1.171570000000000E-01     -1.580937000000000E+02
4953000000.000000      7.055054000000000E-01      6.863525000000000E+00      1.150322000000000E-01     -1.565469000000000E+02
4954000000.000000      7.057800000000000E-01      6.922607000000000E+00      1.127052000000000E-01     -1.551406000000000E+02
