! Network Analyzer HP8722D
! Hewlett-Packard
! Data name: Linha & Wilkinson
! Saver's name: Rodrigo Anjos
! Comments: Teste da utilização de aquisição
continua pelo VNA HP8722D
! Time and date: 22/5/2025 16:49
!              Frequency                     S11                                                   S21                                                   S12                                                   S22
# HZ  S  MA R 50
4800000000.000000      6.513977000000000E-01      1.086230000000000E+01      4.715118000000000E-01     -9.267187000000000E+01
4801000000.000000      6.473999000000000E-01      1.117822000000000E+01      4.723816000000000E-01     -9.346483000000000E+01
4802000000.000000      6.466064000000000E-01      1.087061000000000E+01      4.765320000000000E-01     -9.413671000000000E+01
4803000000.000000      6.465149000000000E-01      1.102588000000000E+01      4.783783000000000E-01     -9.466797000000000E+01
4804000000.000000      6.421814000000000E-01      1.086230000000000E+01      4.790802000000000E-01     -9.585155000000000E+01
4805000000.000000      6.434631000000000E-01      1.103125000000000E+01      4.825287000000000E-01     -9.631639000000000E+01
4806000000.000000      6.411743000000000E-01      1.088867000000000E+01      4.827423000000000E-01     -9.719921000000000E+01
4807000000.000000      6.378174000000000E-01      1.080078000000000E+01      4.840546000000000E-01     -9.802343000000000E+01
4808000000.000000      6.362915000000000E-01      1.097510000000000E+01      4.853821000000000E-01     -9.885937000000000E+01
4809000000.000000      6.345520000000000E-01      1.110693000000000E+01      4.863129000000000E-01     -9.946875000000000E+01
4810000000.000000      6.347351000000000E-01      1.111230000000000E+01      4.885406000000000E-01     -1.000937000000000E+02
4811000000.000000      6.320190000000000E-01      1.109619000000000E+01      4.898529000000000E-01     -1.010664000000000E+02
4812000000.000000      6.328430000000000E-01      1.133496000000000E+01      4.919586000000000E-01     -1.016992000000000E+02
4813000000.000000      6.307068000000000E-01      1.114795000000000E+01      4.924164000000000E-01     -1.025859000000000E+02
4814000000.000000      6.283569000000000E-01      1.137744000000000E+01      4.934845000000000E-01     -1.033164000000000E+02
4815000000.000000      6.269531000000000E-01      1.130078000000000E+01      4.917603000000000E-01     -1.041406000000000E+02
4816000000.000000      6.267090000000000E-01      1.156152000000000E+01      4.940338000000000E-01     -1.047383000000000E+02
4817000000.000000      6.246033000000000E-01      1.151465000000000E+01      4.958954000000000E-01     -1.056172000000000E+02
4818000000.000000      6.239624000000000E-01      1.149854000000000E+01      4.942169000000000E-01     -1.062969000000000E+02
4819000000.000000      6.213684000000000E-01      1.171240000000000E+01      4.961395000000000E-01     -1.069453000000000E+02
4820000000.000000      6.222229000000000E-01      1.189795000000000E+01      4.969788000000000E-01     -1.077500000000000E+02
4821000000.000000      6.208801000000000E-01      1.185010000000000E+01      4.972992000000000E-01     -1.085195000000000E+02
4822000000.000000      6.175537000000000E-01      1.197754000000000E+01      4.955902000000000E-01     -1.092617000000000E+02
4823000000.000000      6.195984000000000E-01      1.201465000000000E+01      4.980927000000000E-01     -1.101445000000000E+02
4824000000.000000      6.174011000000000E-01      1.210254000000000E+01      4.976654000000000E-01     -1.107578000000000E+02
4825000000.000000      6.169434000000000E-01      1.234717000000000E+01      4.980164000000000E-01     -1.115351000000000E+02
4826000000.000000      6.142883000000000E-01      1.228125000000000E+01      5.008545000000000E-01     -1.125703000000000E+02
4827000000.000000      6.170654000000000E-01      1.249805000000000E+01      4.979706000000000E-01     -1.128711000000000E+02
4828000000.000000      6.157532000000000E-01      1.247461000000000E+01      4.983215000000000E-01     -1.137109000000000E+02
4829000000.000000      6.151123000000000E-01      1.283447000000000E+01      4.990692000000000E-01     -1.145703000000000E+02
4830000000.000000      6.134644000000000E-01      1.275879000000000E+01      4.992676000000000E-01     -1.152187000000000E+02
4831000000.000000      6.155396000000000E-01      1.277539000000000E+01      4.995575000000000E-01     -1.162852000000000E+02
4832000000.000000      6.164551000000000E-01      1.312451000000000E+01      4.974976000000000E-01     -1.167812000000000E+02
4833000000.000000      6.119995000000000E-01      1.308057000000000E+01      4.985809000000000E-01     -1.174453000000000E+02
4834000000.000000      6.124878000000000E-01      1.313379000000000E+01      4.984283000000000E-01     -1.184219000000000E+02
4835000000.000000      6.134949000000000E-01      1.324805000000000E+01      4.993286000000000E-01     -1.190937000000000E+02
4836000000.000000      6.154785000000000E-01      1.354199000000000E+01      4.977112000000000E-01     -1.199883000000000E+02
4837000000.000000      6.141968000000000E-01      1.380811000000000E+01      4.966278000000000E-01     -1.209336000000000E+02
4838000000.000000      6.121521000000000E-01      1.362012000000000E+01      4.975586000000000E-01     -1.213711000000000E+02
4839000000.000000      6.165771000000000E-01      1.386328000000000E+01      4.963531000000000E-01     -1.222148000000000E+02
4840000000.000000      6.153259000000000E-01      1.377686000000000E+01      4.962158000000000E-01     -1.230469000000000E+02
4841000000.000000      6.154175000000000E-01      1.389746000000000E+01      4.964294000000000E-01     -1.240078000000000E+02
4842000000.000000      6.149292000000000E-01      1.399219000000000E+01      4.958954000000000E-01     -1.246992000000000E+02
4843000000.000000      6.191711000000000E-01      1.391943000000000E+01      4.955597000000000E-01     -1.255937000000000E+02
4844000000.000000      6.173096000000000E-01      1.401855000000000E+01      4.937439000000000E-01     -1.263750000000000E+02
4845000000.000000      6.189575000000000E-01      1.445801000000000E+01      4.928284000000000E-01     -1.271367000000000E+02
4846000000.000000      6.197510000000000E-01      1.439990000000000E+01      4.901886000000000E-01     -1.281172000000000E+02
4847000000.000000      6.201782000000000E-01      1.461182000000000E+01      4.902344000000000E-01     -1.286875000000000E+02
4848000000.000000      6.198730000000000E-01      1.439990000000000E+01      4.882202000000000E-01     -1.297266000000000E+02
4849000000.000000      6.210022000000000E-01      1.445215000000000E+01      4.885101000000000E-01     -1.306641000000000E+02
4850000000.000000      6.210632000000000E-01      1.459766000000000E+01      4.842224000000000E-01     -1.312187000000000E+02
4851000000.000000      6.231689000000000E-01      1.481494000000000E+01      4.847107000000000E-01     -1.321563000000000E+02
4852000000.000000      6.243896000000000E-01      1.482324000000000E+01      4.810181000000000E-01     -1.328750000000000E+02
4853000000.000000      6.263733000000000E-01      1.470361000000000E+01      4.784546000000000E-01     -1.340078000000000E+02
4854000000.000000      6.271057000000000E-01      1.505225000000000E+01      4.772491000000000E-01     -1.349453000000000E+02
4855000000.000000      6.268005000000000E-01      1.488477000000000E+01      4.755554000000000E-01     -1.356250000000000E+02
4856000000.000000      6.280518000000000E-01      1.498242000000000E+01      4.715424000000000E-01     -1.366016000000000E+02
4857000000.000000      6.295776000000000E-01      1.525293000000000E+01      4.699249000000000E-01     -1.372031000000000E+02
4858000000.000000      6.305542000000000E-01      1.493408000000000E+01      4.687653000000000E-01     -1.380391000000000E+02
4859000000.000000      6.314087000000000E-01      1.497021000000000E+01      4.647522000000000E-01     -1.389297000000000E+02
4860000000.000000      6.310730000000000E-01      1.516504000000000E+01      4.609985000000000E-01     -1.398672000000000E+02
4861000000.000000      6.336975000000000E-01      1.508008000000000E+01      4.574127000000000E-01     -1.407500000000000E+02
4862000000.000000      6.345520000000000E-01      1.508545000000000E+01      4.557648000000000E-01     -1.415000000000000E+02
4863000000.000000      6.347961000000000E-01      1.510449000000000E+01      4.524384000000000E-01     -1.424141000000000E+02
4864000000.000000      6.377869000000000E-01      1.500830000000000E+01      4.473572000000000E-01     -1.429688000000000E+02
4865000000.000000      6.379700000000000E-01      1.514160000000000E+01      4.434509000000000E-01     -1.438047000000000E+02
4866000000.000000      6.391296000000000E-01      1.498389000000000E+01      4.404449000000000E-01     -1.447031000000000E+02
4867000000.000000      6.400146000000000E-01      1.511816000000000E+01      4.375763000000000E-01     -1.457266000000000E+02
4868000000.000000      6.408997000000000E-01      1.525439000000000E+01      4.320374000000000E-01     -1.463672000000000E+02
4869000000.000000      6.423035000000000E-01      1.506201000000000E+01      4.291229000000000E-01     -1.472344000000000E+02
4870000000.000000      6.448669000000000E-01      1.527881000000000E+01      4.250336000000000E-01     -1.478359000000000E+02
4871000000.000000      6.448669000000000E-01      1.498633000000000E+01      4.214020000000000E-01     -1.484766000000000E+02
4872000000.000000      6.479187000000000E-01      1.492041000000000E+01      4.160767000000000E-01     -1.491094000000000E+02
4873000000.000000      6.496277000000000E-01      1.505371000000000E+01      4.116821000000000E-01     -1.499453000000000E+02
4874000000.000000      6.499939000000000E-01      1.497949000000000E+01      4.078827000000000E-01     -1.505859000000000E+02
4875000000.000000      6.524353000000000E-01      1.485742000000000E+01      4.019318000000000E-01     -1.510937000000000E+02
4876000000.000000      6.540527000000000E-01      1.503613000000000E+01      3.979492000000000E-01     -1.519922000000000E+02
4877000000.000000      6.536560000000000E-01      1.475977000000000E+01      3.950958000000000E-01     -1.528437000000000E+02
4878000000.000000      6.546021000000000E-01      1.486572000000000E+01      3.892059000000000E-01     -1.532891000000000E+02
4879000000.000000      6.582031000000000E-01      1.470215000000000E+01      3.838196000000000E-01     -1.536484000000000E+02
4880000000.000000      6.576538000000000E-01      1.454150000000000E+01      3.803864000000000E-01     -1.543281000000000E+02
4881000000.000000      6.562195000000000E-01      1.451270000000000E+01      3.771210000000000E-01     -1.547969000000000E+02
4882000000.000000      6.615295000000000E-01      1.460205000000000E+01      3.728333000000000E-01     -1.555391000000000E+02
4883000000.000000      6.585999000000000E-01      1.436572000000000E+01      3.672333000000000E-01     -1.561563000000000E+02
4884000000.000000      6.612854000000000E-01      1.441797000000000E+01      3.635559000000000E-01     -1.566250000000000E+02
4885000000.000000      6.616821000000000E-01      1.425439000000000E+01      3.607788000000000E-01     -1.569375000000000E+02
4886000000.000000      6.654053000000000E-01      1.441406000000000E+01      3.549957000000000E-01     -1.572734000000000E+02
4887000000.000000      6.664734000000000E-01      1.425439000000000E+01      3.502502000000000E-01     -1.578984000000000E+02
4888000000.000000      6.670532000000000E-01      1.403223000000000E+01      3.475494000000000E-01     -1.582578000000000E+02
4889000000.000000      6.678772000000000E-01      1.403906000000000E+01      3.430786000000000E-01     -1.587344000000000E+02
4890000000.000000      6.681519000000000E-01      1.386475000000000E+01      3.373566000000000E-01     -1.596875000000000E+02
4891000000.000000      6.683960000000000E-01      1.381934000000000E+01      3.336945000000000E-01     -1.599297000000000E+02
4892000000.000000      6.698303000000000E-01      1.367383000000000E+01      3.296661000000000E-01     -1.598125000000000E+02
4893000000.000000      6.706848000000000E-01      1.378467000000000E+01      3.252258000000000E-01     -1.606562000000000E+02
4894000000.000000      6.735229000000000E-01      1.354590000000000E+01      3.212585000000000E-01     -1.609766000000000E+02
4895000000.000000      6.762390000000000E-01      1.328613000000000E+01      3.195953000000000E-01     -1.614219000000000E+02
4896000000.000000      6.741028000000000E-01      1.339063000000000E+01      3.143463000000000E-01     -1.616250000000000E+02
4897000000.000000      6.725464000000000E-01      1.341406000000000E+01      3.102875000000000E-01     -1.622344000000000E+02
4898000000.000000      6.750183000000000E-01      1.320801000000000E+01      3.070679000000000E-01     -1.623984000000000E+02
4899000000.000000      6.770630000000000E-01      1.307910000000000E+01      3.035889000000000E-01     -1.628438000000000E+02
4900000000.000000      6.782837000000000E-01      1.304199000000000E+01      2.994843000000000E-01     -1.631953000000000E+02
4901000000.000000      6.755981000000000E-01      1.302246000000000E+01      2.964630000000000E-01     -1.633672000000000E+02
4902000000.000000      6.803589000000000E-01      1.275879000000000E+01      2.927246000000000E-01     -1.638203000000000E+02
4903000000.000000      6.809998000000000E-01      1.288818000000000E+01      2.876740000000000E-01     -1.642266000000000E+02
4904000000.000000      6.808167000000000E-01      1.264795000000000E+01      2.851105000000000E-01     -1.646094000000000E+02
4905000000.000000      6.808777000000000E-01      1.245703000000000E+01      2.824554000000000E-01     -1.649765000000000E+02
4906000000.000000      6.810608000000000E-01      1.239355000000000E+01      2.785034000000000E-01     -1.650859000000000E+02
4907000000.000000      6.806030000000000E-01      1.223047000000000E+01      2.747803000000000E-01     -1.654219000000000E+02
4908000000.000000      6.850891000000000E-01      1.217529000000000E+01      2.715454000000000E-01     -1.658750000000000E+02
4909000000.000000      6.833801000000000E-01      1.214355000000000E+01      2.671509000000000E-01     -1.661172000000000E+02
4910000000.000000      6.833191000000000E-01      1.196387000000000E+01      2.645721000000000E-01     -1.665313000000000E+02
4911000000.000000      6.853638000000000E-01      1.186523000000000E+01      2.606659000000000E-01     -1.666797000000000E+02
4912000000.000000      6.860046000000000E-01      1.183350000000000E+01      2.570648000000000E-01     -1.669844000000000E+02
4913000000.000000      6.855774000000000E-01      1.154932000000000E+01      2.541046000000000E-01     -1.674219000000000E+02
4914000000.000000      6.875305000000000E-01      1.139648000000000E+01      2.500458000000000E-01     -1.675156000000000E+02
4915000000.000000      6.866150000000000E-01      1.139111000000000E+01      2.467804000000000E-01     -1.679375000000000E+02
4916000000.000000      6.901550000000000E-01      1.153809000000000E+01      2.430801000000000E-01     -1.682500000000000E+02
4917000000.000000      6.880188000000000E-01      1.136230000000000E+01      2.401047000000000E-01     -1.685390000000000E+02
4918000000.000000      6.894531000000000E-01      1.134180000000000E+01      2.356415000000000E-01     -1.687266000000000E+02
4919000000.000000      6.885376000000000E-01      1.110303000000000E+01      2.325592000000000E-01     -1.687344000000000E+02
4920000000.000000      6.897888000000000E-01      1.092139000000000E+01      2.289276000000000E-01     -1.693359000000000E+02
4921000000.000000      6.902161000000000E-01      1.094922000000000E+01      2.254410000000000E-01     -1.694219000000000E+02
4922000000.000000      6.926880000000000E-01      1.088574000000000E+01      2.211609000000000E-01     -1.695313000000000E+02
4923000000.000000      6.920776000000000E-01      1.073877000000000E+01      2.175674000000000E-01     -1.696563000000000E+02
4924000000.000000      6.929626000000000E-01      1.050391000000000E+01      2.135315000000000E-01     -1.701562000000000E+02
4925000000.000000      6.924744000000000E-01      1.045752000000000E+01      2.102585000000000E-01     -1.700469000000000E+02
4926000000.000000      6.943359000000000E-01      1.048340000000000E+01      2.072678000000000E-01     -1.702812000000000E+02
4927000000.000000      6.930847000000000E-01      1.027881000000000E+01      2.027206000000000E-01     -1.703672000000000E+02
4928000000.000000      6.940613000000000E-01      1.018408000000000E+01      1.992950000000000E-01     -1.705000000000000E+02
4929000000.000000      6.946716000000000E-01      1.006055000000000E+01      1.947403000000000E-01     -1.705000000000000E+02
4930000000.000000      6.951904000000000E-01      1.008936000000000E+01      1.916656000000000E-01     -1.705469000000000E+02
4931000000.000000      6.942749000000000E-01      1.005078000000000E+01      1.882706000000000E-01     -1.707031000000000E+02
4932000000.000000      6.951599000000000E-01      9.873535000000000E+00      1.844788000000000E-01     -1.706484000000000E+02
4933000000.000000      6.968079000000000E-01      9.759766000000000E+00      1.796494000000000E-01     -1.701719000000000E+02
4934000000.000000      6.987000000000000E-01      9.614258000000000E+00      1.762772000000000E-01     -1.705547000000000E+02
4935000000.000000      6.991882000000000E-01      9.652832000000000E+00      1.728821000000000E-01     -1.702266000000000E+02
4936000000.000000      6.963196000000000E-01      9.552246000000000E+00      1.692810000000000E-01     -1.699766000000000E+02
4937000000.000000      6.997070000000000E-01      9.265137000000000E+00      1.653214000000000E-01     -1.698281000000000E+02
4938000000.000000      6.993713000000000E-01      9.183105000000000E+00      1.613617000000000E-01     -1.693828000000000E+02
4939000000.000000      7.000427000000000E-01      9.206543000000000E+00      1.583023000000000E-01     -1.691172000000000E+02
4940000000.000000      7.008057000000000E-01      9.092285000000000E+00      1.541824000000000E-01     -1.688984000000000E+02
4941000000.000000      7.016296000000000E-01      8.978516000000000E+00      1.511154000000000E-01     -1.682266000000000E+02
4942000000.000000      7.019348000000000E-01      8.855957000000000E+00      1.475143000000000E-01     -1.679062000000000E+02
4943000000.000000      7.021484000000000E-01      8.901367000000000E+00      1.444321000000000E-01     -1.671953000000000E+02
4944000000.000000      7.004395000000000E-01      8.599121000000000E+00      1.407471000000000E-01     -1.664766000000000E+02
4945000000.000000      7.005920000000000E-01      8.466309000000000E+00      1.371384000000000E-01     -1.657656000000000E+02
4946000000.000000      7.030945000000000E-01      8.624023000000000E+00      1.342545000000000E-01     -1.651406000000000E+02
4947000000.000000      7.017822000000000E-01      8.402832000000000E+00      1.310806000000000E-01     -1.642969000000000E+02
4948000000.000000      7.041321000000000E-01      8.194336000000000E+00      1.285934000000000E-01     -1.632813000000000E+02
4949000000.000000      7.040710000000000E-01      8.270996000000000E+00      1.256638000000000E-01     -1.621641000000000E+02
4950000000.000000      7.047119000000000E-01      8.137695000000000E+00      1.226311000000000E-01     -1.610234000000000E+02
4951000000.000000      7.064514000000000E-01      8.092773000000000E+00      1.202927000000000E-01     -1.600781000000000E+02
4952000000.000000      7.058716000000000E-01      7.893555000000000E+00      1.177177000000000E-01     -1.586406000000000E+02
4953000000.000000      7.057495000000000E-01      7.852295000000000E+00      1.157951000000000E-01     -1.572422000000000E+02
4954000000.000000      7.062073000000000E-01      7.739746000000000E+00      1.134377000000000E-01     -1.556562000000000E+02
