! Network Analyzer HP8722D
! Hewlett-Packard
! Data name: Linha & Wilkinson
! Saver's name: Rodrigo Anjos
! Comments: Teste da utilização de aquisição
continua pelo VNA HP8722D
! Time and date: 22/5/2025 14:16
!              Frequency                     S11                                                   S21                                                   S12                                                   S22
# HZ  S  MA R 50
4800000000.000000      6.526489000000000E-01      1.096289000000000E+01      4.696960000000000E-01     -9.217968000000000E+01
4801000000.000000      6.503296000000000E-01      1.091602000000000E+01      4.716339000000000E-01     -9.257421000000000E+01
4802000000.000000      6.490173000000000E-01      1.093506000000000E+01      4.748688000000000E-01     -9.343359000000000E+01
4803000000.000000      6.463318000000000E-01      1.078418000000000E+01      4.777374000000000E-01     -9.409765000000000E+01
4804000000.000000      6.446228000000000E-01      1.089258000000000E+01      4.769135000000000E-01     -9.483984000000000E+01
4805000000.000000      6.462097000000000E-01      1.087744000000000E+01      4.805908000000000E-01     -9.557421000000000E+01
4806000000.000000      6.435852000000000E-01      1.081836000000000E+01      4.821625000000000E-01     -9.634766000000000E+01
4807000000.000000      6.390076000000000E-01      1.087500000000000E+01      4.822083000000000E-01     -9.724609000000000E+01
4808000000.000000      6.373291000000000E-01      1.084619000000000E+01      4.832153000000000E-01     -9.789843000000000E+01
4809000000.000000      6.365662000000000E-01      1.097119000000000E+01      4.852753000000000E-01     -9.907812000000000E+01
4810000000.000000      6.370239000000000E-01      1.088184000000000E+01      4.880066000000000E-01     -9.944921000000000E+01
4811000000.000000      6.355896000000000E-01      1.095703000000000E+01      4.883881000000000E-01     -1.004766000000000E+02
4812000000.000000      6.329956000000000E-01      1.116309000000000E+01      4.907990000000000E-01     -1.009609000000000E+02
4813000000.000000      6.318359000000000E-01      1.102295000000000E+01      4.910583000000000E-01     -1.017500000000000E+02
4814000000.000000      6.309204000000000E-01      1.104102000000000E+01      4.921722000000000E-01     -1.024609000000000E+02
4815000000.000000      6.274109000000000E-01      1.130859000000000E+01      4.931946000000000E-01     -1.033320000000000E+02
4816000000.000000      6.289978000000000E-01      1.129785000000000E+01      4.924774000000000E-01     -1.040664000000000E+02
4817000000.000000      6.254272000000000E-01      1.143115000000000E+01      4.943085000000000E-01     -1.047227000000000E+02
4818000000.000000      6.257019000000000E-01      1.144873000000000E+01      4.950562000000000E-01     -1.056094000000000E+02
4819000000.000000      6.230164000000000E-01      1.146533000000000E+01      4.944916000000000E-01     -1.062305000000000E+02
4820000000.000000      6.231079000000000E-01      1.165625000000000E+01      4.963074000000000E-01     -1.068867000000000E+02
4821000000.000000      6.222534000000000E-01      1.171387000000000E+01      4.964447000000000E-01     -1.079961000000000E+02
4822000000.000000      6.203613000000000E-01      1.161523000000000E+01      4.965515000000000E-01     -1.085938000000000E+02
4823000000.000000      6.200562000000000E-01      1.170166000000000E+01      4.983063000000000E-01     -1.093359000000000E+02
4824000000.000000      6.181335000000000E-01      1.201904000000000E+01      4.982605000000000E-01     -1.099570000000000E+02
4825000000.000000      6.165161000000000E-01      1.211914000000000E+01      4.968414000000000E-01     -1.107656000000000E+02
4826000000.000000      6.166992000000000E-01      1.207764000000000E+01      4.976807000000000E-01     -1.116875000000000E+02
4827000000.000000      6.166382000000000E-01      1.224561000000000E+01      4.983215000000000E-01     -1.123281000000000E+02
4828000000.000000      6.162720000000000E-01      1.230713000000000E+01      4.993439000000000E-01     -1.128750000000000E+02
4829000000.000000      6.151733000000000E-01      1.264648000000000E+01      4.991913000000000E-01     -1.138359000000000E+02
4830000000.000000      6.162415000000000E-01      1.250635000000000E+01      4.991760000000000E-01     -1.146992000000000E+02
4831000000.000000      6.161194000000000E-01      1.272900000000000E+01      5.007019000000000E-01     -1.155547000000000E+02
4832000000.000000      6.145325000000000E-01      1.294873000000000E+01      4.993896000000000E-01     -1.160273000000000E+02
4833000000.000000      6.121216000000000E-01      1.286084000000000E+01      4.999084000000000E-01     -1.167148000000000E+02
4834000000.000000      6.137695000000000E-01      1.277295000000000E+01      5.008850000000000E-01     -1.175078000000000E+02
4835000000.000000      6.148682000000000E-01      1.297754000000000E+01      4.994049000000000E-01     -1.185000000000000E+02
4836000000.000000      6.148376000000000E-01      1.315576000000000E+01      4.987488000000000E-01     -1.190703000000000E+02
4837000000.000000      6.144409000000000E-01      1.363232000000000E+01      4.978943000000000E-01     -1.201680000000000E+02
4838000000.000000      6.119385000000000E-01      1.350732000000000E+01      4.982300000000000E-01     -1.204961000000000E+02
4839000000.000000      6.163025000000000E-01      1.365967000000000E+01      4.987335000000000E-01     -1.215039000000000E+02
4840000000.000000      6.153870000000000E-01      1.368994000000000E+01      4.988251000000000E-01     -1.222109000000000E+02
4841000000.000000      6.164246000000000E-01      1.387939000000000E+01      4.985504000000000E-01     -1.230859000000000E+02
4842000000.000000      6.164246000000000E-01      1.399756000000000E+01      4.969482000000000E-01     -1.238125000000000E+02
4843000000.000000      6.169434000000000E-01      1.385889000000000E+01      4.969482000000000E-01     -1.245976000000000E+02
4844000000.000000      6.165161000000000E-01      1.410352000000000E+01      4.948730000000000E-01     -1.256289000000000E+02
4845000000.000000      6.181335000000000E-01      1.414746000000000E+01      4.945068000000000E-01     -1.264570000000000E+02
4846000000.000000      6.198425000000000E-01      1.430273000000000E+01      4.940796000000000E-01     -1.272812000000000E+02
4847000000.000000      6.192627000000000E-01      1.427490000000000E+01      4.922638000000000E-01     -1.279375000000000E+02
4848000000.000000      6.200867000000000E-01      1.434375000000000E+01      4.907990000000000E-01     -1.287969000000000E+02
4849000000.000000      6.203613000000000E-01      1.445801000000000E+01      4.899750000000000E-01     -1.298047000000000E+02
4850000000.000000      6.219482000000000E-01      1.456348000000000E+01      4.875793000000000E-01     -1.305469000000000E+02
4851000000.000000      6.249084000000000E-01      1.473779000000000E+01      4.882050000000000E-01     -1.314219000000000E+02
4852000000.000000      6.251221000000000E-01      1.460059000000000E+01      4.860382000000000E-01     -1.323437000000000E+02
4853000000.000000      6.230469000000000E-01      1.465576000000000E+01      4.811554000000000E-01     -1.331016000000000E+02
4854000000.000000      6.246643000000000E-01      1.483154000000000E+01      4.799957000000000E-01     -1.341328000000000E+02
4855000000.000000      6.267700000000000E-01      1.485889000000000E+01      4.785767000000000E-01     -1.350391000000000E+02
4856000000.000000      6.266785000000000E-01      1.493018000000000E+01      4.752197000000000E-01     -1.357578000000000E+02
4857000000.000000      6.290588000000000E-01      1.493311000000000E+01      4.741516000000000E-01     -1.363750000000000E+02
4858000000.000000      6.297302000000000E-01      1.486816000000000E+01      4.712982000000000E-01     -1.374687000000000E+02
4859000000.000000      6.294861000000000E-01      1.478467000000000E+01      4.689789000000000E-01     -1.383281000000000E+02
4860000000.000000      6.296692000000000E-01      1.510205000000000E+01      4.651031000000000E-01     -1.391484000000000E+02
4861000000.000000      6.337585000000000E-01      1.507324000000000E+01      4.617157000000000E-01     -1.399922000000000E+02
4862000000.000000      6.327820000000000E-01      1.497412000000000E+01      4.593048000000000E-01     -1.407500000000000E+02
4863000000.000000      6.375732000000000E-01      1.498096000000000E+01      4.546814000000000E-01     -1.416797000000000E+02
4864000000.000000      6.380310000000000E-01      1.504395000000000E+01      4.521942000000000E-01     -1.424844000000000E+02
4865000000.000000      6.376038000000000E-01      1.497266000000000E+01      4.484253000000000E-01     -1.429688000000000E+02
4866000000.000000      6.379700000000000E-01      1.487793000000000E+01      4.450226000000000E-01     -1.441562000000000E+02
4867000000.000000      6.402588000000000E-01      1.498242000000000E+01      4.406281000000000E-01     -1.449844000000000E+02
4868000000.000000      6.406555000000000E-01      1.502930000000000E+01      4.373474000000000E-01     -1.456406000000000E+02
4869000000.000000      6.412354000000000E-01      1.492871000000000E+01      4.323730000000000E-01     -1.465703000000000E+02
4870000000.000000      6.432800000000000E-01      1.509766000000000E+01      4.280853000000000E-01     -1.470625000000000E+02
4871000000.000000      6.434326000000000E-01      1.475146000000000E+01      4.256439000000000E-01     -1.478750000000000E+02
4872000000.000000      6.472778000000000E-01      1.485596000000000E+01      4.207153000000000E-01     -1.483984000000000E+02
4873000000.000000      6.473999000000000E-01      1.505371000000000E+01      4.165039000000000E-01     -1.494922000000000E+02
4874000000.000000      6.491699000000000E-01      1.497119000000000E+01      4.124451000000000E-01     -1.501562000000000E+02
4875000000.000000      6.506042000000000E-01      1.478320000000000E+01      4.075775000000000E-01     -1.506875000000000E+02
4876000000.000000      6.512451000000000E-01      1.488477000000000E+01      4.034882000000000E-01     -1.515625000000000E+02
4877000000.000000      6.537170000000000E-01      1.460596000000000E+01      3.997955000000000E-01     -1.521875000000000E+02
4878000000.000000      6.535645000000000E-01      1.472021000000000E+01      3.952332000000000E-01     -1.526875000000000E+02
4879000000.000000      6.561890000000000E-01      1.463770000000000E+01      3.890076000000000E-01     -1.530859000000000E+02
4880000000.000000      6.572266000000000E-01      1.457568000000000E+01      3.854675000000000E-01     -1.539531000000000E+02
4881000000.000000      6.578064000000000E-01      1.461963000000000E+01      3.817291000000000E-01     -1.545078000000000E+02
4882000000.000000      6.606140000000000E-01      1.438379000000000E+01      3.777466000000000E-01     -1.550547000000000E+02
4883000000.000000      6.594238000000000E-01      1.425439000000000E+01      3.732910000000000E-01     -1.556250000000000E+02
4884000000.000000      6.625366000000000E-01      1.442334000000000E+01      3.690948000000000E-01     -1.562031000000000E+02
4885000000.000000      6.629639000000000E-01      1.433691000000000E+01      3.638458000000000E-01     -1.563359000000000E+02
4886000000.000000      6.653137000000000E-01      1.431348000000000E+01      3.595886000000000E-01     -1.570859000000000E+02
4887000000.000000      6.663818000000000E-01      1.431885000000000E+01      3.560944000000000E-01     -1.577891000000000E+02
4888000000.000000      6.666260000000000E-01      1.414307000000000E+01      3.518982000000000E-01     -1.580391000000000E+02
4889000000.000000      6.686096000000000E-01      1.391797000000000E+01      3.468781000000000E-01     -1.585078000000000E+02
4890000000.000000      6.659546000000000E-01      1.381787000000000E+01      3.416138000000000E-01     -1.592891000000000E+02
4891000000.000000      6.700745000000000E-01      1.386719000000000E+01      3.364716000000000E-01     -1.596953000000000E+02
4892000000.000000      6.694031000000000E-01      1.386328000000000E+01      3.342896000000000E-01     -1.599453000000000E+02
4893000000.000000      6.710205000000000E-01      1.367920000000000E+01      3.294220000000000E-01     -1.602734000000000E+02
4894000000.000000      6.719360000000000E-01      1.354199000000000E+01      3.258057000000000E-01     -1.608594000000000E+02
4895000000.000000      6.745300000000000E-01      1.347021000000000E+01      3.213348000000000E-01     -1.611172000000000E+02
4896000000.000000      6.748657000000000E-01      1.354736000000000E+01      3.189087000000000E-01     -1.615234000000000E+02
4897000000.000000      6.745911000000000E-01      1.328760000000000E+01      3.146362000000000E-01     -1.619688000000000E+02
4898000000.000000      6.759644000000000E-01      1.328516000000000E+01      3.108978000000000E-01     -1.620937000000000E+02
4899000000.000000      6.770935000000000E-01      1.319580000000000E+01      3.065186000000000E-01     -1.626328000000000E+02
4900000000.000000      6.798401000000000E-01      1.300635000000000E+01      3.038330000000000E-01     -1.630547000000000E+02
4901000000.000000      6.787720000000000E-01      1.296387000000000E+01      2.999725000000000E-01     -1.632266000000000E+02
4902000000.000000      6.802063000000000E-01      1.285645000000000E+01      2.972565000000000E-01     -1.635156000000000E+02
4903000000.000000      6.811218000000000E-01      1.277832000000000E+01      2.920837000000000E-01     -1.640234000000000E+02
4904000000.000000      6.820374000000000E-01      1.255322000000000E+01      2.889862000000000E-01     -1.643594000000000E+02
4905000000.000000      6.815491000000000E-01      1.258057000000000E+01      2.865601000000000E-01     -1.648594000000000E+02
4906000000.000000      6.820068000000000E-01      1.243652000000000E+01      2.825928000000000E-01     -1.647812000000000E+02
4907000000.000000      6.836853000000000E-01      1.231396000000000E+01      2.790070000000000E-01     -1.653437000000000E+02
4908000000.000000      6.859436000000000E-01      1.214502000000000E+01      2.758484000000000E-01     -1.657344000000000E+02
4909000000.000000      6.843872000000000E-01      1.197900000000000E+01      2.717285000000000E-01     -1.659922000000000E+02
4910000000.000000      6.840515000000000E-01      1.204492000000000E+01      2.681274000000000E-01     -1.662031000000000E+02
4911000000.000000      6.864624000000000E-01      1.193896000000000E+01      2.652283000000000E-01     -1.664922000000000E+02
4912000000.000000      6.867065000000000E-01      1.195850000000000E+01      2.613525000000000E-01     -1.670781000000000E+02
4913000000.000000      6.858826000000000E-01      1.171240000000000E+01      2.578583000000000E-01     -1.673047000000000E+02
4914000000.000000      6.876221000000000E-01      1.152979000000000E+01      2.543945000000000E-01     -1.674062000000000E+02
4915000000.000000      6.875305000000000E-01      1.170996000000000E+01      2.508392000000000E-01     -1.680078000000000E+02
4916000000.000000      6.877747000000000E-01      1.147070000000000E+01      2.473450000000000E-01     -1.682266000000000E+02
4917000000.000000      6.894531000000000E-01      1.124268000000000E+01      2.432938000000000E-01     -1.684766000000000E+02
4918000000.000000      6.895142000000000E-01      1.121533000000000E+01      2.400742000000000E-01     -1.687656000000000E+02
4919000000.000000      6.901855000000000E-01      1.122803000000000E+01      2.359390000000000E-01     -1.687031000000000E+02
4920000000.000000      6.912842000000000E-01      1.094336000000000E+01      2.323837000000000E-01     -1.693359000000000E+02
4921000000.000000      6.933594000000000E-01      1.109033000000000E+01      2.291870000000000E-01     -1.694687000000000E+02
4922000000.000000      6.927185000000000E-01      1.085693000000000E+01      2.248917000000000E-01     -1.695703000000000E+02
4923000000.000000      6.926575000000000E-01      1.090088000000000E+01      2.212143000000000E-01     -1.697891000000000E+02
4924000000.000000      6.913452000000000E-01      1.062207000000000E+01      2.180176000000000E-01     -1.702031000000000E+02
4925000000.000000      6.940002000000000E-01      1.046582000000000E+01      2.144623000000000E-01     -1.702031000000000E+02
4926000000.000000      6.936035000000000E-01      1.043408000000000E+01      2.107468000000000E-01     -1.704922000000000E+02
4927000000.000000      6.942749000000000E-01      1.027881000000000E+01      2.063293000000000E-01     -1.704297000000000E+02
4928000000.000000      6.951599000000000E-01      1.010449000000000E+01      2.032623000000000E-01     -1.706563000000000E+02
4929000000.000000      6.954651000000000E-01      1.019922000000000E+01      1.990967000000000E-01     -1.707734000000000E+02
4930000000.000000      6.965637000000000E-01      1.006055000000000E+01      1.957779000000000E-01     -1.710078000000000E+02
4931000000.000000      6.934814000000000E-01      9.947754000000000E+00      1.917648000000000E-01     -1.710000000000000E+02
4932000000.000000      6.955872000000000E-01      9.796875000000000E+00      1.878204000000000E-01     -1.709531000000000E+02
4933000000.000000      6.974487000000000E-01      9.755859000000000E+00      1.832199000000000E-01     -1.709453000000000E+02
4934000000.000000      6.973877000000000E-01      9.703613000000000E+00      1.799316000000000E-01     -1.709531000000000E+02
4935000000.000000      6.998901000000000E-01      9.534668000000000E+00      1.767273000000000E-01     -1.704062000000000E+02
4936000000.000000      6.978455000000000E-01      9.286133000000000E+00      1.724854000000000E-01     -1.704062000000000E+02
4937000000.000000      6.986084000000000E-01      9.257324000000000E+00      1.684189000000000E-01     -1.703281000000000E+02
4938000000.000000      6.984863000000000E-01      9.426270000000000E+00      1.651459000000000E-01     -1.701172000000000E+02
4939000000.000000      6.995544000000000E-01      9.250488000000000E+00      1.614304000000000E-01     -1.699609000000000E+02
4940000000.000000      6.983337000000000E-01      9.040039000000000E+00      1.574936000000000E-01     -1.696484000000000E+02
4941000000.000000      6.998596000000000E-01      9.002930000000000E+00      1.538620000000000E-01     -1.690547000000000E+02
4942000000.000000      7.007751000000000E-01      8.990723000000000E+00      1.504211000000000E-01     -1.686563000000000E+02
4943000000.000000      7.008057000000000E-01      8.882324000000000E+00      1.470795000000000E-01     -1.681953000000000E+02
4944000000.000000      7.023621000000000E-01      8.655762000000000E+00      1.438828000000000E-01     -1.676250000000000E+02
4945000000.000000      7.030640000000000E-01      8.562012000000000E+00      1.400909000000000E-01     -1.669765000000000E+02
4946000000.000000      7.022705000000000E-01      8.571777000000000E+00      1.367950000000000E-01     -1.663672000000000E+02
4947000000.000000      7.036133000000000E-01      8.414063000000000E+00      1.330795000000000E-01     -1.654844000000000E+02
4948000000.000000      7.055969000000000E-01      8.330078000000000E+00      1.307678000000000E-01     -1.646250000000000E+02
4949000000.000000      7.028503000000000E-01      8.242188000000000E+00      1.275482000000000E-01     -1.634844000000000E+02
4950000000.000000      7.060852000000000E-01      8.221680000000000E+00      1.249466000000000E-01     -1.628203000000000E+02
4951000000.000000      7.053833000000000E-01      8.152832000000000E+00      1.221809000000000E-01     -1.615234000000000E+02
4952000000.000000      7.037048000000000E-01      7.954102000000000E+00      1.192627000000000E-01     -1.603281000000000E+02
4953000000.000000      7.054749000000000E-01      7.973145000000000E+00      1.174698000000000E-01     -1.588203000000000E+02
4954000000.000000      7.079468000000000E-01      7.757568000000000E+00      1.149101000000000E-01     -1.575625000000000E+02
