! Network Analyzer HP8722D
! Hewlett-Packard
! Data name: Linha & Wilkinson
! Saver's name: Rodrigo Anjos
! Comments: Teste da utilização de aquisição
continua pelo VNA HP8722D
! Time and date: 22/5/2025 14:06
!              Frequency                     S11                                                   S21                                                   S12                                                   S22
# HZ  S  MA R 50
4800000000.000000      6.521912000000000E-01      1.092822000000000E+01      4.697418000000000E-01     -9.206249000000000E+01
4801000000.000000      6.506348000000000E-01      1.109180000000000E+01      4.710999000000000E-01     -9.278124000000000E+01
4802000000.000000      6.482849000000000E-01      1.092578000000000E+01      4.746552000000000E-01     -9.350780000000000E+01
4803000000.000000      6.466980000000000E-01      1.083643000000000E+01      4.778748000000000E-01     -9.433203000000000E+01
4804000000.000000      6.456909000000000E-01      1.077051000000000E+01      4.785919000000000E-01     -9.517578000000000E+01
4805000000.000000      6.445007000000000E-01      1.085010000000000E+01      4.810486000000000E-01     -9.575390000000000E+01
4806000000.000000      6.411133000000000E-01      1.092578000000000E+01      4.813995000000000E-01     -9.644531000000000E+01
4807000000.000000      6.399536000000000E-01      1.082275000000000E+01      4.817810000000000E-01     -9.750389000000000E+01
4808000000.000000      6.373901000000000E-01      1.095313000000000E+01      4.848633000000000E-01     -9.814842000000000E+01
4809000000.000000      6.362610000000000E-01      1.107959000000000E+01      4.863434000000000E-01     -9.888281000000000E+01
4810000000.000000      6.350708000000000E-01      1.089697000000000E+01      4.875641000000000E-01     -9.947655000000000E+01
4811000000.000000      6.334229000000000E-01      1.082422000000000E+01      4.888763000000000E-01     -1.004688000000000E+02
4812000000.000000      6.337280000000000E-01      1.112744000000000E+01      4.899445000000000E-01     -1.012148000000000E+02
4813000000.000000      6.325378000000000E-01      1.101221000000000E+01      4.905548000000000E-01     -1.021094000000000E+02
4814000000.000000      6.288452000000000E-01      1.114697000000000E+01      4.929352000000000E-01     -1.027266000000000E+02
4815000000.000000      6.273804000000000E-01      1.121826000000000E+01      4.919434000000000E-01     -1.031758000000000E+02
4816000000.000000      6.273193000000000E-01      1.124268000000000E+01      4.947510000000000E-01     -1.039219000000000E+02
4817000000.000000      6.250610000000000E-01      1.146143000000000E+01      4.937744000000000E-01     -1.050391000000000E+02
4818000000.000000      6.246338000000000E-01      1.134863000000000E+01      4.945221000000000E-01     -1.057070000000000E+02
4819000000.000000      6.241760000000000E-01      1.157373000000000E+01      4.949341000000000E-01     -1.063555000000000E+02
4820000000.000000      6.217346000000000E-01      1.162061000000000E+01      4.962769000000000E-01     -1.069961000000000E+02
4821000000.000000      6.221008000000000E-01      1.164258000000000E+01      4.974823000000000E-01     -1.080937000000000E+02
4822000000.000000      6.192932000000000E-01      1.157666000000000E+01      4.963379000000000E-01     -1.086875000000000E+02
4823000000.000000      6.197205000000000E-01      1.175098000000000E+01      4.983063000000000E-01     -1.093750000000000E+02
4824000000.000000      6.179810000000000E-01      1.193799000000000E+01      4.970703000000000E-01     -1.101015000000000E+02
4825000000.000000      6.181641000000000E-01      1.190186000000000E+01      4.979095000000000E-01     -1.108516000000000E+02
4826000000.000000      6.161194000000000E-01      1.191602000000000E+01      4.983978000000000E-01     -1.117148000000000E+02
4827000000.000000      6.167297000000000E-01      1.235938000000000E+01      4.989319000000000E-01     -1.123320000000000E+02
4828000000.000000      6.160583000000000E-01      1.237842000000000E+01      4.982300000000000E-01     -1.131445000000000E+02
4829000000.000000      6.153259000000000E-01      1.269580000000000E+01      4.984741000000000E-01     -1.139063000000000E+02
4830000000.000000      6.137390000000000E-01      1.252832000000000E+01      4.992981000000000E-01     -1.146953000000000E+02
4831000000.000000      6.151123000000000E-01      1.252002000000000E+01      4.997559000000000E-01     -1.155351000000000E+02
4832000000.000000      6.156921000000000E-01      1.295947000000000E+01      4.998932000000000E-01     -1.161328000000000E+02
4833000000.000000      6.125793000000000E-01      1.294434000000000E+01      4.987793000000000E-01     -1.168047000000000E+02
4834000000.000000      6.130066000000000E-01      1.298438000000000E+01      4.997101000000000E-01     -1.178281000000000E+02
4835000000.000000      6.136169000000000E-01      1.317090000000000E+01      5.000610000000000E-01     -1.186836000000000E+02
4836000000.000000      6.119080000000000E-01      1.321240000000000E+01      4.987640000000000E-01     -1.193008000000000E+02
4837000000.000000      6.116028000000000E-01      1.353516000000000E+01      4.977417000000000E-01     -1.201641000000000E+02
4838000000.000000      6.130371000000000E-01      1.342090000000000E+01      4.984131000000000E-01     -1.206367000000000E+02
4839000000.000000      6.145935000000000E-01      1.383838000000000E+01      4.972992000000000E-01     -1.215781000000000E+02
4840000000.000000      6.148376000000000E-01      1.353223000000000E+01      4.980316000000000E-01     -1.223750000000000E+02
4841000000.000000      6.146545000000000E-01      1.394971000000000E+01      4.980011000000000E-01     -1.231836000000000E+02
4842000000.000000      6.152344000000000E-01      1.381641000000000E+01      4.972534000000000E-01     -1.239922000000000E+02
4843000000.000000      6.158752000000000E-01      1.391553000000000E+01      4.972534000000000E-01     -1.249062000000000E+02
4844000000.000000      6.167603000000000E-01      1.393994000000000E+01      4.954529000000000E-01     -1.257891000000000E+02
4845000000.000000      6.166687000000000E-01      1.419971000000000E+01      4.944916000000000E-01     -1.264726000000000E+02
4846000000.000000      6.188354000000000E-01      1.420654000000000E+01      4.938507000000000E-01     -1.273476000000000E+02
4847000000.000000      6.189575000000000E-01      1.443018000000000E+01      4.931946000000000E-01     -1.281016000000000E+02
4848000000.000000      6.189270000000000E-01      1.455371000000000E+01      4.898529000000000E-01     -1.289375000000000E+02
4849000000.000000      6.211243000000000E-01      1.451807000000000E+01      4.896545000000000E-01     -1.299141000000000E+02
4850000000.000000      6.211853000000000E-01      1.447998000000000E+01      4.879608000000000E-01     -1.307422000000000E+02
4851000000.000000      6.227112000000000E-01      1.475439000000000E+01      4.856110000000000E-01     -1.316094000000000E+02
4852000000.000000      6.253357000000000E-01      1.463916000000000E+01      4.840088000000000E-01     -1.324141000000000E+02
4853000000.000000      6.238403000000000E-01      1.462793000000000E+01      4.804077000000000E-01     -1.334063000000000E+02
4854000000.000000      6.258240000000000E-01      1.472266000000000E+01      4.784393000000000E-01     -1.340859000000000E+02
4855000000.000000      6.263733000000000E-01      1.475146000000000E+01      4.778137000000000E-01     -1.349609000000000E+02
4856000000.000000      6.275940000000000E-01      1.482178000000000E+01      4.751282000000000E-01     -1.359062000000000E+02
4857000000.000000      6.277161000000000E-01      1.491943000000000E+01      4.732056000000000E-01     -1.367656000000000E+02
4858000000.000000      6.273193000000000E-01      1.488086000000000E+01      4.702759000000000E-01     -1.375469000000000E+02
4859000000.000000      6.320496000000000E-01      1.491357000000000E+01      4.673920000000000E-01     -1.384297000000000E+02
4860000000.000000      6.314392000000000E-01      1.487256000000000E+01      4.635468000000000E-01     -1.393828000000000E+02
4861000000.000000      6.320190000000000E-01      1.497803000000000E+01      4.611511000000000E-01     -1.401641000000000E+02
4862000000.000000      6.317139000000000E-01      1.506885000000000E+01      4.591522000000000E-01     -1.408125000000000E+02
4863000000.000000      6.340637000000000E-01      1.513184000000000E+01      4.550476000000000E-01     -1.417891000000000E+02
4864000000.000000      6.353455000000000E-01      1.504297000000000E+01      4.522247000000000E-01     -1.425859000000000E+02
4865000000.000000      6.379089000000000E-01      1.503027000000000E+01      4.471283000000000E-01     -1.434062000000000E+02
4866000000.000000      6.397400000000000E-01      1.490137000000000E+01      4.439697000000000E-01     -1.443906000000000E+02
4867000000.000000      6.387939000000000E-01      1.488232000000000E+01      4.399261000000000E-01     -1.450156000000000E+02
4868000000.000000      6.403503000000000E-01      1.505811000000000E+01      4.355927000000000E-01     -1.457578000000000E+02
4869000000.000000      6.428528000000000E-01      1.501270000000000E+01      4.322510000000000E-01     -1.465937000000000E+02
4870000000.000000      6.415405000000000E-01      1.491797000000000E+01      4.284058000000000E-01     -1.471016000000000E+02
4871000000.000000      6.442566000000000E-01      1.480518000000000E+01      4.250183000000000E-01     -1.481797000000000E+02
4872000000.000000      6.477966000000000E-01      1.493555000000000E+01      4.200592000000000E-01     -1.487266000000000E+02
4873000000.000000      6.475220000000000E-01      1.501660000000000E+01      4.156036000000000E-01     -1.494844000000000E+02
4874000000.000000      6.485291000000000E-01      1.483398000000000E+01      4.119568000000000E-01     -1.502031000000000E+02
4875000000.000000      6.493530000000000E-01      1.486426000000000E+01      4.075317000000000E-01     -1.507813000000000E+02
4876000000.000000      6.513977000000000E-01      1.486963000000000E+01      4.041901000000000E-01     -1.516328000000000E+02
4877000000.000000      6.521606000000000E-01      1.465674000000000E+01      3.983459000000000E-01     -1.522187000000000E+02
4878000000.000000      6.526489000000000E-01      1.453320000000000E+01      3.945770000000000E-01     -1.527656000000000E+02
4879000000.000000      6.568909000000000E-01      1.461035000000000E+01      3.884125000000000E-01     -1.531563000000000E+02
4880000000.000000      6.577759000000000E-01      1.471729000000000E+01      3.843384000000000E-01     -1.540781000000000E+02
4881000000.000000      6.571350000000000E-01      1.458545000000000E+01      3.804016000000000E-01     -1.545547000000000E+02
4882000000.000000      6.604004000000000E-01      1.449902000000000E+01      3.765564000000000E-01     -1.549687000000000E+02
4883000000.000000      6.595459000000000E-01      1.428223000000000E+01      3.709259000000000E-01     -1.558672000000000E+02
4884000000.000000      6.608582000000000E-01      1.434375000000000E+01      3.666077000000000E-01     -1.562031000000000E+02
4885000000.000000      6.620483000000000E-01      1.421875000000000E+01      3.644104000000000E-01     -1.566797000000000E+02
4886000000.000000      6.639709000000000E-01      1.439209000000000E+01      3.598785000000000E-01     -1.571719000000000E+02
4887000000.000000      6.662903000000000E-01      1.425732000000000E+01      3.557434000000000E-01     -1.576406000000000E+02
4888000000.000000      6.667786000000000E-01      1.395361000000000E+01      3.524475000000000E-01     -1.583516000000000E+02
4889000000.000000      6.673584000000000E-01      1.408154000000000E+01      3.451385000000000E-01     -1.586484000000000E+02
4890000000.000000      6.681213000000000E-01      1.396338000000000E+01      3.411865000000000E-01     -1.592344000000000E+02
4891000000.000000      6.688843000000000E-01      1.373389000000000E+01      3.373718000000000E-01     -1.595156000000000E+02
4892000000.000000      6.688843000000000E-01      1.378223000000000E+01      3.331299000000000E-01     -1.598125000000000E+02
4893000000.000000      6.714478000000000E-01      1.366406000000000E+01      3.287506000000000E-01     -1.604219000000000E+02
4894000000.000000      6.712036000000000E-01      1.368457000000000E+01      3.249054000000000E-01     -1.607344000000000E+02
4895000000.000000      6.731567000000000E-01      1.332471000000000E+01      3.224792000000000E-01     -1.612500000000000E+02
4896000000.000000      6.739807000000000E-01      1.333740000000000E+01      3.185730000000000E-01     -1.615547000000000E+02
4897000000.000000      6.741028000000000E-01      1.351025000000000E+01      3.144836000000000E-01     -1.619531000000000E+02
4898000000.000000      6.758423000000000E-01      1.320557000000000E+01      3.106384000000000E-01     -1.621562000000000E+02
4899000000.000000      6.767883000000000E-01      1.328076000000000E+01      3.070679000000000E-01     -1.627812000000000E+02
4900000000.000000      6.788330000000000E-01      1.285400000000000E+01      3.032227000000000E-01     -1.629766000000000E+02
4901000000.000000      6.787109000000000E-01      1.290039000000000E+01      2.996826000000000E-01     -1.633516000000000E+02
4902000000.000000      6.808472000000000E-01      1.290039000000000E+01      2.960052000000000E-01     -1.634375000000000E+02
4903000000.000000      6.804810000000000E-01      1.283740000000000E+01      2.915497000000000E-01     -1.640391000000000E+02
4904000000.000000      6.813660000000000E-01      1.263965000000000E+01      2.885590000000000E-01     -1.645000000000000E+02
4905000000.000000      6.816406000000000E-01      1.243506000000000E+01      2.855682000000000E-01     -1.647891000000000E+02
4906000000.000000      6.802063000000000E-01      1.228271000000000E+01      2.818451000000000E-01     -1.647812000000000E+02
4907000000.000000      6.840820000000000E-01      1.227002000000000E+01      2.781677000000000E-01     -1.652187000000000E+02
4908000000.000000      6.849060000000000E-01      1.215088000000000E+01      2.749481000000000E-01     -1.657500000000000E+02
4909000000.000000      6.852112000000000E-01      1.215186000000000E+01      2.709808000000000E-01     -1.661328000000000E+02
4910000000.000000      6.842957000000000E-01      1.210107000000000E+01      2.683105000000000E-01     -1.663359000000000E+02
4911000000.000000      6.854248000000000E-01      1.187988000000000E+01      2.646637000000000E-01     -1.665781000000000E+02
4912000000.000000      6.852112000000000E-01      1.187061000000000E+01      2.610321000000000E-01     -1.669609000000000E+02
4913000000.000000      6.871643000000000E-01      1.177441000000000E+01      2.581024000000000E-01     -1.673203000000000E+02
4914000000.000000      6.881714000000000E-01      1.152295000000000E+01      2.543640000000000E-01     -1.674844000000000E+02
4915000000.000000      6.881409000000000E-01      1.162451000000000E+01      2.501068000000000E-01     -1.678828000000000E+02
4916000000.000000      6.890259000000000E-01      1.145703000000000E+01      2.466812000000000E-01     -1.682500000000000E+02
4917000000.000000      6.882935000000000E-01      1.118652000000000E+01      2.428970000000000E-01     -1.685390000000000E+02
4918000000.000000      6.890259000000000E-01      1.128564000000000E+01      2.391968000000000E-01     -1.686953000000000E+02
4919000000.000000      6.924133000000000E-01      1.120459000000000E+01      2.361069000000000E-01     -1.689375000000000E+02
4920000000.000000      6.915283000000000E-01      1.081445000000000E+01      2.316055000000000E-01     -1.692734000000000E+02
4921000000.000000      6.916504000000000E-01      1.098193000000000E+01      2.287140000000000E-01     -1.694609000000000E+02
4922000000.000000      6.925354000000000E-01      1.069482000000000E+01      2.250290000000000E-01     -1.696640000000000E+02
4923000000.000000      6.922607000000000E-01      1.083789000000000E+01      2.209549000000000E-01     -1.697187000000000E+02
4924000000.000000      6.934204000000000E-01      1.064404000000000E+01      2.173538000000000E-01     -1.701406000000000E+02
4925000000.000000      6.921692000000000E-01      1.060156000000000E+01      2.137451000000000E-01     -1.702734000000000E+02
4926000000.000000      6.930847000000000E-01      1.047949000000000E+01      2.099686000000000E-01     -1.704766000000000E+02
4927000000.000000      6.945801000000000E-01      1.051221000000000E+01      2.064133000000000E-01     -1.706484000000000E+02
4928000000.000000      6.973572000000000E-01      1.011426000000000E+01      2.031174000000000E-01     -1.706328000000000E+02
4929000000.000000      6.938171000000000E-01      1.007568000000000E+01      1.980209000000000E-01     -1.707500000000000E+02
4930000000.000000      6.973572000000000E-01      1.009766000000000E+01      1.951752000000000E-01     -1.708516000000000E+02
4931000000.000000      6.963501000000000E-01      9.888672000000000E+00      1.915894000000000E-01     -1.706953000000000E+02
4932000000.000000      6.960144000000000E-01      9.800781000000000E+00      1.879044000000000E-01     -1.707813000000000E+02
4933000000.000000      6.967163000000000E-01      9.678711000000000E+00      1.825867000000000E-01     -1.708203000000000E+02
4934000000.000000      6.983948000000000E-01      9.574219000000000E+00      1.795578000000000E-01     -1.708828000000000E+02
4935000000.000000      6.983948000000000E-01      9.549805000000000E+00      1.763000000000000E-01     -1.704062000000000E+02
4936000000.000000      6.980896000000000E-01      9.431641000000000E+00      1.724548000000000E-01     -1.704922000000000E+02
4937000000.000000      6.994324000000000E-01      9.350586000000000E+00      1.681061000000000E-01     -1.702891000000000E+02
4938000000.000000      6.987915000000000E-01      9.340820000000000E+00      1.644592000000000E-01     -1.700000000000000E+02
4939000000.000000      6.997375000000000E-01      9.178711000000000E+00      1.612244000000000E-01     -1.696719000000000E+02
4940000000.000000      7.016602000000000E-01      9.130859000000000E+00      1.571960000000000E-01     -1.695859000000000E+02
4941000000.000000      7.016907000000000E-01      8.986816000000000E+00      1.536255000000000E-01     -1.690547000000000E+02
4942000000.000000      6.986389000000000E-01      8.770996000000000E+00      1.500626000000000E-01     -1.685156000000000E+02
4943000000.000000      7.014160000000000E-01      8.882324000000000E+00      1.467209000000000E-01     -1.681015000000000E+02
4944000000.000000      7.009583000000000E-01      8.779297000000000E+00      1.429443000000000E-01     -1.673828000000000E+02
4945000000.000000      7.023926000000000E-01      8.562012000000000E+00      1.396866000000000E-01     -1.669141000000000E+02
4946000000.000000      7.044983000000000E-01      8.419434000000000E+00      1.371689000000000E-01     -1.660391000000000E+02
4947000000.000000      7.026367000000000E-01      8.360352000000000E+00      1.332169000000000E-01     -1.651641000000000E+02
4948000000.000000      7.039795000000000E-01      8.260254000000000E+00      1.304550000000000E-01     -1.645859000000000E+02
4949000000.000000      7.035217000000000E-01      8.235352000000000E+00      1.273956000000000E-01     -1.632422000000000E+02
4950000000.000000      7.058716000000000E-01      8.321777000000000E+00      1.240158000000000E-01     -1.623750000000000E+02
4951000000.000000      7.057495000000000E-01      7.978760000000000E+00      1.218491000000000E-01     -1.614844000000000E+02
4952000000.000000      7.056274000000000E-01      7.845459000000000E+00      1.191216000000000E-01     -1.600781000000000E+02
4953000000.000000      7.062378000000000E-01      7.742432000000000E+00      1.170502000000000E-01     -1.586484000000000E+02
4954000000.000000      7.084045000000000E-01      7.691650000000000E+00      1.143799000000000E-01     -1.574453000000000E+02
