! Network Analyzer HP8722D
! Hewlett-Packard
! Data name: Linha & Wilkinson
! Saver's name: Rodrigo Anjos
! Comments: Teste da utilização de aquisição
continua pelo VNA HP8722D
! Time and date: 22/5/2025 11:46
!              Frequency                     S11                                                   S21                                                   S12                                                   S22
# HZ  S  MA R 50
4800000000.000000      6.515198000000000E-01      1.081738000000000E+01      4.719849000000000E-01     -9.262890000000000E+01
4801000000.000000      6.501465000000000E-01      1.085303000000000E+01      4.741058000000000E-01     -9.318359000000000E+01
4802000000.000000      6.477661000000000E-01      1.098486000000000E+01      4.747620000000000E-01     -9.393749000000000E+01
4803000000.000000      6.462097000000000E-01      1.071973000000000E+01      4.774475000000000E-01     -9.473827000000000E+01
4804000000.000000      6.445313000000000E-01      1.070752000000000E+01      4.785004000000000E-01     -9.537889000000000E+01
4805000000.000000      6.444397000000000E-01      1.068408000000000E+01      4.805298000000000E-01     -9.624609000000000E+01
4806000000.000000      6.411743000000000E-01      1.059766000000000E+01      4.829865000000000E-01     -9.684765000000000E+01
4807000000.000000      6.387634000000000E-01      1.063477000000000E+01      4.833374000000000E-01     -9.772264000000000E+01
4808000000.000000      6.378174000000000E-01      1.074561000000000E+01      4.849701000000000E-01     -9.843750000000000E+01
4809000000.000000      6.358337000000000E-01      1.085156000000000E+01      4.858093000000000E-01     -9.932421000000000E+01
4810000000.000000      6.362915000000000E-01      1.084180000000000E+01      4.891663000000000E-01     -9.991014000000000E+01
4811000000.000000      6.325989000000000E-01      1.081592000000000E+01      4.887085000000000E-01     -1.008828000000000E+02
4812000000.000000      6.333313000000000E-01      1.112354000000000E+01      4.888763000000000E-01     -1.016094000000000E+02
4813000000.000000      6.302795000000000E-01      1.093799000000000E+01      4.923859000000000E-01     -1.020664000000000E+02
4814000000.000000      6.293335000000000E-01      1.102441000000000E+01      4.919434000000000E-01     -1.028906000000000E+02
4815000000.000000      6.277466000000000E-01      1.121680000000000E+01      4.924469000000000E-01     -1.037226000000000E+02
4816000000.000000      6.258240000000000E-01      1.115625000000000E+01      4.934540000000000E-01     -1.045664000000000E+02
4817000000.000000      6.261902000000000E-01      1.109717000000000E+01      4.940643000000000E-01     -1.051406000000000E+02
4818000000.000000      6.225586000000000E-01      1.125537000000000E+01      4.950562000000000E-01     -1.058711000000000E+02
4819000000.000000      6.251526000000000E-01      1.138428000000000E+01      4.956512000000000E-01     -1.068594000000000E+02
4820000000.000000      6.209106000000000E-01      1.149854000000000E+01      4.968109000000000E-01     -1.073867000000000E+02
4821000000.000000      6.206360000000000E-01      1.157813000000000E+01      4.967499000000000E-01     -1.082813000000000E+02
4822000000.000000      6.201477000000000E-01      1.163574000000000E+01      4.975586000000000E-01     -1.089180000000000E+02
4823000000.000000      6.196594000000000E-01      1.173438000000000E+01      4.981842000000000E-01     -1.100039000000000E+02
4824000000.000000      6.180420000000000E-01      1.191309000000000E+01      4.976196000000000E-01     -1.104570000000000E+02
4825000000.000000      6.166382000000000E-01      1.179346000000000E+01      4.965515000000000E-01     -1.111836000000000E+02
4826000000.000000      6.160583000000000E-01      1.200098000000000E+01      5.001831000000000E-01     -1.121523000000000E+02
4827000000.000000      6.159668000000000E-01      1.217529000000000E+01      4.988403000000000E-01     -1.126015000000000E+02
4828000000.000000      6.160583000000000E-01      1.209180000000000E+01      4.985352000000000E-01     -1.136250000000000E+02
4829000000.000000      6.144104000000000E-01      1.245410000000000E+01      4.998932000000000E-01     -1.142461000000000E+02
4830000000.000000      6.159973000000000E-01      1.246631000000000E+01      4.995270000000000E-01     -1.148594000000000E+02
4831000000.000000      6.155090000000000E-01      1.260254000000000E+01      5.003052000000000E-01     -1.156836000000000E+02
4832000000.000000      6.137695000000000E-01      1.273145000000000E+01      4.994965000000000E-01     -1.163437000000000E+02
4833000000.000000      6.127625000000000E-01      1.268506000000000E+01      5.001831000000000E-01     -1.170508000000000E+02
4834000000.000000      6.134338000000000E-01      1.282080000000000E+01      4.994812000000000E-01     -1.181172000000000E+02
4835000000.000000      6.148987000000000E-01      1.299365000000000E+01      4.993286000000000E-01     -1.188125000000000E+02
4836000000.000000      6.141663000000000E-01      1.322852000000000E+01      4.975433000000000E-01     -1.196211000000000E+02
4837000000.000000      6.149597000000000E-01      1.322998000000000E+01      4.987488000000000E-01     -1.206172000000000E+02
4838000000.000000      6.126709000000000E-01      1.340576000000000E+01      4.999847000000000E-01     -1.210742000000000E+02
4839000000.000000      6.156921000000000E-01      1.351025000000000E+01      4.975739000000000E-01     -1.218984000000000E+02
4840000000.000000      6.161804000000000E-01      1.352100000000000E+01      4.981995000000000E-01     -1.227266000000000E+02
4841000000.000000      6.157837000000000E-01      1.364600000000000E+01      4.973450000000000E-01     -1.235195000000000E+02
4842000000.000000      6.164856000000000E-01      1.375879000000000E+01      4.956055000000000E-01     -1.243828000000000E+02
4843000000.000000      6.198120000000000E-01      1.365967000000000E+01      4.960632000000000E-01     -1.252773000000000E+02
4844000000.000000      6.177063000000000E-01      1.393311000000000E+01      4.940948000000000E-01     -1.261055000000000E+02
4845000000.000000      6.182556000000000E-01      1.399902000000000E+01      4.938660000000000E-01     -1.268711000000000E+02
4846000000.000000      6.188660000000000E-01      1.399365000000000E+01      4.923706000000000E-01     -1.276758000000000E+02
4847000000.000000      6.194153000000000E-01      1.429980000000000E+01      4.910431000000000E-01     -1.284765000000000E+02
4848000000.000000      6.199036000000000E-01      1.419678000000000E+01      4.891663000000000E-01     -1.292891000000000E+02
4849000000.000000      6.214905000000000E-01      1.419434000000000E+01      4.881592000000000E-01     -1.301875000000000E+02
4850000000.000000      6.221313000000000E-01      1.441943000000000E+01      4.857941000000000E-01     -1.308906000000000E+02
4851000000.000000      6.240845000000000E-01      1.455518000000000E+01      4.859314000000000E-01     -1.318359000000000E+02
4852000000.000000      6.242981000000000E-01      1.448926000000000E+01      4.840698000000000E-01     -1.326953000000000E+02
4853000000.000000      6.245117000000000E-01      1.468164000000000E+01      4.799194000000000E-01     -1.335391000000000E+02
4854000000.000000      6.251526000000000E-01      1.466650000000000E+01      4.783630000000000E-01     -1.345391000000000E+02
4855000000.000000      6.267395000000000E-01      1.466650000000000E+01      4.766388000000000E-01     -1.354219000000000E+02
4856000000.000000      6.279602000000000E-01      1.468555000000000E+01      4.732666000000000E-01     -1.362266000000000E+02
4857000000.000000      6.315918000000000E-01      1.492871000000000E+01      4.727478000000000E-01     -1.369375000000000E+02
4858000000.000000      6.294250000000000E-01      1.481738000000000E+01      4.704590000000000E-01     -1.377812000000000E+02
4859000000.000000      6.294861000000000E-01      1.474463000000000E+01      4.666290000000000E-01     -1.388359000000000E+02
4860000000.000000      6.307068000000000E-01      1.497021000000000E+01      4.637299000000000E-01     -1.393906000000000E+02
4861000000.000000      6.332703000000000E-01      1.486572000000000E+01      4.608307000000000E-01     -1.405859000000000E+02
4862000000.000000      6.335754000000000E-01      1.475439000000000E+01      4.574738000000000E-01     -1.410312000000000E+02
4863000000.000000      6.351318000000000E-01      1.495215000000000E+01      4.533844000000000E-01     -1.421172000000000E+02
4864000000.000000      6.360779000000000E-01      1.479541000000000E+01      4.514618000000000E-01     -1.429062000000000E+02
4865000000.000000      6.382141000000000E-01      1.490137000000000E+01      4.482727000000000E-01     -1.435625000000000E+02
4866000000.000000      6.384583000000000E-01      1.491797000000000E+01      4.428406000000000E-01     -1.445937000000000E+02
4867000000.000000      6.408386000000000E-01      1.485596000000000E+01      4.384766000000000E-01     -1.454453000000000E+02
4868000000.000000      6.431274000000000E-01      1.476416000000000E+01      4.353180000000000E-01     -1.461250000000000E+02
4869000000.000000      6.441650000000000E-01      1.494238000000000E+01      4.308319000000000E-01     -1.470234000000000E+02
4870000000.000000      6.428223000000000E-01      1.475977000000000E+01      4.272003000000000E-01     -1.473984000000000E+02
4871000000.000000      6.461792000000000E-01      1.472949000000000E+01      4.223480000000000E-01     -1.483281000000000E+02
4872000000.000000      6.486511000000000E-01      1.468555000000000E+01      4.187622000000000E-01     -1.490781000000000E+02
4873000000.000000      6.473389000000000E-01      1.483936000000000E+01      4.139557000000000E-01     -1.496094000000000E+02
4874000000.000000      6.481628000000000E-01      1.485352000000000E+01      4.102173000000000E-01     -1.504922000000000E+02
4875000000.000000      6.513062000000000E-01      1.462402000000000E+01      4.047699000000000E-01     -1.510781000000000E+02
4876000000.000000      6.508484000000000E-01      1.481494000000000E+01      4.021454000000000E-01     -1.517812000000000E+02
4877000000.000000      6.544800000000000E-01      1.447168000000000E+01      3.972473000000000E-01     -1.524765000000000E+02
4878000000.000000      6.539307000000000E-01      1.438232000000000E+01      3.923798000000000E-01     -1.530391000000000E+02
4879000000.000000      6.569519000000000E-01      1.452930000000000E+01      3.872070000000000E-01     -1.536406000000000E+02
4880000000.000000      6.587524000000000E-01      1.439893000000000E+01      3.839417000000000E-01     -1.542344000000000E+02
4881000000.000000      6.570740000000000E-01      1.432031000000000E+01      3.785553000000000E-01     -1.546953000000000E+02
4882000000.000000      6.622314000000000E-01      1.445801000000000E+01      3.753815000000000E-01     -1.553203000000000E+02
4883000000.000000      6.602173000000000E-01      1.407617000000000E+01      3.705902000000000E-01     -1.560781000000000E+02
4884000000.000000      6.633911000000000E-01      1.419141000000000E+01      3.652802000000000E-01     -1.563125000000000E+02
4885000000.000000      6.635132000000000E-01      1.409229000000000E+01      3.613892000000000E-01     -1.567891000000000E+02
4886000000.000000      6.639404000000000E-01      1.414307000000000E+01      3.574219000000000E-01     -1.571172000000000E+02
4887000000.000000      6.656494000000000E-01      1.386719000000000E+01      3.542480000000000E-01     -1.580312000000000E+02
4888000000.000000      6.671753000000000E-01      1.390039000000000E+01      3.495941000000000E-01     -1.584609000000000E+02
4889000000.000000      6.653137000000000E-01      1.380664000000000E+01      3.448792000000000E-01     -1.587109000000000E+02
4890000000.000000      6.676941000000000E-01      1.371777000000000E+01      3.401642000000000E-01     -1.595078000000000E+02
4891000000.000000      6.692200000000000E-01      1.363770000000000E+01      3.377991000000000E-01     -1.596484000000000E+02
4892000000.000000      6.701660000000000E-01      1.363379000000000E+01      3.319855000000000E-01     -1.600156000000000E+02
4893000000.000000      6.710815000000000E-01      1.342529000000000E+01      3.276672000000000E-01     -1.606016000000000E+02
4894000000.000000      6.719360000000000E-01      1.355566000000000E+01      3.231201000000000E-01     -1.609922000000000E+02
4895000000.000000      6.748047000000000E-01      1.319824000000000E+01      3.220062000000000E-01     -1.614063000000000E+02
4896000000.000000      6.759033000000000E-01      1.323828000000000E+01      3.172455000000000E-01     -1.616875000000000E+02
4897000000.000000      6.755066000000000E-01      1.319287000000000E+01      3.128204000000000E-01     -1.621719000000000E+02
4898000000.000000      6.770935000000000E-01      1.307373000000000E+01      3.096161000000000E-01     -1.624609000000000E+02
4899000000.000000      6.784973000000000E-01      1.293750000000000E+01      3.056030000000000E-01     -1.628203000000000E+02
4900000000.000000      6.788330000000000E-01      1.271387000000000E+01      3.018951000000000E-01     -1.631953000000000E+02
4901000000.000000      6.783447000000000E-01      1.268604000000000E+01      2.981262000000000E-01     -1.634453000000000E+02
4902000000.000000      6.808472000000000E-01      1.262842000000000E+01      2.944336000000000E-01     -1.637266000000000E+02
4903000000.000000      6.798096000000000E-01      1.259814000000000E+01      2.900085000000000E-01     -1.641875000000000E+02
4904000000.000000      6.838379000000000E-01      1.241846000000000E+01      2.873230000000000E-01     -1.646406000000000E+02
4905000000.000000      6.822205000000000E-01      1.235107000000000E+01      2.838135000000000E-01     -1.648672000000000E+02
4906000000.000000      6.795349000000000E-01      1.221094000000000E+01      2.807159000000000E-01     -1.649453000000000E+02
4907000000.000000      6.840515000000000E-01      1.209424000000000E+01      2.775269000000000E-01     -1.654375000000000E+02
4908000000.000000      6.845398000000000E-01      1.206982000000000E+01      2.734680000000000E-01     -1.659765000000000E+02
4909000000.000000      6.816101000000000E-01      1.195410000000000E+01      2.700500000000000E-01     -1.661953000000000E+02
4910000000.000000      6.847534000000000E-01      1.185938000000000E+01      2.662354000000000E-01     -1.663906000000000E+02
4911000000.000000      6.857605000000000E-01      1.186377000000000E+01      2.635498000000000E-01     -1.667734000000000E+02
4912000000.000000      6.879272000000000E-01      1.178125000000000E+01      2.593536000000000E-01     -1.671719000000000E+02
4913000000.000000      6.877747000000000E-01      1.161768000000000E+01      2.559814000000000E-01     -1.674141000000000E+02
4914000000.000000      6.885376000000000E-01      1.134863000000000E+01      2.522125000000000E-01     -1.675390000000000E+02
4915000000.000000      6.878357000000000E-01      1.127441000000000E+01      2.484741000000000E-01     -1.681484000000000E+02
4916000000.000000      6.887817000000000E-01      1.111084000000000E+01      2.447510000000000E-01     -1.683828000000000E+02
4917000000.000000      6.911011000000000E-01      1.114795000000000E+01      2.417068000000000E-01     -1.685078000000000E+02
4918000000.000000      6.898804000000000E-01      1.117432000000000E+01      2.375641000000000E-01     -1.688828000000000E+02
4919000000.000000      6.907043000000000E-01      1.111084000000000E+01      2.345657000000000E-01     -1.687813000000000E+02
4920000000.000000      6.909485000000000E-01      1.070313000000000E+01      2.299957000000000E-01     -1.693594000000000E+02
4921000000.000000      6.892090000000000E-01      1.076660000000000E+01      2.278671000000000E-01     -1.695078000000000E+02
4922000000.000000      6.912842000000000E-01      1.049854000000000E+01      2.240143000000000E-01     -1.696406000000000E+02
4923000000.000000      6.931763000000000E-01      1.064697000000000E+01      2.190247000000000E-01     -1.698125000000000E+02
4924000000.000000      6.921387000000000E-01      1.046826000000000E+01      2.156296000000000E-01     -1.702578000000000E+02
4925000000.000000      6.941528000000000E-01      1.043262000000000E+01      2.123032000000000E-01     -1.704297000000000E+02
4926000000.000000      6.957397000000000E-01      1.042285000000000E+01      2.087555000000000E-01     -1.704922000000000E+02
4927000000.000000      6.933289000000000E-01      1.032422000000000E+01      2.046509000000000E-01     -1.706328000000000E+02
4928000000.000000      6.960449000000000E-01      1.007129000000000E+01      2.012787000000000E-01     -1.707734000000000E+02
4929000000.000000      6.943970000000000E-01      9.978027000000000E+00      1.970215000000000E-01     -1.708359000000000E+02
4930000000.000000      6.956177000000000E-01      9.901367000000000E+00      1.936493000000000E-01     -1.710156000000000E+02
4931000000.000000      6.956177000000000E-01      9.741699000000000E+00      1.903458000000000E-01     -1.709219000000000E+02
4932000000.000000      6.968384000000000E-01      9.703613000000000E+00      1.859894000000000E-01     -1.709453000000000E+02
4933000000.000000      6.965027000000000E-01      9.649902000000000E+00      1.815720000000000E-01     -1.707422000000000E+02
4934000000.000000      6.979980000000000E-01      9.442383000000000E+00      1.781082000000000E-01     -1.706328000000000E+02
4935000000.000000      7.010193000000000E-01      9.453613000000000E+00      1.752853000000000E-01     -1.704844000000000E+02
4936000000.000000      6.985474000000000E-01      9.387695000000000E+00      1.704025000000000E-01     -1.703359000000000E+02
4937000000.000000      6.997986000000000E-01      9.165039000000000E+00      1.669617000000000E-01     -1.703984000000000E+02
4938000000.000000      6.988525000000000E-01      9.218750000000000E+00      1.634750000000000E-01     -1.698516000000000E+02
4939000000.000000      7.002563000000000E-01      9.083984000000000E+00      1.599808000000000E-01     -1.694375000000000E+02
4940000000.000000      7.003784000000000E-01      8.860352000000000E+00      1.554871000000000E-01     -1.696250000000000E+02
4941000000.000000      7.004395000000000E-01      8.827148000000000E+00      1.525040000000000E-01     -1.687266000000000E+02
4942000000.000000      6.996765000000000E-01      8.752930000000000E+00      1.488190000000000E-01     -1.685703000000000E+02
4943000000.000000      7.014771000000000E-01      8.639160000000000E+00      1.458282000000000E-01     -1.677578000000000E+02
4944000000.000000      7.024841000000000E-01      8.451172000000000E+00      1.424408000000000E-01     -1.673906000000000E+02
4945000000.000000      7.023926000000000E-01      8.295898000000000E+00      1.380539000000000E-01     -1.667031000000000E+02
4946000000.000000      7.041016000000000E-01      8.343750000000000E+00      1.357956000000000E-01     -1.658984000000000E+02
4947000000.000000      7.023315000000000E-01      8.188477000000000E+00      1.321259000000000E-01     -1.649453000000000E+02
4948000000.000000      7.057495000000000E-01      8.124023000000000E+00      1.293259000000000E-01     -1.640938000000000E+02
4949000000.000000      7.051697000000000E-01      8.135254000000000E+00      1.265640000000000E-01     -1.629219000000000E+02
4950000000.000000      7.067566000000000E-01      7.974609000000000E+00      1.236687000000000E-01     -1.618984000000000E+02
4951000000.000000      7.043762000000000E-01      7.932129000000000E+00      1.209717000000000E-01     -1.612422000000000E+02
4952000000.000000      7.057800000000000E-01      7.629883000000000E+00      1.182671000000000E-01     -1.597812000000000E+02
4953000000.000000      7.061768000000000E-01      7.720459000000000E+00      1.166039000000000E-01     -1.582969000000000E+02
4954000000.000000      7.078552000000000E-01      7.473389000000000E+00      1.140366000000000E-01     -1.568984000000000E+02
