! Network Analyzer HP8722D
! Hewlett-Packard
! Data name: Linha & Wilkinson
! Saver's name: Rodrigo Anjos
! Comments: Teste da utilização de aquisição
continua pelo VNA HP8722D
! Time and date: 22/5/2025 15:58
!              Frequency                     S11                                                   S21                                                   S12                                                   S22
# HZ  S  MA R 50
4800000000.000000      6.513672000000000E-01      1.103271000000000E+01      4.714661000000000E-01     -9.230078000000000E+01
4801000000.000000      6.487427000000000E-01      1.109717000000000E+01      4.719391000000000E-01     -9.282030000000000E+01
4802000000.000000      6.475220000000000E-01      1.095605000000000E+01      4.735413000000000E-01     -9.363672000000000E+01
4803000000.000000      6.470947000000000E-01      1.108496000000000E+01      4.765778000000000E-01     -9.434374000000000E+01
4804000000.000000      6.443176000000000E-01      1.107129000000000E+01      4.790497000000000E-01     -9.504686000000000E+01
4805000000.000000      6.448364000000000E-01      1.097803000000000E+01      4.804688000000000E-01     -9.610155000000000E+01
4806000000.000000      6.409607000000000E-01      1.093115000000000E+01      4.804840000000000E-01     -9.686718000000000E+01
4807000000.000000      6.377869000000000E-01      1.090234000000000E+01      4.843292000000000E-01     -9.753515000000000E+01
4808000000.000000      6.370544000000000E-01      1.086230000000000E+01      4.857635000000000E-01     -9.823437000000000E+01
4809000000.000000      6.345520000000000E-01      1.104248000000000E+01      4.865875000000000E-01     -9.898827000000000E+01
4810000000.000000      6.366272000000000E-01      1.092285000000000E+01      4.875946000000000E-01     -9.962500000000000E+01
4811000000.000000      6.335449000000000E-01      1.101221000000000E+01      4.899902000000000E-01     -1.008320000000000E+02
4812000000.000000      6.332703000000000E-01      1.110156000000000E+01      4.905701000000000E-01     -1.012187000000000E+02
4813000000.000000      6.332092000000000E-01      1.116455000000000E+01      4.915314000000000E-01     -1.021484000000000E+02
4814000000.000000      6.280823000000000E-01      1.120020000000000E+01      4.917603000000000E-01     -1.026992000000000E+02
4815000000.000000      6.272278000000000E-01      1.142676000000000E+01      4.919891000000000E-01     -1.035703000000000E+02
4816000000.000000      6.272888000000000E-01      1.131152000000000E+01      4.943695000000000E-01     -1.043242000000000E+02
4817000000.000000      6.244507000000000E-01      1.149561000000000E+01      4.942322000000000E-01     -1.049375000000000E+02
4818000000.000000      6.239319000000000E-01      1.148340000000000E+01      4.934082000000000E-01     -1.058945000000000E+02
4819000000.000000      6.243286000000000E-01      1.155469000000000E+01      4.968872000000000E-01     -1.067188000000000E+02
4820000000.000000      6.211853000000000E-01      1.193506000000000E+01      4.963837000000000E-01     -1.073945000000000E+02
4821000000.000000      6.212463000000000E-01      1.168115000000000E+01      4.977570000000000E-01     -1.080508000000000E+02
4822000000.000000      6.188049000000000E-01      1.181689000000000E+01      4.967651000000000E-01     -1.087891000000000E+02
4823000000.000000      6.195679000000000E-01      1.180029000000000E+01      4.975128000000000E-01     -1.097266000000000E+02
4824000000.000000      6.165771000000000E-01      1.216553000000000E+01      4.983826000000000E-01     -1.103281000000000E+02
4825000000.000000      6.166077000000000E-01      1.215332000000000E+01      4.980164000000000E-01     -1.110586000000000E+02
4826000000.000000      6.143494000000000E-01      1.214941000000000E+01      4.989624000000000E-01     -1.120430000000000E+02
4827000000.000000      6.169739000000000E-01      1.227295000000000E+01      4.979706000000000E-01     -1.124414000000000E+02
4828000000.000000      6.141357000000000E-01      1.243066000000000E+01      4.994659000000000E-01     -1.132265000000000E+02
4829000000.000000      6.152649000000000E-01      1.253809000000000E+01      5.000916000000000E-01     -1.140781000000000E+02
4830000000.000000      6.165466000000000E-01      1.261621000000000E+01      4.994812000000000E-01     -1.149141000000000E+02
4831000000.000000      6.150208000000000E-01      1.261621000000000E+01      5.008240000000000E-01     -1.155781000000000E+02
4832000000.000000      6.137695000000000E-01      1.287305000000000E+01      4.996185000000000E-01     -1.163320000000000E+02
4833000000.000000      6.111450000000000E-01      1.300488000000000E+01      4.997406000000000E-01     -1.169922000000000E+02
4834000000.000000      6.126709000000000E-01      1.306104000000000E+01      4.986725000000000E-01     -1.177969000000000E+02
4835000000.000000      6.137085000000000E-01      1.315186000000000E+01      4.992065000000000E-01     -1.185312000000000E+02
4836000000.000000      6.147766000000000E-01      1.329199000000000E+01      4.983673000000000E-01     -1.193555000000000E+02
4837000000.000000      6.133728000000000E-01      1.365186000000000E+01      4.976196000000000E-01     -1.204102000000000E+02
4838000000.000000      6.123657000000000E-01      1.362402000000000E+01      4.989166000000000E-01     -1.206797000000000E+02
4839000000.000000      6.165466000000000E-01      1.378613000000000E+01      4.976959000000000E-01     -1.217305000000000E+02
4840000000.000000      6.141663000000000E-01      1.372461000000000E+01      4.984894000000000E-01     -1.224726000000000E+02
4841000000.000000      6.150818000000000E-01      1.391113000000000E+01      4.963531000000000E-01     -1.233672000000000E+02
4842000000.000000      6.155396000000000E-01      1.392090000000000E+01      4.974976000000000E-01     -1.241719000000000E+02
4843000000.000000      6.187744000000000E-01      1.391650000000000E+01      4.969025000000000E-01     -1.251484000000000E+02
4844000000.000000      6.172791000000000E-01      1.399219000000000E+01      4.944305000000000E-01     -1.259062000000000E+02
4845000000.000000      6.177063000000000E-01      1.427100000000000E+01      4.933777000000000E-01     -1.266289000000000E+02
4846000000.000000      6.192627000000000E-01      1.422168000000000E+01      4.932098000000000E-01     -1.275078000000000E+02
4847000000.000000      6.204529000000000E-01      1.440137000000000E+01      4.917908000000000E-01     -1.282969000000000E+02
4848000000.000000      6.213989000000000E-01      1.441650000000000E+01      4.881287000000000E-01     -1.290156000000000E+02
4849000000.000000      6.207581000000000E-01      1.442334000000000E+01      4.884033000000000E-01     -1.300937000000000E+02
4850000000.000000      6.233521000000000E-01      1.453320000000000E+01      4.878082000000000E-01     -1.307656000000000E+02
4851000000.000000      6.235046000000000E-01      1.480127000000000E+01      4.850922000000000E-01     -1.317891000000000E+02
4852000000.000000      6.236877000000000E-01      1.481738000000000E+01      4.843903000000000E-01     -1.327266000000000E+02
4853000000.000000      6.248474000000000E-01      1.488623000000000E+01      4.812775000000000E-01     -1.334531000000000E+02
4854000000.000000      6.240845000000000E-01      1.495752000000000E+01      4.790344000000000E-01     -1.343203000000000E+02
4855000000.000000      6.268005000000000E-01      1.500439000000000E+01      4.789429000000000E-01     -1.351250000000000E+02
4856000000.000000      6.279907000000000E-01      1.500732000000000E+01      4.752350000000000E-01     -1.360312000000000E+02
4857000000.000000      6.282349000000000E-01      1.504395000000000E+01      4.736481000000000E-01     -1.368438000000000E+02
4858000000.000000      6.296692000000000E-01      1.517334000000000E+01      4.702148000000000E-01     -1.377422000000000E+02
4859000000.000000      6.326294000000000E-01      1.503467000000000E+01      4.671631000000000E-01     -1.384687000000000E+02
4860000000.000000      6.315918000000000E-01      1.518994000000000E+01      4.646606000000000E-01     -1.394844000000000E+02
4861000000.000000      6.345215000000000E-01      1.497559000000000E+01      4.617157000000000E-01     -1.402422000000000E+02
4862000000.000000      6.336060000000000E-01      1.520215000000000E+01      4.582214000000000E-01     -1.411406000000000E+02
4863000000.000000      6.340942000000000E-01      1.528564000000000E+01      4.549713000000000E-01     -1.419375000000000E+02
4864000000.000000      6.386719000000000E-01      1.529541000000000E+01      4.521027000000000E-01     -1.425156000000000E+02
4865000000.000000      6.366272000000000E-01      1.518994000000000E+01      4.475250000000000E-01     -1.434141000000000E+02
4866000000.000000      6.395569000000000E-01      1.499609000000000E+01      4.446869000000000E-01     -1.444922000000000E+02
4867000000.000000      6.384888000000000E-01      1.506592000000000E+01      4.385529000000000E-01     -1.450625000000000E+02
4868000000.000000      6.419983000000000E-01      1.511133000000000E+01      4.366913000000000E-01     -1.457969000000000E+02
4869000000.000000      6.443481000000000E-01      1.493848000000000E+01      4.319305000000000E-01     -1.467813000000000E+02
4870000000.000000      6.437378000000000E-01      1.516357000000000E+01      4.287262000000000E-01     -1.471172000000000E+02
4871000000.000000      6.454773000000000E-01      1.490283000000000E+01      4.229584000000000E-01     -1.481641000000000E+02
4872000000.000000      6.473999000000000E-01      1.499756000000000E+01      4.192963000000000E-01     -1.487578000000000E+02
4873000000.000000      6.487732000000000E-01      1.514844000000000E+01      4.146881000000000E-01     -1.496484000000000E+02
4874000000.000000      6.492615000000000E-01      1.495752000000000E+01      4.094238000000000E-01     -1.503828000000000E+02
4875000000.000000      6.523438000000000E-01      1.479834000000000E+01      4.058990000000000E-01     -1.507813000000000E+02
4876000000.000000      6.521606000000000E-01      1.481885000000000E+01      4.023895000000000E-01     -1.513047000000000E+02
4877000000.000000      6.541138000000000E-01      1.452930000000000E+01      3.978119000000000E-01     -1.522344000000000E+02
4878000000.000000      6.542969000000000E-01      1.468164000000000E+01      3.938141000000000E-01     -1.528672000000000E+02
4879000000.000000      6.562805000000000E-01      1.477637000000000E+01      3.884583000000000E-01     -1.533281000000000E+02
4880000000.000000      6.578064000000000E-01      1.462549000000000E+01      3.847198000000000E-01     -1.541094000000000E+02
4881000000.000000      6.581116000000000E-01      1.464844000000000E+01      3.802032000000000E-01     -1.546328000000000E+02
4882000000.000000      6.610107000000000E-01      1.456641000000000E+01      3.770294000000000E-01     -1.553125000000000E+02
4883000000.000000      6.624756000000000E-01      1.449609000000000E+01      3.704224000000000E-01     -1.557969000000000E+02
4884000000.000000      6.630859000000000E-01      1.452246000000000E+01      3.668213000000000E-01     -1.562734000000000E+02
4885000000.000000      6.643982000000000E-01      1.449072000000000E+01      3.614807000000000E-01     -1.567266000000000E+02
4886000000.000000      6.646118000000000E-01      1.434814000000000E+01      3.575592000000000E-01     -1.571094000000000E+02
4887000000.000000      6.648865000000000E-01      1.423389000000000E+01      3.543243000000000E-01     -1.576875000000000E+02
4888000000.000000      6.635437000000000E-01      1.393164000000000E+01      3.503113000000000E-01     -1.581875000000000E+02
4889000000.000000      6.669922000000000E-01      1.413086000000000E+01      3.453522000000000E-01     -1.583516000000000E+02
4890000000.000000      6.680603000000000E-01      1.401270000000000E+01      3.407745000000000E-01     -1.594141000000000E+02
4891000000.000000      6.705933000000000E-01      1.381348000000000E+01      3.361969000000000E-01     -1.594844000000000E+02
4892000000.000000      6.686707000000000E-01      1.373828000000000E+01      3.327332000000000E-01     -1.598125000000000E+02
4893000000.000000      6.701050000000000E-01      1.368750000000000E+01      3.280334000000000E-01     -1.605000000000000E+02
4894000000.000000      6.729736000000000E-01      1.351563000000000E+01      3.249664000000000E-01     -1.609531000000000E+02
4895000000.000000      6.744995000000000E-01      1.342529000000000E+01      3.211975000000000E-01     -1.610859000000000E+02
4896000000.000000      6.738586000000000E-01      1.341699000000000E+01      3.174896000000000E-01     -1.615859000000000E+02
4897000000.000000      6.748657000000000E-01      1.336719000000000E+01      3.137665000000000E-01     -1.618906000000000E+02
4898000000.000000      6.774597000000000E-01      1.320410000000000E+01      3.101044000000000E-01     -1.622813000000000E+02
4899000000.000000      6.769714000000000E-01      1.314746000000000E+01      3.058319000000000E-01     -1.628281000000000E+02
4900000000.000000      6.777954000000000E-01      1.300342000000000E+01      3.021393000000000E-01     -1.629922000000000E+02
4901000000.000000      6.776733000000000E-01      1.288379000000000E+01      2.989044000000000E-01     -1.632969000000000E+02
4902000000.000000      6.788330000000000E-01      1.280566000000000E+01      2.949524000000000E-01     -1.635625000000000E+02
4903000000.000000      6.811218000000000E-01      1.288965000000000E+01      2.909088000000000E-01     -1.640781000000000E+02
4904000000.000000      6.809387000000000E-01      1.271094000000000E+01      2.873230000000000E-01     -1.644687000000000E+02
4905000000.000000      6.830444000000000E-01      1.255029000000000E+01      2.848663000000000E-01     -1.647266000000000E+02
4906000000.000000      6.817932000000000E-01      1.225342000000000E+01      2.806396000000000E-01     -1.648203000000000E+02
4907000000.000000      6.812134000000000E-01      1.225928000000000E+01      2.776642000000000E-01     -1.653203000000000E+02
4908000000.000000      6.832275000000000E-01      1.234570000000000E+01      2.748413000000000E-01     -1.657500000000000E+02
4909000000.000000      6.828308000000000E-01      1.207764000000000E+01      2.707520000000000E-01     -1.661875000000000E+02
4910000000.000000      6.837769000000000E-01      1.220703000000000E+01      2.672729000000000E-01     -1.662891000000000E+02
4911000000.000000      6.846924000000000E-01      1.199121000000000E+01      2.634735000000000E-01     -1.665781000000000E+02
4912000000.000000      6.847229000000000E-01      1.187451000000000E+01      2.597046000000000E-01     -1.670625000000000E+02
4913000000.000000      6.864014000000000E-01      1.156152000000000E+01      2.565613000000000E-01     -1.670469000000000E+02
4914000000.000000      6.880188000000000E-01      1.166016000000000E+01      2.532349000000000E-01     -1.674297000000000E+02
4915000000.000000      6.897583000000000E-01      1.149951000000000E+01      2.491150000000000E-01     -1.679141000000000E+02
4916000000.000000      6.898193000000000E-01      1.153271000000000E+01      2.456207000000000E-01     -1.682031000000000E+02
4917000000.000000      6.884460000000000E-01      1.131592000000000E+01      2.421265000000000E-01     -1.685234000000000E+02
4918000000.000000      6.885681000000000E-01      1.122070000000000E+01      2.383041000000000E-01     -1.687266000000000E+02
4919000000.000000      6.903687000000000E-01      1.138037000000000E+01      2.350235000000000E-01     -1.686797000000000E+02
4920000000.000000      6.897278000000000E-01      1.089551000000000E+01      2.305756000000000E-01     -1.692344000000000E+02
4921000000.000000      6.912842000000000E-01      1.101367000000000E+01      2.275772000000000E-01     -1.694375000000000E+02
4922000000.000000      6.906433000000000E-01      1.086914000000000E+01      2.242050000000000E-01     -1.695234000000000E+02
4923000000.000000      6.921082000000000E-01      1.096680000000000E+01      2.202835000000000E-01     -1.697031000000000E+02
4924000000.000000      6.940308000000000E-01      1.058789000000000E+01      2.163315000000000E-01     -1.700938000000000E+02
4925000000.000000      6.931152000000000E-01      1.060693000000000E+01      2.126236000000000E-01     -1.702422000000000E+02
4926000000.000000      6.925049000000000E-01      1.049023000000000E+01      2.090073000000000E-01     -1.703750000000000E+02
4927000000.000000      6.937256000000000E-01      1.052051000000000E+01      2.048264000000000E-01     -1.705078000000000E+02
4928000000.000000      6.949158000000000E-01      1.030225000000000E+01      2.016830000000000E-01     -1.705547000000000E+02
4929000000.000000      6.951294000000000E-01      1.015918000000000E+01      1.971741000000000E-01     -1.706172000000000E+02
4930000000.000000      6.961975000000000E-01      1.027344000000000E+01      1.942902000000000E-01     -1.707500000000000E+02
4931000000.000000      6.958923000000000E-01      9.917480000000000E+00      1.905594000000000E-01     -1.707813000000000E+02
4932000000.000000      6.956482000000000E-01      9.921875000000000E+00      1.860352000000000E-01     -1.708594000000000E+02
4933000000.000000      6.958313000000000E-01      9.910645000000000E+00      1.821289000000000E-01     -1.706250000000000E+02
4934000000.000000      6.983337000000000E-01      9.743164000000000E+00      1.788330000000000E-01     -1.707344000000000E+02
4935000000.000000      6.995544000000000E-01      9.540039000000000E+00      1.749802000000000E-01     -1.704453000000000E+02
4936000000.000000      6.978760000000000E-01      9.504395000000000E+00      1.709900000000000E-01     -1.702422000000000E+02
4937000000.000000      6.988525000000000E-01      9.312012000000000E+00      1.673508000000000E-01     -1.701875000000000E+02
4938000000.000000      6.974487000000000E-01      9.265137000000000E+00      1.636353000000000E-01     -1.698906000000000E+02
4939000000.000000      6.970520000000000E-01      9.336914000000000E+00      1.603699000000000E-01     -1.695469000000000E+02
4940000000.000000      7.018127000000000E-01      9.144531000000000E+00      1.559601000000000E-01     -1.694297000000000E+02
4941000000.000000      7.006836000000000E-01      8.960449000000000E+00      1.528320000000000E-01     -1.688516000000000E+02
4942000000.000000      7.002563000000000E-01      8.890625000000000E+00      1.494293000000000E-01     -1.684531000000000E+02
4943000000.000000      7.017517000000000E-01      8.872559000000000E+00      1.455917000000000E-01     -1.679062000000000E+02
4944000000.000000      7.001953000000000E-01      8.488281000000000E+00      1.425095000000000E-01     -1.671797000000000E+02
4945000000.000000      7.026978000000000E-01      8.581543000000000E+00      1.390152000000000E-01     -1.666172000000000E+02
4946000000.000000      7.017517000000000E-01      8.540039000000000E+00      1.356812000000000E-01     -1.658047000000000E+02
4947000000.000000      7.029724000000000E-01      8.323242000000000E+00      1.326828000000000E-01     -1.649062000000000E+02
4948000000.000000      7.051086000000000E-01      8.393555000000000E+00      1.296616000000000E-01     -1.641172000000000E+02
4949000000.000000      7.036438000000000E-01      8.260254000000000E+00      1.269226000000000E-01     -1.630391000000000E+02
4950000000.000000      7.077942000000000E-01      8.286133000000000E+00      1.239586000000000E-01     -1.622109000000000E+02
4951000000.000000      7.048645000000000E-01      8.180664000000000E+00      1.212540000000000E-01     -1.610000000000000E+02
4952000000.000000      7.057190000000000E-01      8.027832000000000E+00      1.185417000000000E-01     -1.597109000000000E+02
4953000000.000000      7.052612000000000E-01      7.607910000000000E+00      1.161346000000000E-01     -1.583047000000000E+02
4954000000.000000      7.059631000000000E-01      7.800293000000000E+00      1.139641000000000E-01     -1.569844000000000E+02
