! Network Analyzer HP8722D
! Hewlett-Packard
! Data name: Linha & Wilkinson
! Saver's name: Rodrigo Anjos
! Comments: Teste da utilização de aquisição
continua pelo VNA HP8722D
! Time and date: 22/5/2025 14:01
!              Frequency                     S11                                                   S21                                                   S12                                                   S22
# HZ  S  MA R 50
4800000000.000000      6.518555000000000E-01      1.077051000000000E+01      4.695892000000000E-01     -9.212891000000000E+01
4801000000.000000      6.504517000000000E-01      1.088721000000000E+01      4.724274000000000E-01     -9.284765000000000E+01
4802000000.000000      6.473083000000000E-01      1.086377000000000E+01      4.734802000000000E-01     -9.336329000000000E+01
4803000000.000000      6.462708000000000E-01      1.083350000000000E+01      4.769440000000000E-01     -9.435156000000000E+01
4804000000.000000      6.449585000000000E-01      1.083252000000000E+01      4.781494000000000E-01     -9.503906000000000E+01
4805000000.000000      6.452637000000000E-01      1.085449000000000E+01      4.814758000000000E-01     -9.592188000000000E+01
4806000000.000000      6.417542000000000E-01      1.079248000000000E+01      4.812622000000000E-01     -9.664843000000000E+01
4807000000.000000      6.401367000000000E-01      1.076758000000000E+01      4.818420000000000E-01     -9.756639000000000E+01
4808000000.000000      6.382141000000000E-01      1.080322000000000E+01      4.838104000000000E-01     -9.830078000000000E+01
4809000000.000000      6.350708000000000E-01      1.102197000000000E+01      4.853973000000000E-01     -9.925390000000000E+01
4810000000.000000      6.357727000000000E-01      1.084180000000000E+01      4.881592000000000E-01     -9.973045000000000E+01
4811000000.000000      6.347046000000000E-01      1.089941000000000E+01      4.892426000000000E-01     -1.006836000000000E+02
4812000000.000000      6.338806000000000E-01      1.114111000000000E+01      4.896393000000000E-01     -1.012930000000000E+02
4813000000.000000      6.319580000000000E-01      1.103564000000000E+01      4.914551000000000E-01     -1.020234000000000E+02
4814000000.000000      6.283875000000000E-01      1.122363000000000E+01      4.926147000000000E-01     -1.028164000000000E+02
4815000000.000000      6.273499000000000E-01      1.114551000000000E+01      4.920807000000000E-01     -1.034844000000000E+02
4816000000.000000      6.269836000000000E-01      1.117432000000000E+01      4.941254000000000E-01     -1.043047000000000E+02
4817000000.000000      6.249695000000000E-01      1.127979000000000E+01      4.931488000000000E-01     -1.051250000000000E+02
4818000000.000000      6.256104000000000E-01      1.134717000000000E+01      4.948273000000000E-01     -1.058281000000000E+02
4819000000.000000      6.232605000000000E-01      1.158057000000000E+01      4.955597000000000E-01     -1.065234000000000E+02
4820000000.000000      6.217041000000000E-01      1.155176000000000E+01      4.953003000000000E-01     -1.070625000000000E+02
4821000000.000000      6.217957000000000E-01      1.162451000000000E+01      4.970093000000000E-01     -1.080820000000000E+02
4822000000.000000      6.185608000000000E-01      1.176221000000000E+01      4.953461000000000E-01     -1.087891000000000E+02
4823000000.000000      6.206360000000000E-01      1.196240000000000E+01      4.982758000000000E-01     -1.096367000000000E+02
4824000000.000000      6.164551000000000E-01      1.200781000000000E+01      4.979858000000000E-01     -1.103555000000000E+02
4825000000.000000      6.168823000000000E-01      1.212744000000000E+01      4.980927000000000E-01     -1.109766000000000E+02
4826000000.000000      6.159058000000000E-01      1.202148000000000E+01      4.985046000000000E-01     -1.119805000000000E+02
4827000000.000000      6.162720000000000E-01      1.233203000000000E+01      4.976501000000000E-01     -1.125195000000000E+02
4828000000.000000      6.165466000000000E-01      1.233740000000000E+01      5.003357000000000E-01     -1.132539000000000E+02
4829000000.000000      6.162415000000000E-01      1.247754000000000E+01      4.996643000000000E-01     -1.139609000000000E+02
4830000000.000000      6.141052000000000E-01      1.262598000000000E+01      4.998016000000000E-01     -1.146797000000000E+02
4831000000.000000      6.150513000000000E-01      1.253223000000000E+01      5.003967000000000E-01     -1.157851000000000E+02
4832000000.000000      6.136780000000000E-01      1.291553000000000E+01      5.010071000000000E-01     -1.162266000000000E+02
4833000000.000000      6.150513000000000E-01      1.271094000000000E+01      4.991608000000000E-01     -1.169687000000000E+02
4834000000.000000      6.137695000000000E-01      1.302686000000000E+01      4.994812000000000E-01     -1.178242000000000E+02
4835000000.000000      6.141663000000000E-01      1.309814000000000E+01      4.999084000000000E-01     -1.185547000000000E+02
4836000000.000000      6.148987000000000E-01      1.333838000000000E+01      4.987030000000000E-01     -1.194453000000000E+02
4837000000.000000      6.138000000000000E-01      1.352686000000000E+01      4.971008000000000E-01     -1.202383000000000E+02
4838000000.000000      6.128235000000000E-01      1.339355000000000E+01      4.992523000000000E-01     -1.209219000000000E+02
4839000000.000000      6.164551000000000E-01      1.374072000000000E+01      4.975586000000000E-01     -1.217617000000000E+02
4840000000.000000      6.148987000000000E-01      1.350879000000000E+01      4.974060000000000E-01     -1.225937000000000E+02
4841000000.000000      6.147461000000000E-01      1.394287000000000E+01      4.981842000000000E-01     -1.234101000000000E+02
4842000000.000000      6.159973000000000E-01      1.394287000000000E+01      4.961395000000000E-01     -1.241211000000000E+02
4843000000.000000      6.194763000000000E-01      1.392090000000000E+01      4.978027000000000E-01     -1.251367000000000E+02
4844000000.000000      6.163635000000000E-01      1.397461000000000E+01      4.954376000000000E-01     -1.258203000000000E+02
4845000000.000000      6.163940000000000E-01      1.435498000000000E+01      4.944153000000000E-01     -1.265508000000000E+02
4846000000.000000      6.177063000000000E-01      1.429980000000000E+01      4.928894000000000E-01     -1.273711000000000E+02
4847000000.000000      6.206055000000000E-01      1.448535000000000E+01      4.922333000000000E-01     -1.282344000000000E+02
4848000000.000000      6.207886000000000E-01      1.422998000000000E+01      4.885406000000000E-01     -1.291328000000000E+02
4849000000.000000      6.197205000000000E-01      1.442334000000000E+01      4.894409000000000E-01     -1.299687000000000E+02
4850000000.000000      6.221619000000000E-01      1.444971000000000E+01      4.870148000000000E-01     -1.308203000000000E+02
4851000000.000000      6.236572000000000E-01      1.450293000000000E+01      4.862213000000000E-01     -1.316484000000000E+02
4852000000.000000      6.231384000000000E-01      1.476416000000000E+01      4.839478000000000E-01     -1.325078000000000E+02
4853000000.000000      6.250000000000000E-01      1.468457000000000E+01      4.815063000000000E-01     -1.334219000000000E+02
4854000000.000000      6.266785000000000E-01      1.479150000000000E+01      4.793091000000000E-01     -1.344375000000000E+02
4855000000.000000      6.253357000000000E-01      1.488770000000000E+01      4.774933000000000E-01     -1.350703000000000E+02
4856000000.000000      6.267395000000000E-01      1.484229000000000E+01      4.740295000000000E-01     -1.359375000000000E+02
4857000000.000000      6.296082000000000E-01      1.483398000000000E+01      4.731750000000000E-01     -1.368203000000000E+02
4858000000.000000      6.280212000000000E-01      1.502344000000000E+01      4.705963000000000E-01     -1.376016000000000E+02
4859000000.000000      6.305847000000000E-01      1.489014000000000E+01      4.687500000000000E-01     -1.385234000000000E+02
4860000000.000000      6.329956000000000E-01      1.495508000000000E+01      4.640045000000000E-01     -1.393359000000000E+02
4861000000.000000      6.304932000000000E-01      1.482031000000000E+01      4.608154000000000E-01     -1.402734000000000E+02
4862000000.000000      6.339722000000000E-01      1.500000000000000E+01      4.590759000000000E-01     -1.410391000000000E+02
4863000000.000000      6.351624000000000E-01      1.516211000000000E+01      4.537811000000000E-01     -1.419297000000000E+02
4864000000.000000      6.367798000000000E-01      1.493164000000000E+01      4.521484000000000E-01     -1.425000000000000E+02
4865000000.000000      6.373901000000000E-01      1.501123000000000E+01      4.474335000000000E-01     -1.434141000000000E+02
4866000000.000000      6.387329000000000E-01      1.507031000000000E+01      4.441986000000000E-01     -1.441172000000000E+02
4867000000.000000      6.397400000000000E-01      1.496582000000000E+01      4.397583000000000E-01     -1.450859000000000E+02
4868000000.000000      6.413269000000000E-01      1.483545000000000E+01      4.374695000000000E-01     -1.459063000000000E+02
4869000000.000000      6.410828000000000E-01      1.494824000000000E+01      4.316864000000000E-01     -1.467500000000000E+02
4870000000.000000      6.427307000000000E-01      1.498242000000000E+01      4.278259000000000E-01     -1.472656000000000E+02
4871000000.000000      6.441040000000000E-01      1.479150000000000E+01      4.241180000000000E-01     -1.481016000000000E+02
4872000000.000000      6.477661000000000E-01      1.493555000000000E+01      4.201660000000000E-01     -1.487578000000000E+02
4873000000.000000      6.471558000000000E-01      1.501660000000000E+01      4.148560000000000E-01     -1.497969000000000E+02
4874000000.000000      6.495056000000000E-01      1.489160000000000E+01      4.107513000000000E-01     -1.504375000000000E+02
4875000000.000000      6.511536000000000E-01      1.477100000000000E+01      4.069366000000000E-01     -1.508984000000000E+02
4876000000.000000      6.509399000000000E-01      1.489990000000000E+01      4.037476000000000E-01     -1.516875000000000E+02
4877000000.000000      6.543579000000000E-01      1.461279000000000E+01      3.989105000000000E-01     -1.523516000000000E+02
4878000000.000000      6.531677000000000E-01      1.472412000000000E+01      3.942871000000000E-01     -1.530625000000000E+02
4879000000.000000      6.566162000000000E-01      1.464453000000000E+01      3.886108000000000E-01     -1.532500000000000E+02
4880000000.000000      6.586609000000000E-01      1.461963000000000E+01      3.841858000000000E-01     -1.541484000000000E+02
4881000000.000000      6.609192000000000E-01      1.448389000000000E+01      3.805542000000000E-01     -1.544844000000000E+02
4882000000.000000      6.600952000000000E-01      1.465576000000000E+01      3.769379000000000E-01     -1.553281000000000E+02
4883000000.000000      6.591187000000000E-01      1.429443000000000E+01      3.708649000000000E-01     -1.557812000000000E+02
4884000000.000000      6.629028000000000E-01      1.430420000000000E+01      3.670807000000000E-01     -1.561719000000000E+02
4885000000.000000      6.639099000000000E-01      1.427930000000000E+01      3.617096000000000E-01     -1.565781000000000E+02
4886000000.000000      6.633911000000000E-01      1.426025000000000E+01      3.582916000000000E-01     -1.571250000000000E+02
4887000000.000000      6.642151000000000E-01      1.428906000000000E+01      3.539124000000000E-01     -1.575859000000000E+02
4888000000.000000      6.667786000000000E-01      1.400049000000000E+01      3.508759000000000E-01     -1.582578000000000E+02
4889000000.000000      6.671143000000000E-01      1.391943000000000E+01      3.465424000000000E-01     -1.585391000000000E+02
4890000000.000000      6.676331000000000E-01      1.381494000000000E+01      3.414307000000000E-01     -1.591797000000000E+02
4891000000.000000      6.698914000000000E-01      1.383154000000000E+01      3.369751000000000E-01     -1.595937000000000E+02
4892000000.000000      6.696472000000000E-01      1.370654000000000E+01      3.335114000000000E-01     -1.599531000000000E+02
4893000000.000000      6.712036000000000E-01      1.359668000000000E+01      3.303833000000000E-01     -1.605781000000000E+02
4894000000.000000      6.733704000000000E-01      1.364355000000000E+01      3.247375000000000E-01     -1.609219000000000E+02
4895000000.000000      6.753845000000000E-01      1.339600000000000E+01      3.224182000000000E-01     -1.611719000000000E+02
4896000000.000000      6.746521000000000E-01      1.345947000000000E+01      3.181152000000000E-01     -1.615625000000000E+02
4897000000.000000      6.734924000000000E-01      1.338818000000000E+01      3.132019000000000E-01     -1.619922000000000E+02
4898000000.000000      6.759949000000000E-01      1.316016000000000E+01      3.107300000000000E-01     -1.623359000000000E+02
4899000000.000000      6.763306000000000E-01      1.303369000000000E+01      3.063202000000000E-01     -1.627578000000000E+02
4900000000.000000      6.787415000000000E-01      1.295410000000000E+01      3.030548000000000E-01     -1.629219000000000E+02
4901000000.000000      6.791077000000000E-01      1.284570000000000E+01      2.990112000000000E-01     -1.633437000000000E+02
4902000000.000000      6.799011000000000E-01      1.271631000000000E+01      2.959747000000000E-01     -1.636875000000000E+02
4903000000.000000      6.799011000000000E-01      1.282910000000000E+01      2.908630000000000E-01     -1.640234000000000E+02
4904000000.000000      6.806335000000000E-01      1.240869000000000E+01      2.877045000000000E-01     -1.643750000000000E+02
4905000000.000000      6.837158000000000E-01      1.253516000000000E+01      2.850952000000000E-01     -1.647734000000000E+02
4906000000.000000      6.826782000000000E-01      1.236621000000000E+01      2.813263000000000E-01     -1.649609000000000E+02
4907000000.000000      6.843567000000000E-01      1.217285000000000E+01      2.784271000000000E-01     -1.653516000000000E+02
4908000000.000000      6.867676000000000E-01      1.197070000000000E+01      2.750549000000000E-01     -1.657187000000000E+02
4909000000.000000      6.836853000000000E-01      1.224805000000000E+01      2.710114000000000E-01     -1.659219000000000E+02
4910000000.000000      6.840820000000000E-01      1.206836000000000E+01      2.681580000000000E-01     -1.663437000000000E+02
4911000000.000000      6.853027000000000E-01      1.180029000000000E+01      2.638550000000000E-01     -1.665859000000000E+02
4912000000.000000      6.858521000000000E-01      1.186230000000000E+01      2.602386000000000E-01     -1.670312000000000E+02
4913000000.000000      6.855469000000000E-01      1.172363000000000E+01      2.570801000000000E-01     -1.672812000000000E+02
4914000000.000000      6.869202000000000E-01      1.171680000000000E+01      2.534180000000000E-01     -1.674297000000000E+02
4915000000.000000      6.869812000000000E-01      1.174121000000000E+01      2.497177000000000E-01     -1.680000000000000E+02
4916000000.000000      6.891785000000000E-01      1.135254000000000E+01      2.461395000000000E-01     -1.682656000000000E+02
4917000000.000000      6.877136000000000E-01      1.125391000000000E+01      2.420807000000000E-01     -1.686172000000000E+02
4918000000.000000      6.902771000000000E-01      1.114941000000000E+01      2.387619000000000E-01     -1.688437000000000E+02
4919000000.000000      6.888428000000000E-01      1.125244000000000E+01      2.355194000000000E-01     -1.687734000000000E+02
4920000000.000000      6.925659000000000E-01      1.090381000000000E+01      2.308655000000000E-01     -1.692812000000000E+02
4921000000.000000      6.910095000000000E-01      1.096680000000000E+01      2.286911000000000E-01     -1.694922000000000E+02
4922000000.000000      6.938782000000000E-01      1.080762000000000E+01      2.247162000000000E-01     -1.695703000000000E+02
4923000000.000000      6.929321000000000E-01      1.070459000000000E+01      2.209396000000000E-01     -1.698281000000000E+02
4924000000.000000      6.948547000000000E-01      1.067432000000000E+01      2.166672000000000E-01     -1.700938000000000E+02
4925000000.000000      6.917725000000000E-01      1.040088000000000E+01      2.133026000000000E-01     -1.702266000000000E+02
4926000000.000000      6.932373000000000E-01      1.055615000000000E+01      2.099838000000000E-01     -1.704375000000000E+02
4927000000.000000      6.939697000000000E-01      1.022412000000000E+01      2.053833000000000E-01     -1.706563000000000E+02
4928000000.000000      6.961060000000000E-01      1.008789000000000E+01      2.021866000000000E-01     -1.707187000000000E+02
4929000000.000000      6.952515000000000E-01      1.012109000000000E+01      1.978378000000000E-01     -1.707500000000000E+02
4930000000.000000      6.944275000000000E-01      9.890137000000000E+00      1.946106000000000E-01     -1.708828000000000E+02
4931000000.000000      6.952209000000000E-01      9.945313000000000E+00      1.911697000000000E-01     -1.707109000000000E+02
4932000000.000000      6.974792000000000E-01      9.869629000000000E+00      1.869583000000000E-01     -1.709375000000000E+02
4933000000.000000      6.959534000000000E-01      9.652832000000000E+00      1.828918000000000E-01     -1.706406000000000E+02
4934000000.000000      6.981506000000000E-01      9.624023000000000E+00      1.794205000000000E-01     -1.708281000000000E+02
4935000000.000000      6.994019000000000E-01      9.558105000000000E+00      1.760406000000000E-01     -1.705781000000000E+02
4936000000.000000      6.966553000000000E-01      9.486328000000000E+00      1.714706000000000E-01     -1.704453000000000E+02
4937000000.000000      6.992188000000000E-01      9.308105000000000E+00      1.679230000000000E-01     -1.703984000000000E+02
4938000000.000000      6.990051000000000E-01      9.214355000000000E+00      1.647339000000000E-01     -1.700078000000000E+02
4939000000.000000      6.979370000000000E-01      9.103516000000000E+00      1.607208000000000E-01     -1.697656000000000E+02
4940000000.000000      7.007446000000000E-01      8.931641000000000E+00      1.569214000000000E-01     -1.695156000000000E+02
4941000000.000000      6.988220000000000E-01      8.943848000000000E+00      1.535263000000000E-01     -1.688906000000000E+02
4942000000.000000      6.994629000000000E-01      8.955078000000000E+00      1.498489000000000E-01     -1.687031000000000E+02
4943000000.000000      7.029114000000000E-01      8.864258000000000E+00      1.464462000000000E-01     -1.680156000000000E+02
4944000000.000000      7.018433000000000E-01      8.723145000000000E+00      1.431885000000000E-01     -1.675234000000000E+02
4945000000.000000      7.010803000000000E-01      8.493652000000000E+00      1.393661000000000E-01     -1.666953000000000E+02
4946000000.000000      7.021484000000000E-01      8.434570000000000E+00      1.365967000000000E-01     -1.660625000000000E+02
4947000000.000000      7.032776000000000E-01      8.372559000000000E+00      1.327820000000000E-01     -1.652578000000000E+02
4948000000.000000      7.058105000000000E-01      8.415527000000000E+00      1.299820000000000E-01     -1.642266000000000E+02
4949000000.000000      7.039795000000000E-01      8.184570000000000E+00      1.272736000000000E-01     -1.632422000000000E+02
4950000000.000000      7.038574000000000E-01      8.240723000000000E+00      1.247406000000000E-01     -1.623672000000000E+02
4951000000.000000      7.066956000000000E-01      8.071777000000000E+00      1.217728000000000E-01     -1.613437000000000E+02
4952000000.000000      7.055664000000000E-01      7.973145000000000E+00      1.187820000000000E-01     -1.601250000000000E+02
4953000000.000000      7.056885000000000E-01      7.805664000000000E+00      1.168747000000000E-01     -1.585781000000000E+02
4954000000.000000      7.073364000000000E-01      7.684814000000000E+00      1.145744000000000E-01     -1.571484000000000E+02
