! Network Analyzer HP8722D
! Hewlett-Packard
! Data name: Linha & Wilkinson
! Saver's name: Rodrigo Anjos
! Comments: Teste da utilização de aquisição
continua pelo VNA HP8722D
! Time and date: 22/5/2025 13:55
!              Frequency                     S11                                                   S21                                                   S12                                                   S22
# HZ  S  MA R 50
4800000000.000000      6.505737000000000E-01      1.067725000000000E+01      4.715576000000000E-01     -9.261719000000000E+01
4801000000.000000      6.481628000000000E-01      1.088721000000000E+01      4.731598000000000E-01     -9.306250000000000E+01
4802000000.000000      6.480408000000000E-01      1.077197000000000E+01      4.735718000000000E-01     -9.387499000000000E+01
4803000000.000000      6.467590000000000E-01      1.082275000000000E+01      4.769745000000000E-01     -9.462891000000000E+01
4804000000.000000      6.441650000000000E-01      1.086377000000000E+01      4.784698000000000E-01     -9.544922000000000E+01
4805000000.000000      6.447754000000000E-01      1.080225000000000E+01      4.813995000000000E-01     -9.631639000000000E+01
4806000000.000000      6.409302000000000E-01      1.083643000000000E+01      4.821014000000000E-01     -9.697655000000000E+01
4807000000.000000      6.375427000000000E-01      1.076074000000000E+01      4.823151000000000E-01     -9.781250000000000E+01
4808000000.000000      6.368713000000000E-01      1.082813000000000E+01      4.833221000000000E-01     -9.857811000000000E+01
4809000000.000000      6.361694000000000E-01      1.092139000000000E+01      4.849396000000000E-01     -9.930859000000000E+01
4810000000.000000      6.329346000000000E-01      1.082422000000000E+01      4.880676000000000E-01     -9.992577000000000E+01
4811000000.000000      6.321411000000000E-01      1.096680000000000E+01      4.900970000000000E-01     -1.008281000000000E+02
4812000000.000000      6.343994000000000E-01      1.105908000000000E+01      4.900818000000000E-01     -1.014063000000000E+02
4813000000.000000      6.311340000000000E-01      1.107520000000000E+01      4.911041000000000E-01     -1.022578000000000E+02
4814000000.000000      6.295166000000000E-01      1.110547000000000E+01      4.914856000000000E-01     -1.029766000000000E+02
4815000000.000000      6.266785000000000E-01      1.120850000000000E+01      4.924927000000000E-01     -1.038047000000000E+02
4816000000.000000      6.259766000000000E-01      1.119873000000000E+01      4.939270000000000E-01     -1.045508000000000E+02
4817000000.000000      6.249084000000000E-01      1.155615000000000E+01      4.937439000000000E-01     -1.053789000000000E+02
4818000000.000000      6.252441000000000E-01      1.134326000000000E+01      4.935455000000000E-01     -1.062305000000000E+02
4819000000.000000      6.242371000000000E-01      1.151074000000000E+01      4.953613000000000E-01     -1.067422000000000E+02
4820000000.000000      6.204224000000000E-01      1.157129000000000E+01      4.972839000000000E-01     -1.073008000000000E+02
4821000000.000000      6.209717000000000E-01      1.159424000000000E+01      4.975433000000000E-01     -1.083789000000000E+02
4822000000.000000      6.193237000000000E-01      1.166016000000000E+01      4.953308000000000E-01     -1.089570000000000E+02
4823000000.000000      6.190491000000000E-01      1.168652000000000E+01      4.964447000000000E-01     -1.098750000000000E+02
4824000000.000000      6.164246000000000E-01      1.205713000000000E+01      4.974823000000000E-01     -1.104219000000000E+02
4825000000.000000      6.178894000000000E-01      1.199414000000000E+01      4.982300000000000E-01     -1.112422000000000E+02
4826000000.000000      6.159668000000000E-01      1.190088000000000E+01      4.984283000000000E-01     -1.123125000000000E+02
4827000000.000000      6.156616000000000E-01      1.228271000000000E+01      4.989929000000000E-01     -1.127070000000000E+02
4828000000.000000      6.164551000000000E-01      1.238818000000000E+01      4.980011000000000E-01     -1.134141000000000E+02
4829000000.000000      6.163330000000000E-01      1.259033000000000E+01      4.996490000000000E-01     -1.142812000000000E+02
4830000000.000000      6.148682000000000E-01      1.266309000000000E+01      4.989471000000000E-01     -1.149687000000000E+02
4831000000.000000      6.135864000000000E-01      1.266553000000000E+01      4.980774000000000E-01     -1.158828000000000E+02
4832000000.000000      6.135559000000000E-01      1.282080000000000E+01      4.984894000000000E-01     -1.163320000000000E+02
4833000000.000000      6.133423000000000E-01      1.284424000000000E+01      4.994659000000000E-01     -1.172266000000000E+02
4834000000.000000      6.121216000000000E-01      1.295410000000000E+01      4.994965000000000E-01     -1.182461000000000E+02
4835000000.000000      6.127319000000000E-01      1.315723000000000E+01      4.988403000000000E-01     -1.189609000000000E+02
4836000000.000000      6.130981000000000E-01      1.338379000000000E+01      4.990540000000000E-01     -1.196445000000000E+02
4837000000.000000      6.127319000000000E-01      1.372461000000000E+01      4.980164000000000E-01     -1.206523000000000E+02
4838000000.000000      6.122131000000000E-01      1.344824000000000E+01      4.990997000000000E-01     -1.211289000000000E+02
4839000000.000000      6.161194000000000E-01      1.374365000000000E+01      4.978485000000000E-01     -1.218594000000000E+02
4840000000.000000      6.150818000000000E-01      1.373828000000000E+01      4.981232000000000E-01     -1.226797000000000E+02
4841000000.000000      6.133728000000000E-01      1.382764000000000E+01      4.973450000000000E-01     -1.237109000000000E+02
4842000000.000000      6.154480000000000E-01      1.378906000000000E+01      4.956970000000000E-01     -1.243242000000000E+02
4843000000.000000      6.191711000000000E-01      1.391650000000000E+01      4.959564000000000E-01     -1.254023000000000E+02
4844000000.000000      6.173401000000000E-01      1.387158000000000E+01      4.952393000000000E-01     -1.261836000000000E+02
4845000000.000000      6.179199000000000E-01      1.420215000000000E+01      4.931183000000000E-01     -1.265742000000000E+02
4846000000.000000      6.183472000000000E-01      1.422998000000000E+01      4.916687000000000E-01     -1.276406000000000E+02
4847000000.000000      6.187134000000000E-01      1.441650000000000E+01      4.914246000000000E-01     -1.284609000000000E+02
4848000000.000000      6.194153000000000E-01      1.451270000000000E+01      4.879761000000000E-01     -1.294609000000000E+02
4849000000.000000      6.202393000000000E-01      1.451953000000000E+01      4.889679000000000E-01     -1.300859000000000E+02
4850000000.000000      6.218262000000000E-01      1.444824000000000E+01      4.859924000000000E-01     -1.310234000000000E+02
4851000000.000000      6.221924000000000E-01      1.457471000000000E+01      4.852448000000000E-01     -1.318906000000000E+02
4852000000.000000      6.234741000000000E-01      1.466943000000000E+01      4.832153000000000E-01     -1.330078000000000E+02
4853000000.000000      6.246338000000000E-01      1.473389000000000E+01      4.798737000000000E-01     -1.337344000000000E+02
4854000000.000000      6.250916000000000E-01      1.471191000000000E+01      4.781342000000000E-01     -1.346094000000000E+02
4855000000.000000      6.260376000000000E-01      1.476660000000000E+01      4.768066000000000E-01     -1.353672000000000E+02
4856000000.000000      6.288757000000000E-01      1.474463000000000E+01      4.739075000000000E-01     -1.362422000000000E+02
4857000000.000000      6.294556000000000E-01      1.490674000000000E+01      4.718628000000000E-01     -1.369062000000000E+02
4858000000.000000      6.296082000000000E-01      1.490283000000000E+01      4.685669000000000E-01     -1.380391000000000E+02
4859000000.000000      6.321106000000000E-01      1.486572000000000E+01      4.667053000000000E-01     -1.387656000000000E+02
4860000000.000000      6.318665000000000E-01      1.501660000000000E+01      4.638672000000000E-01     -1.395078000000000E+02
4861000000.000000      6.327209000000000E-01      1.503613000000000E+01      4.597931000000000E-01     -1.405000000000000E+02
4862000000.000000      6.332703000000000E-01      1.493994000000000E+01      4.574890000000000E-01     -1.411328000000000E+02
4863000000.000000      6.351013000000000E-01      1.508691000000000E+01      4.539795000000000E-01     -1.418906000000000E+02
4864000000.000000      6.356506000000000E-01      1.493994000000000E+01      4.494171000000000E-01     -1.428828000000000E+02
4865000000.000000      6.376648000000000E-01      1.503320000000000E+01      4.469604000000000E-01     -1.435859000000000E+02
4866000000.000000      6.392212000000000E-01      1.487939000000000E+01      4.428864000000000E-01     -1.445781000000000E+02
4867000000.000000      6.380005000000000E-01      1.499463000000000E+01      4.380493000000000E-01     -1.454062000000000E+02
4868000000.000000      6.437378000000000E-01      1.489014000000000E+01      4.358673000000000E-01     -1.461797000000000E+02
4869000000.000000      6.429443000000000E-01      1.483936000000000E+01      4.308929000000000E-01     -1.469687000000000E+02
4870000000.000000      6.457214000000000E-01      1.490674000000000E+01      4.279633000000000E-01     -1.474297000000000E+02
4871000000.000000      6.444702000000000E-01      1.485352000000000E+01      4.230194000000000E-01     -1.483281000000000E+02
4872000000.000000      6.479187000000000E-01      1.493994000000000E+01      4.177399000000000E-01     -1.489453000000000E+02
4873000000.000000      6.470642000000000E-01      1.492725000000000E+01      4.136963000000000E-01     -1.498125000000000E+02
4874000000.000000      6.498413000000000E-01      1.487256000000000E+01      4.102631000000000E-01     -1.505703000000000E+02
4875000000.000000      6.501160000000000E-01      1.470215000000000E+01      4.052277000000000E-01     -1.512031000000000E+02
4876000000.000000      6.518250000000000E-01      1.479980000000000E+01      4.013367000000000E-01     -1.516484000000000E+02
4877000000.000000      6.525574000000000E-01      1.455371000000000E+01      3.967285000000000E-01     -1.524219000000000E+02
4878000000.000000      6.528625000000000E-01      1.453857000000000E+01      3.923950000000000E-01     -1.531172000000000E+02
4879000000.000000      6.560059000000000E-01      1.444971000000000E+01      3.876343000000000E-01     -1.535078000000000E+02
4880000000.000000      6.580200000000000E-01      1.442480000000000E+01      3.843079000000000E-01     -1.541875000000000E+02
4881000000.000000      6.589661000000000E-01      1.453613000000000E+01      3.792572000000000E-01     -1.546953000000000E+02
4882000000.000000      6.603088000000000E-01      1.445068000000000E+01      3.763580000000000E-01     -1.553203000000000E+02
4883000000.000000      6.583252000000000E-01      1.429004000000000E+01      3.708496000000000E-01     -1.559375000000000E+02
4884000000.000000      6.625061000000000E-01      1.436719000000000E+01      3.657532000000000E-01     -1.565312000000000E+02
4885000000.000000      6.631775000000000E-01      1.417236000000000E+01      3.615417000000000E-01     -1.567891000000000E+02
4886000000.000000      6.643982000000000E-01      1.416504000000000E+01      3.571625000000000E-01     -1.572891000000000E+02
4887000000.000000      6.653137000000000E-01      1.400732000000000E+01      3.544769000000000E-01     -1.578750000000000E+02
4888000000.000000      6.660767000000000E-01      1.386572000000000E+01      3.490295000000000E-01     -1.584766000000000E+02
4889000000.000000      6.676025000000000E-01      1.382861000000000E+01      3.448639000000000E-01     -1.589062000000000E+02
4890000000.000000      6.675720000000000E-01      1.380566000000000E+01      3.400574000000000E-01     -1.594219000000000E+02
4891000000.000000      6.694031000000000E-01      1.384961000000000E+01      3.354187000000000E-01     -1.596328000000000E+02
4892000000.000000      6.708374000000000E-01      1.361719000000000E+01      3.305664000000000E-01     -1.599062000000000E+02
4893000000.000000      6.711426000000000E-01      1.363086000000000E+01      3.282166000000000E-01     -1.605312000000000E+02
4894000000.000000      6.716614000000000E-01      1.345654000000000E+01      3.228607000000000E-01     -1.609688000000000E+02
4895000000.000000      6.743164000000000E-01      1.324219000000000E+01      3.217163000000000E-01     -1.611094000000000E+02
4896000000.000000      6.729126000000000E-01      1.326855000000000E+01      3.167267000000000E-01     -1.617031000000000E+02
4897000000.000000      6.746216000000000E-01      1.311768000000000E+01      3.125305000000000E-01     -1.621562000000000E+02
4898000000.000000      6.782837000000000E-01      1.307910000000000E+01      3.092041000000000E-01     -1.623828000000000E+02
4899000000.000000      6.750793000000000E-01      1.297754000000000E+01      3.053589000000000E-01     -1.628125000000000E+02
4900000000.000000      6.780701000000000E-01      1.289795000000000E+01      3.013763000000000E-01     -1.631250000000000E+02
4901000000.000000      6.782532000000000E-01      1.297852000000000E+01      2.980652000000000E-01     -1.634766000000000E+02
4902000000.000000      6.781006000000000E-01      1.276709000000000E+01      2.943726000000000E-01     -1.636250000000000E+02
4903000000.000000      6.799011000000000E-01      1.271924000000000E+01      2.902374000000000E-01     -1.641484000000000E+02
4904000000.000000      6.798096000000000E-01      1.253369000000000E+01      2.868042000000000E-01     -1.645937000000000E+02
4905000000.000000      6.807251000000000E-01      1.244043000000000E+01      2.839661000000000E-01     -1.649531000000000E+02
4906000000.000000      6.816101000000000E-01      1.224951000000000E+01      2.796173000000000E-01     -1.648750000000000E+02
4907000000.000000      6.846924000000000E-01      1.216699000000000E+01      2.777710000000000E-01     -1.654531000000000E+02
4908000000.000000      6.828918000000000E-01      1.219189000000000E+01      2.737579000000000E-01     -1.659141000000000E+02
4909000000.000000      6.831360000000000E-01      1.212158000000000E+01      2.698059000000000E-01     -1.661797000000000E+02
4910000000.000000      6.858521000000000E-01      1.185010000000000E+01      2.662964000000000E-01     -1.664453000000000E+02
4911000000.000000      6.874390000000000E-01      1.201904000000000E+01      2.628479000000000E-01     -1.666641000000000E+02
4912000000.000000      6.871948000000000E-01      1.171680000000000E+01      2.595978000000000E-01     -1.671172000000000E+02
4913000000.000000      6.880798000000000E-01      1.164941000000000E+01      2.557678000000000E-01     -1.673437000000000E+02
4914000000.000000      6.889343000000000E-01      1.146973000000000E+01      2.522888000000000E-01     -1.675859000000000E+02
4915000000.000000      6.881104000000000E-01      1.156006000000000E+01      2.484665000000000E-01     -1.679766000000000E+02
4916000000.000000      6.882935000000000E-01      1.135010000000000E+01      2.451019000000000E-01     -1.683203000000000E+02
4917000000.000000      6.875610000000000E-01      1.125391000000000E+01      2.420807000000000E-01     -1.684844000000000E+02
4918000000.000000      6.910706000000000E-01      1.122363000000000E+01      2.375107000000000E-01     -1.687969000000000E+02
4919000000.000000      6.875916000000000E-01      1.106836000000000E+01      2.342453000000000E-01     -1.689531000000000E+02
4920000000.000000      6.907349000000000E-01      1.107422000000000E+01      2.303085000000000E-01     -1.693516000000000E+02
4921000000.000000      6.908569000000000E-01      1.092578000000000E+01      2.275162000000000E-01     -1.694844000000000E+02
4922000000.000000      6.919861000000000E-01      1.078857000000000E+01      2.230911000000000E-01     -1.696563000000000E+02
4923000000.000000      6.922913000000000E-01      1.061279000000000E+01      2.194595000000000E-01     -1.697500000000000E+02
4924000000.000000      6.929016000000000E-01      1.068262000000000E+01      2.160110000000000E-01     -1.701719000000000E+02
4925000000.000000      6.930847000000000E-01      1.043799000000000E+01      2.119751000000000E-01     -1.702109000000000E+02
4926000000.000000      6.925659000000000E-01      1.041748000000000E+01      2.088852000000000E-01     -1.705625000000000E+02
4927000000.000000      6.939697000000000E-01      1.024170000000000E+01      2.039719000000000E-01     -1.706640000000000E+02
4928000000.000000      6.978455000000000E-01      1.006445000000000E+01      2.011108000000000E-01     -1.706172000000000E+02
4929000000.000000      6.939087000000000E-01      1.014551000000000E+01      1.966476000000000E-01     -1.706719000000000E+02
4930000000.000000      6.924744000000000E-01      9.902344000000000E+00      1.930923000000000E-01     -1.707578000000000E+02
4931000000.000000      6.972046000000000E-01      9.918945000000000E+00      1.903000000000000E-01     -1.706719000000000E+02
4932000000.000000      6.956177000000000E-01      9.722656000000000E+00      1.861343000000000E-01     -1.708984000000000E+02
4933000000.000000      6.972046000000000E-01      9.634766000000000E+00      1.809006000000000E-01     -1.706172000000000E+02
4934000000.000000      7.001648000000000E-01      9.644531000000000E+00      1.780930000000000E-01     -1.706719000000000E+02
4935000000.000000      6.996765000000000E-01      9.396973000000000E+00      1.749191000000000E-01     -1.704062000000000E+02
4936000000.000000      6.978149000000000E-01      9.406738000000000E+00      1.706467000000000E-01     -1.703281000000000E+02
4937000000.000000      7.002258000000000E-01      9.071777000000000E+00      1.669846000000000E-01     -1.700547000000000E+02
4938000000.000000      6.988525000000000E-01      9.225586000000000E+00      1.637115000000000E-01     -1.697578000000000E+02
4939000000.000000      6.998291000000000E-01      9.185547000000000E+00      1.599350000000000E-01     -1.692891000000000E+02
4940000000.000000      6.990967000000000E-01      9.002930000000000E+00      1.559753000000000E-01     -1.693906000000000E+02
4941000000.000000      7.015686000000000E-01      8.805176000000000E+00      1.524200000000000E-01     -1.687813000000000E+02
4942000000.000000      6.998901000000000E-01      8.729980000000000E+00      1.486130000000000E-01     -1.683984000000000E+02
4943000000.000000      7.037354000000000E-01      8.721680000000000E+00      1.459579000000000E-01     -1.676719000000000E+02
4944000000.000000      7.009888000000000E-01      8.645996000000000E+00      1.424637000000000E-01     -1.672109000000000E+02
4945000000.000000      7.022705000000000E-01      8.591309000000000E+00      1.385880000000000E-01     -1.664531000000000E+02
4946000000.000000      7.058105000000000E-01      8.523926000000000E+00      1.354446000000000E-01     -1.656797000000000E+02
4947000000.000000      7.021179000000000E-01      8.224609000000000E+00      1.321793000000000E-01     -1.649219000000000E+02
4948000000.000000      7.063904000000000E-01      8.143555000000000E+00      1.294174000000000E-01     -1.641328000000000E+02
4949000000.000000      7.037964000000000E-01      8.164063000000000E+00      1.266479000000000E-01     -1.627969000000000E+02
4950000000.000000      7.039795000000000E-01      8.194336000000000E+00      1.239777000000000E-01     -1.617812000000000E+02
4951000000.000000      7.053528000000000E-01      7.965088000000000E+00      1.209297000000000E-01     -1.610078000000000E+02
4952000000.000000      7.051697000000000E-01      7.852295000000000E+00      1.181717000000000E-01     -1.596172000000000E+02
4953000000.000000      7.042542000000000E-01      7.730225000000000E+00      1.162453000000000E-01     -1.579922000000000E+02
4954000000.000000      7.066040000000000E-01      7.635498000000000E+00      1.140900000000000E-01     -1.567969000000000E+02
