! Network Analyzer HP8722D
! Hewlett-Packard
! Data name: Linha & Wilkinson
! Saver's name: Rodrigo Anjos
! Comments: Teste da utilização de aquisição
continua pelo VNA HP8722D
! Time and date: 22/5/2025 12:42
!              Frequency                     S11                                                   S21                                                   S12                                                   S22
# HZ  S  MA R 50
4800000000.000000      6.524048000000000E-01      1.083496000000000E+01      4.719238000000000E-01     -9.218750000000000E+01
4801000000.000000      6.505432000000000E-01      1.079541000000000E+01      4.717255000000000E-01     -9.281641000000000E+01
4802000000.000000      6.488037000000000E-01      1.081299000000000E+01      4.739380000000000E-01     -9.348047000000000E+01
4803000000.000000      6.470032000000000E-01      1.090771000000000E+01      4.779510000000000E-01     -9.419922000000000E+01
4804000000.000000      6.453552000000000E-01      1.083643000000000E+01      4.778442000000000E-01     -9.520311000000000E+01
4805000000.000000      6.453857000000000E-01      1.078027000000000E+01      4.813843000000000E-01     -9.603516000000000E+01
4806000000.000000      6.419678000000000E-01      1.085840000000000E+01      4.816132000000000E-01     -9.651953000000000E+01
4807000000.000000      6.396179000000000E-01      1.090625000000000E+01      4.824677000000000E-01     -9.751562000000000E+01
4808000000.000000      6.371155000000000E-01      1.072119000000000E+01      4.838409000000000E-01     -9.798828000000000E+01
4809000000.000000      6.373901000000000E-01      1.086377000000000E+01      4.861755000000000E-01     -9.914843000000000E+01
4810000000.000000      6.356812000000000E-01      1.096973000000000E+01      4.895020000000000E-01     -9.980078000000000E+01
4811000000.000000      6.339111000000000E-01      1.100000000000000E+01      4.892120000000000E-01     -1.006055000000000E+02
4812000000.000000      6.352234000000000E-01      1.101074000000000E+01      4.902344000000000E-01     -1.012383000000000E+02
4813000000.000000      6.314392000000000E-01      1.108350000000000E+01      4.910889000000000E-01     -1.020742000000000E+02
4814000000.000000      6.285095000000000E-01      1.113574000000000E+01      4.914093000000000E-01     -1.025859000000000E+02
4815000000.000000      6.272888000000000E-01      1.117432000000000E+01      4.937439000000000E-01     -1.034766000000000E+02
4816000000.000000      6.275330000000000E-01      1.113721000000000E+01      4.963226000000000E-01     -1.043242000000000E+02
4817000000.000000      6.265869000000000E-01      1.141602000000000E+01      4.951630000000000E-01     -1.050117000000000E+02
4818000000.000000      6.230774000000000E-01      1.144629000000000E+01      4.945984000000000E-01     -1.056836000000000E+02
4819000000.000000      6.242981000000000E-01      1.142969000000000E+01      4.962158000000000E-01     -1.064570000000000E+02
4820000000.000000      6.221924000000000E-01      1.149170000000000E+01      4.958038000000000E-01     -1.071328000000000E+02
4821000000.000000      6.224060000000000E-01      1.164795000000000E+01      4.969177000000000E-01     -1.080000000000000E+02
4822000000.000000      6.192017000000000E-01      1.168652000000000E+01      4.963684000000000E-01     -1.086523000000000E+02
4823000000.000000      6.201172000000000E-01      1.175781000000000E+01      4.985352000000000E-01     -1.095117000000000E+02
4824000000.000000      6.205444000000000E-01      1.191016000000000E+01      4.982605000000000E-01     -1.100781000000000E+02
4825000000.000000      6.168213000000000E-01      1.195703000000000E+01      4.964447000000000E-01     -1.109648000000000E+02
4826000000.000000      6.181641000000000E-01      1.207764000000000E+01      4.971924000000000E-01     -1.117539000000000E+02
4827000000.000000      6.162720000000000E-01      1.208740000000000E+01      4.979248000000000E-01     -1.123984000000000E+02
4828000000.000000      6.161804000000000E-01      1.226611000000000E+01      4.992218000000000E-01     -1.130742000000000E+02
4829000000.000000      6.167603000000000E-01      1.248291000000000E+01      5.002747000000000E-01     -1.138672000000000E+02
4830000000.000000      6.151123000000000E-01      1.235547000000000E+01      5.000000000000000E-01     -1.146992000000000E+02
4831000000.000000      6.155090000000000E-01      1.256836000000000E+01      5.006409000000000E-01     -1.154726000000000E+02
4832000000.000000      6.130371000000000E-01      1.277686000000000E+01      4.989319000000000E-01     -1.162578000000000E+02
4833000000.000000      6.148987000000000E-01      1.273975000000000E+01      4.990234000000000E-01     -1.167695000000000E+02
4834000000.000000      6.138306000000000E-01      1.287695000000000E+01      4.993591000000000E-01     -1.176563000000000E+02
4835000000.000000      6.153564000000000E-01      1.302832000000000E+01      4.986877000000000E-01     -1.186133000000000E+02
4836000000.000000      6.159973000000000E-01      1.329443000000000E+01      4.977570000000000E-01     -1.193594000000000E+02
4837000000.000000      6.145325000000000E-01      1.339600000000000E+01      4.980316000000000E-01     -1.201992000000000E+02
4838000000.000000      6.129761000000000E-01      1.343311000000000E+01      4.981384000000000E-01     -1.207695000000000E+02
4839000000.000000      6.168823000000000E-01      1.361182000000000E+01      4.980164000000000E-01     -1.216836000000000E+02
4840000000.000000      6.157532000000000E-01      1.357080000000000E+01      4.987488000000000E-01     -1.224805000000000E+02
4841000000.000000      6.146851000000000E-01      1.368896000000000E+01      4.983368000000000E-01     -1.232813000000000E+02
4842000000.000000      6.151733000000000E-01      1.376563000000000E+01      4.968262000000000E-01     -1.239687000000000E+02
4843000000.000000      6.181030000000000E-01      1.392090000000000E+01      4.962769000000000E-01     -1.249961000000000E+02
4844000000.000000      6.167603000000000E-01      1.380273000000000E+01      4.953918000000000E-01     -1.259180000000000E+02
4845000000.000000      6.192627000000000E-01      1.409521000000000E+01      4.934540000000000E-01     -1.265781000000000E+02
4846000000.000000      6.196899000000000E-01      1.417773000000000E+01      4.937592000000000E-01     -1.273984000000000E+02
4847000000.000000      6.195679000000000E-01      1.432617000000000E+01      4.920044000000000E-01     -1.281406000000000E+02
4848000000.000000      6.201172000000000E-01      1.426709000000000E+01      4.906158000000000E-01     -1.290156000000000E+02
4849000000.000000      6.214600000000000E-01      1.419141000000000E+01      4.898071000000000E-01     -1.298828000000000E+02
4850000000.000000      6.224976000000000E-01      1.433154000000000E+01      4.873810000000000E-01     -1.307656000000000E+02
4851000000.000000      6.228027000000000E-01      1.457471000000000E+01      4.871674000000000E-01     -1.315547000000000E+02
4852000000.000000      6.240845000000000E-01      1.461035000000000E+01      4.847107000000000E-01     -1.323750000000000E+02
4853000000.000000      6.250916000000000E-01      1.466504000000000E+01      4.811249000000000E-01     -1.332891000000000E+02
4854000000.000000      6.259766000000000E-01      1.451660000000000E+01      4.794617000000000E-01     -1.342500000000000E+02
4855000000.000000      6.266174000000000E-01      1.488477000000000E+01      4.782257000000000E-01     -1.349688000000000E+02
4856000000.000000      6.272583000000000E-01      1.480664000000000E+01      4.743347000000000E-01     -1.359219000000000E+02
4857000000.000000      6.305542000000000E-01      1.501416000000000E+01      4.741211000000000E-01     -1.366484000000000E+02
4858000000.000000      6.280823000000000E-01      1.467334000000000E+01      4.705811000000000E-01     -1.376875000000000E+02
4859000000.000000      6.318665000000000E-01      1.465820000000000E+01      4.678192000000000E-01     -1.384453000000000E+02
4860000000.000000      6.331482000000000E-01      1.496582000000000E+01      4.646759000000000E-01     -1.393359000000000E+02
4861000000.000000      6.334534000000000E-01      1.482715000000000E+01      4.617310000000000E-01     -1.401328000000000E+02
4862000000.000000      6.345520000000000E-01      1.497412000000000E+01      4.586945000000000E-01     -1.407891000000000E+02
4863000000.000000      6.364746000000000E-01      1.510742000000000E+01      4.537354000000000E-01     -1.418750000000000E+02
4864000000.000000      6.380005000000000E-01      1.497412000000000E+01      4.515381000000000E-01     -1.424219000000000E+02
4865000000.000000      6.355896000000000E-01      1.496582000000000E+01      4.476624000000000E-01     -1.433516000000000E+02
4866000000.000000      6.401672000000000E-01      1.500146000000000E+01      4.438782000000000E-01     -1.440547000000000E+02
4867000000.000000      6.390381000000000E-01      1.482422000000000E+01      4.416199000000000E-01     -1.449687000000000E+02
4868000000.000000      6.411743000000000E-01      1.481885000000000E+01      4.354095000000000E-01     -1.459922000000000E+02
4869000000.000000      6.441650000000000E-01      1.488330000000000E+01      4.338379000000000E-01     -1.463906000000000E+02
4870000000.000000      6.441650000000000E-01      1.483008000000000E+01      4.295502000000000E-01     -1.471016000000000E+02
4871000000.000000      6.450195000000000E-01      1.468555000000000E+01      4.246826000000000E-01     -1.481875000000000E+02
4872000000.000000      6.483765000000000E-01      1.477100000000000E+01      4.203644000000000E-01     -1.485312000000000E+02
4873000000.000000      6.486816000000000E-01      1.489990000000000E+01      4.166870000000000E-01     -1.496016000000000E+02
4874000000.000000      6.492615000000000E-01      1.485596000000000E+01      4.113770000000000E-01     -1.501797000000000E+02
4875000000.000000      6.506042000000000E-01      1.469385000000000E+01      4.072266000000000E-01     -1.508750000000000E+02
4876000000.000000      6.517639000000000E-01      1.486963000000000E+01      4.039001000000000E-01     -1.517109000000000E+02
4877000000.000000      6.549683000000000E-01      1.464844000000000E+01      3.986359000000000E-01     -1.521641000000000E+02
4878000000.000000      6.529541000000000E-01      1.451563000000000E+01      3.945923000000000E-01     -1.530156000000000E+02
4879000000.000000      6.554565000000000E-01      1.450586000000000E+01      3.896179000000000E-01     -1.531875000000000E+02
4880000000.000000      6.585388000000000E-01      1.454688000000000E+01      3.863831000000000E-01     -1.540390000000000E+02
4881000000.000000      6.591797000000000E-01      1.449756000000000E+01      3.804169000000000E-01     -1.545625000000000E+02
4882000000.000000      6.601563000000000E-01      1.449463000000000E+01      3.774567000000000E-01     -1.552266000000000E+02
4883000000.000000      6.593933000000000E-01      1.430811000000000E+01      3.714447000000000E-01     -1.555547000000000E+02
4884000000.000000      6.625061000000000E-01      1.437793000000000E+01      3.683319000000000E-01     -1.563984000000000E+02
4885000000.000000      6.624451000000000E-01      1.423389000000000E+01      3.630829000000000E-01     -1.566406000000000E+02
4886000000.000000      6.636963000000000E-01      1.422021000000000E+01      3.583832000000000E-01     -1.570781000000000E+02
4887000000.000000      6.669006000000000E-01      1.414746000000000E+01      3.559570000000000E-01     -1.575938000000000E+02
4888000000.000000      6.652527000000000E-01      1.379150000000000E+01      3.504791000000000E-01     -1.584375000000000E+02
4889000000.000000      6.667175000000000E-01      1.391650000000000E+01      3.451996000000000E-01     -1.587031000000000E+02
4890000000.000000      6.688538000000000E-01      1.387158000000000E+01      3.413696000000000E-01     -1.593281000000000E+02
4891000000.000000      6.689453000000000E-01      1.389453000000000E+01      3.376770000000000E-01     -1.595703000000000E+02
4892000000.000000      6.686401000000000E-01      1.375732000000000E+01      3.343353000000000E-01     -1.597656000000000E+02
4893000000.000000      6.724854000000000E-01      1.367773000000000E+01      3.285370000000000E-01     -1.605703000000000E+02
4894000000.000000      6.727905000000000E-01      1.354590000000000E+01      3.264771000000000E-01     -1.608672000000000E+02
4895000000.000000      6.773987000000000E-01      1.331934000000000E+01      3.237000000000000E-01     -1.613047000000000E+02
4896000000.000000      6.752319000000000E-01      1.325732000000000E+01      3.183594000000000E-01     -1.616328000000000E+02
4897000000.000000      6.755066000000000E-01      1.324805000000000E+01      3.145142000000000E-01     -1.619844000000000E+02
4898000000.000000      6.770325000000000E-01      1.316943000000000E+01      3.107605000000000E-01     -1.622890000000000E+02
4899000000.000000      6.779480000000000E-01      1.300879000000000E+01      3.068695000000000E-01     -1.628594000000000E+02
4900000000.000000      6.783142000000000E-01      1.305029000000000E+01      3.030701000000000E-01     -1.630000000000000E+02
4901000000.000000      6.802063000000000E-01      1.280566000000000E+01      2.997589000000000E-01     -1.634219000000000E+02
4902000000.000000      6.801453000000000E-01      1.272754000000000E+01      2.964325000000000E-01     -1.636328000000000E+02
4903000000.000000      6.803894000000000E-01      1.279199000000000E+01      2.922668000000000E-01     -1.640234000000000E+02
4904000000.000000      6.801147000000000E-01      1.254199000000000E+01      2.888641000000000E-01     -1.644922000000000E+02
4905000000.000000      6.831360000000000E-01      1.231006000000000E+01      2.855225000000000E-01     -1.648281000000000E+02
4906000000.000000      6.830750000000000E-01      1.245557000000000E+01      2.817230000000000E-01     -1.649297000000000E+02
4907000000.000000      6.823120000000000E-01      1.227539000000000E+01      2.785187000000000E-01     -1.653359000000000E+02
4908000000.000000      6.853027000000000E-01      1.201074000000000E+01      2.754364000000000E-01     -1.657656000000000E+02
4909000000.000000      6.829834000000000E-01      1.203271000000000E+01      2.708588000000000E-01     -1.658594000000000E+02
4910000000.000000      6.865845000000000E-01      1.204639000000000E+01      2.678680000000000E-01     -1.663984000000000E+02
4911000000.000000      6.863403000000000E-01      1.197363000000000E+01      2.645569000000000E-01     -1.666250000000000E+02
4912000000.000000      6.879272000000000E-01      1.184717000000000E+01      2.605896000000000E-01     -1.670312000000000E+02
4913000000.000000      6.877747000000000E-01      1.151465000000000E+01      2.574158000000000E-01     -1.672656000000000E+02
4914000000.000000      6.871338000000000E-01      1.138281000000000E+01      2.541199000000000E-01     -1.675703000000000E+02
4915000000.000000      6.885071000000000E-01      1.129102000000000E+01      2.499771000000000E-01     -1.680469000000000E+02
4916000000.000000      6.902466000000000E-01      1.154102000000000E+01      2.468109000000000E-01     -1.684453000000000E+02
4917000000.000000      6.893005000000000E-01      1.132275000000000E+01      2.430649000000000E-01     -1.685156000000000E+02
4918000000.000000      6.896057000000000E-01      1.118408000000000E+01      2.389755000000000E-01     -1.687187000000000E+02
4919000000.000000      6.907349000000000E-01      1.109180000000000E+01      2.354584000000000E-01     -1.689375000000000E+02
4920000000.000000      6.909180000000000E-01      1.082666000000000E+01      2.318115000000000E-01     -1.693438000000000E+02
4921000000.000000      6.907654000000000E-01      1.093945000000000E+01      2.283249000000000E-01     -1.694609000000000E+02
4922000000.000000      6.921082000000000E-01      1.078125000000000E+01      2.244644000000000E-01     -1.696172000000000E+02
4923000000.000000      6.904602000000000E-01      1.066895000000000E+01      2.209091000000000E-01     -1.698203000000000E+02
4924000000.000000      6.911621000000000E-01      1.049854000000000E+01      2.169418000000000E-01     -1.702422000000000E+02
4925000000.000000      6.927795000000000E-01      1.053027000000000E+01      2.133179000000000E-01     -1.703438000000000E+02
4926000000.000000      6.928101000000000E-01      1.035303000000000E+01      2.099533000000000E-01     -1.703203000000000E+02
4927000000.000000      6.957703000000000E-01      1.018408000000000E+01      2.059708000000000E-01     -1.706640000000000E+02
4928000000.000000      6.958618000000000E-01      1.028564000000000E+01      2.021942000000000E-01     -1.706250000000000E+02
4929000000.000000      6.924744000000000E-01      1.010449000000000E+01      1.984634000000000E-01     -1.706406000000000E+02
4930000000.000000      6.967163000000000E-01      1.004932000000000E+01      1.946793000000000E-01     -1.709922000000000E+02
4931000000.000000      6.977234000000000E-01      9.998535000000000E+00      1.913147000000000E-01     -1.708359000000000E+02
4932000000.000000      6.974487000000000E-01      9.847656000000000E+00      1.873016000000000E-01     -1.708594000000000E+02
4933000000.000000      6.982422000000000E-01      9.607422000000000E+00      1.829453000000000E-01     -1.707187000000000E+02
4934000000.000000      6.983643000000000E-01      9.542969000000000E+00      1.795273000000000E-01     -1.708672000000000E+02
4935000000.000000      6.987610000000000E-01      9.402832000000000E+00      1.754837000000000E-01     -1.706328000000000E+02
4936000000.000000      6.971741000000000E-01      9.368164000000000E+00      1.717758000000000E-01     -1.704375000000000E+02
4937000000.000000      7.005920000000000E-01      9.053711000000000E+00      1.680679000000000E-01     -1.702812000000000E+02
4938000000.000000      6.979370000000000E-01      9.141602000000000E+00      1.645813000000000E-01     -1.699687000000000E+02
4939000000.000000      6.988525000000000E-01      9.071777000000000E+00      1.611328000000000E-01     -1.698125000000000E+02
4940000000.000000      7.013855000000000E-01      8.980957000000000E+00      1.568604000000000E-01     -1.695781000000000E+02
4941000000.000000      7.010498000000000E-01      8.783203000000000E+00      1.537170000000000E-01     -1.689375000000000E+02
4942000000.000000      7.009277000000000E-01      8.908203000000000E+00      1.497955000000000E-01     -1.686875000000000E+02
4943000000.000000      7.029419000000000E-01      8.915039000000000E+00      1.463013000000000E-01     -1.681797000000000E+02
4944000000.000000      7.022095000000000E-01      8.680176000000000E+00      1.433258000000000E-01     -1.675078000000000E+02
4945000000.000000      7.024231000000000E-01      8.438477000000000E+00      1.397629000000000E-01     -1.670469000000000E+02
4946000000.000000      7.054443000000000E-01      8.532227000000000E+00      1.363983000000000E-01     -1.659141000000000E+02
4947000000.000000      7.029724000000000E-01      8.191406000000000E+00      1.332550000000000E-01     -1.654687000000000E+02
4948000000.000000      7.053833000000000E-01      8.247559000000000E+00      1.303177000000000E-01     -1.643125000000000E+02
4949000000.000000      7.039795000000000E-01      8.206543000000000E+00      1.273270000000000E-01     -1.631953000000000E+02
4950000000.000000      7.066345000000000E-01      7.988281000000000E+00      1.244507000000000E-01     -1.624375000000000E+02
4951000000.000000      7.049561000000000E-01      8.012695000000000E+00      1.218605000000000E-01     -1.612813000000000E+02
4952000000.000000      7.050171000000000E-01      7.959473000000000E+00      1.191139000000000E-01     -1.602031000000000E+02
4953000000.000000      7.075806000000000E-01      7.613525000000000E+00      1.170082000000000E-01     -1.587188000000000E+02
4954000000.000000      7.064514000000000E-01      7.562500000000000E+00      1.143951000000000E-01     -1.573750000000000E+02
