! Network Analyzer HP8722D
! Hewlett-Packard
! Data name: Linha & Wilkinson
! Saver's name: Rodrigo Anjos
! Comments: Teste da utilização de aquisição
continua pelo VNA HP8722D
! Time and date: 22/5/2025 11:50
!              Frequency                     S11                                                   S21                                                   S12                                                   S22
# HZ  S  MA R 50
4800000000.000000      6.512451000000000E-01      1.074316000000000E+01      4.700317000000000E-01     -9.239843000000000E+01
4801000000.000000      6.509399000000000E-01      1.082959000000000E+01      4.734497000000000E-01     -9.329687000000000E+01
4802000000.000000      6.490784000000000E-01      1.071826000000000E+01      4.747009000000000E-01     -9.382030000000000E+01
4803000000.000000      6.468506000000000E-01      1.077734000000000E+01      4.772949000000000E-01     -9.464453000000000E+01
4804000000.000000      6.443481000000000E-01      1.067041000000000E+01      4.786072000000000E-01     -9.514843000000000E+01
4805000000.000000      6.458130000000000E-01      1.068262000000000E+01      4.804688000000000E-01     -9.627342000000000E+01
4806000000.000000      6.419983000000000E-01      1.086914000000000E+01      4.817352000000000E-01     -9.669531000000000E+01
4807000000.000000      6.395874000000000E-01      1.067969000000000E+01      4.840240000000000E-01     -9.783203000000000E+01
4808000000.000000      6.365051000000000E-01      1.079248000000000E+01      4.851990000000000E-01     -9.833202000000000E+01
4809000000.000000      6.380005000000000E-01      1.084717000000000E+01      4.860229000000000E-01     -9.930468000000000E+01
4810000000.000000      6.344910000000000E-01      1.086133000000000E+01      4.871826000000000E-01     -9.991405000000000E+01
4811000000.000000      6.323547000000000E-01      1.098633000000000E+01      4.882660000000000E-01     -1.006875000000000E+02
4812000000.000000      6.351318000000000E-01      1.118945000000000E+01      4.899750000000000E-01     -1.016328000000000E+02
4813000000.000000      6.304321000000000E-01      1.119189000000000E+01      4.909058000000000E-01     -1.024023000000000E+02
4814000000.000000      6.307068000000000E-01      1.100000000000000E+01      4.915619000000000E-01     -1.029219000000000E+02
4815000000.000000      6.286011000000000E-01      1.120850000000000E+01      4.939728000000000E-01     -1.037305000000000E+02
4816000000.000000      6.276855000000000E-01      1.121826000000000E+01      4.933624000000000E-01     -1.045547000000000E+02
4817000000.000000      6.251221000000000E-01      1.123193000000000E+01      4.941711000000000E-01     -1.054023000000000E+02
4818000000.000000      6.235657000000000E-01      1.129932000000000E+01      4.949951000000000E-01     -1.059258000000000E+02
4819000000.000000      6.240540000000000E-01      1.146240000000000E+01      4.955139000000000E-01     -1.067070000000000E+02
4820000000.000000      6.217957000000000E-01      1.170996000000000E+01      4.967651000000000E-01     -1.074922000000000E+02
4821000000.000000      6.219788000000000E-01      1.159326000000000E+01      4.964905000000000E-01     -1.081758000000000E+02
4822000000.000000      6.196289000000000E-01      1.158643000000000E+01      4.967957000000000E-01     -1.090508000000000E+02
4823000000.000000      6.190491000000000E-01      1.169727000000000E+01      4.983978000000000E-01     -1.097617000000000E+02
4824000000.000000      6.165466000000000E-01      1.181152000000000E+01      4.974823000000000E-01     -1.105937000000000E+02
4825000000.000000      6.170654000000000E-01      1.192969000000000E+01      4.976654000000000E-01     -1.111992000000000E+02
4826000000.000000      6.164246000000000E-01      1.189795000000000E+01      4.996948000000000E-01     -1.121133000000000E+02
4827000000.000000      6.156006000000000E-01      1.215186000000000E+01      4.972687000000000E-01     -1.127695000000000E+02
4828000000.000000      6.179504000000000E-01      1.217285000000000E+01      5.002441000000000E-01     -1.135390000000000E+02
4829000000.000000      6.158142000000000E-01      1.244727000000000E+01      4.994659000000000E-01     -1.142656000000000E+02
4830000000.000000      6.144104000000000E-01      1.248584000000000E+01      4.989624000000000E-01     -1.149219000000000E+02
4831000000.000000      6.148071000000000E-01      1.254883000000000E+01      5.003967000000000E-01     -1.158555000000000E+02
4832000000.000000      6.149292000000000E-01      1.281006000000000E+01      4.990845000000000E-01     -1.163359000000000E+02
4833000000.000000      6.132507000000000E-01      1.271094000000000E+01      4.996796000000000E-01     -1.171641000000000E+02
4834000000.000000      6.133423000000000E-01      1.298975000000000E+01      4.989014000000000E-01     -1.181758000000000E+02
4835000000.000000      6.133423000000000E-01      1.303369000000000E+01      4.999695000000000E-01     -1.188281000000000E+02
4836000000.000000      6.140747000000000E-01      1.326025000000000E+01      4.989319000000000E-01     -1.195625000000000E+02
4837000000.000000      6.129150000000000E-01      1.335938000000000E+01      4.971771000000000E-01     -1.205469000000000E+02
4838000000.000000      6.138916000000000E-01      1.344580000000000E+01      4.976501000000000E-01     -1.211992000000000E+02
4839000000.000000      6.172180000000000E-01      1.353516000000000E+01      4.986725000000000E-01     -1.218047000000000E+02
4840000000.000000      6.164246000000000E-01      1.353760000000000E+01      4.981384000000000E-01     -1.227031000000000E+02
4841000000.000000      6.164246000000000E-01      1.396191000000000E+01      4.967499000000000E-01     -1.236836000000000E+02
4842000000.000000      6.166687000000000E-01      1.375049000000000E+01      4.964600000000000E-01     -1.243711000000000E+02
4843000000.000000      6.179199000000000E-01      1.385742000000000E+01      4.971924000000000E-01     -1.251953000000000E+02
4844000000.000000      6.184387000000000E-01      1.377246000000000E+01      4.947052000000000E-01     -1.261445000000000E+02
4845000000.000000      6.196899000000000E-01      1.403320000000000E+01      4.941406000000000E-01     -1.268711000000000E+02
4846000000.000000      6.198425000000000E-01      1.419141000000000E+01      4.921265000000000E-01     -1.277344000000000E+02
4847000000.000000      6.216431000000000E-01      1.428613000000000E+01      4.922943000000000E-01     -1.283672000000000E+02
4848000000.000000      6.207275000000000E-01      1.426416000000000E+01      4.889679000000000E-01     -1.292109000000000E+02
4849000000.000000      6.210632000000000E-01      1.438916000000000E+01      4.894104000000000E-01     -1.302422000000000E+02
4850000000.000000      6.236267000000000E-01      1.438477000000000E+01      4.859467000000000E-01     -1.310469000000000E+02
4851000000.000000      6.247864000000000E-01      1.452637000000000E+01      4.865570000000000E-01     -1.318672000000000E+02
4852000000.000000      6.236267000000000E-01      1.457568000000000E+01      4.828644000000000E-01     -1.325859000000000E+02
4853000000.000000      6.262512000000000E-01      1.456787000000000E+01      4.794617000000000E-01     -1.335781000000000E+02
4854000000.000000      6.271667000000000E-01      1.475977000000000E+01      4.788971000000000E-01     -1.344219000000000E+02
4855000000.000000      6.284790000000000E-01      1.450049000000000E+01      4.764404000000000E-01     -1.351563000000000E+02
4856000000.000000      6.291199000000000E-01      1.466650000000000E+01      4.725342000000000E-01     -1.362187000000000E+02
4857000000.000000      6.302185000000000E-01      1.482178000000000E+01      4.727783000000000E-01     -1.369531000000000E+02
4858000000.000000      6.301880000000000E-01      1.482715000000000E+01      4.692688000000000E-01     -1.377812000000000E+02
4859000000.000000      6.328125000000000E-01      1.485596000000000E+01      4.670563000000000E-01     -1.387656000000000E+02
4860000000.000000      6.314392000000000E-01      1.496436000000000E+01      4.624481000000000E-01     -1.394844000000000E+02
4861000000.000000      6.334839000000000E-01      1.476807000000000E+01      4.615631000000000E-01     -1.404609000000000E+02
4862000000.000000      6.336975000000000E-01      1.496045000000000E+01      4.589386000000000E-01     -1.411875000000000E+02
4863000000.000000      6.362610000000000E-01      1.507031000000000E+01      4.537964000000000E-01     -1.421641000000000E+02
4864000000.000000      6.368408000000000E-01      1.481738000000000E+01      4.499054000000000E-01     -1.427891000000000E+02
4865000000.000000      6.375732000000000E-01      1.485596000000000E+01      4.467010000000000E-01     -1.435937000000000E+02
4866000000.000000      6.395874000000000E-01      1.470361000000000E+01      4.423828000000000E-01     -1.445469000000000E+02
4867000000.000000      6.400146000000000E-01      1.481738000000000E+01      4.385681000000000E-01     -1.452500000000000E+02
4868000000.000000      6.411438000000000E-01      1.475439000000000E+01      4.350739000000000E-01     -1.461484000000000E+02
4869000000.000000      6.425171000000000E-01      1.488623000000000E+01      4.315186000000000E-01     -1.467422000000000E+02
4870000000.000000      6.428528000000000E-01      1.488916000000000E+01      4.279327000000000E-01     -1.472969000000000E+02
4871000000.000000      6.449585000000000E-01      1.475977000000000E+01      4.234772000000000E-01     -1.482578000000000E+02
4872000000.000000      6.482239000000000E-01      1.479980000000000E+01      4.198608000000000E-01     -1.488125000000000E+02
4873000000.000000      6.482239000000000E-01      1.481885000000000E+01      4.133759000000000E-01     -1.496953000000000E+02
4874000000.000000      6.509094000000000E-01      1.474463000000000E+01      4.107056000000000E-01     -1.506016000000000E+02
4875000000.000000      6.507874000000000E-01      1.460596000000000E+01      4.055939000000000E-01     -1.510781000000000E+02
4876000000.000000      6.509705000000000E-01      1.468164000000000E+01      4.014130000000000E-01     -1.519297000000000E+02
4877000000.000000      6.540222000000000E-01      1.446875000000000E+01      3.970184000000000E-01     -1.524531000000000E+02
4878000000.000000      6.543274000000000E-01      1.458008000000000E+01      3.919373000000000E-01     -1.530781000000000E+02
4879000000.000000      6.574707000000000E-01      1.450049000000000E+01      3.868866000000000E-01     -1.534765000000000E+02
4880000000.000000      6.582031000000000E-01      1.436426000000000E+01      3.843994000000000E-01     -1.541875000000000E+02
4881000000.000000      6.575012000000000E-01      1.432471000000000E+01      3.799133000000000E-01     -1.548359000000000E+02
4882000000.000000      6.608887000000000E-01      1.433154000000000E+01      3.745422000000000E-01     -1.554219000000000E+02
4883000000.000000      6.601257000000000E-01      1.420361000000000E+01      3.712463000000000E-01     -1.560078000000000E+02
4884000000.000000      6.651306000000000E-01      1.420898000000000E+01      3.664551000000000E-01     -1.566094000000000E+02
4885000000.000000      6.634216000000000E-01      1.402930000000000E+01      3.613281000000000E-01     -1.569531000000000E+02
4886000000.000000      6.644897000000000E-01      1.398389000000000E+01      3.578339000000000E-01     -1.573281000000000E+02
4887000000.000000      6.649170000000000E-01      1.395117000000000E+01      3.535004000000000E-01     -1.579922000000000E+02
4888000000.000000      6.672668000000000E-01      1.395361000000000E+01      3.496857000000000E-01     -1.584687000000000E+02
4889000000.000000      6.684265000000000E-01      1.381348000000000E+01      3.445129000000000E-01     -1.585078000000000E+02
4890000000.000000      6.672363000000000E-01      1.367090000000000E+01      3.412628000000000E-01     -1.595000000000000E+02
4891000000.000000      6.692810000000000E-01      1.375732000000000E+01      3.353424000000000E-01     -1.600078000000000E+02
4892000000.000000      6.694641000000000E-01      1.340869000000000E+01      3.326111000000000E-01     -1.600312000000000E+02
4893000000.000000      6.721191000000000E-01      1.345508000000000E+01      3.276978000000000E-01     -1.605859000000000E+02
4894000000.000000      6.740112000000000E-01      1.335791000000000E+01      3.239746000000000E-01     -1.608359000000000E+02
4895000000.000000      6.739807000000000E-01      1.318604000000000E+01      3.215790000000000E-01     -1.611641000000000E+02
4896000000.000000      6.743774000000000E-01      1.330566000000000E+01      3.171539000000000E-01     -1.618047000000000E+02
4897000000.000000      6.739502000000000E-01      1.305859000000000E+01      3.126984000000000E-01     -1.619844000000000E+02
4898000000.000000      6.761475000000000E-01      1.312158000000000E+01      3.096619000000000E-01     -1.624297000000000E+02
4899000000.000000      6.781006000000000E-01      1.297607000000000E+01      3.057709000000000E-01     -1.629219000000000E+02
4900000000.000000      6.788635000000000E-01      1.273438000000000E+01      3.023071000000000E-01     -1.631484000000000E+02
4901000000.000000      6.799316000000000E-01      1.270703000000000E+01      2.982483000000000E-01     -1.635781000000000E+02
4902000000.000000      6.816711000000000E-01      1.270020000000000E+01      2.951660000000000E-01     -1.637578000000000E+02
4903000000.000000      6.800842000000000E-01      1.260400000000000E+01      2.905731000000000E-01     -1.642109000000000E+02
4904000000.000000      6.823425000000000E-01      1.237061000000000E+01      2.869110000000000E-01     -1.646563000000000E+02
4905000000.000000      6.820374000000000E-01      1.238818000000000E+01      2.841187000000000E-01     -1.648594000000000E+02
4906000000.000000      6.814575000000000E-01      1.233203000000000E+01      2.801819000000000E-01     -1.649531000000000E+02
4907000000.000000      6.839905000000000E-01      1.217676000000000E+01      2.776642000000000E-01     -1.655391000000000E+02
4908000000.000000      6.840820000000000E-01      1.201318000000000E+01      2.742615000000000E-01     -1.659922000000000E+02
4909000000.000000      6.853943000000000E-01      1.195703000000000E+01      2.697906000000000E-01     -1.662344000000000E+02
4910000000.000000      6.859741000000000E-01      1.175098000000000E+01      2.669373000000000E-01     -1.665234000000000E+02
4911000000.000000      6.888733000000000E-01      1.171826000000000E+01      2.630768000000000E-01     -1.667422000000000E+02
4912000000.000000      6.876526000000000E-01      1.169873000000000E+01      2.595673000000000E-01     -1.672266000000000E+02
4913000000.000000      6.870117000000000E-01      1.156152000000000E+01      2.555084000000000E-01     -1.674766000000000E+02
4914000000.000000      6.884460000000000E-01      1.144873000000000E+01      2.520752000000000E-01     -1.676563000000000E+02
4915000000.000000      6.895752000000000E-01      1.132666000000000E+01      2.486343000000000E-01     -1.680938000000000E+02
4916000000.000000      6.886292000000000E-01      1.144336000000000E+01      2.459946000000000E-01     -1.684375000000000E+02
4917000000.000000      6.887512000000000E-01      1.110400000000000E+01      2.417221000000000E-01     -1.685469000000000E+02
4918000000.000000      6.915283000000000E-01      1.114111000000000E+01      2.381210000000000E-01     -1.690391000000000E+02
4919000000.000000      6.894531000000000E-01      1.084033000000000E+01      2.350540000000000E-01     -1.688906000000000E+02
4920000000.000000      6.921082000000000E-01      1.085547000000000E+01      2.307053000000000E-01     -1.694844000000000E+02
4921000000.000000      6.915283000000000E-01      1.096826000000000E+01      2.276230000000000E-01     -1.695391000000000E+02
4922000000.000000      6.911316000000000E-01      1.063721000000000E+01      2.237244000000000E-01     -1.697031000000000E+02
4923000000.000000      6.937866000000000E-01      1.066064000000000E+01      2.197418000000000E-01     -1.697891000000000E+02
4924000000.000000      6.933594000000000E-01      1.043408000000000E+01      2.156754000000000E-01     -1.702656000000000E+02
4925000000.000000      6.937866000000000E-01      1.040088000000000E+01      2.124786000000000E-01     -1.703516000000000E+02
4926000000.000000      6.932373000000000E-01      1.028564000000000E+01      2.087631000000000E-01     -1.705937000000000E+02
4927000000.000000      6.949158000000000E-01      1.024854000000000E+01      2.047729000000000E-01     -1.706406000000000E+02
4928000000.000000      6.951904000000000E-01      1.005371000000000E+01      2.016983000000000E-01     -1.706953000000000E+02
4929000000.000000      6.959229000000000E-01      1.006445000000000E+01      1.970978000000000E-01     -1.707813000000000E+02
4930000000.000000      6.962280000000000E-01      9.785645000000000E+00      1.931839000000000E-01     -1.709141000000000E+02
4931000000.000000      6.951294000000000E-01      9.770508000000000E+00      1.902542000000000E-01     -1.709063000000000E+02
4932000000.000000      6.948242000000000E-01      9.678711000000000E+00      1.860733000000000E-01     -1.708125000000000E+02
4933000000.000000      6.974182000000000E-01      9.585449000000000E+00      1.815796000000000E-01     -1.704531000000000E+02
4934000000.000000      6.986389000000000E-01      9.662109000000000E+00      1.779938000000000E-01     -1.709453000000000E+02
4935000000.000000      7.003479000000000E-01      9.504395000000000E+00      1.750259000000000E-01     -1.705234000000000E+02
4936000000.000000      6.967468000000000E-01      9.149902000000000E+00      1.707077000000000E-01     -1.704844000000000E+02
4937000000.000000      6.997375000000000E-01      9.185547000000000E+00      1.666031000000000E-01     -1.702891000000000E+02
4938000000.000000      6.979980000000000E-01      9.151367000000000E+00      1.635361000000000E-01     -1.700000000000000E+02
4939000000.000000      7.001953000000000E-01      9.122559000000000E+00      1.594162000000000E-01     -1.696016000000000E+02
4940000000.000000      6.994324000000000E-01      8.897461000000000E+00      1.562195000000000E-01     -1.693203000000000E+02
4941000000.000000      7.009888000000000E-01      8.695313000000000E+00      1.528931000000000E-01     -1.687578000000000E+02
4942000000.000000      6.995850000000000E-01      8.705078000000000E+00      1.492767000000000E-01     -1.686250000000000E+02
4943000000.000000      7.014771000000000E-01      8.647461000000000E+00      1.456223000000000E-01     -1.678906000000000E+02
4944000000.000000      7.015076000000000E-01      8.495117000000000E+00      1.423721000000000E-01     -1.672109000000000E+02
4945000000.000000      7.032776000000000E-01      8.336914000000000E+00      1.384583000000000E-01     -1.666250000000000E+02
4946000000.000000      7.027588000000000E-01      8.387695000000000E+00      1.354294000000000E-01     -1.659922000000000E+02
4947000000.000000      7.022095000000000E-01      8.205078000000000E+00      1.323013000000000E-01     -1.652500000000000E+02
4948000000.000000      7.057495000000000E-01      8.205078000000000E+00      1.293869000000000E-01     -1.641094000000000E+02
4949000000.000000      7.044983000000000E-01      8.067871000000000E+00      1.267090000000000E-01     -1.628359000000000E+02
4950000000.000000      7.054749000000000E-01      7.989746000000000E+00      1.236382000000000E-01     -1.619297000000000E+02
4951000000.000000      7.066650000000000E-01      7.943115000000000E+00      1.214485000000000E-01     -1.609844000000000E+02
4952000000.000000      7.052917000000000E-01      7.708252000000000E+00      1.183434000000000E-01     -1.596484000000000E+02
4953000000.000000      7.069702000000000E-01      7.606445000000000E+00      1.164207000000000E-01     -1.583594000000000E+02
4954000000.000000      7.087708000000000E-01      7.474609000000000E+00      1.140938000000000E-01     -1.569531000000000E+02
