! Network Analyzer HP8722D
! Hewlett-Packard
! Data name: Linha & Wilkinson
! Saver's name: Rodrigo Anjos
! Comments: Teste da utilização de aquisição
continua pelo VNA HP8722D
! Time and date: 22/5/2025 10:53
!              Frequency                     S11                                                   S21                                                   S12                                                   S22
# HZ  S  MA R 50
4800000000.000000      6.484680000000000E-01      1.060010000000000E+01      4.733429000000000E-01     -9.317968000000000E+01
4801000000.000000      6.451721000000000E-01      1.060840000000000E+01      4.724579000000000E-01     -9.369141000000000E+01
4802000000.000000      6.438904000000000E-01      1.044629000000000E+01      4.771576000000000E-01     -9.438671000000000E+01
4803000000.000000      6.426086000000000E-01      1.060010000000000E+01      4.792786000000000E-01     -9.527735000000000E+01
4804000000.000000      6.408081000000000E-01      1.057813000000000E+01      4.795380000000000E-01     -9.578516000000000E+01
4805000000.000000      6.409607000000000E-01      1.054248000000000E+01      4.809113000000000E-01     -9.671093000000000E+01
4806000000.000000      6.390381000000000E-01      1.046289000000000E+01      4.822235000000000E-01     -9.765625000000000E+01
4807000000.000000      6.353149000000000E-01      1.057813000000000E+01      4.827728000000000E-01     -9.845703000000000E+01
4808000000.000000      6.328430000000000E-01      1.057813000000000E+01      4.857025000000000E-01     -9.907421000000000E+01
4809000000.000000      6.306763000000000E-01      1.060449000000000E+01      4.865417000000000E-01     -9.985937000000000E+01
4810000000.000000      6.310730000000000E-01      1.061963000000000E+01      4.876099000000000E-01     -1.004414000000000E+02
4811000000.000000      6.293640000000000E-01      1.061133000000000E+01      4.898376000000000E-01     -1.015156000000000E+02
4812000000.000000      6.300049000000000E-01      1.081836000000000E+01      4.901276000000000E-01     -1.020937000000000E+02
4813000000.000000      6.263123000000000E-01      1.081152000000000E+01      4.905090000000000E-01     -1.028594000000000E+02
4814000000.000000      6.230469000000000E-01      1.070313000000000E+01      4.923096000000000E-01     -1.036328000000000E+02
4815000000.000000      6.231079000000000E-01      1.087354000000000E+01      4.928131000000000E-01     -1.045898000000000E+02
4816000000.000000      6.227417000000000E-01      1.108496000000000E+01      4.926910000000000E-01     -1.051172000000000E+02
4817000000.000000      6.201477000000000E-01      1.106836000000000E+01      4.937439000000000E-01     -1.058281000000000E+02
4818000000.000000      6.214600000000000E-01      1.098193000000000E+01      4.951782000000000E-01     -1.065742000000000E+02
4819000000.000000      6.204529000000000E-01      1.120703000000000E+01      4.959869000000000E-01     -1.075352000000000E+02
4820000000.000000      6.166382000000000E-01      1.139941000000000E+01      4.950256000000000E-01     -1.079258000000000E+02
4821000000.000000      6.171570000000000E-01      1.137451000000000E+01      4.965515000000000E-01     -1.089570000000000E+02
4822000000.000000      6.160889000000000E-01      1.142432000000000E+01      4.963226000000000E-01     -1.095820000000000E+02
4823000000.000000      6.157532000000000E-01      1.161621000000000E+01      4.972229000000000E-01     -1.104219000000000E+02
4824000000.000000      6.136780000000000E-01      1.162061000000000E+01      4.972839000000000E-01     -1.111641000000000E+02
4825000000.000000      6.141052000000000E-01      1.176611000000000E+01      4.967957000000000E-01     -1.118281000000000E+02
4826000000.000000      6.138916000000000E-01      1.179639000000000E+01      4.983521000000000E-01     -1.128516000000000E+02
4827000000.000000      6.145630000000000E-01      1.176074000000000E+01      4.983826000000000E-01     -1.132930000000000E+02
4828000000.000000      6.133728000000000E-01      1.201074000000000E+01      4.981995000000000E-01     -1.140664000000000E+02
4829000000.000000      6.134033000000000E-01      1.231396000000000E+01      4.984283000000000E-01     -1.148867000000000E+02
4830000000.000000      6.130371000000000E-01      1.205029000000000E+01      4.984894000000000E-01     -1.157265000000000E+02
4831000000.000000      6.131287000000000E-01      1.235547000000000E+01      4.982147000000000E-01     -1.165586000000000E+02
4832000000.000000      6.109314000000000E-01      1.263135000000000E+01      4.991455000000000E-01     -1.171758000000000E+02
4833000000.000000      6.103821000000000E-01      1.265625000000000E+01      4.979706000000000E-01     -1.180078000000000E+02
4834000000.000000      6.098938000000000E-01      1.249805000000000E+01      4.979401000000000E-01     -1.188750000000000E+02
4835000000.000000      6.118469000000000E-01      1.278076000000000E+01      4.989777000000000E-01     -1.195273000000000E+02
4836000000.000000      6.113892000000000E-01      1.310498000000000E+01      4.961090000000000E-01     -1.203398000000000E+02
4837000000.000000      6.119080000000000E-01      1.319727000000000E+01      4.957428000000000E-01     -1.213477000000000E+02
4838000000.000000      6.113281000000000E-01      1.314746000000000E+01      4.967194000000000E-01     -1.217070000000000E+02
4839000000.000000      6.141663000000000E-01      1.343994000000000E+01      4.965668000000000E-01     -1.226367000000000E+02
4840000000.000000      6.131592000000000E-01      1.324365000000000E+01      4.964600000000000E-01     -1.234727000000000E+02
4841000000.000000      6.145020000000000E-01      1.372461000000000E+01      4.955902000000000E-01     -1.243281000000000E+02
4842000000.000000      6.132813000000000E-01      1.356250000000000E+01      4.947510000000000E-01     -1.250859000000000E+02
4843000000.000000      6.159058000000000E-01      1.367236000000000E+01      4.934082000000000E-01     -1.259727000000000E+02
4844000000.000000      6.153259000000000E-01      1.363525000000000E+01      4.931183000000000E-01     -1.267578000000000E+02
4845000000.000000      6.160889000000000E-01      1.388525000000000E+01      4.924469000000000E-01     -1.275898000000000E+02
4846000000.000000      6.170044000000000E-01      1.393164000000000E+01      4.903564000000000E-01     -1.282578000000000E+02
4847000000.000000      6.176147000000000E-01      1.392334000000000E+01      4.902802000000000E-01     -1.291094000000000E+02
4848000000.000000      6.171570000000000E-01      1.413525000000000E+01      4.865417000000000E-01     -1.298359000000000E+02
4849000000.000000      6.184692000000000E-01      1.406787000000000E+01      4.859009000000000E-01     -1.309453000000000E+02
4850000000.000000      6.198425000000000E-01      1.431348000000000E+01      4.842987000000000E-01     -1.315938000000000E+02
4851000000.000000      6.219788000000000E-01      1.435889000000000E+01      4.829254000000000E-01     -1.324922000000000E+02
4852000000.000000      6.221313000000000E-01      1.437256000000000E+01      4.808807000000000E-01     -1.333906000000000E+02
4853000000.000000      6.232605000000000E-01      1.443604000000000E+01      4.774780000000000E-01     -1.343516000000000E+02
4854000000.000000      6.245117000000000E-01      1.432617000000000E+01      4.759827000000000E-01     -1.351484000000000E+02
4855000000.000000      6.257324000000000E-01      1.443848000000000E+01      4.730988000000000E-01     -1.360312000000000E+02
4856000000.000000      6.262207000000000E-01      1.446729000000000E+01      4.706421000000000E-01     -1.368515000000000E+02
4857000000.000000      6.280212000000000E-01      1.463232000000000E+01      4.698486000000000E-01     -1.376953000000000E+02
4858000000.000000      6.287231000000000E-01      1.440820000000000E+01      4.656067000000000E-01     -1.384453000000000E+02
4859000000.000000      6.296082000000000E-01      1.439990000000000E+01      4.640350000000000E-01     -1.394063000000000E+02
4860000000.000000      6.300354000000000E-01      1.477344000000000E+01      4.606018000000000E-01     -1.401562000000000E+02
4861000000.000000      6.315308000000000E-01      1.462646000000000E+01      4.567413000000000E-01     -1.411406000000000E+02
4862000000.000000      6.329041000000000E-01      1.471729000000000E+01      4.537659000000000E-01     -1.419375000000000E+02
4863000000.000000      6.340942000000000E-01      1.465967000000000E+01      4.499969000000000E-01     -1.427813000000000E+02
4864000000.000000      6.356506000000000E-01      1.479980000000000E+01      4.463043000000000E-01     -1.434219000000000E+02
4865000000.000000      6.378174000000000E-01      1.452246000000000E+01      4.419556000000000E-01     -1.442344000000000E+02
4866000000.000000      6.391296000000000E-01      1.453320000000000E+01      4.405060000000000E-01     -1.450938000000000E+02
4867000000.000000      6.381836000000000E-01      1.456787000000000E+01      4.355316000000000E-01     -1.461328000000000E+02
4868000000.000000      6.390686000000000E-01      1.445361000000000E+01      4.318085000000000E-01     -1.466719000000000E+02
4869000000.000000      6.417542000000000E-01      1.447021000000000E+01      4.286346000000000E-01     -1.474297000000000E+02
4870000000.000000      6.427307000000000E-01      1.459082000000000E+01      4.238892000000000E-01     -1.481016000000000E+02
4871000000.000000      6.428223000000000E-01      1.456494000000000E+01      4.190063000000000E-01     -1.488828000000000E+02
4872000000.000000      6.453552000000000E-01      1.459375000000000E+01      4.143524000000000E-01     -1.496250000000000E+02
4873000000.000000      6.452332000000000E-01      1.460059000000000E+01      4.114227000000000E-01     -1.503594000000000E+02
4874000000.000000      6.472473000000000E-01      1.448926000000000E+01      4.059601000000000E-01     -1.510781000000000E+02
4875000000.000000      6.484070000000000E-01      1.427100000000000E+01      4.013977000000000E-01     -1.515391000000000E+02
4876000000.000000      6.500549000000000E-01      1.448096000000000E+01      3.976288000000000E-01     -1.521953000000000E+02
4877000000.000000      6.530762000000000E-01      1.418994000000000E+01      3.922272000000000E-01     -1.528516000000000E+02
4878000000.000000      6.528625000000000E-01      1.411426000000000E+01      3.877106000000000E-01     -1.534062000000000E+02
4879000000.000000      6.542358000000000E-01      1.412012000000000E+01      3.837585000000000E-01     -1.541016000000000E+02
4880000000.000000      6.558228000000000E-01      1.416650000000000E+01      3.799286000000000E-01     -1.547812000000000E+02
4881000000.000000      6.585083000000000E-01      1.405420000000000E+01      3.756104000000000E-01     -1.551406000000000E+02
4882000000.000000      6.603699000000000E-01      1.407617000000000E+01      3.718414000000000E-01     -1.559062000000000E+02
4883000000.000000      6.594849000000000E-01      1.397021000000000E+01      3.663788000000000E-01     -1.562187000000000E+02
4884000000.000000      6.606750000000000E-01      1.394678000000000E+01      3.618164000000000E-01     -1.569687000000000E+02
4885000000.000000      6.607971000000000E-01      1.406348000000000E+01      3.582458000000000E-01     -1.572031000000000E+02
4886000000.000000      6.618042000000000E-01      1.383154000000000E+01      3.529510000000000E-01     -1.577109000000000E+02
4887000000.000000      6.658325000000000E-01      1.368457000000000E+01      3.511505000000000E-01     -1.582266000000000E+02
4888000000.000000      6.658936000000000E-01      1.355566000000000E+01      3.452759000000000E-01     -1.588750000000000E+02
4889000000.000000      6.661377000000000E-01      1.362402000000000E+01      3.412781000000000E-01     -1.592344000000000E+02
4890000000.000000      6.667175000000000E-01      1.325195000000000E+01      3.370514000000000E-01     -1.599844000000000E+02
4891000000.000000      6.691895000000000E-01      1.332227000000000E+01      3.328857000000000E-01     -1.602109000000000E+02
4892000000.000000      6.687622000000000E-01      1.338916000000000E+01      3.278809000000000E-01     -1.603047000000000E+02
4893000000.000000      6.720581000000000E-01      1.314355000000000E+01      3.235626000000000E-01     -1.610312000000000E+02
4894000000.000000      6.722107000000000E-01      1.325342000000000E+01      3.208160000000000E-01     -1.613906000000000E+02
4895000000.000000      6.730042000000000E-01      1.286865000000000E+01      3.184357000000000E-01     -1.616328000000000E+02
4896000000.000000      6.723938000000000E-01      1.292773000000000E+01      3.135376000000000E-01     -1.619688000000000E+02
4897000000.000000      6.737671000000000E-01      1.278223000000000E+01      3.092651000000000E-01     -1.623437000000000E+02
4898000000.000000      6.763306000000000E-01      1.278906000000000E+01      3.062744000000000E-01     -1.625703000000000E+02
4899000000.000000      6.763000000000000E-01      1.250635000000000E+01      3.021698000000000E-01     -1.632422000000000E+02
4900000000.000000      6.759644000000000E-01      1.239258000000000E+01      2.986908000000000E-01     -1.634297000000000E+02
4901000000.000000      6.799011000000000E-01      1.241455000000000E+01      2.953186000000000E-01     -1.637578000000000E+02
4902000000.000000      6.796265000000000E-01      1.240332000000000E+01      2.918243000000000E-01     -1.639375000000000E+02
4903000000.000000      6.808167000000000E-01      1.247070000000000E+01      2.870331000000000E-01     -1.643516000000000E+02
4904000000.000000      6.802673000000000E-01      1.215186000000000E+01      2.845764000000000E-01     -1.647578000000000E+02
4905000000.000000      6.806335000000000E-01      1.202441000000000E+01      2.811584000000000E-01     -1.651953000000000E+02
4906000000.000000      6.798706000000000E-01      1.198047000000000E+01      2.770081000000000E-01     -1.653594000000000E+02
4907000000.000000      6.842651000000000E-01      1.169482000000000E+01      2.739716000000000E-01     -1.656797000000000E+02
4908000000.000000      6.837158000000000E-01      1.169873000000000E+01      2.708893000000000E-01     -1.662031000000000E+02
4909000000.000000      6.837158000000000E-01      1.161768000000000E+01      2.667236000000000E-01     -1.664687000000000E+02
4910000000.000000      6.817322000000000E-01      1.160547000000000E+01      2.633514000000000E-01     -1.667422000000000E+02
4911000000.000000      6.850586000000000E-01      1.130176000000000E+01      2.606506000000000E-01     -1.668125000000000E+02
4912000000.000000      6.843872000000000E-01      1.126904000000000E+01      2.565002000000000E-01     -1.672500000000000E+02
4913000000.000000      6.863708000000000E-01      1.131689000000000E+01      2.531281000000000E-01     -1.676250000000000E+02
4914000000.000000      6.860962000000000E-01      1.106445000000000E+01      2.496872000000000E-01     -1.677031000000000E+02
4915000000.000000      6.899414000000000E-01      1.113867000000000E+01      2.466202000000000E-01     -1.682188000000000E+02
4916000000.000000      6.875000000000000E-01      1.100244000000000E+01      2.425156000000000E-01     -1.686172000000000E+02
4917000000.000000      6.880188000000000E-01      1.078857000000000E+01      2.390747000000000E-01     -1.687422000000000E+02
4918000000.000000      6.898193000000000E-01      1.076367000000000E+01      2.346725000000000E-01     -1.689375000000000E+02
4919000000.000000      6.886902000000000E-01      1.063477000000000E+01      2.317200000000000E-01     -1.689687000000000E+02
4920000000.000000      6.914063000000000E-01      1.049023000000000E+01      2.274628000000000E-01     -1.695313000000000E+02
4921000000.000000      6.892700000000000E-01      1.051758000000000E+01      2.245026000000000E-01     -1.696719000000000E+02
4922000000.000000      6.911926000000000E-01      1.028174000000000E+01      2.214279000000000E-01     -1.697578000000000E+02
4923000000.000000      6.922302000000000E-01      1.026123000000000E+01      2.166138000000000E-01     -1.699062000000000E+02
4924000000.000000      6.920776000000000E-01      1.030908000000000E+01      2.132492000000000E-01     -1.702812000000000E+02
4925000000.000000      6.888733000000000E-01      1.000146000000000E+01      2.092667000000000E-01     -1.704062000000000E+02
4926000000.000000      6.903076000000000E-01      9.989258000000000E+00      2.062149000000000E-01     -1.703828000000000E+02
4927000000.000000      6.922607000000000E-01      9.939453000000000E+00      2.016296000000000E-01     -1.705078000000000E+02
4928000000.000000      6.950073000000000E-01      9.703613000000000E+00      1.980972000000000E-01     -1.707656000000000E+02
4929000000.000000      6.932983000000000E-01      9.574219000000000E+00      1.937332000000000E-01     -1.706797000000000E+02
4930000000.000000      6.950378000000000E-01      9.641602000000000E+00      1.906815000000000E-01     -1.707969000000000E+02
4931000000.000000      6.940002000000000E-01      9.401367000000000E+00      1.873169000000000E-01     -1.706640000000000E+02
4932000000.000000      6.943970000000000E-01      9.382324000000000E+00      1.833267000000000E-01     -1.706172000000000E+02
4933000000.000000      6.952515000000000E-01      9.299805000000000E+00      1.792831000000000E-01     -1.704531000000000E+02
4934000000.000000      6.978149000000000E-01      9.004395000000000E+00      1.758575000000000E-01     -1.706094000000000E+02
4935000000.000000      6.998596000000000E-01      9.089355000000000E+00      1.726456000000000E-01     -1.703438000000000E+02
4936000000.000000      6.956482000000000E-01      9.018066000000000E+00      1.683807000000000E-01     -1.700703000000000E+02
4937000000.000000      6.973267000000000E-01      8.820313000000000E+00      1.649475000000000E-01     -1.699531000000000E+02
4938000000.000000      6.992798000000000E-01      8.919434000000000E+00      1.610641000000000E-01     -1.696406000000000E+02
4939000000.000000      6.978760000000000E-01      8.813477000000000E+00      1.574554000000000E-01     -1.690469000000000E+02
4940000000.000000      6.979065000000000E-01      8.661133000000000E+00      1.537781000000000E-01     -1.689219000000000E+02
4941000000.000000      7.000427000000000E-01      8.407227000000000E+00      1.503525000000000E-01     -1.682422000000000E+02
4942000000.000000      6.984558000000000E-01      8.537598000000000E+00      1.470108000000000E-01     -1.677891000000000E+02
4943000000.000000      7.003784000000000E-01      8.382324000000000E+00      1.433487000000000E-01     -1.673203000000000E+02
4944000000.000000      7.009888000000000E-01      8.228516000000000E+00      1.403046000000000E-01     -1.666094000000000E+02
4945000000.000000      7.003784000000000E-01      8.026855000000000E+00      1.367950000000000E-01     -1.658516000000000E+02
4946000000.000000      7.024231000000000E-01      7.941650000000000E+00      1.338577000000000E-01     -1.652969000000000E+02
4947000000.000000      7.017517000000000E-01      7.888184000000000E+00      1.306763000000000E-01     -1.642891000000000E+02
4948000000.000000      7.044067000000000E-01      7.790527000000000E+00      1.279984000000000E-01     -1.632813000000000E+02
4949000000.000000      7.026672000000000E-01      7.730225000000000E+00      1.250153000000000E-01     -1.622187000000000E+02
4950000000.000000      7.049866000000000E-01      7.798828000000000E+00      1.222305000000000E-01     -1.611953000000000E+02
4951000000.000000      7.037964000000000E-01      7.591553000000000E+00      1.199379000000000E-01     -1.599844000000000E+02
4952000000.000000      7.029724000000000E-01      7.474609000000000E+00      1.170540000000000E-01     -1.586641000000000E+02
4953000000.000000      7.020569000000000E-01      7.176758000000000E+00      1.151009000000000E-01     -1.570625000000000E+02
4954000000.000000      7.074890000000000E-01      7.156006000000000E+00      1.129379000000000E-01     -1.557344000000000E+02
