! Network Analyzer HP8722D
! Hewlett-Packard
! Data name: Linha & Wilkinson
! Saver's name: Rodrigo Anjos
! Comments: Teste da utilização de aquisição
continua pelo VNA HP8722D
! Time and date: 22/5/2025 08:47
!              Frequency                     S11                                                   S21                                                   S12                                                   S22
# HZ  S  MA R 50
4800000000.000000      6.460876000000000E-01      1.030371000000000E+01      4.741516000000000E-01     -9.369921000000000E+01
4801000000.000000      6.445007000000000E-01      1.042041000000000E+01      4.749908000000000E-01     -9.434765000000000E+01
4802000000.000000      6.440735000000000E-01      1.019922000000000E+01      4.774017000000000E-01     -9.530077000000000E+01
4803000000.000000      6.418152000000000E-01      1.022510000000000E+01      4.796143000000000E-01     -9.583202000000000E+01
4804000000.000000      6.408081000000000E-01      1.034473000000000E+01      4.816284000000000E-01     -9.662498000000000E+01
4805000000.000000      6.405029000000000E-01      1.023926000000000E+01      4.840393000000000E-01     -9.752733000000000E+01
4806000000.000000      6.365662000000000E-01      1.032813000000000E+01      4.848633000000000E-01     -9.825390000000000E+01
4807000000.000000      6.333923000000000E-01      1.022510000000000E+01      4.860535000000000E-01     -9.908203000000000E+01
4808000000.000000      6.325378000000000E-01      1.026367000000000E+01      4.874573000000000E-01     -9.963280000000000E+01
4809000000.000000      6.302795000000000E-01      1.042725000000000E+01      4.888763000000000E-01     -1.005664000000000E+02
4810000000.000000      6.312866000000000E-01      1.047363000000000E+01      4.902954000000000E-01     -1.013125000000000E+02
4811000000.000000      6.300964000000000E-01      1.052344000000000E+01      4.917755000000000E-01     -1.020625000000000E+02
4812000000.000000      6.304626000000000E-01      1.059326000000000E+01      4.923859000000000E-01     -1.028008000000000E+02
4813000000.000000      6.271057000000000E-01      1.059863000000000E+01      4.935150000000000E-01     -1.036836000000000E+02
4814000000.000000      6.252136000000000E-01      1.051221000000000E+01      4.943085000000000E-01     -1.043281000000000E+02
4815000000.000000      6.231689000000000E-01      1.069092000000000E+01      4.953308000000000E-01     -1.050547000000000E+02
4816000000.000000      6.246643000000000E-01      1.072119000000000E+01      4.954529000000000E-01     -1.058516000000000E+02
4817000000.000000      6.210632000000000E-01      1.097217000000000E+01      4.971619000000000E-01     -1.066289000000000E+02
4818000000.000000      6.196899000000000E-01      1.090527000000000E+01      4.972229000000000E-01     -1.073281000000000E+02
4819000000.000000      6.192932000000000E-01      1.106689000000000E+01      4.962616000000000E-01     -1.080937000000000E+02
4820000000.000000      6.179504000000000E-01      1.120166000000000E+01      4.990082000000000E-01     -1.089453000000000E+02
4821000000.000000      6.185303000000000E-01      1.117432000000000E+01      4.992065000000000E-01     -1.098125000000000E+02
4822000000.000000      6.157532000000000E-01      1.116895000000000E+01      4.972992000000000E-01     -1.103242000000000E+02
4823000000.000000      6.166687000000000E-01      1.127441000000000E+01      4.982452000000000E-01     -1.111289000000000E+02
4824000000.000000      6.141663000000000E-01      1.175635000000000E+01      4.987183000000000E-01     -1.121367000000000E+02
4825000000.000000      6.148987000000000E-01      1.153955000000000E+01      5.000916000000000E-01     -1.125664000000000E+02
4826000000.000000      6.128540000000000E-01      1.159863000000000E+01      4.998932000000000E-01     -1.135898000000000E+02
4827000000.000000      6.150513000000000E-01      1.196240000000000E+01      4.994049000000000E-01     -1.141602000000000E+02
4828000000.000000      6.137695000000000E-01      1.171387000000000E+01      5.005188000000000E-01     -1.147734000000000E+02
4829000000.000000      6.135864000000000E-01      1.205029000000000E+01      5.006409000000000E-01     -1.157070000000000E+02
4830000000.000000      6.150818000000000E-01      1.206396000000000E+01      5.002747000000000E-01     -1.163047000000000E+02
4831000000.000000      6.131592000000000E-01      1.224951000000000E+01      5.003662000000000E-01     -1.172539000000000E+02
4832000000.000000      6.118774000000000E-01      1.244727000000000E+01      4.986115000000000E-01     -1.177578000000000E+02
4833000000.000000      6.099548000000000E-01      1.226074000000000E+01      4.984741000000000E-01     -1.186601000000000E+02
4834000000.000000      6.130371000000000E-01      1.252295000000000E+01      4.990387000000000E-01     -1.194922000000000E+02
4835000000.000000      6.131592000000000E-01      1.260400000000000E+01      4.992065000000000E-01     -1.200781000000000E+02
4836000000.000000      6.129761000000000E-01      1.286084000000000E+01      4.975586000000000E-01     -1.210352000000000E+02
4837000000.000000      6.113586000000000E-01      1.306787000000000E+01      4.975128000000000E-01     -1.219609000000000E+02
4838000000.000000      6.101685000000000E-01      1.291162000000000E+01      4.974213000000000E-01     -1.223672000000000E+02
4839000000.000000      6.156921000000000E-01      1.313232000000000E+01      4.971313000000000E-01     -1.232265000000000E+02
4840000000.000000      6.140442000000000E-01      1.306250000000000E+01      4.975433000000000E-01     -1.241172000000000E+02
4841000000.000000      6.148987000000000E-01      1.321338000000000E+01      4.962463000000000E-01     -1.251094000000000E+02
4842000000.000000      6.155396000000000E-01      1.340039000000000E+01      4.966125000000000E-01     -1.257930000000000E+02
4843000000.000000      6.177673000000000E-01      1.340430000000000E+01      4.952240000000000E-01     -1.266250000000000E+02
4844000000.000000      6.154480000000000E-01      1.349658000000000E+01      4.939575000000000E-01     -1.273555000000000E+02
4845000000.000000      6.170959000000000E-01      1.366699000000000E+01      4.920654000000000E-01     -1.283594000000000E+02
4846000000.000000      6.187439000000000E-01      1.373682000000000E+01      4.914398000000000E-01     -1.291172000000000E+02
4847000000.000000      6.189270000000000E-01      1.398145000000000E+01      4.894104000000000E-01     -1.298437000000000E+02
4848000000.000000      6.205139000000000E-01      1.375195000000000E+01      4.882050000000000E-01     -1.307891000000000E+02
4849000000.000000      6.209717000000000E-01      1.388086000000000E+01      4.864655000000000E-01     -1.315469000000000E+02
4850000000.000000      6.213989000000000E-01      1.400879000000000E+01      4.848480000000000E-01     -1.323672000000000E+02
4851000000.000000      6.224060000000000E-01      1.409229000000000E+01      4.846954000000000E-01     -1.331563000000000E+02
4852000000.000000      6.236877000000000E-01      1.414063000000000E+01      4.804077000000000E-01     -1.341328000000000E+02
4853000000.000000      6.260681000000000E-01      1.411719000000000E+01      4.772339000000000E-01     -1.349688000000000E+02
4854000000.000000      6.263733000000000E-01      1.419434000000000E+01      4.764404000000000E-01     -1.359453000000000E+02
4855000000.000000      6.248474000000000E-01      1.416260000000000E+01      4.741821000000000E-01     -1.367188000000000E+02
4856000000.000000      6.264954000000000E-01      1.424902000000000E+01      4.708557000000000E-01     -1.375625000000000E+02
4857000000.000000      6.286316000000000E-01      1.440283000000000E+01      4.695892000000000E-01     -1.382734000000000E+02
4858000000.000000      6.291809000000000E-01      1.424365000000000E+01      4.667053000000000E-01     -1.391875000000000E+02
4859000000.000000      6.296082000000000E-01      1.425732000000000E+01      4.645691000000000E-01     -1.400625000000000E+02
4860000000.000000      6.312256000000000E-01      1.442773000000000E+01      4.602203000000000E-01     -1.408203000000000E+02
4861000000.000000      6.333923000000000E-01      1.447705000000000E+01      4.564819000000000E-01     -1.417656000000000E+02
4862000000.000000      6.348877000000000E-01      1.432861000000000E+01      4.529724000000000E-01     -1.423516000000000E+02
4863000000.000000      6.329346000000000E-01      1.447412000000000E+01      4.488525000000000E-01     -1.434531000000000E+02
4864000000.000000      6.351013000000000E-01      1.435205000000000E+01      4.452972000000000E-01     -1.441406000000000E+02
4865000000.000000      6.370239000000000E-01      1.434521000000000E+01      4.433746000000000E-01     -1.449141000000000E+02
4866000000.000000      6.389465000000000E-01      1.437939000000000E+01      4.374847000000000E-01     -1.457109000000000E+02
4867000000.000000      6.412048000000000E-01      1.430273000000000E+01      4.339905000000000E-01     -1.465703000000000E+02
4868000000.000000      6.413269000000000E-01      1.422559000000000E+01      4.323730000000000E-01     -1.473281000000000E+02
4869000000.000000      6.431580000000000E-01      1.431104000000000E+01      4.269562000000000E-01     -1.481016000000000E+02
4870000000.000000      6.440430000000000E-01      1.442188000000000E+01      4.224091000000000E-01     -1.486562000000000E+02
4871000000.000000      6.436157000000000E-01      1.428320000000000E+01      4.177704000000000E-01     -1.495547000000000E+02
4872000000.000000      6.462097000000000E-01      1.429834000000000E+01      4.134674000000000E-01     -1.499297000000000E+02
4873000000.000000      6.462097000000000E-01      1.430811000000000E+01      4.088593000000000E-01     -1.508203000000000E+02
4874000000.000000      6.485596000000000E-01      1.411182000000000E+01      4.046783000000000E-01     -1.515156000000000E+02
4875000000.000000      6.533813000000000E-01      1.410889000000000E+01      4.018555000000000E-01     -1.521172000000000E+02
4876000000.000000      6.528931000000000E-01      1.401953000000000E+01      3.970490000000000E-01     -1.527891000000000E+02
4877000000.000000      6.553955000000000E-01      1.389600000000000E+01      3.928680000000000E-01     -1.534844000000000E+02
4878000000.000000      6.534119000000000E-01      1.397021000000000E+01      3.884583000000000E-01     -1.540156000000000E+02
4879000000.000000      6.568909000000000E-01      1.396631000000000E+01      3.817596000000000E-01     -1.545156000000000E+02
4880000000.000000      6.574402000000000E-01      1.386328000000000E+01      3.781128000000000E-01     -1.552109000000000E+02
4881000000.000000      6.567383000000000E-01      1.381787000000000E+01      3.749847000000000E-01     -1.557734000000000E+02
4882000000.000000      6.600952000000000E-01      1.382178000000000E+01      3.721161000000000E-01     -1.563359000000000E+02
4883000000.000000      6.609192000000000E-01      1.372314000000000E+01      3.642426000000000E-01     -1.569687000000000E+02
4884000000.000000      6.626282000000000E-01      1.373291000000000E+01      3.604279000000000E-01     -1.575312000000000E+02
4885000000.000000      6.631470000000000E-01      1.362695000000000E+01      3.570557000000000E-01     -1.576484000000000E+02
4886000000.000000      6.648560000000000E-01      1.347314000000000E+01      3.536530000000000E-01     -1.581563000000000E+02
4887000000.000000      6.643066000000000E-01      1.349365000000000E+01      3.487244000000000E-01     -1.587344000000000E+02
4888000000.000000      6.673279000000000E-01      1.335352000000000E+01      3.446503000000000E-01     -1.594141000000000E+02
4889000000.000000      6.681213000000000E-01      1.326025000000000E+01      3.396301000000000E-01     -1.598750000000000E+02
4890000000.000000      6.672668000000000E-01      1.316943000000000E+01      3.346863000000000E-01     -1.602266000000000E+02
4891000000.000000      6.685791000000000E-01      1.305957000000000E+01      3.310699000000000E-01     -1.607656000000000E+02
4892000000.000000      6.691589000000000E-01      1.302686000000000E+01      3.278809000000000E-01     -1.607188000000000E+02
4893000000.000000      6.721802000000000E-01      1.295654000000000E+01      3.238831000000000E-01     -1.613281000000000E+02
4894000000.000000      6.722412000000000E-01      1.294727000000000E+01      3.192902000000000E-01     -1.616641000000000E+02
4895000000.000000      6.735840000000000E-01      1.257520000000000E+01      3.168793000000000E-01     -1.621094000000000E+02
4896000000.000000      6.745300000000000E-01      1.269287000000000E+01      3.131104000000000E-01     -1.623672000000000E+02
4897000000.000000      6.758728000000000E-01      1.256689000000000E+01      3.081055000000000E-01     -1.627969000000000E+02
4898000000.000000      6.748352000000000E-01      1.252002000000000E+01      3.059387000000000E-01     -1.631094000000000E+02
4899000000.000000      6.769104000000000E-01      1.231396000000000E+01      3.011169000000000E-01     -1.635937000000000E+02
4900000000.000000      6.777954000000000E-01      1.211230000000000E+01      2.974091000000000E-01     -1.638438000000000E+02
4901000000.000000      6.790771000000000E-01      1.217969000000000E+01      2.940216000000000E-01     -1.640625000000000E+02
4902000000.000000      6.800232000000000E-01      1.216699000000000E+01      2.906189000000000E-01     -1.643203000000000E+02
4903000000.000000      6.807251000000000E-01      1.209961000000000E+01      2.863159000000000E-01     -1.648047000000000E+02
4904000000.000000      6.828308000000000E-01      1.178418000000000E+01      2.832184000000000E-01     -1.651875000000000E+02
4905000000.000000      6.824646000000000E-01      1.178125000000000E+01      2.796631000000000E-01     -1.654922000000000E+02
4906000000.000000      6.822205000000000E-01      1.169336000000000E+01      2.765656000000000E-01     -1.656172000000000E+02
4907000000.000000      6.831970000000000E-01      1.154639000000000E+01      2.731323000000000E-01     -1.659297000000000E+02
4908000000.000000      6.836243000000000E-01      1.154932000000000E+01      2.700806000000000E-01     -1.664531000000000E+02
4909000000.000000      6.855469000000000E-01      1.141162000000000E+01      2.654877000000000E-01     -1.666875000000000E+02
4910000000.000000      6.848145000000000E-01      1.133057000000000E+01      2.619171000000000E-01     -1.669844000000000E+02
4911000000.000000      6.864319000000000E-01      1.125684000000000E+01      2.592010000000000E-01     -1.671797000000000E+02
4912000000.000000      6.864624000000000E-01      1.106006000000000E+01      2.559357000000000E-01     -1.674766000000000E+02
4913000000.000000      6.872864000000000E-01      1.107520000000000E+01      2.518311000000000E-01     -1.679688000000000E+02
4914000000.000000      6.886902000000000E-01      1.079932000000000E+01      2.484589000000000E-01     -1.680781000000000E+02
4915000000.000000      6.886597000000000E-01      1.102588000000000E+01      2.445145000000000E-01     -1.684297000000000E+02
4916000000.000000      6.887817000000000E-01      1.072363000000000E+01      2.413406000000000E-01     -1.688516000000000E+02
4917000000.000000      6.895752000000000E-01      1.072363000000000E+01      2.371445000000000E-01     -1.690000000000000E+02
4918000000.000000      6.892090000000000E-01      1.048779000000000E+01      2.338867000000000E-01     -1.692344000000000E+02
4919000000.000000      6.892090000000000E-01      1.037646000000000E+01      2.307510000000000E-01     -1.693594000000000E+02
4920000000.000000      6.904297000000000E-01      1.020605000000000E+01      2.261505000000000E-01     -1.697578000000000E+02
4921000000.000000      6.917725000000000E-01      1.035010000000000E+01      2.234650000000000E-01     -1.697813000000000E+02
4922000000.000000      6.922607000000000E-01      1.008789000000000E+01      2.194672000000000E-01     -1.699219000000000E+02
4923000000.000000      6.901855000000000E-01      1.002344000000000E+01      2.153015000000000E-01     -1.701015000000000E+02
4924000000.000000      6.941833000000000E-01      9.898438000000000E+00      2.116318000000000E-01     -1.704531000000000E+02
4925000000.000000      6.920776000000000E-01      9.741699000000000E+00      2.087708000000000E-01     -1.703828000000000E+02
4926000000.000000      6.934814000000000E-01      9.737793000000000E+00      2.047958000000000E-01     -1.707109000000000E+02
4927000000.000000      6.932678000000000E-01      9.524902000000000E+00      2.008972000000000E-01     -1.707422000000000E+02
4928000000.000000      6.947327000000000E-01      9.487793000000000E+00      1.976089000000000E-01     -1.707422000000000E+02
4929000000.000000      6.955566000000000E-01      9.274902000000000E+00      1.931610000000000E-01     -1.707266000000000E+02
4930000000.000000      6.952515000000000E-01      9.224121000000000E+00      1.894073000000000E-01     -1.709453000000000E+02
4931000000.000000      6.956787000000000E-01      9.380859000000000E+00      1.862030000000000E-01     -1.707422000000000E+02
4932000000.000000      6.975403000000000E-01      9.183105000000000E+00      1.822052000000000E-01     -1.708125000000000E+02
4933000000.000000      6.984253000000000E-01      8.972656000000000E+00      1.781845000000000E-01     -1.706094000000000E+02
4934000000.000000      6.990967000000000E-01      8.843750000000000E+00      1.744919000000000E-01     -1.705547000000000E+02
4935000000.000000      6.983032000000000E-01      8.909668000000000E+00      1.707382000000000E-01     -1.702812000000000E+02
4936000000.000000      6.974792000000000E-01      8.576172000000000E+00      1.672363000000000E-01     -1.699531000000000E+02
4937000000.000000      6.987305000000000E-01      8.544434000000000E+00      1.637268000000000E-01     -1.698047000000000E+02
4938000000.000000      6.979065000000000E-01      8.622559000000000E+00      1.600571000000000E-01     -1.694531000000000E+02
4939000000.000000      6.995544000000000E-01      8.517090000000000E+00      1.565704000000000E-01     -1.691484000000000E+02
4940000000.000000      7.003174000000000E-01      8.099609000000000E+00      1.526031000000000E-01     -1.686875000000000E+02
4941000000.000000      7.001953000000000E-01      8.246582000000000E+00      1.496048000000000E-01     -1.681015000000000E+02
4942000000.000000      6.998596000000000E-01      8.159668000000000E+00      1.458359000000000E-01     -1.676328000000000E+02
4943000000.000000      7.018127000000000E-01      8.126953000000000E+00      1.426315000000000E-01     -1.669453000000000E+02
4944000000.000000      7.005615000000000E-01      7.859131000000000E+00      1.390457000000000E-01     -1.665078000000000E+02
4945000000.000000      7.039795000000000E-01      7.851074000000000E+00      1.363144000000000E-01     -1.657891000000000E+02
4946000000.000000      7.010193000000000E-01      7.863281000000000E+00      1.330643000000000E-01     -1.648672000000000E+02
4947000000.000000      7.018433000000000E-01      7.656006000000000E+00      1.299362000000000E-01     -1.638438000000000E+02
4948000000.000000      7.054749000000000E-01      7.811279000000000E+00      1.274261000000000E-01     -1.627969000000000E+02
4949000000.000000      7.046814000000000E-01      7.654541000000000E+00      1.246071000000000E-01     -1.616406000000000E+02
4950000000.000000      7.053833000000000E-01      7.526855000000000E+00      1.220932000000000E-01     -1.606016000000000E+02
4951000000.000000      7.038574000000000E-01      7.415771000000000E+00      1.197739000000000E-01     -1.593828000000000E+02
4952000000.000000      7.038574000000000E-01      7.117676000000000E+00      1.169472000000000E-01     -1.578203000000000E+02
4953000000.000000      7.058411000000000E-01      7.109375000000000E+00      1.149635000000000E-01     -1.563203000000000E+02
4954000000.000000      7.052307000000000E-01      7.040771000000000E+00      1.132050000000000E-01     -1.551875000000000E+02
