! Network Analyzer HP8722D
! Hewlett-Packard
! Data name: Linha & Wilkinson
! Saver's name: Rodrigo Anjos
! Comments: Teste da utilização de aquisição
continua pelo VNA HP8722D
! Time and date: 22/5/2025 08:15
!              Frequency                     S11                                                   S21                                                   S12                                                   S22
# HZ  S  MA R 50
4800000000.000000      6.464233000000000E-01      1.018018000000000E+01      4.755402000000000E-01     -9.384766000000000E+01
4801000000.000000      6.445313000000000E-01      1.040234000000000E+01      4.747162000000000E-01     -9.435156000000000E+01
4802000000.000000      6.440125000000000E-01      1.016504000000000E+01      4.766998000000000E-01     -9.514843000000000E+01
4803000000.000000      6.411743000000000E-01      1.022412000000000E+01      4.803772000000000E-01     -9.582811000000000E+01
4804000000.000000      6.409912000000000E-01      1.018408000000000E+01      4.818573000000000E-01     -9.669531000000000E+01
4805000000.000000      6.411438000000000E-01      1.004541000000000E+01      4.843140000000000E-01     -9.755468000000000E+01
4806000000.000000      6.365356000000000E-01      1.024463000000000E+01      4.839020000000000E-01     -9.822266000000000E+01
4807000000.000000      6.350098000000000E-01      1.030615000000000E+01      4.854736000000000E-01     -9.912889000000000E+01
4808000000.000000      6.333923000000000E-01      1.014697000000000E+01      4.889679000000000E-01     -9.977343000000000E+01
4809000000.000000      6.323853000000000E-01      1.038330000000000E+01      4.886780000000000E-01     -1.006602000000000E+02
4810000000.000000      6.299133000000000E-01      1.025391000000000E+01      4.903564000000000E-01     -1.011875000000000E+02
4811000000.000000      6.288452000000000E-01      1.048096000000000E+01      4.906616000000000E-01     -1.020664000000000E+02
4812000000.000000      6.313782000000000E-01      1.054688000000000E+01      4.928589000000000E-01     -1.027539000000000E+02
4813000000.000000      6.278076000000000E-01      1.065771000000000E+01      4.944458000000000E-01     -1.034180000000000E+02
4814000000.000000      6.249084000000000E-01      1.072803000000000E+01      4.945068000000000E-01     -1.041602000000000E+02
4815000000.000000      6.237793000000000E-01      1.057129000000000E+01      4.952545000000000E-01     -1.053750000000000E+02
4816000000.000000      6.233215000000000E-01      1.067578000000000E+01      4.962921000000000E-01     -1.057305000000000E+02
4817000000.000000      6.211548000000000E-01      1.089014000000000E+01      4.971619000000000E-01     -1.064531000000000E+02
4818000000.000000      6.220093000000000E-01      1.078955000000000E+01      4.971771000000000E-01     -1.074766000000000E+02
4819000000.000000      6.215820000000000E-01      1.098047000000000E+01      4.956818000000000E-01     -1.082031000000000E+02
4820000000.000000      6.186218000000000E-01      1.125781000000000E+01      4.981995000000000E-01     -1.087812000000000E+02
4821000000.000000      6.170654000000000E-01      1.102734000000000E+01      4.983063000000000E-01     -1.095351000000000E+02
4822000000.000000      6.154175000000000E-01      1.103125000000000E+01      4.973450000000000E-01     -1.104258000000000E+02
4823000000.000000      6.148682000000000E-01      1.131689000000000E+01      4.988098000000000E-01     -1.109570000000000E+02
4824000000.000000      6.143799000000000E-01      1.153271000000000E+01      4.997559000000000E-01     -1.118906000000000E+02
4825000000.000000      6.145325000000000E-01      1.154785000000000E+01      4.983673000000000E-01     -1.126875000000000E+02
4826000000.000000      6.142273000000000E-01      1.161084000000000E+01      5.018005000000000E-01     -1.134883000000000E+02
4827000000.000000      6.142273000000000E-01      1.165332000000000E+01      4.994354000000000E-01     -1.139414000000000E+02
4828000000.000000      6.132507000000000E-01      1.180615000000000E+01      5.008240000000000E-01     -1.147266000000000E+02
4829000000.000000      6.135559000000000E-01      1.217676000000000E+01      5.002136000000000E-01     -1.156289000000000E+02
4830000000.000000      6.143799000000000E-01      1.223291000000000E+01      5.003967000000000E-01     -1.164492000000000E+02
4831000000.000000      6.123047000000000E-01      1.207910000000000E+01      5.014343000000000E-01     -1.172070000000000E+02
4832000000.000000      6.119080000000000E-01      1.237305000000000E+01      5.000000000000000E-01     -1.177305000000000E+02
4833000000.000000      6.104126000000000E-01      1.241016000000000E+01      4.986267000000000E-01     -1.186875000000000E+02
4834000000.000000      6.118164000000000E-01      1.251025000000000E+01      4.995270000000000E-01     -1.194219000000000E+02
4835000000.000000      6.121216000000000E-01      1.258887000000000E+01      5.004272000000000E-01     -1.201172000000000E+02
4836000000.000000      6.109924000000000E-01      1.293457000000000E+01      4.989014000000000E-01     -1.209297000000000E+02
4837000000.000000      6.109009000000000E-01      1.281787000000000E+01      4.973297000000000E-01     -1.218789000000000E+02
4838000000.000000      6.122742000000000E-01      1.288135000000000E+01      4.977264000000000E-01     -1.224609000000000E+02
4839000000.000000      6.159058000000000E-01      1.304590000000000E+01      4.971771000000000E-01     -1.232539000000000E+02
4840000000.000000      6.135864000000000E-01      1.304053000000000E+01      4.966583000000000E-01     -1.241797000000000E+02
4841000000.000000      6.130676000000000E-01      1.335645000000000E+01      4.969025000000000E-01     -1.249961000000000E+02
4842000000.000000      6.151123000000000E-01      1.328516000000000E+01      4.947052000000000E-01     -1.258555000000000E+02
4843000000.000000      6.165771000000000E-01      1.340723000000000E+01      4.950714000000000E-01     -1.267344000000000E+02
4844000000.000000      6.159668000000000E-01      1.333838000000000E+01      4.944305000000000E-01     -1.274766000000000E+02
4845000000.000000      6.182251000000000E-01      1.369580000000000E+01      4.924316000000000E-01     -1.282187000000000E+02
4846000000.000000      6.199036000000000E-01      1.364355000000000E+01      4.918976000000000E-01     -1.291484000000000E+02
4847000000.000000      6.199341000000000E-01      1.396045000000000E+01      4.904175000000000E-01     -1.298359000000000E+02
4848000000.000000      6.180115000000000E-01      1.389893000000000E+01      4.868317000000000E-01     -1.306719000000000E+02
4849000000.000000      6.207275000000000E-01      1.376416000000000E+01      4.866180000000000E-01     -1.315703000000000E+02
4850000000.000000      6.217651000000000E-01      1.381641000000000E+01      4.852448000000000E-01     -1.323750000000000E+02
4851000000.000000      6.234131000000000E-01      1.422998000000000E+01      4.846954000000000E-01     -1.332187000000000E+02
4852000000.000000      6.239624000000000E-01      1.404736000000000E+01      4.816742000000000E-01     -1.340000000000000E+02
4853000000.000000      6.250000000000000E-01      1.412109000000000E+01      4.774017000000000E-01     -1.348984000000000E+02
4854000000.000000      6.246338000000000E-01      1.415137000000000E+01      4.766083000000000E-01     -1.359375000000000E+02
4855000000.000000      6.245422000000000E-01      1.418311000000000E+01      4.740295000000000E-01     -1.366953000000000E+02
4856000000.000000      6.277771000000000E-01      1.425293000000000E+01      4.706726000000000E-01     -1.375000000000000E+02
4857000000.000000      6.284485000000000E-01      1.434912000000000E+01      4.695587000000000E-01     -1.382109000000000E+02
4858000000.000000      6.307373000000000E-01      1.443311000000000E+01      4.654541000000000E-01     -1.392266000000000E+02
4859000000.000000      6.318359000000000E-01      1.428320000000000E+01      4.636841000000000E-01     -1.398203000000000E+02
4860000000.000000      6.315918000000000E-01      1.433838000000000E+01      4.601746000000000E-01     -1.407656000000000E+02
4861000000.000000      6.342163000000000E-01      1.434912000000000E+01      4.564514000000000E-01     -1.418750000000000E+02
4862000000.000000      6.331787000000000E-01      1.439893000000000E+01      4.538422000000000E-01     -1.425469000000000E+02
4863000000.000000      6.359863000000000E-01      1.444531000000000E+01      4.491577000000000E-01     -1.433672000000000E+02
4864000000.000000      6.365967000000000E-01      1.422998000000000E+01      4.465332000000000E-01     -1.440625000000000E+02
4865000000.000000      6.382141000000000E-01      1.431494000000000E+01      4.421692000000000E-01     -1.448437000000000E+02
4866000000.000000      6.392517000000000E-01      1.425732000000000E+01      4.384155000000000E-01     -1.456250000000000E+02
4867000000.000000      6.392822000000000E-01      1.429297000000000E+01      4.345703000000000E-01     -1.464453000000000E+02
4868000000.000000      6.420898000000000E-01      1.428467000000000E+01      4.294128000000000E-01     -1.472812000000000E+02
4869000000.000000      6.419373000000000E-01      1.418164000000000E+01      4.270477000000000E-01     -1.480781000000000E+02
4870000000.000000      6.445007000000000E-01      1.427490000000000E+01      4.230499000000000E-01     -1.487109000000000E+02
4871000000.000000      6.449890000000000E-01      1.413086000000000E+01      4.177399000000000E-01     -1.494375000000000E+02
4872000000.000000      6.482239000000000E-01      1.410645000000000E+01      4.140625000000000E-01     -1.502187000000000E+02
4873000000.000000      6.494141000000000E-01      1.418457000000000E+01      4.098358000000000E-01     -1.511250000000000E+02
4874000000.000000      6.499939000000000E-01      1.430811000000000E+01      4.062042000000000E-01     -1.516016000000000E+02
4875000000.000000      6.506653000000000E-01      1.406250000000000E+01      3.997040000000000E-01     -1.521016000000000E+02
4876000000.000000      6.521606000000000E-01      1.404150000000000E+01      3.964233000000000E-01     -1.527656000000000E+02
4877000000.000000      6.542664000000000E-01      1.388232000000000E+01      3.927307000000000E-01     -1.534688000000000E+02
4878000000.000000      6.554871000000000E-01      1.381787000000000E+01      3.880157000000000E-01     -1.541172000000000E+02
4879000000.000000      6.559448000000000E-01      1.379053000000000E+01      3.836823000000000E-01     -1.545781000000000E+02
4880000000.000000      6.583252000000000E-01      1.384668000000000E+01      3.795013000000000E-01     -1.552266000000000E+02
4881000000.000000      6.602173000000000E-01      1.377686000000000E+01      3.746796000000000E-01     -1.556250000000000E+02
4882000000.000000      6.601257000000000E-01      1.379150000000000E+01      3.699036000000000E-01     -1.564219000000000E+02
4883000000.000000      6.601563000000000E-01      1.354736000000000E+01      3.653107000000000E-01     -1.568125000000000E+02
4884000000.000000      6.650696000000000E-01      1.350586000000000E+01      3.606110000000000E-01     -1.573281000000000E+02
4885000000.000000      6.651917000000000E-01      1.348389000000000E+01      3.572998000000000E-01     -1.577500000000000E+02
4886000000.000000      6.662903000000000E-01      1.352930000000000E+01      3.540192000000000E-01     -1.581250000000000E+02
4887000000.000000      6.665955000000000E-01      1.338818000000000E+01      3.492737000000000E-01     -1.587265000000000E+02
4888000000.000000      6.675415000000000E-01      1.331934000000000E+01      3.446655000000000E-01     -1.594687000000000E+02
4889000000.000000      6.670837000000000E-01      1.322168000000000E+01      3.387299000000000E-01     -1.596875000000000E+02
4890000000.000000      6.683655000000000E-01      1.297607000000000E+01      3.361053000000000E-01     -1.605703000000000E+02
4891000000.000000      6.703186000000000E-01      1.311035000000000E+01      3.314209000000000E-01     -1.604297000000000E+02
4892000000.000000      6.710205000000000E-01      1.295557000000000E+01      3.272247000000000E-01     -1.607265000000000E+02
4893000000.000000      6.731262000000000E-01      1.282617000000000E+01      3.233185000000000E-01     -1.612890000000000E+02
4894000000.000000      6.714783000000000E-01      1.291406000000000E+01      3.194733000000000E-01     -1.615781000000000E+02
4895000000.000000      6.759033000000000E-01      1.259033000000000E+01      3.171082000000000E-01     -1.620391000000000E+02
4896000000.000000      6.753235000000000E-01      1.248145000000000E+01      3.123779000000000E-01     -1.623906000000000E+02
4897000000.000000      6.766052000000000E-01      1.250244000000000E+01      3.083191000000000E-01     -1.628359000000000E+02
4898000000.000000      6.763306000000000E-01      1.234961000000000E+01      3.051605000000000E-01     -1.630625000000000E+02
4899000000.000000      6.769104000000000E-01      1.231689000000000E+01      3.014069000000000E-01     -1.636641000000000E+02
4900000000.000000      6.778259000000000E-01      1.223438000000000E+01      2.982483000000000E-01     -1.638515000000000E+02
4901000000.000000      6.786804000000000E-01      1.221094000000000E+01      2.941895000000000E-01     -1.641172000000000E+02
4902000000.000000      6.808167000000000E-01      1.208203000000000E+01      2.908173000000000E-01     -1.643984000000000E+02
4903000000.000000      6.810913000000000E-01      1.209277000000000E+01      2.856445000000000E-01     -1.647187000000000E+02
4904000000.000000      6.807556000000000E-01      1.200391000000000E+01      2.835388000000000E-01     -1.651875000000000E+02
4905000000.000000      6.840820000000000E-01      1.165088000000000E+01      2.804108000000000E-01     -1.654140000000000E+02
4906000000.000000      6.816711000000000E-01      1.159033000000000E+01      2.757263000000000E-01     -1.655078000000000E+02
4907000000.000000      6.829834000000000E-01      1.159424000000000E+01      2.730865000000000E-01     -1.660703000000000E+02
4908000000.000000      6.865234000000000E-01      1.137744000000000E+01      2.696381000000000E-01     -1.664609000000000E+02
4909000000.000000      6.830444000000000E-01      1.128662000000000E+01      2.651825000000000E-01     -1.667422000000000E+02
4910000000.000000      6.852417000000000E-01      1.117822000000000E+01      2.624359000000000E-01     -1.669844000000000E+02
4911000000.000000      6.875916000000000E-01      1.104248000000000E+01      2.596893000000000E-01     -1.672500000000000E+02
4912000000.000000      6.860657000000000E-01      1.111230000000000E+01      2.551117000000000E-01     -1.676250000000000E+02
4913000000.000000      6.843872000000000E-01      1.089258000000000E+01      2.520294000000000E-01     -1.678672000000000E+02
4914000000.000000      6.878357000000000E-01      1.060156000000000E+01      2.484894000000000E-01     -1.680938000000000E+02
4915000000.000000      6.885986000000000E-01      1.078125000000000E+01      2.443695000000000E-01     -1.685313000000000E+02
4916000000.000000      6.896973000000000E-01      1.061133000000000E+01      2.410049000000000E-01     -1.687656000000000E+02
4917000000.000000      6.897278000000000E-01      1.061963000000000E+01      2.379227000000000E-01     -1.690000000000000E+02
4918000000.000000      6.913452000000000E-01      1.049316000000000E+01      2.338333000000000E-01     -1.691172000000000E+02
4919000000.000000      6.902161000000000E-01      1.033252000000000E+01      2.309875000000000E-01     -1.693438000000000E+02
4920000000.000000      6.917725000000000E-01      1.029541000000000E+01      2.266312000000000E-01     -1.698047000000000E+02
4921000000.000000      6.899719000000000E-01      1.033252000000000E+01      2.231827000000000E-01     -1.699219000000000E+02
4922000000.000000      6.932373000000000E-01      9.994629000000000E+00      2.192688000000000E-01     -1.699141000000000E+02
4923000000.000000      6.918945000000000E-01      9.947754000000000E+00      2.154007000000000E-01     -1.699531000000000E+02
4924000000.000000      6.934814000000000E-01      1.006445000000000E+01      2.114944000000000E-01     -1.704844000000000E+02
4925000000.000000      6.920776000000000E-01      9.575684000000000E+00      2.082214000000000E-01     -1.706016000000000E+02
4926000000.000000      6.949158000000000E-01      9.707520000000000E+00      2.051392000000000E-01     -1.707578000000000E+02
4927000000.000000      6.923218000000000E-01      9.582520000000000E+00      2.008286000000000E-01     -1.709063000000000E+02
4928000000.000000      6.954651000000000E-01      9.457520000000000E+00      1.977005000000000E-01     -1.707656000000000E+02
4929000000.000000      6.941223000000000E-01      9.467285000000000E+00      1.932526000000000E-01     -1.708594000000000E+02
4930000000.000000      6.951294000000000E-01      9.314941000000000E+00      1.898575000000000E-01     -1.708594000000000E+02
4931000000.000000      6.963806000000000E-01      9.261230000000000E+00      1.867676000000000E-01     -1.707891000000000E+02
4932000000.000000      6.958008000000000E-01      9.129395000000000E+00      1.826782000000000E-01     -1.708047000000000E+02
4933000000.000000      6.957397000000000E-01      8.882324000000000E+00      1.781845000000000E-01     -1.706172000000000E+02
4934000000.000000      6.955261000000000E-01      8.823242000000000E+00      1.741714000000000E-01     -1.705937000000000E+02
4935000000.000000      6.999207000000000E-01      8.727051000000000E+00      1.713257000000000E-01     -1.702344000000000E+02
4936000000.000000      6.982727000000000E-01      8.752930000000000E+00      1.672974000000000E-01     -1.700703000000000E+02
4937000000.000000      6.981812000000000E-01      8.479980000000000E+00      1.637039000000000E-01     -1.698672000000000E+02
4938000000.000000      6.976624000000000E-01      8.633789000000000E+00      1.602325000000000E-01     -1.694766000000000E+02
4939000000.000000      7.007141000000000E-01      8.563477000000000E+00      1.566925000000000E-01     -1.691484000000000E+02
4940000000.000000      6.996460000000000E-01      8.308105000000000E+00      1.528778000000000E-01     -1.688047000000000E+02
4941000000.000000      7.021179000000000E-01      8.291504000000000E+00      1.497726000000000E-01     -1.682500000000000E+02
4942000000.000000      7.000732000000000E-01      8.124023000000000E+00      1.459808000000000E-01     -1.677266000000000E+02
4943000000.000000      7.021790000000000E-01      8.026855000000000E+00      1.426773000000000E-01     -1.670703000000000E+02
4944000000.000000      7.026672000000000E-01      7.945801000000000E+00      1.397400000000000E-01     -1.664531000000000E+02
4945000000.000000      7.018738000000000E-01      7.907227000000000E+00      1.359024000000000E-01     -1.657109000000000E+02
4946000000.000000      7.047424000000000E-01      7.651855000000000E+00      1.329498000000000E-01     -1.648125000000000E+02
4947000000.000000      7.052002000000000E-01      7.603760000000000E+00      1.301880000000000E-01     -1.638672000000000E+02
4948000000.000000      7.028503000000000E-01      7.481689000000000E+00      1.272430000000000E-01     -1.630391000000000E+02
4949000000.000000      7.043152000000000E-01      7.531006000000000E+00      1.248894000000000E-01     -1.616094000000000E+02
4950000000.000000      7.049255000000000E-01      7.389648000000000E+00      1.219482000000000E-01     -1.606172000000000E+02
4951000000.000000      7.035522000000000E-01      7.270020000000000E+00      1.195183000000000E-01     -1.595234000000000E+02
4952000000.000000      7.053223000000000E-01      7.069580000000000E+00      1.168175000000000E-01     -1.580781000000000E+02
4953000000.000000      7.056274000000000E-01      6.941895000000000E+00      1.152458000000000E-01     -1.567344000000000E+02
4954000000.000000      7.076111000000000E-01      7.009277000000000E+00      1.132240000000000E-01     -1.548984000000000E+02
