! Network Analyzer HP8722D
! Hewlett-Packard
! Data name: Linha & Wilkinson
! Saver's name: Rodrigo Anjos
! Comments: Teste da utilização de aquisição
continua pelo VNA HP8722D
! Time and date: 22/5/2025 11:33
!              Frequency                     S11                                                   S21                                                   S12                                                   S22
# HZ  S  MA R 50
4800000000.000000      6.510315000000000E-01      1.066602000000000E+01      4.709167000000000E-01     -9.262499000000000E+01
4801000000.000000      6.495972000000000E-01      1.086230000000000E+01      4.726563000000000E-01     -9.316015000000000E+01
4802000000.000000      6.486206000000000E-01      1.075928000000000E+01      4.739685000000000E-01     -9.386328000000000E+01
4803000000.000000      6.457825000000000E-01      1.071826000000000E+01      4.753571000000000E-01     -9.455469000000000E+01
4804000000.000000      6.442566000000000E-01      1.083252000000000E+01      4.779663000000000E-01     -9.521093000000000E+01
4805000000.000000      6.436768000000000E-01      1.063330000000000E+01      4.804077000000000E-01     -9.625000000000000E+01
4806000000.000000      6.420593000000000E-01      1.070313000000000E+01      4.815979000000000E-01     -9.689842000000000E+01
4807000000.000000      6.381226000000000E-01      1.077344000000000E+01      4.819641000000000E-01     -9.772264000000000E+01
4808000000.000000      6.381531000000000E-01      1.067041000000000E+01      4.838715000000000E-01     -9.856640000000000E+01
4809000000.000000      6.358948000000000E-01      1.080908000000000E+01      4.870453000000000E-01     -9.928123000000000E+01
4810000000.000000      6.349792000000000E-01      1.078564000000000E+01      4.868622000000000E-01     -1.000898000000000E+02
4811000000.000000      6.332397000000000E-01      1.095850000000000E+01      4.897003000000000E-01     -1.010117000000000E+02
4812000000.000000      6.332397000000000E-01      1.100537000000000E+01      4.890594000000000E-01     -1.015703000000000E+02
4813000000.000000      6.309204000000000E-01      1.106445000000000E+01      4.913635000000000E-01     -1.022969000000000E+02
4814000000.000000      6.288757000000000E-01      1.104932000000000E+01      4.926300000000000E-01     -1.029531000000000E+02
4815000000.000000      6.269226000000000E-01      1.109619000000000E+01      4.924469000000000E-01     -1.038437000000000E+02
4816000000.000000      6.275024000000000E-01      1.100537000000000E+01      4.950562000000000E-01     -1.048008000000000E+02
4817000000.000000      6.252747000000000E-01      1.132666000000000E+01      4.940033000000000E-01     -1.052422000000000E+02
4818000000.000000      6.243896000000000E-01      1.130176000000000E+01      4.949493000000000E-01     -1.060586000000000E+02
4819000000.000000      6.233215000000000E-01      1.132666000000000E+01      4.964447000000000E-01     -1.067422000000000E+02
4820000000.000000      6.212769000000000E-01      1.152588000000000E+01      4.957123000000000E-01     -1.073594000000000E+02
4821000000.000000      6.213379000000000E-01      1.166748000000000E+01      4.974670000000000E-01     -1.082851000000000E+02
4822000000.000000      6.194153000000000E-01      1.161230000000000E+01      4.962311000000000E-01     -1.091289000000000E+02
4823000000.000000      6.198425000000000E-01      1.172363000000000E+01      4.979706000000000E-01     -1.099570000000000E+02
4824000000.000000      6.160889000000000E-01      1.192822000000000E+01      4.972534000000000E-01     -1.105547000000000E+02
4825000000.000000      6.164551000000000E-01      1.198730000000000E+01      4.975128000000000E-01     -1.111836000000000E+02
4826000000.000000      6.173401000000000E-01      1.194189000000000E+01      4.990387000000000E-01     -1.121172000000000E+02
4827000000.000000      6.154175000000000E-01      1.208057000000000E+01      4.994049000000000E-01     -1.126406000000000E+02
4828000000.000000      6.162720000000000E-01      1.212988000000000E+01      5.001221000000000E-01     -1.135039000000000E+02
4829000000.000000      6.159973000000000E-01      1.270801000000000E+01      4.986420000000000E-01     -1.141992000000000E+02
4830000000.000000      6.152039000000000E-01      1.260254000000000E+01      4.992371000000000E-01     -1.150078000000000E+02
4831000000.000000      6.153870000000000E-01      1.249951000000000E+01      4.998627000000000E-01     -1.160078000000000E+02
4832000000.000000      6.123047000000000E-01      1.276318000000000E+01      4.988403000000000E-01     -1.165234000000000E+02
4833000000.000000      6.117554000000000E-01      1.285938000000000E+01      4.995422000000000E-01     -1.173672000000000E+02
4834000000.000000      6.132202000000000E-01      1.291260000000000E+01      4.994202000000000E-01     -1.178711000000000E+02
4835000000.000000      6.152344000000000E-01      1.290479000000000E+01      5.002441000000000E-01     -1.188125000000000E+02
4836000000.000000      6.133423000000000E-01      1.310107000000000E+01      4.975739000000000E-01     -1.195351000000000E+02
4837000000.000000      6.140442000000000E-01      1.335791000000000E+01      4.975281000000000E-01     -1.206289000000000E+02
4838000000.000000      6.138611000000000E-01      1.328906000000000E+01      4.973602000000000E-01     -1.209727000000000E+02
4839000000.000000      6.175842000000000E-01      1.375488000000000E+01      4.973602000000000E-01     -1.220586000000000E+02
4840000000.000000      6.157532000000000E-01      1.339600000000000E+01      4.964294000000000E-01     -1.228594000000000E+02
4841000000.000000      6.162415000000000E-01      1.379297000000000E+01      4.965363000000000E-01     -1.235390000000000E+02
4842000000.000000      6.149902000000000E-01      1.368164000000000E+01      4.968262000000000E-01     -1.242930000000000E+02
4843000000.000000      6.186523000000000E-01      1.380957000000000E+01      4.976959000000000E-01     -1.252539000000000E+02
4844000000.000000      6.176453000000000E-01      1.387256000000000E+01      4.940948000000000E-01     -1.259531000000000E+02
4845000000.000000      6.195374000000000E-01      1.410352000000000E+01      4.936066000000000E-01     -1.267266000000000E+02
4846000000.000000      6.200867000000000E-01      1.417920000000000E+01      4.926758000000000E-01     -1.276719000000000E+02
4847000000.000000      6.216431000000000E-01      1.425439000000000E+01      4.917297000000000E-01     -1.284844000000000E+02
4848000000.000000      6.197510000000000E-01      1.436426000000000E+01      4.896851000000000E-01     -1.294453000000000E+02
4849000000.000000      6.222229000000000E-01      1.428076000000000E+01      4.887085000000000E-01     -1.301406000000000E+02
4850000000.000000      6.232300000000000E-01      1.421484000000000E+01      4.865570000000000E-01     -1.311016000000000E+02
4851000000.000000      6.232300000000000E-01      1.450293000000000E+01      4.859467000000000E-01     -1.319453000000000E+02
4852000000.000000      6.235962000000000E-01      1.454688000000000E+01      4.825134000000000E-01     -1.329219000000000E+02
4853000000.000000      6.254578000000000E-01      1.454297000000000E+01      4.806366000000000E-01     -1.336953000000000E+02
4854000000.000000      6.271057000000000E-01      1.464307000000000E+01      4.787292000000000E-01     -1.343594000000000E+02
4855000000.000000      6.260681000000000E-01      1.458691000000000E+01      4.764709000000000E-01     -1.353594000000000E+02
4856000000.000000      6.290894000000000E-01      1.469385000000000E+01      4.752197000000000E-01     -1.363125000000000E+02
4857000000.000000      6.286926000000000E-01      1.476807000000000E+01      4.729462000000000E-01     -1.370703000000000E+02
4858000000.000000      6.319580000000000E-01      1.488916000000000E+01      4.690704000000000E-01     -1.378984000000000E+02
4859000000.000000      6.318665000000000E-01      1.483008000000000E+01      4.676361000000000E-01     -1.387734000000000E+02
4860000000.000000      6.330872000000000E-01      1.485742000000000E+01      4.633636000000000E-01     -1.395313000000000E+02
4861000000.000000      6.346130000000000E-01      1.466504000000000E+01      4.609222000000000E-01     -1.404375000000000E+02
4862000000.000000      6.343079000000000E-01      1.484912000000000E+01      4.576874000000000E-01     -1.411719000000000E+02
4863000000.000000      6.362610000000000E-01      1.490820000000000E+01      4.542389000000000E-01     -1.420469000000000E+02
4864000000.000000      6.376038000000000E-01      1.486133000000000E+01      4.517822000000000E-01     -1.428437000000000E+02
4865000000.000000      6.374207000000000E-01      1.493994000000000E+01      4.469452000000000E-01     -1.435313000000000E+02
4866000000.000000      6.398010000000000E-01      1.466260000000000E+01      4.423370000000000E-01     -1.444687000000000E+02
4867000000.000000      6.404724000000000E-01      1.472266000000000E+01      4.393158000000000E-01     -1.454219000000000E+02
4868000000.000000      6.418762000000000E-01      1.478857000000000E+01      4.358826000000000E-01     -1.461250000000000E+02
4869000000.000000      6.426392000000000E-01      1.479834000000000E+01      4.307709000000000E-01     -1.468828000000000E+02
4870000000.000000      6.422119000000000E-01      1.482715000000000E+01      4.280243000000000E-01     -1.474922000000000E+02
4871000000.000000      6.458435000000000E-01      1.470361000000000E+01      4.245911000000000E-01     -1.484219000000000E+02
4872000000.000000      6.469727000000000E-01      1.476953000000000E+01      4.189301000000000E-01     -1.488359000000000E+02
4873000000.000000      6.484985000000000E-01      1.457715000000000E+01      4.132690000000000E-01     -1.499766000000000E+02
4874000000.000000      6.478577000000000E-01      1.474902000000000E+01      4.103088000000000E-01     -1.506172000000000E+02
4875000000.000000      6.506042000000000E-01      1.451270000000000E+01      4.049072000000000E-01     -1.510859000000000E+02
4876000000.000000      6.517944000000000E-01      1.485205000000000E+01      4.021301000000000E-01     -1.517578000000000E+02
4877000000.000000      6.534729000000000E-01      1.434814000000000E+01      3.974915000000000E-01     -1.525078000000000E+02
4878000000.000000      6.533508000000000E-01      1.458398000000000E+01      3.931732000000000E-01     -1.532656000000000E+02
4879000000.000000      6.564941000000000E-01      1.435596000000000E+01      3.881683000000000E-01     -1.536016000000000E+02
4880000000.000000      6.579590000000000E-01      1.431885000000000E+01      3.842316000000000E-01     -1.544453000000000E+02
4881000000.000000      6.580200000000000E-01      1.431494000000000E+01      3.798218000000000E-01     -1.546562000000000E+02
4882000000.000000      6.610107000000000E-01      1.435352000000000E+01      3.758698000000000E-01     -1.554375000000000E+02
4883000000.000000      6.598816000000000E-01      1.424512000000000E+01      3.708191000000000E-01     -1.558906000000000E+02
4884000000.000000      6.636658000000000E-01      1.434082000000000E+01      3.661194000000000E-01     -1.565078000000000E+02
4885000000.000000      6.636963000000000E-01      1.391553000000000E+01      3.623505000000000E-01     -1.568594000000000E+02
4886000000.000000      6.638184000000000E-01      1.407178000000000E+01      3.575134000000000E-01     -1.574375000000000E+02
4887000000.000000      6.658325000000000E-01      1.409912000000000E+01      3.542175000000000E-01     -1.577422000000000E+02
4888000000.000000      6.669312000000000E-01      1.373389000000000E+01      3.497925000000000E-01     -1.584297000000000E+02
4889000000.000000      6.672974000000000E-01      1.385889000000000E+01      3.442383000000000E-01     -1.588672000000000E+02
4890000000.000000      6.692810000000000E-01      1.363086000000000E+01      3.403015000000000E-01     -1.594141000000000E+02
4891000000.000000      6.696167000000000E-01      1.367090000000000E+01      3.354187000000000E-01     -1.599219000000000E+02
4892000000.000000      6.696472000000000E-01      1.370117000000000E+01      3.328094000000000E-01     -1.599141000000000E+02
4893000000.000000      6.729736000000000E-01      1.341113000000000E+01      3.279724000000000E-01     -1.606719000000000E+02
4894000000.000000      6.726990000000000E-01      1.334424000000000E+01      3.243103000000000E-01     -1.610312000000000E+02
4895000000.000000      6.739807000000000E-01      1.325488000000000E+01      3.216095000000000E-01     -1.615703000000000E+02
4896000000.000000      6.750183000000000E-01      1.317383000000000E+01      3.169098000000000E-01     -1.615625000000000E+02
4897000000.000000      6.760864000000000E-01      1.316016000000000E+01      3.124542000000000E-01     -1.622656000000000E+02
4898000000.000000      6.752930000000000E-01      1.295117000000000E+01      3.091888000000000E-01     -1.624141000000000E+02
4899000000.000000      6.791992000000000E-01      1.299951000000000E+01      3.057861000000000E-01     -1.629375000000000E+02
4900000000.000000      6.777954000000000E-01      1.281787000000000E+01      3.020325000000000E-01     -1.632109000000000E+02
4901000000.000000      6.796875000000000E-01      1.281689000000000E+01      2.983093000000000E-01     -1.635078000000000E+02
4902000000.000000      6.789246000000000E-01      1.263281000000000E+01      2.945404000000000E-01     -1.638359000000000E+02
4903000000.000000      6.805725000000000E-01      1.262305000000000E+01      2.906189000000000E-01     -1.642500000000000E+02
4904000000.000000      6.825256000000000E-01      1.242920000000000E+01      2.866669000000000E-01     -1.645625000000000E+02
4905000000.000000      6.828308000000000E-01      1.234961000000000E+01      2.840729000000000E-01     -1.649844000000000E+02
4906000000.000000      6.821289000000000E-01      1.217969000000000E+01      2.803650000000000E-01     -1.651484000000000E+02
4907000000.000000      6.835632000000000E-01      1.198584000000000E+01      2.778473000000000E-01     -1.655781000000000E+02
4908000000.000000      6.849976000000000E-01      1.203809000000000E+01      2.744446000000000E-01     -1.659765000000000E+02
4909000000.000000      6.838074000000000E-01      1.185547000000000E+01      2.696381000000000E-01     -1.661641000000000E+02
4910000000.000000      6.843872000000000E-01      1.190332000000000E+01      2.666779000000000E-01     -1.665078000000000E+02
4911000000.000000      6.871643000000000E-01      1.187988000000000E+01      2.632751000000000E-01     -1.667656000000000E+02
4912000000.000000      6.858826000000000E-01      1.176318000000000E+01      2.599335000000000E-01     -1.672500000000000E+02
4913000000.000000      6.879272000000000E-01      1.151758000000000E+01      2.566528000000000E-01     -1.673125000000000E+02
4914000000.000000      6.890564000000000E-01      1.143945000000000E+01      2.521667000000000E-01     -1.676641000000000E+02
4915000000.000000      6.880798000000000E-01      1.138428000000000E+01      2.485199000000000E-01     -1.681875000000000E+02
4916000000.000000      6.879272000000000E-01      1.147656000000000E+01      2.450256000000000E-01     -1.684219000000000E+02
4917000000.000000      6.873474000000000E-01      1.127734000000000E+01      2.422562000000000E-01     -1.686484000000000E+02
4918000000.000000      6.911011000000000E-01      1.108887000000000E+01      2.379227000000000E-01     -1.688281000000000E+02
4919000000.000000      6.901550000000000E-01      1.096826000000000E+01      2.351761000000000E-01     -1.689141000000000E+02
4920000000.000000      6.910095000000000E-01      1.081055000000000E+01      2.304993000000000E-01     -1.695313000000000E+02
4921000000.000000      6.906128000000000E-01      1.077734000000000E+01      2.270508000000000E-01     -1.696406000000000E+02
4922000000.000000      6.903992000000000E-01      1.058252000000000E+01      2.238922000000000E-01     -1.697031000000000E+02
4923000000.000000      6.929321000000000E-01      1.064844000000000E+01      2.197189000000000E-01     -1.697969000000000E+02
4924000000.000000      6.924133000000000E-01      1.047119000000000E+01      2.160873000000000E-01     -1.702500000000000E+02
4925000000.000000      6.940613000000000E-01      1.024854000000000E+01      2.124634000000000E-01     -1.704375000000000E+02
4926000000.000000      6.930237000000000E-01      1.021289000000000E+01      2.090073000000000E-01     -1.706094000000000E+02
4927000000.000000      6.933899000000000E-01      1.017432000000000E+01      2.047424000000000E-01     -1.706406000000000E+02
4928000000.000000      6.945801000000000E-01      1.003418000000000E+01      2.016144000000000E-01     -1.706875000000000E+02
4929000000.000000      6.950684000000000E-01      9.980957000000000E+00      1.974182000000000E-01     -1.708359000000000E+02
4930000000.000000      6.950684000000000E-01      9.868164000000000E+00      1.936722000000000E-01     -1.710391000000000E+02
4931000000.000000      6.970825000000000E-01      9.580078000000000E+00      1.905518000000000E-01     -1.708750000000000E+02
4932000000.000000      6.973572000000000E-01      9.712891000000000E+00      1.862335000000000E-01     -1.708672000000000E+02
4933000000.000000      6.963501000000000E-01      9.600586000000000E+00      1.814346000000000E-01     -1.705547000000000E+02
4934000000.000000      6.967468000000000E-01      9.371094000000000E+00      1.782608000000000E-01     -1.708906000000000E+02
4935000000.000000      6.993103000000000E-01      9.358887000000000E+00      1.752701000000000E-01     -1.704609000000000E+02
4936000000.000000      6.976318000000000E-01      9.391602000000000E+00      1.709595000000000E-01     -1.705937000000000E+02
4937000000.000000      6.995544000000000E-01      9.062012000000000E+00      1.669998000000000E-01     -1.702188000000000E+02
4938000000.000000      6.979980000000000E-01      9.193848000000000E+00      1.635208000000000E-01     -1.698672000000000E+02
4939000000.000000      6.993408000000000E-01      9.229492000000000E+00      1.599121000000000E-01     -1.697187000000000E+02
4940000000.000000      7.014771000000000E-01      8.864258000000000E+00      1.559753000000000E-01     -1.696250000000000E+02
4941000000.000000      7.010193000000000E-01      8.659668000000000E+00      1.526108000000000E-01     -1.689141000000000E+02
4942000000.000000      7.005310000000000E-01      8.695313000000000E+00      1.489487000000000E-01     -1.684687000000000E+02
4943000000.000000      7.016296000000000E-01      8.715820000000000E+00      1.457901000000000E-01     -1.678906000000000E+02
4944000000.000000      7.023315000000000E-01      8.427734000000000E+00      1.425552000000000E-01     -1.672812000000000E+02
4945000000.000000      7.030029000000000E-01      8.316406000000000E+00      1.388474000000000E-01     -1.666484000000000E+02
4946000000.000000      7.037048000000000E-01      8.393555000000000E+00      1.359024000000000E-01     -1.660000000000000E+02
4947000000.000000      7.040405000000000E-01      8.145996000000000E+00      1.323853000000000E-01     -1.651484000000000E+02
4948000000.000000      7.050476000000000E-01      8.100586000000000E+00      1.298523000000000E-01     -1.643281000000000E+02
4949000000.000000      7.056274000000000E-01      8.144531000000000E+00      1.267853000000000E-01     -1.630469000000000E+02
4950000000.000000      7.045593000000000E-01      8.142090000000000E+00      1.236496000000000E-01     -1.621562000000000E+02
4951000000.000000      7.058716000000000E-01      7.919678000000000E+00      1.214676000000000E-01     -1.610156000000000E+02
4952000000.000000      7.055359000000000E-01      7.838623000000000E+00      1.185455000000000E-01     -1.596797000000000E+02
4953000000.000000      7.065735000000000E-01      7.596924000000000E+00      1.164551000000000E-01     -1.586328000000000E+02
4954000000.000000      7.075806000000000E-01      7.557129000000000E+00      1.139946000000000E-01     -1.569531000000000E+02
