! Network Analyzer HP8722D
! Hewlett-Packard
! Data name: Linha & Wilkinson
! Saver's name: Rodrigo Anjos
! Comments: Teste da utilização de aquisição
continua pelo VNA HP8722D
! Time and date: 22/5/2025 15:35
!              Frequency                     S11                                                   S21                                                   S12                                                   S22
# HZ  S  MA R 50
4800000000.000000      6.521606000000000E-01      1.093262000000000E+01      4.712372000000000E-01     -9.203516000000000E+01
4801000000.000000      6.505127000000000E-01      1.107813000000000E+01      4.719849000000000E-01     -9.254297000000000E+01
4802000000.000000      6.497192000000000E-01      1.101611000000000E+01      4.724426000000000E-01     -9.328905000000000E+01
4803000000.000000      6.479187000000000E-01      1.094922000000000E+01      4.767456000000000E-01     -9.407812000000000E+01
4804000000.000000      6.437378000000000E-01      1.092725000000000E+01      4.783173000000000E-01     -9.483202000000000E+01
4805000000.000000      6.450195000000000E-01      1.085547000000000E+01      4.793701000000000E-01     -9.554296000000000E+01
4806000000.000000      6.427307000000000E-01      1.098340000000000E+01      4.806824000000000E-01     -9.643358000000000E+01
4807000000.000000      6.409607000000000E-01      1.085303000000000E+01      4.828491000000000E-01     -9.724998000000000E+01
4808000000.000000      6.379700000000000E-01      1.098877000000000E+01      4.847260000000000E-01     -9.758202000000000E+01
4809000000.000000      6.369324000000000E-01      1.100391000000000E+01      4.868622000000000E-01     -9.884766000000000E+01
4810000000.000000      6.356812000000000E-01      1.106299000000000E+01      4.879761000000000E-01     -9.940624000000000E+01
4811000000.000000      6.344604000000000E-01      1.104395000000000E+01      4.897766000000000E-01     -1.004258000000000E+02
4812000000.000000      6.354370000000000E-01      1.127441000000000E+01      4.895172000000000E-01     -1.011094000000000E+02
4813000000.000000      6.324158000000000E-01      1.119873000000000E+01      4.905243000000000E-01     -1.019531000000000E+02
4814000000.000000      6.296387000000000E-01      1.119482000000000E+01      4.917145000000000E-01     -1.022500000000000E+02
4815000000.000000      6.278381000000000E-01      1.130762000000000E+01      4.935760000000000E-01     -1.032031000000000E+02
4816000000.000000      6.282043000000000E-01      1.122070000000000E+01      4.942780000000000E-01     -1.041680000000000E+02
4817000000.000000      6.261292000000000E-01      1.140625000000000E+01      4.949951000000000E-01     -1.048320000000000E+02
4818000000.000000      6.252136000000000E-01      1.150391000000000E+01      4.949036000000000E-01     -1.055156000000000E+02
4819000000.000000      6.239624000000000E-01      1.155615000000000E+01      4.958649000000000E-01     -1.062969000000000E+02
4820000000.000000      6.212158000000000E-01      1.167529000000000E+01      4.962921000000000E-01     -1.067851000000000E+02
4821000000.000000      6.197510000000000E-01      1.170410000000000E+01      4.982452000000000E-01     -1.078594000000000E+02
4822000000.000000      6.192932000000000E-01      1.162061000000000E+01      4.973602000000000E-01     -1.083398000000000E+02
4823000000.000000      6.201172000000000E-01      1.178662000000000E+01      4.984894000000000E-01     -1.091797000000000E+02
4824000000.000000      6.178284000000000E-01      1.196094000000000E+01      4.972534000000000E-01     -1.101484000000000E+02
4825000000.000000      6.164551000000000E-01      1.199268000000000E+01      4.981842000000000E-01     -1.107969000000000E+02
4826000000.000000      6.156311000000000E-01      1.199561000000000E+01      4.996796000000000E-01     -1.115703000000000E+02
4827000000.000000      6.160889000000000E-01      1.220410000000000E+01      4.984589000000000E-01     -1.121992000000000E+02
4828000000.000000      6.153259000000000E-01      1.248438000000000E+01      4.993591000000000E-01     -1.128359000000000E+02
4829000000.000000      6.152649000000000E-01      1.265625000000000E+01      4.994659000000000E-01     -1.137031000000000E+02
4830000000.000000      6.143188000000000E-01      1.259814000000000E+01      4.987946000000000E-01     -1.144765000000000E+02
4831000000.000000      6.147461000000000E-01      1.262598000000000E+01      5.007629000000000E-01     -1.154414000000000E+02
4832000000.000000      6.136169000000000E-01      1.287305000000000E+01      4.989319000000000E-01     -1.159101000000000E+02
4833000000.000000      6.133423000000000E-01      1.299805000000000E+01      4.995270000000000E-01     -1.167461000000000E+02
4834000000.000000      6.128235000000000E-01      1.303662000000000E+01      4.994659000000000E-01     -1.175195000000000E+02
4835000000.000000      6.148071000000000E-01      1.321777000000000E+01      4.997101000000000E-01     -1.183281000000000E+02
4836000000.000000      6.133423000000000E-01      1.333838000000000E+01      4.984283000000000E-01     -1.189726000000000E+02
4837000000.000000      6.132813000000000E-01      1.359814000000000E+01      4.967804000000000E-01     -1.200586000000000E+02
4838000000.000000      6.135864000000000E-01      1.351172000000000E+01      4.998016000000000E-01     -1.205898000000000E+02
4839000000.000000      6.177673000000000E-01      1.363379000000000E+01      4.989319000000000E-01     -1.213945000000000E+02
4840000000.000000      6.149902000000000E-01      1.364063000000000E+01      4.974060000000000E-01     -1.220000000000000E+02
4841000000.000000      6.156616000000000E-01      1.398535000000000E+01      4.974670000000000E-01     -1.230820000000000E+02
4842000000.000000      6.143188000000000E-01      1.390869000000000E+01      4.972382000000000E-01     -1.240078000000000E+02
4843000000.000000      6.164856000000000E-01      1.393750000000000E+01      4.971771000000000E-01     -1.247187000000000E+02
4844000000.000000      6.165771000000000E-01      1.408447000000000E+01      4.963531000000000E-01     -1.256484000000000E+02
4845000000.000000      6.184692000000000E-01      1.413916000000000E+01      4.952545000000000E-01     -1.263359000000000E+02
4846000000.000000      6.186218000000000E-01      1.426953000000000E+01      4.929504000000000E-01     -1.272227000000000E+02
4847000000.000000      6.212158000000000E-01      1.434229000000000E+01      4.936523000000000E-01     -1.280391000000000E+02
4848000000.000000      6.195374000000000E-01      1.440283000000000E+01      4.899597000000000E-01     -1.287500000000000E+02
4849000000.000000      6.202393000000000E-01      1.458545000000000E+01      4.900208000000000E-01     -1.297109000000000E+02
4850000000.000000      6.209106000000000E-01      1.446338000000000E+01      4.869232000000000E-01     -1.305469000000000E+02
4851000000.000000      6.221924000000000E-01      1.481641000000000E+01      4.882965000000000E-01     -1.314453000000000E+02
4852000000.000000      6.231995000000000E-01      1.475049000000000E+01      4.838409000000000E-01     -1.322891000000000E+02
4853000000.000000      6.262512000000000E-01      1.469824000000000E+01      4.822388000000000E-01     -1.331406000000000E+02
4854000000.000000      6.254883000000000E-01      1.482031000000000E+01      4.810181000000000E-01     -1.340312000000000E+02
4855000000.000000      6.267700000000000E-01      1.482178000000000E+01      4.779205000000000E-01     -1.348516000000000E+02
4856000000.000000      6.273804000000000E-01      1.478613000000000E+01      4.747925000000000E-01     -1.358125000000000E+02
4857000000.000000      6.287537000000000E-01      1.502344000000000E+01      4.748383000000000E-01     -1.364297000000000E+02
4858000000.000000      6.297913000000000E-01      1.499902000000000E+01      4.718018000000000E-01     -1.372734000000000E+02
4859000000.000000      6.325073000000000E-01      1.485889000000000E+01      4.685059000000000E-01     -1.381797000000000E+02
4860000000.000000      6.308289000000000E-01      1.515381000000000E+01      4.652557000000000E-01     -1.391562000000000E+02
4861000000.000000      6.315613000000000E-01      1.507568000000000E+01      4.634094000000000E-01     -1.400781000000000E+02
4862000000.000000      6.339722000000000E-01      1.501953000000000E+01      4.596252000000000E-01     -1.407578000000000E+02
4863000000.000000      6.362000000000000E-01      1.522803000000000E+01      4.549255000000000E-01     -1.415469000000000E+02
4864000000.000000      6.370544000000000E-01      1.504980000000000E+01      4.529724000000000E-01     -1.424687000000000E+02
4865000000.000000      6.365967000000000E-01      1.503320000000000E+01      4.488983000000000E-01     -1.429922000000000E+02
4866000000.000000      6.385498000000000E-01      1.515283000000000E+01      4.443665000000000E-01     -1.440625000000000E+02
4867000000.000000      6.385803000000000E-01      1.491211000000000E+01      4.407349000000000E-01     -1.447422000000000E+02
4868000000.000000      6.406250000000000E-01      1.493408000000000E+01      4.377899000000000E-01     -1.455859000000000E+02
4869000000.000000      6.424255000000000E-01      1.498633000000000E+01      4.334412000000000E-01     -1.464219000000000E+02
4870000000.000000      6.441345000000000E-01      1.502197000000000E+01      4.291840000000000E-01     -1.470469000000000E+02
4871000000.000000      6.445007000000000E-01      1.489160000000000E+01      4.256592000000000E-01     -1.479687000000000E+02
4872000000.000000      6.481018000000000E-01      1.502783000000000E+01      4.208221000000000E-01     -1.485000000000000E+02
4873000000.000000      6.491699000000000E-01      1.492480000000000E+01      4.173737000000000E-01     -1.492812000000000E+02
4874000000.000000      6.480408000000000E-01      1.500977000000000E+01      4.122009000000000E-01     -1.500937000000000E+02
4875000000.000000      6.494446000000000E-01      1.481738000000000E+01      4.078522000000000E-01     -1.506328000000000E+02
4876000000.000000      6.506958000000000E-01      1.488916000000000E+01      4.050140000000000E-01     -1.513125000000000E+02
4877000000.000000      6.519775000000000E-01      1.463916000000000E+01      3.999023000000000E-01     -1.520469000000000E+02
4878000000.000000      6.541443000000000E-01      1.483154000000000E+01      3.945770000000000E-01     -1.526797000000000E+02
4879000000.000000      6.562805000000000E-01      1.478760000000000E+01      3.909607000000000E-01     -1.531953000000000E+02
4880000000.000000      6.575012000000000E-01      1.466797000000000E+01      3.858948000000000E-01     -1.537734000000000E+02
4881000000.000000      6.575012000000000E-01      1.460449000000000E+01      3.822327000000000E-01     -1.543750000000000E+02
4882000000.000000      6.590881000000000E-01      1.449463000000000E+01      3.783417000000000E-01     -1.549375000000000E+02
4883000000.000000      6.620483000000000E-01      1.447998000000000E+01      3.730011000000000E-01     -1.555391000000000E+02
4884000000.000000      6.623535000000000E-01      1.433154000000000E+01      3.677673000000000E-01     -1.561875000000000E+02
4885000000.000000      6.632385000000000E-01      1.447559000000000E+01      3.639526000000000E-01     -1.564219000000000E+02
4886000000.000000      6.652832000000000E-01      1.436035000000000E+01      3.600769000000000E-01     -1.569375000000000E+02
4887000000.000000      6.654968000000000E-01      1.428223000000000E+01      3.569489000000000E-01     -1.574922000000000E+02
4888000000.000000      6.655884000000000E-01      1.407471000000000E+01      3.519897000000000E-01     -1.581640000000000E+02
4889000000.000000      6.663513000000000E-01      1.397461000000000E+01      3.466034000000000E-01     -1.585234000000000E+02
4890000000.000000      6.675415000000000E-01      1.382324000000000E+01      3.435059000000000E-01     -1.592109000000000E+02
4891000000.000000      6.710510000000000E-01      1.375732000000000E+01      3.379974000000000E-01     -1.595312000000000E+02
4892000000.000000      6.697998000000000E-01      1.385205000000000E+01      3.351593000000000E-01     -1.597265000000000E+02
4893000000.000000      6.722717000000000E-01      1.371338000000000E+01      3.293762000000000E-01     -1.603125000000000E+02
4894000000.000000      6.729126000000000E-01      1.361182000000000E+01      3.257751000000000E-01     -1.606562000000000E+02
4895000000.000000      6.737976000000000E-01      1.359814000000000E+01      3.234253000000000E-01     -1.610625000000000E+02
4896000000.000000      6.737671000000000E-01      1.359277000000000E+01      3.190460000000000E-01     -1.615937000000000E+02
4897000000.000000      6.763611000000000E-01      1.327930000000000E+01      3.148956000000000E-01     -1.617656000000000E+02
4898000000.000000      6.759644000000000E-01      1.318896000000000E+01      3.122711000000000E-01     -1.620625000000000E+02
4899000000.000000      6.780396000000000E-01      1.324365000000000E+01      3.078003000000000E-01     -1.627969000000000E+02
4900000000.000000      6.775208000000000E-01      1.300342000000000E+01      3.044128000000000E-01     -1.629609000000000E+02
4901000000.000000      6.794128000000000E-01      1.299365000000000E+01      3.006287000000000E-01     -1.631953000000000E+02
4902000000.000000      6.783447000000000E-01      1.298682000000000E+01      2.970428000000000E-01     -1.635547000000000E+02
4903000000.000000      6.819763000000000E-01      1.283887000000000E+01      2.923279000000000E-01     -1.638984000000000E+02
4904000000.000000      6.808472000000000E-01      1.252295000000000E+01      2.895050000000000E-01     -1.643359000000000E+02
4905000000.000000      6.823120000000000E-01      1.247461000000000E+01      2.870941000000000E-01     -1.646719000000000E+02
4906000000.000000      6.803894000000000E-01      1.234277000000000E+01      2.824097000000000E-01     -1.648438000000000E+02
4907000000.000000      6.832275000000000E-01      1.241553000000000E+01      2.791748000000000E-01     -1.653203000000000E+02
4908000000.000000      6.837769000000000E-01      1.224414000000000E+01      2.760773000000000E-01     -1.657344000000000E+02
4909000000.000000      6.854858000000000E-01      1.225781000000000E+01      2.715759000000000E-01     -1.659375000000000E+02
4910000000.000000      6.831055000000000E-01      1.199414000000000E+01      2.689056000000000E-01     -1.662344000000000E+02
4911000000.000000      6.846924000000000E-01      1.210693000000000E+01      2.653198000000000E-01     -1.663672000000000E+02
4912000000.000000      6.844177000000000E-01      1.182813000000000E+01      2.613831000000000E-01     -1.668828000000000E+02
4913000000.000000      6.884766000000000E-01      1.166846000000000E+01      2.587280000000000E-01     -1.672188000000000E+02
4914000000.000000      6.869812000000000E-01      1.182373000000000E+01      2.551422000000000E-01     -1.674375000000000E+02
4915000000.000000      6.890259000000000E-01      1.172363000000000E+01      2.509613000000000E-01     -1.678672000000000E+02
4916000000.000000      6.885376000000000E-01      1.130176000000000E+01      2.477875000000000E-01     -1.681015000000000E+02
4917000000.000000      6.884766000000000E-01      1.137891000000000E+01      2.442322000000000E-01     -1.683828000000000E+02
4918000000.000000      6.907959000000000E-01      1.135547000000000E+01      2.397766000000000E-01     -1.687266000000000E+02
4919000000.000000      6.895447000000000E-01      1.117432000000000E+01      2.366104000000000E-01     -1.687500000000000E+02
4920000000.000000      6.893921000000000E-01      1.114551000000000E+01      2.328720000000000E-01     -1.692578000000000E+02
4921000000.000000      6.909790000000000E-01      1.118115000000000E+01      2.298431000000000E-01     -1.693359000000000E+02
4922000000.000000      6.885986000000000E-01      1.086914000000000E+01      2.259598000000000E-01     -1.695703000000000E+02
4923000000.000000      6.914063000000000E-01      1.080615000000000E+01      2.216797000000000E-01     -1.697969000000000E+02
4924000000.000000      6.926575000000000E-01      1.065771000000000E+01      2.183990000000000E-01     -1.700938000000000E+02
4925000000.000000      6.927795000000000E-01      1.056055000000000E+01      2.142334000000000E-01     -1.700859000000000E+02
4926000000.000000      6.924744000000000E-01      1.053711000000000E+01      2.108002000000000E-01     -1.704375000000000E+02
4927000000.000000      6.932068000000000E-01      1.034082000000000E+01      2.065735000000000E-01     -1.705000000000000E+02
4928000000.000000      6.946411000000000E-01      1.018408000000000E+01      2.038040000000000E-01     -1.707578000000000E+02
4929000000.000000      6.954041000000000E-01      1.009326000000000E+01      1.996613000000000E-01     -1.707734000000000E+02
4930000000.000000      6.967163000000000E-01      1.021729000000000E+01      1.957855000000000E-01     -1.708906000000000E+02
4931000000.000000      6.943054000000000E-01      9.818848000000000E+00      1.922684000000000E-01     -1.709219000000000E+02
4932000000.000000      6.980286000000000E-01      1.001660000000000E+01      1.884308000000000E-01     -1.710312000000000E+02
4933000000.000000      6.969910000000000E-01      9.800781000000000E+00      1.833878000000000E-01     -1.705859000000000E+02
4934000000.000000      7.001953000000000E-01      9.711914000000000E+00      1.801682000000000E-01     -1.709297000000000E+02
4935000000.000000      6.985779000000000E-01      9.450684000000000E+00      1.767426000000000E-01     -1.706094000000000E+02
4936000000.000000      6.985779000000000E-01      9.526367000000000E+00      1.723862000000000E-01     -1.705781000000000E+02
4937000000.000000      7.010803000000000E-01      9.533203000000000E+00      1.688843000000000E-01     -1.704375000000000E+02
4938000000.000000      6.969299000000000E-01      9.467285000000000E+00      1.657486000000000E-01     -1.701094000000000E+02
4939000000.000000      6.992188000000000E-01      9.330078000000000E+00      1.617050000000000E-01     -1.698828000000000E+02
4940000000.000000      7.001343000000000E-01      9.139160000000000E+00      1.578140000000000E-01     -1.695937000000000E+02
4941000000.000000      7.010193000000000E-01      8.935547000000000E+00      1.544495000000000E-01     -1.691562000000000E+02
4942000000.000000      6.999512000000000E-01      8.921875000000000E+00      1.504822000000000E-01     -1.687891000000000E+02
4943000000.000000      7.010498000000000E-01      8.979492000000000E+00      1.470184000000000E-01     -1.681719000000000E+02
4944000000.000000      7.023621000000000E-01      8.715820000000000E+00      1.438446000000000E-01     -1.675234000000000E+02
4945000000.000000      7.019653000000000E-01      8.661133000000000E+00      1.404877000000000E-01     -1.668516000000000E+02
4946000000.000000      7.036133000000000E-01      8.567871000000000E+00      1.369858000000000E-01     -1.663437000000000E+02
4947000000.000000      7.032471000000000E-01      8.514160000000000E+00      1.339035000000000E-01     -1.656016000000000E+02
4948000000.000000      7.047729000000000E-01      8.400391000000000E+00      1.309509000000000E-01     -1.645781000000000E+02
4949000000.000000      7.026672000000000E-01      8.232422000000000E+00      1.279144000000000E-01     -1.634219000000000E+02
4950000000.000000      7.052917000000000E-01      8.269531000000000E+00      1.248512000000000E-01     -1.625859000000000E+02
4951000000.000000      7.060242000000000E-01      7.998047000000000E+00      1.223068000000000E-01     -1.616641000000000E+02
4952000000.000000      7.059937000000000E-01      8.100586000000000E+00      1.193695000000000E-01     -1.605312000000000E+02
4953000000.000000      7.049866000000000E-01      7.859131000000000E+00      1.170273000000000E-01     -1.589062000000000E+02
4954000000.000000      7.083740000000000E-01      7.816650000000000E+00      1.148148000000000E-01     -1.576250000000000E+02
