! Network Analyzer HP8722D
! Hewlett-Packard
! Data name: Linha & Wilkinson
! Saver's name: Rodrigo Anjos
! Comments: Teste da utilização de aquisição
continua pelo VNA HP8722D
! Time and date: 22/5/2025 10:45
!              Frequency                     S11                                                   S21                                                   S12                                                   S22
# HZ  S  MA R 50
4800000000.000000      6.472168000000000E-01      1.048340000000000E+01      4.745483000000000E-01     -9.375391000000000E+01
4801000000.000000      6.441956000000000E-01      1.066895000000000E+01      4.752350000000000E-01     -9.415625000000000E+01
4802000000.000000      6.444397000000000E-01      1.059766000000000E+01      4.777985000000000E-01     -9.505859000000000E+01
4803000000.000000      6.399536000000000E-01      1.041504000000000E+01      4.812622000000000E-01     -9.593359000000000E+01
4804000000.000000      6.403809000000000E-01      1.049170000000000E+01      4.826813000000000E-01     -9.653906000000000E+01
4805000000.000000      6.394653000000000E-01      1.054248000000000E+01      4.829407000000000E-01     -9.755468000000000E+01
4806000000.000000      6.371765000000000E-01      1.047656000000000E+01      4.839020000000000E-01     -9.814842000000000E+01
4807000000.000000      6.358948000000000E-01      1.046436000000000E+01      4.860535000000000E-01     -9.910156000000000E+01
4808000000.000000      6.326294000000000E-01      1.039551000000000E+01      4.881287000000000E-01     -9.955858000000000E+01
4809000000.000000      6.324768000000000E-01      1.080908000000000E+01      4.887543000000000E-01     -1.005508000000000E+02
4810000000.000000      6.295471000000000E-01      1.058936000000000E+01      4.909668000000000E-01     -1.013242000000000E+02
4811000000.000000      6.292114000000000E-01      1.058105000000000E+01      4.916534000000000E-01     -1.021445000000000E+02
4812000000.000000      6.297607000000000E-01      1.079932000000000E+01      4.935913000000000E-01     -1.027617000000000E+02
4813000000.000000      6.274109000000000E-01      1.087500000000000E+01      4.948578000000000E-01     -1.035117000000000E+02
4814000000.000000      6.239319000000000E-01      1.085840000000000E+01      4.946594000000000E-01     -1.041992000000000E+02
4815000000.000000      6.237793000000000E-01      1.099316000000000E+01      4.943085000000000E-01     -1.050820000000000E+02
4816000000.000000      6.240234000000000E-01      1.110840000000000E+01      4.966888000000000E-01     -1.056562000000000E+02
4817000000.000000      6.218262000000000E-01      1.118799000000000E+01      4.958191000000000E-01     -1.066992000000000E+02
4818000000.000000      6.212769000000000E-01      1.122070000000000E+01      4.977264000000000E-01     -1.072500000000000E+02
4819000000.000000      6.200867000000000E-01      1.132373000000000E+01      4.977875000000000E-01     -1.079922000000000E+02
4820000000.000000      6.182861000000000E-01      1.141602000000000E+01      4.985657000000000E-01     -1.087070000000000E+02
4821000000.000000      6.174622000000000E-01      1.149414000000000E+01      4.993591000000000E-01     -1.095820000000000E+02
4822000000.000000      6.164551000000000E-01      1.150244000000000E+01      4.973145000000000E-01     -1.102695000000000E+02
4823000000.000000      6.157227000000000E-01      1.160156000000000E+01      4.989319000000000E-01     -1.110820000000000E+02
4824000000.000000      6.145630000000000E-01      1.174023000000000E+01      4.989777000000000E-01     -1.119180000000000E+02
4825000000.000000      6.131287000000000E-01      1.178809000000000E+01      4.978180000000000E-01     -1.125195000000000E+02
4826000000.000000      6.121521000000000E-01      1.192383000000000E+01      4.995422000000000E-01     -1.136172000000000E+02
4827000000.000000      6.139526000000000E-01      1.193213000000000E+01      4.985199000000000E-01     -1.138906000000000E+02
4828000000.000000      6.144104000000000E-01      1.214502000000000E+01      4.992981000000000E-01     -1.147266000000000E+02
4829000000.000000      6.138000000000000E-01      1.240479000000000E+01      5.005188000000000E-01     -1.156328000000000E+02
4830000000.000000      6.132202000000000E-01      1.240479000000000E+01      5.011597000000000E-01     -1.163594000000000E+02
4831000000.000000      6.111145000000000E-01      1.246631000000000E+01      5.002441000000000E-01     -1.171601000000000E+02
4832000000.000000      6.127014000000000E-01      1.268066000000000E+01      4.986267000000000E-01     -1.178789000000000E+02
4833000000.000000      6.116638000000000E-01      1.272314000000000E+01      4.980469000000000E-01     -1.184531000000000E+02
4834000000.000000      6.122131000000000E-01      1.268506000000000E+01      4.983673000000000E-01     -1.195859000000000E+02
4835000000.000000      6.114502000000000E-01      1.306250000000000E+01      4.995117000000000E-01     -1.201211000000000E+02
4836000000.000000      6.135864000000000E-01      1.324805000000000E+01      4.980164000000000E-01     -1.208867000000000E+02
4837000000.000000      6.113281000000000E-01      1.327148000000000E+01      4.974060000000000E-01     -1.218164000000000E+02
4838000000.000000      6.121216000000000E-01      1.341553000000000E+01      4.978638000000000E-01     -1.223789000000000E+02
4839000000.000000      6.151733000000000E-01      1.352783000000000E+01      4.966583000000000E-01     -1.233125000000000E+02
4840000000.000000      6.152954000000000E-01      1.343457000000000E+01      4.975281000000000E-01     -1.239453000000000E+02
4841000000.000000      6.137695000000000E-01      1.367627000000000E+01      4.972382000000000E-01     -1.251758000000000E+02
4842000000.000000      6.136475000000000E-01      1.354199000000000E+01      4.943085000000000E-01     -1.256641000000000E+02
4843000000.000000      6.163330000000000E-01      1.364502000000000E+01      4.947052000000000E-01     -1.265781000000000E+02
4844000000.000000      6.170044000000000E-01      1.380566000000000E+01      4.942474000000000E-01     -1.274961000000000E+02
4845000000.000000      6.170044000000000E-01      1.396631000000000E+01      4.917603000000000E-01     -1.280313000000000E+02
4846000000.000000      6.180420000000000E-01      1.419531000000000E+01      4.907227000000000E-01     -1.291172000000000E+02
4847000000.000000      6.174622000000000E-01      1.420898000000000E+01      4.892883000000000E-01     -1.297500000000000E+02
4848000000.000000      6.192322000000000E-01      1.414453000000000E+01      4.872284000000000E-01     -1.306953000000000E+02
4849000000.000000      6.197815000000000E-01      1.416113000000000E+01      4.862061000000000E-01     -1.314766000000000E+02
4850000000.000000      6.212463000000000E-01      1.413232000000000E+01      4.849396000000000E-01     -1.324922000000000E+02
4851000000.000000      6.239319000000000E-01      1.445508000000000E+01      4.835205000000000E-01     -1.332266000000000E+02
4852000000.000000      6.230469000000000E-01      1.428467000000000E+01      4.817352000000000E-01     -1.341641000000000E+02
4853000000.000000      6.249390000000000E-01      1.446582000000000E+01      4.775543000000000E-01     -1.349609000000000E+02
4854000000.000000      6.249695000000000E-01      1.454150000000000E+01      4.746094000000000E-01     -1.359219000000000E+02
4855000000.000000      6.264648000000000E-01      1.445361000000000E+01      4.729309000000000E-01     -1.367266000000000E+02
4856000000.000000      6.265259000000000E-01      1.457715000000000E+01      4.701996000000000E-01     -1.375156000000000E+02
4857000000.000000      6.283875000000000E-01      1.458398000000000E+01      4.691010000000000E-01     -1.383516000000000E+02
4858000000.000000      6.276550000000000E-01      1.456885000000000E+01      4.652863000000000E-01     -1.390547000000000E+02
4859000000.000000      6.309204000000000E-01      1.464990000000000E+01      4.624786000000000E-01     -1.400781000000000E+02
4860000000.000000      6.318054000000000E-01      1.469141000000000E+01      4.589081000000000E-01     -1.407656000000000E+02
4861000000.000000      6.344910000000000E-01      1.472852000000000E+01      4.561005000000000E-01     -1.417500000000000E+02
4862000000.000000      6.347961000000000E-01      1.473242000000000E+01      4.538269000000000E-01     -1.424062000000000E+02
4863000000.000000      6.364441000000000E-01      1.470898000000000E+01      4.473419000000000E-01     -1.433203000000000E+02
4864000000.000000      6.349487000000000E-01      1.465674000000000E+01      4.457703000000000E-01     -1.440234000000000E+02
4865000000.000000      6.371155000000000E-01      1.455273000000000E+01      4.420013000000000E-01     -1.448203000000000E+02
4866000000.000000      6.394043000000000E-01      1.455273000000000E+01      4.375000000000000E-01     -1.457578000000000E+02
4867000000.000000      6.380615000000000E-01      1.464063000000000E+01      4.325714000000000E-01     -1.465156000000000E+02
4868000000.000000      6.412659000000000E-01      1.447168000000000E+01      4.302673000000000E-01     -1.471641000000000E+02
4869000000.000000      6.425171000000000E-01      1.453320000000000E+01      4.268951000000000E-01     -1.480234000000000E+02
4870000000.000000      6.446228000000000E-01      1.453613000000000E+01      4.214172000000000E-01     -1.483984000000000E+02
4871000000.000000      6.452637000000000E-01      1.449902000000000E+01      4.171295000000000E-01     -1.494531000000000E+02
4872000000.000000      6.463928000000000E-01      1.438086000000000E+01      4.133606000000000E-01     -1.499609000000000E+02
4873000000.000000      6.493835000000000E-01      1.437939000000000E+01      4.101257000000000E-01     -1.507813000000000E+02
4874000000.000000      6.502991000000000E-01      1.429688000000000E+01      4.055023000000000E-01     -1.514219000000000E+02
4875000000.000000      6.503601000000000E-01      1.422412000000000E+01      4.000702000000000E-01     -1.521797000000000E+02
4876000000.000000      6.513062000000000E-01      1.455518000000000E+01      3.960724000000000E-01     -1.527109000000000E+02
4877000000.000000      6.544495000000000E-01      1.414307000000000E+01      3.912048000000000E-01     -1.534219000000000E+02
4878000000.000000      6.534119000000000E-01      1.431494000000000E+01      3.872223000000000E-01     -1.538984000000000E+02
4879000000.000000      6.567993000000000E-01      1.411182000000000E+01      3.823242000000000E-01     -1.545000000000000E+02
4880000000.000000      6.584167000000000E-01      1.414600000000000E+01      3.790894000000000E-01     -1.552187000000000E+02
4881000000.000000      6.579895000000000E-01      1.395264000000000E+01      3.741302000000000E-01     -1.554688000000000E+02
4882000000.000000      6.590576000000000E-01      1.395654000000000E+01      3.700714000000000E-01     -1.563281000000000E+02
4883000000.000000      6.608276000000000E-01      1.392090000000000E+01      3.654480000000000E-01     -1.565781000000000E+02
4884000000.000000      6.631775000000000E-01      1.387695000000000E+01      3.618011000000000E-01     -1.574375000000000E+02
4885000000.000000      6.632690000000000E-01      1.375732000000000E+01      3.559570000000000E-01     -1.576015000000000E+02
4886000000.000000      6.670227000000000E-01      1.357910000000000E+01      3.526459000000000E-01     -1.580859000000000E+02
4887000000.000000      6.660156000000000E-01      1.363916000000000E+01      3.475952000000000E-01     -1.586406000000000E+02
4888000000.000000      6.660461000000000E-01      1.342529000000000E+01      3.455658000000000E-01     -1.592344000000000E+02
4889000000.000000      6.669312000000000E-01      1.351025000000000E+01      3.386383000000000E-01     -1.595000000000000E+02
4890000000.000000      6.666870000000000E-01      1.332617000000000E+01      3.357086000000000E-01     -1.604609000000000E+02
4891000000.000000      6.688538000000000E-01      1.345947000000000E+01      3.299408000000000E-01     -1.605547000000000E+02
4892000000.000000      6.700134000000000E-01      1.319580000000000E+01      3.267365000000000E-01     -1.607265000000000E+02
4893000000.000000      6.721802000000000E-01      1.314063000000000E+01      3.229370000000000E-01     -1.612656000000000E+02
4894000000.000000      6.719360000000000E-01      1.315332000000000E+01      3.203430000000000E-01     -1.617344000000000E+02
4895000000.000000      6.752625000000000E-01      1.287598000000000E+01      3.167267000000000E-01     -1.619297000000000E+02
4896000000.000000      6.760559000000000E-01      1.284961000000000E+01      3.123322000000000E-01     -1.623437000000000E+02
4897000000.000000      6.748352000000000E-01      1.285400000000000E+01      3.083954000000000E-01     -1.627266000000000E+02
4898000000.000000      6.772766000000000E-01      1.262012000000000E+01      3.052673000000000E-01     -1.628594000000000E+02
4899000000.000000      6.749268000000000E-01      1.263281000000000E+01      3.008575000000000E-01     -1.635703000000000E+02
4900000000.000000      6.778870000000000E-01      1.244727000000000E+01      2.971649000000000E-01     -1.636562000000000E+02
4901000000.000000      6.784668000000000E-01      1.234961000000000E+01      2.935791000000000E-01     -1.640391000000000E+02
4902000000.000000      6.804504000000000E-01      1.237305000000000E+01      2.904358000000000E-01     -1.641875000000000E+02
4903000000.000000      6.796875000000000E-01      1.233203000000000E+01      2.862701000000000E-01     -1.645781000000000E+02
4904000000.000000      6.806030000000000E-01      1.198877000000000E+01      2.825928000000000E-01     -1.650938000000000E+02
4905000000.000000      6.809082000000000E-01      1.190479000000000E+01      2.799225000000000E-01     -1.653828000000000E+02
4906000000.000000      6.835022000000000E-01      1.199707000000000E+01      2.751465000000000E-01     -1.654844000000000E+02
4907000000.000000      6.820679000000000E-01      1.190479000000000E+01      2.723694000000000E-01     -1.659297000000000E+02
4908000000.000000      6.847839000000000E-01      1.149854000000000E+01      2.694702000000000E-01     -1.663125000000000E+02
4909000000.000000      6.846313000000000E-01      1.149854000000000E+01      2.649689000000000E-01     -1.666250000000000E+02
4910000000.000000      6.852112000000000E-01      1.145166000000000E+01      2.620239000000000E-01     -1.668828000000000E+02
4911000000.000000      6.850891000000000E-01      1.143506000000000E+01      2.590942000000000E-01     -1.672188000000000E+02
4912000000.000000      6.868286000000000E-01      1.136230000000000E+01      2.546387000000000E-01     -1.675547000000000E+02
4913000000.000000      6.845398000000000E-01      1.107813000000000E+01      2.520294000000000E-01     -1.677187000000000E+02
4914000000.000000      6.873474000000000E-01      1.106445000000000E+01      2.481689000000000E-01     -1.679531000000000E+02
4915000000.000000      6.874695000000000E-01      1.099707000000000E+01      2.442322000000000E-01     -1.683437000000000E+02
4916000000.000000      6.887207000000000E-01      1.089014000000000E+01      2.404404000000000E-01     -1.686953000000000E+02
4917000000.000000      6.873169000000000E-01      1.092578000000000E+01      2.375565000000000E-01     -1.688906000000000E+02
4918000000.000000      6.889648000000000E-01      1.073877000000000E+01      2.333298000000000E-01     -1.691484000000000E+02
4919000000.000000      6.894836000000000E-01      1.053418000000000E+01      2.301102000000000E-01     -1.690859000000000E+02
4920000000.000000      6.900940000000000E-01      1.039160000000000E+01      2.260361000000000E-01     -1.695547000000000E+02
4921000000.000000      6.896057000000000E-01      1.050977000000000E+01      2.227173000000000E-01     -1.697266000000000E+02
4922000000.000000      6.908264000000000E-01      1.031445000000000E+01      2.193832000000000E-01     -1.698359000000000E+02
4923000000.000000      6.910095000000000E-01      1.025146000000000E+01      2.150726000000000E-01     -1.699297000000000E+02
4924000000.000000      6.928406000000000E-01      1.019922000000000E+01      2.113190000000000E-01     -1.702891000000000E+02
4925000000.000000      6.921387000000000E-01      1.008252000000000E+01      2.076035000000000E-01     -1.703750000000000E+02
4926000000.000000      6.929016000000000E-01      9.890137000000000E+00      2.042999000000000E-01     -1.705469000000000E+02
4927000000.000000      6.954346000000000E-01      9.975586000000000E+00      2.008362000000000E-01     -1.705937000000000E+02
4928000000.000000      6.930847000000000E-01      9.663574000000000E+00      1.971054000000000E-01     -1.706250000000000E+02
4929000000.000000      6.958008000000000E-01      9.671875000000000E+00      1.926498000000000E-01     -1.706406000000000E+02
4930000000.000000      6.950684000000000E-01      9.638672000000000E+00      1.894379000000000E-01     -1.706797000000000E+02
4931000000.000000      6.952209000000000E-01      9.457520000000000E+00      1.856003000000000E-01     -1.707031000000000E+02
4932000000.000000      6.960144000000000E-01      9.358887000000000E+00      1.813583000000000E-01     -1.705859000000000E+02
4933000000.000000      6.958008000000000E-01      9.165039000000000E+00      1.771927000000000E-01     -1.703906000000000E+02
4934000000.000000      6.976624000000000E-01      9.103516000000000E+00      1.744003000000000E-01     -1.703906000000000E+02
4935000000.000000      6.992798000000000E-01      9.005859000000000E+00      1.709595000000000E-01     -1.701719000000000E+02
4936000000.000000      6.965332000000000E-01      8.852051000000000E+00      1.670990000000000E-01     -1.698281000000000E+02
4937000000.000000      6.967163000000000E-01      8.945313000000000E+00      1.633377000000000E-01     -1.696563000000000E+02
4938000000.000000      6.980286000000000E-01      8.850586000000000E+00      1.596909000000000E-01     -1.692812000000000E+02
4939000000.000000      6.982727000000000E-01      8.823242000000000E+00      1.557236000000000E-01     -1.688125000000000E+02
4940000000.000000      7.008057000000000E-01      8.644531000000000E+00      1.524887000000000E-01     -1.687578000000000E+02
4941000000.000000      7.003784000000000E-01      8.341309000000000E+00      1.489105000000000E-01     -1.679531000000000E+02
4942000000.000000      7.002869000000000E-01      8.284668000000000E+00      1.457596000000000E-01     -1.674922000000000E+02
4943000000.000000      7.016907000000000E-01      8.414063000000000E+00      1.428986000000000E-01     -1.667187000000000E+02
4944000000.000000      6.998596000000000E-01      8.142090000000000E+00      1.394958000000000E-01     -1.661953000000000E+02
4945000000.000000      7.019653000000000E-01      7.973145000000000E+00      1.357880000000000E-01     -1.653672000000000E+02
4946000000.000000      7.033997000000000E-01      7.873047000000000E+00      1.332016000000000E-01     -1.646250000000000E+02
4947000000.000000      7.022705000000000E-01      7.824951000000000E+00      1.297150000000000E-01     -1.636875000000000E+02
4948000000.000000      7.031860000000000E-01      7.808350000000000E+00      1.270294000000000E-01     -1.627500000000000E+02
4949000000.000000      7.016907000000000E-01      7.771240000000000E+00      1.246758000000000E-01     -1.612734000000000E+02
4950000000.000000      7.030945000000000E-01      7.528320000000000E+00      1.218376000000000E-01     -1.603437000000000E+02
4951000000.000000      7.040100000000000E-01      7.448730000000000E+00      1.194801000000000E-01     -1.593047000000000E+02
4952000000.000000      7.049255000000000E-01      7.351074000000000E+00      1.169701000000000E-01     -1.578203000000000E+02
4953000000.000000      7.046204000000000E-01      7.199951000000000E+00      1.151886000000000E-01     -1.561641000000000E+02
4954000000.000000      7.064819000000000E-01      7.125977000000000E+00      1.129608000000000E-01     -1.548984000000000E+02
