! Network Analyzer HP8722D
! Hewlett-Packard
! Data name: Linha & Wilkinson
! Saver's name: Rodrigo Anjos
! Comments: Teste da utilização de aquisição
continua pelo VNA HP8722D
! Time and date: 22/5/2025 16:21
!              Frequency                     S11                                                   S21                                                   S12                                                   S22
# HZ  S  MA R 50
4800000000.000000      6.532288000000000E-01      1.087500000000000E+01      4.706116000000000E-01     -9.180079000000000E+01
4801000000.000000      6.517334000000000E-01      1.106445000000000E+01      4.714203000000000E-01     -9.276171000000000E+01
4802000000.000000      6.502991000000000E-01      1.104248000000000E+01      4.726257000000000E-01     -9.314453000000000E+01
4803000000.000000      6.470642000000000E-01      1.084033000000000E+01      4.760895000000000E-01     -9.403515000000000E+01
4804000000.000000      6.452637000000000E-01      1.101611000000000E+01      4.773560000000000E-01     -9.482813000000000E+01
4805000000.000000      6.467285000000000E-01      1.079932000000000E+01      4.792023000000000E-01     -9.544922000000000E+01
4806000000.000000      6.435242000000000E-01      1.091064000000000E+01      4.801178000000000E-01     -9.629686000000000E+01
4807000000.000000      6.403809000000000E-01      1.089697000000000E+01      4.823303000000000E-01     -9.719921000000000E+01
4808000000.000000      6.386108000000000E-01      1.098193000000000E+01      4.836121000000000E-01     -9.795702000000000E+01
4809000000.000000      6.365967000000000E-01      1.102197000000000E+01      4.871521000000000E-01     -9.864843000000000E+01
4810000000.000000      6.370239000000000E-01      1.112744000000000E+01      4.878845000000000E-01     -9.945702000000000E+01
4811000000.000000      6.345215000000000E-01      1.097510000000000E+01      4.882507000000000E-01     -1.002305000000000E+02
4812000000.000000      6.351929000000000E-01      1.128125000000000E+01      4.895477000000000E-01     -1.008516000000000E+02
4813000000.000000      6.323547000000000E-01      1.116064000000000E+01      4.909363000000000E-01     -1.015937000000000E+02
4814000000.000000      6.291504000000000E-01      1.116895000000000E+01      4.919281000000000E-01     -1.021641000000000E+02
4815000000.000000      6.291199000000000E-01      1.129492000000000E+01      4.924316000000000E-01     -1.031719000000000E+02
4816000000.000000      6.283569000000000E-01      1.131982000000000E+01      4.947662000000000E-01     -1.039297000000000E+02
4817000000.000000      6.253357000000000E-01      1.142139000000000E+01      4.932861000000000E-01     -1.045469000000000E+02
4818000000.000000      6.252441000000000E-01      1.142822000000000E+01      4.950867000000000E-01     -1.054375000000000E+02
4819000000.000000      6.242981000000000E-01      1.140625000000000E+01      4.957275000000000E-01     -1.060898000000000E+02
4820000000.000000      6.216431000000000E-01      1.172510000000000E+01      4.971466000000000E-01     -1.066719000000000E+02
4821000000.000000      6.212769000000000E-01      1.170313000000000E+01      4.967499000000000E-01     -1.076015000000000E+02
4822000000.000000      6.200867000000000E-01      1.174414000000000E+01      4.953613000000000E-01     -1.083555000000000E+02
4823000000.000000      6.188354000000000E-01      1.187744000000000E+01      4.989014000000000E-01     -1.091562000000000E+02
4824000000.000000      6.175232000000000E-01      1.210254000000000E+01      4.983215000000000E-01     -1.099101000000000E+02
4825000000.000000      6.172791000000000E-01      1.206396000000000E+01      4.982300000000000E-01     -1.105547000000000E+02
4826000000.000000      6.154480000000000E-01      1.210938000000000E+01      4.994049000000000E-01     -1.115117000000000E+02
4827000000.000000      6.167908000000000E-01      1.238428000000000E+01      4.975281000000000E-01     -1.119805000000000E+02
4828000000.000000      6.165161000000000E-01      1.236084000000000E+01      4.997711000000000E-01     -1.128984000000000E+02
4829000000.000000      6.147461000000000E-01      1.270264000000000E+01      4.997864000000000E-01     -1.137031000000000E+02
4830000000.000000      6.165771000000000E-01      1.264355000000000E+01      4.995880000000000E-01     -1.143633000000000E+02
4831000000.000000      6.146545000000000E-01      1.282617000000000E+01      5.002136000000000E-01     -1.152773000000000E+02
4832000000.000000      6.134949000000000E-01      1.294434000000000E+01      4.990387000000000E-01     -1.157187000000000E+02
4833000000.000000      6.141663000000000E-01      1.286084000000000E+01      4.989166000000000E-01     -1.166289000000000E+02
4834000000.000000      6.129456000000000E-01      1.296387000000000E+01      4.999695000000000E-01     -1.171758000000000E+02
4835000000.000000      6.161499000000000E-01      1.310498000000000E+01      5.000916000000000E-01     -1.184453000000000E+02
4836000000.000000      6.152344000000000E-01      1.339893000000000E+01      4.997711000000000E-01     -1.189101000000000E+02
4837000000.000000      6.138916000000000E-01      1.351025000000000E+01      4.982300000000000E-01     -1.199375000000000E+02
4838000000.000000      6.136475000000000E-01      1.349512000000000E+01      5.002441000000000E-01     -1.205156000000000E+02
4839000000.000000      6.164856000000000E-01      1.371484000000000E+01      4.970398000000000E-01     -1.212344000000000E+02
4840000000.000000      6.145325000000000E-01      1.368311000000000E+01      4.991913000000000E-01     -1.221406000000000E+02
4841000000.000000      6.150513000000000E-01      1.385645000000000E+01      4.970245000000000E-01     -1.230156000000000E+02
4842000000.000000      6.156006000000000E-01      1.397852000000000E+01      4.974518000000000E-01     -1.236797000000000E+02
4843000000.000000      6.177368000000000E-01      1.396729000000000E+01      4.972229000000000E-01     -1.246484000000000E+02
4844000000.000000      6.155396000000000E-01      1.397021000000000E+01      4.960938000000000E-01     -1.255273000000000E+02
4845000000.000000      6.163025000000000E-01      1.441504000000000E+01      4.945679000000000E-01     -1.260195000000000E+02
4846000000.000000      6.186829000000000E-01      1.437695000000000E+01      4.951782000000000E-01     -1.270039000000000E+02
4847000000.000000      6.189575000000000E-01      1.447412000000000E+01      4.938812000000000E-01     -1.277070000000000E+02
4848000000.000000      6.197205000000000E-01      1.442773000000000E+01      4.907532000000000E-01     -1.286250000000000E+02
4849000000.000000      6.202087000000000E-01      1.453467000000000E+01      4.898071000000000E-01     -1.295703000000000E+02
4850000000.000000      6.199341000000000E-01      1.444824000000000E+01      4.874878000000000E-01     -1.302578000000000E+02
4851000000.000000      6.229248000000000E-01      1.468164000000000E+01      4.890594000000000E-01     -1.312500000000000E+02
4852000000.000000      6.220093000000000E-01      1.483545000000000E+01      4.858704000000000E-01     -1.321719000000000E+02
4853000000.000000      6.243896000000000E-01      1.473633000000000E+01      4.813080000000000E-01     -1.328984000000000E+02
4854000000.000000      6.256104000000000E-01      1.494824000000000E+01      4.821014000000000E-01     -1.338828000000000E+02
4855000000.000000      6.263733000000000E-01      1.490527000000000E+01      4.783783000000000E-01     -1.347500000000000E+02
4856000000.000000      6.265564000000000E-01      1.481201000000000E+01      4.767609000000000E-01     -1.355391000000000E+02
4857000000.000000      6.290283000000000E-01      1.502783000000000E+01      4.749298000000000E-01     -1.361172000000000E+02
4858000000.000000      6.301270000000000E-01      1.497559000000000E+01      4.709167000000000E-01     -1.371719000000000E+02
4859000000.000000      6.313782000000000E-01      1.509766000000000E+01      4.691162000000000E-01     -1.382578000000000E+02
4860000000.000000      6.321716000000000E-01      1.502930000000000E+01      4.665375000000000E-01     -1.389688000000000E+02
4861000000.000000      6.336670000000000E-01      1.504688000000000E+01      4.626770000000000E-01     -1.398359000000000E+02
4862000000.000000      6.331177000000000E-01      1.512402000000000E+01      4.608765000000000E-01     -1.405781000000000E+02
4863000000.000000      6.354980000000000E-01      1.510449000000000E+01      4.560089000000000E-01     -1.416172000000000E+02
4864000000.000000      6.352539000000000E-01      1.501123000000000E+01      4.539185000000000E-01     -1.422344000000000E+02
4865000000.000000      6.365662000000000E-01      1.513623000000000E+01      4.487000000000000E-01     -1.429531000000000E+02
4866000000.000000      6.391907000000000E-01      1.496191000000000E+01      4.462128000000000E-01     -1.439609000000000E+02
4867000000.000000      6.375122000000000E-01      1.514453000000000E+01      4.411926000000000E-01     -1.448750000000000E+02
4868000000.000000      6.415100000000000E-01      1.498779000000000E+01      4.373627000000000E-01     -1.457187000000000E+02
4869000000.000000      6.410217000000000E-01      1.506738000000000E+01      4.352875000000000E-01     -1.462265000000000E+02
4870000000.000000      6.435242000000000E-01      1.506885000000000E+01      4.296722000000000E-01     -1.470234000000000E+02
4871000000.000000      6.445618000000000E-01      1.506494000000000E+01      4.253540000000000E-01     -1.478516000000000E+02
4872000000.000000      6.476135000000000E-01      1.497803000000000E+01      4.214783000000000E-01     -1.483828000000000E+02
4873000000.000000      6.462708000000000E-01      1.507715000000000E+01      4.163818000000000E-01     -1.490313000000000E+02
4874000000.000000      6.492004000000000E-01      1.494385000000000E+01      4.132080000000000E-01     -1.498437000000000E+02
4875000000.000000      6.518555000000000E-01      1.479297000000000E+01      4.079742000000000E-01     -1.505703000000000E+02
4876000000.000000      6.518250000000000E-01      1.500977000000000E+01      4.050446000000000E-01     -1.511953000000000E+02
4877000000.000000      6.537476000000000E-01      1.463770000000000E+01      3.993378000000000E-01     -1.517578000000000E+02
4878000000.000000      6.517639000000000E-01      1.466113000000000E+01      3.950195000000000E-01     -1.525234000000000E+02
4879000000.000000      6.560059000000000E-01      1.471045000000000E+01      3.897095000000000E-01     -1.529453000000000E+02
4880000000.000000      6.579895000000000E-01      1.486963000000000E+01      3.875885000000000E-01     -1.538594000000000E+02
4881000000.000000      6.563721000000000E-01      1.462793000000000E+01      3.814697000000000E-01     -1.541094000000000E+02
4882000000.000000      6.604309000000000E-01      1.445361000000000E+01      3.789520000000000E-01     -1.549687000000000E+02
4883000000.000000      6.604004000000000E-01      1.439893000000000E+01      3.725739000000000E-01     -1.555234000000000E+02
4884000000.000000      6.635742000000000E-01      1.450293000000000E+01      3.694763000000000E-01     -1.559297000000000E+02
4885000000.000000      6.637878000000000E-01      1.443018000000000E+01      3.643188000000000E-01     -1.564141000000000E+02
4886000000.000000      6.653137000000000E-01      1.432617000000000E+01      3.611603000000000E-01     -1.566953000000000E+02
4887000000.000000      6.662903000000000E-01      1.426270000000000E+01      3.554077000000000E-01     -1.574297000000000E+02
4888000000.000000      6.653748000000000E-01      1.408154000000000E+01      3.537903000000000E-01     -1.580703000000000E+02
4889000000.000000      6.663513000000000E-01      1.410645000000000E+01      3.454437000000000E-01     -1.583672000000000E+02
4890000000.000000      6.663513000000000E-01      1.397168000000000E+01      3.425293000000000E-01     -1.591172000000000E+02
4891000000.000000      6.699219000000000E-01      1.390869000000000E+01      3.398132000000000E-01     -1.592969000000000E+02
4892000000.000000      6.694946000000000E-01      1.393604000000000E+01      3.352051000000000E-01     -1.597422000000000E+02
4893000000.000000      6.712341000000000E-01      1.384277000000000E+01      3.314972000000000E-01     -1.604375000000000E+02
4894000000.000000      6.729736000000000E-01      1.374756000000000E+01      3.271332000000000E-01     -1.608125000000000E+02
4895000000.000000      6.745605000000000E-01      1.361572000000000E+01      3.244324000000000E-01     -1.609766000000000E+02
4896000000.000000      6.747437000000000E-01      1.354736000000000E+01      3.200378000000000E-01     -1.613750000000000E+02
4897000000.000000      6.751404000000000E-01      1.359375000000000E+01      3.154602000000000E-01     -1.618047000000000E+02
4898000000.000000      6.769104000000000E-01      1.348535000000000E+01      3.122711000000000E-01     -1.620391000000000E+02
4899000000.000000      6.766968000000000E-01      1.329590000000000E+01      3.081512000000000E-01     -1.625156000000000E+02
4900000000.000000      6.762390000000000E-01      1.321631000000000E+01      3.043518000000000E-01     -1.628438000000000E+02
4901000000.000000      6.793518000000000E-01      1.294434000000000E+01      3.014832000000000E-01     -1.631016000000000E+02
4902000000.000000      6.789856000000000E-01      1.293213000000000E+01      2.975006000000000E-01     -1.634453000000000E+02
4903000000.000000      6.797485000000000E-01      1.298975000000000E+01      2.928619000000000E-01     -1.638672000000000E+02
4904000000.000000      6.810608000000000E-01      1.261621000000000E+01      2.899017000000000E-01     -1.643359000000000E+02
4905000000.000000      6.823730000000000E-01      1.251318000000000E+01      2.868500000000000E-01     -1.645313000000000E+02
4906000000.000000      6.810913000000000E-01      1.243506000000000E+01      2.831573000000000E-01     -1.646016000000000E+02
4907000000.000000      6.838379000000000E-01      1.245703000000000E+01      2.804565000000000E-01     -1.652500000000000E+02
4908000000.000000      6.828003000000000E-01      1.221924000000000E+01      2.769775000000000E-01     -1.656172000000000E+02
4909000000.000000      6.831360000000000E-01      1.222607000000000E+01      2.724609000000000E-01     -1.658906000000000E+02
4910000000.000000      6.826172000000000E-01      1.219580000000000E+01      2.689362000000000E-01     -1.661484000000000E+02
4911000000.000000      6.870728000000000E-01      1.202441000000000E+01      2.660065000000000E-01     -1.663984000000000E+02
4912000000.000000      6.846313000000000E-01      1.195850000000000E+01      2.620392000000000E-01     -1.668750000000000E+02
4913000000.000000      6.866150000000000E-01      1.184570000000000E+01      2.592316000000000E-01     -1.671484000000000E+02
4914000000.000000      6.893921000000000E-01      1.152588000000000E+01      2.552185000000000E-01     -1.672969000000000E+02
4915000000.000000      6.874390000000000E-01      1.161084000000000E+01      2.513123000000000E-01     -1.679141000000000E+02
4916000000.000000      6.873779000000000E-01      1.157813000000000E+01      2.483826000000000E-01     -1.683047000000000E+02
4917000000.000000      6.885071000000000E-01      1.136914000000000E+01      2.440186000000000E-01     -1.681875000000000E+02
4918000000.000000      6.915283000000000E-01      1.128564000000000E+01      2.407150000000000E-01     -1.687266000000000E+02
4919000000.000000      6.890259000000000E-01      1.130859000000000E+01      2.372742000000000E-01     -1.687422000000000E+02
4920000000.000000      6.914673000000000E-01      1.098486000000000E+01      2.332458000000000E-01     -1.691562000000000E+02
4921000000.000000      6.911621000000000E-01      1.120996000000000E+01      2.304382000000000E-01     -1.693438000000000E+02
4922000000.000000      6.905823000000000E-01      1.097900000000000E+01      2.265015000000000E-01     -1.695078000000000E+02
4923000000.000000      6.931458000000000E-01      1.098877000000000E+01      2.225723000000000E-01     -1.697813000000000E+02
4924000000.000000      6.909180000000000E-01      1.056738000000000E+01      2.182236000000000E-01     -1.701719000000000E+02
4925000000.000000      6.933289000000000E-01      1.072510000000000E+01      2.151413000000000E-01     -1.701406000000000E+02
4926000000.000000      6.941528000000000E-01      1.065527000000000E+01      2.111893000000000E-01     -1.703828000000000E+02
4927000000.000000      6.948242000000000E-01      1.043701000000000E+01      2.073746000000000E-01     -1.706250000000000E+02
4928000000.000000      6.932373000000000E-01      1.038184000000000E+01      2.037659000000000E-01     -1.707500000000000E+02
4929000000.000000      6.948547000000000E-01      1.021729000000000E+01      1.994400000000000E-01     -1.706172000000000E+02
4930000000.000000      6.954956000000000E-01      1.016895000000000E+01      1.961517000000000E-01     -1.708516000000000E+02
4931000000.000000      6.948547000000000E-01      1.004932000000000E+01      1.931076000000000E-01     -1.707813000000000E+02
4932000000.000000      6.963196000000000E-01      9.915039000000000E+00      1.882706000000000E-01     -1.708906000000000E+02
4933000000.000000      6.976624000000000E-01      9.861328000000000E+00      1.840439000000000E-01     -1.708437000000000E+02
4934000000.000000      6.985168000000000E-01      9.844727000000000E+00      1.808090000000000E-01     -1.709531000000000E+02
4935000000.000000      6.979065000000000E-01      9.822754000000000E+00      1.772232000000000E-01     -1.706250000000000E+02
4936000000.000000      6.949463000000000E-01      9.578613000000000E+00      1.732025000000000E-01     -1.705391000000000E+02
4937000000.000000      6.996765000000000E-01      9.465820000000000E+00      1.692505000000000E-01     -1.704531000000000E+02
4938000000.000000      6.973267000000000E-01      9.460449000000000E+00      1.657867000000000E-01     -1.702500000000000E+02
4939000000.000000      6.989136000000000E-01      9.396973000000000E+00      1.615372000000000E-01     -1.699141000000000E+02
4940000000.000000      6.996460000000000E-01      9.224121000000000E+00      1.577072000000000E-01     -1.695703000000000E+02
4941000000.000000      6.991882000000000E-01      9.097656000000000E+00      1.547775000000000E-01     -1.692500000000000E+02
4942000000.000000      6.996765000000000E-01      9.083984000000000E+00      1.511688000000000E-01     -1.686406000000000E+02
4943000000.000000      7.027588000000000E-01      8.996094000000000E+00      1.479797000000000E-01     -1.683750000000000E+02
4944000000.000000      6.997681000000000E-01      8.714844000000000E+00      1.440964000000000E-01     -1.678828000000000E+02
4945000000.000000      7.024841000000000E-01      8.662598000000000E+00      1.404648000000000E-01     -1.670547000000000E+02
4946000000.000000      7.061157000000000E-01      8.664063000000000E+00      1.372452000000000E-01     -1.665547000000000E+02
4947000000.000000      7.035217000000000E-01      8.405762000000000E+00      1.343842000000000E-01     -1.656563000000000E+02
4948000000.000000      7.059021000000000E-01      8.437500000000000E+00      1.311951000000000E-01     -1.646172000000000E+02
4949000000.000000      7.024841000000000E-01      8.316406000000000E+00      1.285019000000000E-01     -1.638047000000000E+02
4950000000.000000      7.057190000000000E-01      8.375488000000000E+00      1.252975000000000E-01     -1.627109000000000E+02
4951000000.000000      7.063599000000000E-01      8.047363000000000E+00      1.228065000000000E-01     -1.617891000000000E+02
4952000000.000000      7.059326000000000E-01      8.121582000000000E+00      1.199036000000000E-01     -1.605391000000000E+02
4953000000.000000      7.055054000000000E-01      7.732910000000000E+00      1.175499000000000E-01     -1.591640000000000E+02
4954000000.000000      7.069702000000000E-01      7.813965000000000E+00      1.152267000000000E-01     -1.577969000000000E+02
