! Network Analyzer HP8722D
! Hewlett-Packard
! Data name: Linha & Wilkinson
! Saver's name: Rodrigo Anjos
! Comments: Teste da utilização de aquisição
continua pelo VNA HP8722D
! Time and date: 22/5/2025 08:40
!              Frequency                     S11                                                   S21                                                   S12                                                   S22
# HZ  S  MA R 50
4800000000.000000      6.485596000000000E-01      1.050537000000000E+01      4.740448000000000E-01     -9.374218000000000E+01
4801000000.000000      6.455078000000000E-01      1.035449000000000E+01      4.760590000000000E-01     -9.453516000000000E+01
4802000000.000000      6.423340000000000E-01      1.022266000000000E+01      4.767914000000000E-01     -9.519140000000000E+01
4803000000.000000      6.428223000000000E-01      1.039697000000000E+01      4.819641000000000E-01     -9.591797000000000E+01
4804000000.000000      6.399231000000000E-01      1.027881000000000E+01      4.812317000000000E-01     -9.659374000000000E+01
4805000000.000000      6.397095000000000E-01      1.012109000000000E+01      4.824066000000000E-01     -9.757421000000000E+01
4806000000.000000      6.370850000000000E-01      1.026123000000000E+01      4.847107000000000E-01     -9.815233000000000E+01
4807000000.000000      6.340637000000000E-01      1.024854000000000E+01      4.870300000000000E-01     -9.894920000000000E+01
4808000000.000000      6.326904000000000E-01      1.016895000000000E+01      4.877014000000000E-01     -9.971483000000000E+01
4809000000.000000      6.324158000000000E-01      1.046680000000000E+01      4.898071000000000E-01     -1.006055000000000E+02
4810000000.000000      6.310730000000000E-01      1.046973000000000E+01      4.916840000000000E-01     -1.013398000000000E+02
4811000000.000000      6.296082000000000E-01      1.048877000000000E+01      4.934387000000000E-01     -1.021172000000000E+02
4812000000.000000      6.287842000000000E-01      1.060156000000000E+01      4.927368000000000E-01     -1.026719000000000E+02
4813000000.000000      6.267700000000000E-01      1.062500000000000E+01      4.923706000000000E-01     -1.036719000000000E+02
4814000000.000000      6.262207000000000E-01      1.060840000000000E+01      4.946594000000000E-01     -1.042305000000000E+02
4815000000.000000      6.218567000000000E-01      1.078564000000000E+01      4.955139000000000E-01     -1.049726000000000E+02
4816000000.000000      6.213074000000000E-01      1.099707000000000E+01      4.969025000000000E-01     -1.056641000000000E+02
4817000000.000000      6.217041000000000E-01      1.097803000000000E+01      4.960785000000000E-01     -1.064336000000000E+02
4818000000.000000      6.211548000000000E-01      1.092578000000000E+01      4.963837000000000E-01     -1.073711000000000E+02
4819000000.000000      6.196899000000000E-01      1.110547000000000E+01      4.970245000000000E-01     -1.081094000000000E+02
4820000000.000000      6.175537000000000E-01      1.127881000000000E+01      4.985657000000000E-01     -1.088672000000000E+02
4821000000.000000      6.170349000000000E-01      1.126758000000000E+01      4.978333000000000E-01     -1.095703000000000E+02
4822000000.000000      6.160889000000000E-01      1.112354000000000E+01      4.971313000000000E-01     -1.103789000000000E+02
4823000000.000000      6.163330000000000E-01      1.126074000000000E+01      4.994049000000000E-01     -1.112930000000000E+02
4824000000.000000      6.128235000000000E-01      1.164551000000000E+01      4.977875000000000E-01     -1.118594000000000E+02
4825000000.000000      6.127319000000000E-01      1.160156000000000E+01      4.981842000000000E-01     -1.124180000000000E+02
4826000000.000000      6.133118000000000E-01      1.151758000000000E+01      5.003662000000000E-01     -1.134453000000000E+02
4827000000.000000      6.117859000000000E-01      1.173047000000000E+01      4.984131000000000E-01     -1.140898000000000E+02
4828000000.000000      6.123657000000000E-01      1.184424000000000E+01      5.003662000000000E-01     -1.147227000000000E+02
4829000000.000000      6.127930000000000E-01      1.204639000000000E+01      5.010681000000000E-01     -1.154766000000000E+02
4830000000.000000      6.141357000000000E-01      1.214648000000000E+01      5.008545000000000E-01     -1.163984000000000E+02
4831000000.000000      6.127625000000000E-01      1.224805000000000E+01      4.992981000000000E-01     -1.172617000000000E+02
4832000000.000000      6.119385000000000E-01      1.253369000000000E+01      4.994507000000000E-01     -1.178477000000000E+02
4833000000.000000      6.110229000000000E-01      1.228662000000000E+01      5.002747000000000E-01     -1.185469000000000E+02
4834000000.000000      6.112976000000000E-01      1.260254000000000E+01      4.987335000000000E-01     -1.193750000000000E+02
4835000000.000000      6.114197000000000E-01      1.260791000000000E+01      4.997711000000000E-01     -1.202930000000000E+02
4836000000.000000      6.123962000000000E-01      1.273975000000000E+01      4.968262000000000E-01     -1.210430000000000E+02
4837000000.000000      6.122742000000000E-01      1.309814000000000E+01      4.972839000000000E-01     -1.220742000000000E+02
4838000000.000000      6.117249000000000E-01      1.294287000000000E+01      4.982147000000000E-01     -1.223125000000000E+02
4839000000.000000      6.142578000000000E-01      1.315186000000000E+01      4.973602000000000E-01     -1.232461000000000E+02
4840000000.000000      6.152344000000000E-01      1.322607000000000E+01      4.982758000000000E-01     -1.241719000000000E+02
4841000000.000000      6.137390000000000E-01      1.339355000000000E+01      4.967346000000000E-01     -1.249726000000000E+02
4842000000.000000      6.142578000000000E-01      1.341943000000000E+01      4.955902000000000E-01     -1.257148000000000E+02
4843000000.000000      6.169434000000000E-01      1.338379000000000E+01      4.952240000000000E-01     -1.266289000000000E+02
4844000000.000000      6.170044000000000E-01      1.351318000000000E+01      4.931793000000000E-01     -1.274375000000000E+02
4845000000.000000      6.174316000000000E-01      1.365869000000000E+01      4.919586000000000E-01     -1.281641000000000E+02
4846000000.000000      6.195374000000000E-01      1.374219000000000E+01      4.907227000000000E-01     -1.290703000000000E+02
4847000000.000000      6.186829000000000E-01      1.388379000000000E+01      4.889374000000000E-01     -1.299453000000000E+02
4848000000.000000      6.185913000000000E-01      1.396191000000000E+01      4.874420000000000E-01     -1.306562000000000E+02
4849000000.000000      6.209412000000000E-01      1.391650000000000E+01      4.862061000000000E-01     -1.316406000000000E+02
4850000000.000000      6.232300000000000E-01      1.412842000000000E+01      4.836121000000000E-01     -1.324844000000000E+02
4851000000.000000      6.224976000000000E-01      1.415283000000000E+01      4.837494000000000E-01     -1.332891000000000E+02
4852000000.000000      6.245117000000000E-01      1.403467000000000E+01      4.798279000000000E-01     -1.340078000000000E+02
4853000000.000000      6.242981000000000E-01      1.400195000000000E+01      4.774628000000000E-01     -1.349375000000000E+02
4854000000.000000      6.259460000000000E-01      1.423828000000000E+01      4.758301000000000E-01     -1.359844000000000E+02
4855000000.000000      6.271667000000000E-01      1.434668000000000E+01      4.735718000000000E-01     -1.368359000000000E+02
4856000000.000000      6.282654000000000E-01      1.419287000000000E+01      4.692383000000000E-01     -1.375391000000000E+02
4857000000.000000      6.287537000000000E-01      1.427930000000000E+01      4.696808000000000E-01     -1.383984000000000E+02
4858000000.000000      6.301880000000000E-01      1.437256000000000E+01      4.659119000000000E-01     -1.392812000000000E+02
4859000000.000000      6.323547000000000E-01      1.428760000000000E+01      4.631805000000000E-01     -1.402031000000000E+02
4860000000.000000      6.315918000000000E-01      1.432715000000000E+01      4.591064000000000E-01     -1.409375000000000E+02
4861000000.000000      6.326294000000000E-01      1.434082000000000E+01      4.553680000000000E-01     -1.417422000000000E+02
4862000000.000000      6.331177000000000E-01      1.442334000000000E+01      4.526215000000000E-01     -1.424453000000000E+02
4863000000.000000      6.347351000000000E-01      1.439746000000000E+01      4.486694000000000E-01     -1.435313000000000E+02
4864000000.000000      6.363831000000000E-01      1.439063000000000E+01      4.458923000000000E-01     -1.441172000000000E+02
4865000000.000000      6.374817000000000E-01      1.427783000000000E+01      4.428253000000000E-01     -1.449687000000000E+02
4866000000.000000      6.383362000000000E-01      1.424512000000000E+01      4.383545000000000E-01     -1.456640000000000E+02
4867000000.000000      6.399841000000000E-01      1.437549000000000E+01      4.342194000000000E-01     -1.465859000000000E+02
4868000000.000000      6.419067000000000E-01      1.429590000000000E+01      4.309082000000000E-01     -1.472734000000000E+02
4869000000.000000      6.435852000000000E-01      1.430664000000000E+01      4.282227000000000E-01     -1.479687000000000E+02
4870000000.000000      6.443481000000000E-01      1.437109000000000E+01      4.224854000000000E-01     -1.484062000000000E+02
4871000000.000000      6.459045000000000E-01      1.420898000000000E+01      4.178925000000000E-01     -1.495781000000000E+02
4872000000.000000      6.488647000000000E-01      1.410498000000000E+01      4.139862000000000E-01     -1.499844000000000E+02
4873000000.000000      6.483765000000000E-01      1.416504000000000E+01      4.084778000000000E-01     -1.508516000000000E+02
4874000000.000000      6.482849000000000E-01      1.412939000000000E+01      4.043274000000000E-01     -1.514844000000000E+02
4875000000.000000      6.514587000000000E-01      1.409521000000000E+01      4.002838000000000E-01     -1.522891000000000E+02
4876000000.000000      6.517944000000000E-01      1.404297000000000E+01      3.967896000000000E-01     -1.526953000000000E+02
4877000000.000000      6.533508000000000E-01      1.404053000000000E+01      3.919067000000000E-01     -1.535469000000000E+02
4878000000.000000      6.539917000000000E-01      1.384375000000000E+01      3.874359000000000E-01     -1.540234000000000E+02
4879000000.000000      6.576233000000000E-01      1.390869000000000E+01      3.830566000000000E-01     -1.546328000000000E+02
4880000000.000000      6.586914000000000E-01      1.386572000000000E+01      3.793793000000000E-01     -1.551563000000000E+02
4881000000.000000      6.581726000000000E-01      1.392334000000000E+01      3.742523000000000E-01     -1.556562000000000E+02
4882000000.000000      6.591187000000000E-01      1.388672000000000E+01      3.703766000000000E-01     -1.563203000000000E+02
4883000000.000000      6.614380000000000E-01      1.351318000000000E+01      3.658905000000000E-01     -1.569687000000000E+02
4884000000.000000      6.600342000000000E-01      1.362402000000000E+01      3.612213000000000E-01     -1.571797000000000E+02
4885000000.000000      6.615906000000000E-01      1.369287000000000E+01      3.573914000000000E-01     -1.576797000000000E+02
4886000000.000000      6.639099000000000E-01      1.367383000000000E+01      3.533936000000000E-01     -1.580703000000000E+02
4887000000.000000      6.662292000000000E-01      1.338525000000000E+01      3.487396000000000E-01     -1.587969000000000E+02
4888000000.000000      6.662598000000000E-01      1.326563000000000E+01      3.446808000000000E-01     -1.591875000000000E+02
4889000000.000000      6.679688000000000E-01      1.325635000000000E+01      3.410645000000000E-01     -1.596328000000000E+02
4890000000.000000      6.670227000000000E-01      1.293457000000000E+01      3.356171000000000E-01     -1.603594000000000E+02
4891000000.000000      6.692810000000000E-01      1.309668000000000E+01      3.314514000000000E-01     -1.606250000000000E+02
4892000000.000000      6.687317000000000E-01      1.286328000000000E+01      3.273315000000000E-01     -1.607500000000000E+02
4893000000.000000      6.725464000000000E-01      1.291699000000000E+01      3.240204000000000E-01     -1.614297000000000E+02
4894000000.000000      6.721497000000000E-01      1.277002000000000E+01      3.188324000000000E-01     -1.617891000000000E+02
4895000000.000000      6.745911000000000E-01      1.274268000000000E+01      3.176422000000000E-01     -1.621016000000000E+02
4896000000.000000      6.740723000000000E-01      1.262012000000000E+01      3.132324000000000E-01     -1.623203000000000E+02
4897000000.000000      6.752319000000000E-01      1.248584000000000E+01      3.081970000000000E-01     -1.629297000000000E+02
4898000000.000000      6.768188000000000E-01      1.249951000000000E+01      3.052521000000000E-01     -1.630703000000000E+02
4899000000.000000      6.760864000000000E-01      1.222900000000000E+01      3.016052000000000E-01     -1.635078000000000E+02
4900000000.000000      6.783447000000000E-01      1.221387000000000E+01      2.974243000000000E-01     -1.639219000000000E+02
4901000000.000000      6.798096000000000E-01      1.213672000000000E+01      2.939911000000000E-01     -1.640703000000000E+02
4902000000.000000      6.784668000000000E-01      1.210107000000000E+01      2.907562000000000E-01     -1.642500000000000E+02
4903000000.000000      6.813660000000000E-01      1.190771000000000E+01      2.861481000000000E-01     -1.647656000000000E+02
4904000000.000000      6.810913000000000E-01      1.188574000000000E+01      2.820892000000000E-01     -1.652422000000000E+02
4905000000.000000      6.804810000000000E-01      1.164404000000000E+01      2.800446000000000E-01     -1.656250000000000E+02
4906000000.000000      6.806641000000000E-01      1.153418000000000E+01      2.758484000000000E-01     -1.655000000000000E+02
4907000000.000000      6.851196000000000E-01      1.153809000000000E+01      2.736664000000000E-01     -1.660234000000000E+02
4908000000.000000      6.829834000000000E-01      1.142432000000000E+01      2.698212000000000E-01     -1.664453000000000E+02
4909000000.000000      6.837769000000000E-01      1.128809000000000E+01      2.658844000000000E-01     -1.666563000000000E+02
4910000000.000000      6.836243000000000E-01      1.127197000000000E+01      2.615662000000000E-01     -1.669219000000000E+02
4911000000.000000      6.861877000000000E-01      1.106592000000000E+01      2.591400000000000E-01     -1.672891000000000E+02
4912000000.000000      6.864929000000000E-01      1.113281000000000E+01      2.559967000000000E-01     -1.677344000000000E+02
4913000000.000000      6.894836000000000E-01      1.102197000000000E+01      2.519226000000000E-01     -1.678828000000000E+02
4914000000.000000      6.882935000000000E-01      1.082666000000000E+01      2.484970000000000E-01     -1.680625000000000E+02
4915000000.000000      6.881104000000000E-01      1.081055000000000E+01      2.448349000000000E-01     -1.686172000000000E+02
4916000000.000000      6.892395000000000E-01      1.075537000000000E+01      2.408218000000000E-01     -1.689375000000000E+02
4917000000.000000      6.889038000000000E-01      1.058789000000000E+01      2.381058000000000E-01     -1.690234000000000E+02
4918000000.000000      6.897888000000000E-01      1.042725000000000E+01      2.339630000000000E-01     -1.691719000000000E+02
4919000000.000000      6.894531000000000E-01      1.033105000000000E+01      2.308044000000000E-01     -1.692734000000000E+02
4920000000.000000      6.901855000000000E-01      1.039014000000000E+01      2.261658000000000E-01     -1.696953000000000E+02
4921000000.000000      6.904602000000000E-01      1.037109000000000E+01      2.235260000000000E-01     -1.699687000000000E+02
4922000000.000000      6.910095000000000E-01      1.014844000000000E+01      2.199554000000000E-01     -1.700000000000000E+02
4923000000.000000      6.896973000000000E-01      1.000293000000000E+01      2.155914000000000E-01     -1.702500000000000E+02
4924000000.000000      6.923523000000000E-01      9.942383000000000E+00      2.121811000000000E-01     -1.703984000000000E+02
4925000000.000000      6.918945000000000E-01      9.670410000000000E+00      2.085648000000000E-01     -1.705859000000000E+02
4926000000.000000      6.919861000000000E-01      9.699219000000000E+00      2.048874000000000E-01     -1.706328000000000E+02
4927000000.000000      6.933899000000000E-01      9.549805000000000E+00      2.006760000000000E-01     -1.707109000000000E+02
4928000000.000000      6.942139000000000E-01      9.399902000000000E+00      1.975861000000000E-01     -1.708437000000000E+02
4929000000.000000      6.934509000000000E-01      9.423340000000000E+00      1.930618000000000E-01     -1.708125000000000E+02
4930000000.000000      6.948242000000000E-01      9.243164000000000E+00      1.896057000000000E-01     -1.708437000000000E+02
4931000000.000000      6.942749000000000E-01      9.402832000000000E+00      1.863098000000000E-01     -1.706797000000000E+02
4932000000.000000      6.965942000000000E-01      9.125488000000000E+00      1.826324000000000E-01     -1.707656000000000E+02
4933000000.000000      6.960754000000000E-01      8.833984000000000E+00      1.776733000000000E-01     -1.706016000000000E+02
4934000000.000000      6.968994000000000E-01      9.014160000000000E+00      1.749573000000000E-01     -1.707266000000000E+02
4935000000.000000      6.958313000000000E-01      8.791504000000000E+00      1.716080000000000E-01     -1.702734000000000E+02
4936000000.000000      6.969910000000000E-01      8.686035000000000E+00      1.666489000000000E-01     -1.700469000000000E+02
4937000000.000000      7.010498000000000E-01      8.586914000000000E+00      1.634140000000000E-01     -1.700234000000000E+02
4938000000.000000      6.988525000000000E-01      8.577148000000000E+00      1.600571000000000E-01     -1.694844000000000E+02
4939000000.000000      6.993713000000000E-01      8.485352000000000E+00      1.569061000000000E-01     -1.692109000000000E+02
4940000000.000000      6.997070000000000E-01      8.371582000000000E+00      1.524811000000000E-01     -1.688437000000000E+02
4941000000.000000      7.012024000000000E-01      8.196777000000000E+00      1.494598000000000E-01     -1.681328000000000E+02
4942000000.000000      7.012634000000000E-01      8.007324000000000E+00      1.458206000000000E-01     -1.677813000000000E+02
4943000000.000000      7.006836000000000E-01      8.000488000000000E+00      1.428528000000000E-01     -1.670703000000000E+02
4944000000.000000      6.993103000000000E-01      7.993896000000000E+00      1.393127000000000E-01     -1.664687000000000E+02
4945000000.000000      7.021484000000000E-01      7.867432000000000E+00      1.358261000000000E-01     -1.656094000000000E+02
4946000000.000000      7.028503000000000E-01      7.797363000000000E+00      1.332245000000000E-01     -1.648047000000000E+02
4947000000.000000      7.032471000000000E-01      7.620361000000000E+00      1.302261000000000E-01     -1.638594000000000E+02
4948000000.000000      7.024841000000000E-01      7.573486000000000E+00      1.270981000000000E-01     -1.628594000000000E+02
4949000000.000000      7.032776000000000E-01      7.532471000000000E+00      1.246719000000000E-01     -1.615391000000000E+02
4950000000.000000      7.048645000000000E-01      7.470703000000000E+00      1.217613000000000E-01     -1.606875000000000E+02
4951000000.000000      7.064209000000000E-01      7.333252000000000E+00      1.195030000000000E-01     -1.593516000000000E+02
4952000000.000000      7.051697000000000E-01      7.183594000000000E+00      1.171951000000000E-01     -1.579922000000000E+02
4953000000.000000      7.043457000000000E-01      7.114990000000000E+00      1.153412000000000E-01     -1.567500000000000E+02
4954000000.000000      7.069092000000000E-01      6.963867000000000E+00      1.131706000000000E-01     -1.551250000000000E+02
