! Network Analyzer HP8722D
! Hewlett-Packard
! Data name: Linha & Wilkinson
! Saver's name: Rodrigo Anjos
! Comments: Teste da utilização de aquisição
continua pelo VNA HP8722D
! Time and date: 22/5/2025 16:22
!              Frequency                     S11                                                   S21                                                   S12                                                   S22
# HZ  S  MA R 50
4800000000.000000      6.528015000000000E-01      1.113428000000000E+01      4.704742000000000E-01     -9.181250000000000E+01
4801000000.000000      6.510010000000000E-01      1.104492000000000E+01      4.714661000000000E-01     -9.255859000000000E+01
4802000000.000000      6.496887000000000E-01      1.092969000000000E+01      4.733124000000000E-01     -9.317577000000000E+01
4803000000.000000      6.473083000000000E-01      1.095996000000000E+01      4.771881000000000E-01     -9.405468000000000E+01
4804000000.000000      6.451111000000000E-01      1.092822000000000E+01      4.787903000000000E-01     -9.473827000000000E+01
4805000000.000000      6.459045000000000E-01      1.094336000000000E+01      4.802094000000000E-01     -9.551172000000000E+01
4806000000.000000      6.422119000000000E-01      1.078955000000000E+01      4.815216000000000E-01     -9.637499000000000E+01
4807000000.000000      6.400452000000000E-01      1.081836000000000E+01      4.819183000000000E-01     -9.738281000000000E+01
4808000000.000000      6.383667000000000E-01      1.089258000000000E+01      4.833527000000000E-01     -9.786718000000000E+01
4809000000.000000      6.386414000000000E-01      1.094336000000000E+01      4.859161000000000E-01     -9.875000000000000E+01
4810000000.000000      6.362000000000000E-01      1.096533000000000E+01      4.871521000000000E-01     -9.921875000000000E+01
4811000000.000000      6.345520000000000E-01      1.096973000000000E+01      4.887390000000000E-01     -1.002226000000000E+02
4812000000.000000      6.344299000000000E-01      1.110547000000000E+01      4.904633000000000E-01     -1.008945000000000E+02
4813000000.000000      6.340942000000000E-01      1.115381000000000E+01      4.907990000000000E-01     -1.015469000000000E+02
4814000000.000000      6.305847000000000E-01      1.110400000000000E+01      4.918213000000000E-01     -1.023047000000000E+02
4815000000.000000      6.282959000000000E-01      1.126465000000000E+01      4.927673000000000E-01     -1.031172000000000E+02
4816000000.000000      6.278687000000000E-01      1.131836000000000E+01      4.935303000000000E-01     -1.038828000000000E+02
4817000000.000000      6.260071000000000E-01      1.135840000000000E+01      4.945526000000000E-01     -1.045469000000000E+02
4818000000.000000      6.256714000000000E-01      1.128955000000000E+01      4.940033000000000E-01     -1.051914000000000E+02
4819000000.000000      6.244812000000000E-01      1.147754000000000E+01      4.956360000000000E-01     -1.062031000000000E+02
4820000000.000000      6.217651000000000E-01      1.163135000000000E+01      4.967499000000000E-01     -1.067891000000000E+02
4821000000.000000      6.204529000000000E-01      1.165625000000000E+01      4.968109000000000E-01     -1.076680000000000E+02
4822000000.000000      6.195374000000000E-01      1.161621000000000E+01      4.957733000000000E-01     -1.083047000000000E+02
4823000000.000000      6.211548000000000E-01      1.182910000000000E+01      4.985962000000000E-01     -1.090547000000000E+02
4824000000.000000      6.177063000000000E-01      1.199707000000000E+01      4.959106000000000E-01     -1.099961000000000E+02
4825000000.000000      6.164856000000000E-01      1.196387000000000E+01      4.980316000000000E-01     -1.105898000000000E+02
4826000000.000000      6.175842000000000E-01      1.210400000000000E+01      4.997253000000000E-01     -1.115547000000000E+02
4827000000.000000      6.156921000000000E-01      1.227002000000000E+01      4.977264000000000E-01     -1.121875000000000E+02
4828000000.000000      6.167908000000000E-01      1.226318000000000E+01      5.006714000000000E-01     -1.129180000000000E+02
4829000000.000000      6.156006000000000E-01      1.249512000000000E+01      5.010071000000000E-01     -1.135781000000000E+02
4830000000.000000      6.146545000000000E-01      1.250635000000000E+01      5.005798000000000E-01     -1.143945000000000E+02
4831000000.000000      6.134033000000000E-01      1.272754000000000E+01      5.003052000000000E-01     -1.152851000000000E+02
4832000000.000000      6.150513000000000E-01      1.290039000000000E+01      4.999847000000000E-01     -1.158789000000000E+02
4833000000.000000      6.109619000000000E-01      1.290039000000000E+01      4.989624000000000E-01     -1.164414000000000E+02
4834000000.000000      6.137695000000000E-01      1.287305000000000E+01      4.998779000000000E-01     -1.174844000000000E+02
4835000000.000000      6.127319000000000E-01      1.305859000000000E+01      4.994965000000000E-01     -1.182031000000000E+02
4836000000.000000      6.141052000000000E-01      1.336719000000000E+01      4.985046000000000E-01     -1.189961000000000E+02
4837000000.000000      6.123352000000000E-01      1.349512000000000E+01      4.983215000000000E-01     -1.200469000000000E+02
4838000000.000000      6.141052000000000E-01      1.341553000000000E+01      4.983215000000000E-01     -1.205351000000000E+02
4839000000.000000      6.158752000000000E-01      1.369678000000000E+01      4.981689000000000E-01     -1.212812000000000E+02
4840000000.000000      6.154175000000000E-01      1.367480000000000E+01      4.990387000000000E-01     -1.221133000000000E+02
4841000000.000000      6.138306000000000E-01      1.388770000000000E+01      4.965668000000000E-01     -1.228828000000000E+02
4842000000.000000      6.152649000000000E-01      1.396191000000000E+01      4.970551000000000E-01     -1.236719000000000E+02
4843000000.000000      6.173401000000000E-01      1.383301000000000E+01      4.974365000000000E-01     -1.246250000000000E+02
4844000000.000000      6.170959000000000E-01      1.402930000000000E+01      4.960327000000000E-01     -1.254922000000000E+02
4845000000.000000      6.188965000000000E-01      1.431348000000000E+01      4.951019000000000E-01     -1.261211000000000E+02
4846000000.000000      6.195679000000000E-01      1.429980000000000E+01      4.944916000000000E-01     -1.271523000000000E+02
4847000000.000000      6.195679000000000E-01      1.445215000000000E+01      4.928131000000000E-01     -1.278750000000000E+02
4848000000.000000      6.188354000000000E-01      1.437012000000000E+01      4.902802000000000E-01     -1.285938000000000E+02
4849000000.000000      6.196594000000000E-01      1.454297000000000E+01      4.906616000000000E-01     -1.295703000000000E+02
4850000000.000000      6.213684000000000E-01      1.463477000000000E+01      4.878998000000000E-01     -1.304531000000000E+02
4851000000.000000      6.208801000000000E-01      1.470215000000000E+01      4.877777000000000E-01     -1.310937000000000E+02
4852000000.000000      6.236267000000000E-01      1.475049000000000E+01      4.858093000000000E-01     -1.321172000000000E+02
4853000000.000000      6.235657000000000E-01      1.481055000000000E+01      4.819336000000000E-01     -1.330000000000000E+02
4854000000.000000      6.241760000000000E-01      1.490820000000000E+01      4.800720000000000E-01     -1.339844000000000E+02
4855000000.000000      6.253052000000000E-01      1.486035000000000E+01      4.797363000000000E-01     -1.347734000000000E+02
4856000000.000000      6.274109000000000E-01      1.480811000000000E+01      4.763031000000000E-01     -1.356875000000000E+02
4857000000.000000      6.270447000000000E-01      1.510596000000000E+01      4.759369000000000E-01     -1.364219000000000E+02
4858000000.000000      6.296387000000000E-01      1.489600000000000E+01      4.717255000000000E-01     -1.372969000000000E+02
4859000000.000000      6.310120000000000E-01      1.500293000000000E+01      4.699860000000000E-01     -1.382031000000000E+02
4860000000.000000      6.305847000000000E-01      1.512793000000000E+01      4.668579000000000E-01     -1.388047000000000E+02
4861000000.000000      6.317749000000000E-01      1.501807000000000E+01      4.629822000000000E-01     -1.397187000000000E+02
4862000000.000000      6.333618000000000E-01      1.513477000000000E+01      4.609222000000000E-01     -1.405625000000000E+02
4863000000.000000      6.329041000000000E-01      1.526514000000000E+01      4.568329000000000E-01     -1.416094000000000E+02
4864000000.000000      6.365051000000000E-01      1.501514000000000E+01      4.534302000000000E-01     -1.422188000000000E+02
4865000000.000000      6.362610000000000E-01      1.520898000000000E+01      4.494019000000000E-01     -1.429766000000000E+02
4866000000.000000      6.387329000000000E-01      1.499316000000000E+01      4.465942000000000E-01     -1.440938000000000E+02
4867000000.000000      6.382141000000000E-01      1.517334000000000E+01      4.412842000000000E-01     -1.447969000000000E+02
4868000000.000000      6.400757000000000E-01      1.498926000000000E+01      4.381714000000000E-01     -1.454844000000000E+02
4869000000.000000      6.418457000000000E-01      1.503711000000000E+01      4.343567000000000E-01     -1.462891000000000E+02
4870000000.000000      6.435547000000000E-01      1.504541000000000E+01      4.316101000000000E-01     -1.469922000000000E+02
4871000000.000000      6.445923000000000E-01      1.500586000000000E+01      4.264526000000000E-01     -1.478984000000000E+02
4872000000.000000      6.466370000000000E-01      1.514453000000000E+01      4.221191000000000E-01     -1.484219000000000E+02
4873000000.000000      6.466675000000000E-01      1.494238000000000E+01      4.175568000000000E-01     -1.493594000000000E+02
4874000000.000000      6.492920000000000E-01      1.498242000000000E+01      4.138641000000000E-01     -1.498750000000000E+02
4875000000.000000      6.497192000000000E-01      1.495898000000000E+01      4.084320000000000E-01     -1.506719000000000E+02
4876000000.000000      6.520081000000000E-01      1.501660000000000E+01      4.055176000000000E-01     -1.511719000000000E+02
4877000000.000000      6.528015000000000E-01      1.467334000000000E+01      4.010010000000000E-01     -1.520156000000000E+02
4878000000.000000      6.530151000000000E-01      1.480518000000000E+01      3.969879000000000E-01     -1.527187000000000E+02
4879000000.000000      6.544495000000000E-01      1.470508000000000E+01      3.910980000000000E-01     -1.529844000000000E+02
4880000000.000000      6.579895000000000E-01      1.460742000000000E+01      3.887482000000000E-01     -1.538750000000000E+02
4881000000.000000      6.587524000000000E-01      1.461182000000000E+01      3.830872000000000E-01     -1.542891000000000E+02
4882000000.000000      6.601563000000000E-01      1.464600000000000E+01      3.793640000000000E-01     -1.550078000000000E+02
4883000000.000000      6.599731000000000E-01      1.435205000000000E+01      3.739319000000000E-01     -1.555625000000000E+02
4884000000.000000      6.618042000000000E-01      1.442480000000000E+01      3.687286000000000E-01     -1.560703000000000E+02
4885000000.000000      6.644592000000000E-01      1.434521000000000E+01      3.656311000000000E-01     -1.562813000000000E+02
4886000000.000000      6.633301000000000E-01      1.450049000000000E+01      3.618774000000000E-01     -1.568516000000000E+02
4887000000.000000      6.661072000000000E-01      1.419824000000000E+01      3.575134000000000E-01     -1.574766000000000E+02
4888000000.000000      6.648865000000000E-01      1.424219000000000E+01      3.525391000000000E-01     -1.579141000000000E+02
4889000000.000000      6.675110000000000E-01      1.422705000000000E+01      3.480835000000000E-01     -1.582891000000000E+02
4890000000.000000      6.666870000000000E-01      1.401270000000000E+01      3.424072000000000E-01     -1.590156000000000E+02
4891000000.000000      6.679688000000000E-01      1.395654000000000E+01      3.388367000000000E-01     -1.594531000000000E+02
4892000000.000000      6.695862000000000E-01      1.391113000000000E+01      3.364868000000000E-01     -1.598047000000000E+02
4893000000.000000      6.714783000000000E-01      1.376025000000000E+01      3.312988000000000E-01     -1.604453000000000E+02
4894000000.000000      6.723328000000000E-01      1.362988000000000E+01      3.274231000000000E-01     -1.606562000000000E+02
4895000000.000000      6.728821000000000E-01      1.377100000000000E+01      3.257141000000000E-01     -1.609062000000000E+02
4896000000.000000      6.740112000000000E-01      1.339893000000000E+01      3.201141000000000E-01     -1.615156000000000E+02
4897000000.000000      6.766968000000000E-01      1.350049000000000E+01      3.162384000000000E-01     -1.617500000000000E+02
4898000000.000000      6.762390000000000E-01      1.342236000000000E+01      3.118439000000000E-01     -1.619922000000000E+02
4899000000.000000      6.778259000000000E-01      1.322607000000000E+01      3.083344000000000E-01     -1.625937000000000E+02
4900000000.000000      6.772766000000000E-01      1.308301000000000E+01      3.045654000000000E-01     -1.628125000000000E+02
4901000000.000000      6.779785000000000E-01      1.299805000000000E+01      3.011169000000000E-01     -1.632344000000000E+02
4902000000.000000      6.803589000000000E-01      1.294043000000000E+01      2.981110000000000E-01     -1.633437000000000E+02
4903000000.000000      6.796570000000000E-01      1.287598000000000E+01      2.935638000000000E-01     -1.637578000000000E+02
4904000000.000000      6.806641000000000E-01      1.287988000000000E+01      2.897034000000000E-01     -1.642656000000000E+02
4905000000.000000      6.822510000000000E-01      1.253662000000000E+01      2.872467000000000E-01     -1.646719000000000E+02
4906000000.000000      6.829224000000000E-01      1.249268000000000E+01      2.833099000000000E-01     -1.646719000000000E+02
4907000000.000000      6.831360000000000E-01      1.223438000000000E+01      2.806854000000000E-01     -1.651406000000000E+02
4908000000.000000      6.826172000000000E-01      1.231250000000000E+01      2.774200000000000E-01     -1.656875000000000E+02
4909000000.000000      6.831970000000000E-01      1.211230000000000E+01      2.727356000000000E-01     -1.659531000000000E+02
4910000000.000000      6.844788000000000E-01      1.222070000000000E+01      2.699585000000000E-01     -1.662578000000000E+02
4911000000.000000      6.864624000000000E-01      1.192822000000000E+01      2.659607000000000E-01     -1.664297000000000E+02
4912000000.000000      6.860657000000000E-01      1.198584000000000E+01      2.621613000000000E-01     -1.668125000000000E+02
4913000000.000000      6.876221000000000E-01      1.187451000000000E+01      2.589722000000000E-01     -1.672734000000000E+02
4914000000.000000      6.867981000000000E-01      1.156299000000000E+01      2.553711000000000E-01     -1.673672000000000E+02
4915000000.000000      6.877136000000000E-01      1.166602000000000E+01      2.515869000000000E-01     -1.678906000000000E+02
4916000000.000000      6.867371000000000E-01      1.155322000000000E+01      2.485199000000000E-01     -1.681328000000000E+02
4917000000.000000      6.898499000000000E-01      1.152588000000000E+01      2.450714000000000E-01     -1.683125000000000E+02
4918000000.000000      6.893311000000000E-01      1.126367000000000E+01      2.405930000000000E-01     -1.687187000000000E+02
4919000000.000000      6.887207000000000E-01      1.133496000000000E+01      2.374878000000000E-01     -1.687109000000000E+02
4920000000.000000      6.908875000000000E-01      1.107422000000000E+01      2.333755000000000E-01     -1.692734000000000E+02
4921000000.000000      6.891785000000000E-01      1.113281000000000E+01      2.299118000000000E-01     -1.693828000000000E+02
4922000000.000000      6.921997000000000E-01      1.090088000000000E+01      2.269669000000000E-01     -1.694844000000000E+02
4923000000.000000      6.907349000000000E-01      1.085840000000000E+01      2.229919000000000E-01     -1.697734000000000E+02
4924000000.000000      6.918335000000000E-01      1.064258000000000E+01      2.184219000000000E-01     -1.701172000000000E+02
4925000000.000000      6.923218000000000E-01      1.065381000000000E+01      2.147217000000000E-01     -1.702031000000000E+02
4926000000.000000      6.928711000000000E-01      1.069629000000000E+01      2.110062000000000E-01     -1.704062000000000E+02
4927000000.000000      6.916809000000000E-01      1.035303000000000E+01      2.071304000000000E-01     -1.706719000000000E+02
4928000000.000000      6.950073000000000E-01      1.031982000000000E+01      2.038040000000000E-01     -1.706016000000000E+02
4929000000.000000      6.957703000000000E-01      1.031445000000000E+01      1.998444000000000E-01     -1.705859000000000E+02
4930000000.000000      6.954041000000000E-01      1.018018000000000E+01      1.958771000000000E-01     -1.708750000000000E+02
4931000000.000000      6.962891000000000E-01      1.001367000000000E+01      1.929703000000000E-01     -1.708359000000000E+02
4932000000.000000      6.954651000000000E-01      9.949219000000000E+00      1.891861000000000E-01     -1.709219000000000E+02
4933000000.000000      6.984863000000000E-01      9.799805000000000E+00      1.842728000000000E-01     -1.708047000000000E+02
4934000000.000000      6.982422000000000E-01      9.609863000000000E+00      1.809235000000000E-01     -1.707422000000000E+02
4935000000.000000      6.990967000000000E-01      9.509766000000000E+00      1.774368000000000E-01     -1.705156000000000E+02
4936000000.000000      6.969604000000000E-01      9.442383000000000E+00      1.731644000000000E-01     -1.706094000000000E+02
4937000000.000000      6.997681000000000E-01      9.299805000000000E+00      1.696854000000000E-01     -1.705000000000000E+02
4938000000.000000      6.986694000000000E-01      9.512695000000000E+00      1.655807000000000E-01     -1.700703000000000E+02
4939000000.000000      6.990051000000000E-01      9.371094000000000E+00      1.623688000000000E-01     -1.699375000000000E+02
4940000000.000000      7.002869000000000E-01      9.121094000000000E+00      1.579285000000000E-01     -1.698750000000000E+02
4941000000.000000      7.010498000000000E-01      9.002930000000000E+00      1.544571000000000E-01     -1.692109000000000E+02
4942000000.000000      6.995239000000000E-01      9.033203000000000E+00      1.510773000000000E-01     -1.688672000000000E+02
4943000000.000000      7.012939000000000E-01      8.811035000000000E+00      1.479950000000000E-01     -1.682969000000000E+02
4944000000.000000      7.010803000000000E-01      8.666504000000000E+00      1.443634000000000E-01     -1.677187000000000E+02
4945000000.000000      7.027588000000000E-01      8.577148000000000E+00      1.408386000000000E-01     -1.671562000000000E+02
4946000000.000000      7.028198000000000E-01      8.743652000000000E+00      1.377335000000000E-01     -1.663047000000000E+02
4947000000.000000      7.027893000000000E-01      8.444336000000000E+00      1.341476000000000E-01     -1.657891000000000E+02
4948000000.000000      7.043762000000000E-01      8.461914000000000E+00      1.312714000000000E-01     -1.646641000000000E+02
4949000000.000000      7.019653000000000E-01      8.255859000000000E+00      1.283188000000000E-01     -1.637344000000000E+02
4950000000.000000      7.059021000000000E-01      8.298340000000000E+00      1.255341000000000E-01     -1.628750000000000E+02
4951000000.000000      7.058105000000000E-01      8.187500000000000E+00      1.227036000000000E-01     -1.620469000000000E+02
4952000000.000000      7.048035000000000E-01      8.034668000000000E+00      1.194992000000000E-01     -1.605547000000000E+02
4953000000.000000      7.046509000000000E-01      7.966309000000000E+00      1.174088000000000E-01     -1.591172000000000E+02
4954000000.000000      7.058411000000000E-01      7.834473000000000E+00      1.151276000000000E-01     -1.576953000000000E+02
