! Network Analyzer HP8722D
! Hewlett-Packard
! Data name: Linha & Wilkinson
! Saver's name: Rodrigo Anjos
! Comments: Teste da utilização de aquisição
continua pelo VNA HP8722D
! Time and date: 22/5/2025 13:24
!              Frequency                     S11                                                   S21                                                   S12                                                   S22
# HZ  S  MA R 50
4800000000.000000      6.537476000000000E-01      1.088330000000000E+01      4.707947000000000E-01     -9.218359000000000E+01
4801000000.000000      6.501770000000000E-01      1.102588000000000E+01      4.728699000000000E-01     -9.279297000000000E+01
4802000000.000000      6.497192000000000E-01      1.081152000000000E+01      4.733582000000000E-01     -9.341406000000000E+01
4803000000.000000      6.472168000000000E-01      1.080469000000000E+01      4.765472000000000E-01     -9.408983000000000E+01
4804000000.000000      6.440125000000000E-01      1.090625000000000E+01      4.768829000000000E-01     -9.506639000000000E+01
4805000000.000000      6.456909000000000E-01      1.088330000000000E+01      4.803314000000000E-01     -9.569139000000000E+01
4806000000.000000      6.427917000000000E-01      1.080762000000000E+01      4.809265000000000E-01     -9.677734000000000E+01
4807000000.000000      6.387634000000000E-01      1.066895000000000E+01      4.820862000000000E-01     -9.749609000000000E+01
4808000000.000000      6.376648000000000E-01      1.073486000000000E+01      4.845581000000000E-01     -9.807812000000000E+01
4809000000.000000      6.343689000000000E-01      1.086914000000000E+01      4.855499000000000E-01     -9.921093000000000E+01
4810000000.000000      6.346436000000000E-01      1.097900000000000E+01      4.866486000000000E-01     -9.959764000000000E+01
4811000000.000000      6.344910000000000E-01      1.084717000000000E+01      4.888000000000000E-01     -1.005039000000000E+02
4812000000.000000      6.338501000000000E-01      1.115918000000000E+01      4.894257000000000E-01     -1.012422000000000E+02
4813000000.000000      6.311646000000000E-01      1.102588000000000E+01      4.901733000000000E-01     -1.020859000000000E+02
4814000000.000000      6.285400000000000E-01      1.112354000000000E+01      4.922333000000000E-01     -1.027226000000000E+02
4815000000.000000      6.293640000000000E-01      1.129102000000000E+01      4.913025000000000E-01     -1.035352000000000E+02
4816000000.000000      6.274109000000000E-01      1.134863000000000E+01      4.922028000000000E-01     -1.042578000000000E+02
4817000000.000000      6.257629000000000E-01      1.132813000000000E+01      4.938202000000000E-01     -1.049219000000000E+02
4818000000.000000      6.235352000000000E-01      1.155762000000000E+01      4.945984000000000E-01     -1.058359000000000E+02
4819000000.000000      6.240845000000000E-01      1.139404000000000E+01      4.953308000000000E-01     -1.064141000000000E+02
4820000000.000000      6.224060000000000E-01      1.167139000000000E+01      4.958496000000000E-01     -1.070313000000000E+02
4821000000.000000      6.211243000000000E-01      1.151221000000000E+01      4.976501000000000E-01     -1.082187000000000E+02
4822000000.000000      6.200256000000000E-01      1.164111000000000E+01      4.960632000000000E-01     -1.085703000000000E+02
4823000000.000000      6.184692000000000E-01      1.166309000000000E+01      4.986267000000000E-01     -1.094062000000000E+02
4824000000.000000      6.175842000000000E-01      1.199951000000000E+01      4.982452000000000E-01     -1.101328000000000E+02
4825000000.000000      6.154785000000000E-01      1.191455000000000E+01      4.978027000000000E-01     -1.110390000000000E+02
4826000000.000000      6.162109000000000E-01      1.191309000000000E+01      4.980621000000000E-01     -1.118320000000000E+02
4827000000.000000      6.159363000000000E-01      1.217529000000000E+01      4.981689000000000E-01     -1.123594000000000E+02
4828000000.000000      6.158752000000000E-01      1.226758000000000E+01      4.996033000000000E-01     -1.130703000000000E+02
4829000000.000000      6.146851000000000E-01      1.256934000000000E+01      4.996643000000000E-01     -1.140156000000000E+02
4830000000.000000      6.170959000000000E-01      1.251025000000000E+01      4.995880000000000E-01     -1.148320000000000E+02
4831000000.000000      6.152039000000000E-01      1.256250000000000E+01      5.000000000000000E-01     -1.153750000000000E+02
4832000000.000000      6.141052000000000E-01      1.271631000000000E+01      4.995117000000000E-01     -1.160703000000000E+02
4833000000.000000      6.123047000000000E-01      1.282617000000000E+01      4.983521000000000E-01     -1.168320000000000E+02
4834000000.000000      6.132202000000000E-01      1.290186000000000E+01      4.984589000000000E-01     -1.178164000000000E+02
4835000000.000000      6.134338000000000E-01      1.297070000000000E+01      4.983521000000000E-01     -1.186484000000000E+02
4836000000.000000      6.133118000000000E-01      1.316553000000000E+01      4.974976000000000E-01     -1.192148000000000E+02
4837000000.000000      6.132507000000000E-01      1.339600000000000E+01      4.974365000000000E-01     -1.203086000000000E+02
4838000000.000000      6.144409000000000E-01      1.339209000000000E+01      4.986115000000000E-01     -1.207695000000000E+02
4839000000.000000      6.149597000000000E-01      1.356494000000000E+01      4.989319000000000E-01     -1.216133000000000E+02
4840000000.000000      6.148071000000000E-01      1.354199000000000E+01      4.981384000000000E-01     -1.224609000000000E+02
4841000000.000000      6.150513000000000E-01      1.383545000000000E+01      4.969482000000000E-01     -1.233750000000000E+02
4842000000.000000      6.166687000000000E-01      1.392090000000000E+01      4.974670000000000E-01     -1.240703000000000E+02
4843000000.000000      6.190796000000000E-01      1.384814000000000E+01      4.972534000000000E-01     -1.249062000000000E+02
4844000000.000000      6.173706000000000E-01      1.395508000000000E+01      4.950104000000000E-01     -1.258398000000000E+02
4845000000.000000      6.194458000000000E-01      1.413232000000000E+01      4.941406000000000E-01     -1.265547000000000E+02
4846000000.000000      6.190796000000000E-01      1.425293000000000E+01      4.934082000000000E-01     -1.274101000000000E+02
4847000000.000000      6.215210000000000E-01      1.441943000000000E+01      4.916534000000000E-01     -1.280625000000000E+02
4848000000.000000      6.191406000000000E-01      1.425732000000000E+01      4.884949000000000E-01     -1.289922000000000E+02
4849000000.000000      6.203613000000000E-01      1.453076000000000E+01      4.889984000000000E-01     -1.298750000000000E+02
4850000000.000000      6.215820000000000E-01      1.444141000000000E+01      4.864197000000000E-01     -1.308984000000000E+02
4851000000.000000      6.240845000000000E-01      1.456787000000000E+01      4.862061000000000E-01     -1.316406000000000E+02
4852000000.000000      6.238403000000000E-01      1.461865000000000E+01      4.848022000000000E-01     -1.324219000000000E+02
4853000000.000000      6.252136000000000E-01      1.454297000000000E+01      4.802856000000000E-01     -1.333281000000000E+02
4854000000.000000      6.259155000000000E-01      1.465430000000000E+01      4.791412000000000E-01     -1.343203000000000E+02
4855000000.000000      6.278992000000000E-01      1.475293000000000E+01      4.769897000000000E-01     -1.350703000000000E+02
4856000000.000000      6.281433000000000E-01      1.472168000000000E+01      4.745941000000000E-01     -1.358984000000000E+02
4857000000.000000      6.277771000000000E-01      1.482715000000000E+01      4.732971000000000E-01     -1.365937000000000E+02
4858000000.000000      6.297913000000000E-01      1.503613000000000E+01      4.704895000000000E-01     -1.374922000000000E+02
4859000000.000000      6.305237000000000E-01      1.480518000000000E+01      4.673309000000000E-01     -1.386328000000000E+02
4860000000.000000      6.307678000000000E-01      1.508691000000000E+01      4.638977000000000E-01     -1.391172000000000E+02
4861000000.000000      6.331482000000000E-01      1.487402000000000E+01      4.613647000000000E-01     -1.402344000000000E+02
4862000000.000000      6.333923000000000E-01      1.504541000000000E+01      4.595490000000000E-01     -1.409688000000000E+02
4863000000.000000      6.343994000000000E-01      1.510449000000000E+01      4.542084000000000E-01     -1.418047000000000E+02
4864000000.000000      6.352234000000000E-01      1.490137000000000E+01      4.527435000000000E-01     -1.426016000000000E+02
4865000000.000000      6.379089000000000E-01      1.498779000000000E+01      4.482727000000000E-01     -1.433516000000000E+02
4866000000.000000      6.392517000000000E-01      1.490430000000000E+01      4.446411000000000E-01     -1.443750000000000E+02
4867000000.000000      6.389771000000000E-01      1.494824000000000E+01      4.401703000000000E-01     -1.450938000000000E+02
4868000000.000000      6.407471000000000E-01      1.498779000000000E+01      4.363556000000000E-01     -1.459687000000000E+02
4869000000.000000      6.406250000000000E-01      1.504395000000000E+01      4.333649000000000E-01     -1.466953000000000E+02
4870000000.000000      6.435852000000000E-01      1.499219000000000E+01      4.288635000000000E-01     -1.471172000000000E+02
4871000000.000000      6.442871000000000E-01      1.477344000000000E+01      4.247131000000000E-01     -1.480547000000000E+02
4872000000.000000      6.480408000000000E-01      1.483691000000000E+01      4.201965000000000E-01     -1.487578000000000E+02
4873000000.000000      6.474609000000000E-01      1.496045000000000E+01      4.165649000000000E-01     -1.494297000000000E+02
4874000000.000000      6.493835000000000E-01      1.479150000000000E+01      4.125671000000000E-01     -1.501250000000000E+02
4875000000.000000      6.500549000000000E-01      1.477246000000000E+01      4.075623000000000E-01     -1.508516000000000E+02
4876000000.000000      6.514587000000000E-01      1.493848000000000E+01      4.029694000000000E-01     -1.515625000000000E+02
4877000000.000000      6.539917000000000E-01      1.454150000000000E+01      3.980255000000000E-01     -1.523906000000000E+02
4878000000.000000      6.524963000000000E-01      1.458984000000000E+01      3.945923000000000E-01     -1.530000000000000E+02
4879000000.000000      6.543274000000000E-01      1.458838000000000E+01      3.894958000000000E-01     -1.533906000000000E+02
4880000000.000000      6.560364000000000E-01      1.448682000000000E+01      3.854980000000000E-01     -1.540859000000000E+02
4881000000.000000      6.582031000000000E-01      1.450879000000000E+01      3.811646000000000E-01     -1.544219000000000E+02
4882000000.000000      6.597595000000000E-01      1.457861000000000E+01      3.761597000000000E-01     -1.550781000000000E+02
4883000000.000000      6.607666000000000E-01      1.433154000000000E+01      3.716125000000000E-01     -1.558281000000000E+02
4884000000.000000      6.623840000000000E-01      1.433398000000000E+01      3.677216000000000E-01     -1.560547000000000E+02
4885000000.000000      6.612854000000000E-01      1.417480000000000E+01      3.621979000000000E-01     -1.565000000000000E+02
4886000000.000000      6.635742000000000E-01      1.429443000000000E+01      3.586426000000000E-01     -1.570703000000000E+02
4887000000.000000      6.651917000000000E-01      1.400439000000000E+01      3.538361000000000E-01     -1.577734000000000E+02
4888000000.000000      6.645203000000000E-01      1.396729000000000E+01      3.516388000000000E-01     -1.581953000000000E+02
4889000000.000000      6.669006000000000E-01      1.398145000000000E+01      3.459625000000000E-01     -1.585156000000000E+02
4890000000.000000      6.669312000000000E-01      1.380273000000000E+01      3.419647000000000E-01     -1.593125000000000E+02
4891000000.000000      6.691284000000000E-01      1.367236000000000E+01      3.376617000000000E-01     -1.595781000000000E+02
4892000000.000000      6.707764000000000E-01      1.367236000000000E+01      3.328552000000000E-01     -1.599141000000000E+02
4893000000.000000      6.727295000000000E-01      1.364502000000000E+01      3.302307000000000E-01     -1.603750000000000E+02
4894000000.000000      6.722412000000000E-01      1.352100000000000E+01      3.267059000000000E-01     -1.608281000000000E+02
4895000000.000000      6.746521000000000E-01      1.343066000000000E+01      3.229065000000000E-01     -1.610937000000000E+02
4896000000.000000      6.755066000000000E-01      1.332764000000000E+01      3.178558000000000E-01     -1.615078000000000E+02
4897000000.000000      6.739807000000000E-01      1.332227000000000E+01      3.146973000000000E-01     -1.620234000000000E+02
4898000000.000000      6.770325000000000E-01      1.317383000000000E+01      3.105621000000000E-01     -1.622813000000000E+02
4899000000.000000      6.756592000000000E-01      1.307080000000000E+01      3.067627000000000E-01     -1.627109000000000E+02
4900000000.000000      6.777039000000000E-01      1.289355000000000E+01      3.034210000000000E-01     -1.630781000000000E+02
4901000000.000000      6.778259000000000E-01      1.289795000000000E+01      2.999115000000000E-01     -1.632891000000000E+02
4902000000.000000      6.812439000000000E-01      1.273438000000000E+01      2.965240000000000E-01     -1.636172000000000E+02
4903000000.000000      6.795044000000000E-01      1.283594000000000E+01      2.921295000000000E-01     -1.640000000000000E+02
4904000000.000000      6.801453000000000E-01      1.255176000000000E+01      2.886353000000000E-01     -1.644297000000000E+02
4905000000.000000      6.814270000000000E-01      1.251709000000000E+01      2.859955000000000E-01     -1.647422000000000E+02
4906000000.000000      6.822205000000000E-01      1.222754000000000E+01      2.820587000000000E-01     -1.647734000000000E+02
4907000000.000000      6.842041000000000E-01      1.224658000000000E+01      2.789459000000000E-01     -1.654687000000000E+02
4908000000.000000      6.846313000000000E-01      1.216016000000000E+01      2.747040000000000E-01     -1.657656000000000E+02
4909000000.000000      6.838989000000000E-01      1.202979000000000E+01      2.707977000000000E-01     -1.659297000000000E+02
4910000000.000000      6.838379000000000E-01      1.201465000000000E+01      2.675323000000000E-01     -1.663750000000000E+02
4911000000.000000      6.861572000000000E-01      1.198584000000000E+01      2.648163000000000E-01     -1.665390000000000E+02
4912000000.000000      6.864014000000000E-01      1.179785000000000E+01      2.612610000000000E-01     -1.669219000000000E+02
4913000000.000000      6.876221000000000E-01      1.169873000000000E+01      2.577667000000000E-01     -1.673672000000000E+02
4914000000.000000      6.881714000000000E-01      1.147217000000000E+01      2.539368000000000E-01     -1.676094000000000E+02
4915000000.000000      6.885986000000000E-01      1.145166000000000E+01      2.501831000000000E-01     -1.679688000000000E+02
4916000000.000000      6.889648000000000E-01      1.147217000000000E+01      2.467270000000000E-01     -1.683125000000000E+02
4917000000.000000      6.900024000000000E-01      1.140479000000000E+01      2.433090000000000E-01     -1.685234000000000E+02
4918000000.000000      6.916809000000000E-01      1.127588000000000E+01      2.393723000000000E-01     -1.686719000000000E+02
4919000000.000000      6.877441000000000E-01      1.121387000000000E+01      2.360001000000000E-01     -1.688047000000000E+02
4920000000.000000      6.907349000000000E-01      1.092969000000000E+01      2.320175000000000E-01     -1.694844000000000E+02
4921000000.000000      6.905518000000000E-01      1.099316000000000E+01      2.288361000000000E-01     -1.694609000000000E+02
4922000000.000000      6.918640000000000E-01      1.072656000000000E+01      2.249985000000000E-01     -1.696719000000000E+02
4923000000.000000      6.931458000000000E-01      1.072803000000000E+01      2.210007000000000E-01     -1.699141000000000E+02
4924000000.000000      6.934204000000000E-01      1.062354000000000E+01      2.171021000000000E-01     -1.700703000000000E+02
4925000000.000000      6.926575000000000E-01      1.058936000000000E+01      2.134018000000000E-01     -1.701484000000000E+02
4926000000.000000      6.943359000000000E-01      1.056299000000000E+01      2.100983000000000E-01     -1.704766000000000E+02
4927000000.000000      6.932068000000000E-01      1.030225000000000E+01      2.057495000000000E-01     -1.706016000000000E+02
4928000000.000000      6.953735000000000E-01      1.009326000000000E+01      2.032547000000000E-01     -1.706953000000000E+02
4929000000.000000      6.952209000000000E-01      1.015820000000000E+01      1.978226000000000E-01     -1.707500000000000E+02
4930000000.000000      6.941223000000000E-01      1.011133000000000E+01      1.947250000000000E-01     -1.709531000000000E+02
4931000000.000000      6.955872000000000E-01      9.756836000000000E+00      1.912537000000000E-01     -1.708828000000000E+02
4932000000.000000      6.956482000000000E-01      9.793945000000000E+00      1.873932000000000E-01     -1.708359000000000E+02
4933000000.000000      6.978149000000000E-01      9.750000000000000E+00      1.826324000000000E-01     -1.707578000000000E+02
4934000000.000000      6.992798000000000E-01      9.627930000000000E+00      1.798325000000000E-01     -1.708672000000000E+02
4935000000.000000      6.979370000000000E-01      9.521973000000000E+00      1.760559000000000E-01     -1.706406000000000E+02
4936000000.000000      6.986084000000000E-01      9.368164000000000E+00      1.718979000000000E-01     -1.706328000000000E+02
4937000000.000000      6.997375000000000E-01      9.257324000000000E+00      1.683884000000000E-01     -1.702812000000000E+02
4938000000.000000      6.994629000000000E-01      9.279297000000000E+00      1.646957000000000E-01     -1.699219000000000E+02
4939000000.000000      6.993408000000000E-01      9.181641000000000E+00      1.609039000000000E-01     -1.697891000000000E+02
4940000000.000000      7.000732000000000E-01      9.078613000000000E+00      1.570663000000000E-01     -1.695703000000000E+02
4941000000.000000      7.032471000000000E-01      8.858887000000000E+00      1.539383000000000E-01     -1.690469000000000E+02
4942000000.000000      6.991272000000000E-01      8.937012000000000E+00      1.499634000000000E-01     -1.686484000000000E+02
4943000000.000000      7.018433000000000E-01      8.780762000000000E+00      1.468048000000000E-01     -1.680312000000000E+02
4944000000.000000      7.005005000000000E-01      8.735352000000000E+00      1.427689000000000E-01     -1.674297000000000E+02
4945000000.000000      7.014160000000000E-01      8.571777000000000E+00      1.395798000000000E-01     -1.669062000000000E+02
4946000000.000000      7.046814000000000E-01      8.514160000000000E+00      1.362381000000000E-01     -1.662422000000000E+02
4947000000.000000      7.038879000000000E-01      8.387695000000000E+00      1.336060000000000E-01     -1.652734000000000E+02
4948000000.000000      7.031555000000000E-01      8.236816000000000E+00      1.305847000000000E-01     -1.645781000000000E+02
4949000000.000000      7.017822000000000E-01      8.081543000000000E+00      1.277847000000000E-01     -1.632656000000000E+02
4950000000.000000      7.067261000000000E-01      8.139160000000000E+00      1.243782000000000E-01     -1.623594000000000E+02
4951000000.000000      7.059021000000000E-01      7.984131000000000E+00      1.216965000000000E-01     -1.614375000000000E+02
4952000000.000000      7.050476000000000E-01      7.973145000000000E+00      1.189728000000000E-01     -1.601641000000000E+02
4953000000.000000      7.061157000000000E-01      7.813965000000000E+00      1.170158000000000E-01     -1.586250000000000E+02
4954000000.000000      7.085876000000000E-01      7.614746000000000E+00      1.144791000000000E-01     -1.575234000000000E+02
