! Network Analyzer HP8722D
! Hewlett-Packard
! Data name: Linha & Wilkinson
! Saver's name: Rodrigo Anjos
! Comments: Teste da utilização de aquisição
continua pelo VNA HP8722D
! Time and date: 22/5/2025 12:24
!              Frequency                     S11                                                   S21                                                   S12                                                   S22
# HZ  S  MA R 50
4800000000.000000      6.520386000000000E-01      1.080615000000000E+01      4.712067000000000E-01     -9.261719000000000E+01
4801000000.000000      6.487427000000000E-01      1.081738000000000E+01      4.731903000000000E-01     -9.304688000000000E+01
4802000000.000000      6.477661000000000E-01      1.085840000000000E+01      4.746246000000000E-01     -9.400782000000000E+01
4803000000.000000      6.451416000000000E-01      1.077051000000000E+01      4.778137000000000E-01     -9.478907000000000E+01
4804000000.000000      6.431885000000000E-01      1.078418000000000E+01      4.794617000000000E-01     -9.557812000000000E+01
4805000000.000000      6.434631000000000E-01      1.086523000000000E+01      4.819183000000000E-01     -9.656639000000000E+01
4806000000.000000      6.407166000000000E-01      1.079932000000000E+01      4.825134000000000E-01     -9.719530000000000E+01
4807000000.000000      6.381531000000000E-01      1.076514000000000E+01      4.821625000000000E-01     -9.789452000000000E+01
4808000000.000000      6.364136000000000E-01      1.073877000000000E+01      4.845734000000000E-01     -9.863670000000000E+01
4809000000.000000      6.342163000000000E-01      1.080762000000000E+01      4.860840000000000E-01     -9.948046000000000E+01
4810000000.000000      6.347046000000000E-01      1.077344000000000E+01      4.885712000000000E-01     -1.000312000000000E+02
4811000000.000000      6.338806000000000E-01      1.093945000000000E+01      4.900665000000000E-01     -1.010430000000000E+02
4812000000.000000      6.326294000000000E-01      1.103955000000000E+01      4.899292000000000E-01     -1.015547000000000E+02
4813000000.000000      6.318970000000000E-01      1.114795000000000E+01      4.915924000000000E-01     -1.025625000000000E+02
4814000000.000000      6.283875000000000E-01      1.096289000000000E+01      4.922180000000000E-01     -1.031523000000000E+02
4815000000.000000      6.271973000000000E-01      1.133496000000000E+01      4.925690000000000E-01     -1.038437000000000E+02
4816000000.000000      6.262207000000000E-01      1.137061000000000E+01      4.948425000000000E-01     -1.046250000000000E+02
4817000000.000000      6.246033000000000E-01      1.137207000000000E+01      4.936829000000000E-01     -1.053789000000000E+02
4818000000.000000      6.235962000000000E-01      1.128125000000000E+01      4.937592000000000E-01     -1.061406000000000E+02
4819000000.000000      6.232605000000000E-01      1.147217000000000E+01      4.962158000000000E-01     -1.069727000000000E+02
4820000000.000000      6.202698000000000E-01      1.146387000000000E+01      4.964600000000000E-01     -1.075625000000000E+02
4821000000.000000      6.208191000000000E-01      1.166602000000000E+01      4.971619000000000E-01     -1.084727000000000E+02
4822000000.000000      6.184692000000000E-01      1.172510000000000E+01      4.949493000000000E-01     -1.092695000000000E+02
4823000000.000000      6.187134000000000E-01      1.172363000000000E+01      4.980164000000000E-01     -1.099805000000000E+02
4824000000.000000      6.173401000000000E-01      1.197607000000000E+01      4.982758000000000E-01     -1.108047000000000E+02
4825000000.000000      6.175232000000000E-01      1.209180000000000E+01      4.986572000000000E-01     -1.111875000000000E+02
4826000000.000000      6.170044000000000E-01      1.209570000000000E+01      4.995575000000000E-01     -1.123164000000000E+02
4827000000.000000      6.150818000000000E-01      1.217139000000000E+01      4.991150000000000E-01     -1.128320000000000E+02
4828000000.000000      6.169128000000000E-01      1.229199000000000E+01      4.986267000000000E-01     -1.137031000000000E+02
4829000000.000000      6.155090000000000E-01      1.269873000000000E+01      4.996338000000000E-01     -1.144258000000000E+02
4830000000.000000      6.159668000000000E-01      1.251465000000000E+01      4.996185000000000E-01     -1.152422000000000E+02
4831000000.000000      6.155090000000000E-01      1.278516000000000E+01      4.998474000000000E-01     -1.160195000000000E+02
4832000000.000000      6.137390000000000E-01      1.285498000000000E+01      4.990234000000000E-01     -1.166133000000000E+02
4833000000.000000      6.122742000000000E-01      1.287695000000000E+01      4.992065000000000E-01     -1.174023000000000E+02
4834000000.000000      6.126709000000000E-01      1.289648000000000E+01      4.985809000000000E-01     -1.183086000000000E+02
4835000000.000000      6.149292000000000E-01      1.311328000000000E+01      4.991302000000000E-01     -1.189258000000000E+02
4836000000.000000      6.135559000000000E-01      1.330127000000000E+01      4.977112000000000E-01     -1.197500000000000E+02
4837000000.000000      6.138306000000000E-01      1.340039000000000E+01      4.976044000000000E-01     -1.205664000000000E+02
4838000000.000000      6.137695000000000E-01      1.351318000000000E+01      4.975586000000000E-01     -1.211875000000000E+02
4839000000.000000      6.163635000000000E-01      1.371484000000000E+01      4.965973000000000E-01     -1.221328000000000E+02
4840000000.000000      6.162720000000000E-01      1.360645000000000E+01      4.976654000000000E-01     -1.229844000000000E+02
4841000000.000000      6.168518000000000E-01      1.398828000000000E+01      4.976349000000000E-01     -1.238125000000000E+02
4842000000.000000      6.155396000000000E-01      1.381494000000000E+01      4.962158000000000E-01     -1.245351000000000E+02
4843000000.000000      6.174927000000000E-01      1.388770000000000E+01      4.972076000000000E-01     -1.254297000000000E+02
4844000000.000000      6.183472000000000E-01      1.393848000000000E+01      4.940033000000000E-01     -1.261641000000000E+02
4845000000.000000      6.183777000000000E-01      1.420361000000000E+01      4.918365000000000E-01     -1.268516000000000E+02
4846000000.000000      6.197205000000000E-01      1.424072000000000E+01      4.911804000000000E-01     -1.278633000000000E+02
4847000000.000000      6.194763000000000E-01      1.428467000000000E+01      4.906006000000000E-01     -1.286719000000000E+02
4848000000.000000      6.200562000000000E-01      1.431494000000000E+01      4.882050000000000E-01     -1.294297000000000E+02
4849000000.000000      6.210632000000000E-01      1.451660000000000E+01      4.886017000000000E-01     -1.303906000000000E+02
4850000000.000000      6.230774000000000E-01      1.450439000000000E+01      4.857483000000000E-01     -1.312031000000000E+02
4851000000.000000      6.228333000000000E-01      1.461719000000000E+01      4.855194000000000E-01     -1.320469000000000E+02
4852000000.000000      6.236877000000000E-01      1.472949000000000E+01      4.837799000000000E-01     -1.328594000000000E+02
4853000000.000000      6.253357000000000E-01      1.462109000000000E+01      4.807129000000000E-01     -1.337031000000000E+02
4854000000.000000      6.261902000000000E-01      1.485059000000000E+01      4.785004000000000E-01     -1.345547000000000E+02
4855000000.000000      6.261597000000000E-01      1.458691000000000E+01      4.748688000000000E-01     -1.354922000000000E+02
4856000000.000000      6.269836000000000E-01      1.484521000000000E+01      4.736481000000000E-01     -1.363437000000000E+02
4857000000.000000      6.295776000000000E-01      1.488330000000000E+01      4.731140000000000E-01     -1.371875000000000E+02
4858000000.000000      6.300049000000000E-01      1.504688000000000E+01      4.684906000000000E-01     -1.379922000000000E+02
4859000000.000000      6.312256000000000E-01      1.490430000000000E+01      4.665680000000000E-01     -1.389141000000000E+02
4860000000.000000      6.329651000000000E-01      1.486133000000000E+01      4.635468000000000E-01     -1.396563000000000E+02
4861000000.000000      6.340332000000000E-01      1.497803000000000E+01      4.598236000000000E-01     -1.406875000000000E+02
4862000000.000000      6.345215000000000E-01      1.493164000000000E+01      4.568024000000000E-01     -1.412891000000000E+02
4863000000.000000      6.366882000000000E-01      1.482715000000000E+01      4.532928000000000E-01     -1.422969000000000E+02
4864000000.000000      6.377869000000000E-01      1.497705000000000E+01      4.508514000000000E-01     -1.428359000000000E+02
4865000000.000000      6.377258000000000E-01      1.496875000000000E+01      4.457703000000000E-01     -1.438203000000000E+02
4866000000.000000      6.399231000000000E-01      1.485449000000000E+01      4.408417000000000E-01     -1.445937000000000E+02
4867000000.000000      6.398926000000000E-01      1.480957000000000E+01      4.396973000000000E-01     -1.454922000000000E+02
4868000000.000000      6.418762000000000E-01      1.477100000000000E+01      4.343567000000000E-01     -1.462812000000000E+02
4869000000.000000      6.437683000000000E-01      1.469238000000000E+01      4.308624000000000E-01     -1.471328000000000E+02
4870000000.000000      6.443481000000000E-01      1.482031000000000E+01      4.267273000000000E-01     -1.474297000000000E+02
4871000000.000000      6.447449000000000E-01      1.478467000000000E+01      4.221191000000000E-01     -1.485078000000000E+02
4872000000.000000      6.500244000000000E-01      1.476270000000000E+01      4.178009000000000E-01     -1.489687000000000E+02
4873000000.000000      6.484070000000000E-01      1.482568000000000E+01      4.143524000000000E-01     -1.499844000000000E+02
4874000000.000000      6.486206000000000E-01      1.465283000000000E+01      4.092407000000000E-01     -1.505156000000000E+02
4875000000.000000      6.535034000000000E-01      1.456055000000000E+01      4.036865000000000E-01     -1.510625000000000E+02
4876000000.000000      6.539612000000000E-01      1.470508000000000E+01      4.005280000000000E-01     -1.517656000000000E+02
4877000000.000000      6.554565000000000E-01      1.460205000000000E+01      3.963470000000000E-01     -1.525312000000000E+02
4878000000.000000      6.531372000000000E-01      1.453320000000000E+01      3.906860000000000E-01     -1.532812000000000E+02
4879000000.000000      6.560974000000000E-01      1.466113000000000E+01      3.872681000000000E-01     -1.536562000000000E+02
4880000000.000000      6.587524000000000E-01      1.442090000000000E+01      3.841248000000000E-01     -1.542734000000000E+02
4881000000.000000      6.587219000000000E-01      1.429297000000000E+01      3.789368000000000E-01     -1.548125000000000E+02
4882000000.000000      6.619568000000000E-01      1.437402000000000E+01      3.755341000000000E-01     -1.554609000000000E+02
4883000000.000000      6.608276000000000E-01      1.415137000000000E+01      3.695374000000000E-01     -1.559844000000000E+02
4884000000.000000      6.638489000000000E-01      1.417090000000000E+01      3.670959000000000E-01     -1.564531000000000E+02
4885000000.000000      6.629028000000000E-01      1.412402000000000E+01      3.610535000000000E-01     -1.568125000000000E+02
4886000000.000000      6.643066000000000E-01      1.399658000000000E+01      3.565674000000000E-01     -1.572969000000000E+02
4887000000.000000      6.651611000000000E-01      1.403760000000000E+01      3.528595000000000E-01     -1.578594000000000E+02
4888000000.000000      6.679993000000000E-01      1.386865000000000E+01      3.487396000000000E-01     -1.586328000000000E+02
4889000000.000000      6.658020000000000E-01      1.391260000000000E+01      3.448639000000000E-01     -1.587812000000000E+02
4890000000.000000      6.670837000000000E-01      1.371777000000000E+01      3.388519000000000E-01     -1.596797000000000E+02
4891000000.000000      6.705627000000000E-01      1.351563000000000E+01      3.355713000000000E-01     -1.599688000000000E+02
4892000000.000000      6.692505000000000E-01      1.346338000000000E+01      3.312073000000000E-01     -1.601172000000000E+02
4893000000.000000      6.720581000000000E-01      1.352246000000000E+01      3.267822000000000E-01     -1.607344000000000E+02
4894000000.000000      6.723328000000000E-01      1.338916000000000E+01      3.241425000000000E-01     -1.609453000000000E+02
4895000000.000000      6.761475000000000E-01      1.323291000000000E+01      3.207855000000000E-01     -1.612656000000000E+02
4896000000.000000      6.749878000000000E-01      1.324121000000000E+01      3.165588000000000E-01     -1.618984000000000E+02
4897000000.000000      6.755066000000000E-01      1.311621000000000E+01      3.120117000000000E-01     -1.621797000000000E+02
4898000000.000000      6.751404000000000E-01      1.323975000000000E+01      3.089447000000000E-01     -1.624687000000000E+02
4899000000.000000      6.764526000000000E-01      1.290332000000000E+01      3.042908000000000E-01     -1.630078000000000E+02
4900000000.000000      6.777954000000000E-01      1.278906000000000E+01      3.009491000000000E-01     -1.631406000000000E+02
4901000000.000000      6.806641000000000E-01      1.284570000000000E+01      2.973022000000000E-01     -1.635234000000000E+02
4902000000.000000      6.811523000000000E-01      1.270801000000000E+01      2.948456000000000E-01     -1.637187000000000E+02
4903000000.000000      6.812744000000000E-01      1.263135000000000E+01      2.895508000000000E-01     -1.642812000000000E+02
4904000000.000000      6.808167000000000E-01      1.239502000000000E+01      2.862244000000000E-01     -1.646641000000000E+02
4905000000.000000      6.806641000000000E-01      1.236621000000000E+01      2.838440000000000E-01     -1.649531000000000E+02
4906000000.000000      6.824951000000000E-01      1.214648000000000E+01      2.794647000000000E-01     -1.650312000000000E+02
4907000000.000000      6.837158000000000E-01      1.227979000000000E+01      2.765503000000000E-01     -1.655703000000000E+02
4908000000.000000      6.828308000000000E-01      1.200635000000000E+01      2.736664000000000E-01     -1.659141000000000E+02
4909000000.000000      6.827393000000000E-01      1.200098000000000E+01      2.688446000000000E-01     -1.663047000000000E+02
4910000000.000000      6.844788000000000E-01      1.179492000000000E+01      2.660370000000000E-01     -1.665390000000000E+02
4911000000.000000      6.868591000000000E-01      1.175928000000000E+01      2.621155000000000E-01     -1.667344000000000E+02
4912000000.000000      6.874390000000000E-01      1.164404000000000E+01      2.589417000000000E-01     -1.671406000000000E+02
4913000000.000000      6.882629000000000E-01      1.152979000000000E+01      2.553406000000000E-01     -1.673281000000000E+02
4914000000.000000      6.875916000000000E-01      1.138965000000000E+01      2.513428000000000E-01     -1.676016000000000E+02
4915000000.000000      6.880188000000000E-01      1.152295000000000E+01      2.483826000000000E-01     -1.679922000000000E+02
4916000000.000000      6.885071000000000E-01      1.118262000000000E+01      2.444382000000000E-01     -1.684609000000000E+02
4917000000.000000      6.905212000000000E-01      1.118115000000000E+01      2.409668000000000E-01     -1.685859000000000E+02
4918000000.000000      6.913757000000000E-01      1.117139000000000E+01      2.367249000000000E-01     -1.688594000000000E+02
4919000000.000000      6.902466000000000E-01      1.108789000000000E+01      2.339783000000000E-01     -1.689531000000000E+02
4920000000.000000      6.919861000000000E-01      1.084326000000000E+01      2.293930000000000E-01     -1.695234000000000E+02
4921000000.000000      6.907349000000000E-01      1.090625000000000E+01      2.269287000000000E-01     -1.694766000000000E+02
4922000000.000000      6.917114000000000E-01      1.081738000000000E+01      2.227478000000000E-01     -1.696250000000000E+02
4923000000.000000      6.923218000000000E-01      1.064844000000000E+01      2.186508000000000E-01     -1.697109000000000E+02
4924000000.000000      6.918030000000000E-01      1.066602000000000E+01      2.147446000000000E-01     -1.701953000000000E+02
4925000000.000000      6.915894000000000E-01      1.051514000000000E+01      2.108841000000000E-01     -1.702266000000000E+02
4926000000.000000      6.938477000000000E-01      1.021289000000000E+01      2.077789000000000E-01     -1.704375000000000E+02
4927000000.000000      6.934814000000000E-01      1.022656000000000E+01      2.035828000000000E-01     -1.706172000000000E+02
4928000000.000000      6.961975000000000E-01      9.997559000000000E+00      2.008896000000000E-01     -1.705078000000000E+02
4929000000.000000      6.944885000000000E-01      1.022949000000000E+01      1.961288000000000E-01     -1.707031000000000E+02
4930000000.000000      6.971436000000000E-01      9.876465000000000E+00      1.924362000000000E-01     -1.708594000000000E+02
4931000000.000000      6.964722000000000E-01      9.884766000000000E+00      1.897202000000000E-01     -1.707344000000000E+02
4932000000.000000      6.959229000000000E-01      9.777832000000000E+00      1.853256000000000E-01     -1.708828000000000E+02
4933000000.000000      6.965332000000000E-01      9.651367000000000E+00      1.808090000000000E-01     -1.706484000000000E+02
4934000000.000000      6.968689000000000E-01      9.492188000000000E+00      1.773376000000000E-01     -1.707422000000000E+02
4935000000.000000      6.986084000000000E-01      9.431641000000000E+00      1.739807000000000E-01     -1.702891000000000E+02
4936000000.000000      6.961060000000000E-01      9.331055000000000E+00      1.697693000000000E-01     -1.703906000000000E+02
4937000000.000000      6.981506000000000E-01      9.265137000000000E+00      1.664505000000000E-01     -1.702812000000000E+02
4938000000.000000      6.981506000000000E-01      9.211914000000000E+00      1.626434000000000E-01     -1.697969000000000E+02
4939000000.000000      6.996765000000000E-01      9.199219000000000E+00      1.588898000000000E-01     -1.693672000000000E+02
4940000000.000000      7.011719000000000E-01      9.067383000000000E+00      1.553116000000000E-01     -1.695234000000000E+02
4941000000.000000      7.005920000000000E-01      8.706543000000000E+00      1.518784000000000E-01     -1.687422000000000E+02
4942000000.000000      7.005920000000000E-01      8.833008000000000E+00      1.483307000000000E-01     -1.681406000000000E+02
4943000000.000000      7.014160000000000E-01      8.649902000000000E+00      1.454849000000000E-01     -1.676094000000000E+02
4944000000.000000      7.015076000000000E-01      8.598145000000000E+00      1.414413000000000E-01     -1.671484000000000E+02
4945000000.000000      7.021790000000000E-01      8.482422000000000E+00      1.385803000000000E-01     -1.663437000000000E+02
4946000000.000000      7.044983000000000E-01      8.311035000000000E+00      1.353073000000000E-01     -1.656719000000000E+02
4947000000.000000      7.030334000000000E-01      8.113281000000000E+00      1.315689000000000E-01     -1.647812000000000E+02
4948000000.000000      7.031860000000000E-01      8.309570000000000E+00      1.289978000000000E-01     -1.636172000000000E+02
4949000000.000000      7.049255000000000E-01      8.106445000000000E+00      1.260223000000000E-01     -1.626641000000000E+02
4950000000.000000      7.058716000000000E-01      8.054199000000000E+00      1.235962000000000E-01     -1.615547000000000E+02
4951000000.000000      7.060242000000000E-01      7.882568000000000E+00      1.206322000000000E-01     -1.607812000000000E+02
4952000000.000000      7.043762000000000E-01      7.763184000000000E+00      1.180611000000000E-01     -1.593984000000000E+02
4953000000.000000      7.077637000000000E-01      7.727295000000000E+00      1.159821000000000E-01     -1.581406000000000E+02
4954000000.000000      7.088623000000000E-01      7.579102000000000E+00      1.135788000000000E-01     -1.564687000000000E+02
