! Network Analyzer HP8722D
! Hewlett-Packard
! Data name: Linha & Wilkinson
! Saver's name: Rodrigo Anjos
! Comments: Teste da utilização de aquisição
continua pelo VNA HP8722D
! Time and date: 22/5/2025 08:59
!              Frequency                     S11                                                   S21                                                   S12                                                   S22
# HZ  S  MA R 50
4800000000.000000      6.459351000000000E-01      1.031738000000000E+01      4.750214000000000E-01     -9.368359000000000E+01
4801000000.000000      6.450195000000000E-01      1.034766000000000E+01      4.756470000000000E-01     -9.441797000000000E+01
4802000000.000000      6.436462000000000E-01      1.035449000000000E+01      4.783020000000000E-01     -9.515234000000000E+01
4803000000.000000      6.415710000000000E-01      1.030225000000000E+01      4.815369000000000E-01     -9.595312000000000E+01
4804000000.000000      6.389465000000000E-01      1.033252000000000E+01      4.828949000000000E-01     -9.664063000000000E+01
4805000000.000000      6.410217000000000E-01      1.035693000000000E+01      4.838867000000000E-01     -9.751953000000000E+01
4806000000.000000      6.369934000000000E-01      1.034912000000000E+01      4.863586000000000E-01     -9.816795000000000E+01
4807000000.000000      6.340942000000000E-01      1.016357000000000E+01      4.857483000000000E-01     -9.917187000000000E+01
4808000000.000000      6.328430000000000E-01      1.037207000000000E+01      4.866028000000000E-01     -9.975780000000000E+01
4809000000.000000      6.320496000000000E-01      1.043408000000000E+01      4.899445000000000E-01     -1.006680000000000E+02
4810000000.000000      6.304626000000000E-01      1.046582000000000E+01      4.910278000000000E-01     -1.013242000000000E+02
4811000000.000000      6.289063000000000E-01      1.048096000000000E+01      4.923401000000000E-01     -1.021172000000000E+02
4812000000.000000      6.302795000000000E-01      1.061670000000000E+01      4.924316000000000E-01     -1.028359000000000E+02
4813000000.000000      6.266174000000000E-01      1.070459000000000E+01      4.929047000000000E-01     -1.035078000000000E+02
4814000000.000000      6.250916000000000E-01      1.065674000000000E+01      4.941559000000000E-01     -1.042305000000000E+02
4815000000.000000      6.241455000000000E-01      1.074170000000000E+01      4.939117000000000E-01     -1.050430000000000E+02
4816000000.000000      6.235962000000000E-01      1.065381000000000E+01      4.976044000000000E-01     -1.059258000000000E+02
4817000000.000000      6.210327000000000E-01      1.085840000000000E+01      4.959717000000000E-01     -1.066640000000000E+02
4818000000.000000      6.193848000000000E-01      1.093945000000000E+01      4.966736000000000E-01     -1.073398000000000E+02
4819000000.000000      6.203003000000000E-01      1.110156000000000E+01      4.968414000000000E-01     -1.081836000000000E+02
4820000000.000000      6.182556000000000E-01      1.116211000000000E+01      4.980621000000000E-01     -1.088828000000000E+02
4821000000.000000      6.176758000000000E-01      1.116895000000000E+01      4.983673000000000E-01     -1.097500000000000E+02
4822000000.000000      6.171570000000000E-01      1.113867000000000E+01      4.972229000000000E-01     -1.104258000000000E+02
4823000000.000000      6.153259000000000E-01      1.134570000000000E+01      4.996033000000000E-01     -1.112031000000000E+02
4824000000.000000      6.138916000000000E-01      1.152979000000000E+01      4.984589000000000E-01     -1.119297000000000E+02
4825000000.000000      6.149902000000000E-01      1.163037000000000E+01      4.970703000000000E-01     -1.127422000000000E+02
4826000000.000000      6.140137000000000E-01      1.150781000000000E+01      4.998627000000000E-01     -1.135781000000000E+02
4827000000.000000      6.135254000000000E-01      1.155176000000000E+01      4.991608000000000E-01     -1.139453000000000E+02
4828000000.000000      6.121216000000000E-01      1.190088000000000E+01      5.002136000000000E-01     -1.147812000000000E+02
4829000000.000000      6.133728000000000E-01      1.208887000000000E+01      5.017700000000000E-01     -1.155898000000000E+02
4830000000.000000      6.118469000000000E-01      1.200635000000000E+01      4.995422000000000E-01     -1.164258000000000E+02
4831000000.000000      6.104126000000000E-01      1.231934000000000E+01      5.002747000000000E-01     -1.171562000000000E+02
4832000000.000000      6.119385000000000E-01      1.248975000000000E+01      4.999237000000000E-01     -1.178086000000000E+02
4833000000.000000      6.108093000000000E-01      1.250342000000000E+01      4.995728000000000E-01     -1.184180000000000E+02
4834000000.000000      6.108398000000000E-01      1.264893000000000E+01      5.005798000000000E-01     -1.194219000000000E+02
4835000000.000000      6.133728000000000E-01      1.267920000000000E+01      5.003967000000000E-01     -1.203516000000000E+02
4836000000.000000      6.128540000000000E-01      1.279492000000000E+01      4.977722000000000E-01     -1.209766000000000E+02
4837000000.000000      6.121826000000000E-01      1.306787000000000E+01      4.962158000000000E-01     -1.219023000000000E+02
4838000000.000000      6.111755000000000E-01      1.299512000000000E+01      4.985352000000000E-01     -1.224062000000000E+02
4839000000.000000      6.158752000000000E-01      1.325879000000000E+01      4.978943000000000E-01     -1.232969000000000E+02
4840000000.000000      6.153564000000000E-01      1.303369000000000E+01      4.976349000000000E-01     -1.241797000000000E+02
4841000000.000000      6.150818000000000E-01      1.333154000000000E+01      4.960175000000000E-01     -1.250117000000000E+02
4842000000.000000      6.156616000000000E-01      1.346484000000000E+01      4.965668000000000E-01     -1.257070000000000E+02
4843000000.000000      6.186829000000000E-01      1.341260000000000E+01      4.953308000000000E-01     -1.267578000000000E+02
4844000000.000000      6.159973000000000E-01      1.356494000000000E+01      4.930725000000000E-01     -1.275195000000000E+02
4845000000.000000      6.152344000000000E-01      1.382617000000000E+01      4.920044000000000E-01     -1.282031000000000E+02
4846000000.000000      6.195374000000000E-01      1.381787000000000E+01      4.915619000000000E-01     -1.289844000000000E+02
4847000000.000000      6.197205000000000E-01      1.386328000000000E+01      4.917297000000000E-01     -1.296953000000000E+02
4848000000.000000      6.189270000000000E-01      1.388232000000000E+01      4.868164000000000E-01     -1.306562000000000E+02
4849000000.000000      6.202698000000000E-01      1.387158000000000E+01      4.866180000000000E-01     -1.316797000000000E+02
4850000000.000000      6.214905000000000E-01      1.397461000000000E+01      4.850922000000000E-01     -1.323359000000000E+02
4851000000.000000      6.214905000000000E-01      1.419141000000000E+01      4.825897000000000E-01     -1.333672000000000E+02
4852000000.000000      6.238403000000000E-01      1.417090000000000E+01      4.812317000000000E-01     -1.340469000000000E+02
4853000000.000000      6.246643000000000E-01      1.423242000000000E+01      4.775848000000000E-01     -1.349062000000000E+02
4854000000.000000      6.253662000000000E-01      1.436279000000000E+01      4.770966000000000E-01     -1.358516000000000E+02
4855000000.000000      6.265564000000000E-01      1.432178000000000E+01      4.743195000000000E-01     -1.368047000000000E+02
4856000000.000000      6.282043000000000E-01      1.426270000000000E+01      4.709015000000000E-01     -1.375859000000000E+02
4857000000.000000      6.291809000000000E-01      1.427637000000000E+01      4.698792000000000E-01     -1.383047000000000E+02
4858000000.000000      6.301575000000000E-01      1.430957000000000E+01      4.667664000000000E-01     -1.392578000000000E+02
4859000000.000000      6.319885000000000E-01      1.427490000000000E+01      4.638824000000000E-01     -1.400469000000000E+02
4860000000.000000      6.311951000000000E-01      1.441943000000000E+01      4.605255000000000E-01     -1.408203000000000E+02
4861000000.000000      6.316833000000000E-01      1.447705000000000E+01      4.562225000000000E-01     -1.419141000000000E+02
4862000000.000000      6.335754000000000E-01      1.439893000000000E+01      4.545441000000000E-01     -1.423437000000000E+02
4863000000.000000      6.355286000000000E-01      1.442480000000000E+01      4.498749000000000E-01     -1.434062000000000E+02
4864000000.000000      6.362915000000000E-01      1.447998000000000E+01      4.459839000000000E-01     -1.442578000000000E+02
4865000000.000000      6.375732000000000E-01      1.447168000000000E+01      4.425507000000000E-01     -1.447578000000000E+02
4866000000.000000      6.402588000000000E-01      1.445361000000000E+01      4.378052000000000E-01     -1.456094000000000E+02
4867000000.000000      6.383057000000000E-01      1.438623000000000E+01      4.341278000000000E-01     -1.466094000000000E+02
4868000000.000000      6.416626000000000E-01      1.434521000000000E+01      4.312439000000000E-01     -1.473828000000000E+02
4869000000.000000      6.432190000000000E-01      1.436279000000000E+01      4.271240000000000E-01     -1.480781000000000E+02
4870000000.000000      6.438904000000000E-01      1.424609000000000E+01      4.228210000000000E-01     -1.486562000000000E+02
4871000000.000000      6.452026000000000E-01      1.426807000000000E+01      4.185333000000000E-01     -1.495937000000000E+02
4872000000.000000      6.475525000000000E-01      1.408984000000000E+01      4.141388000000000E-01     -1.501016000000000E+02
4873000000.000000      6.494446000000000E-01      1.425879000000000E+01      4.094849000000000E-01     -1.509297000000000E+02
4874000000.000000      6.513367000000000E-01      1.426709000000000E+01      4.064331000000000E-01     -1.515547000000000E+02
4875000000.000000      6.507568000000000E-01      1.410059000000000E+01      3.996887000000000E-01     -1.522734000000000E+02
4876000000.000000      6.537170000000000E-01      1.425293000000000E+01      3.964081000000000E-01     -1.527734000000000E+02
4877000000.000000      6.547546000000000E-01      1.400732000000000E+01      3.918457000000000E-01     -1.533594000000000E+02
4878000000.000000      6.530151000000000E-01      1.394531000000000E+01      3.879852000000000E-01     -1.540156000000000E+02
4879000000.000000      6.587219000000000E-01      1.386475000000000E+01      3.827820000000000E-01     -1.546406000000000E+02
4880000000.000000      6.585388000000000E-01      1.391260000000000E+01      3.792877000000000E-01     -1.552187000000000E+02
4881000000.000000      6.567383000000000E-01      1.385889000000000E+01      3.745422000000000E-01     -1.556953000000000E+02
4882000000.000000      6.612854000000000E-01      1.372314000000000E+01      3.710938000000000E-01     -1.562969000000000E+02
4883000000.000000      6.599426000000000E-01      1.365039000000000E+01      3.649902000000000E-01     -1.567891000000000E+02
4884000000.000000      6.624451000000000E-01      1.363672000000000E+01      3.620453000000000E-01     -1.572813000000000E+02
4885000000.000000      6.617737000000000E-01      1.354443000000000E+01      3.567657000000000E-01     -1.576953000000000E+02
4886000000.000000      6.644897000000000E-01      1.348535000000000E+01      3.540344000000000E-01     -1.582344000000000E+02
4887000000.000000      6.659851000000000E-01      1.353076000000000E+01      3.477478000000000E-01     -1.587422000000000E+02
4888000000.000000      6.642761000000000E-01      1.323291000000000E+01      3.460236000000000E-01     -1.592422000000000E+02
4889000000.000000      6.680603000000000E-01      1.333154000000000E+01      3.406982000000000E-01     -1.596797000000000E+02
4890000000.000000      6.672363000000000E-01      1.318457000000000E+01      3.354492000000000E-01     -1.605000000000000E+02
4891000000.000000      6.697693000000000E-01      1.311475000000000E+01      3.320923000000000E-01     -1.605781000000000E+02
4892000000.000000      6.725159000000000E-01      1.302246000000000E+01      3.282928000000000E-01     -1.609219000000000E+02
4893000000.000000      6.716309000000000E-01      1.290332000000000E+01      3.231812000000000E-01     -1.612578000000000E+02
4894000000.000000      6.726990000000000E-01      1.279199000000000E+01      3.200836000000000E-01     -1.617969000000000E+02
4895000000.000000      6.720581000000000E-01      1.269434000000000E+01      3.175964000000000E-01     -1.620547000000000E+02
4896000000.000000      6.756897000000000E-01      1.262012000000000E+01      3.124695000000000E-01     -1.624922000000000E+02
4897000000.000000      6.760559000000000E-01      1.271631000000000E+01      3.092346000000000E-01     -1.628828000000000E+02
4898000000.000000      6.753235000000000E-01      1.238135000000000E+01      3.046570000000000E-01     -1.630547000000000E+02
4899000000.000000      6.757813000000000E-01      1.244434000000000E+01      3.015442000000000E-01     -1.635703000000000E+02
4900000000.000000      6.800842000000000E-01      1.219482000000000E+01      2.973480000000000E-01     -1.637422000000000E+02
4901000000.000000      6.785583000000000E-01      1.227148000000000E+01      2.940521000000000E-01     -1.642266000000000E+02
4902000000.000000      6.785583000000000E-01      1.197607000000000E+01      2.910767000000000E-01     -1.643594000000000E+02
4903000000.000000      6.812744000000000E-01      1.195557000000000E+01      2.864990000000000E-01     -1.647812000000000E+02
4904000000.000000      6.822815000000000E-01      1.187305000000000E+01      2.830505000000000E-01     -1.651797000000000E+02
4905000000.000000      6.813049000000000E-01      1.180859000000000E+01      2.799835000000000E-01     -1.654453000000000E+02
4906000000.000000      6.810608000000000E-01      1.154785000000000E+01      2.763062000000000E-01     -1.654922000000000E+02
4907000000.000000      6.835022000000000E-01      1.148877000000000E+01      2.732544000000000E-01     -1.660781000000000E+02
4908000000.000000      6.840210000000000E-01      1.138281000000000E+01      2.700043000000000E-01     -1.664609000000000E+02
4909000000.000000      6.824951000000000E-01      1.131152000000000E+01      2.655945000000000E-01     -1.667500000000000E+02
4910000000.000000      6.835022000000000E-01      1.126611000000000E+01      2.623291000000000E-01     -1.670781000000000E+02
4911000000.000000      6.870728000000000E-01      1.120459000000000E+01      2.590179000000000E-01     -1.672266000000000E+02
4912000000.000000      6.848755000000000E-01      1.124170000000000E+01      2.551117000000000E-01     -1.676641000000000E+02
4913000000.000000      6.883545000000000E-01      1.079248000000000E+01      2.528381000000000E-01     -1.679688000000000E+02
4914000000.000000      6.875610000000000E-01      1.086230000000000E+01      2.479248000000000E-01     -1.680547000000000E+02
4915000000.000000      6.893921000000000E-01      1.082666000000000E+01      2.445526000000000E-01     -1.684766000000000E+02
4916000000.000000      6.882324000000000E-01      1.052344000000000E+01      2.411804000000000E-01     -1.687656000000000E+02
4917000000.000000      6.882935000000000E-01      1.065088000000000E+01      2.380219000000000E-01     -1.688906000000000E+02
4918000000.000000      6.902161000000000E-01      1.042285000000000E+01      2.336960000000000E-01     -1.692188000000000E+02
4919000000.000000      6.889038000000000E-01      1.051514000000000E+01      2.312241000000000E-01     -1.693594000000000E+02
4920000000.000000      6.893921000000000E-01      1.026221000000000E+01      2.268677000000000E-01     -1.697891000000000E+02
4921000000.000000      6.904297000000000E-01      1.024609000000000E+01      2.233505000000000E-01     -1.697969000000000E+02
4922000000.000000      6.929321000000000E-01      1.020459000000000E+01      2.195053000000000E-01     -1.699375000000000E+02
4923000000.000000      6.915283000000000E-01      1.005762000000000E+01      2.154465000000000E-01     -1.701953000000000E+02
4924000000.000000      6.919556000000000E-01      9.987793000000000E+00      2.118149000000000E-01     -1.703203000000000E+02
4925000000.000000      6.906738000000000E-01      9.937012000000000E+00      2.085342000000000E-01     -1.706328000000000E+02
4926000000.000000      6.919250000000000E-01      9.703613000000000E+00      2.045898000000000E-01     -1.706563000000000E+02
4927000000.000000      6.938171000000000E-01      9.456055000000000E+00      2.006454000000000E-01     -1.706953000000000E+02
4928000000.000000      6.961060000000000E-01      9.443848000000000E+00      1.972122000000000E-01     -1.709141000000000E+02
4929000000.000000      6.932983000000000E-01      9.405273000000000E+00      1.929092000000000E-01     -1.706563000000000E+02
4930000000.000000      6.951294000000000E-01      9.352051000000000E+00      1.899490000000000E-01     -1.708359000000000E+02
4931000000.000000      6.948853000000000E-01      9.195313000000000E+00      1.866837000000000E-01     -1.707500000000000E+02
4932000000.000000      6.947327000000000E-01      9.141602000000000E+00      1.822128000000000E-01     -1.707109000000000E+02
4933000000.000000      6.962585000000000E-01      8.977051000000000E+00      1.773987000000000E-01     -1.705547000000000E+02
4934000000.000000      6.978455000000000E-01      8.971680000000000E+00      1.745224000000000E-01     -1.705000000000000E+02
4935000000.000000      6.980896000000000E-01      8.875488000000000E+00      1.714554000000000E-01     -1.701562000000000E+02
4936000000.000000      6.965637000000000E-01      8.761230000000000E+00      1.671982000000000E-01     -1.701094000000000E+02
4937000000.000000      6.979370000000000E-01      8.632324000000000E+00      1.635971000000000E-01     -1.698437000000000E+02
4938000000.000000      6.989746000000000E-01      8.589844000000000E+00      1.598740000000000E-01     -1.694219000000000E+02
4939000000.000000      6.993713000000000E-01      8.556641000000000E+00      1.561584000000000E-01     -1.690703000000000E+02
4940000000.000000      6.993713000000000E-01      8.407227000000000E+00      1.524124000000000E-01     -1.687969000000000E+02
4941000000.000000      7.014465000000000E-01      8.333008000000000E+00      1.494675000000000E-01     -1.679609000000000E+02
4942000000.000000      6.991882000000000E-01      8.232422000000000E+00      1.457062000000000E-01     -1.676563000000000E+02
4943000000.000000      7.012024000000000E-01      8.214844000000000E+00      1.428299000000000E-01     -1.670469000000000E+02
4944000000.000000      7.020264000000000E-01      7.963623000000000E+00      1.394119000000000E-01     -1.661953000000000E+02
4945000000.000000      7.003174000000000E-01      7.823486000000000E+00      1.355820000000000E-01     -1.655391000000000E+02
4946000000.000000      7.033691000000000E-01      7.842773000000000E+00      1.331863000000000E-01     -1.647578000000000E+02
4947000000.000000      7.035828000000000E-01      7.646484000000000E+00      1.300125000000000E-01     -1.637891000000000E+02
4948000000.000000      7.036438000000000E-01      7.573486000000000E+00      1.271820000000000E-01     -1.627891000000000E+02
4949000000.000000      7.030945000000000E-01      7.661377000000000E+00      1.245346000000000E-01     -1.615156000000000E+02
4950000000.000000      7.052307000000000E-01      7.595459000000000E+00      1.217499000000000E-01     -1.606094000000000E+02
4951000000.000000      7.059631000000000E-01      7.373047000000000E+00      1.195221000000000E-01     -1.595000000000000E+02
4952000000.000000      7.041321000000000E-01      7.330566000000000E+00      1.169701000000000E-01     -1.580469000000000E+02
4953000000.000000      7.045593000000000E-01      7.102539000000000E+00      1.151314000000000E-01     -1.564922000000000E+02
4954000000.000000      7.049561000000000E-01      7.071045000000000E+00      1.130409000000000E-01     -1.551328000000000E+02
