! Network Analyzer HP8722D
! Hewlett-Packard
! Data name: Linha & Wilkinson
! Saver's name: Rodrigo Anjos
! Comments: Teste da utilização de aquisição
continua pelo VNA HP8722D
! Time and date: 22/5/2025 08:34
!              Frequency                     S11                                                   S21                                                   S12                                                   S22
# HZ  S  MA R 50
4800000000.000000      6.470032000000000E-01      1.035986000000000E+01      4.741516000000000E-01     -9.371094000000000E+01
4801000000.000000      6.453552000000000E-01      1.033643000000000E+01      4.754028000000000E-01     -9.441406000000000E+01
4802000000.000000      6.435547000000000E-01      1.031885000000000E+01      4.777069000000000E-01     -9.505468000000000E+01
4803000000.000000      6.422424000000000E-01      1.023193000000000E+01      4.793091000000000E-01     -9.601171000000000E+01
4804000000.000000      6.398010000000000E-01      1.035303000000000E+01      4.822540000000000E-01     -9.671875000000000E+01
4805000000.000000      6.392212000000000E-01      1.024023000000000E+01      4.829865000000000E-01     -9.749218000000000E+01
4806000000.000000      6.379395000000000E-01      1.019092000000000E+01      4.846191000000000E-01     -9.823046000000000E+01
4807000000.000000      6.354675000000000E-01      1.023340000000000E+01      4.855957000000000E-01     -9.910545000000000E+01
4808000000.000000      6.336670000000000E-01      1.030225000000000E+01      4.883270000000000E-01     -9.978905000000000E+01
4809000000.000000      6.323242000000000E-01      1.052197000000000E+01      4.886932000000000E-01     -1.007656000000000E+02
4810000000.000000      6.306763000000000E-01      1.038867000000000E+01      4.921265000000000E-01     -1.012422000000000E+02
4811000000.000000      6.285400000000000E-01      1.043262000000000E+01      4.920959000000000E-01     -1.021055000000000E+02
4812000000.000000      6.292114000000000E-01      1.069336000000000E+01      4.934692000000000E-01     -1.029140000000000E+02
4813000000.000000      6.269836000000000E-01      1.049561000000000E+01      4.934998000000000E-01     -1.035234000000000E+02
4814000000.000000      6.257629000000000E-01      1.071289000000000E+01      4.940338000000000E-01     -1.044023000000000E+02
4815000000.000000      6.234436000000000E-01      1.076514000000000E+01      4.947052000000000E-01     -1.051133000000000E+02
4816000000.000000      6.242676000000000E-01      1.076758000000000E+01      4.982452000000000E-01     -1.057969000000000E+02
4817000000.000000      6.211548000000000E-01      1.094775000000000E+01      4.962769000000000E-01     -1.064844000000000E+02
4818000000.000000      6.184082000000000E-01      1.095166000000000E+01      4.970856000000000E-01     -1.073672000000000E+02
4819000000.000000      6.200867000000000E-01      1.086377000000000E+01      4.983521000000000E-01     -1.082383000000000E+02
4820000000.000000      6.180420000000000E-01      1.139111000000000E+01      4.963074000000000E-01     -1.087305000000000E+02
4821000000.000000      6.170959000000000E-01      1.111914000000000E+01      4.985962000000000E-01     -1.096992000000000E+02
4822000000.000000      6.157227000000000E-01      1.119873000000000E+01      4.974060000000000E-01     -1.102891000000000E+02
4823000000.000000      6.163330000000000E-01      1.126367000000000E+01      4.986420000000000E-01     -1.110938000000000E+02
4824000000.000000      6.145020000000000E-01      1.158740000000000E+01      4.995575000000000E-01     -1.119258000000000E+02
4825000000.000000      6.147461000000000E-01      1.143506000000000E+01      4.988403000000000E-01     -1.126563000000000E+02
4826000000.000000      6.149597000000000E-01      1.159863000000000E+01      5.008240000000000E-01     -1.134609000000000E+02
4827000000.000000      6.129150000000000E-01      1.180176000000000E+01      4.999390000000000E-01     -1.140273000000000E+02
4828000000.000000      6.148987000000000E-01      1.171826000000000E+01      5.011902000000000E-01     -1.148906000000000E+02
4829000000.000000      6.136780000000000E-01      1.200488000000000E+01      5.003052000000000E-01     -1.157851000000000E+02
4830000000.000000      6.122742000000000E-01      1.202979000000000E+01      4.994202000000000E-01     -1.164141000000000E+02
4831000000.000000      6.122437000000000E-01      1.235547000000000E+01      5.001221000000000E-01     -1.172266000000000E+02
4832000000.000000      6.128235000000000E-01      1.246240000000000E+01      4.989319000000000E-01     -1.177578000000000E+02
4833000000.000000      6.116638000000000E-01      1.237305000000000E+01      4.991150000000000E-01     -1.185469000000000E+02
4834000000.000000      6.117859000000000E-01      1.256689000000000E+01      4.983978000000000E-01     -1.193555000000000E+02
4835000000.000000      6.121521000000000E-01      1.255029000000000E+01      4.984894000000000E-01     -1.201133000000000E+02
4836000000.000000      6.112671000000000E-01      1.291406000000000E+01      4.979401000000000E-01     -1.207969000000000E+02
4837000000.000000      6.123047000000000E-01      1.301855000000000E+01      4.973297000000000E-01     -1.219570000000000E+02
4838000000.000000      6.115112000000000E-01      1.294971000000000E+01      4.979858000000000E-01     -1.223984000000000E+02
4839000000.000000      6.153259000000000E-01      1.301172000000000E+01      4.982910000000000E-01     -1.232891000000000E+02
4840000000.000000      6.141968000000000E-01      1.301465000000000E+01      4.976196000000000E-01     -1.241640000000000E+02
4841000000.000000      6.136780000000000E-01      1.332471000000000E+01      4.969635000000000E-01     -1.251406000000000E+02
4842000000.000000      6.140137000000000E-01      1.349658000000000E+01      4.959564000000000E-01     -1.259101000000000E+02
4843000000.000000      6.172485000000000E-01      1.330420000000000E+01      4.958191000000000E-01     -1.265742000000000E+02
4844000000.000000      6.155090000000000E-01      1.346924000000000E+01      4.932404000000000E-01     -1.273867000000000E+02
4845000000.000000      6.173096000000000E-01      1.367236000000000E+01      4.918976000000000E-01     -1.281406000000000E+02
4846000000.000000      6.180115000000000E-01      1.372461000000000E+01      4.913635000000000E-01     -1.290781000000000E+02
4847000000.000000      6.188965000000000E-01      1.381250000000000E+01      4.905853000000000E-01     -1.298594000000000E+02
4848000000.000000      6.191406000000000E-01      1.376563000000000E+01      4.868011000000000E-01     -1.306172000000000E+02
4849000000.000000      6.185608000000000E-01      1.385498000000000E+01      4.867554000000000E-01     -1.315391000000000E+02
4850000000.000000      6.204224000000000E-01      1.392920000000000E+01      4.846954000000000E-01     -1.322969000000000E+02
4851000000.000000      6.231384000000000E-01      1.406934000000000E+01      4.825745000000000E-01     -1.331875000000000E+02
4852000000.000000      6.227722000000000E-01      1.397559000000000E+01      4.821777000000000E-01     -1.341172000000000E+02
4853000000.000000      6.252136000000000E-01      1.405957000000000E+01      4.773560000000000E-01     -1.349922000000000E+02
4854000000.000000      6.250916000000000E-01      1.439307000000000E+01      4.762421000000000E-01     -1.358203000000000E+02
4855000000.000000      6.259460000000000E-01      1.403076000000000E+01      4.734192000000000E-01     -1.368672000000000E+02
4856000000.000000      6.266785000000000E-01      1.408008000000000E+01      4.714508000000000E-01     -1.375937000000000E+02
4857000000.000000      6.297913000000000E-01      1.426807000000000E+01      4.712830000000000E-01     -1.383594000000000E+02
4858000000.000000      6.307678000000000E-01      1.433008000000000E+01      4.658356000000000E-01     -1.391797000000000E+02
4859000000.000000      6.322937000000000E-01      1.418701000000000E+01      4.644623000000000E-01     -1.401484000000000E+02
4860000000.000000      6.308594000000000E-01      1.439063000000000E+01      4.599304000000000E-01     -1.408594000000000E+02
4861000000.000000      6.327515000000000E-01      1.439453000000000E+01      4.566040000000000E-01     -1.417109000000000E+02
4862000000.000000      6.336060000000000E-01      1.436035000000000E+01      4.543304000000000E-01     -1.425000000000000E+02
4863000000.000000      6.352539000000000E-01      1.446729000000000E+01      4.507599000000000E-01     -1.434375000000000E+02
4864000000.000000      6.360168000000000E-01      1.438770000000000E+01      4.465179000000000E-01     -1.441250000000000E+02
4865000000.000000      6.375122000000000E-01      1.432617000000000E+01      4.429932000000000E-01     -1.448672000000000E+02
4866000000.000000      6.398926000000000E-01      1.429297000000000E+01      4.381561000000000E-01     -1.457031000000000E+02
4867000000.000000      6.405029000000000E-01      1.421191000000000E+01      4.347839000000000E-01     -1.463359000000000E+02
4868000000.000000      6.413879000000000E-01      1.423096000000000E+01      4.316711000000000E-01     -1.473516000000000E+02
4869000000.000000      6.420593000000000E-01      1.437012000000000E+01      4.265594000000000E-01     -1.480547000000000E+02
4870000000.000000      6.456909000000000E-01      1.429004000000000E+01      4.234161000000000E-01     -1.484531000000000E+02
4871000000.000000      6.456299000000000E-01      1.411328000000000E+01      4.183960000000000E-01     -1.495000000000000E+02
4872000000.000000      6.461182000000000E-01      1.422852000000000E+01      4.143372000000000E-01     -1.500781000000000E+02
4873000000.000000      6.486816000000000E-01      1.422021000000000E+01      4.090424000000000E-01     -1.510625000000000E+02
4874000000.000000      6.497803000000000E-01      1.427246000000000E+01      4.061584000000000E-01     -1.515078000000000E+02
4875000000.000000      6.519470000000000E-01      1.401025000000000E+01      4.000092000000000E-01     -1.521875000000000E+02
4876000000.000000      6.537476000000000E-01      1.408447000000000E+01      3.971100000000000E-01     -1.528437000000000E+02
4877000000.000000      6.529846000000000E-01      1.396484000000000E+01      3.925171000000000E-01     -1.534688000000000E+02
4878000000.000000      6.544189000000000E-01      1.384814000000000E+01      3.874969000000000E-01     -1.541406000000000E+02
4879000000.000000      6.560059000000000E-01      1.401270000000000E+01      3.834076000000000E-01     -1.547422000000000E+02
4880000000.000000      6.579285000000000E-01      1.385742000000000E+01      3.797607000000000E-01     -1.553750000000000E+02
4881000000.000000      6.579590000000000E-01      1.388525000000000E+01      3.748169000000000E-01     -1.557734000000000E+02
4882000000.000000      6.610718000000000E-01      1.379053000000000E+01      3.713531000000000E-01     -1.562500000000000E+02
4883000000.000000      6.599426000000000E-01      1.361475000000000E+01      3.656464000000000E-01     -1.568438000000000E+02
4884000000.000000      6.622925000000000E-01      1.374072000000000E+01      3.623962000000000E-01     -1.572500000000000E+02
4885000000.000000      6.621094000000000E-01      1.359961000000000E+01      3.574219000000000E-01     -1.576719000000000E+02
4886000000.000000      6.643372000000000E-01      1.357471000000000E+01      3.526917000000000E-01     -1.582734000000000E+02
4887000000.000000      6.665039000000000E-01      1.340039000000000E+01      3.497162000000000E-01     -1.586953000000000E+02
4888000000.000000      6.676941000000000E-01      1.329053000000000E+01      3.452148000000000E-01     -1.593437000000000E+02
4889000000.000000      6.655273000000000E-01      1.326416000000000E+01      3.404846000000000E-01     -1.595391000000000E+02
4890000000.000000      6.678467000000000E-01      1.312842000000000E+01      3.355103000000000E-01     -1.605781000000000E+02
4891000000.000000      6.697388000000000E-01      1.320410000000000E+01      3.320007000000000E-01     -1.605547000000000E+02
4892000000.000000      6.686707000000000E-01      1.310938000000000E+01      3.282623000000000E-01     -1.608359000000000E+02
4893000000.000000      6.711426000000000E-01      1.287842000000000E+01      3.233643000000000E-01     -1.614219000000000E+02
4894000000.000000      6.717529000000000E-01      1.282617000000000E+01      3.194580000000000E-01     -1.616953000000000E+02
4895000000.000000      6.756592000000000E-01      1.275342000000000E+01      3.170624000000000E-01     -1.621406000000000E+02
4896000000.000000      6.749573000000000E-01      1.264795000000000E+01      3.129730000000000E-01     -1.624453000000000E+02
4897000000.000000      6.741333000000000E-01      1.237451000000000E+01      3.081360000000000E-01     -1.628906000000000E+02
4898000000.000000      6.769714000000000E-01      1.262695000000000E+01      3.055115000000000E-01     -1.630938000000000E+02
4899000000.000000      6.775208000000000E-01      1.245117000000000E+01      3.015900000000000E-01     -1.635703000000000E+02
4900000000.000000      6.789551000000000E-01      1.234863000000000E+01      2.977753000000000E-01     -1.637656000000000E+02
4901000000.000000      6.780701000000000E-01      1.215332000000000E+01      2.939453000000000E-01     -1.641328000000000E+02
4902000000.000000      6.815491000000000E-01      1.206836000000000E+01      2.910767000000000E-01     -1.643984000000000E+02
4903000000.000000      6.794739000000000E-01      1.200635000000000E+01      2.865143000000000E-01     -1.648047000000000E+02
4904000000.000000      6.818542000000000E-01      1.182813000000000E+01      2.826996000000000E-01     -1.652422000000000E+02
4905000000.000000      6.814880000000000E-01      1.179199000000000E+01      2.801208000000000E-01     -1.655078000000000E+02
4906000000.000000      6.815796000000000E-01      1.161768000000000E+01      2.764282000000000E-01     -1.655391000000000E+02
4907000000.000000      6.838379000000000E-01      1.162354000000000E+01      2.729340000000000E-01     -1.660547000000000E+02
4908000000.000000      6.840820000000000E-01      1.145020000000000E+01      2.700500000000000E-01     -1.665781000000000E+02
4909000000.000000      6.833191000000000E-01      1.132373000000000E+01      2.652435000000000E-01     -1.666484000000000E+02
4910000000.000000      6.838379000000000E-01      1.124023000000000E+01      2.624664000000000E-01     -1.670078000000000E+02
4911000000.000000      6.873474000000000E-01      1.113184000000000E+01      2.592163000000000E-01     -1.671016000000000E+02
4912000000.000000      6.859436000000000E-01      1.105908000000000E+01      2.550812000000000E-01     -1.676328000000000E+02
4913000000.000000      6.866455000000000E-01      1.099316000000000E+01      2.519989000000000E-01     -1.680078000000000E+02
4914000000.000000      6.878967000000000E-01      1.075391000000000E+01      2.483749000000000E-01     -1.679219000000000E+02
4915000000.000000      6.863403000000000E-01      1.083789000000000E+01      2.449341000000000E-01     -1.686172000000000E+02
4916000000.000000      6.894226000000000E-01      1.072656000000000E+01      2.407990000000000E-01     -1.688047000000000E+02
4917000000.000000      6.894226000000000E-01      1.065234000000000E+01      2.378616000000000E-01     -1.690156000000000E+02
4918000000.000000      6.898804000000000E-01      1.047266000000000E+01      2.337952000000000E-01     -1.691484000000000E+02
4919000000.000000      6.883850000000000E-01      1.037891000000000E+01      2.306366000000000E-01     -1.692734000000000E+02
4920000000.000000      6.917114000000000E-01      1.014404000000000E+01      2.264328000000000E-01     -1.696875000000000E+02
4921000000.000000      6.911316000000000E-01      1.027197000000000E+01      2.230148000000000E-01     -1.698906000000000E+02
4922000000.000000      6.910706000000000E-01      1.007813000000000E+01      2.198868000000000E-01     -1.699219000000000E+02
4923000000.000000      6.909790000000000E-01      9.994629000000000E+00      2.156830000000000E-01     -1.700156000000000E+02
4924000000.000000      6.936340000000000E-01      9.912109000000000E+00      2.115250000000000E-01     -1.704922000000000E+02
4925000000.000000      6.905518000000000E-01      9.796875000000000E+00      2.087326000000000E-01     -1.704609000000000E+02
4926000000.000000      6.942444000000000E-01      9.734863000000000E+00      2.046890000000000E-01     -1.706328000000000E+02
4927000000.000000      6.917419000000000E-01      9.590820000000000E+00      2.007446000000000E-01     -1.707500000000000E+02
4928000000.000000      6.962280000000000E-01      9.515137000000000E+00      1.973877000000000E-01     -1.708672000000000E+02
4929000000.000000      6.935730000000000E-01      9.354492000000000E+00      1.932983000000000E-01     -1.709375000000000E+02
4930000000.000000      6.959839000000000E-01      9.343750000000000E+00      1.897964000000000E-01     -1.709531000000000E+02
4931000000.000000      6.950989000000000E-01      9.189941000000000E+00      1.863708000000000E-01     -1.707813000000000E+02
4932000000.000000      6.955261000000000E-01      9.130859000000000E+00      1.824493000000000E-01     -1.706640000000000E+02
4933000000.000000      6.959229000000000E-01      9.112793000000000E+00      1.778183000000000E-01     -1.705469000000000E+02
4934000000.000000      6.975403000000000E-01      8.946777000000000E+00      1.744080000000000E-01     -1.706094000000000E+02
4935000000.000000      6.977539000000000E-01      8.721680000000000E+00      1.715393000000000E-01     -1.705078000000000E+02
4936000000.000000      6.967773000000000E-01      8.515625000000000E+00      1.670456000000000E-01     -1.700781000000000E+02
4937000000.000000      6.995239000000000E-01      8.603516000000000E+00      1.634216000000000E-01     -1.700000000000000E+02
4938000000.000000      6.992188000000000E-01      8.608887000000000E+00      1.600952000000000E-01     -1.695234000000000E+02
4939000000.000000      6.991272000000000E-01      8.547363000000000E+00      1.567230000000000E-01     -1.690547000000000E+02
4940000000.000000      6.991577000000000E-01      8.481445000000000E+00      1.526489000000000E-01     -1.687891000000000E+02
4941000000.000000      7.017212000000000E-01      8.187500000000000E+00      1.493454000000000E-01     -1.681719000000000E+02
4942000000.000000      6.984558000000000E-01      8.261719000000000E+00      1.461868000000000E-01     -1.677500000000000E+02
4943000000.000000      6.998901000000000E-01      8.181641000000000E+00      1.429901000000000E-01     -1.671250000000000E+02
4944000000.000000      7.017517000000000E-01      8.066406000000000E+00      1.392441000000000E-01     -1.664063000000000E+02
4945000000.000000      7.020874000000000E-01      7.853760000000000E+00      1.362381000000000E-01     -1.655078000000000E+02
4946000000.000000      7.032166000000000E-01      7.868896000000000E+00      1.332474000000000E-01     -1.649375000000000E+02
4947000000.000000      7.030945000000000E-01      7.498047000000000E+00      1.300735000000000E-01     -1.638359000000000E+02
4948000000.000000      7.035217000000000E-01      7.546143000000000E+00      1.273499000000000E-01     -1.629141000000000E+02
4949000000.000000      7.024841000000000E-01      7.357910000000000E+00      1.244774000000000E-01     -1.615859000000000E+02
4950000000.000000      7.058411000000000E-01      7.429443000000000E+00      1.222610000000000E-01     -1.604219000000000E+02
4951000000.000000      7.041016000000000E-01      7.109375000000000E+00      1.195526000000000E-01     -1.595312000000000E+02
4952000000.000000      7.027283000000000E-01      7.116211000000000E+00      1.166077000000000E-01     -1.580937000000000E+02
4953000000.000000      7.051086000000000E-01      7.166992000000000E+00      1.149750000000000E-01     -1.567344000000000E+02
4954000000.000000      7.059326000000000E-01      6.991211000000000E+00      1.131363000000000E-01     -1.551563000000000E+02
