! Network Analyzer HP8722D
! Hewlett-Packard
! Data name: Linha & Wilkinson
! Saver's name: Rodrigo Anjos
! Comments: Teste da utilização de aquisição
continua pelo VNA HP8722D
! Time and date: 22/5/2025 11:24
!              Frequency                     S11                                                   S21                                                   S12                                                   S22
# HZ  S  MA R 50
4800000000.000000      6.506958000000000E-01      1.068799000000000E+01      4.709473000000000E-01     -9.256639000000000E+01
4801000000.000000      6.489258000000000E-01      1.074854000000000E+01      4.726257000000000E-01     -9.302343000000000E+01
4802000000.000000      6.472168000000000E-01      1.077197000000000E+01      4.734192000000000E-01     -9.382813000000000E+01
4803000000.000000      6.453857000000000E-01      1.057422000000000E+01      4.790802000000000E-01     -9.483202000000000E+01
4804000000.000000      6.440125000000000E-01      1.055762000000000E+01      4.791107000000000E-01     -9.537109000000000E+01
4805000000.000000      6.432800000000000E-01      1.065527000000000E+01      4.804535000000000E-01     -9.619141000000000E+01
4806000000.000000      6.417236000000000E-01      1.060156000000000E+01      4.816742000000000E-01     -9.667187000000000E+01
4807000000.000000      6.384277000000000E-01      1.065527000000000E+01      4.831085000000000E-01     -9.784374000000000E+01
4808000000.000000      6.361389000000000E-01      1.062354000000000E+01      4.846954000000000E-01     -9.851171000000000E+01
4809000000.000000      6.356201000000000E-01      1.078271000000000E+01      4.856110000000000E-01     -9.930077000000000E+01
4810000000.000000      6.356201000000000E-01      1.074707000000000E+01      4.888611000000000E-01     -9.997265000000000E+01
4811000000.000000      6.339722000000000E-01      1.068799000000000E+01      4.890442000000000E-01     -1.007500000000000E+02
4812000000.000000      6.342163000000000E-01      1.085986000000000E+01      4.898682000000000E-01     -1.013711000000000E+02
4813000000.000000      6.308289000000000E-01      1.085986000000000E+01      4.899445000000000E-01     -1.023711000000000E+02
4814000000.000000      6.281433000000000E-01      1.088184000000000E+01      4.921722000000000E-01     -1.028789000000000E+02
4815000000.000000      6.281128000000000E-01      1.103027000000000E+01      4.932251000000000E-01     -1.037969000000000E+02
4816000000.000000      6.290283000000000E-01      1.113867000000000E+01      4.935303000000000E-01     -1.045703000000000E+02
4817000000.000000      6.250000000000000E-01      1.129639000000000E+01      4.931946000000000E-01     -1.051953000000000E+02
4818000000.000000      6.230164000000000E-01      1.120605000000000E+01      4.949646000000000E-01     -1.061172000000000E+02
4819000000.000000      6.233215000000000E-01      1.144189000000000E+01      4.945984000000000E-01     -1.066211000000000E+02
4820000000.000000      6.211548000000000E-01      1.158643000000000E+01      4.951782000000000E-01     -1.073281000000000E+02
4821000000.000000      6.205139000000000E-01      1.151758000000000E+01      4.970551000000000E-01     -1.083008000000000E+02
4822000000.000000      6.195984000000000E-01      1.150928000000000E+01      4.957581000000000E-01     -1.089180000000000E+02
4823000000.000000      6.188049000000000E-01      1.165234000000000E+01      4.985809000000000E-01     -1.097773000000000E+02
4824000000.000000      6.183472000000000E-01      1.181543000000000E+01      4.970245000000000E-01     -1.104531000000000E+02
4825000000.000000      6.172180000000000E-01      1.187451000000000E+01      4.969177000000000E-01     -1.110742000000000E+02
4826000000.000000      6.173401000000000E-01      1.185791000000000E+01      4.978027000000000E-01     -1.118555000000000E+02
4827000000.000000      6.166992000000000E-01      1.204639000000000E+01      4.976501000000000E-01     -1.128477000000000E+02
4828000000.000000      6.165466000000000E-01      1.219189000000000E+01      4.997559000000000E-01     -1.133125000000000E+02
4829000000.000000      6.161499000000000E-01      1.240869000000000E+01      4.985809000000000E-01     -1.141797000000000E+02
4830000000.000000      6.150513000000000E-01      1.244336000000000E+01      4.996643000000000E-01     -1.152070000000000E+02
4831000000.000000      6.146545000000000E-01      1.246777000000000E+01      4.988556000000000E-01     -1.158281000000000E+02
4832000000.000000      6.138000000000000E-01      1.300342000000000E+01      4.994507000000000E-01     -1.165078000000000E+02
4833000000.000000      6.129761000000000E-01      1.269580000000000E+01      5.005188000000000E-01     -1.173984000000000E+02
4834000000.000000      6.130066000000000E-01      1.282373000000000E+01      4.990387000000000E-01     -1.180859000000000E+02
4835000000.000000      6.127014000000000E-01      1.289209000000000E+01      4.988403000000000E-01     -1.188320000000000E+02
4836000000.000000      6.147156000000000E-01      1.311182000000000E+01      4.989929000000000E-01     -1.196523000000000E+02
4837000000.000000      6.140442000000000E-01      1.330127000000000E+01      4.977875000000000E-01     -1.203477000000000E+02
4838000000.000000      6.116333000000000E-01      1.327002000000000E+01      4.975433000000000E-01     -1.210820000000000E+02
4839000000.000000      6.171265000000000E-01      1.358984000000000E+01      4.983978000000000E-01     -1.219023000000000E+02
4840000000.000000      6.153564000000000E-01      1.338672000000000E+01      4.978180000000000E-01     -1.226523000000000E+02
4841000000.000000      6.156921000000000E-01      1.384131000000000E+01      4.966736000000000E-01     -1.236055000000000E+02
4842000000.000000      6.164246000000000E-01      1.380127000000000E+01      4.971924000000000E-01     -1.244805000000000E+02
4843000000.000000      6.189270000000000E-01      1.376172000000000E+01      4.956665000000000E-01     -1.253555000000000E+02
4844000000.000000      6.172485000000000E-01      1.398926000000000E+01      4.939423000000000E-01     -1.260117000000000E+02
4845000000.000000      6.183777000000000E-01      1.405518000000000E+01      4.934387000000000E-01     -1.268320000000000E+02
4846000000.000000      6.188354000000000E-01      1.400586000000000E+01      4.924011000000000E-01     -1.278047000000000E+02
4847000000.000000      6.193542000000000E-01      1.422998000000000E+01      4.911804000000000E-01     -1.284062000000000E+02
4848000000.000000      6.199646000000000E-01      1.408984000000000E+01      4.889679000000000E-01     -1.292500000000000E+02
4849000000.000000      6.213074000000000E-01      1.428223000000000E+01      4.888611000000000E-01     -1.301641000000000E+02
4850000000.000000      6.222229000000000E-01      1.434814000000000E+01      4.841309000000000E-01     -1.310625000000000E+02
4851000000.000000      6.234741000000000E-01      1.451807000000000E+01      4.860229000000000E-01     -1.319219000000000E+02
4852000000.000000      6.239014000000000E-01      1.445215000000000E+01      4.834137000000000E-01     -1.327891000000000E+02
4853000000.000000      6.249390000000000E-01      1.458398000000000E+01      4.804535000000000E-01     -1.335469000000000E+02
4854000000.000000      6.266785000000000E-01      1.468164000000000E+01      4.778442000000000E-01     -1.344219000000000E+02
4855000000.000000      6.259155000000000E-01      1.465430000000000E+01      4.770813000000000E-01     -1.355781000000000E+02
4856000000.000000      6.271973000000000E-01      1.465430000000000E+01      4.739227000000000E-01     -1.362969000000000E+02
4857000000.000000      6.293640000000000E-01      1.465820000000000E+01      4.714050000000000E-01     -1.370156000000000E+02
4858000000.000000      6.296082000000000E-01      1.463477000000000E+01      4.693604000000000E-01     -1.378125000000000E+02
4859000000.000000      6.305237000000000E-01      1.470508000000000E+01      4.660187000000000E-01     -1.387734000000000E+02
4860000000.000000      6.313782000000000E-01      1.475049000000000E+01      4.635620000000000E-01     -1.394297000000000E+02
4861000000.000000      6.334534000000000E-01      1.483252000000000E+01      4.596405000000000E-01     -1.404141000000000E+02
4862000000.000000      6.335144000000000E-01      1.460449000000000E+01      4.567413000000000E-01     -1.410391000000000E+02
4863000000.000000      6.365356000000000E-01      1.476807000000000E+01      4.534607000000000E-01     -1.420859000000000E+02
4864000000.000000      6.365051000000000E-01      1.473096000000000E+01      4.508514000000000E-01     -1.429062000000000E+02
4865000000.000000      6.365356000000000E-01      1.473389000000000E+01      4.472961000000000E-01     -1.436172000000000E+02
4866000000.000000      6.395569000000000E-01      1.466797000000000E+01      4.426422000000000E-01     -1.444297000000000E+02
4867000000.000000      6.405334000000000E-01      1.484229000000000E+01      4.390259000000000E-01     -1.455469000000000E+02
4868000000.000000      6.413574000000000E-01      1.480127000000000E+01      4.359741000000000E-01     -1.459375000000000E+02
4869000000.000000      6.428833000000000E-01      1.476953000000000E+01      4.314575000000000E-01     -1.470703000000000E+02
4870000000.000000      6.440125000000000E-01      1.474609000000000E+01      4.264069000000000E-01     -1.473438000000000E+02
4871000000.000000      6.457520000000000E-01      1.464990000000000E+01      4.224091000000000E-01     -1.482656000000000E+02
4872000000.000000      6.474304000000000E-01      1.454297000000000E+01      4.188232000000000E-01     -1.488672000000000E+02
4873000000.000000      6.501160000000000E-01      1.474902000000000E+01      4.146576000000000E-01     -1.498672000000000E+02
4874000000.000000      6.493530000000000E-01      1.470361000000000E+01      4.099884000000000E-01     -1.505469000000000E+02
4875000000.000000      6.506653000000000E-01      1.463623000000000E+01      4.046021000000000E-01     -1.511328000000000E+02
4876000000.000000      6.539307000000000E-01      1.471729000000000E+01      4.016418000000000E-01     -1.517734000000000E+02
4877000000.000000      6.541748000000000E-01      1.451270000000000E+01      3.975372000000000E-01     -1.526484000000000E+02
4878000000.000000      6.534424000000000E-01      1.447998000000000E+01      3.929901000000000E-01     -1.529140000000000E+02
4879000000.000000      6.566772000000000E-01      1.443164000000000E+01      3.884888000000000E-01     -1.535781000000000E+02
4880000000.000000      6.585083000000000E-01      1.431641000000000E+01      3.836670000000000E-01     -1.542031000000000E+02
4881000000.000000      6.576233000000000E-01      1.447021000000000E+01      3.803864000000000E-01     -1.546875000000000E+02
4882000000.000000      6.620178000000000E-01      1.425195000000000E+01      3.760681000000000E-01     -1.554766000000000E+02
4883000000.000000      6.624756000000000E-01      1.417090000000000E+01      3.698883000000000E-01     -1.558906000000000E+02
4884000000.000000      6.632996000000000E-01      1.415723000000000E+01      3.663635000000000E-01     -1.564766000000000E+02
4885000000.000000      6.651001000000000E-01      1.416260000000000E+01      3.618622000000000E-01     -1.567422000000000E+02
4886000000.000000      6.657104000000000E-01      1.408301000000000E+01      3.568573000000000E-01     -1.574219000000000E+02
4887000000.000000      6.650391000000000E-01      1.412256000000000E+01      3.544006000000000E-01     -1.579766000000000E+02
4888000000.000000      6.662903000000000E-01      1.374219000000000E+01      3.491669000000000E-01     -1.585625000000000E+02
4889000000.000000      6.676636000000000E-01      1.375879000000000E+01      3.433228000000000E-01     -1.588125000000000E+02
4890000000.000000      6.679077000000000E-01      1.358691000000000E+01      3.407745000000000E-01     -1.593984000000000E+02
4891000000.000000      6.713867000000000E-01      1.359375000000000E+01      3.368225000000000E-01     -1.598984000000000E+02
4892000000.000000      6.689453000000000E-01      1.349365000000000E+01      3.314972000000000E-01     -1.600312000000000E+02
4893000000.000000      6.707764000000000E-01      1.356787000000000E+01      3.289948000000000E-01     -1.604531000000000E+02
4894000000.000000      6.721191000000000E-01      1.330811000000000E+01      3.236237000000000E-01     -1.610078000000000E+02
4895000000.000000      6.749573000000000E-01      1.324512000000000E+01      3.218842000000000E-01     -1.613984000000000E+02
4896000000.000000      6.749268000000000E-01      1.308447000000000E+01      3.175659000000000E-01     -1.616953000000000E+02
4897000000.000000      6.753540000000000E-01      1.312549000000000E+01      3.126984000000000E-01     -1.621562000000000E+02
4898000000.000000      6.753845000000000E-01      1.292676000000000E+01      3.097992000000000E-01     -1.623906000000000E+02
4899000000.000000      6.795349000000000E-01      1.295947000000000E+01      3.058777000000000E-01     -1.629609000000000E+02
4900000000.000000      6.792603000000000E-01      1.277148000000000E+01      3.016663000000000E-01     -1.631875000000000E+02
4901000000.000000      6.798706000000000E-01      1.263672000000000E+01      2.979126000000000E-01     -1.634922000000000E+02
4902000000.000000      6.796265000000000E-01      1.243213000000000E+01      2.950439000000000E-01     -1.638203000000000E+02
4903000000.000000      6.805725000000000E-01      1.253125000000000E+01      2.903442000000000E-01     -1.641250000000000E+02
4904000000.000000      6.827393000000000E-01      1.226758000000000E+01      2.876587000000000E-01     -1.646641000000000E+02
4905000000.000000      6.810913000000000E-01      1.224561000000000E+01      2.849579000000000E-01     -1.649609000000000E+02
4906000000.000000      6.813965000000000E-01      1.208740000000000E+01      2.801361000000000E-01     -1.649531000000000E+02
4907000000.000000      6.831055000000000E-01      1.201465000000000E+01      2.779236000000000E-01     -1.655937000000000E+02
4908000000.000000      6.849365000000000E-01      1.202686000000000E+01      2.738342000000000E-01     -1.658594000000000E+02
4909000000.000000      6.856079000000000E-01      1.186621000000000E+01      2.696838000000000E-01     -1.661953000000000E+02
4910000000.000000      6.837769000000000E-01      1.202588000000000E+01      2.663879000000000E-01     -1.663828000000000E+02
4911000000.000000      6.878967000000000E-01      1.168652000000000E+01      2.639771000000000E-01     -1.668203000000000E+02
4912000000.000000      6.863708000000000E-01      1.155322000000000E+01      2.596436000000000E-01     -1.671953000000000E+02
4913000000.000000      6.874084000000000E-01      1.155469000000000E+01      2.565002000000000E-01     -1.673984000000000E+02
4914000000.000000      6.879272000000000E-01      1.131982000000000E+01      2.533722000000000E-01     -1.676719000000000E+02
4915000000.000000      6.872253000000000E-01      1.127441000000000E+01      2.486038000000000E-01     -1.682031000000000E+02
4916000000.000000      6.894531000000000E-01      1.115771000000000E+01      2.458954000000000E-01     -1.682422000000000E+02
4917000000.000000      6.891174000000000E-01      1.103418000000000E+01      2.423172000000000E-01     -1.686875000000000E+02
4918000000.000000      6.903381000000000E-01      1.107520000000000E+01      2.381821000000000E-01     -1.688906000000000E+02
4919000000.000000      6.919250000000000E-01      1.093408000000000E+01      2.347946000000000E-01     -1.689453000000000E+02
4920000000.000000      6.890564000000000E-01      1.079932000000000E+01      2.305984000000000E-01     -1.695078000000000E+02
4921000000.000000      6.888123000000000E-01      1.068945000000000E+01      2.272644000000000E-01     -1.696250000000000E+02
4922000000.000000      6.917725000000000E-01      1.051904000000000E+01      2.236099000000000E-01     -1.696250000000000E+02
4923000000.000000      6.920776000000000E-01      1.054541000000000E+01      2.200851000000000E-01     -1.698984000000000E+02
4924000000.000000      6.932678000000000E-01      1.039990000000000E+01      2.156525000000000E-01     -1.702500000000000E+02
4925000000.000000      6.932983000000000E-01      1.052490000000000E+01      2.124557000000000E-01     -1.704062000000000E+02
4926000000.000000      6.947327000000000E-01      1.028711000000000E+01      2.095795000000000E-01     -1.705937000000000E+02
4927000000.000000      6.946411000000000E-01      1.024170000000000E+01      2.045746000000000E-01     -1.705625000000000E+02
4928000000.000000      6.967468000000000E-01      1.005615000000000E+01      2.014694000000000E-01     -1.706953000000000E+02
4929000000.000000      6.956177000000000E-01      1.001123000000000E+01      1.972733000000000E-01     -1.709063000000000E+02
4930000000.000000      6.959534000000000E-01      9.743164000000000E+00      1.937485000000000E-01     -1.709375000000000E+02
4931000000.000000      6.957092000000000E-01      9.718750000000000E+00      1.905594000000000E-01     -1.708906000000000E+02
4932000000.000000      6.967773000000000E-01      9.732422000000000E+00      1.859970000000000E-01     -1.709531000000000E+02
4933000000.000000      6.957703000000000E-01      9.499023000000000E+00      1.816711000000000E-01     -1.707734000000000E+02
4934000000.000000      6.987305000000000E-01      9.502930000000000E+00      1.782761000000000E-01     -1.707891000000000E+02
4935000000.000000      6.996155000000000E-01      9.254395000000000E+00      1.751785000000000E-01     -1.706484000000000E+02
4936000000.000000      6.971741000000000E-01      9.198242000000000E+00      1.712799000000000E-01     -1.704219000000000E+02
4937000000.000000      7.005005000000000E-01      9.124023000000000E+00      1.673889000000000E-01     -1.703438000000000E+02
4938000000.000000      6.982422000000000E-01      9.107422000000000E+00      1.636505000000000E-01     -1.699219000000000E+02
4939000000.000000      6.996155000000000E-01      9.056641000000000E+00      1.599197000000000E-01     -1.696328000000000E+02
4940000000.000000      6.982422000000000E-01      8.923340000000000E+00      1.560364000000000E-01     -1.695625000000000E+02
4941000000.000000      7.015686000000000E-01      8.708984000000000E+00      1.528473000000000E-01     -1.688906000000000E+02
4942000000.000000      7.007141000000000E-01      8.630859000000000E+00      1.492157000000000E-01     -1.685469000000000E+02
4943000000.000000      7.022400000000000E-01      8.655762000000000E+00      1.455536000000000E-01     -1.678281000000000E+02
4944000000.000000      7.015381000000000E-01      8.510254000000000E+00      1.424866000000000E-01     -1.673516000000000E+02
4945000000.000000      7.023926000000000E-01      8.395996000000000E+00      1.387329000000000E-01     -1.668437000000000E+02
4946000000.000000      7.045593000000000E-01      8.350586000000000E+00      1.356659000000000E-01     -1.660938000000000E+02
4947000000.000000      7.028198000000000E-01      8.187500000000000E+00      1.323776000000000E-01     -1.652109000000000E+02
4948000000.000000      7.051086000000000E-01      7.998047000000000E+00      1.293259000000000E-01     -1.643984000000000E+02
4949000000.000000      7.040100000000000E-01      8.015625000000000E+00      1.269379000000000E-01     -1.629766000000000E+02
4950000000.000000      7.049561000000000E-01      7.992432000000000E+00      1.237488000000000E-01     -1.620703000000000E+02
4951000000.000000      7.073059000000000E-01      7.815186000000000E+00      1.214218000000000E-01     -1.610859000000000E+02
4952000000.000000      7.052307000000000E-01      7.592773000000000E+00      1.183510000000000E-01     -1.596797000000000E+02
4953000000.000000      7.045288000000000E-01      7.646484000000000E+00      1.167068000000000E-01     -1.584844000000000E+02
4954000000.000000      7.065125000000000E-01      7.557129000000000E+00      1.141853000000000E-01     -1.570625000000000E+02
