! Network Analyzer HP8722D
! Hewlett-Packard
! Data name: Linha & Wilkinson
! Saver's name: Rodrigo Anjos
! Comments: Teste da utilização de aquisição
continua pelo VNA HP8722D
! Time and date: 22/5/2025 07:44
!              Frequency                     S11                                                   S21                                                   S12                                                   S22
# HZ  S  MA R 50
4800000000.000000      6.465149000000000E-01      1.041211000000000E+01      4.755859000000000E-01     -9.368359000000000E+01
4801000000.000000      6.438904000000000E-01      1.029688000000000E+01      4.762268000000000E-01     -9.441015000000000E+01
4802000000.000000      6.429749000000000E-01      1.022119000000000E+01      4.765625000000000E-01     -9.512110000000000E+01
4803000000.000000      6.413879000000000E-01      1.027051000000000E+01      4.811249000000000E-01     -9.598436000000000E+01
4804000000.000000      6.392822000000000E-01      1.034180000000000E+01      4.815521000000000E-01     -9.664452000000000E+01
4805000000.000000      6.392517000000000E-01      1.021436000000000E+01      4.842682000000000E-01     -9.762499000000000E+01
4806000000.000000      6.355896000000000E-01      1.041504000000000E+01      4.843445000000000E-01     -9.833593000000000E+01
4807000000.000000      6.349487000000000E-01      1.031738000000000E+01      4.854279000000000E-01     -9.907030000000000E+01
4808000000.000000      6.307983000000000E-01      1.037207000000000E+01      4.852600000000000E-01     -9.965624000000000E+01
4809000000.000000      6.311951000000000E-01      1.045898000000000E+01      4.881744000000000E-01     -1.005937000000000E+02
4810000000.000000      6.293030000000000E-01      1.039697000000000E+01      4.905548000000000E-01     -1.012969000000000E+02
4811000000.000000      6.289673000000000E-01      1.051074000000000E+01      4.920044000000000E-01     -1.020859000000000E+02
4812000000.000000      6.303711000000000E-01      1.054102000000000E+01      4.921875000000000E-01     -1.028906000000000E+02
4813000000.000000      6.266174000000000E-01      1.068115000000000E+01      4.936371000000000E-01     -1.036328000000000E+02
4814000000.000000      6.249695000000000E-01      1.065381000000000E+01      4.929504000000000E-01     -1.041406000000000E+02
4815000000.000000      6.226807000000000E-01      1.067041000000000E+01      4.947510000000000E-01     -1.051601000000000E+02
4816000000.000000      6.223450000000000E-01      1.068115000000000E+01      4.957733000000000E-01     -1.059062000000000E+02
4817000000.000000      6.209717000000000E-01      1.103711000000000E+01      4.954224000000000E-01     -1.063711000000000E+02
4818000000.000000      6.199646000000000E-01      1.079639000000000E+01      4.974670000000000E-01     -1.074648000000000E+02
4819000000.000000      6.195984000000000E-01      1.101611000000000E+01      4.978485000000000E-01     -1.082187000000000E+02
4820000000.000000      6.171875000000000E-01      1.125684000000000E+01      4.968872000000000E-01     -1.088398000000000E+02
4821000000.000000      6.169434000000000E-01      1.122656000000000E+01      4.985199000000000E-01     -1.096836000000000E+02
4822000000.000000      6.158447000000000E-01      1.118506000000000E+01      4.973602000000000E-01     -1.102930000000000E+02
4823000000.000000      6.140137000000000E-01      1.146143000000000E+01      4.982300000000000E-01     -1.109805000000000E+02
4824000000.000000      6.117249000000000E-01      1.146143000000000E+01      4.972382000000000E-01     -1.117500000000000E+02
4825000000.000000      6.138916000000000E-01      1.159863000000000E+01      4.994049000000000E-01     -1.125820000000000E+02
4826000000.000000      6.130981000000000E-01      1.149854000000000E+01      4.987946000000000E-01     -1.134375000000000E+02
4827000000.000000      6.124878000000000E-01      1.183594000000000E+01      4.990234000000000E-01     -1.140664000000000E+02
4828000000.000000      6.142883000000000E-01      1.185938000000000E+01      5.000610000000000E-01     -1.147070000000000E+02
4829000000.000000      6.115112000000000E-01      1.215625000000000E+01      5.012817000000000E-01     -1.155664000000000E+02
4830000000.000000      6.130676000000000E-01      1.197363000000000E+01      4.999542000000000E-01     -1.162266000000000E+02
4831000000.000000      6.119385000000000E-01      1.230029000000000E+01      4.991455000000000E-01     -1.171758000000000E+02
4832000000.000000      6.110229000000000E-01      1.256543000000000E+01      4.986420000000000E-01     -1.177695000000000E+02
4833000000.000000      6.107178000000000E-01      1.236475000000000E+01      4.991302000000000E-01     -1.184844000000000E+02
4834000000.000000      6.106873000000000E-01      1.255713000000000E+01      4.986572000000000E-01     -1.193164000000000E+02
4835000000.000000      6.124573000000000E-01      1.263428000000000E+01      4.995117000000000E-01     -1.201797000000000E+02
4836000000.000000      6.113586000000000E-01      1.291699000000000E+01      4.976501000000000E-01     -1.209727000000000E+02
4837000000.000000      6.089783000000000E-01      1.293359000000000E+01      4.969788000000000E-01     -1.219844000000000E+02
4838000000.000000      6.115112000000000E-01      1.312549000000000E+01      4.980316000000000E-01     -1.224180000000000E+02
4839000000.000000      6.132813000000000E-01      1.321631000000000E+01      4.965363000000000E-01     -1.231797000000000E+02
4840000000.000000      6.124878000000000E-01      1.314893000000000E+01      4.972382000000000E-01     -1.241406000000000E+02
4841000000.000000      6.127625000000000E-01      1.346191000000000E+01      4.966125000000000E-01     -1.251680000000000E+02
4842000000.000000      6.137695000000000E-01      1.342529000000000E+01      4.942322000000000E-01     -1.255781000000000E+02
4843000000.000000      6.156616000000000E-01      1.344727000000000E+01      4.946747000000000E-01     -1.267617000000000E+02
4844000000.000000      6.159668000000000E-01      1.342383000000000E+01      4.939880000000000E-01     -1.274414000000000E+02
4845000000.000000      6.165466000000000E-01      1.383545000000000E+01      4.913025000000000E-01     -1.280859000000000E+02
4846000000.000000      6.174622000000000E-01      1.382178000000000E+01      4.916992000000000E-01     -1.290703000000000E+02
4847000000.000000      6.193848000000000E-01      1.396484000000000E+01      4.901733000000000E-01     -1.297734000000000E+02
4848000000.000000      6.177979000000000E-01      1.393848000000000E+01      4.857941000000000E-01     -1.308359000000000E+02
4849000000.000000      6.188354000000000E-01      1.391943000000000E+01      4.856720000000000E-01     -1.315391000000000E+02
4850000000.000000      6.202087000000000E-01      1.410498000000000E+01      4.833679000000000E-01     -1.322656000000000E+02
4851000000.000000      6.226196000000000E-01      1.414453000000000E+01      4.817657000000000E-01     -1.333906000000000E+02
4852000000.000000      6.219177000000000E-01      1.421631000000000E+01      4.801483000000000E-01     -1.340469000000000E+02
4853000000.000000      6.239014000000000E-01      1.424219000000000E+01      4.768066000000000E-01     -1.349688000000000E+02
4854000000.000000      6.243286000000000E-01      1.420361000000000E+01      4.745026000000000E-01     -1.358203000000000E+02
4855000000.000000      6.261902000000000E-01      1.433301000000000E+01      4.722290000000000E-01     -1.366641000000000E+02
4856000000.000000      6.257324000000000E-01      1.431494000000000E+01      4.701996000000000E-01     -1.376250000000000E+02
4857000000.000000      6.275635000000000E-01      1.449609000000000E+01      4.682617000000000E-01     -1.382578000000000E+02
4858000000.000000      6.303711000000000E-01      1.437793000000000E+01      4.657593000000000E-01     -1.391719000000000E+02
4859000000.000000      6.293030000000000E-01      1.424219000000000E+01      4.631653000000000E-01     -1.400703000000000E+02
4860000000.000000      6.315613000000000E-01      1.433154000000000E+01      4.596252000000000E-01     -1.407578000000000E+02
4861000000.000000      6.310425000000000E-01      1.454980000000000E+01      4.558258000000000E-01     -1.416953000000000E+02
4862000000.000000      6.321716000000000E-01      1.444531000000000E+01      4.539948000000000E-01     -1.423203000000000E+02
4863000000.000000      6.360474000000000E-01      1.454004000000000E+01      4.485321000000000E-01     -1.434453000000000E+02
4864000000.000000      6.374817000000000E-01      1.444971000000000E+01      4.461975000000000E-01     -1.441094000000000E+02
4865000000.000000      6.367188000000000E-01      1.441943000000000E+01      4.409637000000000E-01     -1.448516000000000E+02
4866000000.000000      6.394348000000000E-01      1.430664000000000E+01      4.378357000000000E-01     -1.458203000000000E+02
4867000000.000000      6.380920000000000E-01      1.444824000000000E+01      4.335938000000000E-01     -1.465859000000000E+02
4868000000.000000      6.399231000000000E-01      1.420801000000000E+01      4.293671000000000E-01     -1.470781000000000E+02
4869000000.000000      6.423645000000000E-01      1.433154000000000E+01      4.281921000000000E-01     -1.480313000000000E+02
4870000000.000000      6.444702000000000E-01      1.434814000000000E+01      4.231720000000000E-01     -1.486406000000000E+02
4871000000.000000      6.437378000000000E-01      1.424512000000000E+01      4.176636000000000E-01     -1.495234000000000E+02
4872000000.000000      6.480713000000000E-01      1.430420000000000E+01      4.142456000000000E-01     -1.501250000000000E+02
4873000000.000000      6.474609000000000E-01      1.418164000000000E+01      4.089355000000000E-01     -1.509063000000000E+02
4874000000.000000      6.470642000000000E-01      1.423828000000000E+01      4.054565000000000E-01     -1.514688000000000E+02
4875000000.000000      6.500549000000000E-01      1.414746000000000E+01      3.988342000000000E-01     -1.520625000000000E+02
4876000000.000000      6.500854000000000E-01      1.412549000000000E+01      3.953705000000000E-01     -1.527187000000000E+02
4877000000.000000      6.538086000000000E-01      1.403076000000000E+01      3.926086000000000E-01     -1.535234000000000E+02
4878000000.000000      6.532593000000000E-01      1.380127000000000E+01      3.870239000000000E-01     -1.541563000000000E+02
4879000000.000000      6.558838000000000E-01      1.388379000000000E+01      3.821411000000000E-01     -1.545312000000000E+02
4880000000.000000      6.571655000000000E-01      1.393750000000000E+01      3.779297000000000E-01     -1.551719000000000E+02
4881000000.000000      6.586304000000000E-01      1.380127000000000E+01      3.735199000000000E-01     -1.557031000000000E+02
4882000000.000000      6.601868000000000E-01      1.387549000000000E+01      3.705597000000000E-01     -1.564297000000000E+02
4883000000.000000      6.601563000000000E-01      1.374658000000000E+01      3.660126000000000E-01     -1.568672000000000E+02
4884000000.000000      6.610413000000000E-01      1.367920000000000E+01      3.609467000000000E-01     -1.572187000000000E+02
4885000000.000000      6.623535000000000E-01      1.360791000000000E+01      3.575134000000000E-01     -1.576875000000000E+02
4886000000.000000      6.645813000000000E-01      1.363232000000000E+01      3.514252000000000E-01     -1.582266000000000E+02
4887000000.000000      6.643677000000000E-01      1.349658000000000E+01      3.478851000000000E-01     -1.586406000000000E+02
4888000000.000000      6.651611000000000E-01      1.326172000000000E+01      3.454590000000000E-01     -1.592031000000000E+02
4889000000.000000      6.675110000000000E-01      1.340186000000000E+01      3.386688000000000E-01     -1.595937000000000E+02
4890000000.000000      6.668396000000000E-01      1.305420000000000E+01      3.347778000000000E-01     -1.602734000000000E+02
4891000000.000000      6.691284000000000E-01      1.312988000000000E+01      3.313751000000000E-01     -1.604375000000000E+02
4892000000.000000      6.686096000000000E-01      1.299805000000000E+01      3.262939000000000E-01     -1.606641000000000E+02
4893000000.000000      6.716003000000000E-01      1.296631000000000E+01      3.233643000000000E-01     -1.613359000000000E+02
4894000000.000000      6.723022000000000E-01      1.270410000000000E+01      3.188171000000000E-01     -1.616797000000000E+02
4895000000.000000      6.757507000000000E-01      1.281787000000000E+01      3.170013000000000E-01     -1.620469000000000E+02
4896000000.000000      6.730347000000000E-01      1.261230000000000E+01      3.123474000000000E-01     -1.624531000000000E+02
4897000000.000000      6.746521000000000E-01      1.242236000000000E+01      3.084106000000000E-01     -1.628047000000000E+02
4898000000.000000      6.772461000000000E-01      1.250098000000000E+01      3.047180000000000E-01     -1.631406000000000E+02
4899000000.000000      6.769409000000000E-01      1.248828000000000E+01      3.012695000000000E-01     -1.636797000000000E+02
4900000000.000000      6.776733000000000E-01      1.233447000000000E+01      2.969513000000000E-01     -1.637422000000000E+02
4901000000.000000      6.794434000000000E-01      1.233740000000000E+01      2.935028000000000E-01     -1.641562000000000E+02
4902000000.000000      6.797180000000000E-01      1.215479000000000E+01      2.906036000000000E-01     -1.644219000000000E+02
4903000000.000000      6.815491000000000E-01      1.219043000000000E+01      2.859344000000000E-01     -1.648281000000000E+02
4904000000.000000      6.809998000000000E-01      1.197900000000000E+01      2.821808000000000E-01     -1.651719000000000E+02
4905000000.000000      6.810303000000000E-01      1.175781000000000E+01      2.800598000000000E-01     -1.655313000000000E+02
4906000000.000000      6.818848000000000E-01      1.171924000000000E+01      2.760010000000000E-01     -1.655937000000000E+02
4907000000.000000      6.821289000000000E-01      1.152441000000000E+01      2.724457000000000E-01     -1.661094000000000E+02
4908000000.000000      6.828613000000000E-01      1.132129000000000E+01      2.697144000000000E-01     -1.664141000000000E+02
4909000000.000000      6.839600000000000E-01      1.135400000000000E+01      2.653503000000000E-01     -1.667500000000000E+02
4910000000.000000      6.841736000000000E-01      1.131006000000000E+01      2.624207000000000E-01     -1.669531000000000E+02
4911000000.000000      6.836243000000000E-01      1.115479000000000E+01      2.591553000000000E-01     -1.671875000000000E+02
4912000000.000000      6.864014000000000E-01      1.113428000000000E+01      2.554169000000000E-01     -1.676719000000000E+02
4913000000.000000      6.877136000000000E-01      1.102734000000000E+01      2.514954000000000E-01     -1.679297000000000E+02
4914000000.000000      6.876526000000000E-01      1.101611000000000E+01      2.484207000000000E-01     -1.681250000000000E+02
4915000000.000000      6.880188000000000E-01      1.061133000000000E+01      2.442322000000000E-01     -1.684922000000000E+02
4916000000.000000      6.886597000000000E-01      1.073047000000000E+01      2.412720000000000E-01     -1.687813000000000E+02
4917000000.000000      6.884155000000000E-01      1.043262000000000E+01      2.374191000000000E-01     -1.690000000000000E+02
4918000000.000000      6.885681000000000E-01      1.048633000000000E+01      2.330933000000000E-01     -1.692109000000000E+02
4919000000.000000      6.887207000000000E-01      1.046826000000000E+01      2.308578000000000E-01     -1.693828000000000E+02
4920000000.000000      6.886597000000000E-01      1.028174000000000E+01      2.265701000000000E-01     -1.697969000000000E+02
4921000000.000000      6.902466000000000E-01      1.018701000000000E+01      2.236404000000000E-01     -1.698203000000000E+02
4922000000.000000      6.919556000000000E-01      1.016602000000000E+01      2.193527000000000E-01     -1.700156000000000E+02
4923000000.000000      6.911011000000000E-01      1.006885000000000E+01      2.151260000000000E-01     -1.700391000000000E+02
4924000000.000000      6.936951000000000E-01      1.003418000000000E+01      2.116013000000000E-01     -1.703906000000000E+02
4925000000.000000      6.919250000000000E-01      9.718750000000000E+00      2.081757000000000E-01     -1.705781000000000E+02
4926000000.000000      6.940613000000000E-01      9.631836000000000E+00      2.044907000000000E-01     -1.707734000000000E+02
4927000000.000000      6.940918000000000E-01      9.644531000000000E+00      2.005386000000000E-01     -1.707891000000000E+02
4928000000.000000      6.936646000000000E-01      9.504395000000000E+00      1.970215000000000E-01     -1.708516000000000E+02
4929000000.000000      6.950989000000000E-01      9.413574000000000E+00      1.929016000000000E-01     -1.707578000000000E+02
4930000000.000000      6.966553000000000E-01      9.428711000000000E+00      1.898499000000000E-01     -1.709063000000000E+02
4931000000.000000      6.957397000000000E-01      9.235352000000000E+00      1.866226000000000E-01     -1.706797000000000E+02
4932000000.000000      6.954041000000000E-01      9.030762000000000E+00      1.823196000000000E-01     -1.708125000000000E+02
4933000000.000000      6.954651000000000E-01      9.171875000000000E+00      1.779251000000000E-01     -1.705000000000000E+02
4934000000.000000      6.991577000000000E-01      8.924805000000000E+00      1.745224000000000E-01     -1.705703000000000E+02
4935000000.000000      6.971436000000000E-01      8.852051000000000E+00      1.705856000000000E-01     -1.702422000000000E+02
4936000000.000000      6.974792000000000E-01      8.833984000000000E+00      1.671448000000000E-01     -1.700312000000000E+02
4937000000.000000      6.972351000000000E-01      8.492188000000000E+00      1.639557000000000E-01     -1.700312000000000E+02
4938000000.000000      6.993713000000000E-01      8.871094000000000E+00      1.595993000000000E-01     -1.695156000000000E+02
4939000000.000000      6.982422000000000E-01      8.511230000000000E+00      1.563797000000000E-01     -1.691641000000000E+02
4940000000.000000      6.983643000000000E-01      8.596680000000000E+00      1.529388000000000E-01     -1.688594000000000E+02
4941000000.000000      6.999512000000000E-01      8.218750000000000E+00      1.496658000000000E-01     -1.683359000000000E+02
4942000000.000000      6.981201000000000E-01      8.130859000000000E+00      1.457901000000000E-01     -1.678906000000000E+02
4943000000.000000      7.008667000000000E-01      8.120117000000000E+00      1.428680000000000E-01     -1.669844000000000E+02
4944000000.000000      7.012329000000000E-01      7.947021000000000E+00      1.394958000000000E-01     -1.665547000000000E+02
4945000000.000000      7.016296000000000E-01      7.914063000000000E+00      1.358871000000000E-01     -1.657891000000000E+02
4946000000.000000      7.005615000000000E-01      8.034668000000000E+00      1.330872000000000E-01     -1.645234000000000E+02
4947000000.000000      7.018433000000000E-01      7.829102000000000E+00      1.304092000000000E-01     -1.638984000000000E+02
4948000000.000000      7.019653000000000E-01      7.585938000000000E+00      1.272049000000000E-01     -1.629922000000000E+02
4949000000.000000      7.046204000000000E-01      7.541992000000000E+00      1.244087000000000E-01     -1.616484000000000E+02
4950000000.000000      7.047424000000000E-01      7.531006000000000E+00      1.218948000000000E-01     -1.608281000000000E+02
4951000000.000000      7.026062000000000E-01      7.313965000000000E+00      1.196022000000000E-01     -1.594922000000000E+02
4952000000.000000      7.023621000000000E-01      7.229004000000000E+00      1.168175000000000E-01     -1.581094000000000E+02
4953000000.000000      7.058716000000000E-01      6.877441000000000E+00      1.148376000000000E-01     -1.566953000000000E+02
4954000000.000000      7.060852000000000E-01      6.992676000000000E+00      1.126480000000000E-01     -1.552734000000000E+02
