! Network Analyzer HP8722D
! Hewlett-Packard
! Data name: Linha & Wilkinson
! Saver's name: Rodrigo Anjos
! Comments: Teste da utilização de aquisição
continua pelo VNA HP8722D
! Time and date: 22/5/2025 10:15
!              Frequency                     S11                                                   S21                                                   S12                                                   S22
# HZ  S  MA R 50
4800000000.000000      6.466980000000000E-01      1.043408000000000E+01      4.751434000000000E-01     -9.373047000000000E+01
4801000000.000000      6.447449000000000E-01      1.043555000000000E+01      4.747162000000000E-01     -9.425781000000000E+01
4802000000.000000      6.422119000000000E-01      1.045166000000000E+01      4.782867000000000E-01     -9.510546000000000E+01
4803000000.000000      6.414490000000000E-01      1.039014000000000E+01      4.806976000000000E-01     -9.594141000000000E+01
4804000000.000000      6.386108000000000E-01      1.040527000000000E+01      4.820251000000000E-01     -9.676952000000000E+01
4805000000.000000      6.398315000000000E-01      1.038574000000000E+01      4.836426000000000E-01     -9.762890000000000E+01
4806000000.000000      6.379700000000000E-01      1.035840000000000E+01      4.851990000000000E-01     -9.833202000000000E+01
4807000000.000000      6.342773000000000E-01      1.057275000000000E+01      4.858551000000000E-01     -9.909374000000000E+01
4808000000.000000      6.313477000000000E-01      1.047949000000000E+01      4.879303000000000E-01     -9.974218000000000E+01
4809000000.000000      6.323547000000000E-01      1.060986000000000E+01      4.888458000000000E-01     -1.006445000000000E+02
4810000000.000000      6.304626000000000E-01      1.057275000000000E+01      4.907532000000000E-01     -1.011601000000000E+02
4811000000.000000      6.290894000000000E-01      1.056885000000000E+01      4.914703000000000E-01     -1.022187000000000E+02
4812000000.000000      6.293640000000000E-01      1.092285000000000E+01      4.921722000000000E-01     -1.028203000000000E+02
4813000000.000000      6.266174000000000E-01      1.070459000000000E+01      4.940948000000000E-01     -1.034727000000000E+02
4814000000.000000      6.239624000000000E-01      1.089258000000000E+01      4.938507000000000E-01     -1.043203000000000E+02
4815000000.000000      6.234741000000000E-01      1.078711000000000E+01      4.951477000000000E-01     -1.051953000000000E+02
4816000000.000000      6.220093000000000E-01      1.093799000000000E+01      4.966431000000000E-01     -1.059219000000000E+02
4817000000.000000      6.209106000000000E-01      1.110156000000000E+01      4.961853000000000E-01     -1.064492000000000E+02
4818000000.000000      6.208496000000000E-01      1.118945000000000E+01      4.967041000000000E-01     -1.074414000000000E+02
4819000000.000000      6.197510000000000E-01      1.114014000000000E+01      4.969177000000000E-01     -1.079570000000000E+02
4820000000.000000      6.164246000000000E-01      1.128125000000000E+01      4.982758000000000E-01     -1.087422000000000E+02
4821000000.000000      6.177368000000000E-01      1.124268000000000E+01      4.983978000000000E-01     -1.097187000000000E+02
4822000000.000000      6.154480000000000E-01      1.139795000000000E+01      4.966125000000000E-01     -1.103047000000000E+02
4823000000.000000      6.166382000000000E-01      1.147217000000000E+01      4.997406000000000E-01     -1.111680000000000E+02
4824000000.000000      6.151123000000000E-01      1.173877000000000E+01      4.986267000000000E-01     -1.118476000000000E+02
4825000000.000000      6.145630000000000E-01      1.177148000000000E+01      4.994049000000000E-01     -1.125469000000000E+02
4826000000.000000      6.130371000000000E-01      1.172070000000000E+01      5.005188000000000E-01     -1.134922000000000E+02
4827000000.000000      6.131897000000000E-01      1.198438000000000E+01      5.000305000000000E-01     -1.139922000000000E+02
4828000000.000000      6.141052000000000E-01      1.210107000000000E+01      5.000305000000000E-01     -1.147461000000000E+02
4829000000.000000      6.133728000000000E-01      1.221240000000000E+01      5.003967000000000E-01     -1.154570000000000E+02
4830000000.000000      6.130066000000000E-01      1.227539000000000E+01      4.998474000000000E-01     -1.163867000000000E+02
4831000000.000000      6.121216000000000E-01      1.218750000000000E+01      5.003052000000000E-01     -1.170508000000000E+02
4832000000.000000      6.101990000000000E-01      1.270410000000000E+01      4.988251000000000E-01     -1.179492000000000E+02
4833000000.000000      6.116943000000000E-01      1.249805000000000E+01      4.989319000000000E-01     -1.184922000000000E+02
4834000000.000000      6.107483000000000E-01      1.282910000000000E+01      4.985352000000000E-01     -1.192851000000000E+02
4835000000.000000      6.122742000000000E-01      1.281006000000000E+01      4.995117000000000E-01     -1.201992000000000E+02
4836000000.000000      6.106567000000000E-01      1.300635000000000E+01      4.973145000000000E-01     -1.210781000000000E+02
4837000000.000000      6.126709000000000E-01      1.322021000000000E+01      4.960938000000000E-01     -1.221367000000000E+02
4838000000.000000      6.123047000000000E-01      1.324951000000000E+01      4.977570000000000E-01     -1.222930000000000E+02
4839000000.000000      6.153259000000000E-01      1.337549000000000E+01      4.966583000000000E-01     -1.233437000000000E+02
4840000000.000000      6.130066000000000E-01      1.333984000000000E+01      4.972687000000000E-01     -1.240977000000000E+02
4841000000.000000      6.145020000000000E-01      1.355811000000000E+01      4.952087000000000E-01     -1.249258000000000E+02
4842000000.000000      6.141357000000000E-01      1.350732000000000E+01      4.954681000000000E-01     -1.257539000000000E+02
4843000000.000000      6.152954000000000E-01      1.349658000000000E+01      4.959564000000000E-01     -1.265977000000000E+02
4844000000.000000      6.155090000000000E-01      1.365723000000000E+01      4.934540000000000E-01     -1.275234000000000E+02
4845000000.000000      6.171875000000000E-01      1.387158000000000E+01      4.922943000000000E-01     -1.281953000000000E+02
4846000000.000000      6.189575000000000E-01      1.399756000000000E+01      4.917297000000000E-01     -1.291328000000000E+02
4847000000.000000      6.183777000000000E-01      1.403320000000000E+01      4.899597000000000E-01     -1.297578000000000E+02
4848000000.000000      6.192017000000000E-01      1.406787000000000E+01      4.863586000000000E-01     -1.307500000000000E+02
4849000000.000000      6.208191000000000E-01      1.400439000000000E+01      4.875793000000000E-01     -1.314922000000000E+02
4850000000.000000      6.198120000000000E-01      1.407031000000000E+01      4.844971000000000E-01     -1.323281000000000E+02
4851000000.000000      6.226196000000000E-01      1.439600000000000E+01      4.844055000000000E-01     -1.331563000000000E+02
4852000000.000000      6.232605000000000E-01      1.428613000000000E+01      4.811554000000000E-01     -1.341406000000000E+02
4853000000.000000      6.229553000000000E-01      1.444678000000000E+01      4.774323000000000E-01     -1.349141000000000E+02
4854000000.000000      6.253357000000000E-01      1.432715000000000E+01      4.753418000000000E-01     -1.358984000000000E+02
4855000000.000000      6.265259000000000E-01      1.442871000000000E+01      4.733582000000000E-01     -1.367812000000000E+02
4856000000.000000      6.277771000000000E-01      1.448242000000000E+01      4.716187000000000E-01     -1.374453000000000E+02
4857000000.000000      6.278076000000000E-01      1.459668000000000E+01      4.692230000000000E-01     -1.383906000000000E+02
4858000000.000000      6.297302000000000E-01      1.453857000000000E+01      4.664001000000000E-01     -1.392266000000000E+02
4859000000.000000      6.313477000000000E-01      1.453076000000000E+01      4.641266000000000E-01     -1.401094000000000E+02
4860000000.000000      6.304321000000000E-01      1.452637000000000E+01      4.595642000000000E-01     -1.407344000000000E+02
4861000000.000000      6.327515000000000E-01      1.441797000000000E+01      4.560699000000000E-01     -1.418750000000000E+02
4862000000.000000      6.337280000000000E-01      1.470508000000000E+01      4.545288000000000E-01     -1.422500000000000E+02
4863000000.000000      6.364136000000000E-01      1.472168000000000E+01      4.489746000000000E-01     -1.433906000000000E+02
4864000000.000000      6.388855000000000E-01      1.462109000000000E+01      4.471588000000000E-01     -1.441328000000000E+02
4865000000.000000      6.376953000000000E-01      1.454980000000000E+01      4.420319000000000E-01     -1.447578000000000E+02
4866000000.000000      6.385498000000000E-01      1.452100000000000E+01      4.383240000000000E-01     -1.456953000000000E+02
4867000000.000000      6.401062000000000E-01      1.457861000000000E+01      4.328003000000000E-01     -1.465234000000000E+02
4868000000.000000      6.430969000000000E-01      1.446582000000000E+01      4.312744000000000E-01     -1.473047000000000E+02
4869000000.000000      6.441956000000000E-01      1.442773000000000E+01      4.262848000000000E-01     -1.479219000000000E+02
4870000000.000000      6.452026000000000E-01      1.445215000000000E+01      4.224854000000000E-01     -1.485781000000000E+02
4871000000.000000      6.443481000000000E-01      1.451660000000000E+01      4.183960000000000E-01     -1.494531000000000E+02
4872000000.000000      6.459961000000000E-01      1.430420000000000E+01      4.131470000000000E-01     -1.500859000000000E+02
4873000000.000000      6.478882000000000E-01      1.435498000000000E+01      4.099579000000000E-01     -1.507813000000000E+02
4874000000.000000      6.494446000000000E-01      1.437793000000000E+01      4.047241000000000E-01     -1.515078000000000E+02
4875000000.000000      6.521301000000000E-01      1.435889000000000E+01      3.989716000000000E-01     -1.518750000000000E+02
4876000000.000000      6.509399000000000E-01      1.426123000000000E+01      3.964996000000000E-01     -1.527734000000000E+02
4877000000.000000      6.531372000000000E-01      1.410059000000000E+01      3.917542000000000E-01     -1.533984000000000E+02
4878000000.000000      6.523132000000000E-01      1.409375000000000E+01      3.880920000000000E-01     -1.540234000000000E+02
4879000000.000000      6.569519000000000E-01      1.408838000000000E+01      3.824463000000000E-01     -1.544844000000000E+02
4880000000.000000      6.575928000000000E-01      1.402637000000000E+01      3.777618000000000E-01     -1.552031000000000E+02
4881000000.000000      6.586304000000000E-01      1.403467000000000E+01      3.734283000000000E-01     -1.557109000000000E+02
4882000000.000000      6.587524000000000E-01      1.381348000000000E+01      3.700256000000000E-01     -1.560625000000000E+02
4883000000.000000      6.607056000000000E-01      1.385498000000000E+01      3.657684000000000E-01     -1.567969000000000E+02
4884000000.000000      6.636658000000000E-01      1.385205000000000E+01      3.614197000000000E-01     -1.572031000000000E+02
4885000000.000000      6.643372000000000E-01      1.379736000000000E+01      3.570099000000000E-01     -1.577109000000000E+02
4886000000.000000      6.650696000000000E-01      1.363525000000000E+01      3.530426000000000E-01     -1.578984000000000E+02
4887000000.000000      6.670227000000000E-01      1.362695000000000E+01      3.475952000000000E-01     -1.585312000000000E+02
4888000000.000000      6.665039000000000E-01      1.341943000000000E+01      3.446503000000000E-01     -1.594609000000000E+02
4889000000.000000      6.659546000000000E-01      1.343066000000000E+01      3.400574000000000E-01     -1.595391000000000E+02
4890000000.000000      6.661987000000000E-01      1.319971000000000E+01      3.352051000000000E-01     -1.602656000000000E+02
4891000000.000000      6.688843000000000E-01      1.329590000000000E+01      3.309784000000000E-01     -1.606797000000000E+02
4892000000.000000      6.681519000000000E-01      1.309570000000000E+01      3.268280000000000E-01     -1.608125000000000E+02
4893000000.000000      6.732178000000000E-01      1.294971000000000E+01      3.235168000000000E-01     -1.613516000000000E+02
4894000000.000000      6.713257000000000E-01      1.297314000000000E+01      3.197784000000000E-01     -1.616406000000000E+02
4895000000.000000      6.734924000000000E-01      1.286865000000000E+01      3.169250000000000E-01     -1.620937000000000E+02
4896000000.000000      6.750793000000000E-01      1.278223000000000E+01      3.119812000000000E-01     -1.623125000000000E+02
4897000000.000000      6.755371000000000E-01      1.272754000000000E+01      3.076935000000000E-01     -1.627656000000000E+02
4898000000.000000      6.773071000000000E-01      1.273291000000000E+01      3.048859000000000E-01     -1.629453000000000E+02
4899000000.000000      6.751404000000000E-01      1.242383000000000E+01      3.012390000000000E-01     -1.635781000000000E+02
4900000000.000000      6.764526000000000E-01      1.225342000000000E+01      2.975922000000000E-01     -1.637500000000000E+02
4901000000.000000      6.762085000000000E-01      1.224561000000000E+01      2.933197000000000E-01     -1.640781000000000E+02
4902000000.000000      6.789856000000000E-01      1.218896000000000E+01      2.907410000000000E-01     -1.642812000000000E+02
4903000000.000000      6.808167000000000E-01      1.221924000000000E+01      2.859955000000000E-01     -1.647344000000000E+02
4904000000.000000      6.817932000000000E-01      1.209277000000000E+01      2.824249000000000E-01     -1.650625000000000E+02
4905000000.000000      6.825562000000000E-01      1.195410000000000E+01      2.793579000000000E-01     -1.653828000000000E+02
4906000000.000000      6.832581000000000E-01      1.180029000000000E+01      2.757568000000000E-01     -1.655859000000000E+02
4907000000.000000      6.820679000000000E-01      1.165625000000000E+01      2.727661000000000E-01     -1.660312000000000E+02
4908000000.000000      6.824341000000000E-01      1.155322000000000E+01      2.695770000000000E-01     -1.663594000000000E+02
4909000000.000000      6.834717000000000E-01      1.150781000000000E+01      2.654114000000000E-01     -1.666563000000000E+02
4910000000.000000      6.853943000000000E-01      1.145166000000000E+01      2.618713000000000E-01     -1.668828000000000E+02
4911000000.000000      6.856079000000000E-01      1.144189000000000E+01      2.592773000000000E-01     -1.671797000000000E+02
4912000000.000000      6.865234000000000E-01      1.128662000000000E+01      2.551117000000000E-01     -1.675000000000000E+02
4913000000.000000      6.846619000000000E-01      1.092139000000000E+01      2.510681000000000E-01     -1.677656000000000E+02
4914000000.000000      6.874390000000000E-01      1.103418000000000E+01      2.485352000000000E-01     -1.681015000000000E+02
4915000000.000000      6.877747000000000E-01      1.099561000000000E+01      2.450485000000000E-01     -1.682891000000000E+02
4916000000.000000      6.885376000000000E-01      1.088867000000000E+01      2.409134000000000E-01     -1.687109000000000E+02
4917000000.000000      6.882935000000000E-01      1.092041000000000E+01      2.373047000000000E-01     -1.687734000000000E+02
4918000000.000000      6.886292000000000E-01      1.063574000000000E+01      2.333069000000000E-01     -1.691015000000000E+02
4919000000.000000      6.903992000000000E-01      1.064258000000000E+01      2.304230000000000E-01     -1.690469000000000E+02
4920000000.000000      6.890869000000000E-01      1.052734000000000E+01      2.257309000000000E-01     -1.696563000000000E+02
4921000000.000000      6.911011000000000E-01      1.040088000000000E+01      2.235336000000000E-01     -1.696875000000000E+02
4922000000.000000      6.912842000000000E-01      1.018945000000000E+01      2.191925000000000E-01     -1.698828000000000E+02
4923000000.000000      6.905518000000000E-01      1.031445000000000E+01      2.153168000000000E-01     -1.700781000000000E+02
4924000000.000000      6.925659000000000E-01      1.003857000000000E+01      2.113419000000000E-01     -1.705078000000000E+02
4925000000.000000      6.919556000000000E-01      1.004395000000000E+01      2.080612000000000E-01     -1.702734000000000E+02
4926000000.000000      6.915283000000000E-01      9.793945000000000E+00      2.046432000000000E-01     -1.705703000000000E+02
4927000000.000000      6.925049000000000E-01      9.905273000000000E+00      2.003403000000000E-01     -1.706172000000000E+02
4928000000.000000      6.958008000000000E-01      9.643066000000000E+00      1.969910000000000E-01     -1.706250000000000E+02
4929000000.000000      6.919556000000000E-01      9.612793000000000E+00      1.929855000000000E-01     -1.706250000000000E+02
4930000000.000000      6.952515000000000E-01      9.475586000000000E+00      1.891785000000000E-01     -1.707031000000000E+02
4931000000.000000      6.939087000000000E-01      9.527832000000000E+00      1.861877000000000E-01     -1.707344000000000E+02
4932000000.000000      6.973572000000000E-01      9.335449000000000E+00      1.822281000000000E-01     -1.706797000000000E+02
4933000000.000000      6.955566000000000E-01      9.176270000000000E+00      1.775131000000000E-01     -1.704062000000000E+02
4934000000.000000      6.982727000000000E-01      9.041504000000000E+00      1.736298000000000E-01     -1.704297000000000E+02
4935000000.000000      6.995239000000000E-01      9.063477000000000E+00      1.710205000000000E-01     -1.701250000000000E+02
4936000000.000000      6.976929000000000E-01      8.762695000000000E+00      1.672516000000000E-01     -1.699922000000000E+02
4937000000.000000      6.996460000000000E-01      8.674805000000000E+00      1.629944000000000E-01     -1.697969000000000E+02
4938000000.000000      6.980591000000000E-01      8.806641000000000E+00      1.600647000000000E-01     -1.692109000000000E+02
4939000000.000000      6.975708000000000E-01      8.728516000000000E+00      1.561203000000000E-01     -1.689219000000000E+02
4940000000.000000      6.979675000000000E-01      8.614258000000000E+00      1.524734000000000E-01     -1.686328000000000E+02
4941000000.000000      6.993408000000000E-01      8.426270000000000E+00      1.495590000000000E-01     -1.679141000000000E+02
4942000000.000000      6.996155000000000E-01      8.313477000000000E+00      1.454773000000000E-01     -1.676719000000000E+02
4943000000.000000      7.018433000000000E-01      8.229980000000000E+00      1.424789000000000E-01     -1.669531000000000E+02
4944000000.000000      7.019958000000000E-01      8.041992000000000E+00      1.393814000000000E-01     -1.661250000000000E+02
4945000000.000000      7.003784000000000E-01      8.155762000000000E+00      1.359329000000000E-01     -1.654453000000000E+02
4946000000.000000      7.026978000000000E-01      7.904541000000000E+00      1.331482000000000E-01     -1.646250000000000E+02
4947000000.000000      7.017212000000000E-01      7.699951000000000E+00      1.297379000000000E-01     -1.638750000000000E+02
4948000000.000000      7.039185000000000E-01      7.787842000000000E+00      1.273041000000000E-01     -1.627344000000000E+02
4949000000.000000      7.027588000000000E-01      7.631348000000000E+00      1.242371000000000E-01     -1.614063000000000E+02
4950000000.000000      7.045593000000000E-01      7.550293000000000E+00      1.215057000000000E-01     -1.603906000000000E+02
4951000000.000000      7.072144000000000E-01      7.377197000000000E+00      1.193771000000000E-01     -1.593437000000000E+02
4952000000.000000      7.047424000000000E-01      7.281006000000000E+00      1.169739000000000E-01     -1.578516000000000E+02
4953000000.000000      7.064819000000000E-01      7.282471000000000E+00      1.149940000000000E-01     -1.565078000000000E+02
4954000000.000000      7.074890000000000E-01      7.257813000000000E+00      1.129112000000000E-01     -1.549453000000000E+02
