! Network Analyzer HP8722D
! Hewlett-Packard
! Data name: Linha & Wilkinson
! Saver's name: Rodrigo Anjos
! Comments: Teste da utilização de aquisição
continua pelo VNA HP8722D
! Time and date: 22/5/2025 08:27
!              Frequency                     S11                                                   S21                                                   S12                                                   S22
# HZ  S  MA R 50
4800000000.000000      6.477966000000000E-01      1.014697000000000E+01      4.751434000000000E-01     -9.378124000000000E+01
4801000000.000000      6.445313000000000E-01      1.046289000000000E+01      4.769897000000000E-01     -9.437500000000000E+01
4802000000.000000      6.438599000000000E-01      1.015381000000000E+01      4.791870000000000E-01     -9.542187000000000E+01
4803000000.000000      6.420593000000000E-01      1.025146000000000E+01      4.817352000000000E-01     -9.572266000000000E+01
4804000000.000000      6.398926000000000E-01      1.030225000000000E+01      4.813080000000000E-01     -9.682030000000000E+01
4805000000.000000      6.393127000000000E-01      1.023096000000000E+01      4.829865000000000E-01     -9.768358000000000E+01
4806000000.000000      6.373291000000000E-01      1.024609000000000E+01      4.846954000000000E-01     -9.834764000000000E+01
4807000000.000000      6.344299000000000E-01      1.021436000000000E+01      4.863129000000000E-01     -9.902344000000000E+01
4808000000.000000      6.325989000000000E-01      1.011963000000000E+01      4.871674000000000E-01     -9.958984000000000E+01
4809000000.000000      6.314087000000000E-01      1.043262000000000E+01      4.898682000000000E-01     -1.006445000000000E+02
4810000000.000000      6.322632000000000E-01      1.034180000000000E+01      4.902039000000000E-01     -1.015312000000000E+02
4811000000.000000      6.293335000000000E-01      1.054932000000000E+01      4.927216000000000E-01     -1.022148000000000E+02
4812000000.000000      6.289673000000000E-01      1.056592000000000E+01      4.916687000000000E-01     -1.026172000000000E+02
4813000000.000000      6.280518000000000E-01      1.058252000000000E+01      4.931335000000000E-01     -1.035430000000000E+02
4814000000.000000      6.246033000000000E-01      1.056885000000000E+01      4.938049000000000E-01     -1.041250000000000E+02
4815000000.000000      6.240234000000000E-01      1.071436000000000E+01      4.948883000000000E-01     -1.051367000000000E+02
4816000000.000000      6.222229000000000E-01      1.081445000000000E+01      4.955444000000000E-01     -1.057813000000000E+02
4817000000.000000      6.207275000000000E-01      1.086914000000000E+01      4.963531000000000E-01     -1.065625000000000E+02
4818000000.000000      6.201172000000000E-01      1.084033000000000E+01      4.976349000000000E-01     -1.074101000000000E+02
4819000000.000000      6.212769000000000E-01      1.085986000000000E+01      4.972992000000000E-01     -1.080234000000000E+02
4820000000.000000      6.184998000000000E-01      1.105322000000000E+01      4.989929000000000E-01     -1.086992000000000E+02
4821000000.000000      6.173706000000000E-01      1.113428000000000E+01      4.993286000000000E-01     -1.097305000000000E+02
4822000000.000000      6.163635000000000E-01      1.111816000000000E+01      4.970703000000000E-01     -1.101563000000000E+02
4823000000.000000      6.165161000000000E-01      1.125391000000000E+01      4.998016000000000E-01     -1.112539000000000E+02
4824000000.000000      6.128845000000000E-01      1.154932000000000E+01      5.000305000000000E-01     -1.117617000000000E+02
4825000000.000000      6.144104000000000E-01      1.153125000000000E+01      5.005798000000000E-01     -1.125742000000000E+02
4826000000.000000      6.140747000000000E-01      1.148047000000000E+01      5.002136000000000E-01     -1.134219000000000E+02
4827000000.000000      6.146545000000000E-01      1.160254000000000E+01      4.998016000000000E-01     -1.139726000000000E+02
4828000000.000000      6.141663000000000E-01      1.181543000000000E+01      5.011902000000000E-01     -1.148984000000000E+02
4829000000.000000      6.126099000000000E-01      1.209863000000000E+01      5.005188000000000E-01     -1.157461000000000E+02
4830000000.000000      6.131287000000000E-01      1.215332000000000E+01      5.013733000000000E-01     -1.163125000000000E+02
4831000000.000000      6.109924000000000E-01      1.211768000000000E+01      5.000916000000000E-01     -1.171758000000000E+02
4832000000.000000      6.134033000000000E-01      1.220264000000000E+01      4.998627000000000E-01     -1.178711000000000E+02
4833000000.000000      6.110840000000000E-01      1.236768000000000E+01      4.993896000000000E-01     -1.185547000000000E+02
4834000000.000000      6.099548000000000E-01      1.229053000000000E+01      4.997711000000000E-01     -1.194844000000000E+02
4835000000.000000      6.120605000000000E-01      1.268066000000000E+01      4.988403000000000E-01     -1.203672000000000E+02
4836000000.000000      6.137695000000000E-01      1.299268000000000E+01      4.981232000000000E-01     -1.209492000000000E+02
4837000000.000000      6.112366000000000E-01      1.292676000000000E+01      4.981384000000000E-01     -1.218828000000000E+02
4838000000.000000      6.114197000000000E-01      1.303369000000000E+01      4.977417000000000E-01     -1.224883000000000E+02
4839000000.000000      6.160889000000000E-01      1.298584000000000E+01      4.973602000000000E-01     -1.233125000000000E+02
4840000000.000000      6.138306000000000E-01      1.300635000000000E+01      4.969635000000000E-01     -1.240430000000000E+02
4841000000.000000      6.136169000000000E-01      1.343750000000000E+01      4.979858000000000E-01     -1.250156000000000E+02
4842000000.000000      6.151733000000000E-01      1.347852000000000E+01      4.966583000000000E-01     -1.256797000000000E+02
4843000000.000000      6.172791000000000E-01      1.341113000000000E+01      4.951019000000000E-01     -1.264180000000000E+02
4844000000.000000      6.145325000000000E-01      1.341406000000000E+01      4.954376000000000E-01     -1.275000000000000E+02
4845000000.000000      6.171875000000000E-01      1.363232000000000E+01      4.924774000000000E-01     -1.282109000000000E+02
4846000000.000000      6.199341000000000E-01      1.369580000000000E+01      4.911499000000000E-01     -1.291094000000000E+02
4847000000.000000      6.187439000000000E-01      1.375195000000000E+01      4.901886000000000E-01     -1.296875000000000E+02
4848000000.000000      6.183777000000000E-01      1.381787000000000E+01      4.879456000000000E-01     -1.305234000000000E+02
4849000000.000000      6.197815000000000E-01      1.394531000000000E+01      4.860992000000000E-01     -1.316406000000000E+02
4850000000.000000      6.216736000000000E-01      1.397021000000000E+01      4.856110000000000E-01     -1.324375000000000E+02
4851000000.000000      6.234741000000000E-01      1.428076000000000E+01      4.841614000000000E-01     -1.332031000000000E+02
4852000000.000000      6.227722000000000E-01      1.411182000000000E+01      4.814148000000000E-01     -1.341250000000000E+02
4853000000.000000      6.260071000000000E-01      1.417090000000000E+01      4.791260000000000E-01     -1.349922000000000E+02
4854000000.000000      6.251831000000000E-01      1.417236000000000E+01      4.769287000000000E-01     -1.357656000000000E+02
4855000000.000000      6.264648000000000E-01      1.413623000000000E+01      4.737701000000000E-01     -1.367734000000000E+02
4856000000.000000      6.268616000000000E-01      1.443701000000000E+01      4.706116000000000E-01     -1.375234000000000E+02
4857000000.000000      6.297607000000000E-01      1.433838000000000E+01      4.699554000000000E-01     -1.382031000000000E+02
4858000000.000000      6.296387000000000E-01      1.430957000000000E+01      4.651794000000000E-01     -1.391328000000000E+02
4859000000.000000      6.307068000000000E-01      1.431885000000000E+01      4.636841000000000E-01     -1.400703000000000E+02
4860000000.000000      6.317749000000000E-01      1.437402000000000E+01      4.595642000000000E-01     -1.408906000000000E+02
4861000000.000000      6.348877000000000E-01      1.440283000000000E+01      4.559479000000000E-01     -1.416641000000000E+02
4862000000.000000      6.335449000000000E-01      1.433154000000000E+01      4.539795000000000E-01     -1.423984000000000E+02
4863000000.000000      6.356201000000000E-01      1.437012000000000E+01      4.492035000000000E-01     -1.434375000000000E+02
4864000000.000000      6.373901000000000E-01      1.438086000000000E+01      4.475708000000000E-01     -1.441015000000000E+02
4865000000.000000      6.376343000000000E-01      1.427100000000000E+01      4.422150000000000E-01     -1.447578000000000E+02
4866000000.000000      6.403198000000000E-01      1.435059000000000E+01      4.375763000000000E-01     -1.458672000000000E+02
4867000000.000000      6.393738000000000E-01      1.429150000000000E+01      4.337311000000000E-01     -1.466406000000000E+02
4868000000.000000      6.422424000000000E-01      1.411426000000000E+01      4.304962000000000E-01     -1.473672000000000E+02
4869000000.000000      6.430664000000000E-01      1.426807000000000E+01      4.259186000000000E-01     -1.480313000000000E+02
4870000000.000000      6.458130000000000E-01      1.441113000000000E+01      4.236298000000000E-01     -1.487344000000000E+02
4871000000.000000      6.447754000000000E-01      1.426025000000000E+01      4.184875000000000E-01     -1.493828000000000E+02
4872000000.000000      6.484985000000000E-01      1.422705000000000E+01      4.132385000000000E-01     -1.499687000000000E+02
4873000000.000000      6.500854000000000E-01      1.427246000000000E+01      4.090271000000000E-01     -1.509140000000000E+02
4874000000.000000      6.502380000000000E-01      1.421045000000000E+01      4.049377000000000E-01     -1.515391000000000E+02
4875000000.000000      6.513062000000000E-01      1.403467000000000E+01      4.007263000000000E-01     -1.524219000000000E+02
4876000000.000000      6.542664000000000E-01      1.418994000000000E+01      3.966675000000000E-01     -1.528281000000000E+02
4877000000.000000      6.538696000000000E-01      1.388232000000000E+01      3.934326000000000E-01     -1.534141000000000E+02
4878000000.000000      6.561584000000000E-01      1.390723000000000E+01      3.882294000000000E-01     -1.540625000000000E+02
4879000000.000000      6.581421000000000E-01      1.404736000000000E+01      3.835297000000000E-01     -1.544609000000000E+02
4880000000.000000      6.574402000000000E-01      1.381104000000000E+01      3.784180000000000E-01     -1.553672000000000E+02
4881000000.000000      6.596069000000000E-01      1.375049000000000E+01      3.742828000000000E-01     -1.556797000000000E+02
4882000000.000000      6.611938000000000E-01      1.382324000000000E+01      3.709869000000000E-01     -1.561406000000000E+02
4883000000.000000      6.597900000000000E-01      1.368311000000000E+01      3.654480000000000E-01     -1.568984000000000E+02
4884000000.000000      6.642761000000000E-01      1.362549000000000E+01      3.622131000000000E-01     -1.573828000000000E+02
4885000000.000000      6.640320000000000E-01      1.352393000000000E+01      3.567200000000000E-01     -1.576250000000000E+02
4886000000.000000      6.653442000000000E-01      1.348389000000000E+01      3.530426000000000E-01     -1.580547000000000E+02
4887000000.000000      6.654968000000000E-01      1.338135000000000E+01      3.487701000000000E-01     -1.586484000000000E+02
4888000000.000000      6.665955000000000E-01      1.329053000000000E+01      3.455963000000000E-01     -1.592422000000000E+02
4889000000.000000      6.698914000000000E-01      1.320264000000000E+01      3.398743000000000E-01     -1.597265000000000E+02
4890000000.000000      6.691589000000000E-01      1.325195000000000E+01      3.349152000000000E-01     -1.602500000000000E+02
4891000000.000000      6.720276000000000E-01      1.304590000000000E+01      3.317413000000000E-01     -1.606094000000000E+02
4892000000.000000      6.702271000000000E-01      1.297607000000000E+01      3.277283000000000E-01     -1.609141000000000E+02
4893000000.000000      6.721802000000000E-01      1.293604000000000E+01      3.242645000000000E-01     -1.614297000000000E+02
4894000000.000000      6.727295000000000E-01      1.279346000000000E+01      3.188782000000000E-01     -1.617500000000000E+02
4895000000.000000      6.763306000000000E-01      1.282080000000000E+01      3.172913000000000E-01     -1.620625000000000E+02
4896000000.000000      6.749268000000000E-01      1.259424000000000E+01      3.132935000000000E-01     -1.623750000000000E+02
4897000000.000000      6.764526000000000E-01      1.257373000000000E+01      3.076630000000000E-01     -1.627969000000000E+02
4898000000.000000      6.764832000000000E-01      1.259424000000000E+01      3.051147000000000E-01     -1.631172000000000E+02
4899000000.000000      6.754456000000000E-01      1.239502000000000E+01      3.014984000000000E-01     -1.636484000000000E+02
4900000000.000000      6.784973000000000E-01      1.220557000000000E+01      2.978210000000000E-01     -1.638750000000000E+02
4901000000.000000      6.797485000000000E-01      1.202002000000000E+01      2.944183000000000E-01     -1.641172000000000E+02
4902000000.000000      6.803284000000000E-01      1.194873000000000E+01      2.909241000000000E-01     -1.643359000000000E+02
4903000000.000000      6.829224000000000E-01      1.188135000000000E+01      2.865753000000000E-01     -1.647500000000000E+02
4904000000.000000      6.825867000000000E-01      1.187744000000000E+01      2.831879000000000E-01     -1.651719000000000E+02
4905000000.000000      6.829224000000000E-01      1.169629000000000E+01      2.799072000000000E-01     -1.654766000000000E+02
4906000000.000000      6.819153000000000E-01      1.167969000000000E+01      2.752533000000000E-01     -1.656641000000000E+02
4907000000.000000      6.842346000000000E-01      1.146533000000000E+01      2.729034000000000E-01     -1.660859000000000E+02
4908000000.000000      6.844788000000000E-01      1.139404000000000E+01      2.694397000000000E-01     -1.663125000000000E+02
4909000000.000000      6.831360000000000E-01      1.125684000000000E+01      2.659760000000000E-01     -1.666875000000000E+02
4910000000.000000      6.842957000000000E-01      1.119092000000000E+01      2.627563000000000E-01     -1.670312000000000E+02
4911000000.000000      6.865540000000000E-01      1.104932000000000E+01      2.590942000000000E-01     -1.671328000000000E+02
4912000000.000000      6.858521000000000E-01      1.109180000000000E+01      2.551727000000000E-01     -1.676172000000000E+02
4913000000.000000      6.869202000000000E-01      1.090771000000000E+01      2.523346000000000E-01     -1.677578000000000E+02
4914000000.000000      6.869812000000000E-01      1.093115000000000E+01      2.481461000000000E-01     -1.680703000000000E+02
4915000000.000000      6.886597000000000E-01      1.077197000000000E+01      2.449799000000000E-01     -1.685781000000000E+02
4916000000.000000      6.885681000000000E-01      1.071436000000000E+01      2.411880000000000E-01     -1.687969000000000E+02
4917000000.000000      6.881104000000000E-01      1.066748000000000E+01      2.380447000000000E-01     -1.689219000000000E+02
4918000000.000000      6.925049000000000E-01      1.043115000000000E+01      2.337112000000000E-01     -1.690781000000000E+02
4919000000.000000      6.895752000000000E-01      1.040918000000000E+01      2.308578000000000E-01     -1.692266000000000E+02
4920000000.000000      6.925964000000000E-01      1.030615000000000E+01      2.261353000000000E-01     -1.697187000000000E+02
4921000000.000000      6.927490000000000E-01      1.017578000000000E+01      2.236938000000000E-01     -1.698594000000000E+02
4922000000.000000      6.906433000000000E-01      9.939453000000000E+00      2.195892000000000E-01     -1.699062000000000E+02
4923000000.000000      6.910706000000000E-01      1.014697000000000E+01      2.154770000000000E-01     -1.701719000000000E+02
4924000000.000000      6.929626000000000E-01      1.003418000000000E+01      2.116089000000000E-01     -1.704766000000000E+02
4925000000.000000      6.934204000000000E-01      9.674805000000000E+00      2.084122000000000E-01     -1.704297000000000E+02
4926000000.000000      6.947327000000000E-01      9.752930000000000E+00      2.046432000000000E-01     -1.707031000000000E+02
4927000000.000000      6.929321000000000E-01      9.382324000000000E+00      2.007904000000000E-01     -1.708516000000000E+02
4928000000.000000      6.952209000000000E-01      9.549805000000000E+00      1.972656000000000E-01     -1.706094000000000E+02
4929000000.000000      6.950073000000000E-01      9.368164000000000E+00      1.928482000000000E-01     -1.709297000000000E+02
4930000000.000000      6.962280000000000E-01      9.357422000000000E+00      1.894455000000000E-01     -1.707969000000000E+02
4931000000.000000      6.955566000000000E-01      9.167969000000000E+00      1.868820000000000E-01     -1.708516000000000E+02
4932000000.000000      6.957703000000000E-01      9.130859000000000E+00      1.826324000000000E-01     -1.707813000000000E+02
4933000000.000000      6.978455000000000E-01      9.173340000000000E+00      1.779099000000000E-01     -1.705781000000000E+02
4934000000.000000      6.990356000000000E-01      8.767090000000000E+00      1.744461000000000E-01     -1.705937000000000E+02
4935000000.000000      6.980896000000000E-01      8.736816000000000E+00      1.714096000000000E-01     -1.702656000000000E+02
4936000000.000000      6.972046000000000E-01      8.702148000000000E+00      1.673660000000000E-01     -1.700312000000000E+02
4937000000.000000      6.985168000000000E-01      8.633789000000000E+00      1.639786000000000E-01     -1.699297000000000E+02
4938000000.000000      7.001343000000000E-01      8.618652000000000E+00      1.602325000000000E-01     -1.695313000000000E+02
4939000000.000000      6.965332000000000E-01      8.478516000000000E+00      1.566162000000000E-01     -1.690469000000000E+02
4940000000.000000      7.020874000000000E-01      8.339844000000000E+00      1.528168000000000E-01     -1.686484000000000E+02
4941000000.000000      7.018127000000000E-01      8.217773000000000E+00      1.499329000000000E-01     -1.682266000000000E+02
4942000000.000000      6.990356000000000E-01      8.106445000000000E+00      1.458817000000000E-01     -1.679062000000000E+02
4943000000.000000      7.020264000000000E-01      8.066406000000000E+00      1.427155000000000E-01     -1.670078000000000E+02
4944000000.000000      7.002563000000000E-01      7.955322000000000E+00      1.395187000000000E-01     -1.663125000000000E+02
4945000000.000000      7.047424000000000E-01      7.995117000000000E+00      1.362152000000000E-01     -1.656406000000000E+02
4946000000.000000      7.038269000000000E-01      7.704102000000000E+00      1.329651000000000E-01     -1.647656000000000E+02
4947000000.000000      7.037048000000000E-01      7.565430000000000E+00      1.295090000000000E-01     -1.638594000000000E+02
4948000000.000000      7.034912000000000E-01      7.557129000000000E+00      1.273804000000000E-01     -1.630547000000000E+02
4949000000.000000      7.036438000000000E-01      7.440430000000000E+00      1.249084000000000E-01     -1.615781000000000E+02
4950000000.000000      7.047119000000000E-01      7.498047000000000E+00      1.218987000000000E-01     -1.605703000000000E+02
4951000000.000000      7.065430000000000E-01      7.313965000000000E+00      1.198540000000000E-01     -1.594687000000000E+02
4952000000.000000      7.041321000000000E-01      7.267334000000000E+00      1.170235000000000E-01     -1.582813000000000E+02
4953000000.000000      7.050781000000000E-01      7.069580000000000E+00      1.151505000000000E-01     -1.565078000000000E+02
4954000000.000000      7.049866000000000E-01      6.988525000000000E+00      1.129723000000000E-01     -1.552656000000000E+02
