! Network Analyzer HP8722D
! Hewlett-Packard
! Data name: Linha & Wilkinson+CNT
! Saver's name: Rodrigo Anjos
! Comments: Teste da utilização de aquisição
continua pelo VNA HP8722D
! Time and date: 29/9/2025 15:09
!              Frequency                     S11                                                   S21                                                   S12                                                   S22
# HZ  S  MA R 50
3000000000.000000      4.232330000000000E-01     -5.540820000000000E+01      2.061691000000000E-01     -1.315781000000000E+02
3020000000.000000      4.473419000000000E-01     -6.967578000000000E+01      3.486481000000000E-01     -1.349062000000000E+02
3040000000.000000      4.532776000000000E-01     -8.264063000000000E+01      4.663391000000000E-01     -1.447969000000000E+02
3060000000.000000      4.451599000000000E-01     -9.481249000000000E+01      5.712585000000000E-01     -1.549922000000000E+02
3080000000.000000      4.293823000000000E-01     -1.060938000000000E+02      6.728516000000000E-01     -1.681250000000000E+02
3100000000.000000      4.092102000000000E-01     -1.172539000000000E+02      7.235413000000000E-01      1.769766000000000E+02
3120000000.000000      3.801575000000000E-01     -1.292891000000000E+02      7.333984000000000E-01      1.635703000000000E+02
3140000000.000000      3.386536000000000E-01     -1.421953000000000E+02      7.243347000000000E-01      1.506875000000000E+02
3160000000.000000      2.795868000000000E-01     -1.561797000000000E+02      6.830139000000000E-01      1.371641000000000E+02
3180000000.000000      2.000809000000000E-01     -1.690000000000000E+02      6.149597000000000E-01      1.245742000000000E+02
3200000000.000000      1.121864000000000E-01     -1.700625000000000E+02      5.213623000000000E-01      1.117930000000000E+02
3220000000.000000      7.873917000000000E-02     -1.247734000000000E+02      3.875580000000000E-01      1.009141000000000E+02
3240000000.000000      1.494827000000000E-01     -1.047656000000000E+02      2.480850000000000E-01      9.948437000000000E+01
3260000000.000000      2.290192000000000E-01     -1.149375000000000E+02      1.470490000000000E-01      1.247344000000000E+02
3280000000.000000      2.867584000000000E-01     -1.306172000000000E+02      2.017212000000000E-01      1.651875000000000E+02
3300000000.000000      3.204498000000000E-01     -1.470156000000000E+02      3.286285000000000E-01      1.696640000000000E+02
3320000000.000000      3.320770000000000E-01     -1.629141000000000E+02      4.619293000000000E-01      1.626953000000000E+02
3340000000.000000      3.286743000000000E-01     -1.783281000000000E+02      5.744629000000000E-01      1.506328000000000E+02
3360000000.000000      3.172302000000000E-01      1.669688000000000E+02      6.457214000000000E-01      1.384844000000000E+02
3380000000.000000      3.010406000000000E-01      1.525703000000000E+02      7.092590000000000E-01      1.271289000000000E+02
3400000000.000000      2.788239000000000E-01      1.378203000000000E+02      7.576904000000000E-01      1.133047000000000E+02
3420000000.000000      2.438354000000000E-01      1.229219000000000E+02      7.491150000000000E-01      9.863281000000000E+01
3440000000.000000      1.907272000000000E-01      1.081172000000000E+02      7.066650000000000E-01      8.570704000000000E+01
3460000000.000000      1.207390000000000E-01      9.720312000000000E+01      6.485291000000000E-01      7.255859000000000E+01
3480000000.000000      4.826355000000000E-02      1.200078000000000E+02      5.505676000000000E-01      5.904882000000000E+01
3500000000.000000      9.105301000000000E-02     -1.742891000000000E+02      4.265900000000000E-01      4.755273000000000E+01
3520000000.000000      1.829376000000000E-01      1.791953000000000E+02      2.807617000000000E-01      4.033399000000000E+01
3540000000.000000      2.622986000000000E-01      1.630234000000000E+02      1.483459000000000E-01      5.774219000000000E+01
3560000000.000000      3.222656000000000E-01      1.461094000000000E+02      1.658020000000000E-01      1.073984000000000E+02
3580000000.000000      3.592987000000000E-01      1.300469000000000E+02      2.929382000000000E-01      1.176211000000000E+02
3600000000.000000      3.760681000000000E-01      1.154414000000000E+02      4.182587000000000E-01      1.106992000000000E+02
3620000000.000000      3.781738000000000E-01      1.027539000000000E+02      5.204773000000000E-01      1.012539000000000E+02
3640000000.000000      3.686066000000000E-01      9.144531000000000E+01      6.207581000000000E-01      9.008984000000000E+01
3660000000.000000      3.518677000000000E-01      8.116014000000000E+01      6.927490000000000E-01      7.592968000000000E+01
3680000000.000000      3.300323000000000E-01      7.200390000000000E+01      7.091064000000000E-01      6.288476000000000E+01
3700000000.000000      2.995911000000000E-01      6.375390000000000E+01      7.220764000000000E-01      5.119726000000000E+01
3720000000.000000      2.556763000000000E-01      5.765038000000000E+01      7.255554000000000E-01      3.699219000000000E+01
3740000000.000000      2.052765000000000E-01      5.832226000000000E+01      6.647034000000000E-01      2.165722000000000E+01
3760000000.000000      1.779251000000000E-01      7.220312000000000E+01      5.676575000000000E-01      7.216553000000000E+00
3780000000.000000      2.109146000000000E-01      8.740234000000000E+01      4.369812000000000E-01     -6.081055000000000E+00
3800000000.000000      2.814331000000000E-01      8.912889000000000E+01      2.839203000000000E-01     -1.351904000000000E+01
3820000000.000000      3.491516000000000E-01      8.267578000000000E+01      1.545029000000000E-01     -9.654236000000000E-01
3840000000.000000      4.002228000000000E-01      7.399219000000000E+01      1.420517000000000E-01      4.729297000000000E+01
3860000000.000000      4.354248000000000E-01      6.544140000000000E+01      2.445602000000000E-01      6.536327000000000E+01
3880000000.000000      4.606171000000000E-01      5.792969000000000E+01      3.745728000000000E-01      6.123828000000000E+01
3900000000.000000      4.896393000000000E-01      5.088672000000000E+01      4.766541000000000E-01      4.784375000000000E+01
3920000000.000000      5.186157000000000E-01      4.332421000000000E+01      5.086975000000000E-01      3.606836000000000E+01
3940000000.000000      5.484924000000000E-01      3.426367000000000E+01      5.383606000000000E-01      2.958008000000000E+01
3960000000.000000      5.608215000000000E-01      2.414844000000000E+01      5.941162000000000E-01      2.014062000000000E+01
3980000000.000000      5.540771000000000E-01      1.372852000000000E+01      5.982971000000000E-01      8.316406000000000E+00
4000000000.000000      5.285034000000000E-01      3.137939000000000E+00      5.805359000000000E-01      1.411743000000000E+00
4020000000.000000      4.850006000000000E-01     -6.738770000000000E+00      5.974121000000000E-01     -6.564453000000000E+00
4040000000.000000      4.258575000000000E-01     -1.565039000000000E+01      5.859375000000000E-01     -1.858691000000000E+01
4060000000.000000      3.505096000000000E-01     -2.184570000000000E+01      5.283203000000000E-01     -2.871875000000000E+01
4080000000.000000      2.752380000000000E-01     -2.186035000000000E+01      4.688568000000000E-01     -3.806836000000000E+01
4100000000.000000      2.284927000000000E-01     -1.141650000000000E+01      3.684235000000000E-01     -4.742188000000000E+01
4120000000.000000      2.410583000000000E-01      1.733093000000000E+00      2.509308000000000E-01     -4.435351000000000E+01
4140000000.000000      2.890472000000000E-01      5.278809000000000E+00      2.024384000000000E-01     -2.037598000000000E+01
4160000000.000000      3.335876000000000E-01      1.038208000000000E+00      2.616577000000000E-01     -1.428223000000000E-01
4180000000.000000      3.614655000000000E-01     -5.802246000000000E+00      3.557739000000000E-01      3.912476000000000E+00
4200000000.000000      3.718872000000000E-01     -1.350244000000000E+01      4.862976000000000E-01      1.621826000000000E+00
4220000000.000000      3.675995000000000E-01     -2.068750000000000E+01      6.401367000000000E-01     -1.077930000000000E+01
4240000000.000000      3.485260000000000E-01     -2.824121000000000E+01      7.218628000000000E-01     -2.765625000000000E+01
4260000000.000000      3.106537000000000E-01     -3.409765000000000E+01      7.422485000000000E-01     -4.168750000000000E+01
4280000000.000000      2.601471000000000E-01     -3.549219000000000E+01      7.515259000000000E-01     -5.543750000000000E+01
4300000000.000000      2.225571000000000E-01     -2.735937000000000E+01      7.158813000000000E-01     -7.070313000000000E+01
4320000000.000000      2.348328000000000E-01     -1.470264000000000E+01      6.337280000000000E-01     -8.499218000000000E+01
4340000000.000000      2.926331000000000E-01     -1.048096000000000E+01      5.190430000000000E-01     -9.775780000000000E+01
4360000000.000000      3.580933000000000E-01     -1.542920000000000E+01      3.831940000000000E-01     -1.069336000000000E+02
4380000000.000000      4.046631000000000E-01     -2.444238000000000E+01      2.518311000000000E-01     -1.083086000000000E+02
4400000000.000000      4.265442000000000E-01     -3.437109000000000E+01      1.540451000000000E-01     -8.590624000000000E+01
4420000000.000000      4.247589000000000E-01     -4.371094000000000E+01      1.860046000000000E-01     -4.587304000000000E+01
4440000000.000000      4.080658000000000E-01     -5.180469000000000E+01      3.084412000000000E-01     -3.597656000000000E+01
4460000000.000000      3.889923000000000E-01     -5.833593000000000E+01      4.511871000000000E-01     -4.318749000000000E+01
4480000000.000000      3.682709000000000E-01     -6.492969000000000E+01      5.606079000000000E-01     -5.527734000000000E+01
4500000000.000000      3.468323000000000E-01     -7.149219000000000E+01      6.405640000000000E-01     -6.653906000000000E+01
4520000000.000000      3.140717000000000E-01     -7.924999000000000E+01      7.164917000000000E-01     -7.965234000000000E+01
4540000000.000000      2.630768000000000E-01     -8.556641000000000E+01      7.429199000000000E-01     -9.417578000000000E+01
4560000000.000000      2.021713000000000E-01     -8.395311000000000E+01      7.303772000000000E-01     -1.075508000000000E+02
4580000000.000000      1.742783000000000E-01     -6.818749000000000E+01      6.926880000000000E-01     -1.213047000000000E+02
4600000000.000000      2.107620000000000E-01     -5.391602000000000E+01      6.086731000000000E-01     -1.345391000000000E+02
4620000000.000000      2.762604000000000E-01     -5.504101000000000E+01      5.005798000000000E-01     -1.449219000000000E+02
4640000000.000000      3.298492000000000E-01     -6.486718000000000E+01      3.824005000000000E-01     -1.534062000000000E+02
4660000000.000000      3.544617000000000E-01     -7.817968000000000E+01      2.479858000000000E-01     -1.520859000000000E+02
4680000000.000000      3.467407000000000E-01     -9.213671000000000E+01      1.786880000000000E-01     -1.242422000000000E+02
4700000000.000000      3.104095000000000E-01     -1.053945000000000E+02      2.459641000000000E-01     -9.674999000000000E+01
4720000000.000000      2.544861000000000E-01     -1.160469000000000E+02      3.643799000000000E-01     -9.515234000000000E+01
4740000000.000000      1.921082000000000E-01     -1.216211000000000E+02      4.725800000000000E-01     -1.015547000000000E+02
4760000000.000000      1.393814000000000E-01     -1.178867000000000E+02      5.778809000000000E-01     -1.102148000000000E+02
4780000000.000000      1.121826000000000E-01     -1.020937000000000E+02      6.659546000000000E-01     -1.227187000000000E+02
4800000000.000000      1.168861000000000E-01     -8.405468000000000E+01      7.165833000000000E-01     -1.355156000000000E+02
4820000000.000000      1.457596000000000E-01     -7.393359000000000E+01      7.360229000000000E-01     -1.488281000000000E+02
4840000000.000000      1.863708000000000E-01     -7.358593000000000E+01      7.180786000000000E-01     -1.616641000000000E+02
4860000000.000000      2.298431000000000E-01     -8.019140000000000E+01      6.854248000000000E-01     -1.740469000000000E+02
4880000000.000000      2.680969000000000E-01     -9.049999000000000E+01      6.182251000000000E-01      1.722031000000000E+02
4900000000.000000      2.935333000000000E-01     -1.040156000000000E+02      4.970856000000000E-01      1.597734000000000E+02
4920000000.000000      2.999878000000000E-01     -1.190977000000000E+02      3.672791000000000E-01      1.535781000000000E+02
4940000000.000000      2.862244000000000E-01     -1.346797000000000E+02      2.536926000000000E-01      1.556328000000000E+02
4960000000.000000      2.551422000000000E-01     -1.500156000000000E+02      1.772385000000000E-01      1.765859000000000E+02
4980000000.000000      2.129822000000000E-01     -1.641406000000000E+02      2.126923000000000E-01     -1.512969000000000E+02
5000000000.000000      1.687698000000000E-01     -1.760547000000000E+02      3.274078000000000E-01     -1.435234000000000E+02
5020000000.000000      1.312408000000000E-01      1.739375000000000E+02      4.590302000000000E-01     -1.494531000000000E+02
5040000000.000000      1.008034000000000E-01      1.635703000000000E+02      5.669250000000000E-01     -1.602109000000000E+02
5060000000.000000      7.289505000000000E-02      1.487813000000000E+02      6.497192000000000E-01     -1.717266000000000E+02
5080000000.000000      4.188538000000000E-02      1.234375000000000E+02      7.175293000000000E-01      1.761094000000000E+02
5100000000.000000      1.697922000000000E-02      4.475195000000000E+01      7.557983000000000E-01      1.624609000000000E+02
5120000000.000000      4.024506000000000E-02     -5.055664000000000E+01      7.537231000000000E-01      1.480781000000000E+02
5140000000.000000      7.225800000000000E-02     -8.685938000000000E+01      7.045898000000000E-01      1.345078000000000E+02
5160000000.000000      9.579468000000000E-02     -1.181719000000000E+02      6.297607000000000E-01      1.223242000000000E+02
5180000000.000000      1.094475000000000E-01     -1.487734000000000E+02      5.352173000000000E-01      1.107969000000000E+02
5200000000.000000      1.126366000000000E-01      1.784062000000000E+02      4.192352000000000E-01      1.010938000000000E+02
5220000000.000000      1.097450000000000E-01      1.426875000000000E+02      2.849731000000000E-01      9.809765000000000E+01
5240000000.000000      1.090813000000000E-01      1.063672000000000E+02      1.844788000000000E-01      1.146836000000000E+02
5260000000.000000      1.134605000000000E-01      7.291797000000000E+01      1.946640000000000E-01      1.488906000000000E+02
5280000000.000000      1.206245000000000E-01      4.621094000000000E+01      2.939148000000000E-01      1.606953000000000E+02
5300000000.000000      1.274338000000000E-01      2.530078000000000E+01      4.078979000000000E-01      1.582813000000000E+02
5320000000.000000      1.334991000000000E-01      8.846680000000000E+00      5.262451000000000E-01      1.506562000000000E+02
5340000000.000000      1.389084000000000E-01     -5.508301000000000E+00      6.383972000000000E-01      1.386719000000000E+02
5360000000.000000      1.429138000000000E-01     -2.115332000000000E+01      7.053528000000000E-01      1.242148000000000E+02
5380000000.000000      1.388016000000000E-01     -3.870508000000000E+01      7.177124000000000E-01      1.109609000000000E+02
5400000000.000000      1.202507000000000E-01     -5.667578000000000E+01      7.185669000000000E-01      9.923046000000000E+01
5420000000.000000      8.528519000000000E-02     -7.357031000000000E+01      7.048645000000000E-01      8.610155000000000E+01
5440000000.000000      3.147125000000000E-02     -7.896484000000000E+01      6.497192000000000E-01      7.182031000000000E+01
5460000000.000000      4.156303000000000E-02      3.887500000000000E+01      5.414429000000000E-01      5.861523000000000E+01
5480000000.000000      1.120682000000000E-01      3.151269000000000E+01      4.155273000000000E-01      4.925390000000000E+01
5500000000.000000      1.742477000000000E-01      1.606250000000000E+01      2.948456000000000E-01      4.718946000000000E+01
5520000000.000000      2.209244000000000E-01      9.228516000000000E-01      1.961365000000000E-01      5.853320000000000E+01
5540000000.000000      2.516174000000000E-01     -1.292969000000000E+01      1.799393000000000E-01      9.033983000000000E+01
5560000000.000000      2.702026000000000E-01     -2.476367000000000E+01      2.608337000000000E-01      1.086758000000000E+02
5580000000.000000      2.828369000000000E-01     -3.482031000000000E+01      3.821411000000000E-01      1.087695000000000E+02
5600000000.000000      2.942200000000000E-01     -4.374609000000000E+01      5.050659000000000E-01      9.985937000000000E+01
5620000000.000000      3.045197000000000E-01     -5.282812000000000E+01      5.971069000000000E-01      8.716797000000000E+01
5640000000.000000      3.083496000000000E-01     -6.248047000000000E+01      6.475525000000000E-01      7.549999000000000E+01
5660000000.000000      2.984314000000000E-01     -7.314843000000000E+01      6.851196000000000E-01      6.416016000000000E+01
5680000000.000000      2.689972000000000E-01     -8.366796000000000E+01      6.994629000000000E-01      5.135742000000000E+01
5700000000.000000      2.222137000000000E-01     -9.104296000000000E+01      6.844177000000000E-01      3.900000000000000E+01
5720000000.000000      1.713028000000000E-01     -8.995703000000000E+01      6.451721000000000E-01      2.624609000000000E+01
5740000000.000000      1.494446000000000E-01     -7.574609000000000E+01      5.669861000000000E-01      1.284570000000000E+01
5760000000.000000      1.777802000000000E-01     -6.362499000000000E+01      4.541016000000000E-01      1.314209000000000E+00
5780000000.000000      2.241058000000000E-01     -6.511719000000000E+01      3.189697000000000E-01     -4.020996000000000E+00
5800000000.000000      2.564087000000000E-01     -7.293750000000000E+01      2.095947000000000E-01      6.432373000000000E+00
5820000000.000000      2.668457000000000E-01     -8.237499000000000E+01      1.884460000000000E-01      3.688477000000000E+01
5840000000.000000      2.574768000000000E-01     -9.079687000000000E+01      2.688751000000000E-01      5.393555000000000E+01
5860000000.000000      2.394333000000000E-01     -9.643358000000000E+01      3.699951000000000E-01      5.416210000000000E+01
5880000000.000000      2.242432000000000E-01     -9.979687000000000E+01      4.771118000000000E-01      4.883398000000000E+01
5900000000.000000      2.167816000000000E-01     -1.021601000000000E+02      5.941467000000000E-01      3.876953000000000E+01
5920000000.000000      2.090530000000000E-01     -1.050195000000000E+02      6.716003000000000E-01      2.468066000000000E+01
5940000000.000000      1.955185000000000E-01     -1.070430000000000E+02      7.011108000000000E-01      1.148877000000000E+01
5960000000.000000      1.777115000000000E-01     -1.052930000000000E+02      7.146912000000000E-01     -1.227722000000000E+00
5980000000.000000      1.650620000000000E-01     -9.762108000000000E+01      6.931152000000000E-01     -1.519141000000000E+01
6000000000.000000      1.811905000000000E-01     -8.841797000000000E+01      6.306152000000000E-01     -2.889746000000000E+01
6020000000.000000      2.154541000000000E-01     -8.644922000000000E+01      5.330200000000000E-01     -4.157812000000000E+01
6040000000.000000      2.512054000000000E-01     -9.158983000000000E+01      4.027710000000000E-01     -4.990039000000000E+01
6060000000.000000      2.754364000000000E-01     -1.006016000000000E+02      2.873840000000000E-01     -4.986718000000000E+01
6080000000.000000      2.850342000000000E-01     -1.108047000000000E+02      2.062454000000000E-01     -3.637500000000000E+01
