! Network Analyzer HP8722D
! Hewlett-Packard
! Data name: Linha & Wilkinson+CNT
! Saver's name: Rodrigo Anjos
! Comments: Teste da utilização de aquisição
continua pelo VNA HP8722D
! Time and date: 29/9/2025 14:53
!              Frequency                     S11                                                   S21                                                   S12                                                   S22
# HZ  S  MA R 50
3000000000.000000      4.229431000000000E-01     -5.564843000000000E+01      2.084885000000000E-01     -1.314609000000000E+02
3020000000.000000      4.478455000000000E-01     -6.992969000000000E+01      3.510742000000000E-01     -1.350469000000000E+02
3040000000.000000      4.522705000000000E-01     -8.292969000000000E+01      4.687347000000000E-01     -1.450391000000000E+02
3060000000.000000      4.445648000000000E-01     -9.500000000000000E+01      5.726013000000000E-01     -1.552813000000000E+02
3080000000.000000      4.289398000000000E-01     -1.062969000000000E+02      6.732483000000000E-01     -1.685078000000000E+02
3100000000.000000      4.084930000000000E-01     -1.174570000000000E+02      7.248840000000000E-01      1.767734000000000E+02
3120000000.000000      3.796692000000000E-01     -1.294375000000000E+02      7.309570000000000E-01      1.633594000000000E+02
3140000000.000000      3.379822000000000E-01     -1.424609000000000E+02      7.228699000000000E-01      1.503828000000000E+02
3160000000.000000      2.781982000000000E-01     -1.564141000000000E+02      6.834412000000000E-01      1.369375000000000E+02
3180000000.000000      1.983261000000000E-01     -1.691875000000000E+02      6.132202000000000E-01      1.242734000000000E+02
3200000000.000000      1.108246000000000E-01     -1.697734000000000E+02      5.196533000000000E-01      1.113906000000000E+02
3220000000.000000      7.986832000000000E-02     -1.236758000000000E+02      3.856659000000000E-01      1.008359000000000E+02
3240000000.000000      1.510391000000000E-01     -1.047305000000000E+02      2.464142000000000E-01      9.962500000000000E+01
3260000000.000000      2.308655000000000E-01     -1.152773000000000E+02      1.466217000000000E-01      1.258516000000000E+02
3280000000.000000      2.876587000000000E-01     -1.309687000000000E+02      2.042389000000000E-01      1.654531000000000E+02
3300000000.000000      3.202820000000000E-01     -1.472500000000000E+02      3.312225000000000E-01      1.696406000000000E+02
3320000000.000000      3.318176000000000E-01     -1.632109000000000E+02      4.636078000000000E-01      1.625391000000000E+02
3340000000.000000      3.283539000000000E-01     -1.785391000000000E+02      5.744019000000000E-01      1.505469000000000E+02
3360000000.000000      3.168182000000000E-01      1.666641000000000E+02      6.474609000000000E-01      1.382969000000000E+02
3380000000.000000      3.000793000000000E-01      1.524219000000000E+02      7.102356000000000E-01      1.270313000000000E+02
3400000000.000000      2.779083000000000E-01      1.377734000000000E+02      7.565002000000000E-01      1.130781000000000E+02
3420000000.000000      2.426071000000000E-01      1.227266000000000E+02      7.495422000000000E-01      9.844530000000000E+01
3440000000.000000      1.890259000000000E-01      1.079375000000000E+02      7.042236000000000E-01      8.541796000000000E+01
3460000000.000000      1.192169000000000E-01      9.722656000000000E+01      6.469727000000000E-01      7.230469000000000E+01
3480000000.000000      4.742622000000000E-02      1.218906000000000E+02      5.486145000000000E-01      5.892187000000000E+01
3500000000.000000      9.323502000000000E-02     -1.742109000000000E+02      4.239655000000000E-01      4.748242000000000E+01
3520000000.000000      1.845016000000000E-01      1.789609000000000E+02      2.775726000000000E-01      4.058007000000000E+01
3540000000.000000      2.634735000000000E-01      1.627031000000000E+02      1.469803000000000E-01      5.858203000000000E+01
3560000000.000000      3.230591000000000E-01      1.456797000000000E+02      1.674271000000000E-01      1.078320000000000E+02
3580000000.000000      3.595123000000000E-01      1.297422000000000E+02      2.953491000000000E-01      1.175000000000000E+02
3600000000.000000      3.759308000000000E-01      1.150625000000000E+02      4.202728000000000E-01      1.105781000000000E+02
3620000000.000000      3.780975000000000E-01      1.025078000000000E+02      5.224304000000000E-01      1.009805000000000E+02
3640000000.000000      3.686218000000000E-01      9.121874000000000E+01      6.239319000000000E-01      8.986328000000000E+01
3660000000.000000      3.516846000000000E-01      8.106640000000000E+01      6.931152000000000E-01      7.568749000000000E+01
3680000000.000000      3.292999000000000E-01      7.187500000000000E+01      7.108154000000000E-01      6.256836000000000E+01
3700000000.000000      2.987518000000000E-01      6.361718000000000E+01      7.206726000000000E-01      5.091797000000000E+01
3720000000.000000      2.543030000000000E-01      5.763866000000000E+01      7.237549000000000E-01      3.666406000000000E+01
3740000000.000000      2.044601000000000E-01      5.848046000000000E+01      6.634827000000000E-01      2.126074000000000E+01
3760000000.000000      1.776352000000000E-01      7.256640000000000E+01      5.652771000000000E-01      6.866455000000000E+00
3780000000.000000      2.122192000000000E-01      8.754297000000000E+01      4.338226000000000E-01     -6.229248000000000E+00
3800000000.000000      2.826538000000000E-01      8.898829000000000E+01      2.806244000000000E-01     -1.340479000000000E+01
3820000000.000000      3.502045000000000E-01      8.250780000000000E+01      1.527557000000000E-01     -8.514404000000000E-02
3840000000.000000      4.007416000000000E-01      7.384375000000000E+01      1.438217000000000E-01      4.814453000000000E+01
3860000000.000000      4.353943000000000E-01      6.528125000000000E+01      2.467804000000000E-01      6.531250000000000E+01
3880000000.000000      4.610443000000000E-01      5.777538000000000E+01      3.770142000000000E-01      6.108398000000000E+01
3900000000.000000      4.902344000000000E-01      5.071289000000000E+01      4.765320000000000E-01      4.764257000000000E+01
3920000000.000000      5.208130000000000E-01      4.305664000000000E+01      5.081482000000000E-01      3.581250000000000E+01
3940000000.000000      5.497131000000000E-01      3.409570000000000E+01      5.399475000000000E-01      2.950098000000000E+01
3960000000.000000      5.603638000000000E-01      2.390039000000000E+01      5.954285000000000E-01      2.002246000000000E+01
3980000000.000000      5.525208000000000E-01      1.346094000000000E+01      5.964661000000000E-01      8.114746000000000E+00
4000000000.000000      5.267944000000000E-01      2.953857000000000E+00      5.792542000000000E-01      1.273010000000000E+00
4020000000.000000      4.836273000000000E-01     -6.873535000000000E+00      5.973206000000000E-01     -6.611084000000000E+00
4040000000.000000      4.242706000000000E-01     -1.567773000000000E+01      5.841370000000000E-01     -1.891992000000000E+01
4060000000.000000      3.487091000000000E-01     -2.180859000000000E+01      5.260925000000000E-01     -2.907617000000000E+01
4080000000.000000      2.742767000000000E-01     -2.175781000000000E+01      4.684296000000000E-01     -3.820313000000000E+01
4100000000.000000      2.287216000000000E-01     -1.104541000000000E+01      3.656616000000000E-01     -4.761523000000000E+01
4120000000.000000      2.424240000000000E-01      1.910217000000000E+00      2.488403000000000E-01     -4.406250000000000E+01
4140000000.000000      2.904663000000000E-01      5.093506000000000E+00      2.029572000000000E-01     -1.976367000000000E+01
4160000000.000000      3.342133000000000E-01      8.940125000000000E-01      2.646637000000000E-01     -7.278442000000000E-02
4180000000.000000      3.613739000000000E-01     -5.888672000000000E+00      3.585358000000000E-01      3.928955000000000E+00
4200000000.000000      3.717346000000000E-01     -1.375098000000000E+01      4.891815000000000E-01      1.407593000000000E+00
4220000000.000000      3.674316000000000E-01     -2.092090000000000E+01      6.438599000000000E-01     -1.127637000000000E+01
4240000000.000000      3.477631000000000E-01     -2.841113000000000E+01      7.223511000000000E-01     -2.782324000000000E+01
4260000000.000000      3.091125000000000E-01     -3.417383000000000E+01      7.429199000000000E-01     -4.193164000000000E+01
4280000000.000000      2.594452000000000E-01     -3.532812000000000E+01      7.511902000000000E-01     -5.577734000000000E+01
4300000000.000000      2.218170000000000E-01     -2.704102000000000E+01      7.130432000000000E-01     -7.090625000000000E+01
4320000000.000000      2.358856000000000E-01     -1.446777000000000E+01      6.310730000000000E-01     -8.527344000000000E+01
4340000000.000000      2.941284000000000E-01     -1.047559000000000E+01      5.145569000000000E-01     -9.794922000000000E+01
4360000000.000000      3.592377000000000E-01     -1.567383000000000E+01      3.798828000000000E-01     -1.068906000000000E+02
4380000000.000000      4.054565000000000E-01     -2.470508000000000E+01      2.488327000000000E-01     -1.080664000000000E+02
4400000000.000000      4.268646000000000E-01     -3.463476000000000E+01      1.530991000000000E-01     -8.478125000000000E+01
4420000000.000000      4.245453000000000E-01     -4.389453000000000E+01      1.887054000000000E-01     -4.536718000000000E+01
4440000000.000000      4.081268000000000E-01     -5.194726000000000E+01      3.115692000000000E-01     -3.615625000000000E+01
4460000000.000000      3.863373000000000E-01     -5.866601000000000E+01      4.534149000000000E-01     -4.351171000000000E+01
4480000000.000000      3.676300000000000E-01     -6.485937000000000E+01      5.617676000000000E-01     -5.554296000000000E+01
4500000000.000000      3.466492000000000E-01     -7.164844000000000E+01      6.433411000000000E-01     -6.695313000000000E+01
4520000000.000000      3.129730000000000E-01     -7.939453000000000E+01      7.162781000000000E-01     -8.002733000000000E+01
4540000000.000000      2.613678000000000E-01     -8.548046000000000E+01      7.426758000000000E-01     -9.455858000000000E+01
4560000000.000000      2.008133000000000E-01     -8.369141000000000E+01      7.280273000000000E-01     -1.077500000000000E+02
4580000000.000000      1.742096000000000E-01     -6.767187000000000E+01      6.906128000000000E-01     -1.216484000000000E+02
4600000000.000000      2.124939000000000E-01     -5.375000000000000E+01      6.045532000000000E-01     -1.347656000000000E+02
4620000000.000000      2.770233000000000E-01     -5.533789000000000E+01      4.966583000000000E-01     -1.451953000000000E+02
4640000000.000000      3.310242000000000E-01     -6.517187000000000E+01      3.783264000000000E-01     -1.534141000000000E+02
4660000000.000000      3.545532000000000E-01     -7.848827000000000E+01      2.454224000000000E-01     -1.517422000000000E+02
4680000000.000000      3.460083000000000E-01     -9.250391000000000E+01      1.790848000000000E-01     -1.231406000000000E+02
4700000000.000000      3.089294000000000E-01     -1.056719000000000E+02      2.491074000000000E-01     -9.652344000000000E+01
4720000000.000000      2.523346000000000E-01     -1.162578000000000E+02      3.681946000000000E-01     -9.551952000000000E+01
4740000000.000000      1.905746000000000E-01     -1.214453000000000E+02      4.745026000000000E-01     -1.018086000000000E+02
4760000000.000000      1.386871000000000E-01     -1.175586000000000E+02      5.782471000000000E-01     -1.106836000000000E+02
4780000000.000000      1.122322000000000E-01     -1.015742000000000E+02      6.677246000000000E-01     -1.229766000000000E+02
4800000000.000000      1.181526000000000E-01     -8.349609000000000E+01      7.176208000000000E-01     -1.358516000000000E+02
4820000000.000000      1.468048000000000E-01     -7.405078000000000E+01      7.360535000000000E-01     -1.489844000000000E+02
4840000000.000000      1.874924000000000E-01     -7.367969000000000E+01      7.174072000000000E-01     -1.618515000000000E+02
4860000000.000000      2.313538000000000E-01     -8.032421000000000E+01      6.831970000000000E-01     -1.744219000000000E+02
4880000000.000000      2.687073000000000E-01     -9.082031000000000E+01      6.159668000000000E-01      1.717266000000000E+02
4900000000.000000      2.938690000000000E-01     -1.043789000000000E+02      4.945374000000000E-01      1.596641000000000E+02
4920000000.000000      2.999268000000000E-01     -1.195039000000000E+02      3.637238000000000E-01      1.535234000000000E+02
4940000000.000000      2.850647000000000E-01     -1.350937000000000E+02      2.506409000000000E-01      1.560234000000000E+02
4960000000.000000      2.542877000000000E-01     -1.504297000000000E+02      1.771393000000000E-01      1.776172000000000E+02
4980000000.000000      2.117310000000000E-01     -1.645391000000000E+02      2.153854000000000E-01     -1.510078000000000E+02
5000000000.000000      1.677856000000000E-01     -1.761328000000000E+02      3.313293000000000E-01     -1.437656000000000E+02
5020000000.000000      1.300659000000000E-01      1.737031000000000E+02      4.622955000000000E-01     -1.497109000000000E+02
5040000000.000000      9.983826000000000E-02      1.635547000000000E+02      5.707397000000000E-01     -1.607265000000000E+02
5060000000.000000      7.143021000000000E-02      1.485234000000000E+02      6.507263000000000E-01     -1.720781000000000E+02
5080000000.000000      4.095268000000000E-02      1.224336000000000E+02      7.181091000000000E-01      1.757969000000000E+02
5100000000.000000      1.674652000000000E-02      4.151563000000000E+01      7.561035000000000E-01      1.620234000000000E+02
5120000000.000000      4.179573000000000E-02     -5.123241000000000E+01      7.547607000000000E-01      1.477813000000000E+02
5140000000.000000      7.276917000000000E-02     -8.802734000000000E+01      7.032776000000000E-01      1.342344000000000E+02
5160000000.000000      9.661102000000000E-02     -1.192578000000000E+02      6.275940000000000E-01      1.220039000000000E+02
5180000000.000000      1.100121000000000E-01     -1.499063000000000E+02      5.328369000000000E-01      1.106289000000000E+02
5200000000.000000      1.126709000000000E-01      1.776797000000000E+02      4.151306000000000E-01      1.009805000000000E+02
5220000000.000000      1.099167000000000E-01      1.414219000000000E+02      2.820740000000000E-01      9.833202000000000E+01
5240000000.000000      1.090508000000000E-01      1.054297000000000E+02      1.833878000000000E-01      1.158047000000000E+02
5260000000.000000      1.130753000000000E-01      7.192577000000000E+01      1.974030000000000E-01      1.496875000000000E+02
5280000000.000000      1.206512000000000E-01      4.556250000000000E+01      2.979584000000000E-01      1.606172000000000E+02
5300000000.000000      1.272888000000000E-01      2.493457000000000E+01      4.113159000000000E-01      1.579219000000000E+02
5320000000.000000      1.336212000000000E-01      8.277832000000000E+00      5.290527000000000E-01      1.503281000000000E+02
5340000000.000000      1.388168000000000E-01     -5.850342000000000E+00      6.401672000000000E-01      1.382734000000000E+02
5360000000.000000      1.427994000000000E-01     -2.157715000000000E+01      7.051697000000000E-01      1.238242000000000E+02
5380000000.000000      1.380157000000000E-01     -3.887500000000000E+01      7.175903000000000E-01      1.104726000000000E+02
5400000000.000000      1.197205000000000E-01     -5.719531000000000E+01      7.176208000000000E-01      9.885937000000000E+01
5420000000.000000      8.397675000000000E-02     -7.398828000000000E+01      7.044373000000000E-01      8.596874000000000E+01
5440000000.000000      2.957916000000000E-02     -7.806250000000000E+01      6.469421000000000E-01      7.141796000000000E+01
5460000000.000000      4.386520000000000E-02      3.839258000000000E+01      5.368958000000000E-01      5.840625000000000E+01
5480000000.000000      1.135559000000000E-01      3.077929000000000E+01      4.118347000000000E-01      4.924609000000000E+01
5500000000.000000      1.759109000000000E-01      1.548486000000000E+01      2.913818000000000E-01      4.740039000000000E+01
5520000000.000000      2.212753000000000E-01      5.053711000000000E-01      1.947327000000000E-01      5.951562000000000E+01
5540000000.000000      2.513428000000000E-01     -1.328662000000000E+01      1.817169000000000E-01      9.121485000000000E+01
5560000000.000000      2.700043000000000E-01     -2.508398000000000E+01      2.642975000000000E-01      1.088789000000000E+02
5580000000.000000      2.827301000000000E-01     -3.512109000000000E+01      3.856354000000000E-01      1.084961000000000E+02
5600000000.000000      2.943268000000000E-01     -4.398633000000000E+01      5.075378000000000E-01      9.944530000000000E+01
5620000000.000000      3.044128000000000E-01     -5.307617000000000E+01      5.966187000000000E-01      8.716797000000000E+01
5640000000.000000      3.077240000000000E-01     -6.281640000000000E+01      6.459045000000000E-01      7.499218000000000E+01
5660000000.000000      2.979431000000000E-01     -7.351563000000000E+01      6.857910000000000E-01      6.376562000000000E+01
5680000000.000000      2.684174000000000E-01     -8.389063000000000E+01      6.985168000000000E-01      5.099999000000000E+01
5700000000.000000      2.202454000000000E-01     -9.112890000000000E+01      6.827698000000000E-01      3.852344000000000E+01
5720000000.000000      1.700821000000000E-01     -8.957031000000000E+01      6.417542000000000E-01      2.584473000000000E+01
5740000000.000000      1.498947000000000E-01     -7.509766000000000E+01      5.637817000000000E-01      1.271484000000000E+01
5760000000.000000      1.789856000000000E-01     -6.358788000000000E+01      4.501801000000000E-01      8.445740000000000E-01
5780000000.000000      2.256165000000000E-01     -6.527344000000000E+01      3.145294000000000E-01     -3.905640000000000E+00
5800000000.000000      2.572479000000000E-01     -7.323047000000000E+01      2.072144000000000E-01      7.320801000000000E+00
5820000000.000000      2.663574000000000E-01     -8.262499000000000E+01      1.898117000000000E-01      3.799023000000000E+01
5840000000.000000      2.570190000000000E-01     -9.108202000000000E+01      2.727814000000000E-01      5.401367000000000E+01
5860000000.000000      2.385635000000000E-01     -9.660936000000000E+01      3.728333000000000E-01      5.404101000000000E+01
5880000000.000000      2.244034000000000E-01     -9.991796000000000E+01      4.798737000000000E-01      4.852148000000000E+01
5900000000.000000      2.161484000000000E-01     -1.022227000000000E+02      5.963440000000000E-01      3.801953000000000E+01
5920000000.000000      2.084122000000000E-01     -1.051172000000000E+02      6.722717000000000E-01      2.427539000000000E+01
5940000000.000000      1.944122000000000E-01     -1.070351000000000E+02      7.024841000000000E-01      1.107959000000000E+01
5960000000.000000      1.769104000000000E-01     -1.052930000000000E+02      7.121582000000000E-01     -1.498291000000000E+00
5980000000.000000      1.655350000000000E-01     -9.739061000000000E+01      6.921997000000000E-01     -1.556396000000000E+01
6000000000.000000      1.821060000000000E-01     -8.833593000000000E+01      6.274414000000000E-01     -2.922949000000000E+01
6020000000.000000      2.164764000000000E-01     -8.650391000000000E+01      5.271606000000000E-01     -4.186523000000000E+01
6040000000.000000      2.519531000000000E-01     -9.186718000000000E+01      3.968811000000000E-01     -4.979882000000000E+01
6060000000.000000      2.750549000000000E-01     -1.009648000000000E+02      2.841187000000000E-01     -4.963085000000000E+01
6080000000.000000      2.849121000000000E-01     -1.110078000000000E+02      2.049942000000000E-01     -3.555664000000000E+01
