! Network Analyzer HP8722D
! Hewlett-Packard
! Data name: Linha & Wilkinson+CNT
! Saver's name: Rodrigo Anjos
! Comments: Teste da utilização de aquisição
continua pelo VNA HP8722D
! Time and date: 29/9/2025 16:46
!              Frequency                     S11                                                   S21                                                   S12                                                   S22
# HZ  S  MA R 50
3000000000.000000      4.269562000000000E-01     -5.567383000000000E+01      2.098465000000000E-01     -1.314531000000000E+02
3020000000.000000      4.486237000000000E-01     -7.029687000000000E+01      3.524933000000000E-01     -1.351172000000000E+02
3040000000.000000      4.541016000000000E-01     -8.301561000000000E+01      4.696198000000000E-01     -1.452188000000000E+02
3060000000.000000      4.442291000000000E-01     -9.500780000000000E+01      5.718994000000000E-01     -1.555547000000000E+02
3080000000.000000      4.289551000000000E-01     -1.062891000000000E+02      6.747742000000000E-01     -1.685859000000000E+02
3100000000.000000      4.083557000000000E-01     -1.174375000000000E+02      7.244263000000000E-01      1.767187000000000E+02
3120000000.000000      3.787384000000000E-01     -1.293750000000000E+02      7.320557000000000E-01      1.632187000000000E+02
3140000000.000000      3.375244000000000E-01     -1.424922000000000E+02      7.233582000000000E-01      1.503281000000000E+02
3160000000.000000      2.768250000000000E-01     -1.563828000000000E+02      6.838684000000000E-01      1.368359000000000E+02
3180000000.000000      1.969528000000000E-01     -1.689375000000000E+02      6.129761000000000E-01      1.241836000000000E+02
3200000000.000000      1.098137000000000E-01     -1.689375000000000E+02      5.185547000000000E-01      1.113477000000000E+02
3220000000.000000      8.076859000000000E-02     -1.230391000000000E+02      3.851318000000000E-01      1.007695000000000E+02
3240000000.000000      1.524734000000000E-01     -1.048867000000000E+02      2.444153000000000E-01      9.986717000000000E+01
3260000000.000000      2.317734000000000E-01     -1.154219000000000E+02      1.471100000000000E-01      1.264297000000000E+02
3280000000.000000      2.889709000000000E-01     -1.311016000000000E+02      2.058716000000000E-01      1.654140000000000E+02
3300000000.000000      3.212128000000000E-01     -1.474141000000000E+02      3.325653000000000E-01      1.694609000000000E+02
3320000000.000000      3.324280000000000E-01     -1.632969000000000E+02      4.650116000000000E-01      1.623516000000000E+02
3340000000.000000      3.281250000000000E-01     -1.786328000000000E+02      5.762024000000000E-01      1.501875000000000E+02
3360000000.000000      3.167419000000000E-01      1.666172000000000E+02      6.486206000000000E-01      1.381562000000000E+02
3380000000.000000      2.998352000000000E-01      1.523125000000000E+02      7.104187000000000E-01      1.268008000000000E+02
3400000000.000000      2.783508000000000E-01      1.375937000000000E+02      7.576294000000000E-01      1.130234000000000E+02
3420000000.000000      2.425079000000000E-01      1.227773000000000E+02      7.473755000000000E-01      9.823828000000000E+01
3440000000.000000      1.894073000000000E-01      1.081445000000000E+02      7.031860000000000E-01      8.535156000000000E+01
3460000000.000000      1.188011000000000E-01      9.781639000000000E+01      6.452637000000000E-01      7.234765000000000E+01
3480000000.000000      4.846954000000000E-02      1.235000000000000E+02      5.461426000000000E-01      5.886719000000000E+01
3500000000.000000      9.434509000000000E-02     -1.745703000000000E+02      4.219208000000000E-01      4.744141000000000E+01
3520000000.000000      1.858139000000000E-01      1.786016000000000E+02      2.757874000000000E-01      4.059766000000000E+01
3540000000.000000      2.646942000000000E-01      1.625078000000000E+02      1.463318000000000E-01      5.915820000000000E+01
3560000000.000000      3.239746000000000E-01      1.454375000000000E+02      1.690979000000000E-01      1.082187000000000E+02
3580000000.000000      3.603821000000000E-01      1.294531000000000E+02      2.966461000000000E-01      1.173086000000000E+02
3600000000.000000      3.767242000000000E-01      1.150547000000000E+02      4.213715000000000E-01      1.103711000000000E+02
3620000000.000000      3.771515000000000E-01      1.023984000000000E+02      5.226746000000000E-01      1.010390000000000E+02
3640000000.000000      3.680115000000000E-01      9.116405000000000E+01      6.231995000000000E-01      8.977343000000000E+01
3660000000.000000      3.514252000000000E-01      8.099218000000000E+01      6.933594000000000E-01      7.553124000000000E+01
3680000000.000000      3.293457000000000E-01      7.183203000000000E+01      7.104797000000000E-01      6.237695000000000E+01
3700000000.000000      2.983551000000000E-01      6.358593000000000E+01      7.193298000000000E-01      5.074413000000000E+01
3720000000.000000      2.539978000000000E-01      5.765038000000000E+01      7.217712000000000E-01      3.658008000000000E+01
3740000000.000000      2.042313000000000E-01      5.867773000000000E+01      6.614380000000000E-01      2.116992000000000E+01
3760000000.000000      1.780014000000000E-01      7.296093000000000E+01      5.618591000000000E-01      6.801758000000000E+00
3780000000.000000      2.134628000000000E-01      8.776562000000000E+01      4.323120000000000E-01     -6.260986000000000E+00
3800000000.000000      2.842102000000000E-01      8.908594000000000E+01      2.789459000000000E-01     -1.326221000000000E+01
3820000000.000000      3.515015000000000E-01      8.255468000000000E+01      1.522064000000000E-01      5.630493000000000E-01
3840000000.000000      4.013367000000000E-01      7.379687000000000E+01      1.454086000000000E-01      4.850195000000000E+01
3860000000.000000      4.363556000000000E-01      6.526562000000000E+01      2.489014000000000E-01      6.536327000000000E+01
3880000000.000000      4.613800000000000E-01      5.776172000000000E+01      3.782196000000000E-01      6.091406000000000E+01
3900000000.000000      4.901886000000000E-01      5.078515000000000E+01      4.780273000000000E-01      4.747851000000000E+01
3920000000.000000      5.217285000000000E-01      4.302148000000000E+01      5.092468000000000E-01      3.591406000000000E+01
3940000000.000000      5.484009000000000E-01      3.411328000000000E+01      5.397034000000000E-01      2.931152000000000E+01
3960000000.000000      5.592957000000000E-01      2.404492000000000E+01      5.949707000000000E-01      1.983691000000000E+01
3980000000.000000      5.534058000000000E-01      1.335107000000000E+01      5.966187000000000E-01      8.098145000000000E+00
4000000000.000000      5.262756000000000E-01      3.067871000000000E+00      5.803833000000000E-01      1.054688000000000E+00
4020000000.000000      4.829559000000000E-01     -6.954346000000000E+00      5.973816000000000E-01     -6.726563000000000E+00
4040000000.000000      4.234009000000000E-01     -1.566650000000000E+01      5.843201000000000E-01     -1.892480000000000E+01
4060000000.000000      3.469696000000000E-01     -2.171484000000000E+01      5.250244000000000E-01     -2.900000000000000E+01
4080000000.000000      2.735901000000000E-01     -2.135742000000000E+01      4.655304000000000E-01     -3.846094000000000E+01
4100000000.000000      2.280045000000000E-01     -1.064063000000000E+01      3.638916000000000E-01     -4.738867000000000E+01
4120000000.000000      2.427673000000000E-01      2.283691000000000E+00      2.479858000000000E-01     -4.372266000000000E+01
4140000000.000000      2.908325000000000E-01      5.267822000000000E+00      2.036057000000000E-01     -1.917285000000000E+01
4160000000.000000      3.347321000000000E-01      1.028564000000000E+00      2.663116000000000E-01      6.179810000000000E-02
4180000000.000000      3.620911000000000E-01     -5.932617000000000E+00      3.605194000000000E-01      3.765503000000000E+00
4200000000.000000      3.720398000000000E-01     -1.363037000000000E+01      4.915161000000000E-01      1.106873000000000E+00
4220000000.000000      3.670197000000000E-01     -2.079492000000000E+01      6.429749000000000E-01     -1.140674000000000E+01
4240000000.000000      3.478851000000000E-01     -2.826562000000000E+01      7.218323000000000E-01     -2.808300000000000E+01
4260000000.000000      3.090057000000000E-01     -3.413086000000000E+01      7.430725000000000E-01     -4.210156000000000E+01
4280000000.000000      2.584229000000000E-01     -3.512109000000000E+01      7.503052000000000E-01     -5.586719000000000E+01
4300000000.000000      2.222290000000000E-01     -2.678808000000000E+01      7.119446000000000E-01     -7.098437000000000E+01
4320000000.000000      2.369614000000000E-01     -1.418750000000000E+01      6.289673000000000E-01     -8.536327000000000E+01
4340000000.000000      2.949371000000000E-01     -1.047412000000000E+01      5.126953000000000E-01     -9.803514000000000E+01
4360000000.000000      3.603668000000000E-01     -1.570801000000000E+01      3.767853000000000E-01     -1.069922000000000E+02
4380000000.000000      4.061127000000000E-01     -2.470703000000000E+01      2.470093000000000E-01     -1.077422000000000E+02
4400000000.000000      4.266357000000000E-01     -3.473633000000000E+01      1.531677000000000E-01     -8.392187000000000E+01
4420000000.000000      4.244843000000000E-01     -4.401757000000000E+01      1.905746000000000E-01     -4.509766000000000E+01
4440000000.000000      4.078979000000000E-01     -5.206055000000000E+01      3.135223000000000E-01     -3.622265000000000E+01
4460000000.000000      3.869476000000000E-01     -5.868359000000000E+01      4.547119000000000E-01     -4.372460000000000E+01
4480000000.000000      3.678284000000000E-01     -6.488671000000000E+01      5.635376000000000E-01     -5.570703000000000E+01
4500000000.000000      3.460541000000000E-01     -7.178124000000000E+01      6.439514000000000E-01     -6.729297000000000E+01
4520000000.000000      3.121338000000000E-01     -7.952734000000000E+01      7.155457000000000E-01     -8.009766000000000E+01
4540000000.000000      2.597809000000000E-01     -8.571093000000000E+01      7.418518000000000E-01     -9.463671000000000E+01
4560000000.000000      1.991730000000000E-01     -8.358984000000000E+01      7.279663000000000E-01     -1.079805000000000E+02
4580000000.000000      1.736526000000000E-01     -6.718750000000000E+01      6.897888000000000E-01     -1.215859000000000E+02
4600000000.000000      2.127533000000000E-01     -5.348437000000000E+01      6.034241000000000E-01     -1.348828000000000E+02
4620000000.000000      2.779083000000000E-01     -5.509179000000000E+01      4.955139000000000E-01     -1.451719000000000E+02
4640000000.000000      3.304443000000000E-01     -6.513281000000000E+01      3.769226000000000E-01     -1.533203000000000E+02
4660000000.000000      3.537750000000000E-01     -7.847656000000000E+01      2.441940000000000E-01     -1.510156000000000E+02
4680000000.000000      3.436737000000000E-01     -9.237890000000000E+01      1.803894000000000E-01     -1.225273000000000E+02
4700000000.000000      3.065338000000000E-01     -1.054883000000000E+02      2.519684000000000E-01     -9.657421000000000E+01
4720000000.000000      2.502289000000000E-01     -1.159062000000000E+02      3.705292000000000E-01     -9.578125000000000E+01
4740000000.000000      1.885910000000000E-01     -1.208359000000000E+02      4.769440000000000E-01     -1.021289000000000E+02
4760000000.000000      1.379700000000000E-01     -1.162773000000000E+02      5.829163000000000E-01     -1.109766000000000E+02
4780000000.000000      1.129189000000000E-01     -1.001523000000000E+02      6.680908000000000E-01     -1.233164000000000E+02
4800000000.000000      1.197548000000000E-01     -8.248438000000000E+01      7.177429000000000E-01     -1.360781000000000E+02
4820000000.000000      1.489105000000000E-01     -7.342578000000000E+01      7.350769000000000E-01     -1.493594000000000E+02
4840000000.000000      1.890335000000000E-01     -7.382030000000000E+01      7.163696000000000E-01     -1.621953000000000E+02
4860000000.000000      2.333527000000000E-01     -8.042969000000000E+01      6.818848000000000E-01     -1.746328000000000E+02
4880000000.000000      2.703552000000000E-01     -9.094530000000000E+01      6.141968000000000E-01      1.715312000000000E+02
4900000000.000000      2.952881000000000E-01     -1.044805000000000E+02      4.915466000000000E-01      1.595156000000000E+02
4920000000.000000      3.007050000000000E-01     -1.195703000000000E+02      3.619690000000000E-01      1.536406000000000E+02
4940000000.000000      2.848206000000000E-01     -1.351875000000000E+02      2.489166000000000E-01      1.562422000000000E+02
4960000000.000000      2.545013000000000E-01     -1.503828000000000E+02      1.767349000000000E-01      1.782266000000000E+02
4980000000.000000      2.115936000000000E-01     -1.644766000000000E+02      2.169952000000000E-01     -1.509063000000000E+02
5000000000.000000      1.671448000000000E-01     -1.760313000000000E+02      3.327789000000000E-01     -1.436719000000000E+02
5020000000.000000      1.302109000000000E-01      1.740078000000000E+02      4.636383000000000E-01     -1.499141000000000E+02
5040000000.000000      1.000977000000000E-01      1.636953000000000E+02      5.727844000000000E-01     -1.607344000000000E+02
5060000000.000000      7.169342000000000E-02      1.488047000000000E+02      6.523438000000000E-01     -1.721875000000000E+02
5080000000.000000      4.023361000000000E-02      1.232031000000000E+02      7.185669000000000E-01      1.755391000000000E+02
5100000000.000000      1.559210000000000E-02      3.847265000000000E+01      7.557068000000000E-01      1.617500000000000E+02
5120000000.000000      4.193306000000000E-02     -5.295507000000000E+01      7.510681000000000E-01      1.476719000000000E+02
5140000000.000000      7.363129000000000E-02     -8.872656000000000E+01      7.024231000000000E-01      1.340156000000000E+02
5160000000.000000      9.740067000000000E-02     -1.199062000000000E+02      6.259766000000000E-01      1.217344000000000E+02
5180000000.000000      1.099434000000000E-01     -1.503906000000000E+02      5.294189000000000E-01      1.104023000000000E+02
5200000000.000000      1.132927000000000E-01      1.769609000000000E+02      4.115143000000000E-01      1.009570000000000E+02
5220000000.000000      1.100121000000000E-01      1.412812000000000E+02      2.793884000000000E-01      9.848436000000000E+01
5240000000.000000      1.092567000000000E-01      1.050781000000000E+02      1.826096000000000E-01      1.162969000000000E+02
5260000000.000000      1.132851000000000E-01      7.177343000000000E+01      1.991196000000000E-01      1.502578000000000E+02
5280000000.000000      1.205292000000000E-01      4.530859000000000E+01      2.993011000000000E-01      1.606328000000000E+02
5300000000.000000      1.273041000000000E-01      2.467773000000000E+01      4.131470000000000E-01      1.579297000000000E+02
5320000000.000000      1.329422000000000E-01      8.314941000000000E+00      5.294189000000000E-01      1.501328000000000E+02
5340000000.000000      1.392059000000000E-01     -6.399658000000000E+00      6.414490000000000E-01      1.382578000000000E+02
5360000000.000000      1.433563000000000E-01     -2.180566000000000E+01      7.059937000000000E-01      1.237539000000000E+02
5380000000.000000      1.382599000000000E-01     -3.937695000000000E+01      7.168579000000000E-01      1.102617000000000E+02
5400000000.000000      1.190147000000000E-01     -5.781250000000000E+01      7.169800000000000E-01      9.872265000000000E+01
5420000000.000000      8.340454000000000E-02     -7.471093000000000E+01      7.041016000000000E-01      8.559765000000000E+01
5440000000.000000      2.884579000000000E-02     -7.785156000000000E+01      6.437378000000000E-01      7.133594000000000E+01
5460000000.000000      4.471207000000000E-02      3.903906000000000E+01      5.361023000000000E-01      5.833202000000000E+01
5480000000.000000      1.141930000000000E-01      3.074512000000000E+01      4.099426000000000E-01      4.930273000000000E+01
5500000000.000000      1.765976000000000E-01      1.529395000000000E+01      2.893066000000000E-01      4.756445000000000E+01
5520000000.000000      2.211914000000000E-01      3.089905000000000E-01      1.935806000000000E-01      6.013281000000000E+01
5540000000.000000      2.516632000000000E-01     -1.336670000000000E+01      1.834793000000000E-01      9.158203000000000E+01
5560000000.000000      2.700043000000000E-01     -2.526172000000000E+01      2.665253000000000E-01      1.088281000000000E+02
5580000000.000000      2.824402000000000E-01     -3.524219000000000E+01      3.879395000000000E-01      1.083984000000000E+02
5600000000.000000      2.936859000000000E-01     -4.406054000000000E+01      5.087891000000000E-01      9.936718000000000E+01
5620000000.000000      3.044586000000000E-01     -5.332812000000000E+01      5.968018000000000E-01      8.669140000000000E+01
5640000000.000000      3.077698000000000E-01     -6.301367000000000E+01      6.480713000000000E-01      7.498828000000000E+01
5660000000.000000      2.976074000000000E-01     -7.370703000000000E+01      6.857910000000000E-01      6.343359000000000E+01
5680000000.000000      2.665100000000000E-01     -8.398829000000000E+01      6.976624000000000E-01      5.071679000000000E+01
5700000000.000000      2.189560000000000E-01     -9.111328000000000E+01      6.823425000000000E-01      3.844336000000000E+01
5720000000.000000      1.685333000000000E-01     -8.948437000000000E+01      6.399231000000000E-01      2.560449000000000E+01
5740000000.000000      1.499100000000000E-01     -7.466797000000000E+01      5.616150000000000E-01      1.260107000000000E+01
5760000000.000000      1.799164000000000E-01     -6.355078000000000E+01      4.469604000000000E-01      1.071167000000000E+00
5780000000.000000      2.259140000000000E-01     -6.536718000000000E+01      3.123016000000000E-01     -3.783447000000000E+00
5800000000.000000      2.572937000000000E-01     -7.326172000000000E+01      2.064133000000000E-01      7.885254000000000E+00
5820000000.000000      2.662811000000000E-01     -8.278906000000000E+01      1.913147000000000E-01      3.864843000000000E+01
5840000000.000000      2.563171000000000E-01     -9.109766000000000E+01      2.751770000000000E-01      5.419726000000000E+01
5860000000.000000      2.376785000000000E-01     -9.671484000000000E+01      3.757477000000000E-01      5.392773000000000E+01
5880000000.000000      2.231903000000000E-01     -9.980078000000000E+01      4.810486000000000E-01      4.846093000000000E+01
5900000000.000000      2.156754000000000E-01     -1.023945000000000E+02      5.974731000000000E-01      3.804101000000000E+01
5920000000.000000      2.072144000000000E-01     -1.049648000000000E+02      6.736450000000000E-01      2.416504000000000E+01
5940000000.000000      1.933975000000000E-01     -1.069492000000000E+02      7.028809000000000E-01      1.094922000000000E+01
5960000000.000000      1.764679000000000E-01     -1.050156000000000E+02      7.116089000000000E-01     -1.800415000000000E+00
5980000000.000000      1.651306000000000E-01     -9.701952000000000E+01      6.901550000000000E-01     -1.579834000000000E+01
6000000000.000000      1.828842000000000E-01     -8.796093000000000E+01      6.246338000000000E-01     -2.931055000000000E+01
6020000000.000000      2.174530000000000E-01     -8.627733000000000E+01      5.256653000000000E-01     -4.175781000000000E+01
6040000000.000000      2.521210000000000E-01     -9.169922000000000E+01      3.954926000000000E-01     -4.986523000000000E+01
6060000000.000000      2.759857000000000E-01     -1.009805000000000E+02      2.823181000000000E-01     -4.937109000000000E+01
6080000000.000000      2.848969000000000E-01     -1.111601000000000E+02      2.046280000000000E-01     -3.484375000000000E+01
