! Network Analyzer HP8722D
! Hewlett-Packard
! Data name: Linha & Wilkinson+CNT
! Saver's name: Rodrigo Anjos
! Comments: Teste da utilização de aquisição
continua pelo VNA HP8722D
! Time and date: 29/9/2025 15:02
!              Frequency                     S11                                                   S21                                                   S12                                                   S22
# HZ  S  MA R 50
3000000000.000000      4.244385000000000E-01     -5.553515000000000E+01      2.067490000000000E-01     -1.314922000000000E+02
3020000000.000000      4.482880000000000E-01     -6.987890000000000E+01      3.498535000000000E-01     -1.350625000000000E+02
3040000000.000000      4.542084000000000E-01     -8.275391000000000E+01      4.677582000000000E-01     -1.448359000000000E+02
3060000000.000000      4.447327000000000E-01     -9.484375000000000E+01      5.716248000000000E-01     -1.550234000000000E+02
3080000000.000000      4.297028000000000E-01     -1.061055000000000E+02      6.734924000000000E-01     -1.682578000000000E+02
3100000000.000000      4.090576000000000E-01     -1.173086000000000E+02      7.244568000000000E-01      1.770156000000000E+02
3120000000.000000      3.798676000000000E-01     -1.292813000000000E+02      7.322693000000000E-01      1.634922000000000E+02
3140000000.000000      3.396301000000000E-01     -1.423750000000000E+02      7.245483000000000E-01      1.507031000000000E+02
3160000000.000000      2.792816000000000E-01     -1.563203000000000E+02      6.858521000000000E-01      1.369688000000000E+02
3180000000.000000      1.998901000000000E-01     -1.690391000000000E+02      6.130066000000000E-01      1.245195000000000E+02
3200000000.000000      1.119576000000000E-01     -1.699375000000000E+02      5.202332000000000E-01      1.117266000000000E+02
3220000000.000000      7.898712000000000E-02     -1.244844000000000E+02      3.860626000000000E-01      1.007851000000000E+02
3240000000.000000      1.499863000000000E-01     -1.048828000000000E+02      2.479782000000000E-01      9.929296000000000E+01
3260000000.000000      2.291336000000000E-01     -1.150820000000000E+02      1.470642000000000E-01      1.249258000000000E+02
3280000000.000000      2.871399000000000E-01     -1.306953000000000E+02      2.021408000000000E-01      1.652266000000000E+02
3300000000.000000      3.202515000000000E-01     -1.470703000000000E+02      3.286896000000000E-01      1.696563000000000E+02
3320000000.000000      3.317871000000000E-01     -1.629688000000000E+02      4.620514000000000E-01      1.626875000000000E+02
3340000000.000000      3.285675000000000E-01     -1.783906000000000E+02      5.745850000000000E-01      1.504453000000000E+02
3360000000.000000      3.168793000000000E-01      1.668047000000000E+02      6.452026000000000E-01      1.384766000000000E+02
3380000000.000000      3.008728000000000E-01      1.525234000000000E+02      7.092896000000000E-01      1.271484000000000E+02
3400000000.000000      2.784576000000000E-01      1.378281000000000E+02      7.579956000000000E-01      1.133398000000000E+02
3420000000.000000      2.436752000000000E-01      1.228477000000000E+02      7.491455000000000E-01      9.849609000000000E+01
3440000000.000000      1.910019000000000E-01      1.081914000000000E+02      7.068176000000000E-01      8.559374000000000E+01
3460000000.000000      1.203346000000000E-01      9.733593000000000E+01      6.488342000000000E-01      7.252734000000000E+01
3480000000.000000      4.841042000000000E-02      1.206328000000000E+02      5.506287000000000E-01      5.911718000000000E+01
3500000000.000000      9.122467000000000E-02     -1.743672000000000E+02      4.259186000000000E-01      4.762109000000000E+01
3520000000.000000      1.830215000000000E-01      1.791016000000000E+02      2.808380000000000E-01      4.045898000000000E+01
3540000000.000000      2.624359000000000E-01      1.630312000000000E+02      1.480713000000000E-01      5.776562000000000E+01
3560000000.000000      3.224792000000000E-01      1.460547000000000E+02      1.660919000000000E-01      1.075117000000000E+02
3580000000.000000      3.596039000000000E-01      1.299922000000000E+02      2.933807000000000E-01      1.175195000000000E+02
3600000000.000000      3.760529000000000E-01      1.153203000000000E+02      4.184570000000000E-01      1.106406000000000E+02
3620000000.000000      3.780212000000000E-01      1.026601000000000E+02      5.205994000000000E-01      1.012617000000000E+02
3640000000.000000      3.682556000000000E-01      9.144531000000000E+01      6.218872000000000E-01      9.012499000000000E+01
3660000000.000000      3.526459000000000E-01      8.121874000000000E+01      6.920776000000000E-01      7.591797000000000E+01
3680000000.000000      3.299103000000000E-01      7.194530000000000E+01      7.098999000000000E-01      6.270898000000000E+01
3700000000.000000      2.995148000000000E-01      6.377930000000000E+01      7.207336000000000E-01      5.117773000000000E+01
3720000000.000000      2.556000000000000E-01      5.764257000000000E+01      7.252808000000000E-01      3.690625000000000E+01
3740000000.000000      2.049561000000000E-01      5.837109000000000E+01      6.656494000000000E-01      2.149805000000000E+01
3760000000.000000      1.776962000000000E-01      7.214453000000000E+01      5.672302000000000E-01      7.212402000000000E+00
3780000000.000000      2.111588000000000E-01      8.740625000000000E+01      4.366608000000000E-01     -6.119385000000000E+00
3800000000.000000      2.817688000000000E-01      8.907812000000000E+01      2.837067000000000E-01     -1.360547000000000E+01
3820000000.000000      3.493500000000000E-01      8.266016000000000E+01      1.538391000000000E-01     -8.294678000000000E-01
3840000000.000000      3.998413000000000E-01      7.396874000000000E+01      1.422577000000000E-01      4.743164000000000E+01
3860000000.000000      4.358673000000000E-01      6.541016000000000E+01      2.448425000000000E-01      6.537499000000000E+01
3880000000.000000      4.610596000000000E-01      5.783984000000000E+01      3.751984000000000E-01      6.124804000000000E+01
3900000000.000000      4.900208000000000E-01      5.082617000000000E+01      4.763947000000000E-01      4.793945000000000E+01
3920000000.000000      5.209045000000000E-01      4.316796000000000E+01      5.070496000000000E-01      3.615429000000000E+01
3940000000.000000      5.480042000000000E-01      3.426172000000000E+01      5.397339000000000E-01      2.957324000000000E+01
3960000000.000000      5.604553000000000E-01      2.429980000000000E+01      5.957336000000000E-01      2.025586000000000E+01
3980000000.000000      5.551147000000000E-01      1.384814000000000E+01      5.963745000000000E-01      8.272461000000000E+00
4000000000.000000      5.272522000000000E-01      3.261475000000000E+00      5.793457000000000E-01      1.321106000000000E+00
4020000000.000000      4.849243000000000E-01     -6.764893000000000E+00      5.985718000000000E-01     -6.395508000000000E+00
4040000000.000000      4.257507000000000E-01     -1.559521000000000E+01      5.859985000000000E-01     -1.871973000000000E+01
4060000000.000000      3.500977000000000E-01     -2.182519000000000E+01      5.278931000000000E-01     -2.871973000000000E+01
4080000000.000000      2.752838000000000E-01     -2.182324000000000E+01      4.686584000000000E-01     -3.824609000000000E+01
4100000000.000000      2.282410000000000E-01     -1.141357000000000E+01      3.680420000000000E-01     -4.718946000000000E+01
4120000000.000000      2.408829000000000E-01      1.785278000000000E+00      2.506256000000000E-01     -4.437304000000000E+01
4140000000.000000      2.895050000000000E-01      5.215576000000000E+00      2.024384000000000E-01     -2.035547000000000E+01
4160000000.000000      3.337402000000000E-01      1.035461000000000E+00      2.625275000000000E-01     -1.428223000000000E-01
4180000000.000000      3.615265000000000E-01     -5.771973000000000E+00      3.563538000000000E-01      3.923462000000000E+00
4200000000.000000      3.718719000000000E-01     -1.361523000000000E+01      4.871521000000000E-01      1.492737000000000E+00
4220000000.000000      3.674011000000000E-01     -2.076465000000000E+01      6.405945000000000E-01     -1.090137000000000E+01
4240000000.000000      3.488312000000000E-01     -2.826660000000000E+01      7.216492000000000E-01     -2.762695000000000E+01
4260000000.000000      3.108063000000000E-01     -3.405859000000000E+01      7.434387000000000E-01     -4.177930000000000E+01
4280000000.000000      2.600555000000000E-01     -3.545117000000000E+01      7.499695000000000E-01     -5.549609000000000E+01
4300000000.000000      2.225266000000000E-01     -2.749121000000000E+01      7.154541000000000E-01     -7.068359000000000E+01
4320000000.000000      2.353516000000000E-01     -1.466846000000000E+01      6.336060000000000E-01     -8.507030000000000E+01
4340000000.000000      2.927094000000000E-01     -1.054297000000000E+01      5.169983000000000E-01     -9.773046000000000E+01
4360000000.000000      3.579712000000000E-01     -1.548828000000000E+01      3.830719000000000E-01     -1.068164000000000E+02
4380000000.000000      4.048309000000000E-01     -2.448242000000000E+01      2.513275000000000E-01     -1.083242000000000E+02
4400000000.000000      4.270172000000000E-01     -3.447656000000000E+01      1.538010000000000E-01     -8.565233000000000E+01
4420000000.000000      4.251709000000000E-01     -4.380273000000000E+01      1.866989000000000E-01     -4.566211000000000E+01
4440000000.000000      4.082031000000000E-01     -5.191796000000000E+01      3.088074000000000E-01     -3.617578000000000E+01
4460000000.000000      3.883820000000000E-01     -5.858593000000000E+01      4.512634000000000E-01     -4.314062000000000E+01
4480000000.000000      3.675232000000000E-01     -6.487109000000000E+01      5.606689000000000E-01     -5.509375000000000E+01
4500000000.000000      3.468628000000000E-01     -7.153125000000000E+01      6.430054000000000E-01     -6.668359000000000E+01
4520000000.000000      3.136749000000000E-01     -7.930469000000000E+01      7.156372000000000E-01     -7.970312000000000E+01
4540000000.000000      2.626038000000000E-01     -8.551172000000000E+01      7.419434000000000E-01     -9.425781000000000E+01
4560000000.000000      2.016907000000000E-01     -8.401953000000000E+01      7.303467000000000E-01     -1.074844000000000E+02
4580000000.000000      1.739349000000000E-01     -6.810547000000000E+01      6.928406000000000E-01     -1.214023000000000E+02
4600000000.000000      2.111816000000000E-01     -5.384179000000000E+01      6.066284000000000E-01     -1.345234000000000E+02
4620000000.000000      2.760162000000000E-01     -5.505273000000000E+01      5.002747000000000E-01     -1.449375000000000E+02
4640000000.000000      3.303223000000000E-01     -6.495703000000000E+01      3.804779000000000E-01     -1.535078000000000E+02
4660000000.000000      3.548126000000000E-01     -7.829296000000000E+01      2.472610000000000E-01     -1.520625000000000E+02
4680000000.000000      3.461456000000000E-01     -9.224218000000000E+01      1.787796000000000E-01     -1.240469000000000E+02
4700000000.000000      3.095856000000000E-01     -1.055351000000000E+02      2.466965000000000E-01     -9.667969000000000E+01
4720000000.000000      2.541962000000000E-01     -1.161562000000000E+02      3.654480000000000E-01     -9.533203000000000E+01
4740000000.000000      1.915054000000000E-01     -1.214766000000000E+02      4.723511000000000E-01     -1.016797000000000E+02
4760000000.000000      1.395950000000000E-01     -1.177461000000000E+02      5.791016000000000E-01     -1.102695000000000E+02
4780000000.000000      1.122589000000000E-01     -1.017188000000000E+02      6.668701000000000E-01     -1.227148000000000E+02
4800000000.000000      1.174850000000000E-01     -8.387499000000000E+01      7.173157000000000E-01     -1.356172000000000E+02
4820000000.000000      1.463242000000000E-01     -7.398828000000000E+01      7.359924000000000E-01     -1.487656000000000E+02
4840000000.000000      1.866913000000000E-01     -7.348827000000000E+01      7.194214000000000E-01     -1.616562000000000E+02
4860000000.000000      2.300644000000000E-01     -8.006639000000000E+01      6.847229000000000E-01     -1.741094000000000E+02
4880000000.000000      2.677612000000000E-01     -9.047655000000000E+01      6.159973000000000E-01      1.718828000000000E+02
4900000000.000000      2.938995000000000E-01     -1.040469000000000E+02      4.951019000000000E-01      1.597500000000000E+02
4920000000.000000      3.000183000000000E-01     -1.190820000000000E+02      3.675079000000000E-01      1.536484000000000E+02
4940000000.000000      2.855530000000000E-01     -1.348516000000000E+02      2.534027000000000E-01      1.556875000000000E+02
4960000000.000000      2.549438000000000E-01     -1.500156000000000E+02      1.771851000000000E-01      1.767891000000000E+02
4980000000.000000      2.131042000000000E-01     -1.643125000000000E+02      2.132874000000000E-01     -1.516641000000000E+02
5000000000.000000      1.690369000000000E-01     -1.759687000000000E+02      3.284302000000000E-01     -1.435078000000000E+02
5020000000.000000      1.312027000000000E-01      1.738750000000000E+02      4.597015000000000E-01     -1.494062000000000E+02
5040000000.000000      1.005592000000000E-01      1.638125000000000E+02      5.679626000000000E-01     -1.603359000000000E+02
5060000000.000000      7.191086000000000E-02      1.487500000000000E+02      6.497192000000000E-01     -1.717187000000000E+02
5080000000.000000      4.226112000000000E-02      1.233047000000000E+02      7.194214000000000E-01      1.760937000000000E+02
5100000000.000000      1.719284000000000E-02      4.350586000000000E+01      7.571411000000000E-01      1.623984000000000E+02
5120000000.000000      4.069519000000000E-02     -5.068945000000000E+01      7.535706000000000E-01      1.482188000000000E+02
5140000000.000000      7.240677000000000E-02     -8.726563000000000E+01      7.029724000000000E-01      1.345000000000000E+02
5160000000.000000      9.596634000000000E-02     -1.183828000000000E+02      6.310425000000000E-01      1.221367000000000E+02
5180000000.000000      1.093597000000000E-01     -1.490625000000000E+02      5.337219000000000E-01      1.107422000000000E+02
5200000000.000000      1.125107000000000E-01      1.781953000000000E+02      4.173584000000000E-01      1.010000000000000E+02
5220000000.000000      1.099777000000000E-01      1.423437000000000E+02      2.851105000000000E-01      9.813671000000000E+01
5240000000.000000      1.090012000000000E-01      1.061367000000000E+02      1.840973000000000E-01      1.148281000000000E+02
5260000000.000000      1.133232000000000E-01      7.272655000000000E+01      1.950760000000000E-01      1.491406000000000E+02
5280000000.000000      1.207619000000000E-01      4.601758000000000E+01      2.950897000000000E-01      1.605781000000000E+02
5300000000.000000      1.278839000000000E-01      2.535449000000000E+01      4.087677000000000E-01      1.582187000000000E+02
5320000000.000000      1.335297000000000E-01      8.798340000000000E+00      5.258789000000000E-01      1.506328000000000E+02
5340000000.000000      1.390076000000000E-01     -5.518066000000000E+00      6.384277000000000E-01      1.386328000000000E+02
5360000000.000000      1.431351000000000E-01     -2.119727000000000E+01      7.062378000000000E-01      1.241914000000000E+02
5380000000.000000      1.385498000000000E-01     -3.878515000000000E+01      7.179565000000000E-01      1.109375000000000E+02
5400000000.000000      1.202545000000000E-01     -5.674609000000000E+01      7.192688000000000E-01      9.924608000000000E+01
5420000000.000000      8.512115000000000E-02     -7.366796000000000E+01      7.064819000000000E-01      8.598047000000000E+01
5440000000.000000      3.110600000000000E-02     -7.848046000000000E+01      6.498718000000000E-01      7.167187000000000E+01
5460000000.000000      4.223824000000000E-02      3.914063000000000E+01      5.412598000000000E-01      5.862695000000000E+01
5480000000.000000      1.121712000000000E-01      3.115723000000000E+01      4.143524000000000E-01      4.928711000000000E+01
5500000000.000000      1.745224000000000E-01      1.593799000000000E+01      2.939606000000000E-01      4.719922000000000E+01
5520000000.000000      2.211380000000000E-01      8.418274000000000E-01      1.958771000000000E-01      5.877930000000000E+01
5540000000.000000      2.519836000000000E-01     -1.286914000000000E+01      1.802979000000000E-01      9.055468000000000E+01
5560000000.000000      2.703552000000000E-01     -2.487500000000000E+01      2.617340000000000E-01      1.087617000000000E+02
5580000000.000000      2.828064000000000E-01     -3.488672000000000E+01      3.822784000000000E-01      1.087344000000000E+02
5600000000.000000      2.936554000000000E-01     -4.374609000000000E+01      5.056763000000000E-01      9.966015000000000E+01
5620000000.000000      3.045044000000000E-01     -5.284765000000000E+01      5.961609000000000E-01      8.721874000000000E+01
5640000000.000000      3.082886000000000E-01     -6.258984000000000E+01      6.460571000000000E-01      7.537109000000000E+01
5660000000.000000      2.983093000000000E-01     -7.320703000000000E+01      6.853638000000000E-01      6.397461000000000E+01
5680000000.000000      2.694550000000000E-01     -8.368359000000000E+01      6.991577000000000E-01      5.129101000000000E+01
5700000000.000000      2.217178000000000E-01     -9.107422000000000E+01      6.840210000000000E-01      3.906445000000000E+01
5720000000.000000      1.713409000000000E-01     -8.990234000000000E+01      6.445007000000000E-01      2.611133000000000E+01
5740000000.000000      1.500778000000000E-01     -7.558594000000000E+01      5.670166000000000E-01      1.288281000000000E+01
5760000000.000000      1.779404000000000E-01     -6.366601000000000E+01      4.518890000000000E-01      1.064270000000000E+00
5780000000.000000      2.240295000000000E-01     -6.509766000000000E+01      3.186646000000000E-01     -3.959229000000000E+00
5800000000.000000      2.565918000000000E-01     -7.298437000000000E+01      2.093735000000000E-01      6.610840000000000E+00
5820000000.000000      2.666931000000000E-01     -8.237890000000000E+01      1.889114000000000E-01      3.707422000000000E+01
5840000000.000000      2.576141000000000E-01     -9.087500000000000E+01      2.699280000000000E-01      5.393555000000000E+01
5860000000.000000      2.393951000000000E-01     -9.646093000000000E+01      3.700256000000000E-01      5.407421000000000E+01
5880000000.000000      2.242889000000000E-01     -9.968750000000000E+01      4.767456000000000E-01      4.880077000000000E+01
5900000000.000000      2.159958000000000E-01     -1.020664000000000E+02      5.945740000000000E-01      3.867188000000000E+01
5920000000.000000      2.087860000000000E-01     -1.051172000000000E+02      6.717834000000000E-01      2.456250000000000E+01
5940000000.000000      1.951523000000000E-01     -1.071406000000000E+02      7.023926000000000E-01      1.146973000000000E+01
5960000000.000000      1.771774000000000E-01     -1.055781000000000E+02      7.133484000000000E-01     -1.245605000000000E+00
5980000000.000000      1.654892000000000E-01     -9.747265000000000E+01      6.933289000000000E-01     -1.543604000000000E+01
6000000000.000000      1.807709000000000E-01     -8.823046000000000E+01      6.293945000000000E-01     -2.898633000000000E+01
6020000000.000000      2.147446000000000E-01     -8.619532000000000E+01      5.322571000000000E-01     -4.159961000000000E+01
6040000000.000000      2.508087000000000E-01     -9.167969000000000E+01      4.008636000000000E-01     -4.979687000000000E+01
6060000000.000000      2.751465000000000E-01     -1.006289000000000E+02      2.873688000000000E-01     -4.988086000000000E+01
6080000000.000000      2.851868000000000E-01     -1.109922000000000E+02      2.062836000000000E-01     -3.629492000000000E+01
