! Network Analyzer HP8722D
! Hewlett-Packard
! Data name: Linha & Wilkinson+CNT
! Saver's name: Rodrigo Anjos
! Comments: Teste da utilização de aquisição
continua pelo VNA HP8722D
! Time and date: 29/9/2025 15:19
!              Frequency                     S11                                                   S21                                                   S12                                                   S22
# HZ  S  MA R 50
3000000000.000000      4.249115000000000E-01     -5.565430000000000E+01      2.082138000000000E-01     -1.313984000000000E+02
3020000000.000000      4.472351000000000E-01     -6.991405000000000E+01      3.508301000000000E-01     -1.350625000000000E+02
3040000000.000000      4.522705000000000E-01     -8.293749000000000E+01      4.689026000000000E-01     -1.450156000000000E+02
3060000000.000000      4.445801000000000E-01     -9.493359000000000E+01      5.727539000000000E-01     -1.553047000000000E+02
3080000000.000000      4.290771000000000E-01     -1.062031000000000E+02      6.734009000000000E-01     -1.684219000000000E+02
3100000000.000000      4.086304000000000E-01     -1.174101000000000E+02      7.239990000000000E-01      1.766719000000000E+02
3120000000.000000      3.797607000000000E-01     -1.293828000000000E+02      7.322998000000000E-01      1.634140000000000E+02
3140000000.000000      3.385162000000000E-01     -1.424219000000000E+02      7.223511000000000E-01      1.504062000000000E+02
3160000000.000000      2.783661000000000E-01     -1.562891000000000E+02      6.831055000000000E-01      1.369219000000000E+02
3180000000.000000      1.987991000000000E-01     -1.691953000000000E+02      6.121216000000000E-01      1.244414000000000E+02
3200000000.000000      1.109810000000000E-01     -1.696797000000000E+02      5.175476000000000E-01      1.115156000000000E+02
3220000000.000000      7.954407000000000E-02     -1.236719000000000E+02      3.847809000000000E-01      1.008086000000000E+02
3240000000.000000      1.507797000000000E-01     -1.048281000000000E+02      2.463150000000000E-01      9.960546000000000E+01
3260000000.000000      2.305603000000000E-01     -1.152031000000000E+02      1.467743000000000E-01      1.257578000000000E+02
3280000000.000000      2.877502000000000E-01     -1.308828000000000E+02      2.042007000000000E-01      1.654375000000000E+02
3300000000.000000      3.204956000000000E-01     -1.472265000000000E+02      3.309937000000000E-01      1.695937000000000E+02
3320000000.000000      3.317871000000000E-01     -1.631328000000000E+02      4.636078000000000E-01      1.625234000000000E+02
3340000000.000000      3.286438000000000E-01     -1.785156000000000E+02      5.755920000000000E-01      1.503438000000000E+02
3360000000.000000      3.162537000000000E-01      1.667344000000000E+02      6.467285000000000E-01      1.383750000000000E+02
3380000000.000000      3.002625000000000E-01      1.524531000000000E+02      7.099915000000000E-01      1.269727000000000E+02
3400000000.000000      2.777710000000000E-01      1.377812000000000E+02      7.590332000000000E-01      1.130469000000000E+02
3420000000.000000      2.427902000000000E-01      1.226914000000000E+02      7.483521000000000E-01      9.838671000000000E+01
3440000000.000000      1.895370000000000E-01      1.079766000000000E+02      7.054749000000000E-01      8.539063000000000E+01
3460000000.000000      1.193810000000000E-01      9.744530000000000E+01      6.457520000000000E-01      7.244141000000000E+01
3480000000.000000      4.783630000000000E-02      1.218867000000000E+02      5.493774000000000E-01      5.896289000000000E+01
3500000000.000000      9.303284000000000E-02     -1.742344000000000E+02      4.243774000000000E-01      4.767187000000000E+01
3520000000.000000      1.843338000000000E-01      1.790078000000000E+02      2.775726000000000E-01      4.052148000000000E+01
3540000000.000000      2.635345000000000E-01      1.627578000000000E+02      1.469574000000000E-01      5.860742000000000E+01
3560000000.000000      3.231201000000000E-01      1.457266000000000E+02      1.675186000000000E-01      1.078945000000000E+02
3580000000.000000      3.599548000000000E-01      1.297891000000000E+02      2.950745000000000E-01      1.174766000000000E+02
3600000000.000000      3.766937000000000E-01      1.152226000000000E+02      4.204407000000000E-01      1.105742000000000E+02
3620000000.000000      3.780670000000000E-01      1.026406000000000E+02      5.220642000000000E-01      1.012305000000000E+02
3640000000.000000      3.683167000000000E-01      9.128906000000000E+01      6.235046000000000E-01      9.001171000000000E+01
3660000000.000000      3.522186000000000E-01      8.108202000000000E+01      6.928406000000000E-01      7.579687000000000E+01
3680000000.000000      3.294983000000000E-01      7.187500000000000E+01      7.096252000000000E-01      6.255468000000000E+01
3700000000.000000      2.987976000000000E-01      6.360352000000000E+01      7.209167000000000E-01      5.089648000000000E+01
3720000000.000000      2.545776000000000E-01      5.764843000000000E+01      7.240601000000000E-01      3.677734000000000E+01
3740000000.000000      2.044296000000000E-01      5.847070000000000E+01      6.638184000000000E-01      2.134082000000000E+01
3760000000.000000      1.780853000000000E-01      7.252734000000000E+01      5.656433000000000E-01      7.043457000000000E+00
3780000000.000000      2.119675000000000E-01      8.758593000000000E+01      4.346771000000000E-01     -6.085205000000000E+00
3800000000.000000      2.828827000000000E-01      8.912109000000000E+01      2.811127000000000E-01     -1.331836000000000E+01
3820000000.000000      3.501892000000000E-01      8.263672000000000E+01      1.530609000000000E-01     -1.222229000000000E-01
3840000000.000000      4.009247000000000E-01      7.389453000000000E+01      1.433945000000000E-01      4.813671000000000E+01
3860000000.000000      4.356537000000000E-01      6.535937000000000E+01      2.466888000000000E-01      6.534765000000000E+01
3880000000.000000      4.604492000000000E-01      5.784570000000000E+01      3.766785000000000E-01      6.113867000000000E+01
3900000000.000000      4.893341000000000E-01      5.078320000000000E+01      4.776154000000000E-01      4.770508000000000E+01
3920000000.000000      5.203247000000000E-01      4.323242000000000E+01      5.081177000000000E-01      3.592382000000000E+01
3940000000.000000      5.477905000000000E-01      3.421289000000000E+01      5.390320000000000E-01      2.936621000000000E+01
3960000000.000000      5.585632000000000E-01      2.404297000000000E+01      5.950012000000000E-01      2.008399000000000E+01
3980000000.000000      5.530396000000000E-01      1.358447000000000E+01      5.974731000000000E-01      8.083008000000000E+00
4000000000.000000      5.274658000000000E-01      3.056885000000000E+00      5.796204000000000E-01      1.299133000000000E+00
4020000000.000000      4.844666000000000E-01     -6.854248000000000E+00      5.986938000000000E-01     -6.517822000000000E+00
4040000000.000000      4.247131000000000E-01     -1.569824000000000E+01      5.857849000000000E-01     -1.880371000000000E+01
4060000000.000000      3.488464000000000E-01     -2.168457000000000E+01      5.265503000000000E-01     -2.885156000000000E+01
4080000000.000000      2.745209000000000E-01     -2.171191000000000E+01      4.689178000000000E-01     -3.813867000000000E+01
4100000000.000000      2.288284000000000E-01     -1.101953000000000E+01      3.661804000000000E-01     -4.743945000000000E+01
4120000000.000000      2.420120000000000E-01      1.950073000000000E+00      2.490845000000000E-01     -4.391015000000000E+01
4140000000.000000      2.900391000000000E-01      5.255371000000000E+00      2.033157000000000E-01     -1.971094000000000E+01
4160000000.000000      3.342285000000000E-01      1.020325000000000E+00      2.644806000000000E-01     -1.647949000000000E-02
4180000000.000000      3.618469000000000E-01     -5.905273000000000E+00      3.580780000000000E-01      3.805298000000000E+00
4200000000.000000      3.716278000000000E-01     -1.370850000000000E+01      4.888458000000000E-01      1.408997000000000E+00
4220000000.000000      3.666840000000000E-01     -2.081152000000000E+01      6.421814000000000E-01     -1.114600000000000E+01
4240000000.000000      3.481598000000000E-01     -2.829297000000000E+01      7.210388000000000E-01     -2.776172000000000E+01
4260000000.000000      3.091278000000000E-01     -3.407422000000000E+01      7.421570000000000E-01     -4.186328000000000E+01
4280000000.000000      2.596283000000000E-01     -3.528515000000000E+01      7.518005000000000E-01     -5.574609000000000E+01
4300000000.000000      2.222366000000000E-01     -2.718359000000000E+01      7.138367000000000E-01     -7.075390000000000E+01
4320000000.000000      2.360916000000000E-01     -1.446094000000000E+01      6.309509000000000E-01     -8.528124000000000E+01
4340000000.000000      2.939453000000000E-01     -1.052246000000000E+01      5.157776000000000E-01     -9.805468000000000E+01
4360000000.000000      3.593445000000000E-01     -1.556641000000000E+01      3.805084000000000E-01     -1.068867000000000E+02
4380000000.000000      4.057922000000000E-01     -2.461914000000000E+01      2.492371000000000E-01     -1.079883000000000E+02
4400000000.000000      4.265900000000000E-01     -3.452343000000000E+01      1.533127000000000E-01     -8.482422000000000E+01
4420000000.000000      4.242706000000000E-01     -4.383985000000000E+01      1.885605000000000E-01     -4.543554000000000E+01
4440000000.000000      4.080658000000000E-01     -5.181835000000000E+01      3.112488000000000E-01     -3.616601000000000E+01
4460000000.000000      3.873901000000000E-01     -5.854492000000000E+01      4.525604000000000E-01     -4.343946000000000E+01
4480000000.000000      3.682098000000000E-01     -6.484765000000000E+01      5.625000000000000E-01     -5.545507000000000E+01
4500000000.000000      3.470459000000000E-01     -7.162109000000000E+01      6.433105000000000E-01     -6.687890000000000E+01
4520000000.000000      3.136749000000000E-01     -7.940234000000000E+01      7.168274000000000E-01     -7.985937000000000E+01
4540000000.000000      2.616119000000000E-01     -8.554688000000000E+01      7.427979000000000E-01     -9.447657000000000E+01
4560000000.000000      2.012100000000000E-01     -8.377344000000000E+01      7.284546000000000E-01     -1.077383000000000E+02
4580000000.000000      1.739883000000000E-01     -6.770702000000000E+01      6.912842000000000E-01     -1.214805000000000E+02
4600000000.000000      2.120895000000000E-01     -5.375586000000000E+01      6.065063000000000E-01     -1.347265000000000E+02
4620000000.000000      2.773132000000000E-01     -5.513085000000000E+01      4.981384000000000E-01     -1.450859000000000E+02
4640000000.000000      3.306885000000000E-01     -6.518749000000000E+01      3.791199000000000E-01     -1.533125000000000E+02
4660000000.000000      3.543854000000000E-01     -7.836328000000000E+01      2.458496000000000E-01     -1.516172000000000E+02
4680000000.000000      3.459320000000000E-01     -9.239061000000000E+01      1.790009000000000E-01     -1.232344000000000E+02
4700000000.000000      3.089142000000000E-01     -1.056758000000000E+02      2.488251000000000E-01     -9.644920000000000E+01
4720000000.000000      2.530518000000000E-01     -1.161836000000000E+02      3.679504000000000E-01     -9.541796000000000E+01
4740000000.000000      1.909027000000000E-01     -1.214101000000000E+02      4.745636000000000E-01     -1.017695000000000E+02
4760000000.000000      1.383514000000000E-01     -1.174297000000000E+02      5.804138000000000E-01     -1.106328000000000E+02
4780000000.000000      1.122322000000000E-01     -1.015351000000000E+02      6.689453000000000E-01     -1.230742000000000E+02
4800000000.000000      1.177139000000000E-01     -8.340235000000000E+01      7.166443000000000E-01     -1.357422000000000E+02
4820000000.000000      1.465378000000000E-01     -7.394140000000000E+01      7.346497000000000E-01     -1.489844000000000E+02
4840000000.000000      1.874847000000000E-01     -7.372656000000000E+01      7.194824000000000E-01     -1.617891000000000E+02
4860000000.000000      2.305756000000000E-01     -8.021484000000000E+01      6.846313000000000E-01     -1.744297000000000E+02
4880000000.000000      2.681732000000000E-01     -9.078125000000000E+01      6.169434000000000E-01      1.718672000000000E+02
4900000000.000000      2.941895000000000E-01     -1.043125000000000E+02      4.940033000000000E-01      1.595469000000000E+02
4920000000.000000      2.997589000000000E-01     -1.193711000000000E+02      3.655090000000000E-01      1.536484000000000E+02
4940000000.000000      2.848206000000000E-01     -1.350703000000000E+02      2.506104000000000E-01      1.561094000000000E+02
4960000000.000000      2.542725000000000E-01     -1.503047000000000E+02      1.766205000000000E-01      1.775391000000000E+02
4980000000.000000      2.123184000000000E-01     -1.644453000000000E+02      2.158279000000000E-01     -1.509922000000000E+02
5000000000.000000      1.679916000000000E-01     -1.762344000000000E+02      3.319855000000000E-01     -1.435469000000000E+02
5020000000.000000      1.305542000000000E-01      1.736562000000000E+02      4.612427000000000E-01     -1.496328000000000E+02
5040000000.000000      1.001358000000000E-01      1.636719000000000E+02      5.711060000000000E-01     -1.604687000000000E+02
5060000000.000000      7.205200000000000E-02      1.485078000000000E+02      6.514587000000000E-01     -1.721172000000000E+02
5080000000.000000      4.157829000000000E-02      1.225195000000000E+02      7.176208000000000E-01      1.758047000000000E+02
5100000000.000000      1.668262000000000E-02      4.075195000000000E+01      7.572327000000000E-01      1.621641000000000E+02
5120000000.000000      4.151917000000000E-02     -5.167187000000000E+01      7.523193000000000E-01      1.478281000000000E+02
5140000000.000000      7.279968000000000E-02     -8.775000000000000E+01      7.048035000000000E-01      1.341719000000000E+02
5160000000.000000      9.645462000000000E-02     -1.190351000000000E+02      6.277771000000000E-01      1.218242000000000E+02
5180000000.000000      1.099014000000000E-01     -1.497266000000000E+02      5.323792000000000E-01      1.107578000000000E+02
5200000000.000000      1.124420000000000E-01      1.777500000000000E+02      4.147034000000000E-01      1.009180000000000E+02
5220000000.000000      1.097717000000000E-01      1.418203000000000E+02      2.821198000000000E-01      9.839453000000000E+01
5240000000.000000      1.094704000000000E-01      1.054570000000000E+02      1.832809000000000E-01      1.156953000000000E+02
5260000000.000000      1.136856000000000E-01      7.209765000000000E+01      1.975479000000000E-01      1.495781000000000E+02
5280000000.000000      1.209259000000000E-01      4.554883000000000E+01      2.975616000000000E-01      1.606641000000000E+02
5300000000.000000      1.276474000000000E-01      2.503320000000000E+01      4.112091000000000E-01      1.581016000000000E+02
5320000000.000000      1.334457000000000E-01      8.600586000000000E+00      5.283813000000000E-01      1.504609000000000E+02
5340000000.000000      1.390762000000000E-01     -5.688232000000000E+00      6.389465000000000E-01      1.384453000000000E+02
5360000000.000000      1.435623000000000E-01     -2.128808000000000E+01      7.066345000000000E-01      1.238594000000000E+02
5380000000.000000      1.388168000000000E-01     -3.901953000000000E+01      7.170410000000000E-01      1.105000000000000E+02
5400000000.000000      1.196518000000000E-01     -5.719336000000000E+01      7.187500000000000E-01      9.890625000000000E+01
5420000000.000000      8.397675000000000E-02     -7.393359000000000E+01      7.028809000000000E-01      8.573046000000000E+01
5440000000.000000      3.003788000000000E-02     -7.813281000000000E+01      6.474915000000000E-01      7.155859000000000E+01
5460000000.000000      4.392624000000000E-02      3.892969000000000E+01      5.384827000000000E-01      5.858593000000000E+01
5480000000.000000      1.134453000000000E-01      3.086523000000000E+01      4.108276000000000E-01      4.929101000000000E+01
5500000000.000000      1.759720000000000E-01      1.555664000000000E+01      2.917328000000000E-01      4.737305000000000E+01
5520000000.000000      2.214432000000000E-01      5.575562000000000E-01      1.944580000000000E-01      5.940624000000000E+01
5540000000.000000      2.518158000000000E-01     -1.308789000000000E+01      1.814346000000000E-01      9.105469000000000E+01
5560000000.000000      2.704010000000000E-01     -2.505078000000000E+01      2.637787000000000E-01      1.088281000000000E+02
5580000000.000000      2.826691000000000E-01     -3.508398000000000E+01      3.860016000000000E-01      1.086719000000000E+02
5600000000.000000      2.939911000000000E-01     -4.390429000000000E+01      5.078430000000000E-01      9.965624000000000E+01
5620000000.000000      3.043518000000000E-01     -5.304296000000000E+01      5.958557000000000E-01      8.697266000000000E+01
5640000000.000000      3.077087000000000E-01     -6.283398000000000E+01      6.470947000000000E-01      7.525391000000000E+01
5660000000.000000      2.978210000000000E-01     -7.348827000000000E+01      6.841431000000000E-01      6.372460000000000E+01
5680000000.000000      2.680664000000000E-01     -8.383984000000000E+01      6.979675000000000E-01      5.096093000000000E+01
5700000000.000000      2.203979000000000E-01     -9.115234000000000E+01      6.839600000000000E-01      3.853711000000000E+01
5720000000.000000      1.701660000000000E-01     -8.955469000000000E+01      6.427612000000000E-01      2.583105000000000E+01
5740000000.000000      1.498184000000000E-01     -7.509766000000000E+01      5.645142000000000E-01      1.264795000000000E+01
5760000000.000000      1.793518000000000E-01     -6.366601000000000E+01      4.487457000000000E-01      1.141174000000000E+00
5780000000.000000      2.255630000000000E-01     -6.526172000000000E+01      3.156281000000000E-01     -3.933105000000000E+00
5800000000.000000      2.571869000000000E-01     -7.305078000000000E+01      2.076721000000000E-01      7.196045000000000E+00
5820000000.000000      2.669373000000000E-01     -8.251171000000000E+01      1.901169000000000E-01      3.788867000000000E+01
5840000000.000000      2.574463000000000E-01     -9.092968000000000E+01      2.719574000000000E-01      5.407812000000000E+01
5860000000.000000      2.387009000000000E-01     -9.669531000000000E+01      3.730011000000000E-01      5.406054000000000E+01
5880000000.000000      2.240601000000000E-01     -9.983202000000000E+01      4.795990000000000E-01      4.861914000000000E+01
5900000000.000000      2.166977000000000E-01     -1.022969000000000E+02      5.953369000000000E-01      3.842382000000000E+01
5920000000.000000      2.084122000000000E-01     -1.050820000000000E+02      6.717529000000000E-01      2.456933000000000E+01
5940000000.000000      1.941223000000000E-01     -1.069609000000000E+02      7.020264000000000E-01      1.113281000000000E+01
5960000000.000000      1.772766000000000E-01     -1.051367000000000E+02      7.134399000000000E-01     -1.605408000000000E+00
5980000000.000000      1.657715000000000E-01     -9.716797000000000E+01      6.913757000000000E-01     -1.543994000000000E+01
6000000000.000000      1.819763000000000E-01     -8.839453000000000E+01      6.272278000000000E-01     -2.910156000000000E+01
6020000000.000000      2.161636000000000E-01     -8.642969000000000E+01      5.284119000000000E-01     -4.173437000000000E+01
6040000000.000000      2.516479000000000E-01     -9.167187000000000E+01      3.980255000000000E-01     -4.976953000000000E+01
6060000000.000000      2.757721000000000E-01     -1.008516000000000E+02      2.848206000000000E-01     -4.948632000000000E+01
6080000000.000000      2.853546000000000E-01     -1.111484000000000E+02      2.049484000000000E-01     -3.559179000000000E+01
