! Network Analyzer HP8722D
! Hewlett-Packard
! Data name: Linha & Wilkinson+CNT
! Saver's name: Rodrigo Anjos
! Comments: Teste da utilização de aquisição
continua pelo VNA HP8722D
! Time and date: 29/9/2025 15:32
!              Frequency                     S11                                                   S21                                                   S12                                                   S22
# HZ  S  MA R 50
3000000000.000000      4.243317000000000E-01     -5.581055000000000E+01      2.089539000000000E-01     -1.313828000000000E+02
3020000000.000000      4.480133000000000E-01     -6.973827000000000E+01      3.517303000000000E-01     -1.351016000000000E+02
3040000000.000000      4.522858000000000E-01     -8.302343000000000E+01      4.690552000000000E-01     -1.451250000000000E+02
3060000000.000000      4.443207000000000E-01     -9.497656000000000E+01      5.736389000000000E-01     -1.552734000000000E+02
3080000000.000000      4.288025000000000E-01     -1.062226000000000E+02      6.746826000000000E-01     -1.684687000000000E+02
3100000000.000000      4.090424000000000E-01     -1.174375000000000E+02      7.228699000000000E-01      1.766719000000000E+02
3120000000.000000      3.796844000000000E-01     -1.294297000000000E+02      7.327881000000000E-01      1.631797000000000E+02
3140000000.000000      3.378143000000000E-01     -1.424141000000000E+02      7.227173000000000E-01      1.503594000000000E+02
3160000000.000000      2.770844000000000E-01     -1.565234000000000E+02      6.832581000000000E-01      1.368906000000000E+02
3180000000.000000      1.984711000000000E-01     -1.691015000000000E+02      6.123962000000000E-01      1.242812000000000E+02
3200000000.000000      1.107559000000000E-01     -1.695703000000000E+02      5.189819000000000E-01      1.114609000000000E+02
3220000000.000000      8.005905000000000E-02     -1.235273000000000E+02      3.842010000000000E-01      1.008555000000000E+02
3240000000.000000      1.514587000000000E-01     -1.048320000000000E+02      2.453842000000000E-01      9.970312000000000E+01
3260000000.000000      2.305984000000000E-01     -1.153242000000000E+02      1.467285000000000E-01      1.260938000000000E+02
3280000000.000000      2.879486000000000E-01     -1.309922000000000E+02      2.047119000000000E-01      1.655078000000000E+02
3300000000.000000      3.201294000000000E-01     -1.473516000000000E+02      3.315277000000000E-01      1.695937000000000E+02
3320000000.000000      3.316803000000000E-01     -1.632109000000000E+02      4.643250000000000E-01      1.624375000000000E+02
3340000000.000000      3.280640000000000E-01     -1.786094000000000E+02      5.753479000000000E-01      1.503828000000000E+02
3360000000.000000      3.164368000000000E-01      1.665937000000000E+02      6.470337000000000E-01      1.382187000000000E+02
3380000000.000000      2.998810000000000E-01      1.524062000000000E+02      7.096558000000000E-01      1.268594000000000E+02
3400000000.000000      2.778320000000000E-01      1.376016000000000E+02      7.570801000000000E-01      1.130195000000000E+02
3420000000.000000      2.428589000000000E-01      1.226875000000000E+02      7.489624000000000E-01      9.823046000000000E+01
3440000000.000000      1.899109000000000E-01      1.079766000000000E+02      7.049255000000000E-01      8.548046000000000E+01
3460000000.000000      1.187019000000000E-01      9.738670000000000E+01      6.463013000000000E-01      7.248047000000000E+01
3480000000.000000      4.737854000000000E-02      1.223516000000000E+02      5.481567000000000E-01      5.896484000000000E+01
3500000000.000000      9.334564000000000E-02     -1.743125000000000E+02      4.220276000000000E-01      4.757226000000000E+01
3520000000.000000      1.850281000000000E-01      1.788594000000000E+02      2.770996000000000E-01      4.060547000000000E+01
3540000000.000000      2.637177000000000E-01      1.626250000000000E+02      1.469040000000000E-01      5.887109000000000E+01
3560000000.000000      3.233795000000000E-01      1.456094000000000E+02      1.684952000000000E-01      1.080078000000000E+02
3580000000.000000      3.600922000000000E-01      1.296953000000000E+02      2.960510000000000E-01      1.174531000000000E+02
3600000000.000000      3.759766000000000E-01      1.150859000000000E+02      4.210052000000000E-01      1.105000000000000E+02
3620000000.000000      3.774719000000000E-01      1.024258000000000E+02      5.229187000000000E-01      1.009258000000000E+02
3640000000.000000      3.681793000000000E-01      9.127733000000000E+01      6.244812000000000E-01      8.984375000000000E+01
3660000000.000000      3.521423000000000E-01      8.103516000000000E+01      6.918945000000000E-01      7.571875000000000E+01
3680000000.000000      3.290558000000000E-01      7.185156000000000E+01      7.095337000000000E-01      6.263281000000000E+01
3700000000.000000      2.987823000000000E-01      6.363671000000000E+01      7.206726000000000E-01      5.088867000000000E+01
3720000000.000000      2.546844000000000E-01      5.757226000000000E+01      7.235718000000000E-01      3.661328000000000E+01
3740000000.000000      2.043304000000000E-01      5.854882000000000E+01      6.634521000000000E-01      2.129199000000000E+01
3760000000.000000      1.780853000000000E-01      7.269921000000000E+01      5.641785000000000E-01      6.921387000000000E+00
3780000000.000000      2.128754000000000E-01      8.767187000000000E+01      4.336395000000000E-01     -6.364014000000000E+00
3800000000.000000      2.831726000000000E-01      8.905859000000000E+01      2.797852000000000E-01     -1.346533000000000E+01
3820000000.000000      3.505402000000000E-01      8.255859000000000E+01      1.524429000000000E-01      3.268433000000000E-01
3840000000.000000      4.008331000000000E-01      7.385156000000000E+01      1.445084000000000E-01      4.822460000000000E+01
3860000000.000000      4.355927000000000E-01      6.525391000000000E+01      2.478256000000000E-01      6.537109000000000E+01
3880000000.000000      4.614563000000000E-01      5.778125000000000E+01      3.773346000000000E-01      6.099804000000000E+01
3900000000.000000      4.895477000000000E-01      5.070313000000000E+01      4.783478000000000E-01      4.760742000000000E+01
3920000000.000000      5.209351000000000E-01      4.296288000000000E+01      5.086060000000000E-01      3.568945000000000E+01
3940000000.000000      5.493164000000000E-01      3.406250000000000E+01      5.390930000000000E-01      2.947558000000000E+01
3960000000.000000      5.610962000000000E-01      2.389062000000000E+01      5.950928000000000E-01      2.002441000000000E+01
3980000000.000000      5.541687000000000E-01      1.330957000000000E+01      5.979004000000000E-01      8.110352000000000E+00
4000000000.000000      5.275574000000000E-01      3.033569000000000E+00      5.793762000000000E-01      1.227722000000000E+00
4020000000.000000      4.838104000000000E-01     -6.907715000000000E+00      5.977783000000000E-01     -6.604248000000000E+00
4040000000.000000      4.240112000000000E-01     -1.577637000000000E+01      5.853577000000000E-01     -1.888867000000000E+01
4060000000.000000      3.483276000000000E-01     -2.174511000000000E+01      5.270996000000000E-01     -2.903906000000000E+01
4080000000.000000      2.736816000000000E-01     -2.163086000000000E+01      4.678192000000000E-01     -3.837305000000000E+01
4100000000.000000      2.284393000000000E-01     -1.100146000000000E+01      3.652496000000000E-01     -4.744336000000000E+01
4120000000.000000      2.424393000000000E-01      1.939087000000000E+00      2.485046000000000E-01     -4.383985000000000E+01
4140000000.000000      2.904968000000000E-01      5.170410000000000E+00      2.034912000000000E-01     -1.959277000000000E+01
4160000000.000000      3.341217000000000E-01      8.775330000000000E-01      2.650757000000000E-01     -2.334595000000000E-02
4180000000.000000      3.616638000000000E-01     -5.936768000000000E+00      3.588562000000000E-01      3.849243000000000E+00
4200000000.000000      3.714600000000000E-01     -1.376074000000000E+01      4.895477000000000E-01      1.186523000000000E+00
4220000000.000000      3.670654000000000E-01     -2.095117000000000E+01      6.428223000000000E-01     -1.126953000000000E+01
4240000000.000000      3.476715000000000E-01     -2.830078000000000E+01      7.223206000000000E-01     -2.788086000000000E+01
4260000000.000000      3.095398000000000E-01     -3.409375000000000E+01      7.434387000000000E-01     -4.192968000000000E+01
4280000000.000000      2.590637000000000E-01     -3.527539000000000E+01      7.515564000000000E-01     -5.600390000000000E+01
4300000000.000000      2.224503000000000E-01     -2.697070000000000E+01      7.136536000000000E-01     -7.085546000000000E+01
4320000000.000000      2.364349000000000E-01     -1.434277000000000E+01      6.296997000000000E-01     -8.520702000000000E+01
4340000000.000000      2.945709000000000E-01     -1.054150000000000E+01      5.153809000000000E-01     -9.809765000000000E+01
4360000000.000000      3.593903000000000E-01     -1.564893000000000E+01      3.797760000000000E-01     -1.068047000000000E+02
4380000000.000000      4.055634000000000E-01     -2.470508000000000E+01      2.480392000000000E-01     -1.079609000000000E+02
4400000000.000000      4.262848000000000E-01     -3.464453000000000E+01      1.531906000000000E-01     -8.445704000000000E+01
4420000000.000000      4.249725000000000E-01     -4.395117000000000E+01      1.892242000000000E-01     -4.530273000000000E+01
4440000000.000000      4.078217000000000E-01     -5.202343000000000E+01      3.120270000000000E-01     -3.616015000000000E+01
4460000000.000000      3.873901000000000E-01     -5.859961000000000E+01      4.541779000000000E-01     -4.338476000000000E+01
4480000000.000000      3.676910000000000E-01     -6.484375000000000E+01      5.634460000000000E-01     -5.562109000000000E+01
4500000000.000000      3.463135000000000E-01     -7.158203000000000E+01      6.438293000000000E-01     -6.706249000000000E+01
4520000000.000000      3.125000000000000E-01     -7.944140000000000E+01      7.166748000000000E-01     -7.997656000000000E+01
4540000000.000000      2.613373000000000E-01     -8.557032000000000E+01      7.405090000000000E-01     -9.457811000000000E+01
4560000000.000000      2.004318000000000E-01     -8.368359000000000E+01      7.296753000000000E-01     -1.079140000000000E+02
4580000000.000000      1.743317000000000E-01     -6.750390000000000E+01      6.900940000000000E-01     -1.217109000000000E+02
4600000000.000000      2.125778000000000E-01     -5.377539000000000E+01      6.044922000000000E-01     -1.348906000000000E+02
4620000000.000000      2.777863000000000E-01     -5.531640000000000E+01      4.969788000000000E-01     -1.452656000000000E+02
4640000000.000000      3.310089000000000E-01     -6.522655000000000E+01      3.775482000000000E-01     -1.533828000000000E+02
4660000000.000000      3.547821000000000E-01     -7.851563000000000E+01      2.447815000000000E-01     -1.514141000000000E+02
4680000000.000000      3.454895000000000E-01     -9.252344000000000E+01      1.793213000000000E-01     -1.229375000000000E+02
4700000000.000000      3.083344000000000E-01     -1.057187000000000E+02      2.496490000000000E-01     -9.648046000000000E+01
4720000000.000000      2.520447000000000E-01     -1.162500000000000E+02      3.689270000000000E-01     -9.549999000000000E+01
4740000000.000000      1.904602000000000E-01     -1.212969000000000E+02      4.747467000000000E-01     -1.018242000000000E+02
4760000000.000000      1.380844000000000E-01     -1.175312000000000E+02      5.811462000000000E-01     -1.105547000000000E+02
4780000000.000000      1.122475000000000E-01     -1.012891000000000E+02      6.685486000000000E-01     -1.230937000000000E+02
4800000000.000000      1.180992000000000E-01     -8.341797000000000E+01      7.182922000000000E-01     -1.357188000000000E+02
4820000000.000000      1.468277000000000E-01     -7.385156000000000E+01      7.359924000000000E-01     -1.490547000000000E+02
4840000000.000000      1.879196000000000E-01     -7.368359000000000E+01      7.182007000000000E-01     -1.619297000000000E+02
4860000000.000000      2.311096000000000E-01     -8.044531000000000E+01      6.829529000000000E-01     -1.744609000000000E+02
4880000000.000000      2.690887000000000E-01     -9.079687000000000E+01      6.145935000000000E-01      1.716875000000000E+02
4900000000.000000      2.938385000000000E-01     -1.043594000000000E+02      4.940643000000000E-01      1.597344000000000E+02
4920000000.000000      2.999878000000000E-01     -1.194765000000000E+02      3.629608000000000E-01      1.537266000000000E+02
4940000000.000000      2.846832000000000E-01     -1.351641000000000E+02      2.500458000000000E-01      1.561953000000000E+02
4960000000.000000      2.533722000000000E-01     -1.503281000000000E+02      1.763916000000000E-01      1.779453000000000E+02
4980000000.000000      2.112808000000000E-01     -1.643906000000000E+02      2.160645000000000E-01     -1.508828000000000E+02
5000000000.000000      1.671982000000000E-01     -1.762656000000000E+02      3.323212000000000E-01     -1.435937000000000E+02
5020000000.000000      1.298294000000000E-01      1.738125000000000E+02      4.621887000000000E-01     -1.498516000000000E+02
5040000000.000000      9.931564000000000E-02      1.635156000000000E+02      5.704041000000000E-01     -1.606562000000000E+02
5060000000.000000      7.163239000000000E-02      1.479844000000000E+02      6.517639000000000E-01     -1.721172000000000E+02
5080000000.000000      4.104805000000000E-02      1.220976000000000E+02      7.181091000000000E-01      1.757656000000000E+02
5100000000.000000      1.689243000000000E-02      3.834765000000000E+01      7.559509000000000E-01      1.619844000000000E+02
5120000000.000000      4.187965000000000E-02     -5.177148000000000E+01      7.514648000000000E-01      1.476250000000000E+02
5140000000.000000      7.297897000000000E-02     -8.819921000000000E+01      7.010193000000000E-01      1.342031000000000E+02
5160000000.000000      9.668732000000000E-02     -1.192070000000000E+02      6.281433000000000E-01      1.217656000000000E+02
5180000000.000000      1.097679000000000E-01     -1.499063000000000E+02      5.309448000000000E-01      1.106250000000000E+02
5200000000.000000      1.125832000000000E-01      1.774531000000000E+02      4.138031000000000E-01      1.009922000000000E+02
5220000000.000000      1.097374000000000E-01      1.414687000000000E+02      2.808990000000000E-01      9.848436000000000E+01
5240000000.000000      1.086922000000000E-01      1.051836000000000E+02      1.831360000000000E-01      1.159414000000000E+02
5260000000.000000      1.134071000000000E-01      7.200390000000000E+01      1.979752000000000E-01      1.498437000000000E+02
5280000000.000000      1.205368000000000E-01      4.548437000000000E+01      2.985840000000000E-01      1.605937000000000E+02
5300000000.000000      1.275482000000000E-01      2.492090000000000E+01      4.125824000000000E-01      1.579453000000000E+02
5320000000.000000      1.337891000000000E-01      8.264160000000000E+00      5.302734000000000E-01      1.502656000000000E+02
5340000000.000000      1.389847000000000E-01     -5.954590000000000E+00      6.402283000000000E-01      1.383125000000000E+02
5360000000.000000      1.433029000000000E-01     -2.153809000000000E+01      7.055969000000000E-01      1.238867000000000E+02
5380000000.000000      1.382065000000000E-01     -3.926953000000000E+01      7.171021000000000E-01      1.105976000000000E+02
5400000000.000000      1.196938000000000E-01     -5.724023000000000E+01      7.178955000000000E-01      9.880859000000000E+01
5420000000.000000      8.408356000000000E-02     -7.440234000000000E+01      7.047424000000000E-01      8.567186000000000E+01
5440000000.000000      2.948380000000000E-02     -7.792578000000000E+01      6.461792000000000E-01      7.127734000000000E+01
5460000000.000000      4.430962000000000E-02      3.884766000000000E+01      5.372314000000000E-01      5.837304000000000E+01
5480000000.000000      1.138306000000000E-01      3.056641000000000E+01      4.106598000000000E-01      4.914257000000000E+01
5500000000.000000      1.761322000000000E-01      1.539160000000000E+01      2.909088000000000E-01      4.745313000000000E+01
5520000000.000000      2.213593000000000E-01      4.504395000000000E-01      1.944656000000000E-01      5.964844000000000E+01
5540000000.000000      2.518921000000000E-01     -1.333496000000000E+01      1.824036000000000E-01      9.137890000000000E+01
5560000000.000000      2.705688000000000E-01     -2.513281000000000E+01      2.652588000000000E-01      1.087734000000000E+02
5580000000.000000      2.831879000000000E-01     -3.515820000000000E+01      3.869171000000000E-01      1.084492000000000E+02
5600000000.000000      2.938995000000000E-01     -4.395117000000000E+01      5.083923000000000E-01      9.942968000000000E+01
5620000000.000000      3.044281000000000E-01     -5.316211000000000E+01      5.974121000000000E-01      8.680468000000000E+01
5640000000.000000      3.078003000000000E-01     -6.295116000000000E+01      6.475525000000000E-01      7.489062000000000E+01
5660000000.000000      2.971649000000000E-01     -7.350390000000000E+01      6.865540000000000E-01      6.358593000000000E+01
5680000000.000000      2.677917000000000E-01     -8.378124000000000E+01      6.989136000000000E-01      5.094531000000000E+01
5700000000.000000      2.197189000000000E-01     -9.107422000000000E+01      6.842041000000000E-01      3.848633000000000E+01
5720000000.000000      1.694717000000000E-01     -8.959375000000000E+01      6.437073000000000E-01      2.570801000000000E+01
5740000000.000000      1.496277000000000E-01     -7.483203000000000E+01      5.640564000000000E-01      1.261768000000000E+01
5760000000.000000      1.793594000000000E-01     -6.358593000000000E+01      4.475555000000000E-01      1.154907000000000E+00
5780000000.000000      2.256165000000000E-01     -6.532421000000000E+01      3.142700000000000E-01     -3.775269000000000E+00
5800000000.000000      2.575378000000000E-01     -7.324219000000000E+01      2.069092000000000E-01      7.569580000000000E+00
5820000000.000000      2.671204000000000E-01     -8.265625000000000E+01      1.904068000000000E-01      3.808398000000000E+01
5840000000.000000      2.562561000000000E-01     -9.108593000000000E+01      2.733154000000000E-01      5.421093000000000E+01
5860000000.000000      2.386932000000000E-01     -9.658592000000000E+01      3.745575000000000E-01      5.390820000000000E+01
5880000000.000000      2.236862000000000E-01     -9.980469000000000E+01      4.809570000000000E-01      4.853320000000000E+01
5900000000.000000      2.157593000000000E-01     -1.022344000000000E+02      5.960693000000000E-01      3.821680000000000E+01
5920000000.000000      2.083588000000000E-01     -1.050742000000000E+02      6.733704000000000E-01      2.439355000000000E+01
5940000000.000000      1.941681000000000E-01     -1.071094000000000E+02      7.031555000000000E-01      1.104639000000000E+01
5960000000.000000      1.768417000000000E-01     -1.051484000000000E+02      7.146301000000000E-01     -1.812744000000000E+00
5980000000.000000      1.654282000000000E-01     -9.730078000000000E+01      6.901245000000000E-01     -1.567773000000000E+01
6000000000.000000      1.822891000000000E-01     -8.802734000000000E+01      6.266174000000000E-01     -2.934668000000000E+01
6020000000.000000      2.166901000000000E-01     -8.632813000000000E+01      5.274963000000000E-01     -4.181836000000000E+01
6040000000.000000      2.519836000000000E-01     -9.187500000000000E+01      3.966064000000000E-01     -4.977539000000000E+01
6060000000.000000      2.758636000000000E-01     -1.009258000000000E+02      2.835999000000000E-01     -4.947851000000000E+01
6080000000.000000      2.848206000000000E-01     -1.110976000000000E+02      2.049484000000000E-01     -3.536133000000000E+01
