! Network Analyzer HP8722D
! Hewlett-Packard
! Data name: Linha & Wilkinson+CNT
! Saver's name: Rodrigo Anjos
! Comments: Teste da utilização de aquisição
continua pelo VNA HP8722D
! Time and date: 29/9/2025 11:53
!              Frequency                     S11                                                   S21                                                   S12                                                   S22
# HZ  S  MA R 50
3000000000.000000      4.233551000000000E-01     -5.676758000000000E+01      2.095184000000000E-01     -1.314766000000000E+02
3020000000.000000      4.467468000000000E-01     -7.062500000000000E+01      3.516693000000000E-01     -1.350859000000000E+02
3040000000.000000      4.528351000000000E-01     -8.348827000000000E+01      4.697876000000000E-01     -1.449687000000000E+02
3060000000.000000      4.459686000000000E-01     -9.551952000000000E+01      5.746460000000000E-01     -1.553516000000000E+02
3080000000.000000      4.308929000000000E-01     -1.067461000000000E+02      6.735840000000000E-01     -1.684375000000000E+02
3100000000.000000      4.108582000000000E-01     -1.177969000000000E+02      7.232056000000000E-01      1.767031000000000E+02
3120000000.000000      3.815155000000000E-01     -1.297188000000000E+02      7.311401000000000E-01      1.633984000000000E+02
3140000000.000000      3.405914000000000E-01     -1.426250000000000E+02      7.227478000000000E-01      1.505312000000000E+02
3160000000.000000      2.808228000000000E-01     -1.562500000000000E+02      6.836548000000000E-01      1.369375000000000E+02
3180000000.000000      2.011871000000000E-01     -1.684375000000000E+02      6.121216000000000E-01      1.243672000000000E+02
3200000000.000000      1.136246000000000E-01     -1.680391000000000E+02      5.180359000000000E-01      1.114375000000000E+02
3220000000.000000      8.461761000000000E-02     -1.238867000000000E+02      3.844757000000000E-01      1.008945000000000E+02
3240000000.000000      1.557693000000000E-01     -1.057227000000000E+02      2.452774000000000E-01      9.985546000000000E+01
3260000000.000000      2.354584000000000E-01     -1.158281000000000E+02      1.472473000000000E-01      1.263203000000000E+02
3280000000.000000      2.922974000000000E-01     -1.313047000000000E+02      2.056808000000000E-01      1.652422000000000E+02
3300000000.000000      3.252258000000000E-01     -1.474062000000000E+02      3.321686000000000E-01      1.694687000000000E+02
3320000000.000000      3.366699000000000E-01     -1.630703000000000E+02      4.642639000000000E-01      1.623750000000000E+02
3340000000.000000      3.324738000000000E-01     -1.782187000000000E+02      5.760498000000000E-01      1.502187000000000E+02
3360000000.000000      3.201599000000000E-01      1.672578000000000E+02      6.474915000000000E-01      1.381797000000000E+02
3380000000.000000      3.027496000000000E-01      1.530625000000000E+02      7.095337000000000E-01      1.269805000000000E+02
3400000000.000000      2.786865000000000E-01      1.385625000000000E+02      7.566833000000000E-01      1.130039000000000E+02
3420000000.000000      2.425385000000000E-01      1.237656000000000E+02      7.475891000000000E-01      9.824219000000000E+01
3440000000.000000      1.890030000000000E-01      1.092344000000000E+02      7.035828000000000E-01      8.530859000000000E+01
3460000000.000000      1.176758000000000E-01      9.940233000000000E+01      6.440735000000000E-01      7.232422000000000E+01
3480000000.000000      4.872513000000000E-02      1.274687000000000E+02      5.462646000000000E-01      5.896484000000000E+01
3500000000.000000      9.773254000000000E-02     -1.738828000000000E+02      4.222565000000000E-01      4.768555000000000E+01
3520000000.000000      1.886444000000000E-01      1.792344000000000E+02      2.769318000000000E-01      4.073632000000000E+01
3540000000.000000      2.666931000000000E-01      1.630234000000000E+02      1.470490000000000E-01      5.917773000000000E+01
3560000000.000000      3.247528000000000E-01      1.461172000000000E+02      1.689911000000000E-01      1.079805000000000E+02
3580000000.000000      3.604736000000000E-01      1.301094000000000E+02      2.963715000000000E-01      1.174062000000000E+02
3600000000.000000      3.757935000000000E-01      1.154688000000000E+02      4.207764000000000E-01      1.105547000000000E+02
3620000000.000000      3.778229000000000E-01      1.027656000000000E+02      5.214844000000000E-01      1.009101000000000E+02
3640000000.000000      3.667603000000000E-01      9.148438000000000E+01      6.220703000000000E-01      8.981640000000000E+01
3660000000.000000      3.499603000000000E-01      8.123827000000000E+01      6.938171000000000E-01      7.552734000000000E+01
3680000000.000000      3.270569000000000E-01      7.201562000000000E+01      7.109680000000000E-01      6.242969000000000E+01
3700000000.000000      2.955933000000000E-01      6.365234000000000E+01      7.210999000000000E-01      5.073047000000000E+01
3720000000.000000      2.508392000000000E-01      5.762695000000000E+01      7.221375000000000E-01      3.653906000000000E+01
3740000000.000000      2.003937000000000E-01      5.867382000000000E+01      6.606750000000000E-01      2.117969000000000E+01
3760000000.000000      1.755981000000000E-01      7.306641000000000E+01      5.630188000000000E-01      7.145020000000000E+00
3780000000.000000      2.111816000000000E-01      8.794140000000000E+01      4.329224000000000E-01     -6.041260000000000E+00
3800000000.000000      2.821503000000000E-01      8.922266000000000E+01      2.790070000000000E-01     -1.340088000000000E+01
3820000000.000000      3.491821000000000E-01      8.257030000000000E+01      1.525650000000000E-01      8.280945000000000E-01
3840000000.000000      3.992615000000000E-01      7.380468000000000E+01      1.454468000000000E-01      4.843163000000000E+01
3860000000.000000      4.338379000000000E-01      6.521874000000000E+01      2.489471000000000E-01      6.525391000000000E+01
3880000000.000000      4.588165000000000E-01      5.758984000000000E+01      3.783264000000000E-01      6.089648000000000E+01
3900000000.000000      4.874115000000000E-01      5.048242000000000E+01      4.777679000000000E-01      4.734961000000000E+01
3920000000.000000      5.192566000000000E-01      4.283789000000000E+01      5.091248000000000E-01      3.569336000000000E+01
3940000000.000000      5.488586000000000E-01      3.361328000000000E+01      5.390015000000000E-01      2.936035000000000E+01
3960000000.000000      5.581360000000000E-01      2.351074000000000E+01      5.951538000000000E-01      2.000683000000000E+01
3980000000.000000      5.522766000000000E-01      1.302832000000000E+01      5.977783000000000E-01      8.096680000000000E+00
4000000000.000000      5.244141000000000E-01      2.500732000000000E+00      5.808105000000000E-01      9.970093000000000E-01
4020000000.000000      4.807892000000000E-01     -7.422852000000000E+00      5.979004000000000E-01     -6.840576000000000E+00
4040000000.000000      4.217224000000000E-01     -1.624121000000000E+01      5.837402000000000E-01     -1.915527000000000E+01
4060000000.000000      3.461304000000000E-01     -2.231250000000000E+01      5.263977000000000E-01     -2.916113000000000E+01
4080000000.000000      2.713623000000000E-01     -2.222851000000000E+01      4.671478000000000E-01     -3.837305000000000E+01
4100000000.000000      2.264252000000000E-01     -1.136572000000000E+01      3.653564000000000E-01     -4.752149000000000E+01
4120000000.000000      2.414551000000000E-01      1.643799000000000E+00      2.478180000000000E-01     -4.369531000000000E+01
4140000000.000000      2.893829000000000E-01      4.645752000000000E+00      2.039795000000000E-01     -1.930469000000000E+01
4160000000.000000      3.339081000000000E-01      4.792786000000000E-01      2.662201000000000E-01     -3.021240000000000E-02
4180000000.000000      3.611603000000000E-01     -6.298096000000000E+00      3.601227000000000E-01      3.589722000000000E+00
4200000000.000000      3.704834000000000E-01     -1.416016000000000E+01      4.887848000000000E-01      1.005249000000000E+00
4220000000.000000      3.659973000000000E-01     -2.139453000000000E+01      6.428528000000000E-01     -1.139160000000000E+01
4240000000.000000      3.466492000000000E-01     -2.892383000000000E+01      7.217407000000000E-01     -2.799316000000000E+01
4260000000.000000      3.073425000000000E-01     -3.463086000000000E+01      7.422485000000000E-01     -4.216016000000000E+01
4280000000.000000      2.586365000000000E-01     -3.565625000000000E+01      7.501831000000000E-01     -5.587304000000000E+01
4300000000.000000      2.228928000000000E-01     -2.732324000000000E+01      7.118530000000000E-01     -7.097656000000000E+01
4320000000.000000      2.378769000000000E-01     -1.475098000000000E+01      6.293335000000000E-01     -8.539063000000000E+01
4340000000.000000      2.966156000000000E-01     -1.110449000000000E+01      5.126343000000000E-01     -9.803905000000000E+01
4360000000.000000      3.610077000000000E-01     -1.617480000000000E+01      3.780518000000000E-01     -1.069687000000000E+02
4380000000.000000      4.059753000000000E-01     -2.518261000000000E+01      2.472839000000000E-01     -1.075977000000000E+02
4400000000.000000      4.263763000000000E-01     -3.515234000000000E+01      1.534271000000000E-01     -8.404688000000000E+01
4420000000.000000      4.248199000000000E-01     -4.441211000000000E+01      1.903534000000000E-01     -4.514648000000000E+01
4440000000.000000      4.087067000000000E-01     -5.253320000000000E+01      3.131866000000000E-01     -3.632226000000000E+01
4460000000.000000      3.887177000000000E-01     -5.915234000000000E+01      4.539185000000000E-01     -4.340039000000000E+01
4480000000.000000      3.676910000000000E-01     -6.536327000000000E+01      5.627441000000000E-01     -5.551171000000000E+01
4500000000.000000      3.475800000000000E-01     -7.206249000000000E+01      6.441650000000000E-01     -6.700000000000000E+01
4520000000.000000      3.132629000000000E-01     -7.969140000000000E+01      7.170105000000000E-01     -7.996875000000000E+01
4540000000.000000      2.610474000000000E-01     -8.567186000000000E+01      7.413635000000000E-01     -9.463282000000000E+01
4560000000.000000      2.000580000000000E-01     -8.353516000000000E+01      7.279053000000000E-01     -1.079531000000000E+02
4580000000.000000      1.753235000000000E-01     -6.730859000000000E+01      6.886902000000000E-01     -1.216836000000000E+02
4600000000.000000      2.139893000000000E-01     -5.389648000000000E+01      6.033936000000000E-01     -1.348984000000000E+02
4620000000.000000      2.789307000000000E-01     -5.548437000000000E+01      4.943848000000000E-01     -1.451094000000000E+02
4640000000.000000      3.317108000000000E-01     -6.538671000000000E+01      3.773651000000000E-01     -1.529297000000000E+02
4660000000.000000      3.542786000000000E-01     -7.846874000000000E+01      2.446594000000000E-01     -1.507500000000000E+02
4680000000.000000      3.446503000000000E-01     -9.223047000000000E+01      1.818314000000000E-01     -1.223984000000000E+02
4700000000.000000      3.065186000000000E-01     -1.049492000000000E+02      2.531128000000000E-01     -9.666405000000000E+01
4720000000.000000      2.505646000000000E-01     -1.151094000000000E+02      3.710022000000000E-01     -9.603905000000000E+01
4740000000.000000      1.884766000000000E-01     -1.194727000000000E+02      4.762878000000000E-01     -1.021953000000000E+02
4760000000.000000      1.392365000000000E-01     -1.145000000000000E+02      5.822449000000000E-01     -1.109570000000000E+02
4780000000.000000      1.169014000000000E-01     -9.827343000000000E+01      6.681519000000000E-01     -1.234492000000000E+02
4800000000.000000      1.263275000000000E-01     -8.182032000000000E+01      7.165833000000000E-01     -1.360625000000000E+02
4820000000.000000      1.557999000000000E-01     -7.395312000000000E+01      7.338867000000000E-01     -1.491875000000000E+02
4840000000.000000      1.968460000000000E-01     -7.413280000000000E+01      7.154541000000000E-01     -1.620703000000000E+02
4860000000.000000      2.390671000000000E-01     -8.083202000000000E+01      6.819153000000000E-01     -1.746094000000000E+02
4880000000.000000      2.756653000000000E-01     -9.109375000000000E+01      6.130981000000000E-01      1.716640000000000E+02
4900000000.000000      2.996826000000000E-01     -1.043594000000000E+02      4.938507000000000E-01      1.595000000000000E+02
4920000000.000000      3.036194000000000E-01     -1.193125000000000E+02      3.638000000000000E-01      1.532812000000000E+02
4940000000.000000      2.875824000000000E-01     -1.346484000000000E+02      2.500305000000000E-01      1.560781000000000E+02
4960000000.000000      2.561035000000000E-01     -1.496328000000000E+02      1.768570000000000E-01      1.779844000000000E+02
4980000000.000000      2.129288000000000E-01     -1.633594000000000E+02      2.161942000000000E-01     -1.510156000000000E+02
5000000000.000000      1.679916000000000E-01     -1.745234000000000E+02      3.321533000000000E-01     -1.438516000000000E+02
5020000000.000000      1.295319000000000E-01      1.762109000000000E+02      4.621124000000000E-01     -1.499141000000000E+02
5040000000.000000      9.879684000000000E-02      1.666094000000000E+02      5.702820000000000E-01     -1.607812000000000E+02
5060000000.000000      7.073212000000000E-02      1.527500000000000E+02      6.502991000000000E-01     -1.721094000000000E+02
5080000000.000000      3.882217000000000E-02      1.275781000000000E+02      7.171631000000000E-01      1.756328000000000E+02
5100000000.000000      1.260328000000000E-02      3.615820000000000E+01      7.551880000000000E-01      1.619766000000000E+02
5120000000.000000      4.165649000000000E-02     -5.581445000000000E+01      7.517700000000000E-01      1.477187000000000E+02
5140000000.000000      7.459259000000000E-02     -8.989452000000000E+01      7.011719000000000E-01      1.341797000000000E+02
5160000000.000000      9.809875000000000E-02     -1.193711000000000E+02      6.265564000000000E-01      1.218047000000000E+02
5180000000.000000      1.103973000000000E-01     -1.492344000000000E+02      5.295105000000000E-01      1.105976000000000E+02
5200000000.000000      1.119957000000000E-01      1.783594000000000E+02      4.116211000000000E-01      1.012305000000000E+02
5220000000.000000      1.078224000000000E-01      1.421484000000000E+02      2.807465000000000E-01      9.852343000000000E+01
5240000000.000000      1.058960000000000E-01      1.053750000000000E+02      1.829453000000000E-01      1.162344000000000E+02
5260000000.000000      1.106033000000000E-01      7.150000000000000E+01      1.982880000000000E-01      1.500781000000000E+02
5280000000.000000      1.182747000000000E-01      4.462695000000000E+01      2.990875000000000E-01      1.605703000000000E+02
5300000000.000000      1.257477000000000E-01      2.381250000000000E+01      4.121399000000000E-01      1.579453000000000E+02
5320000000.000000      1.320496000000000E-01      7.158936000000000E+00      5.292053000000000E-01      1.502031000000000E+02
5340000000.000000      1.381073000000000E-01     -6.957275000000000E+00      6.398315000000000E-01      1.380938000000000E+02
5360000000.000000      1.431503000000000E-01     -2.245117000000000E+01      7.050171000000000E-01      1.237422000000000E+02
5380000000.000000      1.391983000000000E-01     -3.952343000000000E+01      7.149658000000000E-01      1.104453000000000E+02
5400000000.000000      1.211014000000000E-01     -5.747656000000000E+01      7.168579000000000E-01      9.873436000000000E+01
5420000000.000000      8.544159000000000E-02     -7.377343000000000E+01      7.031860000000000E-01      8.578905000000000E+01
5440000000.000000      3.205872000000000E-02     -7.708984000000000E+01      6.442566000000000E-01      7.137500000000000E+01
5460000000.000000      4.292107000000000E-02      3.557031000000000E+01      5.351868000000000E-01      5.837109000000000E+01
5480000000.000000      1.119652000000000E-01      2.919140000000000E+01      4.069824000000000E-01      4.913086000000000E+01
5500000000.000000      1.747284000000000E-01      1.433301000000000E+01      2.896118000000000E-01      4.756249000000000E+01
5520000000.000000      2.212601000000000E-01     -5.932617000000000E-01      1.937790000000000E-01      5.997656000000000E+01
5540000000.000000      2.523804000000000E-01     -1.420410000000000E+01      1.828461000000000E-01      9.170313000000000E+01
5560000000.000000      2.713470000000000E-01     -2.584277000000000E+01      2.656250000000000E-01      1.088867000000000E+02
5580000000.000000      2.839203000000000E-01     -3.560742000000000E+01      3.872681000000000E-01      1.083516000000000E+02
5600000000.000000      2.953949000000000E-01     -4.430469000000000E+01      5.073547000000000E-01      9.932812000000000E+01
5620000000.000000      3.058319000000000E-01     -5.326562000000000E+01      5.968628000000000E-01      8.680859000000000E+01
5640000000.000000      3.097534000000000E-01     -6.312500000000000E+01      6.451416000000000E-01      7.489062000000000E+01
5660000000.000000      2.999878000000000E-01     -7.372656000000000E+01      6.846008000000000E-01      6.354101000000000E+01
5680000000.000000      2.709961000000000E-01     -8.416407000000000E+01      6.966858000000000E-01      5.088867000000000E+01
5700000000.000000      2.243042000000000E-01     -9.129686000000000E+01      6.802368000000000E-01      3.857031000000000E+01
5720000000.000000      1.743393000000000E-01     -8.983202000000000E+01      6.388550000000000E-01      2.575879000000000E+01
5740000000.000000      1.535187000000000E-01     -7.560937000000000E+01      5.618591000000000E-01      1.264209000000000E+01
5760000000.000000      1.820297000000000E-01     -6.427734000000000E+01      4.474487000000000E-01      1.230469000000000E+00
5780000000.000000      2.277832000000000E-01     -6.575000000000000E+01      3.128815000000000E-01     -3.603516000000000E+00
5800000000.000000      2.593689000000000E-01     -7.346484000000000E+01      2.060852000000000E-01      7.793213000000000E+00
5820000000.000000      2.684937000000000E-01     -8.285936000000000E+01      1.905746000000000E-01      3.844531000000000E+01
5840000000.000000      2.578278000000000E-01     -9.106249000000000E+01      2.739258000000000E-01      5.431641000000000E+01
5860000000.000000      2.411499000000000E-01     -9.658592000000000E+01      3.743286000000000E-01      5.394921000000000E+01
5880000000.000000      2.269592000000000E-01     -9.966797000000000E+01      4.798126000000000E-01      4.849609000000000E+01
5900000000.000000      2.210388000000000E-01     -1.020156000000000E+02      5.940247000000000E-01      3.828516000000000E+01
5920000000.000000      2.125778000000000E-01     -1.049570000000000E+02      6.716919000000000E-01      2.423925000000000E+01
5940000000.000000      1.984940000000000E-01     -1.068789000000000E+02      7.005615000000000E-01      1.110303000000000E+01
5960000000.000000      1.800995000000000E-01     -1.052383000000000E+02      7.113342000000000E-01     -1.421387000000000E+00
5980000000.000000      1.678925000000000E-01     -9.750780000000000E+01      6.880798000000000E-01     -1.551416000000000E+01
6000000000.000000      1.841965000000000E-01     -8.828905000000000E+01      6.239624000000000E-01     -2.916406000000000E+01
6020000000.000000      2.189789000000000E-01     -8.680468000000000E+01      5.241699000000000E-01     -4.174805000000000E+01
6040000000.000000      2.548218000000000E-01     -9.205078000000000E+01      3.949280000000000E-01     -4.971484000000000E+01
6060000000.000000      2.781677000000000E-01     -1.011797000000000E+02      2.825775000000000E-01     -4.919726000000000E+01
6080000000.000000      2.887115000000000E-01     -1.110430000000000E+02      2.049026000000000E-01     -3.475195000000000E+01
