! Network Analyzer HP8722D
! Hewlett-Packard
! Data name: Linha & Wilkinson+CNT
! Saver's name: Rodrigo Anjos
! Comments: Teste da utilização de aquisição
continua pelo VNA HP8722D
! Time and date: 29/9/2025 12:13
!              Frequency                     S11                                                   S21                                                   S12                                                   S22
# HZ  S  MA R 50
3000000000.000000      4.232330000000000E-01     -5.629883000000000E+01      2.080688000000000E-01     -1.313828000000000E+02
3020000000.000000      4.490967000000000E-01     -7.023438000000000E+01      3.504791000000000E-01     -1.349141000000000E+02
3040000000.000000      4.537811000000000E-01     -8.337891000000000E+01      4.679565000000000E-01     -1.448828000000000E+02
3060000000.000000      4.462585000000000E-01     -9.525391000000000E+01      5.734253000000000E-01     -1.551484000000000E+02
3080000000.000000      4.309387000000000E-01     -1.064570000000000E+02      6.724243000000000E-01     -1.683437000000000E+02
3100000000.000000      4.111328000000000E-01     -1.176523000000000E+02      7.243958000000000E-01      1.769531000000000E+02
3120000000.000000      3.824768000000000E-01     -1.295781000000000E+02      7.307129000000000E-01      1.634609000000000E+02
3140000000.000000      3.415833000000000E-01     -1.425000000000000E+02      7.234802000000000E-01      1.506094000000000E+02
3160000000.000000      2.815704000000000E-01     -1.562187000000000E+02      6.836853000000000E-01      1.371641000000000E+02
3180000000.000000      2.025757000000000E-01     -1.684687000000000E+02      6.143494000000000E-01      1.245430000000000E+02
3200000000.000000      1.145325000000000E-01     -1.688750000000000E+02      5.190125000000000E-01      1.118828000000000E+02
3220000000.000000      8.302307000000000E-02     -1.246016000000000E+02      3.854218000000000E-01      1.009101000000000E+02
3240000000.000000      1.536789000000000E-01     -1.056094000000000E+02      2.462845000000000E-01      9.976952000000000E+01
3260000000.000000      2.331772000000000E-01     -1.155703000000000E+02      1.471558000000000E-01      1.259844000000000E+02
3280000000.000000      2.903595000000000E-01     -1.309687000000000E+02      2.041321000000000E-01      1.654375000000000E+02
3300000000.000000      3.243866000000000E-01     -1.471562000000000E+02      3.311310000000000E-01      1.696719000000000E+02
3320000000.000000      3.354645000000000E-01     -1.629531000000000E+02      4.635925000000000E-01      1.626719000000000E+02
3340000000.000000      3.318634000000000E-01     -1.781016000000000E+02      5.757446000000000E-01      1.506719000000000E+02
3360000000.000000      3.195190000000000E-01      1.672500000000000E+02      6.465454000000000E-01      1.384140000000000E+02
3380000000.000000      3.020630000000000E-01      1.531484000000000E+02      7.094116000000000E-01      1.270547000000000E+02
3400000000.000000      2.791443000000000E-01      1.384922000000000E+02      7.575073000000000E-01      1.132930000000000E+02
3420000000.000000      2.429733000000000E-01      1.235625000000000E+02      7.497253000000000E-01      9.843750000000000E+01
3440000000.000000      1.888504000000000E-01      1.088984000000000E+02      7.059937000000000E-01      8.548046000000000E+01
3460000000.000000      1.180687000000000E-01      9.875000000000000E+01      6.468506000000000E-01      7.245703000000000E+01
3480000000.000000      4.754066000000000E-02      1.252656000000000E+02      5.491638000000000E-01      5.895508000000000E+01
3500000000.000000      9.536362000000000E-02     -1.732969000000000E+02      4.234314000000000E-01      4.775195000000000E+01
3520000000.000000      1.869659000000000E-01      1.796016000000000E+02      2.780609000000000E-01      4.070117000000000E+01
3540000000.000000      2.656860000000000E-01      1.634922000000000E+02      1.473007000000000E-01      5.874609000000000E+01
3560000000.000000      3.239746000000000E-01      1.464297000000000E+02      1.680145000000000E-01      1.079688000000000E+02
3580000000.000000      3.600159000000000E-01      1.303359000000000E+02      2.955475000000000E-01      1.175586000000000E+02
3600000000.000000      3.759308000000000E-01      1.156211000000000E+02      4.202423000000000E-01      1.106328000000000E+02
3620000000.000000      3.767090000000000E-01      1.029023000000000E+02      5.227051000000000E-01      1.012695000000000E+02
3640000000.000000      3.672485000000000E-01      9.156250000000000E+01      6.231384000000000E-01      9.003124000000000E+01
3660000000.000000      3.511200000000000E-01      8.136719000000000E+01      6.943970000000000E-01      7.587500000000000E+01
3680000000.000000      3.277740000000000E-01      7.208593000000000E+01      7.127380000000000E-01      6.275391000000000E+01
3700000000.000000      2.965851000000000E-01      6.375977000000000E+01      7.209473000000000E-01      5.118359000000000E+01
3720000000.000000      2.521210000000000E-01      5.763281000000000E+01      7.247009000000000E-01      3.673242000000000E+01
3740000000.000000      2.018509000000000E-01      5.849414000000000E+01      6.640930000000000E-01      2.141016000000000E+01
3760000000.000000      1.756973000000000E-01      7.275781000000000E+01      5.657654000000000E-01      7.075195000000000E+00
3780000000.000000      2.104797000000000E-01      8.777344000000000E+01      4.336395000000000E-01     -5.978027000000000E+00
3800000000.000000      2.808380000000000E-01      8.928905000000000E+01      2.817688000000000E-01     -1.317822000000000E+01
3820000000.000000      3.485260000000000E-01      8.277344000000000E+01      1.538391000000000E-01     -5.493164000000000E-03
3840000000.000000      3.989258000000000E-01      7.392968000000000E+01      1.439438000000000E-01      4.792969000000000E+01
3860000000.000000      4.340210000000000E-01      6.530859000000000E+01      2.468948000000000E-01      6.531640000000000E+01
3880000000.000000      4.585266000000000E-01      5.767578000000000E+01      3.766327000000000E-01      6.117773000000000E+01
3900000000.000000      4.875641000000000E-01      5.065234000000000E+01      4.787598000000000E-01      4.785742000000000E+01
3920000000.000000      5.179138000000000E-01      4.284180000000000E+01      5.099487000000000E-01      3.591211000000000E+01
3940000000.000000      5.467224000000000E-01      3.374414000000000E+01      5.399475000000000E-01      2.948535000000000E+01
3960000000.000000      5.579834000000000E-01      2.375488000000000E+01      5.956726000000000E-01      2.012402000000000E+01
3980000000.000000      5.534363000000000E-01      1.305176000000000E+01      5.982361000000000E-01      8.229980000000000E+00
4000000000.000000      5.259399000000000E-01      2.600952000000000E+00      5.802917000000000E-01      1.314209000000000E+00
4020000000.000000      4.830017000000000E-01     -7.225098000000000E+00      5.976868000000000E-01     -6.687988000000000E+00
4040000000.000000      4.234924000000000E-01     -1.614258000000000E+01      5.853577000000000E-01     -1.875000000000000E+01
4060000000.000000      3.480530000000000E-01     -2.219433000000000E+01      5.272827000000000E-01     -2.893750000000000E+01
4080000000.000000      2.735901000000000E-01     -2.241113000000000E+01      4.683838000000000E-01     -3.823047000000000E+01
4100000000.000000      2.276611000000000E-01     -1.172656000000000E+01      3.656769000000000E-01     -4.755468000000000E+01
4120000000.000000      2.410965000000000E-01      1.268921000000000E+00      2.488480000000000E-01     -4.400195000000000E+01
4140000000.000000      2.897186000000000E-01      4.652588000000000E+00      2.036362000000000E-01     -1.970410000000000E+01
4160000000.000000      3.336639000000000E-01      4.229736000000000E-01      2.644653000000000E-01      2.059937000000000E-02
4180000000.000000      3.610229000000000E-01     -6.322754000000000E+00      3.586731000000000E-01      3.828735000000000E+00
4200000000.000000      3.712769000000000E-01     -1.409863000000000E+01      4.878540000000000E-01      1.275757000000000E+00
4220000000.000000      3.670197000000000E-01     -2.141016000000000E+01      6.416321000000000E-01     -1.106348000000000E+01
4240000000.000000      3.477783000000000E-01     -2.886035000000000E+01      7.209778000000000E-01     -2.771191000000000E+01
4260000000.000000      3.094788000000000E-01     -3.457812000000000E+01      7.434082000000000E-01     -4.170703000000000E+01
4280000000.000000      2.594299000000000E-01     -3.588281000000000E+01      7.514954000000000E-01     -5.560741000000000E+01
4300000000.000000      2.226639000000000E-01     -2.774609000000000E+01      7.134399000000000E-01     -7.077343000000000E+01
4320000000.000000      2.364273000000000E-01     -1.493457000000000E+01      6.309204000000000E-01     -8.517578000000000E+01
4340000000.000000      2.942657000000000E-01     -1.093994000000000E+01      5.153503000000000E-01     -9.790625000000000E+01
4360000000.000000      3.595581000000000E-01     -1.605566000000000E+01      3.785400000000000E-01     -1.067188000000000E+02
4380000000.000000      4.057007000000000E-01     -2.497656000000000E+01      2.490005000000000E-01     -1.078828000000000E+02
4400000000.000000      4.269257000000000E-01     -3.486914000000000E+01      1.535339000000000E-01     -8.466406000000000E+01
4420000000.000000      4.253082000000000E-01     -4.429688000000000E+01      1.886063000000000E-01     -4.536133000000000E+01
4440000000.000000      4.087372000000000E-01     -5.227734000000000E+01      3.109741000000000E-01     -3.602539000000000E+01
4460000000.000000      3.892517000000000E-01     -5.902538000000000E+01      4.531860000000000E-01     -4.323438000000000E+01
4480000000.000000      3.706055000000000E-01     -6.512500000000000E+01      5.632629000000000E-01     -5.539257000000000E+01
4500000000.000000      3.476715000000000E-01     -7.166406000000000E+01      6.440125000000000E-01     -6.685547000000000E+01
4520000000.000000      3.141174000000000E-01     -7.928905000000000E+01      7.151794000000000E-01     -7.988671000000000E+01
4540000000.000000      2.637329000000000E-01     -8.528906000000000E+01      7.405396000000000E-01     -9.437891000000000E+01
4560000000.000000      2.033997000000000E-01     -8.348047000000000E+01      7.269287000000000E-01     -1.076484000000000E+02
4580000000.000000      1.775589000000000E-01     -6.782812000000000E+01      6.902771000000000E-01     -1.215117000000000E+02
4600000000.000000      2.148743000000000E-01     -5.429492000000000E+01      6.043396000000000E-01     -1.346953000000000E+02
4620000000.000000      2.792206000000000E-01     -5.570117000000000E+01      4.966431000000000E-01     -1.450078000000000E+02
4640000000.000000      3.329926000000000E-01     -6.549999000000000E+01      3.769836000000000E-01     -1.532187000000000E+02
4660000000.000000      3.574066000000000E-01     -7.863281000000000E+01      2.454529000000000E-01     -1.513594000000000E+02
4680000000.000000      3.482513000000000E-01     -9.237108000000000E+01      1.790009000000000E-01     -1.231328000000000E+02
4700000000.000000      3.114929000000000E-01     -1.053594000000000E+02      2.486801000000000E-01     -9.641405000000000E+01
4720000000.000000      2.548523000000000E-01     -1.158437000000000E+02      3.671112000000000E-01     -9.533203000000000E+01
4740000000.000000      1.924515000000000E-01     -1.208789000000000E+02      4.749146000000000E-01     -1.015586000000000E+02
4760000000.000000      1.404419000000000E-01     -1.165742000000000E+02      5.797729000000000E-01     -1.104258000000000E+02
4780000000.000000      1.153259000000000E-01     -1.008789000000000E+02      6.677246000000000E-01     -1.228086000000000E+02
4800000000.000000      1.222076000000000E-01     -8.386328000000000E+01      7.154236000000000E-01     -1.356641000000000E+02
4820000000.000000      1.512527000000000E-01     -7.446484000000000E+01      7.349243000000000E-01     -1.490000000000000E+02
4840000000.000000      1.907501000000000E-01     -7.434765000000000E+01      7.165833000000000E-01     -1.617031000000000E+02
4860000000.000000      2.344894000000000E-01     -8.071875000000000E+01      6.817017000000000E-01     -1.742344000000000E+02
4880000000.000000      2.712708000000000E-01     -9.100780000000000E+01      6.158752000000000E-01      1.721484000000000E+02
4900000000.000000      2.965393000000000E-01     -1.042344000000000E+02      4.940948000000000E-01      1.598359000000000E+02
4920000000.000000      3.020020000000000E-01     -1.192383000000000E+02      3.629456000000000E-01      1.536328000000000E+02
4940000000.000000      2.866516000000000E-01     -1.345859000000000E+02      2.511444000000000E-01      1.562266000000000E+02
4960000000.000000      2.559204000000000E-01     -1.496484000000000E+02      1.770172000000000E-01      1.778672000000000E+02
4980000000.000000      2.132797000000000E-01     -1.635625000000000E+02      2.150192000000000E-01     -1.508828000000000E+02
5000000000.000000      1.683731000000000E-01     -1.748047000000000E+02      3.316040000000000E-01     -1.435391000000000E+02
5020000000.000000      1.301804000000000E-01      1.752031000000000E+02      4.622498000000000E-01     -1.495859000000000E+02
5040000000.000000      9.901428000000000E-02      1.657500000000000E+02      5.704956000000000E-01     -1.603672000000000E+02
5060000000.000000      7.106781000000000E-02      1.514609000000000E+02      6.506042000000000E-01     -1.717969000000000E+02
5080000000.000000      3.963089000000000E-02      1.259531000000000E+02      7.196350000000000E-01      1.760313000000000E+02
5100000000.000000      1.365757000000000E-02      3.740625000000000E+01      7.566528000000000E-01      1.622109000000000E+02
5120000000.000000      4.154205000000000E-02     -5.488671000000000E+01      7.531128000000000E-01      1.480391000000000E+02
5140000000.000000      7.435608000000000E-02     -8.857813000000000E+01      7.049561000000000E-01      1.344609000000000E+02
5160000000.000000      9.761047000000000E-02     -1.187109000000000E+02      6.272583000000000E-01      1.220430000000000E+02
5180000000.000000      1.101494000000000E-01     -1.487500000000000E+02      5.320435000000000E-01      1.108750000000000E+02
5200000000.000000      1.120453000000000E-01      1.789219000000000E+02      4.160309000000000E-01      1.014101000000000E+02
5220000000.000000      1.077805000000000E-01      1.426719000000000E+02      2.827148000000000E-01      9.859375000000000E+01
5240000000.000000      1.062126000000000E-01      1.060039000000000E+02      1.840744000000000E-01      1.156914000000000E+02
5260000000.000000      1.108093000000000E-01      7.195703000000000E+01      1.977692000000000E-01      1.496953000000000E+02
5280000000.000000      1.183739000000000E-01      4.515429000000000E+01      2.973785000000000E-01      1.606406000000000E+02
5300000000.000000      1.251755000000000E-01      2.408886000000000E+01      4.108429000000000E-01      1.581094000000000E+02
5320000000.000000      1.316223000000000E-01      7.750732000000000E+00      5.294189000000000E-01      1.505703000000000E+02
5340000000.000000      1.382904000000000E-01     -6.648193000000000E+00      6.388550000000000E-01      1.385234000000000E+02
5360000000.000000      1.431732000000000E-01     -2.195410000000000E+01      7.061768000000000E-01      1.240430000000000E+02
5380000000.000000      1.392822000000000E-01     -3.917969000000000E+01      7.176208000000000E-01      1.107227000000000E+02
5400000000.000000      1.206932000000000E-01     -5.708202000000000E+01      7.192383000000000E-01      9.907812000000000E+01
5420000000.000000      8.582687000000000E-02     -7.351171000000000E+01      7.046204000000000E-01      8.603516000000000E+01
5440000000.000000      3.244591000000000E-02     -7.712891000000000E+01      6.472778000000000E-01      7.175390000000000E+01
5460000000.000000      4.213333000000000E-02      3.655468000000000E+01      5.386047000000000E-01      5.878906000000000E+01
5480000000.000000      1.113014000000000E-01      2.998437000000000E+01      4.124146000000000E-01      4.935156000000000E+01
5500000000.000000      1.741333000000000E-01      1.484619000000000E+01      2.922058000000000E-01      4.754883000000000E+01
5520000000.000000      2.208252000000000E-01     -2.568054000000000E-01      1.947403000000000E-01      5.952929000000000E+01
5540000000.000000      2.520447000000000E-01     -1.381006000000000E+01      1.814804000000000E-01      9.120703000000000E+01
5560000000.000000      2.707977000000000E-01     -2.563867000000000E+01      2.641449000000000E-01      1.087539000000000E+02
5580000000.000000      2.837372000000000E-01     -3.532422000000000E+01      3.853607000000000E-01      1.085742000000000E+02
5600000000.000000      2.955322000000000E-01     -4.418164000000000E+01      5.079956000000000E-01      9.966797000000000E+01
5620000000.000000      3.059540000000000E-01     -5.318164000000000E+01      5.956421000000000E-01      8.726171000000000E+01
5640000000.000000      3.095551000000000E-01     -6.293554000000000E+01      6.438599000000000E-01      7.510156000000000E+01
5660000000.000000      3.007050000000000E-01     -7.353516000000000E+01      6.849670000000000E-01      6.397461000000000E+01
5680000000.000000      2.716370000000000E-01     -8.393358000000000E+01      6.972656000000000E-01      5.119726000000000E+01
5700000000.000000      2.250214000000000E-01     -9.124218000000000E+01      6.809998000000000E-01      3.884961000000000E+01
5720000000.000000      1.748657000000000E-01     -8.979296000000000E+01      6.429749000000000E-01      2.610352000000000E+01
5740000000.000000      1.532135000000000E-01     -7.582421000000000E+01      5.637207000000000E-01      1.297852000000000E+01
5760000000.000000      1.813736000000000E-01     -6.419531000000000E+01      4.495239000000000E-01      1.293640000000000E+00
5780000000.000000      2.272644000000000E-01     -6.564843000000000E+01      3.153992000000000E-01     -3.743652000000000E+00
5800000000.000000      2.591858000000000E-01     -7.331249000000000E+01      2.073441000000000E-01      7.645020000000000E+00
5820000000.000000      2.687073000000000E-01     -8.254686000000000E+01      1.897354000000000E-01      3.795312000000000E+01
5840000000.000000      2.588654000000000E-01     -9.099609000000000E+01      2.718353000000000E-01      5.415820000000000E+01
5860000000.000000      2.415237000000000E-01     -9.650780000000000E+01      3.723602000000000E-01      5.412499000000000E+01
5880000000.000000      2.277603000000000E-01     -9.978125000000000E+01      4.786835000000000E-01      4.876367000000000E+01
5900000000.000000      2.208786000000000E-01     -1.020625000000000E+02      5.951843000000000E-01      3.868359000000000E+01
5920000000.000000      2.128754000000000E-01     -1.048867000000000E+02      6.723938000000000E-01      2.466406000000000E+01
5940000000.000000      1.991272000000000E-01     -1.070156000000000E+02      7.014771000000000E-01      1.133203000000000E+01
5960000000.000000      1.804886000000000E-01     -1.053008000000000E+02      7.114563000000000E-01     -1.349976000000000E+00
5980000000.000000      1.680832000000000E-01     -9.770702000000000E+01      6.905823000000000E-01     -1.537012000000000E+01
6000000000.000000      1.831360000000000E-01     -8.864061000000000E+01      6.264038000000000E-01     -2.887695000000000E+01
6020000000.000000      2.178726000000000E-01     -8.677343000000000E+01      5.275269000000000E-01     -4.138281000000000E+01
6040000000.000000      2.539825000000000E-01     -9.196875000000000E+01      3.991547000000000E-01     -4.964257000000000E+01
6060000000.000000      2.787933000000000E-01     -1.008672000000000E+02      2.842255000000000E-01     -4.920703000000000E+01
6080000000.000000      2.885284000000000E-01     -1.109453000000000E+02      2.051697000000000E-01     -3.534375000000000E+01
