! Network Analyzer HP8722D
! Hewlett-Packard
! Data name: Linha & Wilkinson+CNT
! Saver's name: Rodrigo Anjos
! Comments: Teste da utilização de aquisição
continua pelo VNA HP8722D
! Time and date: 29/9/2025 15:16
!              Frequency                     S11                                                   S21                                                   S12                                                   S22
# HZ  S  MA R 50
3000000000.000000      4.254608000000000E-01     -5.555469000000000E+01      2.054291000000000E-01     -1.315625000000000E+02
3020000000.000000      4.476624000000000E-01     -6.981250000000000E+01      3.484497000000000E-01     -1.348281000000000E+02
3040000000.000000      4.533234000000000E-01     -8.275782000000000E+01      4.670258000000000E-01     -1.446406000000000E+02
3060000000.000000      4.452209000000000E-01     -9.479296000000000E+01      5.705261000000000E-01     -1.550469000000000E+02
3080000000.000000      4.295349000000000E-01     -1.060430000000000E+02      6.732483000000000E-01     -1.681719000000000E+02
3100000000.000000      4.090271000000000E-01     -1.172500000000000E+02      7.230530000000000E-01      1.770000000000000E+02
3120000000.000000      3.794250000000000E-01     -1.292344000000000E+02      7.312012000000000E-01      1.636016000000000E+02
3140000000.000000      3.394470000000000E-01     -1.421562000000000E+02      7.246704000000000E-01      1.507344000000000E+02
3160000000.000000      2.796936000000000E-01     -1.562734000000000E+02      6.832581000000000E-01      1.371484000000000E+02
3180000000.000000      1.999130000000000E-01     -1.689922000000000E+02      6.155090000000000E-01      1.245430000000000E+02
3200000000.000000      1.125069000000000E-01     -1.701250000000000E+02      5.203857000000000E-01      1.118789000000000E+02
3220000000.000000      7.839966000000000E-02     -1.247539000000000E+02      3.878021000000000E-01      1.008125000000000E+02
3240000000.000000      1.490860000000000E-01     -1.048867000000000E+02      2.485275000000000E-01      9.944921000000000E+01
3260000000.000000      2.292252000000000E-01     -1.150000000000000E+02      1.475372000000000E-01      1.247539000000000E+02
3280000000.000000      2.869110000000000E-01     -1.305312000000000E+02      2.015991000000000E-01      1.651016000000000E+02
3300000000.000000      3.200684000000000E-01     -1.468984000000000E+02      3.285065000000000E-01      1.697891000000000E+02
3320000000.000000      3.321228000000000E-01     -1.628672000000000E+02      4.616547000000000E-01      1.627422000000000E+02
3340000000.000000      3.286591000000000E-01     -1.783359000000000E+02      5.736694000000000E-01      1.506250000000000E+02
3360000000.000000      3.170166000000000E-01      1.669141000000000E+02      6.461182000000000E-01      1.385547000000000E+02
3380000000.000000      3.005371000000000E-01      1.526797000000000E+02      7.087708000000000E-01      1.271445000000000E+02
3400000000.000000      2.785492000000000E-01      1.379453000000000E+02      7.596741000000000E-01      1.134727000000000E+02
3420000000.000000      2.441406000000000E-01      1.230391000000000E+02      7.500610000000000E-01      9.858984000000000E+01
3440000000.000000      1.911240000000000E-01      1.081836000000000E+02      7.065735000000000E-01      8.564062000000000E+01
3460000000.000000      1.208076000000000E-01      9.731640000000000E+01      6.485596000000000E-01      7.267578000000000E+01
3480000000.000000      4.802895000000000E-02      1.198672000000000E+02      5.509644000000000E-01      5.908789000000000E+01
3500000000.000000      9.080124000000000E-02     -1.742656000000000E+02      4.269714000000000E-01      4.778320000000000E+01
3520000000.000000      1.824570000000000E-01      1.791406000000000E+02      2.810364000000000E-01      4.040039000000000E+01
3540000000.000000      2.619629000000000E-01      1.631016000000000E+02      1.485138000000000E-01      5.763672000000000E+01
3560000000.000000      3.222351000000000E-01      1.461328000000000E+02      1.651001000000000E-01      1.074062000000000E+02
3580000000.000000      3.595734000000000E-01      1.300781000000000E+02      2.927856000000000E-01      1.175742000000000E+02
3600000000.000000      3.759003000000000E-01      1.154883000000000E+02      4.179382000000000E-01      1.107695000000000E+02
3620000000.000000      3.784027000000000E-01      1.027812000000000E+02      5.192261000000000E-01      1.010898000000000E+02
3640000000.000000      3.686066000000000E-01      9.148438000000000E+01      6.202087000000000E-01      9.033594000000000E+01
3660000000.000000      3.526154000000000E-01      8.121485000000000E+01      6.913147000000000E-01      7.593750000000000E+01
3680000000.000000      3.297882000000000E-01      7.202734000000000E+01      7.117004000000000E-01      6.287695000000000E+01
3700000000.000000      2.999115000000000E-01      6.385937000000000E+01      7.199402000000000E-01      5.115429000000000E+01
3720000000.000000      2.558441000000000E-01      5.757617000000000E+01      7.258301000000000E-01      3.688477000000000E+01
3740000000.000000      2.055054000000000E-01      5.823632000000000E+01      6.656189000000000E-01      2.164551000000000E+01
3760000000.000000      1.778946000000000E-01      7.216015000000000E+01      5.687256000000000E-01      7.323730000000000E+00
3780000000.000000      2.108231000000000E-01      8.731249000000000E+01      4.373169000000000E-01     -6.140137000000000E+00
3800000000.000000      2.811127000000000E-01      8.917578000000000E+01      2.837067000000000E-01     -1.347217000000000E+01
3820000000.000000      3.491974000000000E-01      8.279297000000000E+01      1.546021000000000E-01     -9.901428000000000E-01
3840000000.000000      3.999176000000000E-01      7.411327000000000E+01      1.418228000000000E-01      4.722070000000000E+01
3860000000.000000      4.354095000000000E-01      6.546875000000000E+01      2.437592000000000E-01      6.542969000000000E+01
3880000000.000000      4.605865000000000E-01      5.789648000000000E+01      3.747864000000000E-01      6.132421000000000E+01
3900000000.000000      4.890900000000000E-01      5.087500000000000E+01      4.765320000000000E-01      4.797461000000000E+01
3920000000.000000      5.201416000000000E-01      4.320898000000000E+01      5.079346000000000E-01      3.622656000000000E+01
3940000000.000000      5.494690000000000E-01      3.436523000000000E+01      5.395813000000000E-01      2.972070000000000E+01
3960000000.000000      5.611267000000000E-01      2.421387000000000E+01      5.959778000000000E-01      2.015625000000000E+01
3980000000.000000      5.550232000000000E-01      1.371094000000000E+01      5.983276000000000E-01      8.308105000000000E+00
4000000000.000000      5.289001000000000E-01      3.210693000000000E+00      5.807495000000000E-01      1.282654000000000E+00
4020000000.000000      4.848328000000000E-01     -6.660645000000000E+00      5.980225000000000E-01     -6.431152000000000E+00
4040000000.000000      4.263916000000000E-01     -1.565869000000000E+01      5.848083000000000E-01     -1.855078000000000E+01
4060000000.000000      3.505402000000000E-01     -2.177929000000000E+01      5.295410000000000E-01     -2.881640000000000E+01
4080000000.000000      2.753143000000000E-01     -2.184375000000000E+01      4.697418000000000E-01     -3.804883000000000E+01
4100000000.000000      2.284546000000000E-01     -1.151514000000000E+01      3.687592000000000E-01     -4.752539000000000E+01
4120000000.000000      2.410736000000000E-01      1.739929000000000E+00      2.513275000000000E-01     -4.448438000000000E+01
4140000000.000000      2.889404000000000E-01      5.229492000000000E+00      2.026520000000000E-01     -2.053418000000000E+01
4160000000.000000      3.330994000000000E-01      1.076660000000000E+00      2.618866000000000E-01     -1.908875000000000E-01
4180000000.000000      3.612213000000000E-01     -5.718506000000000E+00      3.557892000000000E-01      4.096436000000000E+00
4200000000.000000      3.715973000000000E-01     -1.342822000000000E+01      4.864655000000000E-01      1.566895000000000E+00
4220000000.000000      3.676147000000000E-01     -2.080078000000000E+01      6.409912000000000E-01     -1.082178000000000E+01
4240000000.000000      3.489838000000000E-01     -2.826562000000000E+01      7.210388000000000E-01     -2.759277000000000E+01
4260000000.000000      3.107452000000000E-01     -3.409180000000000E+01      7.439270000000000E-01     -4.168554000000000E+01
4280000000.000000      2.604828000000000E-01     -3.546679000000000E+01      7.525635000000000E-01     -5.531640000000000E+01
4300000000.000000      2.220306000000000E-01     -2.749902000000000E+01      7.167053000000000E-01     -7.049999000000000E+01
4320000000.000000      2.343292000000000E-01     -1.472900000000000E+01      6.346130000000000E-01     -8.501562000000000E+01
4340000000.000000      2.923431000000000E-01     -1.047705000000000E+01      5.187073000000000E-01     -9.769531000000000E+01
4360000000.000000      3.580475000000000E-01     -1.541406000000000E+01      3.838501000000000E-01     -1.068672000000000E+02
4380000000.000000      4.043884000000000E-01     -2.437207000000000E+01      2.519226000000000E-01     -1.081953000000000E+02
4400000000.000000      4.264374000000000E-01     -3.439258000000000E+01      1.537857000000000E-01     -8.603125000000000E+01
4420000000.000000      4.250641000000000E-01     -4.373047000000000E+01      1.857681000000000E-01     -4.594531000000000E+01
4440000000.000000      4.087982000000000E-01     -5.191406000000000E+01      3.079376000000000E-01     -3.611328000000000E+01
4460000000.000000      3.862457000000000E-01     -5.844140000000000E+01      4.499664000000000E-01     -4.320703000000000E+01
4480000000.000000      3.693848000000000E-01     -6.484765000000000E+01      5.593262000000000E-01     -5.519921000000000E+01
4500000000.000000      3.473358000000000E-01     -7.152344000000000E+01      6.426392000000000E-01     -6.659765000000000E+01
4520000000.000000      3.144836000000000E-01     -7.921484000000000E+01      7.160645000000000E-01     -7.964453000000000E+01
4540000000.000000      2.630157000000000E-01     -8.550390000000000E+01      7.419434000000000E-01     -9.405077000000000E+01
4560000000.000000      2.022476000000000E-01     -8.416016000000000E+01      7.304993000000000E-01     -1.074726000000000E+02
4580000000.000000      1.739731000000000E-01     -6.829687000000000E+01      6.922607000000000E-01     -1.212695000000000E+02
4600000000.000000      2.109680000000000E-01     -5.390234000000000E+01      6.084595000000000E-01     -1.344531000000000E+02
4620000000.000000      2.756500000000000E-01     -5.499609000000000E+01      5.013123000000000E-01     -1.449219000000000E+02
4640000000.000000      3.299561000000000E-01     -6.490624000000000E+01      3.814545000000000E-01     -1.533672000000000E+02
4660000000.000000      3.546143000000000E-01     -7.809765000000000E+01      2.482605000000000E-01     -1.521563000000000E+02
4680000000.000000      3.469543000000000E-01     -9.204296000000000E+01      1.785431000000000E-01     -1.242226000000000E+02
4700000000.000000      3.099670000000000E-01     -1.054219000000000E+02      2.459412000000000E-01     -9.680077000000000E+01
4720000000.000000      2.543640000000000E-01     -1.160625000000000E+02      3.649902000000000E-01     -9.535156000000000E+01
4740000000.000000      1.921387000000000E-01     -1.214844000000000E+02      4.720459000000000E-01     -1.015547000000000E+02
4760000000.000000      1.396103000000000E-01     -1.180547000000000E+02      5.778503000000000E-01     -1.102617000000000E+02
4780000000.000000      1.123466000000000E-01     -1.022969000000000E+02      6.667480000000000E-01     -1.225781000000000E+02
4800000000.000000      1.171494000000000E-01     -8.392969000000000E+01      7.166138000000000E-01     -1.353750000000000E+02
4820000000.000000      1.451492000000000E-01     -7.396093000000000E+01      7.367249000000000E-01     -1.487109000000000E+02
4840000000.000000      1.864929000000000E-01     -7.365624000000000E+01      7.190552000000000E-01     -1.614297000000000E+02
4860000000.000000      2.297821000000000E-01     -8.004297000000000E+01      6.860352000000000E-01     -1.739844000000000E+02
4880000000.000000      2.675934000000000E-01     -9.038280000000000E+01      6.184692000000000E-01      1.720391000000000E+02
4900000000.000000      2.939301000000000E-01     -1.038867000000000E+02      4.979095000000000E-01      1.597891000000000E+02
4920000000.000000      3.000793000000000E-01     -1.190508000000000E+02      3.686676000000000E-01      1.533359000000000E+02
4940000000.000000      2.862549000000000E-01     -1.347812000000000E+02      2.540436000000000E-01      1.556953000000000E+02
4960000000.000000      2.554474000000000E-01     -1.499609000000000E+02      1.775665000000000E-01      1.764141000000000E+02
4980000000.000000      2.138519000000000E-01     -1.641328000000000E+02      2.119598000000000E-01     -1.516016000000000E+02
5000000000.000000      1.688690000000000E-01     -1.759766000000000E+02      3.279114000000000E-01     -1.435703000000000E+02
5020000000.000000      1.311493000000000E-01      1.741250000000000E+02      4.588623000000000E-01     -1.493438000000000E+02
5040000000.000000      1.004448000000000E-01      1.637031000000000E+02      5.677490000000000E-01     -1.603047000000000E+02
5060000000.000000      7.276154000000000E-02      1.488047000000000E+02      6.500549000000000E-01     -1.717109000000000E+02
5080000000.000000      4.293442000000000E-02      1.234258000000000E+02      7.176208000000000E-01      1.762578000000000E+02
5100000000.000000      1.734257000000000E-02      4.497656000000000E+01      7.572937000000000E-01      1.625469000000000E+02
5120000000.000000      4.050255000000000E-02     -5.007030000000000E+01      7.551880000000000E-01      1.482266000000000E+02
5140000000.000000      7.238388000000000E-02     -8.699219000000000E+01      7.044983000000000E-01      1.344453000000000E+02
5160000000.000000      9.614182000000000E-02     -1.181992000000000E+02      6.301270000000000E-01      1.221641000000000E+02
5180000000.000000      1.095428000000000E-01     -1.488437000000000E+02      5.356445000000000E-01      1.109883000000000E+02
5200000000.000000      1.127167000000000E-01      1.786406000000000E+02      4.193115000000000E-01      1.010586000000000E+02
5220000000.000000      1.097755000000000E-01      1.426250000000000E+02      2.856598000000000E-01      9.812500000000000E+01
5240000000.000000      1.090317000000000E-01      1.063281000000000E+02      1.848145000000000E-01      1.145547000000000E+02
5260000000.000000      1.135483000000000E-01      7.311718000000000E+01      1.945724000000000E-01      1.489141000000000E+02
5280000000.000000      1.207962000000000E-01      4.643555000000000E+01      2.941742000000000E-01      1.606719000000000E+02
5300000000.000000      1.270905000000000E-01      2.547558000000000E+01      4.073639000000000E-01      1.582500000000000E+02
5320000000.000000      1.333771000000000E-01      9.023438000000000E+00      5.256958000000000E-01      1.508437000000000E+02
5340000000.000000      1.392441000000000E-01     -5.447998000000000E+00      6.369934000000000E-01      1.388438000000000E+02
5360000000.000000      1.434250000000000E-01     -2.107324000000000E+01      7.052917000000000E-01      1.242539000000000E+02
5380000000.000000      1.386795000000000E-01     -3.863086000000000E+01      7.172241000000000E-01      1.109062000000000E+02
5400000000.000000      1.206932000000000E-01     -5.664844000000000E+01      7.195435000000000E-01      9.917969000000000E+01
5420000000.000000      8.593369000000000E-02     -7.365234000000000E+01      7.070923000000000E-01      8.611719000000000E+01
5440000000.000000      3.129387000000000E-02     -7.936328000000000E+01      6.510315000000000E-01      7.188281000000000E+01
5460000000.000000      4.175758000000000E-02      3.876367000000000E+01      5.434875000000000E-01      5.870312000000000E+01
5480000000.000000      1.116219000000000E-01      3.146973000000000E+01      4.157562000000000E-01      4.928711000000000E+01
5500000000.000000      1.743851000000000E-01      1.605469000000000E+01      2.953644000000000E-01      4.712695000000000E+01
5520000000.000000      2.208405000000000E-01      9.901428000000000E-01      1.960144000000000E-01      5.840429000000000E+01
5540000000.000000      2.519836000000000E-01     -1.281299000000000E+01      1.797180000000000E-01      9.017187000000000E+01
5560000000.000000      2.698517000000000E-01     -2.478320000000000E+01      2.604370000000000E-01      1.087383000000000E+02
5580000000.000000      2.825928000000000E-01     -3.473242000000000E+01      3.823090000000000E-01      1.088008000000000E+02
5600000000.000000      2.940216000000000E-01     -4.369141000000000E+01      5.050659000000000E-01      9.996094000000000E+01
5620000000.000000      3.043365000000000E-01     -5.282227000000000E+01      5.950012000000000E-01      8.745312000000000E+01
5640000000.000000      3.084564000000000E-01     -6.242773000000000E+01      6.455994000000000E-01      7.548437000000000E+01
5660000000.000000      2.985535000000000E-01     -7.325781000000000E+01      6.848755000000000E-01      6.427734000000000E+01
5680000000.000000      2.698517000000000E-01     -8.363281000000000E+01      6.995850000000000E-01      5.138281000000000E+01
5700000000.000000      2.223511000000000E-01     -9.103516000000000E+01      6.832581000000000E-01      3.899414000000000E+01
5720000000.000000      1.711960000000000E-01     -8.997656000000000E+01      6.455688000000000E-01      2.620703000000000E+01
5740000000.000000      1.494293000000000E-01     -7.563281000000000E+01      5.693359000000000E-01      1.292920000000000E+01
5760000000.000000      1.776199000000000E-01     -6.375586000000000E+01      4.529266000000000E-01      1.344421000000000E+00
5780000000.000000      2.235718000000000E-01     -6.511328000000000E+01      3.190613000000000E-01     -4.019775000000000E+00
5800000000.000000      2.568054000000000E-01     -7.290234000000000E+01      2.100754000000000E-01      6.444824000000000E+00
5820000000.000000      2.669373000000000E-01     -8.233202000000000E+01      1.882401000000000E-01      3.674023000000000E+01
5840000000.000000      2.577362000000000E-01     -9.089844000000000E+01      2.680206000000000E-01      5.385742000000000E+01
5860000000.000000      2.389297000000000E-01     -9.657812000000000E+01      3.691864000000000E-01      5.414844000000000E+01
5880000000.000000      2.242966000000000E-01     -9.974218000000000E+01      4.766388000000000E-01      4.892187000000000E+01
5900000000.000000      2.166519000000000E-01     -1.022422000000000E+02      5.928650000000000E-01      3.863867000000000E+01
5920000000.000000      2.088013000000000E-01     -1.050664000000000E+02      6.708984000000000E-01      2.477636000000000E+01
5940000000.000000      1.949539000000000E-01     -1.070430000000000E+02      7.040100000000000E-01      1.155469000000000E+01
5960000000.000000      1.777954000000000E-01     -1.054414000000000E+02      7.145386000000000E-01     -1.108276000000000E+00
5980000000.000000      1.651840000000000E-01     -9.739061000000000E+01      6.947937000000000E-01     -1.510254000000000E+01
6000000000.000000      1.809769000000000E-01     -8.827734000000000E+01      6.306763000000000E-01     -2.873632000000000E+01
6020000000.000000      2.151871000000000E-01     -8.642969000000000E+01      5.325928000000000E-01     -4.147070000000000E+01
6040000000.000000      2.515564000000000E-01     -9.153124000000000E+01      4.027405000000000E-01     -5.003906000000000E+01
6060000000.000000      2.751617000000000E-01     -1.005156000000000E+02      2.875824000000000E-01     -4.978516000000000E+01
6080000000.000000      2.854614000000000E-01     -1.107891000000000E+02      2.063828000000000E-01     -3.656836000000000E+01
