! Network Analyzer HP8722D
! Hewlett-Packard
! Data name: Linha & Wilkinson+CNT
! Saver's name: Rodrigo Anjos
! Comments: Teste da utilização de aquisição
continua pelo VNA HP8722D
! Time and date: 29/9/2025 12:24
!              Frequency                     S11                                                   S21                                                   S12                                                   S22
# HZ  S  MA R 50
3000000000.000000      4.229279000000000E-01     -5.617578000000000E+01      2.078552000000000E-01     -1.313672000000000E+02
3020000000.000000      4.476318000000000E-01     -7.046875000000000E+01      3.506622000000000E-01     -1.349375000000000E+02
3040000000.000000      4.542847000000000E-01     -8.333202000000000E+01      4.680634000000000E-01     -1.447422000000000E+02
3060000000.000000      4.464417000000000E-01     -9.521484000000000E+01      5.720825000000000E-01     -1.552187000000000E+02
3080000000.000000      4.313965000000000E-01     -1.064297000000000E+02      6.729431000000000E-01     -1.682656000000000E+02
3100000000.000000      4.109802000000000E-01     -1.175508000000000E+02      7.241211000000000E-01      1.769453000000000E+02
3120000000.000000      3.826141000000000E-01     -1.293516000000000E+02      7.320251000000000E-01      1.635625000000000E+02
3140000000.000000      3.421021000000000E-01     -1.422578000000000E+02      7.235107000000000E-01      1.506797000000000E+02
3160000000.000000      2.814331000000000E-01     -1.561953000000000E+02      6.834106000000000E-01      1.371484000000000E+02
3180000000.000000      2.029266000000000E-01     -1.685234000000000E+02      6.124268000000000E-01      1.245156000000000E+02
3200000000.000000      1.149750000000000E-01     -1.687422000000000E+02      5.201111000000000E-01      1.117383000000000E+02
3220000000.000000      8.323288000000000E-02     -1.249023000000000E+02      3.854828000000000E-01      1.009414000000000E+02
3240000000.000000      1.535339000000000E-01     -1.055937000000000E+02      2.466049000000000E-01      9.974218000000000E+01
3260000000.000000      2.328262000000000E-01     -1.154570000000000E+02      1.472855000000000E-01      1.256836000000000E+02
3280000000.000000      2.906799000000000E-01     -1.308984000000000E+02      2.036133000000000E-01      1.654219000000000E+02
3300000000.000000      3.233185000000000E-01     -1.470625000000000E+02      3.304901000000000E-01      1.697187000000000E+02
3320000000.000000      3.351440000000000E-01     -1.627969000000000E+02      4.636383000000000E-01      1.627656000000000E+02
3340000000.000000      3.314362000000000E-01     -1.780469000000000E+02      5.747986000000000E-01      1.506484000000000E+02
3360000000.000000      3.195801000000000E-01      1.673672000000000E+02      6.472473000000000E-01      1.385703000000000E+02
3380000000.000000      3.025513000000000E-01      1.531484000000000E+02      7.100830000000000E-01      1.272266000000000E+02
3400000000.000000      2.788239000000000E-01      1.384375000000000E+02      7.580261000000000E-01      1.133320000000000E+02
3420000000.000000      2.431107000000000E-01      1.235156000000000E+02      7.496948000000000E-01      9.845703000000000E+01
3440000000.000000      1.893539000000000E-01      1.089023000000000E+02      7.048340000000000E-01      8.559374000000000E+01
3460000000.000000      1.184502000000000E-01      9.862890000000000E+01      6.464539000000000E-01      7.267187000000000E+01
3480000000.000000      4.765892000000000E-02      1.247812000000000E+02      5.494690000000000E-01      5.917187000000000E+01
3500000000.000000      9.503174000000000E-02     -1.731797000000000E+02      4.243622000000000E-01      4.788867000000000E+01
3520000000.000000      1.865845000000000E-01      1.797031000000000E+02      2.790985000000000E-01      4.067578000000000E+01
3540000000.000000      2.645721000000000E-01      1.635625000000000E+02      1.471558000000000E-01      5.865624000000000E+01
3560000000.000000      3.235321000000000E-01      1.465547000000000E+02      1.676483000000000E-01      1.079648000000000E+02
3580000000.000000      3.600769000000000E-01      1.303906000000000E+02      2.950134000000000E-01      1.176758000000000E+02
3600000000.000000      3.753510000000000E-01      1.156914000000000E+02      4.201355000000000E-01      1.107265000000000E+02
3620000000.000000      3.771973000000000E-01      1.028555000000000E+02      5.213318000000000E-01      1.013242000000000E+02
3640000000.000000      3.674469000000000E-01      9.162500000000000E+01      6.221619000000000E-01      8.997656000000000E+01
3660000000.000000      3.509369000000000E-01      8.137110000000000E+01      6.922607000000000E-01      7.590625000000000E+01
3680000000.000000      3.278503000000000E-01      7.214844000000000E+01      7.120972000000000E-01      6.265038000000000E+01
3700000000.000000      2.965240000000000E-01      6.377930000000000E+01      7.213135000000000E-01      5.104882000000000E+01
3720000000.000000      2.524109000000000E-01      5.774804000000000E+01      7.239990000000000E-01      3.693945000000000E+01
3740000000.000000      2.022781000000000E-01      5.848242000000000E+01      6.631775000000000E-01      2.150683000000000E+01
3760000000.000000      1.755753000000000E-01      7.266406000000000E+01      5.667725000000000E-01      7.131348000000000E+00
3780000000.000000      2.098923000000000E-01      8.787889000000000E+01      4.375916000000000E-01     -5.865479000000000E+00
3800000000.000000      2.808685000000000E-01      8.932032000000000E+01      2.821655000000000E-01     -1.322900000000000E+01
3820000000.000000      3.484802000000000E-01      8.278124000000000E+01      1.535568000000000E-01     -1.139832000000000E-01
3840000000.000000      3.988495000000000E-01      7.401953000000000E+01      1.431732000000000E-01      4.793945000000000E+01
3860000000.000000      4.337158000000000E-01      6.534765000000000E+01      2.466202000000000E-01      6.548437000000000E+01
3880000000.000000      4.586487000000000E-01      5.783008000000000E+01      3.768463000000000E-01      6.119531000000000E+01
3900000000.000000      4.878387000000000E-01      5.077734000000000E+01      4.782562000000000E-01      4.780469000000000E+01
3920000000.000000      5.187378000000000E-01      4.294335000000000E+01      5.092163000000000E-01      3.593359000000000E+01
3940000000.000000      5.466003000000000E-01      3.371875000000000E+01      5.400085000000000E-01      2.954297000000000E+01
3960000000.000000      5.574646000000000E-01      2.369336000000000E+01      5.963745000000000E-01      2.022949000000000E+01
3980000000.000000      5.512390000000000E-01      1.325195000000000E+01      5.981445000000000E-01      8.298340000000000E+00
4000000000.000000      5.258484000000000E-01      2.926392000000000E+00      5.798035000000000E-01      1.301880000000000E+00
4020000000.000000      4.832611000000000E-01     -7.111084000000000E+00      5.984802000000000E-01     -6.611084000000000E+00
4040000000.000000      4.241943000000000E-01     -1.599365000000000E+01      5.852356000000000E-01     -1.878711000000000E+01
4060000000.000000      3.485413000000000E-01     -2.225879000000000E+01      5.274658000000000E-01     -2.877539000000000E+01
4080000000.000000      2.737732000000000E-01     -2.237793000000000E+01      4.687805000000000E-01     -3.799414000000000E+01
4100000000.000000      2.280273000000000E-01     -1.182715000000000E+01      3.656921000000000E-01     -4.738477000000000E+01
4120000000.000000      2.416382000000000E-01      1.327942000000000E+00      2.494354000000000E-01     -4.404492000000000E+01
4140000000.000000      2.894287000000000E-01      4.656738000000000E+00      2.031174000000000E-01     -1.978125000000000E+01
4160000000.000000      3.336487000000000E-01      5.081177000000000E-01      2.639771000000000E-01     -7.965088000000000E-02
4180000000.000000      3.616791000000000E-01     -6.230713000000000E+00      3.574982000000000E-01      3.955078000000000E+00
4200000000.000000      3.714294000000000E-01     -1.406396000000000E+01      4.887238000000000E-01      1.377380000000000E+00
4220000000.000000      3.668671000000000E-01     -2.130566000000000E+01      6.416626000000000E-01     -1.106055000000000E+01
4240000000.000000      3.480377000000000E-01     -2.882715000000000E+01      7.229004000000000E-01     -2.771484000000000E+01
4260000000.000000      3.094635000000000E-01     -3.460938000000000E+01      7.427979000000000E-01     -4.183984000000000E+01
4280000000.000000      2.597809000000000E-01     -3.585156000000000E+01      7.498169000000000E-01     -5.555469000000000E+01
4300000000.000000      2.225113000000000E-01     -2.778125000000000E+01      7.145386000000000E-01     -7.062500000000000E+01
4320000000.000000      2.361984000000000E-01     -1.504736000000000E+01      6.315002000000000E-01     -8.508593000000000E+01
4340000000.000000      2.939301000000000E-01     -1.103174000000000E+01      5.160522000000000E-01     -9.783983000000000E+01
4360000000.000000      3.593597000000000E-01     -1.598242000000000E+01      3.795166000000000E-01     -1.067656000000000E+02
4380000000.000000      4.053497000000000E-01     -2.491308000000000E+01      2.495422000000000E-01     -1.078945000000000E+02
4400000000.000000      4.268646000000000E-01     -3.487890000000000E+01      1.534729000000000E-01     -8.491405000000000E+01
4420000000.000000      4.249725000000000E-01     -4.421484000000000E+01      1.880188000000000E-01     -4.559570000000000E+01
4440000000.000000      4.090576000000000E-01     -5.225780000000000E+01      3.104858000000000E-01     -3.602539000000000E+01
4460000000.000000      3.881226000000000E-01     -5.890820000000000E+01      4.521484000000000E-01     -4.330859000000000E+01
4480000000.000000      3.693085000000000E-01     -6.503515000000000E+01      5.599976000000000E-01     -5.531640000000000E+01
4500000000.000000      3.480682000000000E-01     -7.171484000000000E+01      6.412354000000000E-01     -6.683203000000000E+01
4520000000.000000      3.147736000000000E-01     -7.922656000000000E+01      7.150574000000000E-01     -7.964062000000000E+01
4540000000.000000      2.637177000000000E-01     -8.525000000000000E+01      7.425537000000000E-01     -9.435156000000000E+01
4560000000.000000      2.038574000000000E-01     -8.354687000000000E+01      7.282104000000000E-01     -1.073945000000000E+02
4580000000.000000      1.769943000000000E-01     -6.788280000000000E+01      6.910095000000000E-01     -1.213555000000000E+02
4600000000.000000      2.143860000000000E-01     -5.430859000000000E+01      6.051636000000000E-01     -1.346094000000000E+02
4620000000.000000      2.794495000000000E-01     -5.567383000000000E+01      4.976654000000000E-01     -1.449063000000000E+02
4640000000.000000      3.331146000000000E-01     -6.541797000000000E+01      3.787689000000000E-01     -1.532656000000000E+02
4660000000.000000      3.573151000000000E-01     -7.848046000000000E+01      2.463608000000000E-01     -1.515781000000000E+02
4680000000.000000      3.486328000000000E-01     -9.228125000000000E+01      1.793060000000000E-01     -1.233164000000000E+02
4700000000.000000      3.118439000000000E-01     -1.053086000000000E+02      2.480392000000000E-01     -9.641014000000000E+01
4720000000.000000      2.554932000000000E-01     -1.158008000000000E+02      3.670959000000000E-01     -9.529297000000000E+01
4740000000.000000      1.933594000000000E-01     -1.210117000000000E+02      4.749298000000000E-01     -1.017148000000000E+02
4760000000.000000      1.410599000000000E-01     -1.168672000000000E+02      5.797119000000000E-01     -1.104805000000000E+02
4780000000.000000      1.154213000000000E-01     -1.009219000000000E+02      6.671448000000000E-01     -1.228320000000000E+02
4800000000.000000      1.211700000000000E-01     -8.378906000000000E+01      7.162170000000000E-01     -1.356562000000000E+02
4820000000.000000      1.509781000000000E-01     -7.441796000000000E+01      7.341309000000000E-01     -1.488359000000000E+02
4840000000.000000      1.907120000000000E-01     -7.414453000000000E+01      7.179565000000000E-01     -1.616250000000000E+02
4860000000.000000      2.344666000000000E-01     -8.073828000000000E+01      6.836243000000000E-01     -1.740391000000000E+02
4880000000.000000      2.712097000000000E-01     -9.093750000000000E+01      6.146240000000000E-01      1.721094000000000E+02
4900000000.000000      2.963562000000000E-01     -1.042031000000000E+02      4.951935000000000E-01      1.598594000000000E+02
4920000000.000000      3.021088000000000E-01     -1.191953000000000E+02      3.654175000000000E-01      1.538125000000000E+02
4940000000.000000      2.870941000000000E-01     -1.345781000000000E+02      2.517090000000000E-01      1.561953000000000E+02
4960000000.000000      2.558136000000000E-01     -1.495625000000000E+02      1.770477000000000E-01      1.777656000000000E+02
4980000000.000000      2.133408000000000E-01     -1.635078000000000E+02      2.149963000000000E-01     -1.510078000000000E+02
5000000000.000000      1.686783000000000E-01     -1.748906000000000E+02      3.311615000000000E-01     -1.434219000000000E+02
5020000000.000000      1.304626000000000E-01      1.754297000000000E+02      4.613495000000000E-01     -1.496406000000000E+02
5040000000.000000      9.952545000000000E-02      1.659609000000000E+02      5.699463000000000E-01     -1.603437000000000E+02
5060000000.000000      7.085419000000000E-02      1.515625000000000E+02      6.524353000000000E-01     -1.717656000000000E+02
5080000000.000000      4.000092000000000E-02      1.273086000000000E+02      7.189331000000000E-01      1.759766000000000E+02
5100000000.000000      1.388264000000000E-02      3.993164000000000E+01      7.567749000000000E-01      1.623047000000000E+02
5120000000.000000      4.196358000000000E-02     -5.416406000000000E+01      7.528687000000000E-01      1.481953000000000E+02
5140000000.000000      7.391739000000000E-02     -8.866405000000000E+01      7.030334000000000E-01      1.343906000000000E+02
5160000000.000000      9.758377000000000E-02     -1.185156000000000E+02      6.281433000000000E-01      1.221484000000000E+02
5180000000.000000      1.102676000000000E-01     -1.485703000000000E+02      5.328369000000000E-01      1.108789000000000E+02
5200000000.000000      1.123734000000000E-01      1.790313000000000E+02      4.159088000000000E-01      1.011758000000000E+02
5220000000.000000      1.084137000000000E-01      1.428984000000000E+02      2.830963000000000E-01      9.857422000000000E+01
5240000000.000000      1.064339000000000E-01      1.060820000000000E+02      1.843796000000000E-01      1.155859000000000E+02
5260000000.000000      1.110458000000000E-01      7.245312000000000E+01      1.970825000000000E-01      1.496172000000000E+02
5280000000.000000      1.182518000000000E-01      4.538281000000000E+01      2.971802000000000E-01      1.607578000000000E+02
5300000000.000000      1.256790000000000E-01      2.440136000000000E+01      4.107056000000000E-01      1.581406000000000E+02
5320000000.000000      1.315308000000000E-01      7.888184000000000E+00      5.281982000000000E-01      1.506328000000000E+02
5340000000.000000      1.378021000000000E-01     -6.483398000000000E+00      6.384277000000000E-01      1.386797000000000E+02
5360000000.000000      1.428833000000000E-01     -2.179590000000000E+01      7.069702000000000E-01      1.241367000000000E+02
5380000000.000000      1.392899000000000E-01     -3.919336000000000E+01      7.162781000000000E-01      1.107851000000000E+02
5400000000.000000      1.209908000000000E-01     -5.699023000000000E+01      7.165527000000000E-01      9.899218000000000E+01
5420000000.000000      8.618927000000000E-02     -7.344531000000000E+01      7.053833000000000E-01      8.607031000000000E+01
5440000000.000000      3.252029000000000E-02     -7.749609000000000E+01      6.475220000000000E-01      7.173437000000000E+01
5460000000.000000      4.181671000000000E-02      3.644140000000000E+01      5.384521000000000E-01      5.870117000000000E+01
5480000000.000000      1.111794000000000E-01      2.994824000000000E+01      4.117126000000000E-01      4.952148000000000E+01
5500000000.000000      1.739655000000000E-01      1.503174000000000E+01      2.919159000000000E-01      4.747460000000000E+01
5520000000.000000      2.202530000000000E-01      0.000000000000000E+00      1.953354000000000E-01      5.946484000000000E+01
5540000000.000000      2.524719000000000E-01     -1.367139000000000E+01      1.811829000000000E-01      9.101563000000000E+01
5560000000.000000      2.705536000000000E-01     -2.546679000000000E+01      2.633209000000000E-01      1.088750000000000E+02
5580000000.000000      2.834167000000000E-01     -3.536133000000000E+01      3.856964000000000E-01      1.086953000000000E+02
5600000000.000000      2.952271000000000E-01     -4.408789000000000E+01      5.063477000000000E-01      9.970703000000000E+01
5620000000.000000      3.060913000000000E-01     -5.312304000000000E+01      5.947266000000000E-01      8.714062000000000E+01
5640000000.000000      3.097839000000000E-01     -6.279101000000000E+01      6.468201000000000E-01      7.526562000000000E+01
5660000000.000000      3.011475000000000E-01     -7.348827000000000E+01      6.842041000000000E-01      6.402344000000000E+01
5680000000.000000      2.720032000000000E-01     -8.376562000000000E+01      6.983643000000000E-01      5.119335000000000E+01
5700000000.000000      2.250290000000000E-01     -9.113281000000000E+01      6.822510000000000E-01      3.885742000000000E+01
5720000000.000000      1.744614000000000E-01     -9.008204000000000E+01      6.434326000000000E-01      2.622070000000000E+01
5740000000.000000      1.529541000000000E-01     -7.595312000000000E+01      5.649109000000000E-01      1.287695000000000E+01
5760000000.000000      1.808701000000000E-01     -6.412109000000000E+01      4.517822000000000E-01      1.433716000000000E+00
5780000000.000000      2.265930000000000E-01     -6.553124000000000E+01      3.166504000000000E-01     -3.665405000000000E+00
5800000000.000000      2.589264000000000E-01     -7.324219000000000E+01      2.079773000000000E-01      7.212402000000000E+00
5820000000.000000      2.683563000000000E-01     -8.263672000000000E+01      1.898193000000000E-01      3.796875000000000E+01
5840000000.000000      2.594147000000000E-01     -9.103516000000000E+01      2.712555000000000E-01      5.412499000000000E+01
5860000000.000000      2.424088000000000E-01     -9.662109000000000E+01      3.718719000000000E-01      5.425195000000000E+01
5880000000.000000      2.274704000000000E-01     -9.976171000000000E+01      4.779663000000000E-01      4.885742000000000E+01
5900000000.000000      2.204437000000000E-01     -1.020469000000000E+02      5.938721000000000E-01      3.875391000000000E+01
5920000000.000000      2.128296000000000E-01     -1.047461000000000E+02      6.711731000000000E-01      2.471191000000000E+01
5940000000.000000      1.983261000000000E-01     -1.069453000000000E+02      7.004700000000000E-01      1.163428000000000E+01
5960000000.000000      1.803207000000000E-01     -1.052539000000000E+02      7.138672000000000E-01     -1.135742000000000E+00
5980000000.000000      1.681671000000000E-01     -9.789843000000000E+01      6.914673000000000E-01     -1.527002000000000E+01
6000000000.000000      1.835403000000000E-01     -8.842188000000000E+01      6.264954000000000E-01     -2.881445000000000E+01
6020000000.000000      2.180405000000000E-01     -8.664063000000000E+01      5.290833000000000E-01     -4.146680000000000E+01
6040000000.000000      2.537384000000000E-01     -9.177343000000000E+01      3.994141000000000E-01     -4.961719000000000E+01
6060000000.000000      2.783966000000000E-01     -1.006914000000000E+02      2.851868000000000E-01     -4.929882000000000E+01
6080000000.000000      2.885437000000000E-01     -1.107305000000000E+02      2.051468000000000E-01     -3.549414000000000E+01
