! Network Analyzer HP8722D
! Hewlett-Packard
! Data name: Linha & Wilkinson+CNT
! Saver's name: Rodrigo Anjos
! Comments: Teste da utilização de aquisição
continua pelo VNA HP8722D
! Time and date: 29/9/2025 15:54
!              Frequency                     S11                                                   S21                                                   S12                                                   S22
# HZ  S  MA R 50
3000000000.000000      4.249115000000000E-01     -5.534961000000000E+01      2.058563000000000E-01     -1.315078000000000E+02
3020000000.000000      4.474792000000000E-01     -6.969531000000000E+01      3.489990000000000E-01     -1.348203000000000E+02
3040000000.000000      4.524994000000000E-01     -8.262890000000000E+01      4.679108000000000E-01     -1.448437000000000E+02
3060000000.000000      4.447327000000000E-01     -9.480078000000000E+01      5.726013000000000E-01     -1.549609000000000E+02
3080000000.000000      4.296265000000000E-01     -1.060703000000000E+02      6.726074000000000E-01     -1.681484000000000E+02
3100000000.000000      4.089813000000000E-01     -1.171914000000000E+02      7.243042000000000E-01      1.770000000000000E+02
3120000000.000000      3.802490000000000E-01     -1.291641000000000E+02      7.326660000000000E-01      1.636250000000000E+02
3140000000.000000      3.397217000000000E-01     -1.421953000000000E+02      7.251282000000000E-01      1.505703000000000E+02
3160000000.000000      2.792664000000000E-01     -1.561484000000000E+02      6.838684000000000E-01      1.371328000000000E+02
3180000000.000000      1.999817000000000E-01     -1.689375000000000E+02      6.154785000000000E-01      1.246641000000000E+02
3200000000.000000      1.122665000000000E-01     -1.701953000000000E+02      5.209656000000000E-01      1.116836000000000E+02
3220000000.000000      7.847977000000000E-02     -1.249766000000000E+02      3.878784000000000E-01      1.009297000000000E+02
3240000000.000000      1.494598000000000E-01     -1.047500000000000E+02      2.487335000000000E-01      9.953905000000000E+01
3260000000.000000      2.291183000000000E-01     -1.149375000000000E+02      1.474686000000000E-01      1.246601000000000E+02
3280000000.000000      2.872009000000000E-01     -1.306015000000000E+02      2.017822000000000E-01      1.650625000000000E+02
3300000000.000000      3.206482000000000E-01     -1.468750000000000E+02      3.283844000000000E-01      1.697813000000000E+02
3320000000.000000      3.321533000000000E-01     -1.628359000000000E+02      4.614716000000000E-01      1.628047000000000E+02
3340000000.000000      3.289032000000000E-01     -1.782656000000000E+02      5.736084000000000E-01      1.506016000000000E+02
3360000000.000000      3.168793000000000E-01      1.669844000000000E+02      6.462097000000000E-01      1.385547000000000E+02
3380000000.000000      3.007050000000000E-01      1.527109000000000E+02      7.091064000000000E-01      1.271953000000000E+02
3400000000.000000      2.788849000000000E-01      1.379766000000000E+02      7.575073000000000E-01      1.133008000000000E+02
3420000000.000000      2.441101000000000E-01      1.229844000000000E+02      7.488403000000000E-01      9.871874000000000E+01
3440000000.000000      1.914520000000000E-01      1.081484000000000E+02      7.082214000000000E-01      8.566406000000000E+01
3460000000.000000      1.214752000000000E-01      9.741405000000000E+01      6.483154000000000E-01      7.254296000000000E+01
3480000000.000000      4.843521000000000E-02      1.200352000000000E+02      5.518188000000000E-01      5.922265000000000E+01
3500000000.000000      9.055328000000000E-02     -1.742188000000000E+02      4.281769000000000E-01      4.765429000000000E+01
3520000000.000000      1.824417000000000E-01      1.793594000000000E+02      2.812347000000000E-01      4.034180000000000E+01
3540000000.000000      2.626648000000000E-01      1.631250000000000E+02      1.483994000000000E-01      5.761328000000000E+01
3560000000.000000      3.225250000000000E-01      1.460781000000000E+02      1.656799000000000E-01      1.074258000000000E+02
3580000000.000000      3.600464000000000E-01      1.300703000000000E+02      2.924500000000000E-01      1.175781000000000E+02
3600000000.000000      3.761902000000000E-01      1.154609000000000E+02      4.178772000000000E-01      1.106953000000000E+02
3620000000.000000      3.782196000000000E-01      1.028008000000000E+02      5.196228000000000E-01      1.012852000000000E+02
3640000000.000000      3.689423000000000E-01      9.149609000000000E+01      6.200256000000000E-01      9.018358000000000E+01
3660000000.000000      3.526764000000000E-01      8.127733000000000E+01      6.933594000000000E-01      7.609765000000000E+01
3680000000.000000      3.297729000000000E-01      7.201172000000000E+01      7.107544000000000E-01      6.298437000000000E+01
3700000000.000000      2.996521000000000E-01      6.384375000000000E+01      7.207642000000000E-01      5.119726000000000E+01
3720000000.000000      2.561951000000000E-01      5.766796000000000E+01      7.254333000000000E-01      3.696289000000000E+01
3740000000.000000      2.055817000000000E-01      5.836914000000000E+01      6.661987000000000E-01      2.167969000000000E+01
3760000000.000000      1.778107000000000E-01      7.217187000000000E+01      5.684509000000000E-01      7.205566000000000E+00
3780000000.000000      2.109299000000000E-01      8.739061000000000E+01      4.393463000000000E-01     -5.964355000000000E+00
3800000000.000000      2.815704000000000E-01      8.917969000000000E+01      2.843323000000000E-01     -1.344189000000000E+01
3820000000.000000      3.490143000000000E-01      8.285936000000000E+01      1.548538000000000E-01     -9.626770000000000E-01
3840000000.000000      3.999481000000000E-01      7.409374000000000E+01      1.418152000000000E-01      4.720899000000000E+01
3860000000.000000      4.354858000000000E-01      6.547656000000000E+01      2.439041000000000E-01      6.543359000000000E+01
3880000000.000000      4.604950000000000E-01      5.797070000000000E+01      3.740387000000000E-01      6.132030000000000E+01
3900000000.000000      4.898224000000000E-01      5.089257000000000E+01      4.763641000000000E-01      4.782617000000000E+01
3920000000.000000      5.202026000000000E-01      4.324023000000000E+01      5.081787000000000E-01      3.615429000000000E+01
3940000000.000000      5.499268000000000E-01      3.426758000000000E+01      5.392456000000000E-01      2.969141000000000E+01
3960000000.000000      5.597229000000000E-01      2.422070000000000E+01      5.948181000000000E-01      2.027930000000000E+01
3980000000.000000      5.561523000000000E-01      1.378613000000000E+01      5.981140000000000E-01      8.416504000000000E+00
4000000000.000000      5.263977000000000E-01      3.266968000000000E+00      5.806885000000000E-01      1.451538000000000E+00
4020000000.000000      4.855957000000000E-01     -6.668701000000000E+00      5.983887000000000E-01     -6.453125000000000E+00
4040000000.000000      4.270172000000000E-01     -1.558594000000000E+01      5.865173000000000E-01     -1.867969000000000E+01
4060000000.000000      3.511200000000000E-01     -2.188086000000000E+01      5.289612000000000E-01     -2.874218000000000E+01
4080000000.000000      2.759399000000000E-01     -2.195215000000000E+01      4.715118000000000E-01     -3.802539000000000E+01
4100000000.000000      2.287521000000000E-01     -1.131592000000000E+01      3.699036000000000E-01     -4.747460000000000E+01
4120000000.000000      2.406540000000000E-01      1.808594000000000E+00      2.512970000000000E-01     -4.437500000000000E+01
4140000000.000000      2.890930000000000E-01      5.359863000000000E+00      2.026138000000000E-01     -2.036328000000000E+01
4160000000.000000      3.334045000000000E-01      1.093140000000000E+00      2.615967000000000E-01     -2.073669000000000E-01
4180000000.000000      3.616638000000000E-01     -5.657959000000000E+00      3.553009000000000E-01      4.045654000000000E+00
4200000000.000000      3.717651000000000E-01     -1.351904000000000E+01      4.861298000000000E-01      1.564148000000000E+00
4220000000.000000      3.677979000000000E-01     -2.072363000000000E+01      6.421814000000000E-01     -1.080127000000000E+01
4240000000.000000      3.495789000000000E-01     -2.821582000000000E+01      7.214661000000000E-01     -2.750586000000000E+01
4260000000.000000      3.109894000000000E-01     -3.401562000000000E+01      7.436523000000000E-01     -4.173047000000000E+01
4280000000.000000      2.606812000000000E-01     -3.545703000000000E+01      7.513733000000000E-01     -5.532421000000000E+01
4300000000.000000      2.222290000000000E-01     -2.742969000000000E+01      7.166748000000000E-01     -7.056250000000000E+01
4320000000.000000      2.343140000000000E-01     -1.464209000000000E+01      6.340332000000000E-01     -8.493359000000000E+01
4340000000.000000      2.923889000000000E-01     -1.042627000000000E+01      5.189819000000000E-01     -9.777344000000000E+01
4360000000.000000      3.577728000000000E-01     -1.539893000000000E+01      3.845978000000000E-01     -1.068711000000000E+02
4380000000.000000      4.049225000000000E-01     -2.435351000000000E+01      2.519531000000000E-01     -1.083398000000000E+02
4400000000.000000      4.262085000000000E-01     -3.427343000000000E+01      1.538391000000000E-01     -8.610155000000000E+01
4420000000.000000      4.251404000000000E-01     -4.368164000000000E+01      1.855545000000000E-01     -4.582812000000000E+01
4440000000.000000      4.086151000000000E-01     -5.179101000000000E+01      3.079376000000000E-01     -3.612305000000000E+01
4460000000.000000      3.880768000000000E-01     -5.840429000000000E+01      4.508820000000000E-01     -4.324609000000000E+01
4480000000.000000      3.688202000000000E-01     -6.470703000000000E+01      5.591736000000000E-01     -5.520312000000000E+01
4500000000.000000      3.481140000000000E-01     -7.150000000000000E+01      6.408386000000000E-01     -6.651562000000000E+01
4520000000.000000      3.145752000000000E-01     -7.917578000000000E+01      7.153320000000000E-01     -7.953125000000000E+01
4540000000.000000      2.633972000000000E-01     -8.554296000000000E+01      7.425537000000000E-01     -9.416796000000000E+01
4560000000.000000      2.022324000000000E-01     -8.401562000000000E+01      7.312622000000000E-01     -1.074336000000000E+02
4580000000.000000      1.738205000000000E-01     -6.836719000000000E+01      6.937256000000000E-01     -1.211992000000000E+02
4600000000.000000      2.102737000000000E-01     -5.389453000000000E+01      6.095886000000000E-01     -1.344063000000000E+02
4620000000.000000      2.759094000000000E-01     -5.498828000000000E+01      5.011292000000000E-01     -1.450625000000000E+02
4640000000.000000      3.301544000000000E-01     -6.477734000000000E+01      3.822784000000000E-01     -1.533359000000000E+02
4660000000.000000      3.545074000000000E-01     -7.810937000000000E+01      2.485580000000000E-01     -1.521172000000000E+02
4680000000.000000      3.466949000000000E-01     -9.212891000000000E+01      1.790543000000000E-01     -1.242070000000000E+02
4700000000.000000      3.103485000000000E-01     -1.053906000000000E+02      2.460556000000000E-01     -9.675781000000000E+01
4720000000.000000      2.544098000000000E-01     -1.160820000000000E+02      3.644714000000000E-01     -9.528906000000000E+01
4740000000.000000      1.924438000000000E-01     -1.216250000000000E+02      4.727936000000000E-01     -1.015351000000000E+02
4760000000.000000      1.396790000000000E-01     -1.180391000000000E+02      5.778503000000000E-01     -1.103281000000000E+02
4780000000.000000      1.121292000000000E-01     -1.021758000000000E+02      6.676025000000000E-01     -1.224336000000000E+02
4800000000.000000      1.168900000000000E-01     -8.392187000000000E+01      7.159424000000000E-01     -1.353281000000000E+02
4820000000.000000      1.452637000000000E-01     -7.406640000000000E+01      7.366943000000000E-01     -1.486328000000000E+02
4840000000.000000      1.858444000000000E-01     -7.351563000000000E+01      7.202759000000000E-01     -1.616250000000000E+02
4860000000.000000      2.297592000000000E-01     -7.992578000000000E+01      6.860046000000000E-01     -1.740078000000000E+02
4880000000.000000      2.676697000000000E-01     -9.046484000000000E+01      6.179810000000000E-01      1.722656000000000E+02
4900000000.000000      2.935638000000000E-01     -1.038789000000000E+02      4.973755000000000E-01      1.599609000000000E+02
4920000000.000000      3.003693000000000E-01     -1.190156000000000E+02      3.684998000000000E-01      1.537422000000000E+02
4940000000.000000      2.854919000000000E-01     -1.346250000000000E+02      2.539673000000000E-01      1.556641000000000E+02
4960000000.000000      2.556915000000000E-01     -1.499063000000000E+02      1.775131000000000E-01      1.764688000000000E+02
4980000000.000000      2.133179000000000E-01     -1.642422000000000E+02      2.121658000000000E-01     -1.515859000000000E+02
5000000000.000000      1.692810000000000E-01     -1.758984000000000E+02      3.278503000000000E-01     -1.435313000000000E+02
5020000000.000000      1.314316000000000E-01      1.740703000000000E+02      4.588470000000000E-01     -1.494766000000000E+02
5040000000.000000      1.005859000000000E-01      1.636641000000000E+02      5.671692000000000E-01     -1.602109000000000E+02
5060000000.000000      7.311249000000000E-02      1.488281000000000E+02      6.506042000000000E-01     -1.716797000000000E+02
5080000000.000000      4.264832000000000E-02      1.235273000000000E+02      7.174683000000000E-01      1.761875000000000E+02
5100000000.000000      1.730156000000000E-02      4.593359000000000E+01      7.573242000000000E-01      1.625078000000000E+02
5120000000.000000      4.042244000000000E-02     -4.952734000000000E+01      7.539063000000000E-01      1.481328000000000E+02
5140000000.000000      7.216263000000000E-02     -8.651171000000000E+01      7.069397000000000E-01      1.345234000000000E+02
5160000000.000000      9.624100000000000E-02     -1.183242000000000E+02      6.305847000000000E-01      1.222227000000000E+02
5180000000.000000      1.094131000000000E-01     -1.487422000000000E+02      5.371094000000000E-01      1.109492000000000E+02
5200000000.000000      1.128159000000000E-01      1.784688000000000E+02      4.189453000000000E-01      1.012539000000000E+02
5220000000.000000      1.101456000000000E-01      1.428828000000000E+02      2.856903000000000E-01      9.805468000000000E+01
5240000000.000000      1.090164000000000E-01      1.066523000000000E+02      1.846466000000000E-01      1.145195000000000E+02
5260000000.000000      1.131096000000000E-01      7.305078000000000E+01      1.942444000000000E-01      1.489375000000000E+02
5280000000.000000      1.202812000000000E-01      4.638281000000000E+01      2.940063000000000E-01      1.606719000000000E+02
5300000000.000000      1.275177000000000E-01      2.560156000000000E+01      4.076843000000000E-01      1.583203000000000E+02
5320000000.000000      1.335144000000000E-01      8.774902000000000E+00      5.260925000000000E-01      1.507969000000000E+02
5340000000.000000      1.390533000000000E-01     -5.373779000000000E+00      6.380615000000000E-01      1.388203000000000E+02
5360000000.000000      1.434937000000000E-01     -2.107617000000000E+01      7.043457000000000E-01      1.244414000000000E+02
5380000000.000000      1.391907000000000E-01     -3.839062000000000E+01      7.182922000000000E-01      1.109297000000000E+02
5400000000.000000      1.206474000000000E-01     -5.680664000000000E+01      7.192078000000000E-01      9.919922000000000E+01
5420000000.000000      8.551025000000000E-02     -7.388672000000000E+01      7.064514000000000E-01      8.622265000000000E+01
5440000000.000000      3.158951000000000E-02     -7.964453000000000E+01      6.502991000000000E-01      7.178515000000000E+01
5460000000.000000      4.202461000000000E-02      3.904297000000000E+01      5.435486000000000E-01      5.876953000000000E+01
5480000000.000000      1.115112000000000E-01      3.140625000000000E+01      4.175262000000000E-01      4.935156000000000E+01
5500000000.000000      1.743164000000000E-01      1.613965000000000E+01      2.952728000000000E-01      4.712695000000000E+01
5520000000.000000      2.199783000000000E-01      1.073914000000000E+00      1.961823000000000E-01      5.834179000000000E+01
5540000000.000000      2.510834000000000E-01     -1.291309000000000E+01      1.797104000000000E-01      9.023829000000000E+01
5560000000.000000      2.703552000000000E-01     -2.471875000000000E+01      2.604370000000000E-01      1.087461000000000E+02
5580000000.000000      2.826233000000000E-01     -3.477930000000000E+01      3.825226000000000E-01      1.086680000000000E+02
5600000000.000000      2.938995000000000E-01     -4.363867000000000E+01      5.054321000000000E-01      9.988281000000000E+01
5620000000.000000      3.048706000000000E-01     -5.282227000000000E+01      5.946655000000000E-01      8.736719000000000E+01
5640000000.000000      3.085022000000000E-01     -6.250195000000000E+01      6.461792000000000E-01      7.537499000000000E+01
5660000000.000000      2.989044000000000E-01     -7.325000000000000E+01      6.849365000000000E-01      6.407812000000000E+01
5680000000.000000      2.698212000000000E-01     -8.359375000000000E+01      6.988525000000000E-01      5.137304000000000E+01
5700000000.000000      2.222595000000000E-01     -9.100389000000000E+01      6.849976000000000E-01      3.909375000000000E+01
5720000000.000000      1.716919000000000E-01     -9.001562000000000E+01      6.460876000000000E-01      2.624902000000000E+01
5740000000.000000      1.490021000000000E-01     -7.561718000000000E+01      5.695496000000000E-01      1.305859000000000E+01
5760000000.000000      1.773071000000000E-01     -6.362109000000000E+01      4.541779000000000E-01      1.215332000000000E+00
5780000000.000000      2.238617000000000E-01     -6.507030000000000E+01      3.197784000000000E-01     -4.147461000000000E+00
5800000000.000000      2.567902000000000E-01     -7.281250000000000E+01      2.096481000000000E-01      6.407715000000000E+00
5820000000.000000      2.668457000000000E-01     -8.228125000000000E+01      1.878128000000000E-01      3.690820000000000E+01
5840000000.000000      2.577057000000000E-01     -9.076952000000000E+01      2.687073000000000E-01      5.393555000000000E+01
5860000000.000000      2.393875000000000E-01     -9.641405000000000E+01      3.693237000000000E-01      5.423828000000000E+01
5880000000.000000      2.241745000000000E-01     -9.963671000000000E+01      4.763794000000000E-01      4.891796000000000E+01
5900000000.000000      2.164154000000000E-01     -1.021641000000000E+02      5.915527000000000E-01      3.879687000000000E+01
5920000000.000000      2.087250000000000E-01     -1.048945000000000E+02      6.719055000000000E-01      2.480566000000000E+01
5940000000.000000      1.956329000000000E-01     -1.070547000000000E+02      7.018127000000000E-01      1.155029000000000E+01
5960000000.000000      1.774979000000000E-01     -1.052851000000000E+02      7.151489000000000E-01     -1.212646000000000E+00
5980000000.000000      1.651382000000000E-01     -9.783592000000000E+01      6.937561000000000E-01     -1.511475000000000E+01
6000000000.000000      1.808014000000000E-01     -8.848436000000000E+01      6.305542000000000E-01     -2.884668000000000E+01
6020000000.000000      2.152557000000000E-01     -8.629686000000000E+01      5.331726000000000E-01     -4.148046000000000E+01
6040000000.000000      2.511749000000000E-01     -9.142969000000000E+01      4.028168000000000E-01     -4.973827000000000E+01
6060000000.000000      2.749023000000000E-01     -1.005078000000000E+02      2.883148000000000E-01     -4.984570000000000E+01
6080000000.000000      2.850342000000000E-01     -1.109101000000000E+02      2.066650000000000E-01     -3.650195000000000E+01
