! Network Analyzer HP8722D
! Hewlett-Packard
! Data name: Linha & Wilkinson+CNT
! Saver's name: Rodrigo Anjos
! Comments: Teste da utilização de aquisição
continua pelo VNA HP8722D
! Time and date: 29/9/2025 11:59
!              Frequency                     S11                                                   S21                                                   S12                                                   S22
# HZ  S  MA R 50
3000000000.000000      4.233704000000000E-01     -5.662109000000000E+01      2.088699000000000E-01     -1.313672000000000E+02
3020000000.000000      4.472809000000000E-01     -7.054688000000000E+01      3.515778000000000E-01     -1.350547000000000E+02
3040000000.000000      4.532318000000000E-01     -8.354296000000000E+01      4.688263000000000E-01     -1.450703000000000E+02
3060000000.000000      4.462433000000000E-01     -9.540625000000000E+01      5.717773000000000E-01     -1.552422000000000E+02
3080000000.000000      4.304657000000000E-01     -1.065859000000000E+02      6.727600000000000E-01     -1.684375000000000E+02
3100000000.000000      4.104767000000000E-01     -1.176601000000000E+02      7.231750000000000E-01      1.768516000000000E+02
3120000000.000000      3.822174000000000E-01     -1.296484000000000E+02      7.308655000000000E-01      1.634766000000000E+02
3140000000.000000      3.417206000000000E-01     -1.425781000000000E+02      7.222595000000000E-01      1.504453000000000E+02
3160000000.000000      2.814941000000000E-01     -1.563047000000000E+02      6.828613000000000E-01      1.369922000000000E+02
3180000000.000000      2.019577000000000E-01     -1.686875000000000E+02      6.118164000000000E-01      1.243984000000000E+02
3200000000.000000      1.141129000000000E-01     -1.686563000000000E+02      5.171509000000000E-01      1.116445000000000E+02
3220000000.000000      8.339310000000000E-02     -1.245117000000000E+02      3.839722000000000E-01      1.008164000000000E+02
3240000000.000000      1.541290000000000E-01     -1.057070000000000E+02      2.451782000000000E-01      9.992968000000000E+01
3260000000.000000      2.334747000000000E-01     -1.157656000000000E+02      1.473389000000000E-01      1.261914000000000E+02
3280000000.000000      2.912445000000000E-01     -1.311875000000000E+02      2.048645000000000E-01      1.655703000000000E+02
3300000000.000000      3.240662000000000E-01     -1.473203000000000E+02      3.315125000000000E-01      1.696094000000000E+02
3320000000.000000      3.356323000000000E-01     -1.629688000000000E+02      4.643402000000000E-01      1.625703000000000E+02
3340000000.000000      3.314819000000000E-01     -1.782031000000000E+02      5.767517000000000E-01      1.504062000000000E+02
3360000000.000000      3.198853000000000E-01      1.670703000000000E+02      6.491394000000000E-01      1.383672000000000E+02
3380000000.000000      3.019257000000000E-01      1.530000000000000E+02      7.089233000000000E-01      1.270469000000000E+02
3400000000.000000      2.788391000000000E-01      1.383906000000000E+02      7.580872000000000E-01      1.132851000000000E+02
3420000000.000000      2.427597000000000E-01      1.234258000000000E+02      7.491150000000000E-01      9.829296000000000E+01
3440000000.000000      1.885300000000000E-01      1.088672000000000E+02      7.052307000000000E-01      8.546484000000000E+01
3460000000.000000      1.176567000000000E-01      9.871874000000000E+01      6.456909000000000E-01      7.235937000000000E+01
3480000000.000000      4.750061000000000E-02      1.262773000000000E+02      5.475769000000000E-01      5.897655000000000E+01
3500000000.000000      9.621811000000000E-02     -1.733359000000000E+02      4.226379000000000E-01      4.764844000000000E+01
3520000000.000000      1.873627000000000E-01      1.795391000000000E+02      2.769318000000000E-01      4.079492000000000E+01
3540000000.000000      2.663116000000000E-01      1.632813000000000E+02      1.473083000000000E-01      5.912695000000000E+01
3560000000.000000      3.245850000000000E-01      1.462656000000000E+02      1.685562000000000E-01      1.080547000000000E+02
3580000000.000000      3.597717000000000E-01      1.302031000000000E+02      2.960815000000000E-01      1.175547000000000E+02
3600000000.000000      3.750305000000000E-01      1.155664000000000E+02      4.209900000000000E-01      1.105508000000000E+02
3620000000.000000      3.768616000000000E-01      1.028477000000000E+02      5.232544000000000E-01      1.011406000000000E+02
3640000000.000000      3.668213000000000E-01      9.155859000000000E+01      6.224060000000000E-01      9.000780000000000E+01
3660000000.000000      3.504181000000000E-01      8.126171000000000E+01      6.942749000000000E-01      7.580078000000000E+01
3680000000.000000      3.273468000000000E-01      7.196484000000000E+01      7.117004000000000E-01      6.245703000000000E+01
3700000000.000000      2.959900000000000E-01      6.369335000000000E+01      7.210388000000000E-01      5.083593000000000E+01
3720000000.000000      2.516479000000000E-01      5.762304000000000E+01      7.221069000000000E-01      3.670703000000000E+01
3740000000.000000      2.011795000000000E-01      5.858593000000000E+01      6.622314000000000E-01      2.133105000000000E+01
3760000000.000000      1.755219000000000E-01      7.295312000000000E+01      5.648193000000000E-01      6.840332000000000E+00
3780000000.000000      2.106247000000000E-01      8.794140000000000E+01      4.332581000000000E-01     -6.173096000000000E+00
3800000000.000000      2.817841000000000E-01      8.921484000000000E+01      2.801819000000000E-01     -1.329932000000000E+01
3820000000.000000      3.491669000000000E-01      8.262890000000000E+01      1.532440000000000E-01      3.309631000000000E-01
3840000000.000000      3.990784000000000E-01      7.385937000000000E+01      1.446381000000000E-01      4.830664000000000E+01
3860000000.000000      4.337158000000000E-01      6.525781000000000E+01      2.481003000000000E-01      6.528906000000000E+01
3880000000.000000      4.585571000000000E-01      5.767773000000000E+01      3.779907000000000E-01      6.103710000000000E+01
3900000000.000000      4.875183000000000E-01      5.049414000000000E+01      4.788208000000000E-01      4.748242000000000E+01
3920000000.000000      5.194397000000000E-01      4.256640000000000E+01      5.093689000000000E-01      3.586914000000000E+01
3940000000.000000      5.461121000000000E-01      3.381445000000000E+01      5.389404000000000E-01      2.931250000000000E+01
3960000000.000000      5.574036000000000E-01      2.377148000000000E+01      5.949097000000000E-01      1.987012000000000E+01
3980000000.000000      5.517883000000000E-01      1.306250000000000E+01      5.977478000000000E-01      8.037598000000000E+00
4000000000.000000      5.256958000000000E-01      2.710815000000000E+00      5.806274000000000E-01      1.337585000000000E+00
4020000000.000000      4.820404000000000E-01     -7.293701000000000E+00      5.964661000000000E-01     -6.674316000000000E+00
4040000000.000000      4.235535000000000E-01     -1.612109000000000E+01      5.836487000000000E-01     -1.889941000000000E+01
4060000000.000000      3.475189000000000E-01     -2.228808000000000E+01      5.270996000000000E-01     -2.897461000000000E+01
4080000000.000000      2.727814000000000E-01     -2.216015000000000E+01      4.663849000000000E-01     -3.819726000000000E+01
4100000000.000000      2.282639000000000E-01     -1.152197000000000E+01      3.650055000000000E-01     -4.746484000000000E+01
4120000000.000000      2.413406000000000E-01      1.263428000000000E+00      2.486038000000000E-01     -4.379296000000000E+01
4140000000.000000      2.903137000000000E-01      4.612793000000000E+00      2.034454000000000E-01     -1.945898000000000E+01
4160000000.000000      3.338470000000000E-01      3.790283000000000E-01      2.653046000000000E-01      4.257202000000000E-02
4180000000.000000      3.618927000000000E-01     -6.412109000000000E+00      3.594360000000000E-01      3.816284000000000E+00
4200000000.000000      3.707275000000000E-01     -1.420703000000000E+01      4.887238000000000E-01      1.201599000000000E+00
4220000000.000000      3.664093000000000E-01     -2.134668000000000E+01      6.424561000000000E-01     -1.116357000000000E+01
4240000000.000000      3.469696000000000E-01     -2.887109000000000E+01      7.221680000000000E-01     -2.793066000000000E+01
4260000000.000000      3.087769000000000E-01     -3.461328000000000E+01      7.431335000000000E-01     -4.201757000000000E+01
4280000000.000000      2.589417000000000E-01     -3.584765000000000E+01      7.496643000000000E-01     -5.582617000000000E+01
4300000000.000000      2.229385000000000E-01     -2.766113000000000E+01      7.117615000000000E-01     -7.089062000000000E+01
4320000000.000000      2.368393000000000E-01     -1.499658000000000E+01      6.298828000000000E-01     -8.521484000000000E+01
4340000000.000000      2.946777000000000E-01     -1.110449000000000E+01      5.137939000000000E-01     -9.792578000000000E+01
4360000000.000000      3.596191000000000E-01     -1.612012000000000E+01      3.789215000000000E-01     -1.068555000000000E+02
4380000000.000000      4.057312000000000E-01     -2.508789000000000E+01      2.475815000000000E-01     -1.077226000000000E+02
4400000000.000000      4.261169000000000E-01     -3.494531000000000E+01      1.532211000000000E-01     -8.423046000000000E+01
4420000000.000000      4.254608000000000E-01     -4.437109000000000E+01      1.894073000000000E-01     -4.525976000000000E+01
4440000000.000000      4.076233000000000E-01     -5.242773000000000E+01      3.119965000000000E-01     -3.621094000000000E+01
4460000000.000000      3.887482000000000E-01     -5.900585000000000E+01      4.533691000000000E-01     -4.336523000000000E+01
4480000000.000000      3.682861000000000E-01     -6.505077000000000E+01      5.620117000000000E-01     -5.547461000000000E+01
4500000000.000000      3.475952000000000E-01     -7.180859000000000E+01      6.420898000000000E-01     -6.691406000000000E+01
4520000000.000000      3.139191000000000E-01     -7.933203000000000E+01      7.162476000000000E-01     -7.980469000000000E+01
4540000000.000000      2.630768000000000E-01     -8.525000000000000E+01      7.399597000000000E-01     -9.441015000000000E+01
4560000000.000000      2.030869000000000E-01     -8.333984000000000E+01      7.270813000000000E-01     -1.078320000000000E+02
4580000000.000000      1.775742000000000E-01     -6.778125000000000E+01      6.896362000000000E-01     -1.215547000000000E+02
4600000000.000000      2.152863000000000E-01     -5.428515000000000E+01      6.027832000000000E-01     -1.347812000000000E+02
4620000000.000000      2.800751000000000E-01     -5.587109000000000E+01      4.957733000000000E-01     -1.450469000000000E+02
4640000000.000000      3.334656000000000E-01     -6.557422000000000E+01      3.768463000000000E-01     -1.533750000000000E+02
4660000000.000000      3.570862000000000E-01     -7.873047000000000E+01      2.445145000000000E-01     -1.512500000000000E+02
4680000000.000000      3.481598000000000E-01     -9.247265000000000E+01      1.794968000000000E-01     -1.227773000000000E+02
4700000000.000000      3.109589000000000E-01     -1.055078000000000E+02      2.498550000000000E-01     -9.633202000000000E+01
4720000000.000000      2.541351000000000E-01     -1.159766000000000E+02      3.690948000000000E-01     -9.542578000000000E+01
4740000000.000000      1.915588000000000E-01     -1.209375000000000E+02      4.762878000000000E-01     -1.017070000000000E+02
4760000000.000000      1.404266000000000E-01     -1.165625000000000E+02      5.802917000000000E-01     -1.104648000000000E+02
4780000000.000000      1.148987000000000E-01     -1.006953000000000E+02      6.669006000000000E-01     -1.230312000000000E+02
4800000000.000000      1.221962000000000E-01     -8.342577000000000E+01      7.171326000000000E-01     -1.357578000000000E+02
4820000000.000000      1.510391000000000E-01     -7.437890000000000E+01      7.348938000000000E-01     -1.490469000000000E+02
4840000000.000000      1.924133000000000E-01     -7.419140000000000E+01      7.161560000000000E-01     -1.618750000000000E+02
4860000000.000000      2.354126000000000E-01     -8.069139000000000E+01      6.826172000000000E-01     -1.744531000000000E+02
4880000000.000000      2.718048000000000E-01     -9.096874000000000E+01      6.123962000000000E-01      1.719453000000000E+02
4900000000.000000      2.965851000000000E-01     -1.043633000000000E+02      4.943390000000000E-01      1.597344000000000E+02
4920000000.000000      3.013611000000000E-01     -1.192070000000000E+02      3.631134000000000E-01      1.536094000000000E+02
4940000000.000000      2.859192000000000E-01     -1.347031000000000E+02      2.507782000000000E-01      1.562422000000000E+02
4960000000.000000      2.551727000000000E-01     -1.497109000000000E+02      1.772232000000000E-01      1.781953000000000E+02
4980000000.000000      2.120667000000000E-01     -1.636328000000000E+02      2.168808000000000E-01     -1.508594000000000E+02
5000000000.000000      1.675339000000000E-01     -1.750000000000000E+02      3.329468000000000E-01     -1.436484000000000E+02
5020000000.000000      1.292877000000000E-01      1.755391000000000E+02      4.622498000000000E-01     -1.497890000000000E+02
5040000000.000000      9.837723000000000E-02      1.658203000000000E+02      5.711670000000000E-01     -1.604766000000000E+02
5060000000.000000      6.983566000000000E-02      1.519140000000000E+02      6.526794000000000E-01     -1.720781000000000E+02
5080000000.000000      3.902626000000000E-02      1.261055000000000E+02      7.192993000000000E-01      1.758047000000000E+02
5100000000.000000      1.375198000000000E-02      3.384570000000000E+01      7.548218000000000E-01      1.620703000000000E+02
5120000000.000000      4.241371000000000E-02     -5.502930000000000E+01      7.528381000000000E-01      1.479141000000000E+02
5140000000.000000      7.432175000000000E-02     -8.890625000000000E+01      7.017517000000000E-01      1.343750000000000E+02
5160000000.000000      9.806442000000000E-02     -1.186992000000000E+02      6.250916000000000E-01      1.220430000000000E+02
5180000000.000000      1.096153000000000E-01     -1.490000000000000E+02      5.299377000000000E-01      1.107187000000000E+02
5200000000.000000      1.114006000000000E-01      1.786797000000000E+02      4.133301000000000E-01      1.012891000000000E+02
5220000000.000000      1.071510000000000E-01      1.424375000000000E+02      2.816315000000000E-01      9.864843000000000E+01
5240000000.000000      1.065331000000000E-01      1.056289000000000E+02      1.836090000000000E-01      1.160273000000000E+02
5260000000.000000      1.103325000000000E-01      7.162109000000000E+01      1.982803000000000E-01      1.497656000000000E+02
5280000000.000000      1.180878000000000E-01      4.487890000000000E+01      2.984009000000000E-01      1.606484000000000E+02
5300000000.000000      1.253281000000000E-01      2.391992000000000E+01      4.121399000000000E-01      1.579609000000000E+02
5320000000.000000      1.316986000000000E-01      7.474609000000000E+00      5.289612000000000E-01      1.503515000000000E+02
5340000000.000000      1.381073000000000E-01     -6.679688000000000E+00      6.392517000000000E-01      1.382656000000000E+02
5360000000.000000      1.432419000000000E-01     -2.216699000000000E+01      7.075806000000000E-01      1.238320000000000E+02
5380000000.000000      1.397400000000000E-01     -3.934375000000000E+01      7.178345000000000E-01      1.107617000000000E+02
5400000000.000000      1.207085000000000E-01     -5.704296000000000E+01      7.155151000000000E-01      9.887499000000000E+01
5420000000.000000      8.574295000000000E-02     -7.373828000000000E+01      7.013855000000000E-01      8.596094000000000E+01
5440000000.000000      3.198242000000000E-02     -7.623437000000000E+01      6.454468000000000E-01      7.148438000000000E+01
5460000000.000000      4.271889000000000E-02      3.530468000000000E+01      5.361633000000000E-01      5.846093000000000E+01
5480000000.000000      1.123695000000000E-01      2.952637000000000E+01      4.104004000000000E-01      4.951757000000000E+01
5500000000.000000      1.745529000000000E-01      1.456885000000000E+01      2.908325000000000E-01      4.756445000000000E+01
5520000000.000000      2.207794000000000E-01     -3.364563000000000E-01      1.944809000000000E-01      5.969336000000000E+01
5540000000.000000      2.525635000000000E-01     -1.398291000000000E+01      1.822586000000000E-01      9.148046000000000E+01
5560000000.000000      2.709351000000000E-01     -2.573828000000000E+01      2.645416000000000E-01      1.088906000000000E+02
5580000000.000000      2.835846000000000E-01     -3.547852000000000E+01      3.865509000000000E-01      1.085000000000000E+02
5600000000.000000      2.954712000000000E-01     -4.425586000000000E+01      5.079346000000000E-01      9.950781000000000E+01
5620000000.000000      3.061371000000000E-01     -5.325781000000000E+01      5.958862000000000E-01      8.692577000000000E+01
5640000000.000000      3.096313000000000E-01     -6.299805000000000E+01      6.454773000000000E-01      7.494531000000000E+01
5660000000.000000      3.001404000000000E-01     -7.357422000000000E+01      6.829834000000000E-01      6.385351000000000E+01
5680000000.000000      2.720490000000000E-01     -8.383204000000000E+01      6.965942000000000E-01      5.106445000000000E+01
5700000000.000000      2.247009000000000E-01     -9.124609000000000E+01      6.814575000000000E-01      3.866601000000000E+01
5720000000.000000      1.748810000000000E-01     -8.965624000000000E+01      6.403503000000000E-01      2.595996000000000E+01
5740000000.000000      1.537781000000000E-01     -7.556641000000000E+01      5.634766000000000E-01      1.273828000000000E+01
5760000000.000000      1.820068000000000E-01     -6.422656000000000E+01      4.486084000000000E-01      1.167297000000000E+00
5780000000.000000      2.278137000000000E-01     -6.569921000000000E+01      3.144379000000000E-01     -3.655762000000000E+00
5800000000.000000      2.589874000000000E-01     -7.343750000000000E+01      2.070847000000000E-01      7.838623000000000E+00
5820000000.000000      2.689972000000000E-01     -8.275391000000000E+01      1.903839000000000E-01      3.815820000000000E+01
5840000000.000000      2.594299000000000E-01     -9.109375000000000E+01      2.729034000000000E-01      5.429492000000000E+01
5860000000.000000      2.413940000000000E-01     -9.644920000000000E+01      3.723907000000000E-01      5.393555000000000E+01
5880000000.000000      2.275620000000000E-01     -9.964844000000000E+01      4.793091000000000E-01      4.864648000000000E+01
5900000000.000000      2.204208000000000E-01     -1.021016000000000E+02      5.952148000000000E-01      3.837695000000000E+01
5920000000.000000      2.130051000000000E-01     -1.048281000000000E+02      6.719971000000000E-01      2.437304000000000E+01
5940000000.000000      1.988602000000000E-01     -1.068711000000000E+02      7.019348000000000E-01      1.126904000000000E+01
5960000000.000000      1.804733000000000E-01     -1.053672000000000E+02      7.116089000000000E-01     -1.348572000000000E+00
5980000000.000000      1.684952000000000E-01     -9.746874000000000E+01      6.884155000000000E-01     -1.542627000000000E+01
6000000000.000000      1.837463000000000E-01     -8.853125000000000E+01      6.253357000000000E-01     -2.909180000000000E+01
6020000000.000000      2.182465000000000E-01     -8.674999000000000E+01      5.249329000000000E-01     -4.158789000000000E+01
6040000000.000000      2.543488000000000E-01     -9.199219000000000E+01      3.967743000000000E-01     -4.967382000000000E+01
6060000000.000000      2.782593000000000E-01     -1.009648000000000E+02      2.833862000000000E-01     -4.909374000000000E+01
6080000000.000000      2.883606000000000E-01     -1.110390000000000E+02      2.046661000000000E-01     -3.519336000000000E+01
