! Network Analyzer HP8722D
! Hewlett-Packard
! Data name: Linha & Wilkinson+CNT
! Saver's name: Rodrigo Anjos
! Comments: Teste da utilização de aquisição
continua pelo VNA HP8722D
! Time and date: 29/9/2025 16:08
!              Frequency                     S11                                                   S21                                                   S12                                                   S22
# HZ  S  MA R 50
3000000000.000000      4.262695000000000E-01     -5.583398000000000E+01      2.095413000000000E-01     -1.313594000000000E+02
3020000000.000000      4.483032000000000E-01     -7.012109000000000E+01      3.524017000000000E-01     -1.350937000000000E+02
3040000000.000000      4.525299000000000E-01     -8.283203000000000E+01      4.692688000000000E-01     -1.451328000000000E+02
3060000000.000000      4.443970000000000E-01     -9.499218000000000E+01      5.735168000000000E-01     -1.552891000000000E+02
3080000000.000000      4.292450000000000E-01     -1.062187000000000E+02      6.742859000000000E-01     -1.686406000000000E+02
3100000000.000000      4.086456000000000E-01     -1.174609000000000E+02      7.253113000000000E-01      1.767969000000000E+02
3120000000.000000      3.793793000000000E-01     -1.293594000000000E+02      7.325439000000000E-01      1.632578000000000E+02
3140000000.000000      3.380737000000000E-01     -1.424062000000000E+02      7.228699000000000E-01      1.503281000000000E+02
3160000000.000000      2.767792000000000E-01     -1.565078000000000E+02      6.813965000000000E-01      1.368828000000000E+02
3180000000.000000      1.980209000000000E-01     -1.689766000000000E+02      6.126709000000000E-01      1.243555000000000E+02
3200000000.000000      1.100311000000000E-01     -1.692500000000000E+02      5.178833000000000E-01      1.115234000000000E+02
3220000000.000000      7.973480000000000E-02     -1.232734000000000E+02      3.830414000000000E-01      1.008086000000000E+02
3240000000.000000      1.519470000000000E-01     -1.049336000000000E+02      2.450104000000000E-01      9.977734000000000E+01
3260000000.000000      2.308655000000000E-01     -1.153867000000000E+02      1.466675000000000E-01      1.262344000000000E+02
3280000000.000000      2.880554000000000E-01     -1.310625000000000E+02      2.052078000000000E-01      1.655703000000000E+02
3300000000.000000      3.205566000000000E-01     -1.473516000000000E+02      3.320465000000000E-01      1.695469000000000E+02
3320000000.000000      3.317719000000000E-01     -1.632344000000000E+02      4.646149000000000E-01      1.623984000000000E+02
3340000000.000000      3.275452000000000E-01     -1.786172000000000E+02      5.757141000000000E-01      1.503750000000000E+02
3360000000.000000      3.164215000000000E-01      1.666875000000000E+02      6.482544000000000E-01      1.382187000000000E+02
3380000000.000000      2.996826000000000E-01      1.524141000000000E+02      7.114868000000000E-01      1.268476000000000E+02
3400000000.000000      2.775116000000000E-01      1.376484000000000E+02      7.576294000000000E-01      1.130898000000000E+02
3420000000.000000      2.424088000000000E-01      1.226914000000000E+02      7.495728000000000E-01      9.834764000000000E+01
3440000000.000000      1.892319000000000E-01      1.079688000000000E+02      7.027893000000000E-01      8.532030000000000E+01
3460000000.000000      1.185379000000000E-01      9.731249000000000E+01      6.453247000000000E-01      7.223046000000000E+01
3480000000.000000      4.765892000000000E-02      1.228164000000000E+02      5.479431000000000E-01      5.874609000000000E+01
3500000000.000000      9.378052000000000E-02     -1.742500000000000E+02      4.220123000000000E-01      4.753906000000000E+01
3520000000.000000      1.850128000000000E-01      1.788203000000000E+02      2.767944000000000E-01      4.061913000000000E+01
3540000000.000000      2.639313000000000E-01      1.624922000000000E+02      1.466370000000000E-01      5.910742000000000E+01
3560000000.000000      3.234863000000000E-01      1.455937000000000E+02      1.689682000000000E-01      1.081641000000000E+02
3580000000.000000      3.602295000000000E-01      1.296094000000000E+02      2.964172000000000E-01      1.174687000000000E+02
3600000000.000000      3.763428000000000E-01      1.150625000000000E+02      4.214325000000000E-01      1.105117000000000E+02
3620000000.000000      3.778992000000000E-01      1.024531000000000E+02      5.218201000000000E-01      1.010195000000000E+02
3640000000.000000      3.680573000000000E-01      9.111328000000000E+01      6.248474000000000E-01      8.972656000000000E+01
3660000000.000000      3.519897000000000E-01      8.105078000000000E+01      6.940002000000000E-01      7.560156000000000E+01
3680000000.000000      3.291931000000000E-01      7.185156000000000E+01      7.102051000000000E-01      6.241796000000000E+01
3700000000.000000      2.983704000000000E-01      6.367188000000000E+01      7.207642000000000E-01      5.098633000000000E+01
3720000000.000000      2.540741000000000E-01      5.760547000000000E+01      7.223511000000000E-01      3.657617000000000E+01
3740000000.000000      2.041473000000000E-01      5.859179000000000E+01      6.619263000000000E-01      2.127832000000000E+01
3760000000.000000      1.782150000000000E-01      7.283984000000000E+01      5.635986000000000E-01      7.040771000000000E+00
3780000000.000000      2.127151000000000E-01      8.764063000000000E+01      4.330750000000000E-01     -6.287109000000000E+00
3800000000.000000      2.835693000000000E-01      8.902344000000000E+01      2.799225000000000E-01     -1.329785000000000E+01
3820000000.000000      3.509674000000000E-01      8.256250000000000E+01      1.520538000000000E-01      4.751587000000000E-01
3840000000.000000      4.013062000000000E-01      7.380468000000000E+01      1.446609000000000E-01      4.846093000000000E+01
3860000000.000000      4.357910000000000E-01      6.526953000000000E+01      2.479324000000000E-01      6.554296000000000E+01
3880000000.000000      4.612274000000000E-01      5.776757000000000E+01      3.774109000000000E-01      6.106835000000000E+01
3900000000.000000      4.901581000000000E-01      5.073242000000000E+01      4.791412000000000E-01      4.755468000000000E+01
3920000000.000000      5.206604000000000E-01      4.307813000000000E+01      5.094604000000000E-01      3.574219000000000E+01
3940000000.000000      5.497437000000000E-01      3.394531000000000E+01      5.389404000000000E-01      2.949121000000000E+01
3960000000.000000      5.591736000000000E-01      2.396094000000000E+01      5.952454000000000E-01      1.989160000000000E+01
3980000000.000000      5.536804000000000E-01      1.352930000000000E+01      5.966797000000000E-01      8.106445000000000E+00
4000000000.000000      5.253906000000000E-01      3.052734000000000E+00      5.797729000000000E-01      1.266174000000000E+00
4020000000.000000      4.832916000000000E-01     -6.810303000000000E+00      5.980225000000000E-01     -6.668701000000000E+00
4040000000.000000      4.241638000000000E-01     -1.567480000000000E+01      5.856323000000000E-01     -1.886914000000000E+01
4060000000.000000      3.481140000000000E-01     -2.170703000000000E+01      5.272827000000000E-01     -2.904590000000000E+01
4080000000.000000      2.741394000000000E-01     -2.162402000000000E+01      4.670410000000000E-01     -3.833203000000000E+01
4100000000.000000      2.284775000000000E-01     -1.091357000000000E+01      3.643951000000000E-01     -4.735937000000000E+01
4120000000.000000      2.423859000000000E-01      1.976135000000000E+00      2.482986000000000E-01     -4.379102000000000E+01
4140000000.000000      2.908630000000000E-01      5.116699000000000E+00      2.036362000000000E-01     -1.939551000000000E+01
4160000000.000000      3.343201000000000E-01      8.651733000000000E-01      2.659149000000000E-01      3.295898000000000E-02
4180000000.000000      3.615723000000000E-01     -5.905273000000000E+00      3.595734000000000E-01      3.849243000000000E+00
4200000000.000000      3.713379000000000E-01     -1.369482000000000E+01      4.904327000000000E-01      1.186523000000000E+00
4220000000.000000      3.672180000000000E-01     -2.080566000000000E+01      6.442871000000000E-01     -1.124219000000000E+01
4240000000.000000      3.482513000000000E-01     -2.837305000000000E+01      7.225342000000000E-01     -2.804199000000000E+01
4260000000.000000      3.093872000000000E-01     -3.408594000000000E+01      7.434387000000000E-01     -4.196094000000000E+01
4280000000.000000      2.588348000000000E-01     -3.518945000000000E+01      7.517700000000000E-01     -5.593163000000000E+01
4300000000.000000      2.221909000000000E-01     -2.692480000000000E+01      7.136841000000000E-01     -7.095312000000000E+01
4320000000.000000      2.367935000000000E-01     -1.425488000000000E+01      6.309509000000000E-01     -8.534374000000000E+01
4340000000.000000      2.947235000000000E-01     -1.051807000000000E+01      5.130615000000000E-01     -9.794922000000000E+01
4360000000.000000      3.596649000000000E-01     -1.570947000000000E+01      3.779144000000000E-01     -1.067148000000000E+02
4380000000.000000      4.058990000000000E-01     -2.471875000000000E+01      2.475739000000000E-01     -1.079219000000000E+02
4400000000.000000      4.267426000000000E-01     -3.467578000000000E+01      1.529007000000000E-01     -8.421875000000000E+01
4420000000.000000      4.249115000000000E-01     -4.398438000000000E+01      1.896286000000000E-01     -4.526757000000000E+01
4440000000.000000      4.083405000000000E-01     -5.199219000000000E+01      3.130951000000000E-01     -3.614648000000000E+01
4460000000.000000      3.870697000000000E-01     -5.845312000000000E+01      4.538879000000000E-01     -4.340429000000000E+01
4480000000.000000      3.686218000000000E-01     -6.470312000000000E+01      5.629272000000000E-01     -5.555664000000000E+01
4500000000.000000      3.462219000000000E-01     -7.173437000000000E+01      6.445923000000000E-01     -6.714844000000000E+01
4520000000.000000      3.125153000000000E-01     -7.942577000000000E+01      7.158203000000000E-01     -8.001562000000000E+01
4540000000.000000      2.609711000000000E-01     -8.556250000000000E+01      7.423706000000000E-01     -9.460938000000000E+01
4560000000.000000      2.003326000000000E-01     -8.367968000000000E+01      7.282104000000000E-01     -1.079023000000000E+02
4580000000.000000      1.744614000000000E-01     -6.733984000000000E+01      6.898499000000000E-01     -1.216758000000000E+02
4600000000.000000      2.128220000000000E-01     -5.368750000000000E+01      6.033020000000000E-01     -1.348516000000000E+02
4620000000.000000      2.775726000000000E-01     -5.519140000000000E+01      4.976349000000000E-01     -1.452422000000000E+02
4640000000.000000      3.308868000000000E-01     -6.520312000000000E+01      3.775940000000000E-01     -1.534922000000000E+02
4660000000.000000      3.543091000000000E-01     -7.851953000000000E+01      2.446518000000000E-01     -1.514219000000000E+02
4680000000.000000      3.453217000000000E-01     -9.245703000000000E+01      1.793976000000000E-01     -1.227969000000000E+02
4700000000.000000      3.078461000000000E-01     -1.056953000000000E+02      2.503815000000000E-01     -9.639843000000000E+01
4720000000.000000      2.515564000000000E-01     -1.161094000000000E+02      3.693237000000000E-01     -9.541796000000000E+01
4740000000.000000      1.901779000000000E-01     -1.213711000000000E+02      4.758453000000000E-01     -1.018906000000000E+02
4760000000.000000      1.382065000000000E-01     -1.171914000000000E+02      5.814514000000000E-01     -1.106641000000000E+02
4780000000.000000      1.122437000000000E-01     -1.011055000000000E+02      6.676636000000000E-01     -1.232851000000000E+02
4800000000.000000      1.181183000000000E-01     -8.353125000000000E+01      7.178345000000000E-01     -1.359062000000000E+02
4820000000.000000      1.474915000000000E-01     -7.404297000000000E+01      7.357483000000000E-01     -1.491797000000000E+02
4840000000.000000      1.882248000000000E-01     -7.373828000000000E+01      7.147827000000000E-01     -1.619922000000000E+02
4860000000.000000      2.311783000000000E-01     -8.033203000000000E+01      6.825562000000000E-01     -1.745703000000000E+02
4880000000.000000      2.691040000000000E-01     -9.090235000000000E+01      6.141052000000000E-01      1.716406000000000E+02
4900000000.000000      2.940979000000000E-01     -1.044375000000000E+02      4.922791000000000E-01      1.596719000000000E+02
4920000000.000000      2.993622000000000E-01     -1.195547000000000E+02      3.638916000000000E-01      1.536172000000000E+02
4940000000.000000      2.849731000000000E-01     -1.352500000000000E+02      2.496185000000000E-01      1.563125000000000E+02
4960000000.000000      2.538147000000000E-01     -1.503281000000000E+02      1.769562000000000E-01      1.782734000000000E+02
4980000000.000000      2.111053000000000E-01     -1.644531000000000E+02      2.167892000000000E-01     -1.507813000000000E+02
5000000000.000000      1.675644000000000E-01     -1.761641000000000E+02      3.334656000000000E-01     -1.436094000000000E+02
5020000000.000000      1.301041000000000E-01      1.738047000000000E+02      4.633179000000000E-01     -1.498984000000000E+02
5040000000.000000      9.946060000000000E-02      1.634531000000000E+02      5.710144000000000E-01     -1.605703000000000E+02
5060000000.000000      7.117844000000000E-02      1.483125000000000E+02      6.520691000000000E-01     -1.721172000000000E+02
5080000000.000000      4.100800000000000E-02      1.220000000000000E+02      7.192078000000000E-01      1.756016000000000E+02
5100000000.000000      1.665688000000000E-02      3.796875000000000E+01      7.566223000000000E-01      1.618594000000000E+02
5120000000.000000      4.189301000000000E-02     -5.234179000000000E+01      7.523804000000000E-01      1.476875000000000E+02
5140000000.000000      7.368088000000000E-02     -8.864843000000000E+01      7.019043000000000E-01      1.340234000000000E+02
5160000000.000000      9.672546000000000E-02     -1.193984000000000E+02      6.264343000000000E-01      1.217930000000000E+02
5180000000.000000      1.100235000000000E-01     -1.501094000000000E+02      5.311279000000000E-01      1.105117000000000E+02
5200000000.000000      1.127625000000000E-01      1.773281000000000E+02      4.132385000000000E-01      1.009883000000000E+02
5220000000.000000      1.098099000000000E-01      1.413594000000000E+02      2.809296000000000E-01      9.849218000000000E+01
5240000000.000000      1.089401000000000E-01      1.052578000000000E+02      1.830521000000000E-01      1.160703000000000E+02
5260000000.000000      1.131172000000000E-01      7.193359000000000E+01      1.985016000000000E-01      1.499375000000000E+02
5280000000.000000      1.204147000000000E-01      4.547656000000000E+01      2.993927000000000E-01      1.606797000000000E+02
5300000000.000000      1.276627000000000E-01      2.496484000000000E+01      4.121857000000000E-01      1.579062000000000E+02
5320000000.000000      1.335831000000000E-01      8.194336000000000E+00      5.299377000000000E-01      1.502734000000000E+02
5340000000.000000      1.391068000000000E-01     -5.990479000000000E+00      6.404724000000000E-01      1.382500000000000E+02
5360000000.000000      1.432190000000000E-01     -2.170215000000000E+01      7.067261000000000E-01      1.236680000000000E+02
5380000000.000000      1.385651000000000E-01     -3.904101000000000E+01      7.183838000000000E-01      1.103555000000000E+02
5400000000.000000      1.192207000000000E-01     -5.751562000000000E+01      7.181702000000000E-01      9.868359000000000E+01
5420000000.000000      8.366394000000000E-02     -7.432031000000000E+01      7.048340000000000E-01      8.570704000000000E+01
5440000000.000000      2.927685000000000E-02     -7.747265000000000E+01      6.460876000000000E-01      7.135156000000000E+01
5460000000.000000      4.467201000000000E-02      3.925195000000000E+01      5.368347000000000E-01      5.821484000000000E+01
5480000000.000000      1.143646000000000E-01      3.075293000000000E+01      4.084320000000000E-01      4.922852000000000E+01
5500000000.000000      1.761246000000000E-01      1.532568000000000E+01      2.899780000000000E-01      4.733984000000000E+01
5520000000.000000      2.215424000000000E-01      3.240967000000000E-01      1.940079000000000E-01      5.973633000000000E+01
5540000000.000000      2.517395000000000E-01     -1.333643000000000E+01      1.828842000000000E-01      9.144922000000000E+01
5560000000.000000      2.697601000000000E-01     -2.516894000000000E+01      2.655029000000000E-01      1.088086000000000E+02
5580000000.000000      2.824860000000000E-01     -3.519726000000000E+01      3.873749000000000E-01      1.084844000000000E+02
5600000000.000000      2.939148000000000E-01     -4.405859000000000E+01      5.094910000000000E-01      9.933983000000000E+01
5620000000.000000      3.046722000000000E-01     -5.318164000000000E+01      5.986328000000000E-01      8.691797000000000E+01
5640000000.000000      3.076630000000000E-01     -6.296484000000000E+01      6.491394000000000E-01      7.494922000000000E+01
5660000000.000000      2.974548000000000E-01     -7.361328000000000E+01      6.850281000000000E-01      6.369922000000000E+01
5680000000.000000      2.674255000000000E-01     -8.386328000000000E+01      6.984863000000000E-01      5.094531000000000E+01
5700000000.000000      2.192078000000000E-01     -9.125391000000000E+01      6.835022000000000E-01      3.837891000000000E+01
5720000000.000000      1.693497000000000E-01     -8.948828000000000E+01      6.418457000000000E-01      2.569629000000000E+01
5740000000.000000      1.504059000000000E-01     -7.485546000000000E+01      5.620728000000000E-01      1.258594000000000E+01
5760000000.000000      1.791992000000000E-01     -6.346484000000000E+01      4.476929000000000E-01      1.061523000000000E+00
5780000000.000000      2.259979000000000E-01     -6.528125000000000E+01      3.137360000000000E-01     -3.805420000000000E+00
5800000000.000000      2.580109000000000E-01     -7.328515000000000E+01      2.064056000000000E-01      7.723389000000000E+00
5820000000.000000      2.665558000000000E-01     -8.262499000000000E+01      1.902847000000000E-01      3.837891000000000E+01
5840000000.000000      2.566376000000000E-01     -9.104687000000000E+01      2.737885000000000E-01      5.415429000000000E+01
5860000000.000000      2.383652000000000E-01     -9.657812000000000E+01      3.747101000000000E-01      5.398632000000000E+01
5880000000.000000      2.239838000000000E-01     -9.981640000000000E+01      4.812317000000000E-01      4.839257000000000E+01
5900000000.000000      2.159348000000000E-01     -1.022070000000000E+02      5.969543000000000E-01      3.812109000000000E+01
5920000000.000000      2.080307000000000E-01     -1.051055000000000E+02      6.733093000000000E-01      2.414355000000000E+01
5940000000.000000      1.940079000000000E-01     -1.069258000000000E+02      7.023010000000000E-01      1.092285000000000E+01
5960000000.000000      1.762543000000000E-01     -1.052148000000000E+02      7.137146000000000E-01     -1.749573000000000E+00
5980000000.000000      1.654510000000000E-01     -9.719139000000000E+01      6.890564000000000E-01     -1.565576000000000E+01
6000000000.000000      1.820221000000000E-01     -8.807421000000000E+01      6.259460000000000E-01     -2.916504000000000E+01
6020000000.000000      2.167664000000000E-01     -8.642187000000000E+01      5.260315000000000E-01     -4.178320000000000E+01
6040000000.000000      2.523804000000000E-01     -9.181250000000000E+01      3.967896000000000E-01     -4.973242000000000E+01
6060000000.000000      2.761688000000000E-01     -1.009219000000000E+02      2.830658000000000E-01     -4.937500000000000E+01
6080000000.000000      2.855225000000000E-01     -1.110820000000000E+02      2.046509000000000E-01     -3.515625000000000E+01
