! Network Analyzer HP8722D
! Hewlett-Packard
! Data name: Linha & Wilkinson+CNT
! Saver's name: Rodrigo Anjos
! Comments: Teste da utilização de aquisição
continua pelo VNA HP8722D
! Time and date: 29/9/2025 12:47
!              Frequency                     S11                                                   S21                                                   S12                                                   S22
# HZ  S  MA R 50
3000000000.000000      4.244080000000000E-01     -5.626953000000000E+01      2.073593000000000E-01     -1.314687000000000E+02
3020000000.000000      4.493256000000000E-01     -7.023438000000000E+01      3.499603000000000E-01     -1.347109000000000E+02
3040000000.000000      4.539185000000000E-01     -8.320313000000000E+01      4.671478000000000E-01     -1.446953000000000E+02
3060000000.000000      4.464417000000000E-01     -9.508204000000000E+01      5.731201000000000E-01     -1.550156000000000E+02
3080000000.000000      4.318390000000000E-01     -1.063281000000000E+02      6.736450000000000E-01     -1.680781000000000E+02
3100000000.000000      4.119720000000000E-01     -1.174023000000000E+02      7.238464000000000E-01      1.770625000000000E+02
3120000000.000000      3.827667000000000E-01     -1.293672000000000E+02      7.323914000000000E-01      1.636641000000000E+02
3140000000.000000      3.423462000000000E-01     -1.422656000000000E+02      7.235413000000000E-01      1.508047000000000E+02
3160000000.000000      2.818756000000000E-01     -1.559375000000000E+02      6.845093000000000E-01      1.372109000000000E+02
3180000000.000000      2.032166000000000E-01     -1.683906000000000E+02      6.141357000000000E-01      1.248359000000000E+02
3200000000.000000      1.150589000000000E-01     -1.688594000000000E+02      5.197144000000000E-01      1.118437000000000E+02
3220000000.000000      8.267212000000000E-02     -1.249180000000000E+02      3.864288000000000E-01      1.010195000000000E+02
3240000000.000000      1.532745000000000E-01     -1.055391000000000E+02      2.472916000000000E-01      9.967968000000000E+01
3260000000.000000      2.327499000000000E-01     -1.152539000000000E+02      1.473312000000000E-01      1.254726000000000E+02
3280000000.000000      2.907104000000000E-01     -1.307891000000000E+02      2.030258000000000E-01      1.654687000000000E+02
3300000000.000000      3.236237000000000E-01     -1.469453000000000E+02      3.296509000000000E-01      1.699375000000000E+02
3320000000.000000      3.355255000000000E-01     -1.626406000000000E+02      4.625092000000000E-01      1.628438000000000E+02
3340000000.000000      3.320923000000000E-01     -1.779219000000000E+02      5.757751000000000E-01      1.506797000000000E+02
3360000000.000000      3.191833000000000E-01      1.674687000000000E+02      6.481323000000000E-01      1.386250000000000E+02
3380000000.000000      3.022766000000000E-01      1.531719000000000E+02      7.106323000000000E-01      1.271484000000000E+02
3400000000.000000      2.791748000000000E-01      1.385781000000000E+02      7.586670000000000E-01      1.135039000000000E+02
3420000000.000000      2.432480000000000E-01      1.236562000000000E+02      7.502747000000000E-01      9.851563000000000E+01
3440000000.000000      1.898880000000000E-01      1.090351000000000E+02      7.056580000000000E-01      8.559765000000000E+01
3460000000.000000      1.186905000000000E-01      9.867188000000000E+01      6.490784000000000E-01      7.264062000000000E+01
3480000000.000000      4.788780000000000E-02      1.244375000000000E+02      5.507202000000000E-01      5.922070000000000E+01
3500000000.000000      9.439087000000000E-02     -1.729453000000000E+02      4.261169000000000E-01      4.777929000000000E+01
3520000000.000000      1.860962000000000E-01      1.799297000000000E+02      2.802124000000000E-01      4.075195000000000E+01
3540000000.000000      2.648468000000000E-01      1.636641000000000E+02      1.477585000000000E-01      5.834374000000000E+01
3560000000.000000      3.238373000000000E-01      1.466406000000000E+02      1.671371000000000E-01      1.077383000000000E+02
3580000000.000000      3.596039000000000E-01      1.304688000000000E+02      2.947083000000000E-01      1.176250000000000E+02
3600000000.000000      3.759918000000000E-01      1.158203000000000E+02      4.193573000000000E-01      1.108008000000000E+02
3620000000.000000      3.774414000000000E-01      1.029258000000000E+02      5.203552000000000E-01      1.013477000000000E+02
3640000000.000000      3.685150000000000E-01      9.181250000000000E+01      6.226501000000000E-01      9.021875000000000E+01
3660000000.000000      3.507996000000000E-01      8.148046000000000E+01      6.933899000000000E-01      7.597656000000000E+01
3680000000.000000      3.281250000000000E-01      7.220312000000000E+01      7.124023000000000E-01      6.283789000000000E+01
3700000000.000000      2.968750000000000E-01      6.376953000000000E+01      7.229004000000000E-01      5.114648000000000E+01
3720000000.000000      2.530365000000000E-01      5.762500000000000E+01      7.250366000000000E-01      3.694531000000000E+01
3740000000.000000      2.020111000000000E-01      5.834961000000000E+01      6.633606000000000E-01      2.157422000000000E+01
3760000000.000000      1.753845000000000E-01      7.255468000000000E+01      5.668640000000000E-01      7.353760000000000E+00
3780000000.000000      2.096558000000000E-01      8.793749000000000E+01      4.368286000000000E-01     -6.006836000000000E+00
3800000000.000000      2.806091000000000E-01      8.941797000000000E+01      2.830811000000000E-01     -1.328662000000000E+01
3820000000.000000      3.482208000000000E-01      8.285936000000000E+01      1.543198000000000E-01     -3.762817000000000E-01
3840000000.000000      3.989410000000000E-01      7.404297000000000E+01      1.429672000000000E-01      4.772851000000000E+01
3860000000.000000      4.334717000000000E-01      6.544140000000000E+01      2.457352000000000E-01      6.545703000000000E+01
3880000000.000000      4.588165000000000E-01      5.780273000000000E+01      3.756409000000000E-01      6.118554000000000E+01
3900000000.000000      4.877777000000000E-01      5.074609000000000E+01      4.774323000000000E-01      4.779882000000000E+01
3920000000.000000      5.197449000000000E-01      4.306250000000000E+01      5.101624000000000E-01      3.608593000000000E+01
3940000000.000000      5.480652000000000E-01      3.403320000000000E+01      5.409241000000000E-01      2.957031000000000E+01
3960000000.000000      5.592651000000000E-01      2.381836000000000E+01      5.964661000000000E-01      2.020508000000000E+01
3980000000.000000      5.530090000000000E-01      1.329883000000000E+01      5.983582000000000E-01      8.327637000000000E+00
4000000000.000000      5.258484000000000E-01      2.879761000000000E+00      5.805359000000000E-01      1.373291000000000E+00
4020000000.000000      4.837189000000000E-01     -7.052002000000000E+00      5.978088000000000E-01     -6.421631000000000E+00
4040000000.000000      4.251404000000000E-01     -1.600195000000000E+01      5.862427000000000E-01     -1.863574000000000E+01
4060000000.000000      3.496246000000000E-01     -2.223437000000000E+01      5.280762000000000E-01     -2.865527000000000E+01
4080000000.000000      2.746887000000000E-01     -2.227539000000000E+01      4.696198000000000E-01     -3.825390000000000E+01
4100000000.000000      2.277756000000000E-01     -1.199707000000000E+01      3.670654000000000E-01     -4.710351000000000E+01
4120000000.000000      2.412415000000000E-01      1.301880000000000E+00      2.498550000000000E-01     -4.400781000000000E+01
4140000000.000000      2.893677000000000E-01      4.663574000000000E+00      2.030640000000000E-01     -2.000488000000000E+01
4160000000.000000      3.333130000000000E-01      6.138611000000000E-01      2.635651000000000E-01     -6.591797000000000E-02
4180000000.000000      3.613434000000000E-01     -6.317139000000000E+00      3.571930000000000E-01      3.880859000000000E+00
4200000000.000000      3.708649000000000E-01     -1.398877000000000E+01      4.876709000000000E-01      1.573792000000000E+00
4220000000.000000      3.673248000000000E-01     -2.122559000000000E+01      6.416016000000000E-01     -1.082324000000000E+01
4240000000.000000      3.477783000000000E-01     -2.869922000000000E+01      7.215576000000000E-01     -2.756250000000000E+01
4260000000.000000      3.099518000000000E-01     -3.453125000000000E+01      7.427368000000000E-01     -4.163086000000000E+01
4280000000.000000      2.602539000000000E-01     -3.585938000000000E+01      7.521362000000000E-01     -5.547852000000000E+01
4300000000.000000      2.235031000000000E-01     -2.780176000000000E+01      7.139587000000000E-01     -7.043359000000000E+01
4320000000.000000      2.355499000000000E-01     -1.505957000000000E+01      6.330566000000000E-01     -8.494921000000000E+01
4340000000.000000      2.935944000000000E-01     -1.097705000000000E+01      5.169983000000000E-01     -9.775000000000000E+01
4360000000.000000      3.590546000000000E-01     -1.589355000000000E+01      3.814545000000000E-01     -1.066094000000000E+02
4380000000.000000      4.053802000000000E-01     -2.484766000000000E+01      2.505798000000000E-01     -1.079766000000000E+02
4400000000.000000      4.272766000000000E-01     -3.481445000000000E+01      1.536102000000000E-01     -8.518749000000000E+01
4420000000.000000      4.261932000000000E-01     -4.409375000000000E+01      1.874771000000000E-01     -4.562109000000000E+01
4440000000.000000      4.096069000000000E-01     -5.220703000000000E+01      3.094940000000000E-01     -3.594922000000000E+01
4460000000.000000      3.891602000000000E-01     -5.884570000000000E+01      4.516144000000000E-01     -4.330468000000000E+01
4480000000.000000      3.694763000000000E-01     -6.512109000000000E+01      5.611877000000000E-01     -5.524804000000000E+01
4500000000.000000      3.480682000000000E-01     -7.173046000000000E+01      6.418457000000000E-01     -6.659374000000000E+01
4520000000.000000      3.153076000000000E-01     -7.923828000000000E+01      7.160339000000000E-01     -7.951953000000000E+01
4540000000.000000      2.641144000000000E-01     -8.532812000000000E+01      7.414856000000000E-01     -9.426952000000000E+01
4560000000.000000      2.039566000000000E-01     -8.366014000000000E+01      7.274170000000000E-01     -1.074180000000000E+02
4580000000.000000      1.770020000000000E-01     -6.805859000000000E+01      6.923828000000000E-01     -1.212187000000000E+02
4600000000.000000      2.137604000000000E-01     -5.436913000000000E+01      6.067200000000000E-01     -1.344297000000000E+02
4620000000.000000      2.790985000000000E-01     -5.551171000000000E+01      4.990387000000000E-01     -1.448594000000000E+02
4640000000.000000      3.331604000000000E-01     -6.528906000000000E+01      3.791656000000000E-01     -1.532500000000000E+02
4660000000.000000      3.571167000000000E-01     -7.838281000000000E+01      2.470016000000000E-01     -1.517656000000000E+02
4680000000.000000      3.492584000000000E-01     -9.220703000000000E+01      1.790390000000000E-01     -1.236211000000000E+02
4700000000.000000      3.122559000000000E-01     -1.053320000000000E+02      2.476349000000000E-01     -9.646873000000000E+01
4720000000.000000      2.561340000000000E-01     -1.157969000000000E+02      3.654785000000000E-01     -9.531641000000000E+01
4740000000.000000      1.933594000000000E-01     -1.209492000000000E+02      4.739685000000000E-01     -1.016445000000000E+02
4760000000.000000      1.414185000000000E-01     -1.169258000000000E+02      5.800476000000000E-01     -1.102734000000000E+02
4780000000.000000      1.153870000000000E-01     -1.012656000000000E+02      6.671753000000000E-01     -1.225469000000000E+02
4800000000.000000      1.214676000000000E-01     -8.375391000000000E+01      7.168274000000000E-01     -1.353984000000000E+02
4820000000.000000      1.495972000000000E-01     -7.456249000000000E+01      7.346191000000000E-01     -1.487109000000000E+02
4840000000.000000      1.905518000000000E-01     -7.426562000000000E+01      7.172241000000000E-01     -1.614844000000000E+02
4860000000.000000      2.336960000000000E-01     -8.049999000000000E+01      6.826477000000000E-01     -1.741250000000000E+02
4880000000.000000      2.713165000000000E-01     -9.074610000000000E+01      6.171570000000000E-01      1.721328000000000E+02
4900000000.000000      2.963257000000000E-01     -1.040781000000000E+02      4.946442000000000E-01      1.598828000000000E+02
4920000000.000000      3.023529000000000E-01     -1.189531000000000E+02      3.660126000000000E-01      1.536016000000000E+02
4940000000.000000      2.878571000000000E-01     -1.343906000000000E+02      2.529297000000000E-01      1.561328000000000E+02
4960000000.000000      2.569275000000000E-01     -1.494531000000000E+02      1.774063000000000E-01      1.773828000000000E+02
4980000000.000000      2.141495000000000E-01     -1.633672000000000E+02      2.146683000000000E-01     -1.510859000000000E+02
5000000000.000000      1.691666000000000E-01     -1.749219000000000E+02      3.297119000000000E-01     -1.433828000000000E+02
5020000000.000000      1.308060000000000E-01      1.756562000000000E+02      4.607086000000000E-01     -1.494922000000000E+02
5040000000.000000      9.997177000000000E-02      1.656484000000000E+02      5.693665000000000E-01     -1.601641000000000E+02
5060000000.000000      7.171631000000000E-02      1.516953000000000E+02      6.516418000000000E-01     -1.715625000000000E+02
5080000000.000000      4.085541000000000E-02      1.272187000000000E+02      7.183838000000000E-01      1.762031000000000E+02
5100000000.000000      1.422739000000000E-02      4.192383000000000E+01      7.581177000000000E-01      1.625859000000000E+02
5120000000.000000      4.110146000000000E-02     -5.295703000000000E+01      7.538452000000000E-01      1.483281000000000E+02
5140000000.000000      7.381821000000000E-02     -8.820313000000000E+01      7.057190000000000E-01      1.344844000000000E+02
5160000000.000000      9.787750000000000E-02     -1.184219000000000E+02      6.308594000000000E-01      1.223984000000000E+02
5180000000.000000      1.105385000000000E-01     -1.483359000000000E+02      5.335999000000000E-01      1.109844000000000E+02
5200000000.000000      1.123009000000000E-01      1.793828000000000E+02      4.183044000000000E-01      1.013672000000000E+02
5220000000.000000      1.083946000000000E-01      1.432969000000000E+02      2.838593000000000E-01      9.833593000000000E+01
5240000000.000000      1.071968000000000E-01      1.065234000000000E+02      1.846695000000000E-01      1.153359000000000E+02
5260000000.000000      1.111069000000000E-01      7.277734000000000E+01      1.965408000000000E-01      1.494844000000000E+02
5280000000.000000      1.180725000000000E-01      4.575585000000000E+01      2.958984000000000E-01      1.606641000000000E+02
5300000000.000000      1.256256000000000E-01      2.451562000000000E+01      4.100037000000000E-01      1.582891000000000E+02
5320000000.000000      1.317368000000000E-01      8.145996000000000E+00      5.281982000000000E-01      1.505859000000000E+02
5340000000.000000      1.380157000000000E-01     -6.116699000000000E+00      6.388245000000000E-01      1.387812000000000E+02
5360000000.000000      1.422958000000000E-01     -2.171777000000000E+01      7.068787000000000E-01      1.244180000000000E+02
5380000000.000000      1.392441000000000E-01     -3.896484000000000E+01      7.185364000000000E-01      1.109922000000000E+02
5400000000.000000      1.212769000000000E-01     -5.695898000000000E+01      7.183228000000000E-01      9.911718000000000E+01
5420000000.000000      8.634949000000000E-02     -7.373437000000000E+01      7.064514000000000E-01      8.625391000000000E+01
5440000000.000000      3.281975000000000E-02     -7.873437000000000E+01      6.491089000000000E-01      7.180859000000000E+01
5460000000.000000      4.133606000000000E-02      3.643750000000000E+01      5.415955000000000E-01      5.874218000000000E+01
5480000000.000000      1.106262000000000E-01      3.045898000000000E+01      4.146576000000000E-01      4.974609000000000E+01
5500000000.000000      1.734085000000000E-01      1.518994000000000E+01      2.936401000000000E-01      4.740820000000000E+01
5520000000.000000      2.199707000000000E-01      2.389526000000000E-01      1.959534000000000E-01      5.905273000000000E+01
5540000000.000000      2.520447000000000E-01     -1.352148000000000E+01      1.810532000000000E-01      9.083593000000000E+01
5560000000.000000      2.702637000000000E-01     -2.520898000000000E+01      2.622223000000000E-01      1.089375000000000E+02
5580000000.000000      2.833252000000000E-01     -3.512304000000000E+01      3.836670000000000E-01      1.088203000000000E+02
5600000000.000000      2.951050000000000E-01     -4.394531000000000E+01      5.064697000000000E-01      9.982422000000000E+01
5620000000.000000      3.060913000000000E-01     -5.305859000000000E+01      5.958862000000000E-01      8.740234000000000E+01
5640000000.000000      3.097839000000000E-01     -6.275195000000000E+01      6.466064000000000E-01      7.553124000000000E+01
5660000000.000000      3.005676000000000E-01     -7.341406000000000E+01      6.844177000000000E-01      6.409374000000000E+01
5680000000.000000      2.724457000000000E-01     -8.367579000000000E+01      6.984558000000000E-01      5.136719000000000E+01
5700000000.000000      2.258606000000000E-01     -9.115234000000000E+01      6.824646000000000E-01      3.908203000000000E+01
5720000000.000000      1.754913000000000E-01     -9.013672000000000E+01      6.430359000000000E-01      2.638476000000000E+01
5740000000.000000      1.528549000000000E-01     -7.606640000000000E+01      5.660706000000000E-01      1.309424000000000E+01
5760000000.000000      1.802902000000000E-01     -6.419140000000000E+01      4.533844000000000E-01      1.430969000000000E+00
5780000000.000000      2.265320000000000E-01     -6.550781000000000E+01      3.173065000000000E-01     -3.702393000000000E+00
5800000000.000000      2.584381000000000E-01     -7.308984000000000E+01      2.086105000000000E-01      7.134033000000000E+00
5820000000.000000      2.685699000000000E-01     -8.248047000000000E+01      1.887589000000000E-01      3.764453000000000E+01
5840000000.000000      2.593994000000000E-01     -9.088671000000000E+01      2.702332000000000E-01      5.421288000000000E+01
5860000000.000000      2.425079000000000E-01     -9.638672000000000E+01      3.711090000000000E-01      5.436132000000000E+01
5880000000.000000      2.277679000000000E-01     -9.958202000000000E+01      4.770508000000000E-01      4.894921000000000E+01
5900000000.000000      2.203522000000000E-01     -1.021914000000000E+02      5.938721000000000E-01      3.872265000000000E+01
5920000000.000000      2.131348000000000E-01     -1.048789000000000E+02      6.718445000000000E-01      2.493555000000000E+01
5940000000.000000      1.986389000000000E-01     -1.070039000000000E+02      7.000122000000000E-01      1.167285000000000E+01
5960000000.000000      1.801453000000000E-01     -1.054805000000000E+02      7.139893000000000E-01     -1.185181000000000E+00
5980000000.000000      1.678925000000000E-01     -9.780468000000000E+01      6.933899000000000E-01     -1.504443000000000E+01
6000000000.000000      1.827621000000000E-01     -8.855078000000000E+01      6.290588000000000E-01     -2.877734000000000E+01
6020000000.000000      2.179871000000000E-01     -8.672266000000000E+01      5.296326000000000E-01     -4.124413000000000E+01
6040000000.000000      2.540588000000000E-01     -9.175781000000000E+01      3.997498000000000E-01     -4.951172000000000E+01
6060000000.000000      2.778168000000000E-01     -1.007813000000000E+02      2.863617000000000E-01     -4.928124000000000E+01
6080000000.000000      2.882996000000000E-01     -1.106836000000000E+02      2.060318000000000E-01     -3.574609000000000E+01
