! Network Analyzer HP8722D
! Hewlett-Packard
! Data name: Linha & Wilkinson+CNT
! Saver's name: Rodrigo Anjos
! Comments: Teste da utilização de aquisição
continua pelo VNA HP8722D
! Time and date: 29/9/2025 12:14
!              Frequency                     S11                                                   S21                                                   S12                                                   S22
# HZ  S  MA R 50
3000000000.000000      4.249878000000000E-01     -5.623241000000000E+01      2.079697000000000E-01     -1.313516000000000E+02
3020000000.000000      4.485474000000000E-01     -7.040625000000000E+01      3.507385000000000E-01     -1.349922000000000E+02
3040000000.000000      4.546661000000000E-01     -8.331640000000000E+01      4.683838000000000E-01     -1.450156000000000E+02
3060000000.000000      4.460144000000000E-01     -9.521484000000000E+01      5.723267000000000E-01     -1.550937000000000E+02
3080000000.000000      4.311066000000000E-01     -1.064570000000000E+02      6.737671000000000E-01     -1.683047000000000E+02
3100000000.000000      4.113770000000000E-01     -1.176563000000000E+02      7.229309000000000E-01      1.769063000000000E+02
3120000000.000000      3.820038000000000E-01     -1.296016000000000E+02      7.313538000000000E-01      1.634844000000000E+02
3140000000.000000      3.417511000000000E-01     -1.423672000000000E+02      7.230835000000000E-01      1.506016000000000E+02
3160000000.000000      2.817230000000000E-01     -1.562656000000000E+02      6.830139000000000E-01      1.371094000000000E+02
3180000000.000000      2.023010000000000E-01     -1.686484000000000E+02      6.127930000000000E-01      1.245117000000000E+02
3200000000.000000      1.148911000000000E-01     -1.688125000000000E+02      5.182800000000000E-01      1.117578000000000E+02
3220000000.000000      8.337021000000000E-02     -1.245742000000000E+02      3.847046000000000E-01      1.010352000000000E+02
3240000000.000000      1.537704000000000E-01     -1.057383000000000E+02      2.462463000000000E-01      9.979687000000000E+01
3260000000.000000      2.332764000000000E-01     -1.156289000000000E+02      1.470413000000000E-01      1.257773000000000E+02
3280000000.000000      2.906494000000000E-01     -1.309531000000000E+02      2.039413000000000E-01      1.655469000000000E+02
3300000000.000000      3.240356000000000E-01     -1.471406000000000E+02      3.305511000000000E-01      1.698125000000000E+02
3320000000.000000      3.358002000000000E-01     -1.629375000000000E+02      4.641266000000000E-01      1.626016000000000E+02
3340000000.000000      3.314972000000000E-01     -1.781641000000000E+02      5.759277000000000E-01      1.506797000000000E+02
3360000000.000000      3.195953000000000E-01      1.672422000000000E+02      6.476440000000000E-01      1.384063000000000E+02
3380000000.000000      3.025970000000000E-01      1.530859000000000E+02      7.093811000000000E-01      1.271094000000000E+02
3400000000.000000      2.788849000000000E-01      1.384766000000000E+02      7.593384000000000E-01      1.133242000000000E+02
3420000000.000000      2.431717000000000E-01      1.234687000000000E+02      7.498474000000000E-01      9.849218000000000E+01
3440000000.000000      1.889725000000000E-01      1.089336000000000E+02      7.056885000000000E-01      8.562109000000000E+01
3460000000.000000      1.182671000000000E-01      9.859764000000000E+01      6.468201000000000E-01      7.251171000000000E+01
3480000000.000000      4.728127000000000E-02      1.254414000000000E+02      5.486450000000000E-01      5.909180000000000E+01
3500000000.000000      9.555817000000000E-02     -1.732656000000000E+02      4.255219000000000E-01      4.767383000000000E+01
3520000000.000000      1.867218000000000E-01      1.796172000000000E+02      2.782593000000000E-01      4.074804000000000E+01
3540000000.000000      2.653656000000000E-01      1.634453000000000E+02      1.473389000000000E-01      5.873047000000000E+01
3560000000.000000      3.237915000000000E-01      1.464219000000000E+02      1.674500000000000E-01      1.079102000000000E+02
3580000000.000000      3.601532000000000E-01      1.302656000000000E+02      2.952423000000000E-01      1.175742000000000E+02
3600000000.000000      3.757782000000000E-01      1.156484000000000E+02      4.202728000000000E-01      1.107148000000000E+02
3620000000.000000      3.772430000000000E-01      1.028281000000000E+02      5.224915000000000E-01      1.011836000000000E+02
3640000000.000000      3.676605000000000E-01      9.158983000000000E+01      6.227112000000000E-01      8.995703000000000E+01
3660000000.000000      3.512268000000000E-01      8.129686000000000E+01      6.942749000000000E-01      7.583593000000000E+01
3680000000.000000      3.275757000000000E-01      7.217968000000000E+01      7.119446000000000E-01      6.274804000000000E+01
3700000000.000000      2.960510000000000E-01      6.371484000000000E+01      7.221680000000000E-01      5.101953000000000E+01
3720000000.000000      2.523956000000000E-01      5.760547000000000E+01      7.239990000000000E-01      3.676953000000000E+01
3740000000.000000      2.019424000000000E-01      5.843750000000000E+01      6.636047000000000E-01      2.133105000000000E+01
3760000000.000000      1.756744000000000E-01      7.272655000000000E+01      5.659790000000000E-01      7.153320000000000E+00
3780000000.000000      2.103195000000000E-01      8.791796000000000E+01      4.347839000000000E-01     -6.089355000000000E+00
3800000000.000000      2.809296000000000E-01      8.922655000000000E+01      2.815552000000000E-01     -1.318799000000000E+01
3820000000.000000      3.485107000000000E-01      8.276953000000000E+01      1.534805000000000E-01     -1.373291000000000E-02
3840000000.000000      3.990021000000000E-01      7.403515000000000E+01      1.442413000000000E-01      4.796679000000000E+01
3860000000.000000      4.342957000000000E-01      6.534374000000000E+01      2.466736000000000E-01      6.526562000000000E+01
3880000000.000000      4.591980000000000E-01      5.771484000000000E+01      3.769379000000000E-01      6.112305000000000E+01
3900000000.000000      4.873962000000000E-01      5.065820000000000E+01      4.784241000000000E-01      4.777929000000000E+01
3920000000.000000      5.176392000000000E-01      4.279297000000000E+01      5.090027000000000E-01      3.606250000000000E+01
3940000000.000000      5.473938000000000E-01      3.395117000000000E+01      5.399780000000000E-01      2.943164000000000E+01
3960000000.000000      5.594788000000000E-01      2.363672000000000E+01      5.946655000000000E-01      2.005957000000000E+01
3980000000.000000      5.523376000000000E-01      1.314063000000000E+01      5.983582000000000E-01      8.229980000000000E+00
4000000000.000000      5.268555000000000E-01      2.804199000000000E+00      5.803223000000000E-01      1.198853000000000E+00
4020000000.000000      4.827271000000000E-01     -7.241455000000000E+00      5.973206000000000E-01     -6.677002000000000E+00
4040000000.000000      4.233551000000000E-01     -1.609668000000000E+01      5.848694000000000E-01     -1.880859000000000E+01
4060000000.000000      3.485107000000000E-01     -2.219433000000000E+01      5.266113000000000E-01     -2.900293000000000E+01
4080000000.000000      2.736664000000000E-01     -2.223828000000000E+01      4.684296000000000E-01     -3.822656000000000E+01
4100000000.000000      2.286835000000000E-01     -1.184326000000000E+01      3.650208000000000E-01     -4.751367000000000E+01
4120000000.000000      2.416000000000000E-01      1.301880000000000E+00      2.490845000000000E-01     -4.390038000000000E+01
4140000000.000000      2.898560000000000E-01      4.614258000000000E+00      2.033310000000000E-01     -1.976172000000000E+01
4160000000.000000      3.335876000000000E-01      4.820251000000000E-01      2.642670000000000E-01     -3.707886000000000E-02
4180000000.000000      3.617249000000000E-01     -6.245850000000000E+00      3.581085000000000E-01      3.891846000000000E+00
4200000000.000000      3.709564000000000E-01     -1.411475000000000E+01      4.881287000000000E-01      1.289490000000000E+00
4220000000.000000      3.665771000000000E-01     -2.137012000000000E+01      6.424561000000000E-01     -1.114990000000000E+01
4240000000.000000      3.475189000000000E-01     -2.886425000000000E+01      7.215576000000000E-01     -2.773730000000000E+01
4260000000.000000      3.091736000000000E-01     -3.455664000000000E+01      7.434082000000000E-01     -4.170703000000000E+01
4280000000.000000      2.596436000000000E-01     -3.584570000000000E+01      7.503967000000000E-01     -5.571875000000000E+01
4300000000.000000      2.226563000000000E-01     -2.757910000000000E+01      7.138062000000000E-01     -7.080859000000000E+01
4320000000.000000      2.364349000000000E-01     -1.506250000000000E+01      6.308289000000000E-01     -8.521484000000000E+01
4340000000.000000      2.942200000000000E-01     -1.099609000000000E+01      5.148621000000000E-01     -9.787889000000000E+01
4360000000.000000      3.593292000000000E-01     -1.599902000000000E+01      3.805695000000000E-01     -1.066445000000000E+02
4380000000.000000      4.056854000000000E-01     -2.501465000000000E+01      2.487030000000000E-01     -1.078359000000000E+02
4400000000.000000      4.263306000000000E-01     -3.497656000000000E+01      1.537781000000000E-01     -8.468359000000000E+01
4420000000.000000      4.249115000000000E-01     -4.425977000000000E+01      1.883392000000000E-01     -4.534765000000000E+01
4440000000.000000      4.093475000000000E-01     -5.233007000000000E+01      3.112030000000000E-01     -3.605078000000000E+01
4460000000.000000      3.881683000000000E-01     -5.887500000000000E+01      4.525757000000000E-01     -4.333203000000000E+01
4480000000.000000      3.699799000000000E-01     -6.519531000000000E+01      5.615540000000000E-01     -5.529882000000000E+01
4500000000.000000      3.473358000000000E-01     -7.174999000000000E+01      6.427002000000000E-01     -6.680859000000000E+01
4520000000.000000      3.144836000000000E-01     -7.929688000000000E+01      7.165222000000000E-01     -7.982422000000000E+01
4540000000.000000      2.636108000000000E-01     -8.535936000000000E+01      7.400513000000000E-01     -9.445313000000000E+01
4560000000.000000      2.034760000000000E-01     -8.346094000000000E+01      7.285461000000000E-01     -1.076250000000000E+02
4580000000.000000      1.773453000000000E-01     -6.797265000000000E+01      6.906433000000000E-01     -1.214687000000000E+02
4600000000.000000      2.150040000000000E-01     -5.433398000000000E+01      6.039734000000000E-01     -1.345703000000000E+02
4620000000.000000      2.794495000000000E-01     -5.562304000000000E+01      4.973755000000000E-01     -1.450938000000000E+02
4640000000.000000      3.329468000000000E-01     -6.548828000000000E+01      3.786163000000000E-01     -1.533750000000000E+02
4660000000.000000      3.575592000000000E-01     -7.856250000000000E+01      2.456131000000000E-01     -1.514609000000000E+02
4680000000.000000      3.490448000000000E-01     -9.236328000000000E+01      1.791840000000000E-01     -1.231406000000000E+02
4700000000.000000      3.111420000000000E-01     -1.053867000000000E+02      2.488556000000000E-01     -9.644920000000000E+01
4720000000.000000      2.550812000000000E-01     -1.158164000000000E+02      3.670807000000000E-01     -9.537109000000000E+01
4740000000.000000      1.926498000000000E-01     -1.208672000000000E+02      4.745636000000000E-01     -1.016602000000000E+02
4760000000.000000      1.407928000000000E-01     -1.168594000000000E+02      5.796509000000000E-01     -1.105898000000000E+02
4780000000.000000      1.153259000000000E-01     -1.010117000000000E+02      6.684265000000000E-01     -1.229140000000000E+02
4800000000.000000      1.215363000000000E-01     -8.389452000000000E+01      7.169800000000000E-01     -1.356641000000000E+02
4820000000.000000      1.503677000000000E-01     -7.442968000000000E+01      7.330322000000000E-01     -1.489531000000000E+02
4840000000.000000      1.913452000000000E-01     -7.444921000000000E+01      7.178040000000000E-01     -1.617812000000000E+02
4860000000.000000      2.348404000000000E-01     -8.052734000000000E+01      6.832886000000000E-01     -1.741797000000000E+02
4880000000.000000      2.716064000000000E-01     -9.104296000000000E+01      6.154785000000000E-01      1.721172000000000E+02
4900000000.000000      2.963409000000000E-01     -1.042656000000000E+02      4.946747000000000E-01      1.600234000000000E+02
4920000000.000000      3.012085000000000E-01     -1.191484000000000E+02      3.648071000000000E-01      1.538359000000000E+02
4940000000.000000      2.871857000000000E-01     -1.345859000000000E+02      2.512817000000000E-01      1.563047000000000E+02
4960000000.000000      2.557373000000000E-01     -1.497344000000000E+02      1.768799000000000E-01      1.777109000000000E+02
4980000000.000000      2.126160000000000E-01     -1.635703000000000E+02      2.156982000000000E-01     -1.508594000000000E+02
5000000000.000000      1.681519000000000E-01     -1.748516000000000E+02      3.311157000000000E-01     -1.434844000000000E+02
5020000000.000000      1.299820000000000E-01      1.755312000000000E+02      4.620667000000000E-01     -1.495625000000000E+02
5040000000.000000      9.921265000000000E-02      1.658984000000000E+02      5.705566000000000E-01     -1.603203000000000E+02
5060000000.000000      7.086945000000000E-02      1.516094000000000E+02      6.518555000000000E-01     -1.718750000000000E+02
5080000000.000000      3.978539000000000E-02      1.267070000000000E+02      7.184448000000000E-01      1.759453000000000E+02
5100000000.000000      1.382351000000000E-02      3.831055000000000E+01      7.562561000000000E-01      1.622187000000000E+02
5120000000.000000      4.167175000000000E-02     -5.428124000000000E+01      7.535400000000000E-01      1.479766000000000E+02
5140000000.000000      7.385254000000000E-02     -8.851563000000000E+01      7.041626000000000E-01      1.343672000000000E+02
5160000000.000000      9.782791000000000E-02     -1.187031000000000E+02      6.279907000000000E-01      1.221836000000000E+02
5180000000.000000      1.101265000000000E-01     -1.487109000000000E+02      5.323486000000000E-01      1.108984000000000E+02
5200000000.000000      1.118736000000000E-01      1.786797000000000E+02      4.155884000000000E-01      1.010820000000000E+02
5220000000.000000      1.081543000000000E-01      1.429531000000000E+02      2.826843000000000E-01      9.855469000000000E+01
5240000000.000000      1.068268000000000E-01      1.059727000000000E+02      1.842499000000000E-01      1.157148000000000E+02
5260000000.000000      1.106224000000000E-01      7.210155000000000E+01      1.975098000000000E-01      1.497031000000000E+02
5280000000.000000      1.184006000000000E-01      4.504102000000000E+01      2.975769000000000E-01      1.606406000000000E+02
5300000000.000000      1.253738000000000E-01      2.431933000000000E+01      4.108582000000000E-01      1.581172000000000E+02
5320000000.000000      1.315002000000000E-01      7.701416000000000E+00      5.284119000000000E-01      1.504766000000000E+02
5340000000.000000      1.377411000000000E-01     -6.711426000000000E+00      6.392517000000000E-01      1.386094000000000E+02
5360000000.000000      1.430511000000000E-01     -2.205957000000000E+01      7.056885000000000E-01      1.240117000000000E+02
5380000000.000000      1.388702000000000E-01     -3.891406000000000E+01      7.161255000000000E-01      1.107891000000000E+02
5400000000.000000      1.207619000000000E-01     -5.690039000000000E+01      7.188721000000000E-01      9.904297000000000E+01
5420000000.000000      8.597565000000000E-02     -7.332031000000000E+01      7.040710000000000E-01      8.595703000000000E+01
5440000000.000000      3.225708000000000E-02     -7.747656000000000E+01      6.467896000000000E-01      7.155859000000000E+01
5460000000.000000      4.209900000000000E-02      3.578125000000000E+01      5.385742000000000E-01      5.851953000000000E+01
5480000000.000000      1.116409000000000E-01      2.979297000000000E+01      4.123077000000000E-01      4.963085000000000E+01
5500000000.000000      1.739807000000000E-01      1.479541000000000E+01      2.920685000000000E-01      4.756640000000000E+01
5520000000.000000      2.204361000000000E-01     -8.789063000000000E-02      1.951294000000000E-01      5.956445000000000E+01
5540000000.000000      2.516022000000000E-01     -1.381543000000000E+01      1.814804000000000E-01      9.103516000000000E+01
5560000000.000000      2.709045000000000E-01     -2.563183000000000E+01      2.639771000000000E-01      1.088125000000000E+02
5580000000.000000      2.834625000000000E-01     -3.540234000000000E+01      3.852692000000000E-01      1.086211000000000E+02
5600000000.000000      2.953491000000000E-01     -4.408593000000000E+01      5.069580000000000E-01      9.967968000000000E+01
5620000000.000000      3.054962000000000E-01     -5.323242000000000E+01      5.945435000000000E-01      8.715624000000000E+01
5640000000.000000      3.098297000000000E-01     -6.290234000000000E+01      6.447754000000000E-01      7.534765000000000E+01
5660000000.000000      3.003387000000000E-01     -7.341406000000000E+01      6.843262000000000E-01      6.388476000000000E+01
5680000000.000000      2.720642000000000E-01     -8.383984000000000E+01      6.981201000000000E-01      5.121094000000000E+01
5700000000.000000      2.249069000000000E-01     -9.126171000000000E+01      6.820068000000000E-01      3.900000000000000E+01
5720000000.000000      1.749649000000000E-01     -8.988672000000000E+01      6.428833000000000E-01      2.617285000000000E+01
5740000000.000000      1.532440000000000E-01     -7.589844000000000E+01      5.628967000000000E-01      1.312305000000000E+01
5760000000.000000      1.817245000000000E-01     -6.426952000000000E+01      4.490967000000000E-01      1.393860000000000E+00
5780000000.000000      2.272263000000000E-01     -6.553905000000000E+01      3.153381000000000E-01     -3.630981000000000E+00
5800000000.000000      2.593079000000000E-01     -7.323047000000000E+01      2.077179000000000E-01      7.565430000000000E+00
5820000000.000000      2.686920000000000E-01     -8.272264000000000E+01      1.899414000000000E-01      3.782812000000000E+01
5840000000.000000      2.591705000000000E-01     -9.103125000000000E+01      2.720490000000000E-01      5.414453000000000E+01
5860000000.000000      2.419510000000000E-01     -9.653515000000000E+01      3.720703000000000E-01      5.414648000000000E+01
5880000000.000000      2.285690000000000E-01     -9.962109000000000E+01      4.787903000000000E-01      4.884375000000000E+01
5900000000.000000      2.200775000000000E-01     -1.020078000000000E+02      5.944214000000000E-01      3.850390000000000E+01
5920000000.000000      2.132950000000000E-01     -1.048476000000000E+02      6.718750000000000E-01      2.468945000000000E+01
5940000000.000000      1.985397000000000E-01     -1.069570000000000E+02      7.020264000000000E-01      1.141309000000000E+01
5960000000.000000      1.806717000000000E-01     -1.053242000000000E+02      7.127075000000000E-01     -1.213989000000000E+00
5980000000.000000      1.677322000000000E-01     -9.765234000000000E+01      6.901550000000000E-01     -1.527100000000000E+01
6000000000.000000      1.832733000000000E-01     -8.866014000000000E+01      6.276855000000000E-01     -2.885742000000000E+01
6020000000.000000      2.177734000000000E-01     -8.671875000000000E+01      5.290527000000000E-01     -4.148046000000000E+01
6040000000.000000      2.541351000000000E-01     -9.205078000000000E+01      3.984680000000000E-01     -4.975976000000000E+01
6060000000.000000      2.785187000000000E-01     -1.008476000000000E+02      2.846985000000000E-01     -4.945898000000000E+01
6080000000.000000      2.885437000000000E-01     -1.108555000000000E+02      2.051544000000000E-01     -3.530859000000000E+01
