! Network Analyzer HP8722D
! Hewlett-Packard
! Data name: Linha & Wilkinson+CNT
! Saver's name: Rodrigo Anjos
! Comments: Teste da utilização de aquisição
continua pelo VNA HP8722D
! Time and date: 29/9/2025 11:55
!              Frequency                     S11                                                   S21                                                   S12                                                   S22
# HZ  S  MA R 50
3000000000.000000      4.231110000000000E-01     -5.649023000000000E+01      2.092743000000000E-01     -1.315000000000000E+02
3020000000.000000      4.471893000000000E-01     -7.088672000000000E+01      3.519287000000000E-01     -1.350547000000000E+02
3040000000.000000      4.535370000000000E-01     -8.358202000000000E+01      4.687195000000000E-01     -1.450234000000000E+02
3060000000.000000      4.462891000000000E-01     -9.546484000000000E+01      5.731506000000000E-01     -1.553984000000000E+02
3080000000.000000      4.306335000000000E-01     -1.066133000000000E+02      6.742249000000000E-01     -1.684766000000000E+02
3100000000.000000      4.107513000000000E-01     -1.178047000000000E+02      7.234497000000000E-01      1.767422000000000E+02
3120000000.000000      3.816833000000000E-01     -1.297188000000000E+02      7.314148000000000E-01      1.633516000000000E+02
3140000000.000000      3.408051000000000E-01     -1.425390000000000E+02      7.236328000000000E-01      1.503906000000000E+02
3160000000.000000      2.811584000000000E-01     -1.562891000000000E+02      6.835327000000000E-01      1.370000000000000E+02
3180000000.000000      2.012177000000000E-01     -1.684687000000000E+02      6.127930000000000E-01      1.244492000000000E+02
3200000000.000000      1.139908000000000E-01     -1.682656000000000E+02      5.181885000000000E-01      1.115078000000000E+02
3220000000.000000      8.456421000000000E-02     -1.237109000000000E+02      3.846436000000000E-01      1.009844000000000E+02
3240000000.000000      1.558533000000000E-01     -1.056953000000000E+02      2.451401000000000E-01      9.982422000000000E+01
3260000000.000000      2.348938000000000E-01     -1.158828000000000E+02      1.475449000000000E-01      1.263398000000000E+02
3280000000.000000      2.923431000000000E-01     -1.312344000000000E+02      2.053757000000000E-01      1.653984000000000E+02
3300000000.000000      3.249817000000000E-01     -1.473359000000000E+02      3.315887000000000E-01      1.694453000000000E+02
3320000000.000000      3.366699000000000E-01     -1.630625000000000E+02      4.643555000000000E-01      1.623984000000000E+02
3340000000.000000      3.325653000000000E-01     -1.783047000000000E+02      5.769958000000000E-01      1.503281000000000E+02
3360000000.000000      3.200684000000000E-01      1.672031000000000E+02      6.479492000000000E-01      1.382187000000000E+02
3380000000.000000      3.032684000000000E-01      1.530625000000000E+02      7.094727000000000E-01      1.269141000000000E+02
3400000000.000000      2.790985000000000E-01      1.384140000000000E+02      7.577820000000000E-01      1.131016000000000E+02
3420000000.000000      2.430267000000000E-01      1.237422000000000E+02      7.472534000000000E-01      9.842577000000000E+01
3440000000.000000      1.888199000000000E-01      1.092031000000000E+02      7.044067000000000E-01      8.543360000000000E+01
3460000000.000000      1.175995000000000E-01      9.938671000000000E+01      6.458130000000000E-01      7.231640000000000E+01
3480000000.000000      4.857445000000000E-02      1.273828000000000E+02      5.468750000000000E-01      5.891406000000000E+01
3500000000.000000      9.729004000000000E-02     -1.737109000000000E+02      4.226990000000000E-01      4.765625000000000E+01
3520000000.000000      1.887665000000000E-01      1.791719000000000E+02      2.770538000000000E-01      4.067187000000000E+01
3540000000.000000      2.666779000000000E-01      1.631406000000000E+02      1.473160000000000E-01      5.914063000000000E+01
3560000000.000000      3.250275000000000E-01      1.461641000000000E+02      1.686707000000000E-01      1.078711000000000E+02
3580000000.000000      3.604431000000000E-01      1.300937000000000E+02      2.958069000000000E-01      1.174023000000000E+02
3600000000.000000      3.755951000000000E-01      1.154062000000000E+02      4.208221000000000E-01      1.104492000000000E+02
3620000000.000000      3.772736000000000E-01      1.027344000000000E+02      5.222168000000000E-01      1.009805000000000E+02
3640000000.000000      3.674774000000000E-01      9.139843000000000E+01      6.234741000000000E-01      8.985937000000000E+01
3660000000.000000      3.506927000000000E-01      8.127344000000000E+01      6.933899000000000E-01      7.563281000000000E+01
3680000000.000000      3.270111000000000E-01      7.198437000000000E+01      7.110291000000000E-01      6.260937000000000E+01
3700000000.000000      2.960510000000000E-01      6.364648000000000E+01      7.211304000000000E-01      5.082226000000000E+01
3720000000.000000      2.513275000000000E-01      5.761719000000000E+01      7.231140000000000E-01      3.653906000000000E+01
3740000000.000000      2.008896000000000E-01      5.857616000000000E+01      6.625366000000000E-01      2.127636000000000E+01
3760000000.000000      1.753998000000000E-01      7.307812000000000E+01      5.632629000000000E-01      6.966553000000000E+00
3780000000.000000      2.109833000000000E-01      8.785156000000000E+01      4.323273000000000E-01     -6.177246000000000E+00
3800000000.000000      2.819672000000000E-01      8.921484000000000E+01      2.789459000000000E-01     -1.317969000000000E+01
3820000000.000000      3.491211000000000E-01      8.260157000000000E+01      1.527710000000000E-01      4.614258000000000E-01
3840000000.000000      3.991394000000000E-01      7.380859000000000E+01      1.446991000000000E-01      4.828320000000000E+01
3860000000.000000      4.333954000000000E-01      6.523438000000000E+01      2.480545000000000E-01      6.531250000000000E+01
3880000000.000000      4.586639000000000E-01      5.766992000000000E+01      3.777008000000000E-01      6.099023000000000E+01
3900000000.000000      4.875031000000000E-01      5.043945000000000E+01      4.785309000000000E-01      4.763281000000000E+01
3920000000.000000      5.195923000000000E-01      4.277344000000000E+01      5.092163000000000E-01      3.576367000000000E+01
3940000000.000000      5.462036000000000E-01      3.370508000000000E+01      5.401611000000000E-01      2.930176000000000E+01
3960000000.000000      5.558167000000000E-01      2.360644000000000E+01      5.958557000000000E-01      2.004785000000000E+01
3980000000.000000      5.524292000000000E-01      1.300195000000000E+01      5.983887000000000E-01      8.108887000000000E+00
4000000000.000000      5.241699000000000E-01      2.649048000000000E+00      5.804443000000000E-01      1.181030000000000E+00
4020000000.000000      4.811859000000000E-01     -7.382813000000000E+00      5.968628000000000E-01     -6.738770000000000E+00
4040000000.000000      4.218597000000000E-01     -1.625879000000000E+01      5.843506000000000E-01     -1.902148000000000E+01
4060000000.000000      3.460846000000000E-01     -2.237402000000000E+01      5.264282000000000E-01     -2.899511000000000E+01
4080000000.000000      2.707977000000000E-01     -2.211719000000000E+01      4.671631000000000E-01     -3.836914000000000E+01
4100000000.000000      2.274475000000000E-01     -1.154980000000000E+01      3.645782000000000E-01     -4.751758000000000E+01
4120000000.000000      2.407379000000000E-01      1.608093000000000E+00      2.478638000000000E-01     -4.375586000000000E+01
4140000000.000000      2.902679000000000E-01      4.751465000000000E+00      2.040634000000000E-01     -1.932812000000000E+01
4160000000.000000      3.340759000000000E-01      4.682922000000000E-01      2.658386000000000E-01     -1.647949000000000E-02
4180000000.000000      3.610840000000000E-01     -6.320068000000000E+00      3.598022000000000E-01      3.683105000000000E+00
4200000000.000000      3.707275000000000E-01     -1.409570000000000E+01      4.889221000000000E-01      1.105469000000000E+00
4220000000.000000      3.662415000000000E-01     -2.137012000000000E+01      6.432495000000000E-01     -1.134766000000000E+01
4240000000.000000      3.465271000000000E-01     -2.884375000000000E+01      7.219543000000000E-01     -2.797168000000000E+01
4260000000.000000      3.085480000000000E-01     -3.455859000000000E+01      7.430420000000000E-01     -4.209961000000000E+01
4280000000.000000      2.585297000000000E-01     -3.569336000000000E+01      7.494812000000000E-01     -5.589648000000000E+01
4300000000.000000      2.227936000000000E-01     -2.729199000000000E+01      7.128906000000000E-01     -7.107812000000000E+01
4320000000.000000      2.374191000000000E-01     -1.481543000000000E+01      6.288147000000000E-01     -8.536327000000000E+01
4340000000.000000      2.956390000000000E-01     -1.105957000000000E+01      5.136108000000000E-01     -9.794531000000000E+01
4360000000.000000      3.607025000000000E-01     -1.608984000000000E+01      3.780212000000000E-01     -1.069258000000000E+02
4380000000.000000      4.065247000000000E-01     -2.509570000000000E+01      2.472610000000000E-01     -1.076484000000000E+02
4400000000.000000      4.267273000000000E-01     -3.503906000000000E+01      1.534271000000000E-01     -8.409374000000000E+01
4420000000.000000      4.247131000000000E-01     -4.432226000000000E+01      1.898422000000000E-01     -4.525586000000000E+01
4440000000.000000      4.095764000000000E-01     -5.240820000000000E+01      3.125610000000000E-01     -3.616015000000000E+01
4460000000.000000      3.890991000000000E-01     -5.891796000000000E+01      4.551392000000000E-01     -4.344140000000000E+01
4480000000.000000      3.687897000000000E-01     -6.537109000000000E+01      5.621033000000000E-01     -5.563281000000000E+01
4500000000.000000      3.470612000000000E-01     -7.205468000000000E+01      6.445618000000000E-01     -6.704687000000000E+01
4520000000.000000      3.133850000000000E-01     -7.968359000000000E+01      7.158508000000000E-01     -8.006639000000000E+01
4540000000.000000      2.613068000000000E-01     -8.566797000000000E+01      7.409973000000000E-01     -9.466015000000000E+01
4560000000.000000      2.001190000000000E-01     -8.358593000000000E+01      7.282104000000000E-01     -1.079453000000000E+02
4580000000.000000      1.750259000000000E-01     -6.741405000000000E+01      6.897888000000000E-01     -1.216758000000000E+02
4600000000.000000      2.139816000000000E-01     -5.391992000000000E+01      6.031189000000000E-01     -1.348750000000000E+02
4620000000.000000      2.790222000000000E-01     -5.547070000000000E+01      4.951630000000000E-01     -1.451484000000000E+02
4640000000.000000      3.314209000000000E-01     -6.532812000000000E+01      3.764496000000000E-01     -1.530937000000000E+02
4660000000.000000      3.544922000000000E-01     -7.844140000000000E+01      2.447968000000000E-01     -1.509063000000000E+02
4680000000.000000      3.446198000000000E-01     -9.212500000000000E+01      1.818466000000000E-01     -1.226015000000000E+02
4700000000.000000      3.066101000000000E-01     -1.049531000000000E+02      2.526855000000000E-01     -9.668749000000000E+01
4720000000.000000      2.504272000000000E-01     -1.150117000000000E+02      3.704224000000000E-01     -9.580469000000000E+01
4740000000.000000      1.896133000000000E-01     -1.195156000000000E+02      4.766083000000000E-01     -1.021016000000000E+02
4760000000.000000      1.393204000000000E-01     -1.145586000000000E+02      5.822754000000000E-01     -1.109609000000000E+02
4780000000.000000      1.165390000000000E-01     -9.840233000000000E+01      6.676636000000000E-01     -1.233672000000000E+02
4800000000.000000      1.256104000000000E-01     -8.198046000000000E+01      7.155457000000000E-01     -1.360859000000000E+02
4820000000.000000      1.549911000000000E-01     -7.394921000000000E+01      7.341614000000000E-01     -1.493281000000000E+02
4840000000.000000      1.964645000000000E-01     -7.421093000000000E+01      7.162476000000000E-01     -1.619219000000000E+02
4860000000.000000      2.390060000000000E-01     -8.076952000000000E+01      6.824646000000000E-01     -1.744922000000000E+02
4880000000.000000      2.754822000000000E-01     -9.111719000000000E+01      6.142883000000000E-01      1.718516000000000E+02
4900000000.000000      2.991180000000000E-01     -1.044492000000000E+02      4.936981000000000E-01      1.595859000000000E+02
4920000000.000000      3.042297000000000E-01     -1.191055000000000E+02      3.627167000000000E-01      1.532031000000000E+02
4940000000.000000      2.878876000000000E-01     -1.346797000000000E+02      2.501068000000000E-01      1.560703000000000E+02
4960000000.000000      2.560425000000000E-01     -1.495781000000000E+02      1.772385000000000E-01      1.778672000000000E+02
4980000000.000000      2.131958000000000E-01     -1.633281000000000E+02      2.154617000000000E-01     -1.509844000000000E+02
5000000000.000000      1.684723000000000E-01     -1.745078000000000E+02      3.322449000000000E-01     -1.437734000000000E+02
5020000000.000000      1.299133000000000E-01      1.762422000000000E+02      4.618835000000000E-01     -1.497656000000000E+02
5040000000.000000      9.922409000000000E-02      1.665625000000000E+02      5.695190000000000E-01     -1.605937000000000E+02
5060000000.000000      7.053375000000000E-02      1.526172000000000E+02      6.510620000000000E-01     -1.721328000000000E+02
5080000000.000000      3.932381000000000E-02      1.283281000000000E+02      7.172852000000000E-01      1.755781000000000E+02
5100000000.000000      1.270390000000000E-02      3.713281000000000E+01      7.551270000000000E-01      1.619375000000000E+02
5120000000.000000      4.145813000000000E-02     -5.613086000000000E+01      7.526550000000000E-01      1.478203000000000E+02
5140000000.000000      7.455444000000000E-02     -8.957422000000000E+01      7.016602000000000E-01      1.341797000000000E+02
5160000000.000000      9.813309000000000E-02     -1.194297000000000E+02      6.264038000000000E-01      1.218476000000000E+02
5180000000.000000      1.104813000000000E-01     -1.491250000000000E+02      5.306702000000000E-01      1.106016000000000E+02
5200000000.000000      1.119614000000000E-01      1.785703000000000E+02      4.135132000000000E-01      1.011562000000000E+02
5220000000.000000      1.078072000000000E-01      1.424766000000000E+02      2.804871000000000E-01      9.846874000000000E+01
5240000000.000000      1.063042000000000E-01      1.055898000000000E+02      1.828003000000000E-01      1.160234000000000E+02
5260000000.000000      1.109772000000000E-01      7.162109000000000E+01      1.983337000000000E-01      1.499766000000000E+02
5280000000.000000      1.181564000000000E-01      4.475781000000000E+01      2.988892000000000E-01      1.606797000000000E+02
5300000000.000000      1.253738000000000E-01      2.381543000000000E+01      4.120941000000000E-01      1.579141000000000E+02
5320000000.000000      1.316147000000000E-01      7.399170000000000E+00      5.286865000000000E-01      1.501484000000000E+02
5340000000.000000      1.381989000000000E-01     -6.943359000000000E+00      6.395569000000000E-01      1.382187000000000E+02
5360000000.000000      1.432953000000000E-01     -2.215137000000000E+01      7.052917000000000E-01      1.237773000000000E+02
5380000000.000000      1.396484000000000E-01     -3.954883000000000E+01      7.154846000000000E-01      1.105039000000000E+02
5400000000.000000      1.209755000000000E-01     -5.739648000000000E+01      7.174988000000000E-01      9.889843000000000E+01
5420000000.000000      8.564377000000000E-02     -7.391796000000000E+01      7.035828000000000E-01      8.580469000000000E+01
5440000000.000000      3.176308000000000E-02     -7.699219000000000E+01      6.458740000000000E-01      7.155859000000000E+01
5460000000.000000      4.277992000000000E-02      3.527734000000000E+01      5.371399000000000E-01      5.848242000000000E+01
5480000000.000000      1.122627000000000E-01      2.950879000000000E+01      4.091339000000000E-01      4.932422000000000E+01
5500000000.000000      1.746826000000000E-01      1.439307000000000E+01      2.898560000000000E-01      4.752539000000000E+01
5520000000.000000      2.210846000000000E-01     -4.518127000000000E-01      1.940002000000000E-01      5.992188000000000E+01
5540000000.000000      2.520142000000000E-01     -1.412451000000000E+01      1.825562000000000E-01      9.150782000000000E+01
5560000000.000000      2.713928000000000E-01     -2.578808000000000E+01      2.651367000000000E-01      1.087617000000000E+02
5580000000.000000      2.833405000000000E-01     -3.553711000000000E+01      3.867950000000000E-01      1.084414000000000E+02
5600000000.000000      2.949677000000000E-01     -4.422852000000000E+01      5.084839000000000E-01      9.946093000000000E+01
5620000000.000000      3.060608000000000E-01     -5.339062000000000E+01      5.960999000000000E-01      8.688280000000000E+01
5640000000.000000      3.096924000000000E-01     -6.311132000000000E+01      6.458740000000000E-01      7.504687000000000E+01
5660000000.000000      3.001099000000000E-01     -7.369922000000000E+01      6.842651000000000E-01      6.367969000000000E+01
5680000000.000000      2.716980000000000E-01     -8.400782000000000E+01      6.980591000000000E-01      5.095312000000000E+01
5700000000.000000      2.242889000000000E-01     -9.141405000000000E+01      6.800232000000000E-01      3.869726000000000E+01
5720000000.000000      1.741486000000000E-01     -8.986719000000000E+01      6.393127000000000E-01      2.585156000000000E+01
5740000000.000000      1.533661000000000E-01     -7.575000000000000E+01      5.625916000000000E-01      1.287695000000000E+01
5760000000.000000      1.817856000000000E-01     -6.432422000000000E+01      4.473419000000000E-01      1.402100000000000E+00
5780000000.000000      2.275543000000000E-01     -6.571484000000000E+01      3.128815000000000E-01     -3.735352000000000E+00
5800000000.000000      2.585602000000000E-01     -7.335546000000000E+01      2.063370000000000E-01      7.726074000000000E+00
5820000000.000000      2.683563000000000E-01     -8.287889000000000E+01      1.903915000000000E-01      3.847265000000000E+01
5840000000.000000      2.587128000000000E-01     -9.110937000000000E+01      2.738342000000000E-01      5.416601000000000E+01
5860000000.000000      2.411728000000000E-01     -9.666796000000000E+01      3.743896000000000E-01      5.407031000000000E+01
5880000000.000000      2.274399000000000E-01     -9.965233000000000E+01      4.794006000000000E-01      4.853516000000000E+01
5900000000.000000      2.203217000000000E-01     -1.020937000000000E+02      5.942688000000000E-01      3.833008000000000E+01
5920000000.000000      2.127228000000000E-01     -1.049570000000000E+02      6.712036000000000E-01      2.443359000000000E+01
5940000000.000000      1.984711000000000E-01     -1.068281000000000E+02      7.001953000000000E-01      1.127979000000000E+01
5960000000.000000      1.794052000000000E-01     -1.053320000000000E+02      7.112732000000000E-01     -1.620483000000000E+00
5980000000.000000      1.675797000000000E-01     -9.754686000000000E+01      6.886292000000000E-01     -1.554590000000000E+01
6000000000.000000      1.841583000000000E-01     -8.842188000000000E+01      6.251526000000000E-01     -2.917969000000000E+01
6020000000.000000      2.183990000000000E-01     -8.682421000000000E+01      5.264893000000000E-01     -4.177148000000000E+01
6040000000.000000      2.542877000000000E-01     -9.203905000000000E+01      3.973083000000000E-01     -4.955664000000000E+01
6060000000.000000      2.784424000000000E-01     -1.009570000000000E+02      2.830658000000000E-01     -4.917773000000000E+01
6080000000.000000      2.880096000000000E-01     -1.110547000000000E+02      2.051392000000000E-01     -3.489258000000000E+01
