! Network Analyzer HP8722D
! Hewlett-Packard
! Data name: Linha & Wilkinson+CNT
! Saver's name: Rodrigo Anjos
! Comments: Teste da utilização de aquisição
continua pelo VNA HP8722D
! Time and date: 29/9/2025 15:28
!              Frequency                     S11                                                   S21                                                   S12                                                   S22
# HZ  S  MA R 50
3000000000.000000      4.225769000000000E-01     -5.591991000000000E+01      2.089767000000000E-01     -1.314609000000000E+02
3020000000.000000      4.488983000000000E-01     -7.003906000000000E+01      3.512421000000000E-01     -1.350391000000000E+02
3040000000.000000      4.522552000000000E-01     -8.285547000000000E+01      4.692688000000000E-01     -1.449844000000000E+02
3060000000.000000      4.447327000000000E-01     -9.495312000000000E+01      5.732117000000000E-01     -1.553437000000000E+02
3080000000.000000      4.292603000000000E-01     -1.062539000000000E+02      6.744080000000000E-01     -1.685390000000000E+02
3100000000.000000      4.085846000000000E-01     -1.174648000000000E+02      7.252197000000000E-01      1.767500000000000E+02
3120000000.000000      3.795319000000000E-01     -1.293984000000000E+02      7.315979000000000E-01      1.633047000000000E+02
3140000000.000000      3.380890000000000E-01     -1.424531000000000E+02      7.237549000000000E-01      1.504453000000000E+02
3160000000.000000      2.774506000000000E-01     -1.563672000000000E+02      6.839294000000000E-01      1.369062000000000E+02
3180000000.000000      1.982956000000000E-01     -1.689766000000000E+02      6.128235000000000E-01      1.242891000000000E+02
3200000000.000000      1.106949000000000E-01     -1.695625000000000E+02      5.180664000000000E-01      1.114219000000000E+02
3220000000.000000      7.972336000000000E-02     -1.235586000000000E+02      3.838196000000000E-01      1.008281000000000E+02
3240000000.000000      1.517944000000000E-01     -1.049726000000000E+02      2.450790000000000E-01      9.976171000000000E+01
3260000000.000000      2.303696000000000E-01     -1.152539000000000E+02      1.468964000000000E-01      1.260039000000000E+02
3280000000.000000      2.878418000000000E-01     -1.310313000000000E+02      2.046204000000000E-01      1.655469000000000E+02
3300000000.000000      3.205872000000000E-01     -1.472969000000000E+02      3.315125000000000E-01      1.695156000000000E+02
3320000000.000000      3.318329000000000E-01     -1.632187000000000E+02      4.644165000000000E-01      1.625156000000000E+02
3340000000.000000      3.279877000000000E-01     -1.786250000000000E+02      5.761719000000000E-01      1.503750000000000E+02
3360000000.000000      3.162079000000000E-01      1.667031000000000E+02      6.466980000000000E-01      1.381953000000000E+02
3380000000.000000      3.001862000000000E-01      1.522656000000000E+02      7.091980000000000E-01      1.268945000000000E+02
3400000000.000000      2.778473000000000E-01      1.376094000000000E+02      7.576599000000000E-01      1.131211000000000E+02
3420000000.000000      2.425232000000000E-01      1.226601000000000E+02      7.490234000000000E-01      9.832420000000000E+01
3440000000.000000      1.894608000000000E-01      1.080273000000000E+02      7.047424000000000E-01      8.523046000000000E+01
3460000000.000000      1.189461000000000E-01      9.737499000000000E+01      6.464539000000000E-01      7.223046000000000E+01
3480000000.000000      4.747772000000000E-02      1.225078000000000E+02      5.469055000000000E-01      5.879101000000000E+01
3500000000.000000      9.304810000000000E-02     -1.741328000000000E+02      4.226990000000000E-01      4.749219000000000E+01
3520000000.000000      1.847839000000000E-01      1.789063000000000E+02      2.769928000000000E-01      4.049805000000000E+01
3540000000.000000      2.639160000000000E-01      1.626016000000000E+02      1.469574000000000E-01      5.888866000000000E+01
3560000000.000000      3.235626000000000E-01      1.456640000000000E+02      1.683655000000000E-01      1.079180000000000E+02
3580000000.000000      3.599701000000000E-01      1.296875000000000E+02      2.957153000000000E-01      1.174766000000000E+02
3600000000.000000      3.763733000000000E-01      1.151484000000000E+02      4.210052000000000E-01      1.105156000000000E+02
3620000000.000000      3.782196000000000E-01      1.024258000000000E+02      5.213623000000000E-01      1.010938000000000E+02
3640000000.000000      3.683777000000000E-01      9.127344000000000E+01      6.217957000000000E-01      8.989843000000000E+01
3660000000.000000      3.525696000000000E-01      8.099609000000000E+01      6.920166000000000E-01      7.563281000000000E+01
3680000000.000000      3.292847000000000E-01      7.187109000000000E+01      7.101440000000000E-01      6.261913000000000E+01
3700000000.000000      2.989960000000000E-01      6.358984000000000E+01      7.196960000000000E-01      5.091601000000000E+01
3720000000.000000      2.539215000000000E-01      5.759960000000000E+01      7.229614000000000E-01      3.658789000000000E+01
3740000000.000000      2.042618000000000E-01      5.849804000000000E+01      6.620789000000000E-01      2.120898000000000E+01
3760000000.000000      1.779099000000000E-01      7.264843000000000E+01      5.653076000000000E-01      6.917236000000000E+00
3780000000.000000      2.122650000000000E-01      8.757421000000000E+01      4.335480000000000E-01     -6.337891000000000E+00
3800000000.000000      2.831116000000000E-01      8.905468000000000E+01      2.803345000000000E-01     -1.340625000000000E+01
3820000000.000000      3.506622000000000E-01      8.259375000000000E+01      1.526489000000000E-01      4.531860000000000E-02
3840000000.000000      4.013062000000000E-01      7.384375000000000E+01      1.442108000000000E-01      4.824023000000000E+01
3860000000.000000      4.355011000000000E-01      6.523046000000000E+01      2.475281000000000E-01      6.540234000000000E+01
3880000000.000000      4.609222000000000E-01      5.780663000000000E+01      3.771362000000000E-01      6.108788000000000E+01
3900000000.000000      4.902039000000000E-01      5.073828000000000E+01      4.781647000000000E-01      4.756249000000000E+01
3920000000.000000      5.213318000000000E-01      4.309179000000000E+01      5.089417000000000E-01      3.587305000000000E+01
3940000000.000000      5.491943000000000E-01      3.413671000000000E+01      5.384827000000000E-01      2.917480000000000E+01
3960000000.000000      5.600281000000000E-01      2.409961000000000E+01      5.944214000000000E-01      1.996680000000000E+01
3980000000.000000      5.528564000000000E-01      1.353076000000000E+01      5.980530000000000E-01      8.210449000000000E+00
4000000000.000000      5.268555000000000E-01      2.920898000000000E+00      5.798645000000000E-01      1.179626000000000E+00
4020000000.000000      4.832153000000000E-01     -6.891357000000000E+00      5.980835000000000E-01     -6.689453000000000E+00
4040000000.000000      4.246979000000000E-01     -1.569824000000000E+01      5.853882000000000E-01     -1.887598000000000E+01
4060000000.000000      3.489685000000000E-01     -2.164453000000000E+01      5.269775000000000E-01     -2.898926000000000E+01
4080000000.000000      2.737427000000000E-01     -2.168750000000000E+01      4.678040000000000E-01     -3.832812000000000E+01
4100000000.000000      2.287903000000000E-01     -1.090674000000000E+01      3.656311000000000E-01     -4.766992000000000E+01
4120000000.000000      2.425842000000000E-01      1.996765000000000E+00      2.486115000000000E-01     -4.389453000000000E+01
4140000000.000000      2.906952000000000E-01      5.179932000000000E+00      2.033234000000000E-01     -1.963183000000000E+01
4160000000.000000      3.344727000000000E-01      9.283447000000000E-01      2.651520000000000E-01      4.119873000000000E-03
4180000000.000000      3.618011000000000E-01     -5.958740000000000E+00      3.587799000000000E-01      3.823242000000000E+00
4200000000.000000      3.718262000000000E-01     -1.365771000000000E+01      4.891968000000000E-01      1.105469000000000E+00
4220000000.000000      3.671875000000000E-01     -2.091015000000000E+01      6.425781000000000E-01     -1.121582000000000E+01
4240000000.000000      3.479156000000000E-01     -2.832617000000000E+01      7.227173000000000E-01     -2.794434000000000E+01
4260000000.000000      3.092957000000000E-01     -3.416601000000000E+01      7.417603000000000E-01     -4.199414000000000E+01
4280000000.000000      2.589722000000000E-01     -3.532422000000000E+01      7.517090000000000E-01     -5.588476000000000E+01
4300000000.000000      2.224960000000000E-01     -2.706543000000000E+01      7.143860000000000E-01     -7.092968000000000E+01
4320000000.000000      2.359085000000000E-01     -1.436328000000000E+01      6.307678000000000E-01     -8.530468000000000E+01
4340000000.000000      2.943573000000000E-01     -1.049219000000000E+01      5.145569000000000E-01     -9.792187000000000E+01
4360000000.000000      3.594055000000000E-01     -1.568994000000000E+01      3.793182000000000E-01     -1.068398000000000E+02
4380000000.000000      4.058075000000000E-01     -2.468847000000000E+01      2.480927000000000E-01     -1.079688000000000E+02
4400000000.000000      4.267120000000000E-01     -3.460546000000000E+01      1.530991000000000E-01     -8.446093000000000E+01
4420000000.000000      4.246521000000000E-01     -4.398828000000000E+01      1.893158000000000E-01     -4.536133000000000E+01
4440000000.000000      4.079895000000000E-01     -5.197851000000000E+01      3.123474000000000E-01     -3.626562000000000E+01
4460000000.000000      3.862610000000000E-01     -5.833593000000000E+01      4.546204000000000E-01     -4.327929000000000E+01
4480000000.000000      3.682098000000000E-01     -6.480859000000000E+01      5.624084000000000E-01     -5.551562000000000E+01
4500000000.000000      3.465424000000000E-01     -7.172656000000000E+01      6.443481000000000E-01     -6.702734000000000E+01
4520000000.000000      3.126678000000000E-01     -7.935156000000000E+01      7.171631000000000E-01     -8.006250000000000E+01
4540000000.000000      2.613068000000000E-01     -8.556641000000000E+01      7.421570000000000E-01     -9.463282000000000E+01
4560000000.000000      2.009354000000000E-01     -8.371874000000000E+01      7.296448000000000E-01     -1.079140000000000E+02
4580000000.000000      1.741867000000000E-01     -6.757421000000000E+01      6.902771000000000E-01     -1.216406000000000E+02
4600000000.000000      2.125168000000000E-01     -5.380273000000000E+01      6.048889000000000E-01     -1.348750000000000E+02
4620000000.000000      2.775879000000000E-01     -5.524219000000000E+01      4.979095000000000E-01     -1.453203000000000E+02
4640000000.000000      3.310242000000000E-01     -6.515625000000000E+01      3.777161000000000E-01     -1.534531000000000E+02
4660000000.000000      3.539276000000000E-01     -7.847656000000000E+01      2.449493000000000E-01     -1.515469000000000E+02
4680000000.000000      3.455505000000000E-01     -9.254686000000000E+01      1.793823000000000E-01     -1.230117000000000E+02
4700000000.000000      3.082886000000000E-01     -1.057187000000000E+02      2.496338000000000E-01     -9.638672000000000E+01
4720000000.000000      2.519836000000000E-01     -1.161875000000000E+02      3.692474000000000E-01     -9.548046000000000E+01
4740000000.000000      1.899719000000000E-01     -1.213672000000000E+02      4.750366000000000E-01     -1.017578000000000E+02
4760000000.000000      1.385498000000000E-01     -1.173164000000000E+02      5.822754000000000E-01     -1.104688000000000E+02
4780000000.000000      1.124763000000000E-01     -1.014922000000000E+02      6.695251000000000E-01     -1.228945000000000E+02
4800000000.000000      1.177902000000000E-01     -8.341015000000000E+01      7.173157000000000E-01     -1.358594000000000E+02
4820000000.000000      1.469498000000000E-01     -7.392968000000000E+01      7.368164000000000E-01     -1.491719000000000E+02
4840000000.000000      1.879044000000000E-01     -7.363281000000000E+01      7.181396000000000E-01     -1.619609000000000E+02
4860000000.000000      2.314301000000000E-01     -8.024609000000000E+01      6.833496000000000E-01     -1.743438000000000E+02
4880000000.000000      2.683868000000000E-01     -9.087109000000000E+01      6.138000000000000E-01      1.718594000000000E+02
4900000000.000000      2.940521000000000E-01     -1.043555000000000E+02      4.920502000000000E-01      1.597188000000000E+02
4920000000.000000      2.997894000000000E-01     -1.194414000000000E+02      3.645782000000000E-01      1.535234000000000E+02
4940000000.000000      2.850189000000000E-01     -1.352500000000000E+02      2.506104000000000E-01      1.560781000000000E+02
4960000000.000000      2.539520000000000E-01     -1.502656000000000E+02      1.766205000000000E-01      1.779453000000000E+02
4980000000.000000      2.114105000000000E-01     -1.643125000000000E+02      2.161331000000000E-01     -1.508203000000000E+02
5000000000.000000      1.673050000000000E-01     -1.762422000000000E+02      3.324432000000000E-01     -1.436172000000000E+02
5020000000.000000      1.302032000000000E-01      1.738281000000000E+02      4.622803000000000E-01     -1.498906000000000E+02
5040000000.000000      9.941483000000000E-02      1.637578000000000E+02      5.716248000000000E-01     -1.605859000000000E+02
5060000000.000000      7.138824000000000E-02      1.483906000000000E+02      6.515198000000000E-01     -1.720703000000000E+02
5080000000.000000      4.112434000000000E-02      1.225469000000000E+02      7.184448000000000E-01      1.757500000000000E+02
5100000000.000000      1.662445000000000E-02      3.839844000000000E+01      7.562256000000000E-01      1.621250000000000E+02
5120000000.000000      4.122734000000000E-02     -5.177929000000000E+01      7.532043000000000E-01      1.477656000000000E+02
5140000000.000000      7.339478000000000E-02     -8.830078000000000E+01      7.032776000000000E-01      1.341875000000000E+02
5160000000.000000      9.671402000000000E-02     -1.192539000000000E+02      6.271362000000000E-01      1.219062000000000E+02
5180000000.000000      1.100273000000000E-01     -1.497890000000000E+02      5.315247000000000E-01      1.105703000000000E+02
5200000000.000000      1.123810000000000E-01      1.773828000000000E+02      4.147949000000000E-01      1.009648000000000E+02
5220000000.000000      1.097260000000000E-01      1.416875000000000E+02      2.812805000000000E-01      9.837891000000000E+01
5240000000.000000      1.088829000000000E-01      1.052617000000000E+02      1.830978000000000E-01      1.158828000000000E+02
5260000000.000000      1.133881000000000E-01      7.198437000000000E+01      1.981888000000000E-01      1.498516000000000E+02
5280000000.000000      1.208649000000000E-01      4.560547000000000E+01      2.983398000000000E-01      1.605937000000000E+02
5300000000.000000      1.275482000000000E-01      2.481348000000000E+01      4.117889000000000E-01      1.579531000000000E+02
5320000000.000000      1.334915000000000E-01      8.368652000000000E+00      5.292053000000000E-01      1.502344000000000E+02
5340000000.000000      1.390686000000000E-01     -6.001465000000000E+00      6.394653000000000E-01      1.383594000000000E+02
5360000000.000000      1.431351000000000E-01     -2.153809000000000E+01      7.054138000000000E-01      1.237930000000000E+02
5380000000.000000      1.390152000000000E-01     -3.895898000000000E+01      7.172852000000000E-01      1.106055000000000E+02
5400000000.000000      1.192856000000000E-01     -5.725390000000000E+01      7.177429000000000E-01      9.874609000000000E+01
5420000000.000000      8.411407000000000E-02     -7.394140000000000E+01      7.047119000000000E-01      8.577343000000000E+01
5440000000.000000      2.932835000000000E-02     -7.773828000000000E+01      6.466370000000000E-01      7.142968000000000E+01
5460000000.000000      4.401779000000000E-02      3.935937000000000E+01      5.381775000000000E-01      5.829296000000000E+01
5480000000.000000      1.139488000000000E-01      3.077246000000000E+01      4.109802000000000E-01      4.941601000000000E+01
5500000000.000000      1.763611000000000E-01      1.552051000000000E+01      2.908325000000000E-01      4.744141000000000E+01
5520000000.000000      2.216187000000000E-01      4.064941000000000E-01      1.944504000000000E-01      5.970898000000000E+01
5540000000.000000      2.519531000000000E-01     -1.328418000000000E+01      1.818619000000000E-01      9.129686000000000E+01
5560000000.000000      2.698517000000000E-01     -2.517969000000000E+01      2.648163000000000E-01      1.088359000000000E+02
5580000000.000000      2.820740000000000E-01     -3.509766000000000E+01      3.865356000000000E-01      1.085508000000000E+02
5600000000.000000      2.936707000000000E-01     -4.399804000000000E+01      5.082703000000000E-01      9.938671000000000E+01
5620000000.000000      3.043671000000000E-01     -5.317773000000000E+01      5.976868000000000E-01      8.684765000000000E+01
5640000000.000000      3.079071000000000E-01     -6.294922000000000E+01      6.478577000000000E-01      7.491015000000000E+01
5660000000.000000      2.980347000000000E-01     -7.353906000000000E+01      6.853027000000000E-01      6.370703000000000E+01
5680000000.000000      2.677765000000000E-01     -8.387110000000000E+01      6.988525000000000E-01      5.086523000000000E+01
5700000000.000000      2.199936000000000E-01     -9.112890000000000E+01      6.831055000000000E-01      3.858984000000000E+01
5720000000.000000      1.700287000000000E-01     -8.958984000000000E+01      6.413574000000000E-01      2.587207000000000E+01
5740000000.000000      1.504059000000000E-01     -7.481250000000000E+01      5.645447000000000E-01      1.263281000000000E+01
5760000000.000000      1.794205000000000E-01     -6.360546000000000E+01      4.492188000000000E-01      1.115112000000000E+00
5780000000.000000      2.257004000000000E-01     -6.532812000000000E+01      3.140106000000000E-01     -3.994995000000000E+00
5800000000.000000      2.575989000000000E-01     -7.315234000000000E+01      2.068710000000000E-01      7.403320000000000E+00
5820000000.000000      2.669830000000000E-01     -8.262890000000000E+01      1.903839000000000E-01      3.805273000000000E+01
5840000000.000000      2.576447000000000E-01     -9.101563000000000E+01      2.731323000000000E-01      5.407031000000000E+01
5860000000.000000      2.390671000000000E-01     -9.651562000000000E+01      3.740234000000000E-01      5.393164000000000E+01
5880000000.000000      2.242126000000000E-01     -9.974609000000000E+01      4.798431000000000E-01      4.847461000000000E+01
5900000000.000000      2.163849000000000E-01     -1.022031000000000E+02      5.967407000000000E-01      3.818164000000000E+01
5920000000.000000      2.082214000000000E-01     -1.050781000000000E+02      6.743164000000000E-01      2.424219000000000E+01
5940000000.000000      1.942673000000000E-01     -1.070234000000000E+02      7.031860000000000E-01      1.103027000000000E+01
5960000000.000000      1.768875000000000E-01     -1.052109000000000E+02      7.139893000000000E-01     -1.709778000000000E+00
5980000000.000000      1.657562000000000E-01     -9.710546000000000E+01      6.896057000000000E-01     -1.552100000000000E+01
6000000000.000000      1.820068000000000E-01     -8.826172000000000E+01      6.254883000000000E-01     -2.925000000000000E+01
6020000000.000000      2.166901000000000E-01     -8.646484000000000E+01      5.278931000000000E-01     -4.183203000000000E+01
6040000000.000000      2.522583000000000E-01     -9.180468000000000E+01      3.977814000000000E-01     -4.985156000000000E+01
6060000000.000000      2.754822000000000E-01     -1.008125000000000E+02      2.842255000000000E-01     -4.945507000000000E+01
6080000000.000000      2.853546000000000E-01     -1.111328000000000E+02      2.049942000000000E-01     -3.540234000000000E+01
