! Network Analyzer HP8722D
! Hewlett-Packard
! Data name: Linha & Wilkinson+CNT
! Saver's name: Rodrigo Anjos
! Comments: Teste da utilização de aquisição
continua pelo VNA HP8722D
! Time and date: 29/9/2025 11:52
!              Frequency                     S11                                                   S21                                                   S12                                                   S22
# HZ  S  MA R 50
3000000000.000000      4.217682000000000E-01     -5.668163000000000E+01      2.095337000000000E-01     -1.315234000000000E+02
3020000000.000000      4.479218000000000E-01     -7.065234000000000E+01      3.513336000000000E-01     -1.350625000000000E+02
3040000000.000000      4.536743000000000E-01     -8.379686000000000E+01      4.689941000000000E-01     -1.449687000000000E+02
3060000000.000000      4.459229000000000E-01     -9.562891000000000E+01      5.729675000000000E-01     -1.553672000000000E+02
3080000000.000000      4.306183000000000E-01     -1.067226000000000E+02      6.740112000000000E-01     -1.684531000000000E+02
3100000000.000000      4.109192000000000E-01     -1.178594000000000E+02      7.230225000000000E-01      1.767734000000000E+02
3120000000.000000      3.820038000000000E-01     -1.297500000000000E+02      7.317810000000000E-01      1.634140000000000E+02
3140000000.000000      3.413544000000000E-01     -1.425703000000000E+02      7.223511000000000E-01      1.503125000000000E+02
3160000000.000000      2.809601000000000E-01     -1.563984000000000E+02      6.827393000000000E-01      1.368594000000000E+02
3180000000.000000      2.017822000000000E-01     -1.684297000000000E+02      6.126404000000000E-01      1.243945000000000E+02
3200000000.000000      1.142883000000000E-01     -1.680469000000000E+02      5.185547000000000E-01      1.115312000000000E+02
3220000000.000000      8.536148000000000E-02     -1.242266000000000E+02      3.828278000000000E-01      1.008906000000000E+02
3240000000.000000      1.558990000000000E-01     -1.060976000000000E+02      2.449265000000000E-01      9.993750000000000E+01
3260000000.000000      2.356720000000000E-01     -1.160430000000000E+02      1.474533000000000E-01      1.264063000000000E+02
3280000000.000000      2.926025000000000E-01     -1.314453000000000E+02      2.059708000000000E-01      1.654687000000000E+02
3300000000.000000      3.249817000000000E-01     -1.474766000000000E+02      3.320923000000000E-01      1.694219000000000E+02
3320000000.000000      3.369293000000000E-01     -1.631641000000000E+02      4.643402000000000E-01      1.623672000000000E+02
3340000000.000000      3.328857000000000E-01     -1.782812000000000E+02      5.757141000000000E-01      1.502656000000000E+02
3360000000.000000      3.201141000000000E-01      1.671953000000000E+02      6.484680000000000E-01      1.381250000000000E+02
3380000000.000000      3.028412000000000E-01      1.530469000000000E+02      7.102966000000000E-01      1.267188000000000E+02
3400000000.000000      2.790527000000000E-01      1.385391000000000E+02      7.580566000000000E-01      1.130351000000000E+02
3420000000.000000      2.426071000000000E-01      1.236328000000000E+02      7.478333000000000E-01      9.832811000000000E+01
3440000000.000000      1.885910000000000E-01      1.091094000000000E+02      7.036743000000000E-01      8.538280000000000E+01
3460000000.000000      1.173782000000000E-01      9.944530000000000E+01      6.449280000000000E-01      7.219921000000000E+01
3480000000.000000      4.876328000000000E-02      1.278594000000000E+02      5.478821000000000E-01      5.888085000000000E+01
3500000000.000000      9.772873000000000E-02     -1.737266000000000E+02      4.224091000000000E-01      4.752930000000000E+01
3520000000.000000      1.887512000000000E-01      1.791641000000000E+02      2.764130000000000E-01      4.087500000000000E+01
3540000000.000000      2.669067000000000E-01      1.630625000000000E+02      1.470795000000000E-01      5.918359000000000E+01
3560000000.000000      3.249969000000000E-01      1.461094000000000E+02      1.689529000000000E-01      1.080859000000000E+02
3580000000.000000      3.602905000000000E-01      1.300937000000000E+02      2.965393000000000E-01      1.174258000000000E+02
3600000000.000000      3.759613000000000E-01      1.154883000000000E+02      4.215393000000000E-01      1.104922000000000E+02
3620000000.000000      3.770447000000000E-01      1.027226000000000E+02      5.228577000000000E-01      1.009101000000000E+02
3640000000.000000      3.671112000000000E-01      9.150782000000000E+01      6.225586000000000E-01      8.992188000000000E+01
3660000000.000000      3.505554000000000E-01      8.128124000000000E+01      6.938171000000000E-01      7.546093000000000E+01
3680000000.000000      3.269501000000000E-01      7.204296000000000E+01      7.107849000000000E-01      6.249023000000000E+01
3700000000.000000      2.955170000000000E-01      6.375390000000000E+01      7.221069000000000E-01      5.085155000000000E+01
3720000000.000000      2.509155000000000E-01      5.765820000000000E+01      7.229004000000000E-01      3.665430000000000E+01
3740000000.000000      2.005768000000000E-01      5.874218000000000E+01      6.599731000000000E-01      2.115625000000000E+01
3760000000.000000      1.754074000000000E-01      7.317577000000000E+01      5.639343000000000E-01      6.970703000000000E+00
3780000000.000000      2.110596000000000E-01      8.797266000000000E+01      4.324646000000000E-01     -6.313232000000000E+00
3800000000.000000      2.819061000000000E-01      8.921093000000000E+01      2.787018000000000E-01     -1.310693000000000E+01
3820000000.000000      3.493805000000000E-01      8.262110000000000E+01      1.526108000000000E-01      6.701660000000000E-01
3840000000.000000      3.996277000000000E-01      7.377734000000000E+01      1.455078000000000E-01      4.841210000000000E+01
3860000000.000000      4.338226000000000E-01      6.519140000000000E+01      2.491226000000000E-01      6.530078000000000E+01
3880000000.000000      4.586792000000000E-01      5.761132000000000E+01      3.784027000000000E-01      6.083789000000000E+01
3900000000.000000      4.877472000000000E-01      5.049609000000000E+01      4.790039000000000E-01      4.756249000000000E+01
3920000000.000000      5.180664000000000E-01      4.264453000000000E+01      5.103149000000000E-01      3.583984000000000E+01
3940000000.000000      5.446167000000000E-01      3.358984000000000E+01      5.397644000000000E-01      2.935937000000000E+01
3960000000.000000      5.569458000000000E-01      2.350488000000000E+01      5.956116000000000E-01      2.001953000000000E+01
3980000000.000000      5.509033000000000E-01      1.315869000000000E+01      5.969238000000000E-01      8.063965000000000E+00
4000000000.000000      5.260620000000000E-01      2.649048000000000E+00      5.802307000000000E-01      9.942627000000000E-01
4020000000.000000      4.812469000000000E-01     -7.382813000000000E+00      5.976257000000000E-01     -6.759521000000000E+00
4040000000.000000      4.221954000000000E-01     -1.631543000000000E+01      5.842896000000000E-01     -1.905176000000000E+01
4060000000.000000      3.459930000000000E-01     -2.233691000000000E+01      5.252075000000000E-01     -2.896289000000000E+01
4080000000.000000      2.713928000000000E-01     -2.211621000000000E+01      4.661713000000000E-01     -3.831836000000000E+01
4100000000.000000      2.273636000000000E-01     -1.149170000000000E+01      3.652954000000000E-01     -4.753125000000000E+01
4120000000.000000      2.418671000000000E-01      1.473511000000000E+00      2.480392000000000E-01     -4.370507000000000E+01
4140000000.000000      2.897339000000000E-01      4.572998000000000E+00      2.040329000000000E-01     -1.914258000000000E+01
4160000000.000000      3.340759000000000E-01      3.955078000000000E-01      2.662811000000000E-01      0.000000000000000E+00
4180000000.000000      3.613739000000000E-01     -6.484863000000000E+00      3.602448000000000E-01      3.615845000000000E+00
4200000000.000000      3.709106000000000E-01     -1.418213000000000E+01      4.891205000000000E-01      1.043701000000000E+00
4220000000.000000      3.661652000000000E-01     -2.143847000000000E+01      6.433105000000000E-01     -1.129834000000000E+01
4240000000.000000      3.467102000000000E-01     -2.893555000000000E+01      7.211609000000000E-01     -2.801270000000000E+01
4260000000.000000      3.087311000000000E-01     -3.461719000000000E+01      7.418518000000000E-01     -4.215234000000000E+01
4280000000.000000      2.587585000000000E-01     -3.575195000000000E+01      7.486877000000000E-01     -5.592773000000000E+01
4300000000.000000      2.228241000000000E-01     -2.750293000000000E+01      7.127686000000000E-01     -7.100390000000000E+01
4320000000.000000      2.377853000000000E-01     -1.490332000000000E+01      6.289978000000000E-01     -8.528906000000000E+01
4340000000.000000      2.959442000000000E-01     -1.117480000000000E+01      5.122986000000000E-01     -9.798828000000000E+01
4360000000.000000      3.611450000000000E-01     -1.622168000000000E+01      3.767700000000000E-01     -1.065977000000000E+02
4380000000.000000      4.062958000000000E-01     -2.517187000000000E+01      2.466125000000000E-01     -1.076680000000000E+02
4400000000.000000      4.270935000000000E-01     -3.512500000000000E+01      1.531677000000000E-01     -8.388281000000000E+01
4420000000.000000      4.251862000000000E-01     -4.449023000000000E+01      1.902084000000000E-01     -4.518750000000000E+01
4440000000.000000      4.084167000000000E-01     -5.260937000000000E+01      3.129578000000000E-01     -3.622851000000000E+01
4460000000.000000      3.885498000000000E-01     -5.910546000000000E+01      4.550323000000000E-01     -4.355859000000000E+01
4480000000.000000      3.678589000000000E-01     -6.535937000000000E+01      5.630493000000000E-01     -5.564062000000000E+01
4500000000.000000      3.474579000000000E-01     -7.202734000000000E+01      6.437988000000000E-01     -6.716406000000000E+01
4520000000.000000      3.134003000000000E-01     -7.959765000000000E+01      7.152100000000000E-01     -7.997265000000000E+01
4540000000.000000      2.612762000000000E-01     -8.538671000000000E+01      7.418213000000000E-01     -9.467968000000000E+01
4560000000.000000      2.012405000000000E-01     -8.333202000000000E+01      7.262878000000000E-01     -1.079531000000000E+02
4580000000.000000      1.767654000000000E-01     -6.742969000000000E+01      6.884460000000000E-01     -1.217266000000000E+02
4600000000.000000      2.151566000000000E-01     -5.398828000000000E+01      6.027222000000000E-01     -1.348359000000000E+02
4620000000.000000      2.800293000000000E-01     -5.563086000000000E+01      4.949646000000000E-01     -1.449922000000000E+02
4640000000.000000      3.328400000000000E-01     -6.551562000000000E+01      3.746033000000000E-01     -1.531641000000000E+02
4660000000.000000      3.558502000000000E-01     -7.862109000000000E+01      2.446060000000000E-01     -1.509453000000000E+02
4680000000.000000      3.460541000000000E-01     -9.239843000000000E+01      1.815033000000000E-01     -1.224258000000000E+02
4700000000.000000      3.082275000000000E-01     -1.052617000000000E+02      2.530823000000000E-01     -9.658983000000000E+01
4720000000.000000      2.514496000000000E-01     -1.153906000000000E+02      3.710175000000000E-01     -9.571875000000000E+01
4740000000.000000      1.893997000000000E-01     -1.199844000000000E+02      4.766541000000000E-01     -1.022461000000000E+02
4760000000.000000      1.392212000000000E-01     -1.150078000000000E+02      5.816650000000000E-01     -1.110312000000000E+02
4780000000.000000      1.163902000000000E-01     -9.909374000000000E+01      6.668396000000000E-01     -1.233320000000000E+02
4800000000.000000      1.246986000000000E-01     -8.247656000000000E+01      7.164917000000000E-01     -1.360547000000000E+02
4820000000.000000      1.548004000000000E-01     -7.394921000000000E+01      7.340088000000000E-01     -1.493359000000000E+02
4840000000.000000      1.952515000000000E-01     -7.419140000000000E+01      7.156067000000000E-01     -1.621094000000000E+02
4860000000.000000      2.389984000000000E-01     -8.083593000000000E+01      6.801147000000000E-01     -1.744922000000000E+02
4880000000.000000      2.746887000000000E-01     -9.119532000000000E+01      6.133728000000000E-01      1.718281000000000E+02
4900000000.000000      2.984924000000000E-01     -1.044297000000000E+02      4.929199000000000E-01      1.596328000000000E+02
4920000000.000000      3.030396000000000E-01     -1.192773000000000E+02      3.631744000000000E-01      1.536719000000000E+02
4940000000.000000      2.876434000000000E-01     -1.348125000000000E+02      2.501678000000000E-01      1.562734000000000E+02
4960000000.000000      2.561798000000000E-01     -1.496484000000000E+02      1.771164000000000E-01      1.779844000000000E+02
4980000000.000000      2.122116000000000E-01     -1.635469000000000E+02      2.164154000000000E-01     -1.509687000000000E+02
5000000000.000000      1.674576000000000E-01     -1.746328000000000E+02      3.325195000000000E-01     -1.438750000000000E+02
5020000000.000000      1.295624000000000E-01      1.759609000000000E+02      4.621429000000000E-01     -1.498437000000000E+02
5040000000.000000      9.881210000000000E-02      1.665156000000000E+02      5.700073000000000E-01     -1.606562000000000E+02
5060000000.000000      7.003784000000000E-02      1.522734000000000E+02      6.522827000000000E-01     -1.722578000000000E+02
5080000000.000000      3.877449000000000E-02      1.282656000000000E+02      7.175903000000000E-01      1.756328000000000E+02
5100000000.000000      1.274157000000000E-02      3.416797000000000E+01      7.558899000000000E-01      1.618984000000000E+02
5120000000.000000      4.221344000000000E-02     -5.665429000000000E+01      7.518921000000000E-01      1.476641000000000E+02
5140000000.000000      7.468414000000000E-02     -8.968750000000000E+01      7.006531000000000E-01      1.341094000000000E+02
5160000000.000000      9.810638000000000E-02     -1.194492000000000E+02      6.260986000000000E-01      1.219922000000000E+02
5180000000.000000      1.101265000000000E-01     -1.492266000000000E+02      5.299072000000000E-01      1.109023000000000E+02
5200000000.000000      1.114578000000000E-01      1.782891000000000E+02      4.129639000000000E-01      1.010312000000000E+02
5220000000.000000      1.073151000000000E-01      1.419688000000000E+02      2.797699000000000E-01      9.859764000000000E+01
5240000000.000000      1.064186000000000E-01      1.050312000000000E+02      1.828232000000000E-01      1.162578000000000E+02
5260000000.000000      1.108894000000000E-01      7.115624000000000E+01      1.985245000000000E-01      1.501406000000000E+02
5280000000.000000      1.183929000000000E-01      4.453321000000000E+01      2.992249000000000E-01      1.607422000000000E+02
5300000000.000000      1.252670000000000E-01      2.363086000000000E+01      4.124603000000000E-01      1.579766000000000E+02
5320000000.000000      1.317368000000000E-01      7.268799000000000E+00      5.303040000000000E-01      1.501797000000000E+02
5340000000.000000      1.383514000000000E-01     -7.149414000000000E+00      6.397705000000000E-01      1.381328000000000E+02
5360000000.000000      1.431503000000000E-01     -2.239844000000000E+01      7.064514000000000E-01      1.238008000000000E+02
5380000000.000000      1.389694000000000E-01     -3.952343000000000E+01      7.162476000000000E-01      1.103828000000000E+02
5400000000.000000      1.208534000000000E-01     -5.732031000000000E+01      7.166748000000000E-01      9.875000000000000E+01
5420000000.000000      8.534241000000000E-02     -7.376562000000000E+01      7.038269000000000E-01      8.556250000000000E+01
5440000000.000000      3.140831000000000E-02     -7.610937000000000E+01      6.448975000000000E-01      7.130859000000000E+01
5460000000.000000      4.354668000000000E-02      3.521093000000000E+01      5.355530000000000E-01      5.839844000000000E+01
5480000000.000000      1.125870000000000E-01      2.914355000000000E+01      4.095917000000000E-01      4.941992000000000E+01
5500000000.000000      1.748505000000000E-01      1.410645000000000E+01      2.893066000000000E-01      4.762109000000000E+01
5520000000.000000      2.207870000000000E-01     -5.905151000000000E-01      1.937408000000000E-01      6.010742000000000E+01
5540000000.000000      2.528839000000000E-01     -1.414795000000000E+01      1.829834000000000E-01      9.157030000000000E+01
5560000000.000000      2.713013000000000E-01     -2.614355000000000E+01      2.657471000000000E-01      1.088164000000000E+02
5580000000.000000      2.832947000000000E-01     -3.561914000000000E+01      3.872681000000000E-01      1.084023000000000E+02
5600000000.000000      2.956085000000000E-01     -4.435547000000000E+01      5.082703000000000E-01      9.939453000000000E+01
5620000000.000000      3.061066000000000E-01     -5.342773000000000E+01      5.975037000000000E-01      8.674219000000000E+01
5640000000.000000      3.094940000000000E-01     -6.307422000000000E+01      6.467896000000000E-01      7.472656000000000E+01
5660000000.000000      3.000641000000000E-01     -7.376562000000000E+01      6.842346000000000E-01      6.362695000000000E+01
5680000000.000000      2.709045000000000E-01     -8.400782000000000E+01      6.969604000000000E-01      5.085351000000000E+01
5700000000.000000      2.236710000000000E-01     -9.126171000000000E+01      6.813965000000000E-01      3.858398000000000E+01
5720000000.000000      1.738434000000000E-01     -8.973436000000000E+01      6.388550000000000E-01      2.587402000000000E+01
5740000000.000000      1.538315000000000E-01     -7.551562000000000E+01      5.604858000000000E-01      1.273145000000000E+01
5760000000.000000      1.824951000000000E-01     -6.408593000000000E+01      4.471741000000000E-01      1.153564000000000E+00
5780000000.000000      2.281265000000000E-01     -6.576172000000000E+01      3.122864000000000E-01     -3.674927000000000E+00
5800000000.000000      2.595062000000000E-01     -7.351953000000000E+01      2.060242000000000E-01      7.907227000000000E+00
5820000000.000000      2.679291000000000E-01     -8.278124000000000E+01      1.916351000000000E-01      3.855664000000000E+01
5840000000.000000      2.587280000000000E-01     -9.107422000000000E+01      2.733307000000000E-01      5.415820000000000E+01
5860000000.000000      2.411270000000000E-01     -9.657030000000000E+01      3.742676000000000E-01      5.393555000000000E+01
5880000000.000000      2.278824000000000E-01     -9.947266000000000E+01      4.796753000000000E-01      4.850976000000000E+01
5900000000.000000      2.201767000000000E-01     -1.020351000000000E+02      5.956421000000000E-01      3.824219000000000E+01
5920000000.000000      2.127304000000000E-01     -1.048047000000000E+02      6.702576000000000E-01      2.433594000000000E+01
5940000000.000000      1.982956000000000E-01     -1.067539000000000E+02      7.009888000000000E-01      1.114941000000000E+01
5960000000.000000      1.798630000000000E-01     -1.051953000000000E+02      7.099609000000000E-01     -1.689148000000000E+00
5980000000.000000      1.680069000000000E-01     -9.735937000000000E+01      6.871643000000000E-01     -1.570801000000000E+01
6000000000.000000      1.839523000000000E-01     -8.849609000000000E+01      6.241455000000000E-01     -2.902637000000000E+01
6020000000.000000      2.192612000000000E-01     -8.685938000000000E+01      5.251160000000000E-01     -4.168554000000000E+01
6040000000.000000      2.542267000000000E-01     -9.204687000000000E+01      3.954773000000000E-01     -4.957617000000000E+01
6060000000.000000      2.781830000000000E-01     -1.010469000000000E+02      2.825775000000000E-01     -4.911523000000000E+01
6080000000.000000      2.877350000000000E-01     -1.110664000000000E+02      2.045898000000000E-01     -3.493359000000000E+01
