! Network Analyzer HP8722D
! Hewlett-Packard
! Data name: Linha & Wilkinson+CNT
! Saver's name: Rodrigo Anjos
! Comments: Teste da utilização de aquisição
continua pelo VNA HP8722D
! Time and date: 29/9/2025 14:51
!              Frequency                     S11                                                   S21                                                   S12                                                   S22
# HZ  S  MA R 50
3000000000.000000      4.244690000000000E-01     -5.580859000000000E+01      2.085419000000000E-01     -1.314766000000000E+02
3020000000.000000      4.488220000000000E-01     -7.004687000000000E+01      3.508453000000000E-01     -1.350078000000000E+02
3040000000.000000      4.538422000000000E-01     -8.291016000000000E+01      4.684448000000000E-01     -1.450781000000000E+02
3060000000.000000      4.448090000000000E-01     -9.496094000000000E+01      5.724182000000000E-01     -1.552344000000000E+02
3080000000.000000      4.293060000000000E-01     -1.062617000000000E+02      6.733093000000000E-01     -1.684375000000000E+02
3100000000.000000      4.085846000000000E-01     -1.174726000000000E+02      7.239380000000000E-01      1.766641000000000E+02
3120000000.000000      3.795013000000000E-01     -1.294688000000000E+02      7.317810000000000E-01      1.633359000000000E+02
3140000000.000000      3.376923000000000E-01     -1.424297000000000E+02      7.238159000000000E-01      1.504219000000000E+02
3160000000.000000      2.772217000000000E-01     -1.565000000000000E+02      6.824951000000000E-01      1.369062000000000E+02
3180000000.000000      1.983643000000000E-01     -1.691875000000000E+02      6.132507000000000E-01      1.242539000000000E+02
3200000000.000000      1.108551000000000E-01     -1.696406000000000E+02      5.181274000000000E-01      1.116992000000000E+02
3220000000.000000      7.938004000000000E-02     -1.239453000000000E+02      3.838806000000000E-01      1.007265000000000E+02
3240000000.000000      1.511078000000000E-01     -1.048672000000000E+02      2.458649000000000E-01      9.957031000000000E+01
3260000000.000000      2.304764000000000E-01     -1.153281000000000E+02      1.469040000000000E-01      1.258672000000000E+02
3280000000.000000      2.877502000000000E-01     -1.309609000000000E+02      2.041626000000000E-01      1.653828000000000E+02
3300000000.000000      3.198700000000000E-01     -1.472891000000000E+02      3.312531000000000E-01      1.694766000000000E+02
3320000000.000000      3.320007000000000E-01     -1.631406000000000E+02      4.636993000000000E-01      1.625313000000000E+02
3340000000.000000      3.280029000000000E-01     -1.786172000000000E+02      5.758362000000000E-01      1.504375000000000E+02
3360000000.000000      3.166046000000000E-01      1.666875000000000E+02      6.472778000000000E-01      1.384375000000000E+02
3380000000.000000      3.002930000000000E-01      1.524453000000000E+02      7.095642000000000E-01      1.269453000000000E+02
3400000000.000000      2.776184000000000E-01      1.376641000000000E+02      7.569275000000000E-01      1.131055000000000E+02
3420000000.000000      2.428970000000000E-01      1.226875000000000E+02      7.483521000000000E-01      9.831640000000000E+01
3440000000.000000      1.890488000000000E-01      1.079297000000000E+02      7.047424000000000E-01      8.538280000000000E+01
3460000000.000000      1.192169000000000E-01      9.745312000000000E+01      6.450195000000000E-01      7.226171000000000E+01
3480000000.000000      4.781151000000000E-02      1.223242000000000E+02      5.488586000000000E-01      5.892187000000000E+01
3500000000.000000      9.275055000000000E-02     -1.741719000000000E+02      4.235687000000000E-01      4.746094000000000E+01
3520000000.000000      1.846542000000000E-01      1.789609000000000E+02      2.775116000000000E-01      4.049805000000000E+01
3540000000.000000      2.637482000000000E-01      1.626484000000000E+02      1.468735000000000E-01      5.880077000000000E+01
3560000000.000000      3.229828000000000E-01      1.457344000000000E+02      1.678467000000000E-01      1.080312000000000E+02
3580000000.000000      3.604431000000000E-01      1.297500000000000E+02      2.950745000000000E-01      1.175312000000000E+02
3600000000.000000      3.767090000000000E-01      1.151601000000000E+02      4.200439000000000E-01      1.105000000000000E+02
3620000000.000000      3.783112000000000E-01      1.024883000000000E+02      5.217590000000000E-01      1.011367000000000E+02
3640000000.000000      3.686066000000000E-01      9.122265000000000E+01      6.227722000000000E-01      8.991405000000000E+01
3660000000.000000      3.520508000000000E-01      8.108593000000000E+01      6.931458000000000E-01      7.571094000000000E+01
3680000000.000000      3.293152000000000E-01      7.178515000000000E+01      7.101440000000000E-01      6.257813000000000E+01
3700000000.000000      2.987976000000000E-01      6.358007000000000E+01      7.200928000000000E-01      5.095508000000000E+01
3720000000.000000      2.545013000000000E-01      5.758594000000000E+01      7.234192000000000E-01      3.661133000000000E+01
3740000000.000000      2.042313000000000E-01      5.852734000000000E+01      6.634216000000000E-01      2.128027000000000E+01
3760000000.000000      1.780853000000000E-01      7.252343000000000E+01      5.652771000000000E-01      6.988525000000000E+00
3780000000.000000      2.124252000000000E-01      8.754686000000000E+01      4.334106000000000E-01     -6.192383000000000E+00
3800000000.000000      2.825623000000000E-01      8.906250000000000E+01      2.804413000000000E-01     -1.346533000000000E+01
3820000000.000000      3.503265000000000E-01      8.258984000000000E+01      1.526489000000000E-01     -2.471924000000000E-02
3840000000.000000      4.005280000000000E-01      7.385937000000000E+01      1.433945000000000E-01      4.811328000000000E+01
3860000000.000000      4.354553000000000E-01      6.528125000000000E+01      2.470322000000000E-01      6.541797000000000E+01
3880000000.000000      4.606171000000000E-01      5.772461000000000E+01      3.769684000000000E-01      6.113671000000000E+01
3900000000.000000      4.895630000000000E-01      5.072656000000000E+01      4.781494000000000E-01      4.762500000000000E+01
3920000000.000000      5.206604000000000E-01      4.308203000000000E+01      5.088806000000000E-01      3.578320000000000E+01
3940000000.000000      5.487061000000000E-01      3.396875000000000E+01      5.397949000000000E-01      2.952343000000000E+01
3960000000.000000      5.603638000000000E-01      2.393457000000000E+01      5.947266000000000E-01      2.007813000000000E+01
3980000000.000000      5.538330000000000E-01      1.339893000000000E+01      5.985718000000000E-01      8.062500000000000E+00
4000000000.000000      5.265198000000000E-01      2.952515000000000E+00      5.794678000000000E-01      1.227722000000000E+00
4020000000.000000      4.837036000000000E-01     -6.957275000000000E+00      5.977173000000000E-01     -6.725098000000000E+00
4040000000.000000      4.244843000000000E-01     -1.575586000000000E+01      5.848999000000000E-01     -1.888867000000000E+01
4060000000.000000      3.489227000000000E-01     -2.187012000000000E+01      5.258179000000000E-01     -2.901660000000000E+01
4080000000.000000      2.739563000000000E-01     -2.178223000000000E+01      4.683075000000000E-01     -3.827343000000000E+01
4100000000.000000      2.287598000000000E-01     -1.116357000000000E+01      3.660431000000000E-01     -4.739648000000000E+01
4120000000.000000      2.419357000000000E-01      1.925354000000000E+00      2.488937000000000E-01     -4.406446000000000E+01
4140000000.000000      2.902374000000000E-01      5.130615000000000E+00      2.029953000000000E-01     -1.965820000000000E+01
4160000000.000000      3.343353000000000E-01      9.626770000000000E-01      2.644806000000000E-01     -4.669189000000000E-02
4180000000.000000      3.615723000000000E-01     -5.909424000000000E+00      3.586731000000000E-01      3.847900000000000E+00
4200000000.000000      3.714447000000000E-01     -1.366016000000000E+01      4.887543000000000E-01      1.363647000000000E+00
4220000000.000000      3.672791000000000E-01     -2.086719000000000E+01      6.421509000000000E-01     -1.111572000000000E+01
4240000000.000000      3.476868000000000E-01     -2.838476000000000E+01      7.213135000000000E-01     -2.787109000000000E+01
4260000000.000000      3.094788000000000E-01     -3.410742000000000E+01      7.438965000000000E-01     -4.198047000000000E+01
4280000000.000000      2.593079000000000E-01     -3.537890000000000E+01      7.507629000000000E-01     -5.588476000000000E+01
4300000000.000000      2.225113000000000E-01     -2.710351000000000E+01      7.145081000000000E-01     -7.092968000000000E+01
4320000000.000000      2.357864000000000E-01     -1.442139000000000E+01      6.318359000000000E-01     -8.533983000000000E+01
4340000000.000000      2.941589000000000E-01     -1.055127000000000E+01      5.149536000000000E-01     -9.785156000000000E+01
4360000000.000000      3.590698000000000E-01     -1.567383000000000E+01      3.792114000000000E-01     -1.070430000000000E+02
4380000000.000000      4.052887000000000E-01     -2.463281000000000E+01      2.488785000000000E-01     -1.080156000000000E+02
4400000000.000000      4.265747000000000E-01     -3.456445000000000E+01      1.532669000000000E-01     -8.476563000000000E+01
4420000000.000000      4.245453000000000E-01     -4.388281000000000E+01      1.887741000000000E-01     -4.526367000000000E+01
4440000000.000000      4.087524000000000E-01     -5.194921000000000E+01      3.118439000000000E-01     -3.624023000000000E+01
4460000000.000000      3.879547000000000E-01     -5.857031000000000E+01      4.532318000000000E-01     -4.342187000000000E+01
4480000000.000000      3.669891000000000E-01     -6.491015000000000E+01      5.615234000000000E-01     -5.558007000000000E+01
4500000000.000000      3.462524000000000E-01     -7.167578000000000E+01      6.427307000000000E-01     -6.692187000000000E+01
4520000000.000000      3.130341000000000E-01     -7.936328000000000E+01      7.157593000000000E-01     -7.997265000000000E+01
4540000000.000000      2.616577000000000E-01     -8.552734000000000E+01      7.413025000000000E-01     -9.453125000000000E+01
4560000000.000000      2.007751000000000E-01     -8.371094000000000E+01      7.285461000000000E-01     -1.078164000000000E+02
4580000000.000000      1.741943000000000E-01     -6.766015000000000E+01      6.901855000000000E-01     -1.217031000000000E+02
4600000000.000000      2.123108000000000E-01     -5.372851000000000E+01      6.049500000000000E-01     -1.347812000000000E+02
4620000000.000000      2.775879000000000E-01     -5.520312000000000E+01      4.967194000000000E-01     -1.451641000000000E+02
4640000000.000000      3.306274000000000E-01     -6.516406000000000E+01      3.778534000000000E-01     -1.534297000000000E+02
4660000000.000000      3.545227000000000E-01     -7.848437000000000E+01      2.451401000000000E-01     -1.515391000000000E+02
4680000000.000000      3.455048000000000E-01     -9.239061000000000E+01      1.791306000000000E-01     -1.232422000000000E+02
4700000000.000000      3.083649000000000E-01     -1.056445000000000E+02      2.491608000000000E-01     -9.653515000000000E+01
4720000000.000000      2.529602000000000E-01     -1.161758000000000E+02      3.684692000000000E-01     -9.548437000000000E+01
4740000000.000000      1.905289000000000E-01     -1.214844000000000E+02      4.740295000000000E-01     -1.017695000000000E+02
4760000000.000000      1.384201000000000E-01     -1.173867000000000E+02      5.811462000000000E-01     -1.107539000000000E+02
4780000000.000000      1.120567000000000E-01     -1.016758000000000E+02      6.678467000000000E-01     -1.230156000000000E+02
4800000000.000000      1.180916000000000E-01     -8.363672000000000E+01      7.173157000000000E-01     -1.357500000000000E+02
4820000000.000000      1.469955000000000E-01     -7.389062000000000E+01      7.358704000000000E-01     -1.490391000000000E+02
4840000000.000000      1.873322000000000E-01     -7.390234000000000E+01      7.189941000000000E-01     -1.618594000000000E+02
4860000000.000000      2.309113000000000E-01     -8.034765000000000E+01      6.851501000000000E-01     -1.744609000000000E+02
4880000000.000000      2.685547000000000E-01     -9.085155000000000E+01      6.150513000000000E-01      1.717891000000000E+02
4900000000.000000      2.935638000000000E-01     -1.043984000000000E+02      4.944611000000000E-01      1.596641000000000E+02
4920000000.000000      2.997131000000000E-01     -1.194102000000000E+02      3.635101000000000E-01      1.535234000000000E+02
4940000000.000000      2.848206000000000E-01     -1.351719000000000E+02      2.506256000000000E-01      1.560625000000000E+02
4960000000.000000      2.539520000000000E-01     -1.502344000000000E+02      1.767883000000000E-01      1.777578000000000E+02
4980000000.000000      2.120819000000000E-01     -1.646172000000000E+02      2.159348000000000E-01     -1.509140000000000E+02
5000000000.000000      1.676788000000000E-01     -1.760547000000000E+02      3.316956000000000E-01     -1.436797000000000E+02
5020000000.000000      1.298904000000000E-01      1.739922000000000E+02      4.620056000000000E-01     -1.497266000000000E+02
5040000000.000000      9.971237000000000E-02      1.633750000000000E+02      5.703125000000000E-01     -1.605391000000000E+02
5060000000.000000      7.090378000000000E-02      1.486094000000000E+02      6.512451000000000E-01     -1.721094000000000E+02
5080000000.000000      4.107666000000000E-02      1.229414000000000E+02      7.184143000000000E-01      1.757813000000000E+02
5100000000.000000      1.639175000000000E-02      3.881445000000000E+01      7.561646000000000E-01      1.621562000000000E+02
5120000000.000000      4.126167000000000E-02     -5.207812000000000E+01      7.513733000000000E-01      1.478594000000000E+02
5140000000.000000      7.286072000000000E-02     -8.809374000000000E+01      7.024536000000000E-01      1.342031000000000E+02
5160000000.000000      9.654617000000000E-02     -1.191094000000000E+02      6.272888000000000E-01      1.218008000000000E+02
5180000000.000000      1.094360000000000E-01     -1.497031000000000E+02      5.333862000000000E-01      1.106250000000000E+02
5200000000.000000      1.122932000000000E-01      1.775781000000000E+02      4.145355000000000E-01      1.011523000000000E+02
5220000000.000000      1.098824000000000E-01      1.415625000000000E+02      2.816010000000000E-01      9.826952000000000E+01
5240000000.000000      1.091232000000000E-01      1.053945000000000E+02      1.833115000000000E-01      1.156836000000000E+02
5260000000.000000      1.135330000000000E-01      7.216406000000000E+01      1.971207000000000E-01      1.497187000000000E+02
5280000000.000000      1.208954000000000E-01      4.562109000000000E+01      2.977448000000000E-01      1.605781000000000E+02
5300000000.000000      1.273956000000000E-01      2.506640000000000E+01      4.113312000000000E-01      1.580625000000000E+02
5320000000.000000      1.339722000000000E-01      8.493652000000000E+00      5.303955000000000E-01      1.503125000000000E+02
5340000000.000000      1.387787000000000E-01     -5.924561000000000E+00      6.385803000000000E-01      1.384375000000000E+02
5360000000.000000      1.434174000000000E-01     -2.147461000000000E+01      7.065430000000000E-01      1.239805000000000E+02
5380000000.000000      1.384277000000000E-01     -3.902929000000000E+01      7.180481000000000E-01      1.105312000000000E+02
5400000000.000000      1.194267000000000E-01     -5.711328000000000E+01      7.173462000000000E-01      9.892967000000000E+01
5420000000.000000      8.393097000000000E-02     -7.400391000000000E+01      7.042542000000000E-01      8.588282000000000E+01
5440000000.000000      2.975559000000000E-02     -7.739843000000000E+01      6.476135000000000E-01      7.145702000000000E+01
5460000000.000000      4.434204000000000E-02      3.911523000000000E+01      5.380859000000000E-01      5.839453000000000E+01
5480000000.000000      1.138611000000000E-01      3.087011000000000E+01      4.113312000000000E-01      4.922852000000000E+01
5500000000.000000      1.759033000000000E-01      1.538623000000000E+01      2.910461000000000E-01      4.728906000000000E+01
5520000000.000000      2.214050000000000E-01      4.298401000000000E-01      1.943130000000000E-01      5.947460000000000E+01
5540000000.000000      2.523193000000000E-01     -1.324268000000000E+01      1.817245000000000E-01      9.107031000000000E+01
5560000000.000000      2.701874000000000E-01     -2.510742000000000E+01      2.641754000000000E-01      1.088242000000000E+02
5580000000.000000      2.826233000000000E-01     -3.507617000000000E+01      3.855286000000000E-01      1.084766000000000E+02
5600000000.000000      2.941742000000000E-01     -4.393164000000000E+01      5.075989000000000E-01      9.949219000000000E+01
5620000000.000000      3.045349000000000E-01     -5.304492000000000E+01      5.948792000000000E-01      8.698828000000000E+01
5640000000.000000      3.075562000000000E-01     -6.291601000000000E+01      6.475525000000000E-01      7.522265000000000E+01
5660000000.000000      2.977600000000000E-01     -7.348827000000000E+01      6.850586000000000E-01      6.373437000000000E+01
5680000000.000000      2.682343000000000E-01     -8.379686000000000E+01      6.985168000000000E-01      5.102539000000000E+01
5700000000.000000      2.203751000000000E-01     -9.106249000000000E+01      6.829529000000000E-01      3.857812000000000E+01
5720000000.000000      1.701355000000000E-01     -8.966406000000000E+01      6.430664000000000E-01      2.578808000000000E+01
5740000000.000000      1.498566000000000E-01     -7.513281000000000E+01      5.638733000000000E-01      1.255322000000000E+01
5760000000.000000      1.791229000000000E-01     -6.364843000000000E+01      4.500580000000000E-01      1.102722000000000E+00
5780000000.000000      2.252579000000000E-01     -6.531640000000000E+01      3.150635000000000E-01     -3.957886000000000E+00
5800000000.000000      2.571106000000000E-01     -7.309375000000000E+01      2.074127000000000E-01      7.458252000000000E+00
5820000000.000000      2.672272000000000E-01     -8.260546000000000E+01      1.899948000000000E-01      3.797656000000000E+01
5840000000.000000      2.565308000000000E-01     -9.117188000000000E+01      2.725983000000000E-01      5.408398000000000E+01
5860000000.000000      2.385254000000000E-01     -9.678905000000000E+01      3.739014000000000E-01      5.395117000000000E+01
5880000000.000000      2.242966000000000E-01     -9.976952000000000E+01      4.800568000000000E-01      4.843554000000000E+01
5900000000.000000      2.157593000000000E-01     -1.021641000000000E+02      5.966797000000000E-01      3.828711000000000E+01
5920000000.000000      2.084045000000000E-01     -1.050078000000000E+02      6.738892000000000E-01      2.436718000000000E+01
5940000000.000000      1.943283000000000E-01     -1.069922000000000E+02      7.011719000000000E-01      1.117676000000000E+01
5960000000.000000      1.772614000000000E-01     -1.052070000000000E+02      7.124329000000000E-01     -1.621887000000000E+00
5980000000.000000      1.658554000000000E-01     -9.728905000000000E+01      6.908875000000000E-01     -1.561035000000000E+01
6000000000.000000      1.818848000000000E-01     -8.823437000000000E+01      6.255188000000000E-01     -2.921582000000000E+01
6020000000.000000      2.164612000000000E-01     -8.637110000000000E+01      5.280762000000000E-01     -4.176367000000000E+01
6040000000.000000      2.518921000000000E-01     -9.174219000000000E+01      3.989105000000000E-01     -4.983007000000000E+01
6060000000.000000      2.748566000000000E-01     -1.009258000000000E+02      2.842712000000000E-01     -4.955664000000000E+01
6080000000.000000      2.851105000000000E-01     -1.111016000000000E+02      2.046509000000000E-01     -3.561914000000000E+01
