! Network Analyzer HP8722D
! Hewlett-Packard
! Data name: Linha & Wilkinson+CNT
! Saver's name: Rodrigo Anjos
! Comments: Teste da utilização de aquisição
continua pelo VNA HP8722D
! Time and date: 29/9/2025 16:40
!              Frequency                     S11                                                   S21                                                   S12                                                   S22
# HZ  S  MA R 50
3000000000.000000      4.255829000000000E-01     -5.580664000000000E+01      2.096481000000000E-01     -1.313906000000000E+02
3020000000.000000      4.474945000000000E-01     -7.037499000000000E+01      3.519745000000000E-01     -1.351094000000000E+02
3040000000.000000      4.526215000000000E-01     -8.303905000000000E+01      4.686584000000000E-01     -1.450859000000000E+02
3060000000.000000      4.442749000000000E-01     -9.494141000000000E+01      5.727844000000000E-01     -1.553437000000000E+02
3080000000.000000      4.291992000000000E-01     -1.061836000000000E+02      6.741333000000000E-01     -1.686719000000000E+02
3100000000.000000      4.083710000000000E-01     -1.174531000000000E+02      7.251587000000000E-01      1.767578000000000E+02
3120000000.000000      3.795776000000000E-01     -1.294141000000000E+02      7.316284000000000E-01      1.632813000000000E+02
3140000000.000000      3.384857000000000E-01     -1.423828000000000E+02      7.240295000000000E-01      1.503203000000000E+02
3160000000.000000      2.770691000000000E-01     -1.563516000000000E+02      6.827393000000000E-01      1.368594000000000E+02
3180000000.000000      1.979141000000000E-01     -1.689609000000000E+02      6.129761000000000E-01      1.242851000000000E+02
3200000000.000000      1.101189000000000E-01     -1.691797000000000E+02      5.192566000000000E-01      1.114687000000000E+02
3220000000.000000      8.023071000000000E-02     -1.231680000000000E+02      3.837585000000000E-01      1.007187000000000E+02
3240000000.000000      1.526794000000000E-01     -1.050547000000000E+02      2.455521000000000E-01      9.976563000000000E+01
3260000000.000000      2.315216000000000E-01     -1.152930000000000E+02      1.472015000000000E-01      1.260898000000000E+02
3280000000.000000      2.885590000000000E-01     -1.310547000000000E+02      2.053909000000000E-01      1.654687000000000E+02
3300000000.000000      3.209229000000000E-01     -1.472969000000000E+02      3.317108000000000E-01      1.694766000000000E+02
3320000000.000000      3.325653000000000E-01     -1.631953000000000E+02      4.648743000000000E-01      1.624609000000000E+02
3340000000.000000      3.282166000000000E-01     -1.785859000000000E+02      5.773926000000000E-01      1.502812000000000E+02
3360000000.000000      3.165894000000000E-01      1.666016000000000E+02      6.470032000000000E-01      1.382656000000000E+02
3380000000.000000      3.001709000000000E-01      1.523672000000000E+02      7.080688000000000E-01      1.268398000000000E+02
3400000000.000000      2.778168000000000E-01      1.378281000000000E+02      7.565613000000000E-01      1.131211000000000E+02
3420000000.000000      2.428818000000000E-01      1.228086000000000E+02      7.473145000000000E-01      9.828125000000000E+01
3440000000.000000      1.895218000000000E-01      1.081875000000000E+02      7.036133000000000E-01      8.532421000000000E+01
3460000000.000000      1.190872000000000E-01      9.781639000000000E+01      6.456604000000000E-01      7.215234000000000E+01
3480000000.000000      4.852104000000000E-02      1.229062000000000E+02      5.482788000000000E-01      5.887109000000000E+01
3500000000.000000      9.375000000000000E-02     -1.745469000000000E+02      4.219360000000000E-01      4.761719000000000E+01
3520000000.000000      1.849976000000000E-01      1.786719000000000E+02      2.768707000000000E-01      4.060547000000000E+01
3540000000.000000      2.640991000000000E-01      1.625000000000000E+02      1.464844000000000E-01      5.895117000000000E+01
3560000000.000000      3.236084000000000E-01      1.455156000000000E+02      1.688461000000000E-01      1.079414000000000E+02
3580000000.000000      3.602142000000000E-01      1.296406000000000E+02      2.961121000000000E-01      1.175000000000000E+02
3600000000.000000      3.761902000000000E-01      1.151289000000000E+02      4.211273000000000E-01      1.104688000000000E+02
3620000000.000000      3.781281000000000E-01      1.024687000000000E+02      5.223999000000000E-01      1.009805000000000E+02
3640000000.000000      3.685455000000000E-01      9.130077000000000E+01      6.221619000000000E-01      8.997656000000000E+01
3660000000.000000      3.523102000000000E-01      8.112890000000000E+01      6.938477000000000E-01      7.564062000000000E+01
3680000000.000000      3.294220000000000E-01      7.194921000000000E+01      7.114868000000000E-01      6.247656000000000E+01
3700000000.000000      2.989502000000000E-01      6.369335000000000E+01      7.192993000000000E-01      5.084570000000000E+01
3720000000.000000      2.544250000000000E-01      5.759570000000000E+01      7.231750000000000E-01      3.668359000000000E+01
3740000000.000000      2.042236000000000E-01      5.861523000000000E+01      6.619568000000000E-01      2.127636000000000E+01
3760000000.000000      1.784668000000000E-01      7.267578000000000E+01      5.633850000000000E-01      6.977539000000000E+00
3780000000.000000      2.130051000000000E-01      8.769531000000000E+01      4.325409000000000E-01     -6.120850000000000E+00
3800000000.000000      2.839966000000000E-01      8.908203000000000E+01      2.798462000000000E-01     -1.330859000000000E+01
3820000000.000000      3.515167000000000E-01      8.263281000000000E+01      1.527786000000000E-01      4.545593000000000E-01
3840000000.000000      4.013214000000000E-01      7.388281000000000E+01      1.445313000000000E-01      4.847070000000000E+01
3860000000.000000      4.363556000000000E-01      6.532031000000000E+01      2.479172000000000E-01      6.539844000000000E+01
3880000000.000000      4.618835000000000E-01      5.780859000000000E+01      3.775177000000000E-01      6.101367000000000E+01
3900000000.000000      4.901886000000000E-01      5.076366000000000E+01      4.778900000000000E-01      4.751367000000000E+01
3920000000.000000      5.224915000000000E-01      4.312109000000000E+01      5.091858000000000E-01      3.572851000000000E+01
3940000000.000000      5.490723000000000E-01      3.409180000000000E+01      5.415649000000000E-01      2.946191000000000E+01
3960000000.000000      5.600281000000000E-01      2.393164000000000E+01      5.944519000000000E-01      2.017285000000000E+01
3980000000.000000      5.538025000000000E-01      1.334424000000000E+01      5.971680000000000E-01      8.255859000000000E+00
4000000000.000000      5.258484000000000E-01      3.153076000000000E+00      5.804443000000000E-01      1.176880000000000E+00
4020000000.000000      4.835358000000000E-01     -6.850098000000000E+00      5.984802000000000E-01     -6.569824000000000E+00
4040000000.000000      4.240417000000000E-01     -1.568066000000000E+01      5.844727000000000E-01     -1.885840000000000E+01
4060000000.000000      3.481445000000000E-01     -2.165625000000000E+01      5.259399000000000E-01     -2.894824000000000E+01
4080000000.000000      2.739410000000000E-01     -2.148535000000000E+01      4.660950000000000E-01     -3.828516000000000E+01
4100000000.000000      2.283859000000000E-01     -1.076953000000000E+01      3.650208000000000E-01     -4.763476000000000E+01
4120000000.000000      2.424316000000000E-01      2.195801000000000E+00      2.485275000000000E-01     -4.380859000000000E+01
4140000000.000000      2.904663000000000E-01      5.241699000000000E+00      2.037201000000000E-01     -1.944629000000000E+01
4160000000.000000      3.343506000000000E-01      1.020325000000000E+00      2.659302000000000E-01      9.201050000000000E-02
4180000000.000000      3.622131000000000E-01     -5.932617000000000E+00      3.593903000000000E-01      3.821777000000000E+00
4200000000.000000      3.713531000000000E-01     -1.363574000000000E+01      4.906769000000000E-01      1.360901000000000E+00
4220000000.000000      3.675995000000000E-01     -2.081250000000000E+01      6.432495000000000E-01     -1.117627000000000E+01
4240000000.000000      3.482361000000000E-01     -2.822754000000000E+01      7.219543000000000E-01     -2.800879000000000E+01
4260000000.000000      3.092804000000000E-01     -3.401758000000000E+01      7.428589000000000E-01     -4.197070000000000E+01
4280000000.000000      2.586975000000000E-01     -3.511523000000000E+01      7.516785000000000E-01     -5.590820000000000E+01
4300000000.000000      2.227478000000000E-01     -2.683496000000000E+01      7.140198000000000E-01     -7.090625000000000E+01
4320000000.000000      2.368317000000000E-01     -1.421240000000000E+01      6.299744000000000E-01     -8.524218000000000E+01
4340000000.000000      2.948151000000000E-01     -1.049365000000000E+01      5.137634000000000E-01     -9.804296000000000E+01
4360000000.000000      3.601379000000000E-01     -1.565576000000000E+01      3.788910000000000E-01     -1.069141000000000E+02
4380000000.000000      4.060364000000000E-01     -2.466797000000000E+01      2.478714000000000E-01     -1.077344000000000E+02
4400000000.000000      4.271545000000000E-01     -3.460351000000000E+01      1.532364000000000E-01     -8.429296000000000E+01
4420000000.000000      4.249420000000000E-01     -4.392774000000000E+01      1.898956000000000E-01     -4.522070000000000E+01
4440000000.000000      4.084625000000000E-01     -5.199023000000000E+01      3.128815000000000E-01     -3.610937000000000E+01
4460000000.000000      3.876495000000000E-01     -5.846484000000000E+01      4.551697000000000E-01     -4.350781000000000E+01
4480000000.000000      3.669434000000000E-01     -6.487499000000000E+01      5.621643000000000E-01     -5.563477000000000E+01
4500000000.000000      3.459473000000000E-01     -7.174999000000000E+01      6.444092000000000E-01     -6.701953000000000E+01
4520000000.000000      3.125153000000000E-01     -7.950000000000000E+01      7.178040000000000E-01     -7.994922000000000E+01
4540000000.000000      2.607269000000000E-01     -8.562500000000000E+01      7.415161000000000E-01     -9.456640000000000E+01
4560000000.000000      1.995010000000000E-01     -8.364061000000000E+01      7.275696000000000E-01     -1.077734000000000E+02
4580000000.000000      1.733856000000000E-01     -6.731640000000000E+01      6.892700000000000E-01     -1.215351000000000E+02
4600000000.000000      2.122955000000000E-01     -5.349609000000000E+01      6.036682000000000E-01     -1.348828000000000E+02
4620000000.000000      2.775421000000000E-01     -5.505273000000000E+01      4.969940000000000E-01     -1.451953000000000E+02
4640000000.000000      3.302765000000000E-01     -6.503906000000000E+01      3.775635000000000E-01     -1.533281000000000E+02
4660000000.000000      3.538513000000000E-01     -7.840234000000000E+01      2.451096000000000E-01     -1.513359000000000E+02
4680000000.000000      3.443604000000000E-01     -9.235155000000000E+01      1.799850000000000E-01     -1.227305000000000E+02
4700000000.000000      3.068542000000000E-01     -1.054688000000000E+02      2.508545000000000E-01     -9.650391000000000E+01
4720000000.000000      2.509460000000000E-01     -1.159180000000000E+02      3.702240000000000E-01     -9.558203000000000E+01
4740000000.000000      1.887665000000000E-01     -1.208242000000000E+02      4.759369000000000E-01     -1.020586000000000E+02
4760000000.000000      1.377869000000000E-01     -1.165000000000000E+02      5.830383000000000E-01     -1.107539000000000E+02
4780000000.000000      1.125145000000000E-01     -1.004531000000000E+02      6.691284000000000E-01     -1.230586000000000E+02
4800000000.000000      1.193848000000000E-01     -8.308594000000000E+01      7.176208000000000E-01     -1.359297000000000E+02
4820000000.000000      1.483307000000000E-01     -7.361718000000000E+01      7.356262000000000E-01     -1.492656000000000E+02
4840000000.000000      1.901550000000000E-01     -7.367188000000000E+01      7.162476000000000E-01     -1.620625000000000E+02
4860000000.000000      2.329254000000000E-01     -8.029688000000000E+01      6.834106000000000E-01     -1.744844000000000E+02
4880000000.000000      2.700958000000000E-01     -9.084764000000000E+01      6.148376000000000E-01      1.715781000000000E+02
4900000000.000000      2.953491000000000E-01     -1.044492000000000E+02      4.944000000000000E-01      1.596250000000000E+02
4920000000.000000      3.007507000000000E-01     -1.195117000000000E+02      3.630676000000000E-01      1.536562000000000E+02
4940000000.000000      2.858887000000000E-01     -1.351094000000000E+02      2.499466000000000E-01      1.561094000000000E+02
4960000000.000000      2.542114000000000E-01     -1.503281000000000E+02      1.765060000000000E-01      1.780000000000000E+02
4980000000.000000      2.120132000000000E-01     -1.643047000000000E+02      2.163010000000000E-01     -1.508828000000000E+02
5000000000.000000      1.680756000000000E-01     -1.759922000000000E+02      3.327179000000000E-01     -1.436250000000000E+02
5020000000.000000      1.303558000000000E-01      1.740391000000000E+02      4.622192000000000E-01     -1.498437000000000E+02
5040000000.000000      9.954834000000000E-02      1.639844000000000E+02      5.715332000000000E-01     -1.606797000000000E+02
5060000000.000000      7.159424000000000E-02      1.491719000000000E+02      6.507568000000000E-01     -1.720312000000000E+02
5080000000.000000      4.139137000000000E-02      1.228750000000000E+02      7.175903000000000E-01      1.756406000000000E+02
5100000000.000000      1.605797000000000E-02      3.996289000000000E+01      7.555847000000000E-01      1.619922000000000E+02
5120000000.000000      4.133606000000000E-02     -5.240624000000000E+01      7.514954000000000E-01      1.478047000000000E+02
5140000000.000000      7.338715000000000E-02     -8.849609000000000E+01      7.023926000000000E-01      1.341406000000000E+02
5160000000.000000      9.701157000000000E-02     -1.195625000000000E+02      6.264648000000000E-01      1.218359000000000E+02
5180000000.000000      1.101074000000000E-01     -1.501094000000000E+02      5.297546000000000E-01      1.104023000000000E+02
5200000000.000000      1.129150000000000E-01      1.772422000000000E+02      4.139404000000000E-01      1.009961000000000E+02
5220000000.000000      1.101799000000000E-01      1.416641000000000E+02      2.804108000000000E-01      9.839062000000000E+01
5240000000.000000      1.094475000000000E-01      1.054726000000000E+02      1.826553000000000E-01      1.159844000000000E+02
5260000000.000000      1.134911000000000E-01      7.182422000000000E+01      1.982803000000000E-01      1.500781000000000E+02
5280000000.000000      1.206169000000000E-01      4.529882000000000E+01      2.988739000000000E-01      1.607578000000000E+02
5300000000.000000      1.276627000000000E-01      2.480957000000000E+01      4.120331000000000E-01      1.579922000000000E+02
5320000000.000000      1.334991000000000E-01      8.405762000000000E+00      5.296021000000000E-01      1.501875000000000E+02
5340000000.000000      1.388855000000000E-01     -5.997314000000000E+00      6.401978000000000E-01      1.382422000000000E+02
5360000000.000000      1.433334000000000E-01     -2.168457000000000E+01      7.060547000000000E-01      1.238555000000000E+02
5380000000.000000      1.383209000000000E-01     -3.934570000000000E+01      7.165222000000000E-01      1.105430000000000E+02
5400000000.000000      1.191063000000000E-01     -5.757226000000000E+01      7.187805000000000E-01      9.876171000000000E+01
5420000000.000000      8.377075000000000E-02     -7.466406000000000E+01      7.037964000000000E-01      8.572266000000000E+01
5440000000.000000      2.926445000000000E-02     -7.848437000000000E+01      6.456604000000000E-01      7.151562000000000E+01
5460000000.000000      4.401779000000000E-02      3.908984000000000E+01      5.379639000000000E-01      5.838476000000000E+01
5480000000.000000      1.136322000000000E-01      3.088086000000000E+01      4.092407000000000E-01      4.929101000000000E+01
5500000000.000000      1.764755000000000E-01      1.554150000000000E+01      2.899933000000000E-01      4.751562000000000E+01
5520000000.000000      2.215271000000000E-01      4.174805000000000E-01      1.938019000000000E-01      5.980469000000000E+01
5540000000.000000      2.519836000000000E-01     -1.331836000000000E+01      1.822281000000000E-01      9.159374000000000E+01
5560000000.000000      2.699585000000000E-01     -2.516504000000000E+01      2.654419000000000E-01      1.087578000000000E+02
5580000000.000000      2.820435000000000E-01     -3.521093000000000E+01      3.874817000000000E-01      1.084570000000000E+02
5600000000.000000      2.937775000000000E-01     -4.388867000000000E+01      5.089722000000000E-01      9.933203000000000E+01
5620000000.000000      3.043823000000000E-01     -5.313477000000000E+01      5.982361000000000E-01      8.695313000000000E+01
5640000000.000000      3.078766000000000E-01     -6.297265000000000E+01      6.487122000000000E-01      7.506640000000000E+01
5660000000.000000      2.975159000000000E-01     -7.358984000000000E+01      6.861877000000000E-01      6.374023000000000E+01
5680000000.000000      2.675323000000000E-01     -8.387890000000000E+01      6.974487000000000E-01      5.083984000000000E+01
5700000000.000000      2.191086000000000E-01     -9.117579000000000E+01      6.817627000000000E-01      3.852344000000000E+01
5720000000.000000      1.690750000000000E-01     -8.950781000000000E+01      6.417847000000000E-01      2.585351000000000E+01
5740000000.000000      1.494370000000000E-01     -7.481250000000000E+01      5.618896000000000E-01      1.247314000000000E+01
5760000000.000000      1.794434000000000E-01     -6.341601000000000E+01      4.475708000000000E-01      1.106873000000000E+00
5780000000.000000      2.256775000000000E-01     -6.535937000000000E+01      3.138275000000000E-01     -3.713379000000000E+00
5800000000.000000      2.570190000000000E-01     -7.326953000000000E+01      2.067261000000000E-01      7.595459000000000E+00
5820000000.000000      2.667999000000000E-01     -8.269140000000000E+01      1.905823000000000E-01      3.823242000000000E+01
5840000000.000000      2.562714000000000E-01     -9.101563000000000E+01      2.734528000000000E-01      5.421875000000000E+01
5860000000.000000      2.379227000000000E-01     -9.661718000000000E+01      3.749542000000000E-01      5.400000000000000E+01
5880000000.000000      2.233353000000000E-01     -9.974609000000000E+01      4.806061000000000E-01      4.843359000000000E+01
5900000000.000000      2.156219000000000E-01     -1.021211000000000E+02      5.962219000000000E-01      3.817968000000000E+01
5920000000.000000      2.080002000000000E-01     -1.051289000000000E+02      6.724548000000000E-01      2.426172000000000E+01
5940000000.000000      1.936493000000000E-01     -1.070625000000000E+02      7.013855000000000E-01      1.103711000000000E+01
5960000000.000000      1.769562000000000E-01     -1.051367000000000E+02      7.130737000000000E-01     -1.748230000000000E+00
5980000000.000000      1.656189000000000E-01     -9.708984000000000E+01      6.884460000000000E-01     -1.586719000000000E+01
6000000000.000000      1.816101000000000E-01     -8.794531000000000E+01      6.266174000000000E-01     -2.922363000000000E+01
6020000000.000000      2.175522000000000E-01     -8.632421000000000E+01      5.267639000000000E-01     -4.172265000000000E+01
6040000000.000000      2.522430000000000E-01     -9.173437000000000E+01      3.971100000000000E-01     -5.002343000000000E+01
6060000000.000000      2.753906000000000E-01     -1.008750000000000E+02      2.833252000000000E-01     -4.950000000000000E+01
6080000000.000000      2.847748000000000E-01     -1.110938000000000E+02      2.046509000000000E-01     -3.510742000000000E+01
