! Network Analyzer HP8722D
! Hewlett-Packard
! Data name: Linha & Wilkinson+CNT
! Saver's name: Rodrigo Anjos
! Comments: Teste da utilização de aquisição
continua pelo VNA HP8722D
! Time and date: 29/9/2025 14:38
!              Frequency                     S11                                                   S21                                                   S12                                                   S22
# HZ  S  MA R 50
3000000000.000000      4.229736000000000E-01     -5.607031000000000E+01      2.080460000000000E-01     -1.315000000000000E+02
3020000000.000000      4.507294000000000E-01     -6.979297000000000E+01      3.503723000000000E-01     -1.349609000000000E+02
3040000000.000000      4.524994000000000E-01     -8.279688000000000E+01      4.671478000000000E-01     -1.448984000000000E+02
3060000000.000000      4.450073000000000E-01     -9.498047000000000E+01      5.737000000000000E-01     -1.551641000000000E+02
3080000000.000000      4.294891000000000E-01     -1.062109000000000E+02      6.744690000000000E-01     -1.682422000000000E+02
3100000000.000000      4.088440000000000E-01     -1.174414000000000E+02      7.241211000000000E-01      1.768203000000000E+02
3120000000.000000      3.793945000000000E-01     -1.293359000000000E+02      7.316284000000000E-01      1.634453000000000E+02
3140000000.000000      3.390656000000000E-01     -1.424609000000000E+02      7.233887000000000E-01      1.504375000000000E+02
3160000000.000000      2.785645000000000E-01     -1.563750000000000E+02      6.824036000000000E-01      1.370391000000000E+02
3180000000.000000      1.992416000000000E-01     -1.690781000000000E+02      6.144409000000000E-01      1.242812000000000E+02
3200000000.000000      1.111984000000000E-01     -1.696797000000000E+02      5.191345000000000E-01      1.115195000000000E+02
3220000000.000000      7.930374000000000E-02     -1.239726000000000E+02      3.852997000000000E-01      1.007930000000000E+02
3240000000.000000      1.508560000000000E-01     -1.049531000000000E+02      2.464981000000000E-01      9.943359000000000E+01
3260000000.000000      2.301788000000000E-01     -1.151367000000000E+02      1.472549000000000E-01      1.255820000000000E+02
3280000000.000000      2.875366000000000E-01     -1.308906000000000E+02      2.036285000000000E-01      1.653828000000000E+02
3300000000.000000      3.203430000000000E-01     -1.472422000000000E+02      3.305206000000000E-01      1.696875000000000E+02
3320000000.000000      3.320923000000000E-01     -1.631406000000000E+02      4.630585000000000E-01      1.625391000000000E+02
3340000000.000000      3.285217000000000E-01     -1.785156000000000E+02      5.742188000000000E-01      1.505703000000000E+02
3360000000.000000      3.168182000000000E-01      1.667969000000000E+02      6.469421000000000E-01      1.382891000000000E+02
3380000000.000000      3.000031000000000E-01      1.524141000000000E+02      7.087402000000000E-01      1.271133000000000E+02
3400000000.000000      2.780457000000000E-01      1.377422000000000E+02      7.584839000000000E-01      1.131992000000000E+02
3420000000.000000      2.429047000000000E-01      1.227734000000000E+02      7.495728000000000E-01      9.837500000000000E+01
3440000000.000000      1.903458000000000E-01      1.079922000000000E+02      7.048035000000000E-01      8.557032000000000E+01
3460000000.000000      1.195793000000000E-01      9.728905000000000E+01      6.465149000000000E-01      7.242578000000000E+01
3480000000.000000      4.766273000000000E-02      1.216211000000000E+02      5.494690000000000E-01      5.899023000000000E+01
3500000000.000000      9.225845000000000E-02     -1.743203000000000E+02      4.240112000000000E-01      4.758985000000000E+01
3520000000.000000      1.837540000000000E-01      1.790859000000000E+02      2.782745000000000E-01      4.054688000000000E+01
3540000000.000000      2.633667000000000E-01      1.628281000000000E+02      1.473312000000000E-01      5.835351000000000E+01
3560000000.000000      3.232117000000000E-01      1.457813000000000E+02      1.673584000000000E-01      1.078086000000000E+02
3580000000.000000      3.597870000000000E-01      1.298281000000000E+02      2.944336000000000E-01      1.175469000000000E+02
3600000000.000000      3.762665000000000E-01      1.152383000000000E+02      4.198456000000000E-01      1.106445000000000E+02
3620000000.000000      3.775940000000000E-01      1.025469000000000E+02      5.207825000000000E-01      1.010938000000000E+02
3640000000.000000      3.686676000000000E-01      9.132030000000000E+01      6.217041000000000E-01      8.998827000000000E+01
3660000000.000000      3.521423000000000E-01      8.104687000000000E+01      6.935730000000000E-01      7.583202000000000E+01
3680000000.000000      3.296509000000000E-01      7.189843000000000E+01      7.100830000000000E-01      6.259570000000000E+01
3700000000.000000      2.986603000000000E-01      6.360937000000000E+01      7.213135000000000E-01      5.100390000000000E+01
3720000000.000000      2.548370000000000E-01      5.755468000000000E+01      7.239380000000000E-01      3.674805000000000E+01
3740000000.000000      2.043610000000000E-01      5.833008000000000E+01      6.631775000000000E-01      2.140820000000000E+01
3760000000.000000      1.778946000000000E-01      7.242578000000000E+01      5.658569000000000E-01      7.062744000000000E+00
3780000000.000000      2.117691000000000E-01      8.748047000000000E+01      4.347992000000000E-01     -6.199219000000000E+00
3800000000.000000      2.824402000000000E-01      8.906250000000000E+01      2.815704000000000E-01     -1.344189000000000E+01
3820000000.000000      3.502350000000000E-01      8.265625000000000E+01      1.534424000000000E-01     -3.666687000000000E-01
3840000000.000000      4.006042000000000E-01      7.393359000000000E+01      1.431427000000000E-01      4.790820000000000E+01
3860000000.000000      4.349518000000000E-01      6.535937000000000E+01      2.460251000000000E-01      6.533593000000000E+01
3880000000.000000      4.605255000000000E-01      5.777148000000000E+01      3.766479000000000E-01      6.112499000000000E+01
3900000000.000000      4.888306000000000E-01      5.075781000000000E+01      4.767914000000000E-01      4.760156000000000E+01
3920000000.000000      5.212402000000000E-01      4.315234000000000E+01      5.086670000000000E-01      3.599804000000000E+01
3940000000.000000      5.509338000000000E-01      3.423633000000000E+01      5.389404000000000E-01      2.966113000000000E+01
3960000000.000000      5.584717000000000E-01      2.402344000000000E+01      5.949402000000000E-01      2.001367000000000E+01
3980000000.000000      5.517273000000000E-01      1.348828000000000E+01      5.971985000000000E-01      8.143555000000000E+00
4000000000.000000      5.288086000000000E-01      3.125610000000000E+00      5.787354000000000E-01      1.190613000000000E+00
4020000000.000000      4.839020000000000E-01     -6.840576000000000E+00      5.978699000000000E-01     -6.558838000000000E+00
4040000000.000000      4.250031000000000E-01     -1.568311000000000E+01      5.854492000000000E-01     -1.887109000000000E+01
4060000000.000000      3.487854000000000E-01     -2.185059000000000E+01      5.271606000000000E-01     -2.884766000000000E+01
4080000000.000000      2.740173000000000E-01     -2.178515000000000E+01      4.699860000000000E-01     -3.815039000000000E+01
4100000000.000000      2.286758000000000E-01     -1.122119000000000E+01      3.666077000000000E-01     -4.749219000000000E+01
4120000000.000000      2.415695000000000E-01      1.936340000000000E+00      2.491837000000000E-01     -4.418164000000000E+01
4140000000.000000      2.897339000000000E-01      5.254150000000000E+00      2.029495000000000E-01     -2.000781000000000E+01
4160000000.000000      3.339844000000000E-01      9.187317000000000E-01      2.639618000000000E-01     -7.003784000000000E-02
4180000000.000000      3.616028000000000E-01     -5.892822000000000E+00      3.571014000000000E-01      3.893188000000000E+00
4200000000.000000      3.714905000000000E-01     -1.366699000000000E+01      4.876709000000000E-01      1.337585000000000E+00
4220000000.000000      3.674316000000000E-01     -2.088281000000000E+01      6.421509000000000E-01     -1.111035000000000E+01
4240000000.000000      3.480988000000000E-01     -2.838769000000000E+01      7.207947000000000E-01     -2.791308000000000E+01
4260000000.000000      3.097534000000000E-01     -3.411523000000000E+01      7.436829000000000E-01     -4.185351000000000E+01
4280000000.000000      2.593231000000000E-01     -3.536718000000000E+01      7.525024000000000E-01     -5.576172000000000E+01
4300000000.000000      2.223587000000000E-01     -2.725195000000000E+01      7.132874000000000E-01     -7.064843000000000E+01
4320000000.000000      2.353973000000000E-01     -1.454346000000000E+01      6.320190000000000E-01     -8.512499000000000E+01
4340000000.000000      2.936554000000000E-01     -1.048096000000000E+01      5.168152000000000E-01     -9.799217000000000E+01
4360000000.000000      3.589630000000000E-01     -1.558154000000000E+01      3.799744000000000E-01     -1.069570000000000E+02
4380000000.000000      4.053040000000000E-01     -2.462891000000000E+01      2.496719000000000E-01     -1.080430000000000E+02
4400000000.000000      4.262085000000000E-01     -3.455664000000000E+01      1.532516000000000E-01     -8.516405000000000E+01
4420000000.000000      4.239960000000000E-01     -4.392578000000000E+01      1.878662000000000E-01     -4.547265000000000E+01
4440000000.000000      4.073486000000000E-01     -5.206640000000000E+01      3.109436000000000E-01     -3.618164000000000E+01
4460000000.000000      3.856659000000000E-01     -5.864062000000000E+01      4.529724000000000E-01     -4.332617000000000E+01
4480000000.000000      3.668823000000000E-01     -6.465625000000000E+01      5.611877000000000E-01     -5.545898000000000E+01
4500000000.000000      3.466797000000000E-01     -7.162499000000000E+01      6.432190000000000E-01     -6.687109000000000E+01
4520000000.000000      3.132629000000000E-01     -7.939453000000000E+01      7.147522000000000E-01     -7.981640000000000E+01
4540000000.000000      2.618256000000000E-01     -8.555468000000000E+01      7.415466000000000E-01     -9.441406000000000E+01
4560000000.000000      2.010803000000000E-01     -8.379297000000000E+01      7.294922000000000E-01     -1.076367000000000E+02
4580000000.000000      1.739120000000000E-01     -6.780078000000000E+01      6.909180000000000E-01     -1.214609000000000E+02
4600000000.000000      2.119293000000000E-01     -5.381836000000000E+01      6.064453000000000E-01     -1.347969000000000E+02
4620000000.000000      2.766724000000000E-01     -5.528320000000000E+01      4.982910000000000E-01     -1.451172000000000E+02
4640000000.000000      3.309631000000000E-01     -6.508984000000000E+01      3.805695000000000E-01     -1.533828000000000E+02
4660000000.000000      3.545074000000000E-01     -7.842187000000000E+01      2.462769000000000E-01     -1.518828000000000E+02
4680000000.000000      3.462982000000000E-01     -9.237108000000000E+01      1.790314000000000E-01     -1.235195000000000E+02
4700000000.000000      3.093414000000000E-01     -1.056016000000000E+02      2.481232000000000E-01     -9.652733000000000E+01
4720000000.000000      2.532043000000000E-01     -1.162109000000000E+02      3.664398000000000E-01     -9.544140000000000E+01
4740000000.000000      1.910400000000000E-01     -1.215039000000000E+02      4.741974000000000E-01     -1.017773000000000E+02
4760000000.000000      1.389542000000000E-01     -1.175352000000000E+02      5.795288000000000E-01     -1.104844000000000E+02
4780000000.000000      1.123238000000000E-01     -1.015859000000000E+02      6.688232000000000E-01     -1.229492000000000E+02
4800000000.000000      1.176338000000000E-01     -8.404297000000000E+01      7.167969000000000E-01     -1.356719000000000E+02
4820000000.000000      1.468353000000000E-01     -7.419531000000000E+01      7.363892000000000E-01     -1.490156000000000E+02
4840000000.000000      1.872711000000000E-01     -7.383594000000000E+01      7.195129000000000E-01     -1.618359000000000E+02
4860000000.000000      2.308350000000000E-01     -8.036327000000000E+01      6.835938000000000E-01     -1.744141000000000E+02
4880000000.000000      2.678833000000000E-01     -9.079296000000000E+01      6.151428000000000E-01      1.717969000000000E+02
4900000000.000000      2.938232000000000E-01     -1.041953000000000E+02      4.951477000000000E-01      1.596406000000000E+02
4920000000.000000      2.996979000000000E-01     -1.192930000000000E+02      3.654938000000000E-01      1.534765000000000E+02
4940000000.000000      2.858276000000000E-01     -1.350547000000000E+02      2.516479000000000E-01      1.560000000000000E+02
4960000000.000000      2.545471000000000E-01     -1.502344000000000E+02      1.770935000000000E-01      1.774297000000000E+02
4980000000.000000      2.125549000000000E-01     -1.644453000000000E+02      2.146149000000000E-01     -1.511875000000000E+02
5000000000.000000      1.679077000000000E-01     -1.760391000000000E+02      3.306732000000000E-01     -1.434922000000000E+02
5020000000.000000      1.302338000000000E-01      1.739687000000000E+02      4.607391000000000E-01     -1.496953000000000E+02
5040000000.000000      1.003380000000000E-01      1.636016000000000E+02      5.692749000000000E-01     -1.604063000000000E+02
5060000000.000000      7.200623000000000E-02      1.485469000000000E+02      6.513367000000000E-01     -1.718594000000000E+02
5080000000.000000      4.141617000000000E-02      1.233789000000000E+02      7.182922000000000E-01      1.759140000000000E+02
5100000000.000000      1.726055000000000E-02      4.157617000000000E+01      7.581177000000000E-01      1.621328000000000E+02
5120000000.000000      4.127312000000000E-02     -5.136132000000000E+01      7.535400000000000E-01      1.480078000000000E+02
5140000000.000000      7.218552000000000E-02     -8.754297000000000E+01      7.030029000000000E-01      1.342344000000000E+02
5160000000.000000      9.617615000000000E-02     -1.189805000000000E+02      6.269836000000000E-01      1.219765000000000E+02
5180000000.000000      1.097107000000000E-01     -1.496172000000000E+02      5.317688000000000E-01      1.107461000000000E+02
5200000000.000000      1.126633000000000E-01      1.777031000000000E+02      4.160919000000000E-01      1.011133000000000E+02
5220000000.000000      1.100464000000000E-01      1.417344000000000E+02      2.828217000000000E-01      9.827734000000000E+01
5240000000.000000      1.089516000000000E-01      1.057305000000000E+02      1.836319000000000E-01      1.155508000000000E+02
5260000000.000000      1.135788000000000E-01      7.231640000000000E+01      1.966782000000000E-01      1.494375000000000E+02
5280000000.000000      1.208572000000000E-01      4.575391000000000E+01      2.967834000000000E-01      1.605859000000000E+02
5300000000.000000      1.279449000000000E-01      2.503613000000000E+01      4.098206000000000E-01      1.581250000000000E+02
5320000000.000000      1.331558000000000E-01      8.636230000000000E+00      5.269470000000000E-01      1.504531000000000E+02
5340000000.000000      1.392059000000000E-01     -5.806396000000000E+00      6.389771000000000E-01      1.384531000000000E+02
5360000000.000000      1.437378000000000E-01     -2.112988000000000E+01      7.067566000000000E-01      1.241367000000000E+02
5380000000.000000      1.385956000000000E-01     -3.883398000000000E+01      7.178955000000000E-01      1.105586000000000E+02
5400000000.000000      1.198502000000000E-01     -5.686523000000000E+01      7.171936000000000E-01      9.902733000000000E+01
5420000000.000000      8.442307000000000E-02     -7.381640000000000E+01      7.042236000000000E-01      8.598436000000000E+01
5440000000.000000      3.017044000000000E-02     -7.792187000000000E+01      6.477966000000000E-01      7.145702000000000E+01
5460000000.000000      4.378319000000000E-02      3.920898000000000E+01      5.397034000000000E-01      5.849023000000000E+01
5480000000.000000      1.128502000000000E-01      3.104297000000000E+01      4.123993000000000E-01      4.918945000000000E+01
5500000000.000000      1.756058000000000E-01      1.566748000000000E+01      2.922058000000000E-01      4.729688000000000E+01
5520000000.000000      2.212143000000000E-01      5.891418000000000E-01      1.950836000000000E-01      5.909765000000000E+01
5540000000.000000      2.515564000000000E-01     -1.312061000000000E+01      1.813583000000000E-01      9.094921000000000E+01
5560000000.000000      2.703094000000000E-01     -2.501953000000000E+01      2.633057000000000E-01      1.088359000000000E+02
5580000000.000000      2.822876000000000E-01     -3.497265000000000E+01      3.848267000000000E-01      1.085664000000000E+02
5600000000.000000      2.938995000000000E-01     -4.385742000000000E+01      5.067444000000000E-01      9.963280000000000E+01
5620000000.000000      3.043976000000000E-01     -5.297070000000000E+01      5.983887000000000E-01      8.705078000000000E+01
5640000000.000000      3.080597000000000E-01     -6.270898000000000E+01      6.487427000000000E-01      7.513672000000000E+01
5660000000.000000      2.980499000000000E-01     -7.341406000000000E+01      6.848450000000000E-01      6.374413000000000E+01
5680000000.000000      2.681274000000000E-01     -8.373438000000000E+01      6.993408000000000E-01      5.104101000000000E+01
5700000000.000000      2.211609000000000E-01     -9.116014000000000E+01      6.824036000000000E-01      3.865820000000000E+01
5720000000.000000      1.709061000000000E-01     -8.983202000000000E+01      6.436462000000000E-01      2.602344000000000E+01
5740000000.000000      1.497421000000000E-01     -7.517578000000000E+01      5.658569000000000E-01      1.260498000000000E+01
5760000000.000000      1.783676000000000E-01     -6.370312000000000E+01      4.497528000000000E-01      1.010742000000000E+00
5780000000.000000      2.248917000000000E-01     -6.521484000000000E+01      3.159180000000000E-01     -3.988037000000000E+00
5800000000.000000      2.573395000000000E-01     -7.305469000000000E+01      2.083359000000000E-01      6.987305000000000E+00
5820000000.000000      2.670288000000000E-01     -8.262890000000000E+01      1.894302000000000E-01      3.757617000000000E+01
5840000000.000000      2.573700000000000E-01     -9.092188000000000E+01      2.713623000000000E-01      5.402734000000000E+01
5860000000.000000      2.390366000000000E-01     -9.664063000000000E+01      3.721771000000000E-01      5.404297000000000E+01
5880000000.000000      2.241669000000000E-01     -9.983593000000000E+01      4.788055000000000E-01      4.869726000000000E+01
5900000000.000000      2.159271000000000E-01     -1.022969000000000E+02      5.964355000000000E-01      3.845508000000000E+01
5920000000.000000      2.087631000000000E-01     -1.051055000000000E+02      6.725464000000000E-01      2.444726000000000E+01
5940000000.000000      1.944962000000000E-01     -1.070234000000000E+02      7.027893000000000E-01      1.132813000000000E+01
5960000000.000000      1.772003000000000E-01     -1.053672000000000E+02      7.135925000000000E-01     -1.533997000000000E+00
5980000000.000000      1.657562000000000E-01     -9.753124000000000E+01      6.926270000000000E-01     -1.539893000000000E+01
6000000000.000000      1.814346000000000E-01     -8.835155000000000E+01      6.294250000000000E-01     -2.910351000000000E+01
6020000000.000000      2.157211000000000E-01     -8.650782000000000E+01      5.281982000000000E-01     -4.174414000000000E+01
6040000000.000000      2.515869000000000E-01     -9.183985000000000E+01      3.991852000000000E-01     -4.987499000000000E+01
6060000000.000000      2.755890000000000E-01     -1.008203000000000E+02      2.852783000000000E-01     -4.966991000000000E+01
6080000000.000000      2.860413000000000E-01     -1.110078000000000E+02      2.059784000000000E-01     -3.574023000000000E+01
