! Network Analyzer HP8722D
! Hewlett-Packard
! Data name: Linha & Wilkinson+CNT
! Saver's name: Rodrigo Anjos
! Comments: Teste da utilização de aquisição
continua pelo VNA HP8722D
! Time and date: 29/9/2025 12:29
!              Frequency                     S11                                                   S21                                                   S12                                                   S22
# HZ  S  MA R 50
3000000000.000000      4.233398000000000E-01     -5.615234000000000E+01      2.073212000000000E-01     -1.313437000000000E+02
3020000000.000000      4.476929000000000E-01     -7.025781000000000E+01      3.495331000000000E-01     -1.348672000000000E+02
3040000000.000000      4.540253000000000E-01     -8.314844000000000E+01      4.669952000000000E-01     -1.446563000000000E+02
3060000000.000000      4.466400000000000E-01     -9.515234000000000E+01      5.704956000000000E-01     -1.550781000000000E+02
3080000000.000000      4.314270000000000E-01     -1.064414000000000E+02      6.726074000000000E-01     -1.682109000000000E+02
3100000000.000000      4.113922000000000E-01     -1.175078000000000E+02      7.223206000000000E-01      1.769844000000000E+02
3120000000.000000      3.829041000000000E-01     -1.294375000000000E+02      7.314148000000000E-01      1.636172000000000E+02
3140000000.000000      3.420258000000000E-01     -1.423750000000000E+02      7.238464000000000E-01      1.506797000000000E+02
3160000000.000000      2.817993000000000E-01     -1.561328000000000E+02      6.837158000000000E-01      1.371953000000000E+02
3180000000.000000      2.022476000000000E-01     -1.684609000000000E+02      6.134949000000000E-01      1.247461000000000E+02
3200000000.000000      1.147652000000000E-01     -1.687187000000000E+02      5.195313000000000E-01      1.119141000000000E+02
3220000000.000000      8.295441000000000E-02     -1.247383000000000E+02      3.871155000000000E-01      1.009141000000000E+02
3240000000.000000      1.536026000000000E-01     -1.055430000000000E+02      2.468719000000000E-01      9.973436000000000E+01
3260000000.000000      2.328033000000000E-01     -1.154726000000000E+02      1.472397000000000E-01      1.257070000000000E+02
3280000000.000000      2.907410000000000E-01     -1.308750000000000E+02      2.032852000000000E-01      1.655156000000000E+02
3300000000.000000      3.236847000000000E-01     -1.470078000000000E+02      3.294220000000000E-01      1.698750000000000E+02
3320000000.000000      3.355408000000000E-01     -1.627656000000000E+02      4.630280000000000E-01      1.627734000000000E+02
3340000000.000000      3.316803000000000E-01     -1.780391000000000E+02      5.743713000000000E-01      1.507891000000000E+02
3360000000.000000      3.196259000000000E-01      1.673750000000000E+02      6.468201000000000E-01      1.386016000000000E+02
3380000000.000000      3.025818000000000E-01      1.532187000000000E+02      7.095337000000000E-01      1.272109000000000E+02
3400000000.000000      2.791138000000000E-01      1.385625000000000E+02      7.591858000000000E-01      1.132305000000000E+02
3420000000.000000      2.435074000000000E-01      1.235352000000000E+02      7.501831000000000E-01      9.862890000000000E+01
3440000000.000000      1.897430000000000E-01      1.090351000000000E+02      7.066956000000000E-01      8.568750000000000E+01
3460000000.000000      1.183319000000000E-01      9.861717000000000E+01      6.466980000000000E-01      7.256640000000000E+01
3480000000.000000      4.783058000000000E-02      1.247852000000000E+02      5.489502000000000E-01      5.906640000000000E+01
3500000000.000000      9.487534000000000E-02     -1.732578000000000E+02      4.255981000000000E-01      4.771680000000000E+01
3520000000.000000      1.867065000000000E-01      1.798359000000000E+02      2.787781000000000E-01      4.078125000000000E+01
3540000000.000000      2.648468000000000E-01      1.635391000000000E+02      1.477280000000000E-01      5.861718000000000E+01
3560000000.000000      3.239136000000000E-01      1.465156000000000E+02      1.672745000000000E-01      1.076797000000000E+02
3580000000.000000      3.598022000000000E-01      1.304375000000000E+02      2.949677000000000E-01      1.176445000000000E+02
3600000000.000000      3.763123000000000E-01      1.157148000000000E+02      4.199371000000000E-01      1.106953000000000E+02
3620000000.000000      3.770599000000000E-01      1.030000000000000E+02      5.225220000000000E-01      1.012734000000000E+02
3640000000.000000      3.671417000000000E-01      9.169140000000000E+01      6.232300000000000E-01      9.016796000000000E+01
3660000000.000000      3.511200000000000E-01      8.132421000000000E+01      6.934509000000000E-01      7.575390000000000E+01
3680000000.000000      3.277740000000000E-01      7.216015000000000E+01      7.119141000000000E-01      6.267968000000000E+01
3700000000.000000      2.972107000000000E-01      6.386719000000000E+01      7.215271000000000E-01      5.102929000000000E+01
3720000000.000000      2.524261000000000E-01      5.766602000000000E+01      7.250977000000000E-01      3.687304000000000E+01
3740000000.000000      2.021866000000000E-01      5.843163000000000E+01      6.646729000000000E-01      2.143261000000000E+01
3760000000.000000      1.753159000000000E-01      7.260937000000000E+01      5.651550000000000E-01      7.279785000000000E+00
3780000000.000000      2.100067000000000E-01      8.780468000000000E+01      4.355316000000000E-01     -5.916260000000000E+00
3800000000.000000      2.808990000000000E-01      8.930859000000000E+01      2.819366000000000E-01     -1.338037000000000E+01
3820000000.000000      3.479156000000000E-01      8.282421000000000E+01      1.538696000000000E-01     -2.183533000000000E-01
3840000000.000000      3.988495000000000E-01      7.401172000000000E+01      1.432648000000000E-01      4.791992000000000E+01
3860000000.000000      4.338226000000000E-01      6.536327000000000E+01      2.464371000000000E-01      6.542578000000000E+01
3880000000.000000      4.590149000000000E-01      5.775585000000000E+01      3.761902000000000E-01      6.122460000000000E+01
3900000000.000000      4.883575000000000E-01      5.070313000000000E+01      4.776611000000000E-01      4.786718000000000E+01
3920000000.000000      5.200806000000000E-01      4.304883000000000E+01      5.105591000000000E-01      3.611719000000000E+01
3940000000.000000      5.471191000000000E-01      3.390625000000000E+01      5.397034000000000E-01      2.946386000000000E+01
3960000000.000000      5.583496000000000E-01      2.377636000000000E+01      5.962219000000000E-01      2.016308000000000E+01
3980000000.000000      5.532837000000000E-01      1.321777000000000E+01      5.974426000000000E-01      8.260254000000000E+00
4000000000.000000      5.253296000000000E-01      2.947021000000000E+00      5.798340000000000E-01      1.384277000000000E+00
4020000000.000000      4.830475000000000E-01     -7.105469000000000E+00      5.985718000000000E-01     -6.445068000000000E+00
4040000000.000000      4.242096000000000E-01     -1.598145000000000E+01      5.861206000000000E-01     -1.871582000000000E+01
4060000000.000000      3.482513000000000E-01     -2.226172000000000E+01      5.285339000000000E-01     -2.871582000000000E+01
4080000000.000000      2.745056000000000E-01     -2.236328000000000E+01      4.682922000000000E-01     -3.832812000000000E+01
4100000000.000000      2.279510000000000E-01     -1.180371000000000E+01      3.666687000000000E-01     -4.746094000000000E+01
4120000000.000000      2.413788000000000E-01      1.224976000000000E+00      2.498856000000000E-01     -4.401367000000000E+01
4140000000.000000      2.892456000000000E-01      4.804932000000000E+00      2.032776000000000E-01     -1.987890000000000E+01
4160000000.000000      3.330383000000000E-01      5.287170000000000E-01      2.637634000000000E-01     -5.905151000000000E-02
4180000000.000000      3.613281000000000E-01     -6.212891000000000E+00      3.574829000000000E-01      3.890503000000000E+00
4200000000.000000      3.711853000000000E-01     -1.398584000000000E+01      4.872894000000000E-01      1.535339000000000E+00
4220000000.000000      3.672333000000000E-01     -2.128808000000000E+01      6.412659000000000E-01     -1.093457000000000E+01
4240000000.000000      3.474884000000000E-01     -2.875000000000000E+01      7.224121000000000E-01     -2.769726000000000E+01
4260000000.000000      3.095093000000000E-01     -3.460156000000000E+01      7.444763000000000E-01     -4.171484000000000E+01
4280000000.000000      2.597961000000000E-01     -3.584570000000000E+01      7.517395000000000E-01     -5.550976000000000E+01
4300000000.000000      2.220840000000000E-01     -2.781347000000000E+01      7.146301000000000E-01     -7.054688000000000E+01
4320000000.000000      2.361374000000000E-01     -1.496631000000000E+01      6.319275000000000E-01     -8.508204000000000E+01
4340000000.000000      2.940063000000000E-01     -1.092188000000000E+01      5.162659000000000E-01     -9.780077000000000E+01
4360000000.000000      3.589020000000000E-01     -1.590820000000000E+01      3.807678000000000E-01     -1.067617000000000E+02
4380000000.000000      4.055176000000000E-01     -2.489258000000000E+01      2.497025000000000E-01     -1.078672000000000E+02
4400000000.000000      4.265747000000000E-01     -3.481640000000000E+01      1.537704000000000E-01     -8.503906000000000E+01
4420000000.000000      4.251099000000000E-01     -4.410546000000000E+01      1.881027000000000E-01     -4.547656000000000E+01
4440000000.000000      4.092560000000000E-01     -5.224218000000000E+01      3.108368000000000E-01     -3.604101000000000E+01
4460000000.000000      3.888397000000000E-01     -5.894140000000000E+01      4.526520000000000E-01     -4.332227000000000E+01
4480000000.000000      3.685303000000000E-01     -6.498437000000000E+01      5.604248000000000E-01     -5.529882000000000E+01
4500000000.000000      3.474731000000000E-01     -7.164063000000000E+01      6.423950000000000E-01     -6.670312000000000E+01
4520000000.000000      3.146820000000000E-01     -7.927734000000000E+01      7.161560000000000E-01     -7.961719000000000E+01
4540000000.000000      2.639771000000000E-01     -8.528906000000000E+01      7.421875000000000E-01     -9.431250000000000E+01
4560000000.000000      2.038116000000000E-01     -8.348047000000000E+01      7.297363000000000E-01     -1.076172000000000E+02
4580000000.000000      1.769867000000000E-01     -6.799999000000000E+01      6.906433000000000E-01     -1.212852000000000E+02
4600000000.000000      2.146301000000000E-01     -5.426952000000000E+01      6.057739000000000E-01     -1.346562000000000E+02
4620000000.000000      2.794189000000000E-01     -5.563086000000000E+01      4.979553000000000E-01     -1.448672000000000E+02
4640000000.000000      3.332367000000000E-01     -6.540234000000000E+01      3.788910000000000E-01     -1.532422000000000E+02
4660000000.000000      3.573761000000000E-01     -7.848437000000000E+01      2.463837000000000E-01     -1.516250000000000E+02
4680000000.000000      3.490295000000000E-01     -9.225780000000000E+01      1.793442000000000E-01     -1.233594000000000E+02
4700000000.000000      3.114777000000000E-01     -1.053203000000000E+02      2.478104000000000E-01     -9.651562000000000E+01
4720000000.000000      2.558136000000000E-01     -1.158789000000000E+02      3.668213000000000E-01     -9.522264000000000E+01
4740000000.000000      1.932144000000000E-01     -1.210117000000000E+02      4.737091000000000E-01     -1.016172000000000E+02
4760000000.000000      1.408997000000000E-01     -1.167500000000000E+02      5.797729000000000E-01     -1.104258000000000E+02
4780000000.000000      1.154060000000000E-01     -1.012969000000000E+02      6.673279000000000E-01     -1.226563000000000E+02
4800000000.000000      1.214828000000000E-01     -8.392187000000000E+01      7.168579000000000E-01     -1.354063000000000E+02
4820000000.000000      1.503448000000000E-01     -7.444140000000000E+01      7.353516000000000E-01     -1.487890000000000E+02
4840000000.000000      1.906891000000000E-01     -7.414453000000000E+01      7.174377000000000E-01     -1.617031000000000E+02
4860000000.000000      2.341766000000000E-01     -8.067186000000000E+01      6.843262000000000E-01     -1.740547000000000E+02
4880000000.000000      2.712860000000000E-01     -9.089062000000000E+01      6.166687000000000E-01      1.721172000000000E+02
4900000000.000000      2.964020000000000E-01     -1.041484000000000E+02      4.958344000000000E-01      1.601641000000000E+02
4920000000.000000      3.019562000000000E-01     -1.190977000000000E+02      3.656464000000000E-01      1.538750000000000E+02
4940000000.000000      2.873993000000000E-01     -1.345703000000000E+02      2.517548000000000E-01      1.561406000000000E+02
4960000000.000000      2.562561000000000E-01     -1.495234000000000E+02      1.769638000000000E-01      1.773438000000000E+02
4980000000.000000      2.134476000000000E-01     -1.635547000000000E+02      2.145920000000000E-01     -1.510000000000000E+02
5000000000.000000      1.687393000000000E-01     -1.749531000000000E+02      3.308105000000000E-01     -1.433828000000000E+02
5020000000.000000      1.303101000000000E-01      1.754219000000000E+02      4.614258000000000E-01     -1.494844000000000E+02
5040000000.000000      9.988022000000000E-02      1.658203000000000E+02      5.706482000000000E-01     -1.601250000000000E+02
5060000000.000000      7.078934000000000E-02      1.514844000000000E+02      6.504822000000000E-01     -1.717422000000000E+02
5080000000.000000      4.022408000000000E-02      1.265625000000000E+02      7.185059000000000E-01      1.760937000000000E+02
5100000000.000000      1.374769000000000E-02      4.009179000000000E+01      7.573242000000000E-01      1.622813000000000E+02
5120000000.000000      4.106140000000000E-02     -5.415234000000000E+01      7.535706000000000E-01      1.480469000000000E+02
5140000000.000000      7.372665000000000E-02     -8.844141000000000E+01      7.033691000000000E-01      1.345859000000000E+02
5160000000.000000      9.742355000000000E-02     -1.185117000000000E+02      6.276245000000000E-01      1.223008000000000E+02
5180000000.000000      1.103630000000000E-01     -1.484531000000000E+02      5.327148000000000E-01      1.108437000000000E+02
5200000000.000000      1.121674000000000E-01      1.791484000000000E+02      4.164734000000000E-01      1.013477000000000E+02
5220000000.000000      1.084404000000000E-01      1.432109000000000E+02      2.837830000000000E-01      9.846483000000000E+01
5240000000.000000      1.068115000000000E-01      1.063515000000000E+02      1.840744000000000E-01      1.156406000000000E+02
5260000000.000000      1.111946000000000E-01      7.246875000000000E+01      1.971207000000000E-01      1.495859000000000E+02
5280000000.000000      1.182709000000000E-01      4.543164000000000E+01      2.971191000000000E-01      1.607188000000000E+02
5300000000.000000      1.254807000000000E-01      2.440039000000000E+01      4.099426000000000E-01      1.582344000000000E+02
5320000000.000000      1.316833000000000E-01      7.737061000000000E+00      5.282593000000000E-01      1.504922000000000E+02
5340000000.000000      1.379700000000000E-01     -6.590576000000000E+00      6.374817000000000E-01      1.385625000000000E+02
5360000000.000000      1.429062000000000E-01     -2.193750000000000E+01      7.059631000000000E-01      1.241406000000000E+02
5380000000.000000      1.396103000000000E-01     -3.891602000000000E+01      7.175903000000000E-01      1.108750000000000E+02
5400000000.000000      1.212616000000000E-01     -5.713867000000000E+01      7.171936000000000E-01      9.909374000000000E+01
5420000000.000000      8.641434000000000E-02     -7.363671000000000E+01      7.059021000000000E-01      8.600780000000000E+01
5440000000.000000      3.260803000000000E-02     -7.805859000000000E+01      6.480103000000000E-01      7.180078000000000E+01
5460000000.000000      4.152298000000000E-02      3.619531000000000E+01      5.399780000000000E-01      5.869531000000000E+01
5480000000.000000      1.111412000000000E-01      3.008691000000000E+01      4.137726000000000E-01      4.953125000000000E+01
5500000000.000000      1.741791000000000E-01      1.503857000000000E+01      2.924957000000000E-01      4.739648000000000E+01
5520000000.000000      2.205734000000000E-01      9.887695000000000E-02      1.952972000000000E-01      5.944726000000000E+01
5540000000.000000      2.521210000000000E-01     -1.368799000000000E+01      1.813583000000000E-01      9.095703000000000E+01
5560000000.000000      2.703857000000000E-01     -2.548633000000000E+01      2.632446000000000E-01      1.088867000000000E+02
5580000000.000000      2.832947000000000E-01     -3.530273000000000E+01      3.845673000000000E-01      1.086836000000000E+02
5600000000.000000      2.953033000000000E-01     -4.400781000000000E+01      5.064392000000000E-01      9.969921000000000E+01
5620000000.000000      3.061829000000000E-01     -5.303124000000000E+01      5.967712000000000E-01      8.731249000000000E+01
5640000000.000000      3.100128000000000E-01     -6.274804000000000E+01      6.454773000000000E-01      7.526562000000000E+01
5660000000.000000      3.002777000000000E-01     -7.341015000000000E+01      6.836243000000000E-01      6.407031000000000E+01
5680000000.000000      2.718658000000000E-01     -8.387890000000000E+01      6.967163000000000E-01      5.127539000000000E+01
5700000000.000000      2.252579000000000E-01     -9.120703000000000E+01      6.823730000000000E-01      3.892578000000000E+01
5720000000.000000      1.748428000000000E-01     -9.001562000000000E+01      6.439514000000000E-01      2.618652000000000E+01
5740000000.000000      1.529007000000000E-01     -7.598827000000000E+01      5.648804000000000E-01      1.293604000000000E+01
5760000000.000000      1.809158000000000E-01     -6.422265000000000E+01      4.507294000000000E-01      1.330688000000000E+00
5780000000.000000      2.265930000000000E-01     -6.548437000000000E+01      3.161163000000000E-01     -3.732666000000000E+00
5800000000.000000      2.589722000000000E-01     -7.329296000000000E+01      2.082825000000000E-01      7.329102000000000E+00
5820000000.000000      2.689362000000000E-01     -8.253515000000000E+01      1.894760000000000E-01      3.769922000000000E+01
5840000000.000000      2.591248000000000E-01     -9.111719000000000E+01      2.708893000000000E-01      5.419140000000000E+01
5860000000.000000      2.417068000000000E-01     -9.647264000000000E+01      3.711243000000000E-01      5.418554000000000E+01
5880000000.000000      2.280121000000000E-01     -9.967186000000000E+01      4.778137000000000E-01      4.877148000000000E+01
5900000000.000000      2.204590000000000E-01     -1.019336000000000E+02      5.943909000000000E-01      3.878515000000000E+01
5920000000.000000      2.130585000000000E-01     -1.048828000000000E+02      6.721497000000000E-01      2.461328000000000E+01
5940000000.000000      1.988754000000000E-01     -1.069844000000000E+02      7.020569000000000E-01      1.153125000000000E+01
5960000000.000000      1.806564000000000E-01     -1.055273000000000E+02      7.136230000000000E-01     -1.181030000000000E+00
5980000000.000000      1.680527000000000E-01     -9.785936000000000E+01      6.896362000000000E-01     -1.519434000000000E+01
6000000000.000000      1.835251000000000E-01     -8.856249000000000E+01      6.269836000000000E-01     -2.865723000000000E+01
6020000000.000000      2.178040000000000E-01     -8.666407000000000E+01      5.289307000000000E-01     -4.133789000000000E+01
6040000000.000000      2.535400000000000E-01     -9.186327000000000E+01      3.993378000000000E-01     -4.966797000000000E+01
6060000000.000000      2.787628000000000E-01     -1.007344000000000E+02      2.850800000000000E-01     -4.932617000000000E+01
6080000000.000000      2.882080000000000E-01     -1.108047000000000E+02      2.055969000000000E-01     -3.568164000000000E+01
