! Network Analyzer HP8722D
! Hewlett-Packard
! Data name: Linha & Wilkinson+CNT
! Saver's name: Rodrigo Anjos
! Comments: Teste da utilização de aquisição
continua pelo VNA HP8722D
! Time and date: 29/9/2025 15:21
!              Frequency                     S11                                                   S21                                                   S12                                                   S22
# HZ  S  MA R 50
3000000000.000000      4.246826000000000E-01     -5.592773000000000E+01      2.089081000000000E-01     -1.314922000000000E+02
3020000000.000000      4.484863000000000E-01     -7.003515000000000E+01      3.511047000000000E-01     -1.350547000000000E+02
3040000000.000000      4.509277000000000E-01     -8.282030000000000E+01      4.691925000000000E-01     -1.450312000000000E+02
3060000000.000000      4.451447000000000E-01     -9.497265000000000E+01      5.728149000000000E-01     -1.552813000000000E+02
3080000000.000000      4.291534000000000E-01     -1.062383000000000E+02      6.748962000000000E-01     -1.685156000000000E+02
3100000000.000000      4.091187000000000E-01     -1.174141000000000E+02      7.247620000000000E-01      1.766562000000000E+02
3120000000.000000      3.794708000000000E-01     -1.293750000000000E+02      7.327576000000000E-01      1.632969000000000E+02
3140000000.000000      3.378143000000000E-01     -1.424141000000000E+02      7.235718000000000E-01      1.505000000000000E+02
3160000000.000000      2.778473000000000E-01     -1.563047000000000E+02      6.831970000000000E-01      1.368750000000000E+02
3180000000.000000      1.984863000000000E-01     -1.690859000000000E+02      6.129150000000000E-01      1.242695000000000E+02
3200000000.000000      1.105614000000000E-01     -1.697656000000000E+02      5.184326000000000E-01      1.116406000000000E+02
3220000000.000000      7.959366000000000E-02     -1.236914000000000E+02      3.840942000000000E-01      1.008320000000000E+02
3240000000.000000      1.511993000000000E-01     -1.048906000000000E+02      2.459106000000000E-01      9.971874000000000E+01
3260000000.000000      2.301407000000000E-01     -1.153008000000000E+02      1.468430000000000E-01      1.258906000000000E+02
3280000000.000000      2.881622000000000E-01     -1.309062000000000E+02      2.042160000000000E-01      1.654844000000000E+02
3300000000.000000      3.202667000000000E-01     -1.472500000000000E+02      3.311310000000000E-01      1.696094000000000E+02
3320000000.000000      3.319092000000000E-01     -1.631328000000000E+02      4.637909000000000E-01      1.625078000000000E+02
3340000000.000000      3.282013000000000E-01     -1.785703000000000E+02      5.747986000000000E-01      1.504141000000000E+02
3360000000.000000      3.166504000000000E-01      1.666406000000000E+02      6.471863000000000E-01      1.383359000000000E+02
3380000000.000000      3.004456000000000E-01      1.524219000000000E+02      7.097778000000000E-01      1.270039000000000E+02
3400000000.000000      2.776184000000000E-01      1.377109000000000E+02      7.570801000000000E-01      1.131289000000000E+02
3420000000.000000      2.424927000000000E-01      1.226914000000000E+02      7.492981000000000E-01      9.833202000000000E+01
3440000000.000000      1.895370000000000E-01      1.079961000000000E+02      7.034302000000000E-01      8.545313000000000E+01
3460000000.000000      1.194305000000000E-01      9.746483000000000E+01      6.458130000000000E-01      7.232422000000000E+01
3480000000.000000      4.756546000000000E-02      1.218242000000000E+02      5.492249000000000E-01      5.887500000000000E+01
3500000000.000000      9.262085000000000E-02     -1.739609000000000E+02      4.232330000000000E-01      4.756640000000000E+01
3520000000.000000      1.840897000000000E-01      1.790469000000000E+02      2.775574000000000E-01      4.050000000000000E+01
3540000000.000000      2.637024000000000E-01      1.628672000000000E+02      1.472397000000000E-01      5.879296000000000E+01
3560000000.000000      3.229828000000000E-01      1.457266000000000E+02      1.676559000000000E-01      1.079180000000000E+02
3580000000.000000      3.599396000000000E-01      1.297500000000000E+02      2.957001000000000E-01      1.175195000000000E+02
3600000000.000000      3.760376000000000E-01      1.151015000000000E+02      4.202423000000000E-01      1.106016000000000E+02
3620000000.000000      3.777771000000000E-01      1.026289000000000E+02      5.227661000000000E-01      1.010312000000000E+02
3640000000.000000      3.688965000000000E-01      9.123438000000000E+01      6.221008000000000E-01      8.987890000000000E+01
3660000000.000000      3.518829000000000E-01      8.108593000000000E+01      6.928101000000000E-01      7.568359000000000E+01
3680000000.000000      3.295441000000000E-01      7.190234000000000E+01      7.110901000000000E-01      6.252343000000000E+01
3700000000.000000      2.989655000000000E-01      6.366796000000000E+01      7.205505000000000E-01      5.094727000000000E+01
3720000000.000000      2.544708000000000E-01      5.755273000000000E+01      7.242126000000000E-01      3.681055000000000E+01
3740000000.000000      2.045288000000000E-01      5.844727000000000E+01      6.627502000000000E-01      2.130469000000000E+01
3760000000.000000      1.779861000000000E-01      7.257030000000000E+01      5.662231000000000E-01      6.933594000000000E+00
3780000000.000000      2.122879000000000E-01      8.771093000000000E+01      4.342194000000000E-01     -6.288330000000000E+00
3800000000.000000      2.825775000000000E-01      8.911327000000000E+01      2.806091000000000E-01     -1.339404000000000E+01
3820000000.000000      3.500824000000000E-01      8.259375000000000E+01      1.529846000000000E-01     -9.750366000000000E-02
3840000000.000000      4.007416000000000E-01      7.386328000000000E+01      1.441269000000000E-01      4.815624000000000E+01
3860000000.000000      4.352112000000000E-01      6.530468000000000E+01      2.469482000000000E-01      6.535546000000000E+01
3880000000.000000      4.609222000000000E-01      5.773438000000000E+01      3.772736000000000E-01      6.105078000000000E+01
3900000000.000000      4.903717000000000E-01      5.074804000000000E+01      4.780121000000000E-01      4.767383000000000E+01
3920000000.000000      5.213318000000000E-01      4.312304000000000E+01      5.091553000000000E-01      3.597656000000000E+01
3940000000.000000      5.487366000000000E-01      3.424023000000000E+01      5.401917000000000E-01      2.942383000000000E+01
3960000000.000000      5.605469000000000E-01      2.400781000000000E+01      5.948486000000000E-01      2.002636000000000E+01
3980000000.000000      5.531006000000000E-01      1.364063000000000E+01      5.969543000000000E-01      8.181641000000000E+00
4000000000.000000      5.272217000000000E-01      3.104980000000000E+00      5.798645000000000E-01      1.266174000000000E+00
4020000000.000000      4.838257000000000E-01     -6.832275000000000E+00      5.989075000000000E-01     -6.576904000000000E+00
4040000000.000000      4.251862000000000E-01     -1.567627000000000E+01      5.855408000000000E-01     -1.878711000000000E+01
4060000000.000000      3.486786000000000E-01     -2.179492000000000E+01      5.272217000000000E-01     -2.893261000000000E+01
4080000000.000000      2.748566000000000E-01     -2.170801000000000E+01      4.692230000000000E-01     -3.831445000000000E+01
4100000000.000000      2.282410000000000E-01     -1.100586000000000E+01      3.668213000000000E-01     -4.756055000000000E+01
4120000000.000000      2.419739000000000E-01      2.106567000000000E+00      2.488251000000000E-01     -4.399219000000000E+01
4140000000.000000      2.897491000000000E-01      5.184082000000000E+00      2.031174000000000E-01     -1.970703000000000E+01
4160000000.000000      3.339844000000000E-01      9.269714000000000E-01      2.646332000000000E-01     -8.926392000000000E-02
4180000000.000000      3.615723000000000E-01     -5.864014000000000E+00      3.587646000000000E-01      3.898682000000000E+00
4200000000.000000      3.713989000000000E-01     -1.366846000000000E+01      4.901123000000000E-01      1.292236000000000E+00
4220000000.000000      3.674164000000000E-01     -2.083008000000000E+01      6.424255000000000E-01     -1.123242000000000E+01
4240000000.000000      3.481750000000000E-01     -2.836035000000000E+01      7.220764000000000E-01     -2.788671000000000E+01
4260000000.000000      3.097534000000000E-01     -3.409765000000000E+01      7.423096000000000E-01     -4.208008000000000E+01
4280000000.000000      2.589874000000000E-01     -3.522851000000000E+01      7.511292000000000E-01     -5.586328000000000E+01
4300000000.000000      2.223358000000000E-01     -2.711914000000000E+01      7.131653000000000E-01     -7.076562000000000E+01
4320000000.000000      2.359619000000000E-01     -1.440723000000000E+01      6.299133000000000E-01     -8.519922000000000E+01
4340000000.000000      2.938843000000000E-01     -1.052490000000000E+01      5.136414000000000E-01     -9.799217000000000E+01
4360000000.000000      3.591309000000000E-01     -1.560498000000000E+01      3.793488000000000E-01     -1.069258000000000E+02
4380000000.000000      4.056091000000000E-01     -2.465137000000000E+01      2.487030000000000E-01     -1.079844000000000E+02
4400000000.000000      4.267273000000000E-01     -3.455078000000000E+01      1.530685000000000E-01     -8.482031000000000E+01
4420000000.000000      4.246368000000000E-01     -4.392774000000000E+01      1.886215000000000E-01     -4.539844000000000E+01
4440000000.000000      4.083710000000000E-01     -5.198632000000000E+01      3.116760000000000E-01     -3.616406000000000E+01
4460000000.000000      3.850861000000000E-01     -5.833789000000000E+01      4.539032000000000E-01     -4.333984000000000E+01
4480000000.000000      3.687286000000000E-01     -6.479687000000000E+01      5.619812000000000E-01     -5.561718000000000E+01
4500000000.000000      3.456726000000000E-01     -7.169140000000000E+01      6.434021000000000E-01     -6.692187000000000E+01
4520000000.000000      3.127747000000000E-01     -7.941015000000000E+01      7.160339000000000E-01     -7.980078000000000E+01
4540000000.000000      2.614899000000000E-01     -8.555468000000000E+01      7.421875000000000E-01     -9.453905000000000E+01
4560000000.000000      2.010117000000000E-01     -8.372656000000000E+01      7.282104000000000E-01     -1.077656000000000E+02
4580000000.000000      1.741943000000000E-01     -6.762890000000000E+01      6.904602000000000E-01     -1.216758000000000E+02
4600000000.000000      2.120819000000000E-01     -5.371679000000000E+01      6.044922000000000E-01     -1.347500000000000E+02
4620000000.000000      2.772827000000000E-01     -5.524219000000000E+01      4.970245000000000E-01     -1.453125000000000E+02
4640000000.000000      3.309021000000000E-01     -6.517968000000000E+01      3.776855000000000E-01     -1.533203000000000E+02
4660000000.000000      3.542633000000000E-01     -7.836328000000000E+01      2.458496000000000E-01     -1.516094000000000E+02
4680000000.000000      3.460693000000000E-01     -9.242579000000000E+01      1.789551000000000E-01     -1.231367000000000E+02
4700000000.000000      3.085175000000000E-01     -1.056172000000000E+02      2.492065000000000E-01     -9.651171000000000E+01
4720000000.000000      2.523956000000000E-01     -1.161406000000000E+02      3.683319000000000E-01     -9.539843000000000E+01
4740000000.000000      1.905670000000000E-01     -1.215000000000000E+02      4.750366000000000E-01     -1.017930000000000E+02
4760000000.000000      1.385651000000000E-01     -1.174219000000000E+02      5.801392000000000E-01     -1.105391000000000E+02
4780000000.000000      1.119843000000000E-01     -1.013008000000000E+02      6.675110000000000E-01     -1.230117000000000E+02
4800000000.000000      1.180916000000000E-01     -8.346094000000000E+01      7.178650000000000E-01     -1.357188000000000E+02
4820000000.000000      1.468658000000000E-01     -7.397265000000000E+01      7.355957000000000E-01     -1.490156000000000E+02
4840000000.000000      1.879959000000000E-01     -7.366015000000000E+01      7.172546000000000E-01     -1.619062000000000E+02
4860000000.000000      2.313538000000000E-01     -8.031641000000000E+01      6.834106000000000E-01     -1.742812000000000E+02
4880000000.000000      2.684784000000000E-01     -9.080858000000000E+01      6.146545000000000E-01      1.719219000000000E+02
4900000000.000000      2.939301000000000E-01     -1.043242000000000E+02      4.949341000000000E-01      1.595547000000000E+02
4920000000.000000      2.999725000000000E-01     -1.193945000000000E+02      3.643494000000000E-01      1.535469000000000E+02
4940000000.000000      2.851868000000000E-01     -1.351094000000000E+02      2.505035000000000E-01      1.560469000000000E+02
4960000000.000000      2.542114000000000E-01     -1.502422000000000E+02      1.773529000000000E-01      1.777734000000000E+02
4980000000.000000      2.117920000000000E-01     -1.643828000000000E+02      2.149582000000000E-01     -1.508672000000000E+02
5000000000.000000      1.680908000000000E-01     -1.761641000000000E+02      3.317719000000000E-01     -1.436328000000000E+02
5020000000.000000      1.301270000000000E-01      1.736562000000000E+02      4.622803000000000E-01     -1.496953000000000E+02
5040000000.000000      9.963989000000000E-02      1.634140000000000E+02      5.703125000000000E-01     -1.605000000000000E+02
5060000000.000000      7.182693000000000E-02      1.487266000000000E+02      6.516724000000000E-01     -1.720469000000000E+02
5080000000.000000      4.125786000000000E-02      1.220859000000000E+02      7.196350000000000E-01      1.757109000000000E+02
5100000000.000000      1.649284000000000E-02      3.946094000000000E+01      7.562256000000000E-01      1.621641000000000E+02
5120000000.000000      4.160881000000000E-02     -5.186328000000000E+01      7.543335000000000E-01      1.477344000000000E+02
5140000000.000000      7.291794000000000E-02     -8.797655000000000E+01      7.035522000000000E-01      1.342109000000000E+02
5160000000.000000      9.661102000000000E-02     -1.191484000000000E+02      6.276245000000000E-01      1.219492000000000E+02
5180000000.000000      1.098900000000000E-01     -1.498906000000000E+02      5.321350000000000E-01      1.106484000000000E+02
5200000000.000000      1.127777000000000E-01      1.776484000000000E+02      4.151001000000000E-01      1.011758000000000E+02
5220000000.000000      1.098213000000000E-01      1.415313000000000E+02      2.821198000000000E-01      9.837109000000000E+01
5240000000.000000      1.091118000000000E-01      1.055117000000000E+02      1.834183000000000E-01      1.158750000000000E+02
5260000000.000000      1.131172000000000E-01      7.195703000000000E+01      1.979523000000000E-01      1.497578000000000E+02
5280000000.000000      1.208191000000000E-01      4.563281000000000E+01      2.977753000000000E-01      1.606094000000000E+02
5300000000.000000      1.279373000000000E-01      2.494141000000000E+01      4.112549000000000E-01      1.579766000000000E+02
5320000000.000000      1.333237000000000E-01      8.496094000000000E+00      5.292053000000000E-01      1.505000000000000E+02
5340000000.000000      1.391754000000000E-01     -5.817383000000000E+00      6.392517000000000E-01      1.383750000000000E+02
5360000000.000000      1.430817000000000E-01     -2.139648000000000E+01      7.058716000000000E-01      1.239101000000000E+02
5380000000.000000      1.385651000000000E-01     -3.910937000000000E+01      7.169189000000000E-01      1.107109000000000E+02
5400000000.000000      1.196861000000000E-01     -5.707031000000000E+01      7.198486000000000E-01      9.876171000000000E+01
5420000000.000000      8.387375000000000E-02     -7.414063000000000E+01      7.040405000000000E-01      8.578125000000000E+01
5440000000.000000      2.993584000000000E-02     -7.787109000000000E+01      6.485596000000000E-01      7.139062000000000E+01
5460000000.000000      4.411316000000000E-02      3.864062000000000E+01      5.382385000000000E-01      5.843163000000000E+01
5480000000.000000      1.136055000000000E-01      3.085840000000000E+01      4.109344000000000E-01      4.924805000000000E+01
5500000000.000000      1.755447000000000E-01      1.561523000000000E+01      2.913513000000000E-01      4.746094000000000E+01
5520000000.000000      2.210617000000000E-01      5.493164000000000E-01      1.946182000000000E-01      5.936132000000000E+01
5540000000.000000      2.522430000000000E-01     -1.325684000000000E+01      1.814728000000000E-01      9.120312000000000E+01
5560000000.000000      2.701874000000000E-01     -2.517675000000000E+01      2.641296000000000E-01      1.087656000000000E+02
5580000000.000000      2.823181000000000E-01     -3.500977000000000E+01      3.863678000000000E-01      1.085898000000000E+02
5600000000.000000      2.940369000000000E-01     -4.391992000000000E+01      5.085449000000000E-01      9.957420000000000E+01
5620000000.000000      3.045807000000000E-01     -5.310351000000000E+01      5.960083000000000E-01      8.703516000000000E+01
5640000000.000000      3.075409000000000E-01     -6.274804000000000E+01      6.457825000000000E-01      7.516015000000000E+01
5660000000.000000      2.976837000000000E-01     -7.353516000000000E+01      6.857605000000000E-01      6.376758000000000E+01
5680000000.000000      2.682343000000000E-01     -8.377733000000000E+01      6.983337000000000E-01      5.108788000000000E+01
5700000000.000000      2.203674000000000E-01     -9.108593000000000E+01      6.830139000000000E-01      3.860547000000000E+01
5720000000.000000      1.696472000000000E-01     -8.948437000000000E+01      6.424561000000000E-01      2.588379000000000E+01
5740000000.000000      1.496277000000000E-01     -7.503906000000000E+01      5.645142000000000E-01      1.262598000000000E+01
5760000000.000000      1.792908000000000E-01     -6.364258000000000E+01      4.489746000000000E-01      1.197510000000000E+00
5780000000.000000      2.251358000000000E-01     -6.523438000000000E+01      3.152161000000000E-01     -3.909790000000000E+00
5800000000.000000      2.577667000000000E-01     -7.320703000000000E+01      2.076721000000000E-01      7.454102000000000E+00
5820000000.000000      2.665253000000000E-01     -8.256250000000000E+01      1.897354000000000E-01      3.796093000000000E+01
5840000000.000000      2.567596000000000E-01     -9.107422000000000E+01      2.726746000000000E-01      5.401953000000000E+01
5860000000.000000      2.380753000000000E-01     -9.664843000000000E+01      3.737183000000000E-01      5.396484000000000E+01
5880000000.000000      2.236633000000000E-01     -9.983984000000000E+01      4.801178000000000E-01      4.850586000000000E+01
5900000000.000000      2.159271000000000E-01     -1.021523000000000E+02      5.957336000000000E-01      3.819921000000000E+01
5920000000.000000      2.083817000000000E-01     -1.050742000000000E+02      6.721191000000000E-01      2.425976000000000E+01
5940000000.000000      1.944427000000000E-01     -1.069922000000000E+02      7.028809000000000E-01      1.107520000000000E+01
5960000000.000000      1.766739000000000E-01     -1.052969000000000E+02      7.127380000000000E-01     -1.619141000000000E+00
5980000000.000000      1.649933000000000E-01     -9.726563000000000E+01      6.901855000000000E-01     -1.571045000000000E+01
6000000000.000000      1.819229000000000E-01     -8.808594000000000E+01      6.254883000000000E-01     -2.899902000000000E+01
6020000000.000000      2.166443000000000E-01     -8.642969000000000E+01      5.271912000000000E-01     -4.194726000000000E+01
6040000000.000000      2.517853000000000E-01     -9.181250000000000E+01      3.993683000000000E-01     -4.994141000000000E+01
6060000000.000000      2.756805000000000E-01     -1.008320000000000E+02      2.846985000000000E-01     -4.978906000000000E+01
6080000000.000000      2.853851000000000E-01     -1.112148000000000E+02      2.048798000000000E-01     -3.549023000000000E+01
