! Network Analyzer HP8722D
! Hewlett-Packard
! Data name: Linha & Wilkinson+CNT
! Saver's name: Rodrigo Anjos
! Comments: Teste da utilização de aquisição
continua pelo VNA HP8722D
! Time and date: 29/9/2025 15:25
!              Frequency                     S11                                                   S21                                                   S12                                                   S22
# HZ  S  MA R 50
3000000000.000000      4.263611000000000E-01     -5.591601000000000E+01      2.086411000000000E-01     -1.314219000000000E+02
3020000000.000000      4.472656000000000E-01     -7.007813000000000E+01      3.518219000000000E-01     -1.350859000000000E+02
3040000000.000000      4.508057000000000E-01     -8.282812000000000E+01      4.685211000000000E-01     -1.450078000000000E+02
3060000000.000000      4.443970000000000E-01     -9.492968000000000E+01      5.736389000000000E-01     -1.553516000000000E+02
3080000000.000000      4.288788000000000E-01     -1.062539000000000E+02      6.740112000000000E-01     -1.685234000000000E+02
3100000000.000000      4.086304000000000E-01     -1.174570000000000E+02      7.244873000000000E-01      1.767578000000000E+02
3120000000.000000      3.792114000000000E-01     -1.294219000000000E+02      7.312622000000000E-01      1.633125000000000E+02
3140000000.000000      3.379517000000000E-01     -1.424297000000000E+02      7.227783000000000E-01      1.504297000000000E+02
3160000000.000000      2.779541000000000E-01     -1.562813000000000E+02      6.840515000000000E-01      1.368672000000000E+02
3180000000.000000      1.982956000000000E-01     -1.690781000000000E+02      6.134949000000000E-01      1.243398000000000E+02
3200000000.000000      1.105270000000000E-01     -1.694687000000000E+02      5.186157000000000E-01      1.115664000000000E+02
3220000000.000000      7.976151000000000E-02     -1.235312000000000E+02      3.856659000000000E-01      1.006367000000000E+02
3240000000.000000      1.513138000000000E-01     -1.047734000000000E+02      2.454681000000000E-01      9.977734000000000E+01
3260000000.000000      2.305832000000000E-01     -1.153828000000000E+02      1.469421000000000E-01      1.260039000000000E+02
3280000000.000000      2.876892000000000E-01     -1.308672000000000E+02      2.044220000000000E-01      1.654609000000000E+02
3300000000.000000      3.202362000000000E-01     -1.472188000000000E+02      3.316803000000000E-01      1.695625000000000E+02
3320000000.000000      3.317719000000000E-01     -1.631250000000000E+02      4.639282000000000E-01      1.625156000000000E+02
3340000000.000000      3.282318000000000E-01     -1.785703000000000E+02      5.755615000000000E-01      1.504375000000000E+02
3360000000.000000      3.169403000000000E-01      1.666641000000000E+02      6.475525000000000E-01      1.381797000000000E+02
3380000000.000000      2.998962000000000E-01      1.523750000000000E+02      7.090759000000000E-01      1.269883000000000E+02
3400000000.000000      2.778473000000000E-01      1.376953000000000E+02      7.578430000000000E-01      1.131602000000000E+02
3420000000.000000      2.426071000000000E-01      1.226992000000000E+02      7.480774000000000E-01      9.835938000000000E+01
3440000000.000000      1.896210000000000E-01      1.079453000000000E+02      7.049866000000000E-01      8.526171000000000E+01
3460000000.000000      1.191635000000000E-01      9.724609000000000E+01      6.455383000000000E-01      7.223827000000000E+01
3480000000.000000      4.756737000000000E-02      1.220430000000000E+02      5.487366000000000E-01      5.877539000000000E+01
3500000000.000000      9.285355000000000E-02     -1.740547000000000E+02      4.219666000000000E-01      4.758789000000000E+01
3520000000.000000      1.851807000000000E-01      1.789219000000000E+02      2.773895000000000E-01      4.052734000000000E+01
3540000000.000000      2.638702000000000E-01      1.626328000000000E+02      1.466675000000000E-01      5.883984000000000E+01
3560000000.000000      3.233032000000000E-01      1.456797000000000E+02      1.681137000000000E-01      1.079453000000000E+02
3580000000.000000      3.601685000000000E-01      1.297344000000000E+02      2.956696000000000E-01      1.174961000000000E+02
3600000000.000000      3.766785000000000E-01      1.151563000000000E+02      4.205780000000000E-01      1.105742000000000E+02
3620000000.000000      3.783722000000000E-01      1.024883000000000E+02      5.208435000000000E-01      1.010234000000000E+02
3640000000.000000      3.680878000000000E-01      9.124609000000000E+01      6.234131000000000E-01      8.988281000000000E+01
3660000000.000000      3.519897000000000E-01      8.102734000000000E+01      6.939392000000000E-01      7.556250000000000E+01
3680000000.000000      3.292236000000000E-01      7.190234000000000E+01      7.104187000000000E-01      6.249609000000000E+01
3700000000.000000      2.987061000000000E-01      6.367382000000000E+01      7.201538000000000E-01      5.082031000000000E+01
3720000000.000000      2.543793000000000E-01      5.760351000000000E+01      7.235718000000000E-01      3.670898000000000E+01
3740000000.000000      2.041092000000000E-01      5.848633000000000E+01      6.630859000000000E-01      2.125683000000000E+01
3760000000.000000      1.780014000000000E-01      7.260547000000000E+01      5.648804000000000E-01      6.987305000000000E+00
3780000000.000000      2.123795000000000E-01      8.763281000000000E+01      4.338226000000000E-01     -6.214355000000000E+00
3800000000.000000      2.830353000000000E-01      8.912109000000000E+01      2.802429000000000E-01     -1.337891000000000E+01
3820000000.000000      3.506012000000000E-01      8.257030000000000E+01      1.529236000000000E-01      1.510620000000000E-01
3840000000.000000      4.007874000000000E-01      7.387109000000000E+01      1.439819000000000E-01      4.808984000000000E+01
3860000000.000000      4.362183000000000E-01      6.530468000000000E+01      2.475739000000000E-01      6.535546000000000E+01
3880000000.000000      4.609528000000000E-01      5.783593000000000E+01      3.771210000000000E-01      6.102344000000000E+01
3900000000.000000      4.897614000000000E-01      5.070507000000000E+01      4.779663000000000E-01      4.756640000000000E+01
3920000000.000000      5.221863000000000E-01      4.316796000000000E+01      5.098877000000000E-01      3.596875000000000E+01
3940000000.000000      5.504761000000000E-01      3.425781000000000E+01      5.394592000000000E-01      2.935254000000000E+01
3960000000.000000      5.595093000000000E-01      2.402148000000000E+01      5.953369000000000E-01      2.008789000000000E+01
3980000000.000000      5.534973000000000E-01      1.342773000000000E+01      5.977478000000000E-01      8.242188000000000E+00
4000000000.000000      5.267944000000000E-01      2.995117000000000E+00      5.795898000000000E-01      1.137085000000000E+00
4020000000.000000      4.838715000000000E-01     -6.940674000000000E+00      5.986633000000000E-01     -6.623535000000000E+00
4040000000.000000      4.241638000000000E-01     -1.573828000000000E+01      5.851440000000000E-01     -1.898633000000000E+01
4060000000.000000      3.495026000000000E-01     -2.176074000000000E+01      5.276489000000000E-01     -2.889453000000000E+01
4080000000.000000      2.742615000000000E-01     -2.159668000000000E+01      4.673462000000000E-01     -3.821875000000000E+01
4100000000.000000      2.281952000000000E-01     -1.108252000000000E+01      3.667603000000000E-01     -4.752149000000000E+01
4120000000.000000      2.425461000000000E-01      2.047485000000000E+00      2.486115000000000E-01     -4.403516000000000E+01
4140000000.000000      2.909088000000000E-01      5.178467000000000E+00      2.031555000000000E-01     -1.966699000000000E+01
4160000000.000000      3.343964000000000E-01      9.393311000000000E-01      2.648773000000000E-01      1.373291000000000E-02
4180000000.000000      3.620300000000000E-01     -5.918945000000000E+00      3.588715000000000E-01      3.874023000000000E+00
4200000000.000000      3.714142000000000E-01     -1.374268000000000E+01      4.893951000000000E-01      1.218079000000000E+00
4220000000.000000      3.677216000000000E-01     -2.078613000000000E+01      6.423340000000000E-01     -1.130127000000000E+01
4240000000.000000      3.481293000000000E-01     -2.834668000000000E+01      7.212830000000000E-01     -2.788965000000000E+01
4260000000.000000      3.094788000000000E-01     -3.411523000000000E+01      7.426453000000000E-01     -4.192968000000000E+01
4280000000.000000      2.593536000000000E-01     -3.527344000000000E+01      7.503662000000000E-01     -5.582812000000000E+01
4300000000.000000      2.221069000000000E-01     -2.712597000000000E+01      7.139282000000000E-01     -7.087109000000000E+01
4320000000.000000      2.362823000000000E-01     -1.441846000000000E+01      6.309509000000000E-01     -8.516405000000000E+01
4340000000.000000      2.941589000000000E-01     -1.049902000000000E+01      5.148010000000000E-01     -9.805859000000000E+01
4360000000.000000      3.592072000000000E-01     -1.564600000000000E+01      3.794708000000000E-01     -1.069453000000000E+02
4380000000.000000      4.056854000000000E-01     -2.463476000000000E+01      2.485886000000000E-01     -1.078555000000000E+02
4400000000.000000      4.267883000000000E-01     -3.460742000000000E+01      1.531982000000000E-01     -8.448828000000000E+01
4420000000.000000      4.247742000000000E-01     -4.393750000000000E+01      1.887817000000000E-01     -4.537109000000000E+01
4440000000.000000      4.079437000000000E-01     -5.204687000000000E+01      3.123169000000000E-01     -3.624023000000000E+01
4460000000.000000      3.865204000000000E-01     -5.841406000000000E+01      4.530029000000000E-01     -4.351953000000000E+01
4480000000.000000      3.663330000000000E-01     -6.492188000000000E+01      5.627747000000000E-01     -5.544140000000000E+01
4500000000.000000      3.464508000000000E-01     -7.159765000000000E+01      6.444092000000000E-01     -6.699219000000000E+01
4520000000.000000      3.126068000000000E-01     -7.939062000000000E+01      7.153931000000000E-01     -8.002344000000000E+01
4540000000.000000      2.618103000000000E-01     -8.562500000000000E+01      7.421265000000000E-01     -9.454296000000000E+01
4560000000.000000      2.011108000000000E-01     -8.373438000000000E+01      7.292175000000000E-01     -1.077305000000000E+02
4580000000.000000      1.743851000000000E-01     -6.762109000000000E+01      6.909485000000000E-01     -1.216680000000000E+02
4600000000.000000      2.125778000000000E-01     -5.373047000000000E+01      6.046753000000000E-01     -1.348906000000000E+02
4620000000.000000      2.778625000000000E-01     -5.529882000000000E+01      4.960175000000000E-01     -1.451094000000000E+02
4640000000.000000      3.310852000000000E-01     -6.516406000000000E+01      3.782501000000000E-01     -1.534844000000000E+02
4660000000.000000      3.541565000000000E-01     -7.847656000000000E+01      2.451553000000000E-01     -1.515547000000000E+02
4680000000.000000      3.455353000000000E-01     -9.250391000000000E+01      1.794510000000000E-01     -1.229297000000000E+02
4700000000.000000      3.082275000000000E-01     -1.055898000000000E+02      2.495880000000000E-01     -9.653515000000000E+01
4720000000.000000      2.522736000000000E-01     -1.162539000000000E+02      3.683319000000000E-01     -9.542578000000000E+01
4740000000.000000      1.902466000000000E-01     -1.213437000000000E+02      4.749908000000000E-01     -1.018008000000000E+02
4760000000.000000      1.385498000000000E-01     -1.173555000000000E+02      5.803528000000000E-01     -1.107383000000000E+02
4780000000.000000      1.123772000000000E-01     -1.013437000000000E+02      6.684570000000000E-01     -1.229844000000000E+02
4800000000.000000      1.185455000000000E-01     -8.353516000000000E+01      7.169495000000000E-01     -1.359219000000000E+02
4820000000.000000      1.467514000000000E-01     -7.387890000000000E+01      7.355957000000000E-01     -1.491094000000000E+02
4840000000.000000      1.875381000000000E-01     -7.398828000000000E+01      7.186279000000000E-01     -1.619844000000000E+02
4860000000.000000      2.312241000000000E-01     -8.031250000000000E+01      6.834412000000000E-01     -1.743906000000000E+02
4880000000.000000      2.687378000000000E-01     -9.092577000000000E+01      6.139526000000000E-01      1.718516000000000E+02
4900000000.000000      2.940674000000000E-01     -1.043398000000000E+02      4.947510000000000E-01      1.598047000000000E+02
4920000000.000000      2.998199000000000E-01     -1.194414000000000E+02      3.634186000000000E-01      1.535312000000000E+02
4940000000.000000      2.848053000000000E-01     -1.351094000000000E+02      2.500458000000000E-01      1.560859000000000E+02
4960000000.000000      2.538757000000000E-01     -1.502891000000000E+02      1.771240000000000E-01      1.778437000000000E+02
4980000000.000000      2.116165000000000E-01     -1.643281000000000E+02      2.162170000000000E-01     -1.510313000000000E+02
5000000000.000000      1.676865000000000E-01     -1.762109000000000E+02      3.314667000000000E-01     -1.436328000000000E+02
5020000000.000000      1.301270000000000E-01      1.738906000000000E+02      4.621277000000000E-01     -1.498594000000000E+02
5040000000.000000      9.988403000000000E-02      1.636328000000000E+02      5.701904000000000E-01     -1.606562000000000E+02
5060000000.000000      7.161713000000000E-02      1.481016000000000E+02      6.514587000000000E-01     -1.720859000000000E+02
5080000000.000000      4.101944000000000E-02      1.222109000000000E+02      7.186279000000000E-01      1.758047000000000E+02
5100000000.000000      1.661301000000000E-02      3.814453000000000E+01      7.554932000000000E-01      1.619609000000000E+02
5120000000.000000      4.125786000000000E-02     -5.205273000000000E+01      7.535400000000000E-01      1.478828000000000E+02
5140000000.000000      7.338333000000000E-02     -8.804688000000000E+01      7.018127000000000E-01      1.341484000000000E+02
5160000000.000000      9.665298000000000E-02     -1.193008000000000E+02      6.267700000000000E-01      1.218633000000000E+02
5180000000.000000      1.096725000000000E-01     -1.497813000000000E+02      5.304565000000000E-01      1.106445000000000E+02
5200000000.000000      1.126251000000000E-01      1.773047000000000E+02      4.144897000000000E-01      1.010352000000000E+02
5220000000.000000      1.098518000000000E-01      1.417031000000000E+02      2.815399000000000E-01      9.842968000000000E+01
5240000000.000000      1.091690000000000E-01      1.053398000000000E+02      1.837082000000000E-01      1.158047000000000E+02
5260000000.000000      1.134186000000000E-01      7.211328000000000E+01      1.977081000000000E-01      1.498594000000000E+02
5280000000.000000      1.205444000000000E-01      4.556836000000000E+01      2.984009000000000E-01      1.606250000000000E+02
5300000000.000000      1.278610000000000E-01      2.487793000000000E+01      4.114075000000000E-01      1.579609000000000E+02
5320000000.000000      1.335983000000000E-01      8.488281000000000E+00      5.289307000000000E-01      1.502187000000000E+02
5340000000.000000      1.390610000000000E-01     -5.938232000000000E+00      6.398010000000000E-01      1.382891000000000E+02
5360000000.000000      1.432266000000000E-01     -2.153125000000000E+01      7.069397000000000E-01      1.238398000000000E+02
5380000000.000000      1.386032000000000E-01     -3.904297000000000E+01      7.163391000000000E-01      1.105312000000000E+02
5400000000.000000      1.193542000000000E-01     -5.712695000000000E+01      7.178345000000000E-01      9.880468000000000E+01
5420000000.000000      8.396530000000000E-02     -7.403125000000000E+01      7.045593000000000E-01      8.583202000000000E+01
5440000000.000000      2.967739000000000E-02     -7.726171000000000E+01      6.460266000000000E-01      7.154297000000000E+01
5460000000.000000      4.407501000000000E-02      3.885156000000000E+01      5.378723000000000E-01      5.840038000000000E+01
5480000000.000000      1.143150000000000E-01      3.076269000000000E+01      4.109497000000000E-01      4.927734000000000E+01
5500000000.000000      1.760406000000000E-01      1.550830000000000E+01      2.907257000000000E-01      4.732031000000000E+01
5520000000.000000      2.211761000000000E-01      4.229736000000000E-01      1.943130000000000E-01      5.949609000000000E+01
5540000000.000000      2.521515000000000E-01     -1.326074000000000E+01      1.821136000000000E-01      9.131639000000000E+01
5560000000.000000      2.698364000000000E-01     -2.529004000000000E+01      2.646179000000000E-01      1.087891000000000E+02
5580000000.000000      2.824249000000000E-01     -3.504687000000000E+01      3.860321000000000E-01      1.084727000000000E+02
5600000000.000000      2.938690000000000E-01     -4.396874000000000E+01      5.089722000000000E-01      9.958593000000000E+01
5620000000.000000      3.043823000000000E-01     -5.310156000000000E+01      5.969238000000000E-01      8.691406000000000E+01
5640000000.000000      3.079834000000000E-01     -6.284765000000000E+01      6.471863000000000E-01      7.511719000000000E+01
5660000000.000000      2.974854000000000E-01     -7.349999000000000E+01      6.865234000000000E-01      6.373632000000000E+01
5680000000.000000      2.679749000000000E-01     -8.384375000000000E+01      6.983032000000000E-01      5.091797000000000E+01
5700000000.000000      2.205811000000000E-01     -9.105078000000000E+01      6.830444000000000E-01      3.865429000000000E+01
5720000000.000000      1.697159000000000E-01     -8.954687000000000E+01      6.428223000000000E-01      2.581738000000000E+01
5740000000.000000      1.499329000000000E-01     -7.495312000000000E+01      5.637512000000000E-01      1.252686000000000E+01
5760000000.000000      1.788483000000000E-01     -6.366405000000000E+01      4.502869000000000E-01      1.108215000000000E+00
5780000000.000000      2.253189000000000E-01     -6.530078000000000E+01      3.153534000000000E-01     -3.828735000000000E+00
5800000000.000000      2.573700000000000E-01     -7.319921000000000E+01      2.068634000000000E-01      7.541992000000000E+00
5820000000.000000      2.665710000000000E-01     -8.248827000000000E+01      1.900253000000000E-01      3.799805000000000E+01
5840000000.000000      2.567444000000000E-01     -9.103125000000000E+01      2.732697000000000E-01      5.406640000000000E+01
5860000000.000000      2.381897000000000E-01     -9.657030000000000E+01      3.739014000000000E-01      5.395117000000000E+01
5880000000.000000      2.237320000000000E-01     -9.982422000000000E+01      4.797058000000000E-01      4.861718000000000E+01
5900000000.000000      2.158737000000000E-01     -1.023125000000000E+02      5.968323000000000E-01      3.826757000000000E+01
5920000000.000000      2.083282000000000E-01     -1.050977000000000E+02      6.727295000000000E-01      2.422852000000000E+01
5940000000.000000      1.942673000000000E-01     -1.070976000000000E+02      7.023010000000000E-01      1.112061000000000E+01
5960000000.000000      1.767578000000000E-01     -1.051406000000000E+02      7.114868000000000E-01     -1.678162000000000E+00
5980000000.000000      1.655273000000000E-01     -9.725389000000000E+01      6.888428000000000E-01     -1.565576000000000E+01
6000000000.000000      1.817780000000000E-01     -8.808203000000000E+01      6.266174000000000E-01     -2.909668000000000E+01
6020000000.000000      2.166672000000000E-01     -8.652735000000000E+01      5.275574000000000E-01     -4.166016000000000E+01
6040000000.000000      2.517700000000000E-01     -9.174608000000000E+01      3.963013000000000E-01     -4.986718000000000E+01
6060000000.000000      2.758026000000000E-01     -1.008516000000000E+02      2.844238000000000E-01     -4.959179000000000E+01
6080000000.000000      2.853088000000000E-01     -1.110273000000000E+02      2.047119000000000E-01     -3.543554000000000E+01
