! Network Analyzer HP8722D
! Hewlett-Packard
! Data name: Linha & Wilkinson+CNT
! Saver's name: Rodrigo Anjos
! Comments: Teste da utilização de aquisição
continua pelo VNA HP8722D
! Time and date: 29/9/2025 17:19
!              Frequency                     S11                                                   S21                                                   S12                                                   S22
# HZ  S  MA R 50
3000000000.000000      4.263458000000000E-01     -5.583984000000000E+01      2.094269000000000E-01     -1.314141000000000E+02
3020000000.000000      4.472351000000000E-01     -6.994922000000000E+01      3.528137000000000E-01     -1.351484000000000E+02
3040000000.000000      4.511414000000000E-01     -8.287500000000000E+01      4.694366000000000E-01     -1.450781000000000E+02
3060000000.000000      4.443359000000000E-01     -9.489452000000000E+01      5.732117000000000E-01     -1.552813000000000E+02
3080000000.000000      4.292450000000000E-01     -1.061992000000000E+02      6.748657000000000E-01     -1.685781000000000E+02
3100000000.000000      4.087830000000000E-01     -1.173516000000000E+02      7.243347000000000E-01      1.767266000000000E+02
3120000000.000000      3.793640000000000E-01     -1.292734000000000E+02      7.317200000000000E-01      1.631953000000000E+02
3140000000.000000      3.377380000000000E-01     -1.424531000000000E+02      7.238159000000000E-01      1.503515000000000E+02
3160000000.000000      2.769775000000000E-01     -1.565078000000000E+02      6.846924000000000E-01      1.368203000000000E+02
3180000000.000000      1.979370000000000E-01     -1.689375000000000E+02      6.124878000000000E-01      1.242422000000000E+02
3200000000.000000      1.101456000000000E-01     -1.692812000000000E+02      5.188293000000000E-01      1.116250000000000E+02
3220000000.000000      8.035278000000000E-02     -1.231289000000000E+02      3.842926000000000E-01      1.007227000000000E+02
3240000000.000000      1.517410000000000E-01     -1.047890000000000E+02      2.450943000000000E-01      9.977343000000000E+01
3260000000.000000      2.312012000000000E-01     -1.152930000000000E+02      1.472168000000000E-01      1.262422000000000E+02
3280000000.000000      2.882080000000000E-01     -1.309844000000000E+02      2.056427000000000E-01      1.654297000000000E+02
3300000000.000000      3.207397000000000E-01     -1.472656000000000E+02      3.325806000000000E-01      1.695313000000000E+02
3320000000.000000      3.319702000000000E-01     -1.631016000000000E+02      4.650269000000000E-01      1.624766000000000E+02
3340000000.000000      3.278503000000000E-01     -1.785391000000000E+02      5.761414000000000E-01      1.503515000000000E+02
3360000000.000000      3.164520000000000E-01      1.666797000000000E+02      6.475220000000000E-01      1.381641000000000E+02
3380000000.000000      2.996826000000000E-01      1.524688000000000E+02      7.087708000000000E-01      1.270391000000000E+02
3400000000.000000      2.775421000000000E-01      1.377812000000000E+02      7.594604000000000E-01      1.131367000000000E+02
3420000000.000000      2.423019000000000E-01      1.227539000000000E+02      7.491455000000000E-01      9.832811000000000E+01
3440000000.000000      1.894455000000000E-01      1.080586000000000E+02      7.026672000000000E-01      8.541796000000000E+01
3460000000.000000      1.187935000000000E-01      9.765234000000000E+01      6.465149000000000E-01      7.224218000000000E+01
3480000000.000000      4.828644000000000E-02      1.230976000000000E+02      5.478210000000000E-01      5.889843000000000E+01
3500000000.000000      9.369659000000000E-02     -1.742031000000000E+02      4.221344000000000E-01      4.764257000000000E+01
3520000000.000000      1.852646000000000E-01      1.787344000000000E+02      2.766113000000000E-01      4.062304000000000E+01
3540000000.000000      2.640228000000000E-01      1.625625000000000E+02      1.467590000000000E-01      5.910937000000000E+01
3560000000.000000      3.239288000000000E-01      1.455937000000000E+02      1.691437000000000E-01      1.080430000000000E+02
3580000000.000000      3.600311000000000E-01      1.297109000000000E+02      2.965851000000000E-01      1.174336000000000E+02
3600000000.000000      3.766174000000000E-01      1.150937000000000E+02      4.212646000000000E-01      1.104492000000000E+02
3620000000.000000      3.782501000000000E-01      1.024492000000000E+02      5.224304000000000E-01      1.009727000000000E+02
3640000000.000000      3.682098000000000E-01      9.123438000000000E+01      6.230164000000000E-01      8.983202000000000E+01
3660000000.000000      3.518524000000000E-01      8.107813000000000E+01      6.930237000000000E-01      7.551952000000000E+01
3680000000.000000      3.296509000000000E-01      7.191015000000000E+01      7.103271000000000E-01      6.253124000000000E+01
3700000000.000000      2.990723000000000E-01      6.362499000000000E+01      7.209473000000000E-01      5.088476000000000E+01
3720000000.000000      2.546082000000000E-01      5.761913000000000E+01      7.225342000000000E-01      3.665625000000000E+01
3740000000.000000      2.040100000000000E-01      5.862890000000000E+01      6.629028000000000E-01      2.130859000000000E+01
3760000000.000000      1.780090000000000E-01      7.291406000000000E+01      5.643921000000000E-01      6.864990000000000E+00
3780000000.000000      2.131042000000000E-01      8.785156000000000E+01      4.327545000000000E-01     -6.138672000000000E+00
3800000000.000000      2.839203000000000E-01      8.921093000000000E+01      2.794342000000000E-01     -1.324561000000000E+01
3820000000.000000      3.508759000000000E-01      8.263672000000000E+01      1.526947000000000E-01      5.039978000000000E-01
3840000000.000000      4.011688000000000E-01      7.394531000000000E+01      1.447830000000000E-01      4.839648000000000E+01
3860000000.000000      4.365692000000000E-01      6.535546000000000E+01      2.480774000000000E-01      6.539453000000000E+01
3880000000.000000      4.611053000000000E-01      5.775781000000000E+01      3.783875000000000E-01      6.097461000000000E+01
3900000000.000000      4.902954000000000E-01      5.079102000000000E+01      4.785767000000000E-01      4.754883000000000E+01
3920000000.000000      5.204163000000000E-01      4.309375000000000E+01      5.087585000000000E-01      3.588281000000000E+01
3940000000.000000      5.479736000000000E-01      3.419726000000000E+01      5.390930000000000E-01      2.938086000000000E+01
3960000000.000000      5.595093000000000E-01      2.401464000000000E+01      5.958557000000000E-01      1.997168000000000E+01
3980000000.000000      5.545044000000000E-01      1.346338000000000E+01      5.966492000000000E-01      8.029297000000000E+00
4000000000.000000      5.267334000000000E-01      3.018433000000000E+00      5.804138000000000E-01      1.213989000000000E+00
4020000000.000000      4.836121000000000E-01     -6.823975000000000E+00      5.977783000000000E-01     -6.432617000000000E+00
4040000000.000000      4.250183000000000E-01     -1.568604000000000E+01      5.848694000000000E-01     -1.883203000000000E+01
4060000000.000000      3.484344000000000E-01     -2.169531000000000E+01      5.274048000000000E-01     -2.895215000000000E+01
4080000000.000000      2.740784000000000E-01     -2.151269000000000E+01      4.672089000000000E-01     -3.830078000000000E+01
4100000000.000000      2.287369000000000E-01     -1.080664000000000E+01      3.644562000000000E-01     -4.729101000000000E+01
4120000000.000000      2.426147000000000E-01      2.085938000000000E+00      2.482605000000000E-01     -4.373828000000000E+01
4140000000.000000      2.909393000000000E-01      5.302246000000000E+00      2.039566000000000E-01     -1.935547000000000E+01
4160000000.000000      3.342743000000000E-01      9.599304000000000E-01      2.656097000000000E-01      5.630493000000000E-02
4180000000.000000      3.609772000000000E-01     -5.906738000000000E+00      3.598785000000000E-01      3.889160000000000E+00
4200000000.000000      3.713074000000000E-01     -1.366699000000000E+01      4.910126000000000E-01      1.193359000000000E+00
4220000000.000000      3.670044000000000E-01     -2.080176000000000E+01      6.445007000000000E-01     -1.133545000000000E+01
4240000000.000000      3.480835000000000E-01     -2.829883000000000E+01      7.226257000000000E-01     -2.801172000000000E+01
4260000000.000000      3.092957000000000E-01     -3.402344000000000E+01      7.437134000000000E-01     -4.210546000000000E+01
4280000000.000000      2.589264000000000E-01     -3.516211000000000E+01      7.497864000000000E-01     -5.592968000000000E+01
4300000000.000000      2.220764000000000E-01     -2.683887000000000E+01      7.134094000000000E-01     -7.091015000000000E+01
4320000000.000000      2.363129000000000E-01     -1.416699000000000E+01      6.296692000000000E-01     -8.521875000000000E+01
4340000000.000000      2.950287000000000E-01     -1.051270000000000E+01      5.131531000000000E-01     -9.807812000000000E+01
4360000000.000000      3.597107000000000E-01     -1.566650000000000E+01      3.791504000000000E-01     -1.068437000000000E+02
4380000000.000000      4.058380000000000E-01     -2.466992000000000E+01      2.475204000000000E-01     -1.076875000000000E+02
4400000000.000000      4.271851000000000E-01     -3.457617000000000E+01      1.534729000000000E-01     -8.419531000000000E+01
4420000000.000000      4.251099000000000E-01     -4.386523000000000E+01      1.899490000000000E-01     -4.517578000000000E+01
4440000000.000000      4.077148000000000E-01     -5.192187000000000E+01      3.132324000000000E-01     -3.624023000000000E+01
4460000000.000000      3.876038000000000E-01     -5.857812000000000E+01      4.541016000000000E-01     -4.352929000000000E+01
4480000000.000000      3.654785000000000E-01     -6.483593000000000E+01      5.624695000000000E-01     -5.549609000000000E+01
4500000000.000000      3.461914000000000E-01     -7.158203000000000E+01      6.439209000000000E-01     -6.698437000000000E+01
4520000000.000000      3.128204000000000E-01     -7.942577000000000E+01      7.164307000000000E-01     -8.010546000000000E+01
4540000000.000000      2.611237000000000E-01     -8.557032000000000E+01      7.419739000000000E-01     -9.464062000000000E+01
4560000000.000000      2.001114000000000E-01     -8.367579000000000E+01      7.288818000000000E-01     -1.078320000000000E+02
4580000000.000000      1.740952000000000E-01     -6.741796000000000E+01      6.900330000000000E-01     -1.216250000000000E+02
4600000000.000000      2.124481000000000E-01     -5.359570000000000E+01      6.037292000000000E-01     -1.348594000000000E+02
4620000000.000000      2.778778000000000E-01     -5.509375000000000E+01      4.966125000000000E-01     -1.451484000000000E+02
4640000000.000000      3.310394000000000E-01     -6.510156000000000E+01      3.764496000000000E-01     -1.533984000000000E+02
4660000000.000000      3.537292000000000E-01     -7.844531000000000E+01      2.451019000000000E-01     -1.512734000000000E+02
4680000000.000000      3.443604000000000E-01     -9.246094000000000E+01      1.798935000000000E-01     -1.226641000000000E+02
4700000000.000000      3.075867000000000E-01     -1.056680000000000E+02      2.508850000000000E-01     -9.639843000000000E+01
4720000000.000000      2.513580000000000E-01     -1.160859000000000E+02      3.700104000000000E-01     -9.548437000000000E+01
4740000000.000000      1.893005000000000E-01     -1.212187000000000E+02      4.760437000000000E-01     -1.019023000000000E+02
4760000000.000000      1.377182000000000E-01     -1.170039000000000E+02      5.819702000000000E-01     -1.107344000000000E+02
4780000000.000000      1.121483000000000E-01     -1.006875000000000E+02      6.685791000000000E-01     -1.230117000000000E+02
4800000000.000000      1.182365000000000E-01     -8.333593000000000E+01      7.167358000000000E-01     -1.357734000000000E+02
4820000000.000000      1.474457000000000E-01     -7.348437000000000E+01      7.369080000000000E-01     -1.490937000000000E+02
4840000000.000000      1.885529000000000E-01     -7.347265000000000E+01      7.180786000000000E-01     -1.619375000000000E+02
4860000000.000000      2.320786000000000E-01     -8.023046000000000E+01      6.825867000000000E-01     -1.744062000000000E+02
4880000000.000000      2.693634000000000E-01     -9.079296000000000E+01      6.142883000000000E-01      1.717969000000000E+02
4900000000.000000      2.946320000000000E-01     -1.042930000000000E+02      4.934540000000000E-01      1.593828000000000E+02
4920000000.000000      2.998505000000000E-01     -1.194531000000000E+02      3.626709000000000E-01      1.535859000000000E+02
4940000000.000000      2.853699000000000E-01     -1.351641000000000E+02      2.498093000000000E-01      1.563203000000000E+02
4960000000.000000      2.545929000000000E-01     -1.502266000000000E+02      1.767731000000000E-01      1.781094000000000E+02
4980000000.000000      2.111435000000000E-01     -1.643828000000000E+02      2.168274000000000E-01     -1.510078000000000E+02
5000000000.000000      1.677780000000000E-01     -1.760313000000000E+02      3.333740000000000E-01     -1.436797000000000E+02
5020000000.000000      1.299057000000000E-01      1.738594000000000E+02      4.627838000000000E-01     -1.498906000000000E+02
5040000000.000000      9.976959000000000E-02      1.638281000000000E+02      5.708618000000000E-01     -1.605547000000000E+02
5060000000.000000      7.172394000000000E-02      1.488125000000000E+02      6.517334000000000E-01     -1.720547000000000E+02
5080000000.000000      4.052544000000000E-02      1.225391000000000E+02      7.197876000000000E-01      1.757109000000000E+02
5100000000.000000      1.651096000000000E-02      3.846484000000000E+01      7.564392000000000E-01      1.620234000000000E+02
5120000000.000000      4.145432000000000E-02     -5.263672000000000E+01      7.521973000000000E-01      1.477890000000000E+02
5140000000.000000      7.358932000000000E-02     -8.839062000000000E+01      7.021179000000000E-01      1.340078000000000E+02
5160000000.000000      9.668350000000000E-02     -1.197266000000000E+02      6.255798000000000E-01      1.219414000000000E+02
5180000000.000000      1.101341000000000E-01     -1.500000000000000E+02      5.299683000000000E-01      1.106719000000000E+02
5200000000.000000      1.132317000000000E-01      1.771875000000000E+02      4.138794000000000E-01      1.009531000000000E+02
5220000000.000000      1.101303000000000E-01      1.412500000000000E+02      2.808228000000000E-01      9.851171000000000E+01
5240000000.000000      1.093254000000000E-01      1.053477000000000E+02      1.831818000000000E-01      1.161992000000000E+02
5260000000.000000      1.133308000000000E-01      7.220312000000000E+01      1.987152000000000E-01      1.501094000000000E+02
5280000000.000000      1.207428000000000E-01      4.567578000000000E+01      2.984619000000000E-01      1.606328000000000E+02
5300000000.000000      1.275787000000000E-01      2.496875000000000E+01      4.123383000000000E-01      1.579297000000000E+02
5320000000.000000      1.339645000000000E-01      8.379395000000000E+00      5.285339000000000E-01      1.503594000000000E+02
5340000000.000000      1.395569000000000E-01     -5.942383000000000E+00      6.390076000000000E-01      1.384140000000000E+02
5360000000.000000      1.435699000000000E-01     -2.149512000000000E+01      7.064209000000000E-01      1.237734000000000E+02
5380000000.000000      1.383133000000000E-01     -3.933594000000000E+01      7.161560000000000E-01      1.105234000000000E+02
5400000000.000000      1.190071000000000E-01     -5.768359000000000E+01      7.175293000000000E-01      9.868359000000000E+01
5420000000.000000      8.420563000000000E-02     -7.439062000000000E+01      7.036438000000000E-01      8.569921000000000E+01
5440000000.000000      2.961254000000000E-02     -7.877734000000000E+01      6.455994000000000E-01      7.132813000000000E+01
5460000000.000000      4.401016000000000E-02      3.924414000000000E+01      5.365601000000000E-01      5.845312000000000E+01
5480000000.000000      1.139488000000000E-01      3.074219000000000E+01      4.101563000000000E-01      4.930664000000000E+01
5500000000.000000      1.764221000000000E-01      1.550977000000000E+01      2.901611000000000E-01      4.752343000000000E+01
5520000000.000000      2.214050000000000E-01      4.463196000000000E-01      1.946335000000000E-01      5.990429000000000E+01
5540000000.000000      2.515869000000000E-01     -1.317432000000000E+01      1.828690000000000E-01      9.161327000000000E+01
5560000000.000000      2.695923000000000E-01     -2.509863000000000E+01      2.655640000000000E-01      1.088359000000000E+02
5580000000.000000      2.820740000000000E-01     -3.511719000000000E+01      3.868561000000000E-01      1.084101000000000E+02
5600000000.000000      2.939301000000000E-01     -4.398046000000000E+01      5.093384000000000E-01      9.944530000000000E+01
5620000000.000000      3.044586000000000E-01     -5.309570000000000E+01      5.975342000000000E-01      8.690624000000000E+01
5640000000.000000      3.079224000000000E-01     -6.291992000000000E+01      6.470947000000000E-01      7.496094000000000E+01
5660000000.000000      2.974091000000000E-01     -7.351563000000000E+01      6.857300000000000E-01      6.361133000000000E+01
5680000000.000000      2.674408000000000E-01     -8.385157000000000E+01      6.984253000000000E-01      5.088085000000000E+01
5700000000.000000      2.192154000000000E-01     -9.112890000000000E+01      6.828308000000000E-01      3.853516000000000E+01
5720000000.000000      1.695099000000000E-01     -8.942186000000000E+01      6.414490000000000E-01      2.565527000000000E+01
5740000000.000000      1.494598000000000E-01     -7.487499000000000E+01      5.628662000000000E-01      1.265869000000000E+01
5760000000.000000      1.793442000000000E-01     -6.361914000000000E+01      4.461365000000000E-01      1.143921000000000E+00
5780000000.000000      2.257233000000000E-01     -6.527734000000000E+01      3.133698000000000E-01     -3.681885000000000E+00
5800000000.000000      2.575531000000000E-01     -7.307031000000000E+01      2.064438000000000E-01      7.748047000000000E+00
5820000000.000000      2.675934000000000E-01     -8.259766000000000E+01      1.911850000000000E-01      3.833593000000000E+01
5840000000.000000      2.564087000000000E-01     -9.094921000000000E+01      2.741089000000000E-01      5.415820000000000E+01
5860000000.000000      2.385635000000000E-01     -9.651953000000000E+01      3.750458000000000E-01      5.387695000000000E+01
5880000000.000000      2.239227000000000E-01     -9.997265000000000E+01      4.817047000000000E-01      4.843945000000000E+01
5900000000.000000      2.153473000000000E-01     -1.022187000000000E+02      5.974121000000000E-01      3.823242000000000E+01
5920000000.000000      2.076569000000000E-01     -1.051758000000000E+02      6.716614000000000E-01      2.425195000000000E+01
5940000000.000000      1.937256000000000E-01     -1.070859000000000E+02      7.029724000000000E-01      1.097803000000000E+01
5960000000.000000      1.762466000000000E-01     -1.051133000000000E+02      7.134705000000000E-01     -1.680908000000000E+00
5980000000.000000      1.658173000000000E-01     -9.714453000000000E+01      6.894836000000000E-01     -1.574512000000000E+01
6000000000.000000      1.824112000000000E-01     -8.790234000000000E+01      6.242676000000000E-01     -2.915234000000000E+01
6020000000.000000      2.169495000000000E-01     -8.626562000000000E+01      5.270081000000000E-01     -4.169531000000000E+01
6040000000.000000      2.526398000000000E-01     -9.171875000000000E+01      3.964691000000000E-01     -4.981640000000000E+01
6060000000.000000      2.755280000000000E-01     -1.008242000000000E+02      2.832947000000000E-01     -4.939258000000000E+01
6080000000.000000      2.846069000000000E-01     -1.110976000000000E+02      2.046738000000000E-01     -3.496289000000000E+01
