! Network Analyzer HP8722D
! Hewlett-Packard
! Data name: Linha & Wilkinson+CNT
! Saver's name: Rodrigo Anjos
! Comments: Teste da utilização de aquisição
continua pelo VNA HP8722D
! Time and date: 29/9/2025 15:28
!              Frequency                     S11                                                   S21                                                   S12                                                   S22
# HZ  S  MA R 50
3000000000.000000      4.245605000000000E-01     -5.570898000000000E+01      2.086792000000000E-01     -1.315547000000000E+02
3020000000.000000      4.481964000000000E-01     -7.001953000000000E+01      3.515778000000000E-01     -1.349688000000000E+02
3040000000.000000      4.521332000000000E-01     -8.287500000000000E+01      4.682007000000000E-01     -1.451641000000000E+02
3060000000.000000      4.447021000000000E-01     -9.493359000000000E+01      5.720215000000000E-01     -1.552031000000000E+02
3080000000.000000      4.291840000000000E-01     -1.062500000000000E+02      6.743164000000000E-01     -1.684297000000000E+02
3100000000.000000      4.088135000000000E-01     -1.174453000000000E+02      7.241211000000000E-01      1.767187000000000E+02
3120000000.000000      3.796844000000000E-01     -1.294531000000000E+02      7.322388000000000E-01      1.633906000000000E+02
3140000000.000000      3.385315000000000E-01     -1.424687000000000E+02      7.230530000000000E-01      1.504062000000000E+02
3160000000.000000      2.778320000000000E-01     -1.563906000000000E+02      6.838379000000000E-01      1.369297000000000E+02
3180000000.000000      1.984787000000000E-01     -1.690781000000000E+02      6.135559000000000E-01      1.244375000000000E+02
3200000000.000000      1.103668000000000E-01     -1.696563000000000E+02      5.179443000000000E-01      1.115977000000000E+02
3220000000.000000      7.965851000000000E-02     -1.233906000000000E+02      3.840485000000000E-01      1.009883000000000E+02
3240000000.000000      1.513290000000000E-01     -1.048359000000000E+02      2.453461000000000E-01      9.973827000000000E+01
3260000000.000000      2.308350000000000E-01     -1.152695000000000E+02      1.469498000000000E-01      1.259687000000000E+02
3280000000.000000      2.881165000000000E-01     -1.309922000000000E+02      2.053146000000000E-01      1.655313000000000E+02
3300000000.000000      3.205872000000000E-01     -1.472969000000000E+02      3.317413000000000E-01      1.695156000000000E+02
3320000000.000000      3.315277000000000E-01     -1.632031000000000E+02      4.642487000000000E-01      1.624844000000000E+02
3340000000.000000      3.280640000000000E-01     -1.786172000000000E+02      5.763245000000000E-01      1.504766000000000E+02
3360000000.000000      3.164673000000000E-01      1.666484000000000E+02      6.478882000000000E-01      1.383594000000000E+02
3380000000.000000      3.002319000000000E-01      1.523438000000000E+02      7.099609000000000E-01      1.268203000000000E+02
3400000000.000000      2.778778000000000E-01      1.377266000000000E+02      7.579041000000000E-01      1.130078000000000E+02
3420000000.000000      2.426910000000000E-01      1.226406000000000E+02      7.484741000000000E-01      9.830467000000000E+01
3440000000.000000      1.895294000000000E-01      1.079922000000000E+02      7.054138000000000E-01      8.539843000000000E+01
3460000000.000000      1.187935000000000E-01      9.741405000000000E+01      6.457825000000000E-01      7.229297000000000E+01
3480000000.000000      4.724312000000000E-02      1.225430000000000E+02      5.473938000000000E-01      5.882226000000000E+01
3500000000.000000      9.291840000000000E-02     -1.740313000000000E+02      4.235992000000000E-01      4.764453000000000E+01
3520000000.000000      1.846008000000000E-01      1.789141000000000E+02      2.774200000000000E-01      4.049805000000000E+01
3540000000.000000      2.639160000000000E-01      1.626250000000000E+02      1.466599000000000E-01      5.875781000000000E+01
3560000000.000000      3.231659000000000E-01      1.456328000000000E+02      1.685944000000000E-01      1.079844000000000E+02
3580000000.000000      3.602295000000000E-01      1.297109000000000E+02      2.959900000000000E-01      1.174141000000000E+02
3600000000.000000      3.761902000000000E-01      1.151172000000000E+02      4.206390000000000E-01      1.105430000000000E+02
3620000000.000000      3.778687000000000E-01      1.025156000000000E+02      5.223389000000000E-01      1.009336000000000E+02
3640000000.000000      3.681335000000000E-01      9.121874000000000E+01      6.227112000000000E-01      8.991405000000000E+01
3660000000.000000      3.520966000000000E-01      8.106249000000000E+01      6.931458000000000E-01      7.558984000000000E+01
3680000000.000000      3.294678000000000E-01      7.189453000000000E+01      7.108459000000000E-01      6.265038000000000E+01
3700000000.000000      2.986755000000000E-01      6.362695000000000E+01      7.203369000000000E-01      5.090820000000000E+01
3720000000.000000      2.546234000000000E-01      5.764453000000000E+01      7.225952000000000E-01      3.681055000000000E+01
3740000000.000000      2.043991000000000E-01      5.857616000000000E+01      6.629639000000000E-01      2.113574000000000E+01
3760000000.000000      1.780472000000000E-01      7.266796000000000E+01      5.643005000000000E-01      6.984375000000000E+00
3780000000.000000      2.126236000000000E-01      8.753906000000000E+01      4.339142000000000E-01     -6.065918000000000E+00
3800000000.000000      2.830048000000000E-01      8.908983000000000E+01      2.807312000000000E-01     -1.337451000000000E+01
3820000000.000000      3.507080000000000E-01      8.252344000000000E+01      1.527557000000000E-01      2.265930000000000E-01
3840000000.000000      4.005432000000000E-01      7.379687000000000E+01      1.443634000000000E-01      4.825000000000000E+01
3860000000.000000      4.355927000000000E-01      6.534765000000000E+01      2.479095000000000E-01      6.524219000000000E+01
3880000000.000000      4.609528000000000E-01      5.773828000000000E+01      3.772736000000000E-01      6.111914000000000E+01
3900000000.000000      4.898834000000000E-01      5.078515000000000E+01      4.780273000000000E-01      4.752734000000000E+01
3920000000.000000      5.208740000000000E-01      4.295507000000000E+01      5.098572000000000E-01      3.587305000000000E+01
3940000000.000000      5.501099000000000E-01      3.393555000000000E+01      5.411072000000000E-01      2.926270000000000E+01
3960000000.000000      5.581360000000000E-01      2.395117000000000E+01      5.958252000000000E-01      1.999316000000000E+01
3980000000.000000      5.528259000000000E-01      1.339746000000000E+01      5.971985000000000E-01      8.166504000000000E+00
4000000000.000000      5.279846000000000E-01      2.927856000000000E+00      5.805664000000000E-01      1.204346000000000E+00
4020000000.000000      4.836273000000000E-01     -6.903564000000000E+00      5.972290000000000E-01     -6.655029000000000E+00
4040000000.000000      4.246063000000000E-01     -1.576709000000000E+01      5.839844000000000E-01     -1.891992000000000E+01
4060000000.000000      3.488617000000000E-01     -2.184668000000000E+01      5.263367000000000E-01     -2.905371000000000E+01
4080000000.000000      2.737274000000000E-01     -2.158496000000000E+01      4.670715000000000E-01     -3.815430000000000E+01
4100000000.000000      2.288132000000000E-01     -1.102637000000000E+01      3.652802000000000E-01     -4.748437000000000E+01
4120000000.000000      2.428207000000000E-01      2.037964000000000E+00      2.486954000000000E-01     -4.393359000000000E+01
4140000000.000000      2.907715000000000E-01      5.151123000000000E+00      2.033005000000000E-01     -1.952637000000000E+01
4160000000.000000      3.339233000000000E-01      9.901428000000000E-01      2.649841000000000E-01     -4.119873000000000E-03
4180000000.000000      3.622437000000000E-01     -5.980713000000000E+00      3.592529000000000E-01      3.879517000000000E+00
4200000000.000000      3.713226000000000E-01     -1.363965000000000E+01      4.899139000000000E-01      1.384277000000000E+00
4220000000.000000      3.675079000000000E-01     -2.083984000000000E+01      6.450500000000000E-01     -1.126953000000000E+01
4240000000.000000      3.482819000000000E-01     -2.833008000000000E+01      7.216492000000000E-01     -2.795410000000000E+01
4260000000.000000      3.093719000000000E-01     -3.405078000000000E+01      7.416687000000000E-01     -4.211719000000000E+01
4280000000.000000      2.588654000000000E-01     -3.529101000000000E+01      7.520447000000000E-01     -5.588867000000000E+01
4300000000.000000      2.220840000000000E-01     -2.693848000000000E+01      7.129211000000000E-01     -7.083202000000000E+01
4320000000.000000      2.363968000000000E-01     -1.432373000000000E+01      6.307678000000000E-01     -8.523438000000000E+01
4340000000.000000      2.942200000000000E-01     -1.048096000000000E+01      5.145569000000000E-01     -9.805859000000000E+01
4360000000.000000      3.593597000000000E-01     -1.568164000000000E+01      3.787079000000000E-01     -1.068047000000000E+02
4380000000.000000      4.062042000000000E-01     -2.470019000000000E+01      2.481613000000000E-01     -1.078633000000000E+02
4400000000.000000      4.267883000000000E-01     -3.466211000000000E+01      1.533279000000000E-01     -8.450781000000000E+01
4420000000.000000      4.248810000000000E-01     -4.389062000000000E+01      1.892700000000000E-01     -4.522851000000000E+01
4440000000.000000      4.075775000000000E-01     -5.205664000000000E+01      3.118439000000000E-01     -3.618750000000000E+01
4460000000.000000      3.887482000000000E-01     -5.857031000000000E+01      4.536896000000000E-01     -4.339453000000000E+01
4480000000.000000      3.680267000000000E-01     -6.499609000000000E+01      5.634766000000000E-01     -5.562695000000000E+01
4500000000.000000      3.462219000000000E-01     -7.168359000000000E+01      6.438904000000000E-01     -6.701562000000000E+01
4520000000.000000      3.130188000000000E-01     -7.939062000000000E+01      7.149963000000000E-01     -8.001171000000000E+01
4540000000.000000      2.612305000000000E-01     -8.560156000000000E+01      7.418213000000000E-01     -9.468359000000000E+01
4560000000.000000      2.005463000000000E-01     -8.360155000000000E+01      7.299805000000000E-01     -1.077734000000000E+02
4580000000.000000      1.743622000000000E-01     -6.754687000000000E+01      6.900940000000000E-01     -1.215625000000000E+02
4600000000.000000      2.125473000000000E-01     -5.376367000000000E+01      6.045227000000000E-01     -1.347422000000000E+02
4620000000.000000      2.775879000000000E-01     -5.520312000000000E+01      4.976654000000000E-01     -1.452344000000000E+02
4640000000.000000      3.311005000000000E-01     -6.525391000000000E+01      3.772736000000000E-01     -1.533594000000000E+02
4660000000.000000      3.542786000000000E-01     -7.847265000000000E+01      2.449341000000000E-01     -1.515859000000000E+02
4680000000.000000      3.455048000000000E-01     -9.250391000000000E+01      1.791458000000000E-01     -1.229883000000000E+02
4700000000.000000      3.084564000000000E-01     -1.057148000000000E+02      2.493591000000000E-01     -9.647264000000000E+01
4720000000.000000      2.522125000000000E-01     -1.162383000000000E+02      3.683929000000000E-01     -9.552343000000000E+01
4740000000.000000      1.899490000000000E-01     -1.214766000000000E+02      4.753265000000000E-01     -1.019414000000000E+02
4760000000.000000      1.384506000000000E-01     -1.171953000000000E+02      5.801697000000000E-01     -1.105898000000000E+02
4780000000.000000      1.120682000000000E-01     -1.013945000000000E+02      6.682129000000000E-01     -1.230586000000000E+02
4800000000.000000      1.179352000000000E-01     -8.354687000000000E+01      7.176514000000000E-01     -1.358359000000000E+02
4820000000.000000      1.468048000000000E-01     -7.394531000000000E+01      7.355347000000000E-01     -1.491953000000000E+02
4840000000.000000      1.878662000000000E-01     -7.381249000000000E+01      7.172241000000000E-01     -1.618515000000000E+02
4860000000.000000      2.309265000000000E-01     -8.034374000000000E+01      6.828918000000000E-01     -1.745703000000000E+02
4880000000.000000      2.683868000000000E-01     -9.082422000000000E+01      6.143799000000000E-01      1.717344000000000E+02
4900000000.000000      2.940674000000000E-01     -1.043945000000000E+02      4.933777000000000E-01      1.594609000000000E+02
4920000000.000000      3.000488000000000E-01     -1.195078000000000E+02      3.635712000000000E-01      1.536484000000000E+02
4940000000.000000      2.852936000000000E-01     -1.351641000000000E+02      2.499466000000000E-01      1.560469000000000E+02
4960000000.000000      2.541656000000000E-01     -1.503281000000000E+02      1.771088000000000E-01      1.779687000000000E+02
4980000000.000000      2.120590000000000E-01     -1.645156000000000E+02      2.160416000000000E-01     -1.508672000000000E+02
5000000000.000000      1.678391000000000E-01     -1.761641000000000E+02      3.319702000000000E-01     -1.436250000000000E+02
5020000000.000000      1.298065000000000E-01      1.736953000000000E+02      4.619141000000000E-01     -1.499063000000000E+02
5040000000.000000      9.968185000000000E-02      1.636094000000000E+02      5.715637000000000E-01     -1.606641000000000E+02
5060000000.000000      7.127762000000000E-02      1.484453000000000E+02      6.508484000000000E-01     -1.721797000000000E+02
5080000000.000000      4.126740000000000E-02      1.220469000000000E+02      7.190857000000000E-01      1.757187000000000E+02
5100000000.000000      1.650810000000000E-02      3.917969000000000E+01      7.575684000000000E-01      1.619219000000000E+02
5120000000.000000      4.165077000000000E-02     -5.200976000000000E+01      7.513428000000000E-01      1.477266000000000E+02
5140000000.000000      7.313538000000000E-02     -8.827343000000000E+01      7.045593000000000E-01      1.340625000000000E+02
5160000000.000000      9.671783000000000E-02     -1.193281000000000E+02      6.273804000000000E-01      1.218828000000000E+02
5180000000.000000      1.095734000000000E-01     -1.498359000000000E+02      5.308228000000000E-01      1.106602000000000E+02
5200000000.000000      1.125908000000000E-01      1.773750000000000E+02      4.145660000000000E-01      1.012383000000000E+02
5220000000.000000      1.098099000000000E-01      1.414766000000000E+02      2.814331000000000E-01      9.840233000000000E+01
5240000000.000000      1.089516000000000E-01      1.052851000000000E+02      1.833649000000000E-01      1.158047000000000E+02
5260000000.000000      1.132813000000000E-01      7.190234000000000E+01      1.979446000000000E-01      1.498203000000000E+02
5280000000.000000      1.206322000000000E-01      4.553320000000000E+01      2.985382000000000E-01      1.606328000000000E+02
5300000000.000000      1.272964000000000E-01      2.494238000000000E+01      4.122620000000000E-01      1.579297000000000E+02
5320000000.000000      1.334839000000000E-01      8.429199000000000E+00      5.299072000000000E-01      1.502656000000000E+02
5340000000.000000      1.389084000000000E-01     -5.976563000000000E+00      6.399536000000000E-01      1.383750000000000E+02
5360000000.000000      1.430511000000000E-01     -2.136914000000000E+01      7.058716000000000E-01      1.237734000000000E+02
5380000000.000000      1.385117000000000E-01     -3.910351000000000E+01      7.164001000000000E-01      1.105625000000000E+02
5400000000.000000      1.195488000000000E-01     -5.721289000000000E+01      7.172241000000000E-01      9.888672000000000E+01
5420000000.000000      8.343124000000000E-02     -7.411718000000000E+01      7.046509000000000E-01      8.578516000000000E+01
5440000000.000000      2.955246000000000E-02     -7.786327000000000E+01      6.469727000000000E-01      7.146093000000000E+01
5460000000.000000      4.423523000000000E-02      3.906250000000000E+01      5.378113000000000E-01      5.850780000000000E+01
5480000000.000000      1.138115000000000E-01      3.075195000000000E+01      4.103241000000000E-01      4.928124000000000E+01
5500000000.000000      1.760101000000000E-01      1.537793000000000E+01      2.908173000000000E-01      4.722461000000000E+01
5520000000.000000      2.213287000000000E-01      4.270935000000000E-01      1.939392000000000E-01      5.955664000000000E+01
5540000000.000000      2.523956000000000E-01     -1.315088000000000E+01      1.820068000000000E-01      9.121485000000000E+01
5560000000.000000      2.700653000000000E-01     -2.505664000000000E+01      2.644653000000000E-01      1.086953000000000E+02
5580000000.000000      2.828674000000000E-01     -3.516211000000000E+01      3.867188000000000E-01      1.084219000000000E+02
5600000000.000000      2.935791000000000E-01     -4.397265000000000E+01      5.085449000000000E-01      9.944921000000000E+01
5620000000.000000      3.043671000000000E-01     -5.305469000000000E+01      5.985718000000000E-01      8.681250000000000E+01
5640000000.000000      3.075256000000000E-01     -6.286133000000000E+01      6.465454000000000E-01      7.501562000000000E+01
5660000000.000000      2.973328000000000E-01     -7.352734000000000E+01      6.849365000000000E-01      6.359765000000000E+01
5680000000.000000      2.678680000000000E-01     -8.389452000000000E+01      6.988831000000000E-01      5.091601000000000E+01
5700000000.000000      2.199402000000000E-01     -9.106249000000000E+01      6.831665000000000E-01      3.848242000000000E+01
5720000000.000000      1.699371000000000E-01     -8.949219000000000E+01      6.432190000000000E-01      2.573633000000000E+01
5740000000.000000      1.495819000000000E-01     -7.502734000000000E+01      5.632935000000000E-01      1.267676000000000E+01
5760000000.000000      1.789932000000000E-01     -6.363281000000000E+01      4.498749000000000E-01      1.105469000000000E+00
5780000000.000000      2.255402000000000E-01     -6.528125000000000E+01      3.148956000000000E-01     -3.891968000000000E+00
5800000000.000000      2.571716000000000E-01     -7.326172000000000E+01      2.067642000000000E-01      7.396484000000000E+00
5820000000.000000      2.667236000000000E-01     -8.257813000000000E+01      1.903992000000000E-01      3.809570000000000E+01
5840000000.000000      2.566071000000000E-01     -9.094141000000000E+01      2.733765000000000E-01      5.408789000000000E+01
5860000000.000000      2.381592000000000E-01     -9.650000000000000E+01      3.738556000000000E-01      5.404687000000000E+01
5880000000.000000      2.237549000000000E-01     -9.973045000000000E+01      4.807281000000000E-01      4.850586000000000E+01
5900000000.000000      2.158661000000000E-01     -1.022578000000000E+02      5.962219000000000E-01      3.828516000000000E+01
5920000000.000000      2.084656000000000E-01     -1.050039000000000E+02      6.727600000000000E-01      2.414453000000000E+01
5940000000.000000      1.943665000000000E-01     -1.069648000000000E+02      7.025146000000000E-01      1.110156000000000E+01
5960000000.000000      1.767807000000000E-01     -1.051211000000000E+02      7.138977000000000E-01     -1.748230000000000E+00
5980000000.000000      1.657028000000000E-01     -9.723436000000000E+01      6.900024000000000E-01     -1.566553000000000E+01
6000000000.000000      1.814270000000000E-01     -8.802343000000000E+01      6.261902000000000E-01     -2.925879000000000E+01
6020000000.000000      2.167130000000000E-01     -8.627344000000000E+01      5.272217000000000E-01     -4.167969000000000E+01
6040000000.000000      2.525330000000000E-01     -9.171875000000000E+01      3.984070000000000E-01     -4.979687000000000E+01
6060000000.000000      2.758331000000000E-01     -1.009062000000000E+02      2.838440000000000E-01     -4.967382000000000E+01
6080000000.000000      2.855377000000000E-01     -1.110820000000000E+02      2.048874000000000E-01     -3.529687000000000E+01
