! Network Analyzer HP8722D
! Hewlett-Packard
! Data name: Linha & Wilkinson+CNT
! Saver's name: Rodrigo Anjos
! Comments: Teste da utilização de aquisição
continua pelo VNA HP8722D
! Time and date: 29/9/2025 16:47
!              Frequency                     S11                                                   S21                                                   S12                                                   S22
# HZ  S  MA R 50
3000000000.000000      4.251099000000000E-01     -5.574804000000000E+01      2.100525000000000E-01     -1.314141000000000E+02
3020000000.000000      4.472961000000000E-01     -7.006640000000000E+01      3.529053000000000E-01     -1.353203000000000E+02
3040000000.000000      4.512939000000000E-01     -8.296484000000000E+01      4.701691000000000E-01     -1.450625000000000E+02
3060000000.000000      4.444122000000000E-01     -9.496874000000000E+01      5.724182000000000E-01     -1.554844000000000E+02
3080000000.000000      4.291992000000000E-01     -1.062266000000000E+02      6.748962000000000E-01     -1.686328000000000E+02
3100000000.000000      4.081573000000000E-01     -1.174687000000000E+02      7.246399000000000E-01      1.764766000000000E+02
3120000000.000000      3.788910000000000E-01     -1.293516000000000E+02      7.324524000000000E-01      1.631250000000000E+02
3140000000.000000      3.376007000000000E-01     -1.425000000000000E+02      7.241211000000000E-01      1.503750000000000E+02
3160000000.000000      2.770386000000000E-01     -1.563984000000000E+02      6.822510000000000E-01      1.367109000000000E+02
3180000000.000000      1.974564000000000E-01     -1.689297000000000E+02      6.119385000000000E-01      1.241953000000000E+02
3200000000.000000      1.097908000000000E-01     -1.688906000000000E+02      5.176392000000000E-01      1.113555000000000E+02
3220000000.000000      8.107758000000000E-02     -1.227187000000000E+02      3.832550000000000E-01      1.006523000000000E+02
3240000000.000000      1.527100000000000E-01     -1.051015000000000E+02      2.443008000000000E-01      9.984375000000000E+01
3260000000.000000      2.321625000000000E-01     -1.154492000000000E+02      1.472092000000000E-01      1.264531000000000E+02
3280000000.000000      2.884827000000000E-01     -1.311016000000000E+02      2.059937000000000E-01      1.655078000000000E+02
3300000000.000000      3.209686000000000E-01     -1.473984000000000E+02      3.331451000000000E-01      1.694766000000000E+02
3320000000.000000      3.324127000000000E-01     -1.632344000000000E+02      4.653625000000000E-01      1.622734000000000E+02
3340000000.000000      3.284912000000000E-01     -1.786484000000000E+02      5.752258000000000E-01      1.501719000000000E+02
3360000000.000000      3.165131000000000E-01      1.665625000000000E+02      6.481934000000000E-01      1.381484000000000E+02
3380000000.000000      3.001862000000000E-01      1.524531000000000E+02      7.093811000000000E-01      1.267734000000000E+02
3400000000.000000      2.779388000000000E-01      1.376875000000000E+02      7.574463000000000E-01      1.130781000000000E+02
3420000000.000000      2.427444000000000E-01      1.227148000000000E+02      7.476501000000000E-01      9.824999000000000E+01
3440000000.000000      1.892624000000000E-01      1.080000000000000E+02      7.036438000000000E-01      8.531641000000000E+01
3460000000.000000      1.187286000000000E-01      9.764061000000000E+01      6.445313000000000E-01      7.216406000000000E+01
3480000000.000000      4.797363000000000E-02      1.234180000000000E+02      5.459290000000000E-01      5.882813000000000E+01
3500000000.000000      9.418869000000000E-02     -1.745703000000000E+02      4.216309000000000E-01      4.768750000000000E+01
3520000000.000000      1.859665000000000E-01      1.785469000000000E+02      2.760315000000000E-01      4.063672000000000E+01
3540000000.000000      2.646790000000000E-01      1.623359000000000E+02      1.464386000000000E-01      5.937304000000000E+01
3560000000.000000      3.238068000000000E-01      1.454531000000000E+02      1.693039000000000E-01      1.081094000000000E+02
3580000000.000000      3.606873000000000E-01      1.295469000000000E+02      2.967529000000000E-01      1.173984000000000E+02
3600000000.000000      3.760529000000000E-01      1.150195000000000E+02      4.213257000000000E-01      1.104375000000000E+02
3620000000.000000      3.780518000000000E-01      1.024180000000000E+02      5.238037000000000E-01      1.009570000000000E+02
3640000000.000000      3.681183000000000E-01      9.125000000000000E+01      6.227722000000000E-01      8.975780000000000E+01
3660000000.000000      3.519592000000000E-01      8.092968000000000E+01      6.934509000000000E-01      7.569921000000000E+01
3680000000.000000      3.287201000000000E-01      7.175390000000000E+01      7.103271000000000E-01      6.231445000000000E+01
3700000000.000000      2.987823000000000E-01      6.356250000000000E+01      7.208557000000000E-01      5.078515000000000E+01
3720000000.000000      2.543030000000000E-01      5.759960000000000E+01      7.225952000000000E-01      3.640039000000000E+01
3740000000.000000      2.038651000000000E-01      5.877539000000000E+01      6.625977000000000E-01      2.124804000000000E+01
3760000000.000000      1.782303000000000E-01      7.300781000000000E+01      5.631714000000000E-01      6.852539000000000E+00
3780000000.000000      2.136536000000000E-01      8.782030000000000E+01      4.316254000000000E-01     -6.076904000000000E+00
3800000000.000000      2.837982000000000E-01      8.908983000000000E+01      2.785492000000000E-01     -1.324268000000000E+01
3820000000.000000      3.512268000000000E-01      8.255077000000000E+01      1.518936000000000E-01      6.330872000000000E-01
3840000000.000000      4.015045000000000E-01      7.381640000000000E+01      1.453705000000000E-01      4.857031000000000E+01
3860000000.000000      4.365234000000000E-01      6.522655000000000E+01      2.490997000000000E-01      6.537890000000000E+01
3880000000.000000      4.613647000000000E-01      5.772070000000000E+01      3.780518000000000E-01      6.088476000000000E+01
3900000000.000000      4.905853000000000E-01      5.068359000000000E+01      4.792786000000000E-01      4.737305000000000E+01
3920000000.000000      5.220032000000000E-01      4.299414000000000E+01      5.097046000000000E-01      3.574804000000000E+01
3940000000.000000      5.494690000000000E-01      3.401562000000000E+01      5.395203000000000E-01      2.925781000000000E+01
3960000000.000000      5.598755000000000E-01      2.401464000000000E+01      5.964966000000000E-01      2.007519000000000E+01
3980000000.000000      5.528564000000000E-01      1.334277000000000E+01      5.969543000000000E-01      8.173828000000000E+00
4000000000.000000      5.257568000000000E-01      2.989624000000000E+00      5.793152000000000E-01      1.053284000000000E+00
4020000000.000000      4.825287000000000E-01     -6.964111000000000E+00      5.968018000000000E-01     -6.644043000000000E+00
4040000000.000000      4.233093000000000E-01     -1.577637000000000E+01      5.850220000000000E-01     -1.896875000000000E+01
4060000000.000000      3.479004000000000E-01     -2.170410000000000E+01      5.260925000000000E-01     -2.910742000000000E+01
4080000000.000000      2.731934000000000E-01     -2.144043000000000E+01      4.662628000000000E-01     -3.837500000000000E+01
4100000000.000000      2.285767000000000E-01     -1.056201000000000E+01      3.650970000000000E-01     -4.739648000000000E+01
4120000000.000000      2.432938000000000E-01      2.202759000000000E+00      2.478943000000000E-01     -4.364062000000000E+01
4140000000.000000      2.909393000000000E-01      5.340576000000000E+00      2.038574000000000E-01     -1.923242000000000E+01
4160000000.000000      3.347931000000000E-01      9.613037000000000E-01      2.664642000000000E-01      5.630493000000000E-02
4180000000.000000      3.618622000000000E-01     -5.924561000000000E+00      3.602448000000000E-01      3.809448000000000E+00
4200000000.000000      3.714447000000000E-01     -1.370020000000000E+01      4.906921000000000E-01      1.143921000000000E+00
4220000000.000000      3.674011000000000E-01     -2.080859000000000E+01      6.452942000000000E-01     -1.141211000000000E+01
4240000000.000000      3.482056000000000E-01     -2.826269000000000E+01      7.236328000000000E-01     -2.805273000000000E+01
4260000000.000000      3.092804000000000E-01     -3.402734000000000E+01      7.434692000000000E-01     -4.218554000000000E+01
4280000000.000000      2.584229000000000E-01     -3.503711000000000E+01      7.514648000000000E-01     -5.605663000000000E+01
4300000000.000000      2.223282000000000E-01     -2.682226000000000E+01      7.125549000000000E-01     -7.099218000000000E+01
4320000000.000000      2.368546000000000E-01     -1.409424000000000E+01      6.294556000000000E-01     -8.536718000000000E+01
4340000000.000000      2.957458000000000E-01     -1.046045000000000E+01      5.118408000000000E-01     -9.814842000000000E+01
4360000000.000000      3.602448000000000E-01     -1.570117000000000E+01      3.787689000000000E-01     -1.069648000000000E+02
4380000000.000000      4.060364000000000E-01     -2.474316000000000E+01      2.469864000000000E-01     -1.077539000000000E+02
4400000000.000000      4.271545000000000E-01     -3.463476000000000E+01      1.529999000000000E-01     -8.388281000000000E+01
4420000000.000000      4.240112000000000E-01     -4.401757000000000E+01      1.904297000000000E-01     -4.516406000000000E+01
4440000000.000000      4.080048000000000E-01     -5.198632000000000E+01      3.138123000000000E-01     -3.623047000000000E+01
4460000000.000000      3.876801000000000E-01     -5.881836000000000E+01      4.558716000000000E-01     -4.360547000000000E+01
4480000000.000000      3.675690000000000E-01     -6.490234000000000E+01      5.643921000000000E-01     -5.571094000000000E+01
4500000000.000000      3.457336000000000E-01     -7.180859000000000E+01      6.444092000000000E-01     -6.711328000000000E+01
4520000000.000000      3.119202000000000E-01     -7.945313000000000E+01      7.173767000000000E-01     -8.018749000000000E+01
4540000000.000000      2.601013000000000E-01     -8.568750000000000E+01      7.416687000000000E-01     -9.486328000000000E+01
4560000000.000000      1.990967000000000E-01     -8.355469000000000E+01      7.290955000000000E-01     -1.078789000000000E+02
4580000000.000000      1.739273000000000E-01     -6.716797000000000E+01      6.885376000000000E-01     -1.216680000000000E+02
4600000000.000000      2.128601000000000E-01     -5.337695000000000E+01      6.038818000000000E-01     -1.348047000000000E+02
4620000000.000000      2.778473000000000E-01     -5.514453000000000E+01      4.955597000000000E-01     -1.452578000000000E+02
4640000000.000000      3.303833000000000E-01     -6.515234000000000E+01      3.770447000000000E-01     -1.532656000000000E+02
4660000000.000000      3.529358000000000E-01     -7.841797000000000E+01      2.437820000000000E-01     -1.510547000000000E+02
4680000000.000000      3.439636000000000E-01     -9.240234000000000E+01      1.804199000000000E-01     -1.225508000000000E+02
4700000000.000000      3.062897000000000E-01     -1.055391000000000E+02      2.519684000000000E-01     -9.646093000000000E+01
4720000000.000000      2.501831000000000E-01     -1.158594000000000E+02      3.698883000000000E-01     -9.574610000000000E+01
4740000000.000000      1.888580000000000E-01     -1.208789000000000E+02      4.772034000000000E-01     -1.021601000000000E+02
4760000000.000000      1.372299000000000E-01     -1.162305000000000E+02      5.827942000000000E-01     -1.108633000000000E+02
4780000000.000000      1.130180000000000E-01     -1.000664000000000E+02      6.694641000000000E-01     -1.232070000000000E+02
4800000000.000000      1.199760000000000E-01     -8.252344000000000E+01      7.193298000000000E-01     -1.360469000000000E+02
4820000000.000000      1.490631000000000E-01     -7.342578000000000E+01      7.348022000000000E-01     -1.493125000000000E+02
4840000000.000000      1.898956000000000E-01     -7.349609000000000E+01      7.179871000000000E-01     -1.621797000000000E+02
4860000000.000000      2.331696000000000E-01     -8.039454000000000E+01      6.803284000000000E-01     -1.744844000000000E+02
4880000000.000000      2.703857000000000E-01     -9.094530000000000E+01      6.126404000000000E-01      1.715312000000000E+02
4900000000.000000      2.952118000000000E-01     -1.045000000000000E+02      4.927826000000000E-01      1.595391000000000E+02
4920000000.000000      3.007660000000000E-01     -1.196172000000000E+02      3.620148000000000E-01      1.534062000000000E+02
4940000000.000000      2.852173000000000E-01     -1.352422000000000E+02      2.491837000000000E-01      1.561484000000000E+02
4960000000.000000      2.541809000000000E-01     -1.504297000000000E+02      1.768188000000000E-01      1.782187000000000E+02
4980000000.000000      2.119293000000000E-01     -1.644063000000000E+02      2.171249000000000E-01     -1.509375000000000E+02
5000000000.000000      1.676254000000000E-01     -1.760469000000000E+02      3.333893000000000E-01     -1.437656000000000E+02
5020000000.000000      1.301880000000000E-01      1.740313000000000E+02      4.633026000000000E-01     -1.499922000000000E+02
5040000000.000000      9.972382000000000E-02      1.637891000000000E+02      5.726929000000000E-01     -1.605937000000000E+02
5060000000.000000      7.111359000000000E-02      1.484609000000000E+02      6.521912000000000E-01     -1.721875000000000E+02
5080000000.000000      4.072380000000000E-02      1.226523000000000E+02      7.171326000000000E-01      1.755625000000000E+02
5100000000.000000      1.584148000000000E-02      3.794140000000000E+01      7.571716000000000E-01      1.618203000000000E+02
5120000000.000000      4.183197000000000E-02     -5.280859000000000E+01      7.519836000000000E-01      1.475937000000000E+02
5140000000.000000      7.332230000000000E-02     -8.894140000000000E+01      7.016907000000000E-01      1.341406000000000E+02
5160000000.000000      9.716797000000000E-02     -1.199805000000000E+02      6.249084000000000E-01      1.216719000000000E+02
5180000000.000000      1.103630000000000E-01     -1.504688000000000E+02      5.287476000000000E-01      1.105508000000000E+02
5200000000.000000      1.128998000000000E-01      1.770859000000000E+02      4.114075000000000E-01      1.009023000000000E+02
5220000000.000000      1.102180000000000E-01      1.410859000000000E+02      2.797241000000000E-01      9.845703000000000E+01
5240000000.000000      1.089859000000000E-01      1.049687000000000E+02      1.823120000000000E-01      1.163945000000000E+02
5260000000.000000      1.133041000000000E-01      7.174609000000000E+01      1.986771000000000E-01      1.500703000000000E+02
5280000000.000000      1.206474000000000E-01      4.517968000000000E+01      3.000488000000000E-01      1.606797000000000E+02
5300000000.000000      1.276245000000000E-01      2.474609000000000E+01      4.135742000000000E-01      1.577578000000000E+02
5320000000.000000      1.336594000000000E-01      8.239746000000000E+00      5.309143000000000E-01      1.502031000000000E+02
5340000000.000000      1.389618000000000E-01     -6.116699000000000E+00      6.415405000000000E-01      1.380859000000000E+02
5360000000.000000      1.436310000000000E-01     -2.180176000000000E+01      7.062073000000000E-01      1.236641000000000E+02
5380000000.000000      1.380081000000000E-01     -3.941015000000000E+01      7.168579000000000E-01      1.104336000000000E+02
5400000000.000000      1.194077000000000E-01     -5.766211000000000E+01      7.170715000000000E-01      9.875000000000000E+01
5420000000.000000      8.327866000000000E-02     -7.449219000000000E+01      7.019958000000000E-01      8.574219000000000E+01
5440000000.000000      2.898979000000000E-02     -7.825781000000000E+01      6.444397000000000E-01      7.130468000000000E+01
5460000000.000000      4.459190000000000E-02      3.901953000000000E+01      5.361023000000000E-01      5.824219000000000E+01
5480000000.000000      1.143646000000000E-01      3.067187000000000E+01      4.076691000000000E-01      4.923633000000000E+01
5500000000.000000      1.769028000000000E-01      1.537939000000000E+01      2.892914000000000E-01      4.756055000000000E+01
5520000000.000000      2.215881000000000E-01      1.812744000000000E-01      1.937943000000000E-01      6.002343000000000E+01
5540000000.000000      2.518311000000000E-01     -1.349707000000000E+01      1.833954000000000E-01      9.180859000000000E+01
5560000000.000000      2.701721000000000E-01     -2.532910000000000E+01      2.667084000000000E-01      1.087891000000000E+02
5580000000.000000      2.823181000000000E-01     -3.524219000000000E+01      3.880920000000000E-01      1.084141000000000E+02
5600000000.000000      2.935028000000000E-01     -4.406250000000000E+01      5.098267000000000E-01      9.932030000000000E+01
5620000000.000000      3.042755000000000E-01     -5.330859000000000E+01      5.978088000000000E-01      8.667969000000000E+01
5640000000.000000      3.075104000000000E-01     -6.299609000000000E+01      6.485901000000000E-01      7.496094000000000E+01
5660000000.000000      2.964172000000000E-01     -7.368359000000000E+01      6.857605000000000E-01      6.354492000000000E+01
5680000000.000000      2.673340000000000E-01     -8.401562000000000E+01      6.979370000000000E-01      5.070703000000000E+01
5700000000.000000      2.188568000000000E-01     -9.120703000000000E+01      6.814880000000000E-01      3.837305000000000E+01
5720000000.000000      1.687164000000000E-01     -8.938671000000000E+01      6.403198000000000E-01      2.568554000000000E+01
5740000000.000000      1.502075000000000E-01     -7.469140000000000E+01      5.607605000000000E-01      1.262012000000000E+01
5760000000.000000      1.796341000000000E-01     -6.349609000000000E+01      4.476624000000000E-01      1.021729000000000E+00
5780000000.000000      2.261658000000000E-01     -6.545703000000000E+01      3.117065000000000E-01     -3.772461000000000E+00
5800000000.000000      2.573853000000000E-01     -7.325390000000000E+01      2.062302000000000E-01      7.921143000000000E+00
5820000000.000000      2.662506000000000E-01     -8.265234000000000E+01      1.910858000000000E-01      3.861523000000000E+01
5840000000.000000      2.566223000000000E-01     -9.115234000000000E+01      2.748108000000000E-01      5.414063000000000E+01
5860000000.000000      2.386017000000000E-01     -9.659765000000000E+01      3.758240000000000E-01      5.373828000000000E+01
5880000000.000000      2.234421000000000E-01     -9.980078000000000E+01      4.826508000000000E-01      4.827929000000000E+01
5900000000.000000      2.153397000000000E-01     -1.024141000000000E+02      5.972290000000000E-01      3.818554000000000E+01
5920000000.000000      2.076416000000000E-01     -1.051836000000000E+02      6.733398000000000E-01      2.408300000000000E+01
5940000000.000000      1.935425000000000E-01     -1.069922000000000E+02      7.026978000000000E-01      1.082275000000000E+01
5960000000.000000      1.763763000000000E-01     -1.050508000000000E+02      7.126465000000000E-01     -1.785278000000000E+00
5980000000.000000      1.659164000000000E-01     -9.697655000000000E+01      6.897583000000000E-01     -1.574902000000000E+01
6000000000.000000      1.821518000000000E-01     -8.804688000000000E+01      6.239624000000000E-01     -2.946582000000000E+01
6020000000.000000      2.170944000000000E-01     -8.637110000000000E+01      5.254822000000000E-01     -4.187890000000000E+01
6040000000.000000      2.523804000000000E-01     -9.183203000000000E+01      3.967743000000000E-01     -4.981250000000000E+01
6060000000.000000      2.750854000000000E-01     -1.009492000000000E+02      2.819672000000000E-01     -4.935351000000000E+01
6080000000.000000      2.851410000000000E-01     -1.112070000000000E+02      2.042389000000000E-01     -3.497265000000000E+01
