! Network Analyzer HP8722D
! Hewlett-Packard
! Data name: Linha & Wilkinson+CNT
! Saver's name: Rodrigo Anjos
! Comments: Teste da utilização de aquisição
continua pelo VNA HP8722D
! Time and date: 29/9/2025 13:04
!              Frequency                     S11                                                   S21                                                   S12                                                   S22
# HZ  S  MA R 50
3000000000.000000      4.234467000000000E-01     -5.601953000000000E+01      2.066803000000000E-01     -1.314062000000000E+02
3020000000.000000      4.473267000000000E-01     -7.026953000000000E+01      3.500977000000000E-01     -1.349766000000000E+02
3040000000.000000      4.521790000000000E-01     -8.315233000000000E+01      4.663086000000000E-01     -1.446640000000000E+02
3060000000.000000      4.467163000000000E-01     -9.516796000000000E+01      5.711670000000000E-01     -1.551641000000000E+02
3080000000.000000      4.323120000000000E-01     -1.064414000000000E+02      6.727905000000000E-01     -1.681875000000000E+02
3100000000.000000      4.123688000000000E-01     -1.176289000000000E+02      7.244873000000000E-01      1.769609000000000E+02
3120000000.000000      3.837891000000000E-01     -1.294531000000000E+02      7.316284000000000E-01      1.635937000000000E+02
3140000000.000000      3.435822000000000E-01     -1.423203000000000E+02      7.242432000000000E-01      1.507422000000000E+02
3160000000.000000      2.835693000000000E-01     -1.564453000000000E+02      6.845398000000000E-01      1.370859000000000E+02
3180000000.000000      2.040710000000000E-01     -1.688672000000000E+02      6.152039000000000E-01      1.246680000000000E+02
3200000000.000000      1.158447000000000E-01     -1.694844000000000E+02      5.198669000000000E-01      1.118086000000000E+02
3220000000.000000      8.194351000000000E-02     -1.259258000000000E+02      3.869781000000000E-01      1.009609000000000E+02
3240000000.000000      1.522980000000000E-01     -1.056914000000000E+02      2.477493000000000E-01      9.962500000000000E+01
3260000000.000000      2.322617000000000E-01     -1.155156000000000E+02      1.476135000000000E-01      1.252422000000000E+02
3280000000.000000      2.908020000000000E-01     -1.309766000000000E+02      2.026672000000000E-01      1.654297000000000E+02
3300000000.000000      3.248138000000000E-01     -1.471172000000000E+02      3.296204000000000E-01      1.698672000000000E+02
3320000000.000000      3.366241000000000E-01     -1.628672000000000E+02      4.628448000000000E-01      1.627266000000000E+02
3340000000.000000      3.329315000000000E-01     -1.780547000000000E+02      5.747375000000000E-01      1.505938000000000E+02
3360000000.000000      3.213196000000000E-01      1.672969000000000E+02      6.473389000000000E-01      1.386250000000000E+02
3380000000.000000      3.039093000000000E-01      1.531016000000000E+02      7.102051000000000E-01      1.272031000000000E+02
3400000000.000000      2.805634000000000E-01      1.385391000000000E+02      7.589417000000000E-01      1.133672000000000E+02
3420000000.000000      2.444305000000000E-01      1.235586000000000E+02      7.514648000000000E-01      9.860546000000000E+01
3440000000.000000      1.911774000000000E-01      1.090547000000000E+02      7.060547000000000E-01      8.565233000000000E+01
3460000000.000000      1.198006000000000E-01      9.873047000000000E+01      6.484680000000000E-01      7.259375000000000E+01
3480000000.000000      4.824448000000000E-02      1.240351000000000E+02      5.508728000000000E-01      5.912695000000000E+01
3500000000.000000      9.456253000000000E-02     -1.736641000000000E+02      4.255676000000000E-01      4.774023000000000E+01
3520000000.000000      1.863098000000000E-01      1.796797000000000E+02      2.798004000000000E-01      4.045117000000000E+01
3540000000.000000      2.653503000000000E-01      1.635469000000000E+02      1.478195000000000E-01      5.813867000000000E+01
3560000000.000000      3.247986000000000E-01      1.465000000000000E+02      1.666718000000000E-01      1.076367000000000E+02
3580000000.000000      3.614349000000000E-01      1.304375000000000E+02      2.938385000000000E-01      1.176406000000000E+02
3600000000.000000      3.778076000000000E-01      1.157148000000000E+02      4.197235000000000E-01      1.106328000000000E+02
3620000000.000000      3.784027000000000E-01      1.030469000000000E+02      5.228577000000000E-01      1.011250000000000E+02
3640000000.000000      3.689270000000000E-01      9.182032000000000E+01      6.214905000000000E-01      9.011719000000000E+01
3660000000.000000      3.520660000000000E-01      8.156641000000000E+01      6.943054000000000E-01      7.596093000000000E+01
3680000000.000000      3.287811000000000E-01      7.219140000000000E+01      7.128601000000000E-01      6.272070000000000E+01
3700000000.000000      2.978821000000000E-01      6.397655000000000E+01      7.205811000000000E-01      5.098046000000000E+01
3720000000.000000      2.533112000000000E-01      5.789844000000000E+01      7.254944000000000E-01      3.683984000000000E+01
3740000000.000000      2.028580000000000E-01      5.872460000000000E+01      6.639404000000000E-01      2.147949000000000E+01
3760000000.000000      1.766052000000000E-01      7.274219000000000E+01      5.672913000000000E-01      7.116211000000000E+00
3780000000.000000      2.107162000000000E-01      8.786718000000000E+01      4.365387000000000E-01     -6.093506000000000E+00
3800000000.000000      2.810669000000000E-01      8.942577000000000E+01      2.835083000000000E-01     -1.341162000000000E+01
3820000000.000000      3.490906000000000E-01      8.287109000000000E+01      1.546326000000000E-01     -4.463196000000000E-01
3840000000.000000      3.993378000000000E-01      7.414453000000000E+01      1.426010000000000E-01      4.754883000000000E+01
3860000000.000000      4.347534000000000E-01      6.555859000000000E+01      2.457199000000000E-01      6.537499000000000E+01
3880000000.000000      4.591522000000000E-01      5.787304000000000E+01      3.762054000000000E-01      6.117188000000000E+01
3900000000.000000      4.884796000000000E-01      5.084374000000000E+01      4.767456000000000E-01      4.784180000000000E+01
3920000000.000000      5.184326000000000E-01      4.312109000000000E+01      5.094604000000000E-01      3.592773000000000E+01
3940000000.000000      5.472107000000000E-01      3.402148000000000E+01      5.399780000000000E-01      2.941992000000000E+01
3960000000.000000      5.595398000000000E-01      2.391699000000000E+01      5.957642000000000E-01      2.004785000000000E+01
3980000000.000000      5.521240000000000E-01      1.342529000000000E+01      5.979614000000000E-01      8.150391000000000E+00
4000000000.000000      5.274658000000000E-01      3.014282000000000E+00      5.805359000000000E-01      1.050537000000000E+00
4020000000.000000      4.834290000000000E-01     -6.928467000000000E+00      5.974426000000000E-01     -6.678467000000000E+00
4040000000.000000      4.256287000000000E-01     -1.583545000000000E+01      5.859985000000000E-01     -1.874707000000000E+01
4060000000.000000      3.494415000000000E-01     -2.206836000000000E+01      5.289307000000000E-01     -2.885839000000000E+01
4080000000.000000      2.753906000000000E-01     -2.212012000000000E+01      4.688721000000000E-01     -3.813867000000000E+01
4100000000.000000      2.278290000000000E-01     -1.167871000000000E+01      3.666534000000000E-01     -4.734179000000000E+01
4120000000.000000      2.412872000000000E-01      1.477661000000000E+00      2.501526000000000E-01     -4.429296000000000E+01
4140000000.000000      2.889252000000000E-01      4.801025000000000E+00      2.030106000000000E-01     -2.017969000000000E+01
4160000000.000000      3.334503000000000E-01      7.731628000000000E-01      2.625427000000000E-01     -2.334595000000000E-01
4180000000.000000      3.611450000000000E-01     -5.997314000000000E+00      3.565979000000000E-01      3.841064000000000E+00
4200000000.000000      3.713531000000000E-01     -1.385010000000000E+01      4.881134000000000E-01      1.389771000000000E+00
4220000000.000000      3.668365000000000E-01     -2.101074000000000E+01      6.410522000000000E-01     -1.101807000000000E+01
4240000000.000000      3.481445000000000E-01     -2.853027000000000E+01      7.214661000000000E-01     -2.765722000000000E+01
4260000000.000000      3.104858000000000E-01     -3.422852000000000E+01      7.424622000000000E-01     -4.178124000000000E+01
4280000000.000000      2.605896000000000E-01     -3.579687000000000E+01      7.517090000000000E-01     -5.561328000000000E+01
4300000000.000000      2.231522000000000E-01     -2.785742000000000E+01      7.146912000000000E-01     -7.065234000000000E+01
4320000000.000000      2.353363000000000E-01     -1.510645000000000E+01      6.324463000000000E-01     -8.512110000000000E+01
4340000000.000000      2.928619000000000E-01     -1.084912000000000E+01      5.173340000000000E-01     -9.815624000000000E+01
4360000000.000000      3.583832000000000E-01     -1.585059000000000E+01      3.824921000000000E-01     -1.070430000000000E+02
4380000000.000000      4.045868000000000E-01     -2.478418000000000E+01      2.505646000000000E-01     -1.081445000000000E+02
4400000000.000000      4.259338000000000E-01     -3.474218000000000E+01      1.535568000000000E-01     -8.552343000000000E+01
4420000000.000000      4.250183000000000E-01     -4.408203000000000E+01      1.870575000000000E-01     -4.587695000000000E+01
4440000000.000000      4.088745000000000E-01     -5.223046000000000E+01      3.094025000000000E-01     -3.612305000000000E+01
4460000000.000000      3.891296000000000E-01     -5.876367000000000E+01      4.515533000000000E-01     -4.330468000000000E+01
4480000000.000000      3.701477000000000E-01     -6.474218000000000E+01      5.597534000000000E-01     -5.535351000000000E+01
4500000000.000000      3.483429000000000E-01     -7.160937000000000E+01      6.408997000000000E-01     -6.680078000000000E+01
4520000000.000000      3.151855000000000E-01     -7.929296000000000E+01      7.150879000000000E-01     -7.972265000000000E+01
4540000000.000000      2.641754000000000E-01     -8.551172000000000E+01      7.415771000000000E-01     -9.429688000000000E+01
4560000000.000000      2.035980000000000E-01     -8.410156000000000E+01      7.279358000000000E-01     -1.074609000000000E+02
4580000000.000000      1.755753000000000E-01     -6.842968000000000E+01      6.893921000000000E-01     -1.213203000000000E+02
4600000000.000000      2.122345000000000E-01     -5.434375000000000E+01      6.067200000000000E-01     -1.346562000000000E+02
4620000000.000000      2.777100000000000E-01     -5.548242000000000E+01      4.986420000000000E-01     -1.451875000000000E+02
4640000000.000000      3.318176000000000E-01     -6.521093000000000E+01      3.791962000000000E-01     -1.535703000000000E+02
4660000000.000000      3.560638000000000E-01     -7.835155000000000E+01      2.468338000000000E-01     -1.519063000000000E+02
4680000000.000000      3.482971000000000E-01     -9.219921000000000E+01      1.787415000000000E-01     -1.238203000000000E+02
4700000000.000000      3.115997000000000E-01     -1.053906000000000E+02      2.463760000000000E-01     -9.667969000000000E+01
4720000000.000000      2.556763000000000E-01     -1.158867000000000E+02      3.654938000000000E-01     -9.533983000000000E+01
4740000000.000000      1.934052000000000E-01     -1.211406000000000E+02      4.722137000000000E-01     -1.016562000000000E+02
4760000000.000000      1.410751000000000E-01     -1.174375000000000E+02      5.780945000000000E-01     -1.102344000000000E+02
4780000000.000000      1.143150000000000E-01     -1.018711000000000E+02      6.653137000000000E-01     -1.228203000000000E+02
4800000000.000000      1.197548000000000E-01     -8.431641000000000E+01      7.158508000000000E-01     -1.354922000000000E+02
4820000000.000000      1.476898000000000E-01     -7.455078000000000E+01      7.358093000000000E-01     -1.488125000000000E+02
4840000000.000000      1.889648000000000E-01     -7.405468000000000E+01      7.183533000000000E-01     -1.617188000000000E+02
4860000000.000000      2.318802000000000E-01     -8.041796000000000E+01      6.842041000000000E-01     -1.741172000000000E+02
4880000000.000000      2.697449000000000E-01     -9.071484000000000E+01      6.166992000000000E-01      1.721094000000000E+02
4900000000.000000      2.954559000000000E-01     -1.040625000000000E+02      4.974060000000000E-01      1.599219000000000E+02
4920000000.000000      3.016205000000000E-01     -1.190039000000000E+02      3.674011000000000E-01      1.537656000000000E+02
4940000000.000000      2.870026000000000E-01     -1.346016000000000E+02      2.528839000000000E-01      1.558828000000000E+02
4960000000.000000      2.565308000000000E-01     -1.496875000000000E+02      1.770554000000000E-01      1.769766000000000E+02
4980000000.000000      2.140503000000000E-01     -1.636562000000000E+02      2.136917000000000E-01     -1.512656000000000E+02
5000000000.000000      1.696472000000000E-01     -1.751719000000000E+02      3.290405000000000E-01     -1.436484000000000E+02
5020000000.000000      1.313400000000000E-01      1.747656000000000E+02      4.600372000000000E-01     -1.494219000000000E+02
5040000000.000000      1.005440000000000E-01      1.649219000000000E+02      5.686951000000000E-01     -1.601484000000000E+02
5060000000.000000      7.189560000000000E-02      1.506016000000000E+02      6.500244000000000E-01     -1.716797000000000E+02
5080000000.000000      4.092216000000000E-02      1.251523000000000E+02      7.170105000000000E-01      1.759922000000000E+02
5100000000.000000      1.534653000000000E-02      4.127539000000000E+01      7.556152000000000E-01      1.623203000000000E+02
5120000000.000000      4.145622000000000E-02     -5.306250000000000E+01      7.525635000000000E-01      1.479922000000000E+02
5140000000.000000      7.366562000000000E-02     -8.823437000000000E+01      7.039795000000000E-01      1.343594000000000E+02
5160000000.000000      9.805298000000000E-02     -1.186094000000000E+02      6.290894000000000E-01      1.221484000000000E+02
5180000000.000000      1.109886000000000E-01     -1.487734000000000E+02      5.338135000000000E-01      1.108828000000000E+02
5200000000.000000      1.134262000000000E-01      1.789766000000000E+02      4.172363000000000E-01      1.011094000000000E+02
5220000000.000000      1.094704000000000E-01      1.432969000000000E+02      2.840271000000000E-01      9.831249000000000E+01
5240000000.000000      1.078491000000000E-01      1.068242000000000E+02      1.843719000000000E-01      1.150273000000000E+02
5260000000.000000      1.117668000000000E-01      7.321484000000000E+01      1.956406000000000E-01      1.492969000000000E+02
5280000000.000000      1.185684000000000E-01      4.607617000000000E+01      2.956543000000000E-01      1.607031000000000E+02
5300000000.000000      1.257858000000000E-01      2.507421000000000E+01      4.092712000000000E-01      1.582266000000000E+02
5320000000.000000      1.312485000000000E-01      8.287598000000000E+00      5.269165000000000E-01      1.506094000000000E+02
5340000000.000000      1.375809000000000E-01     -6.214355000000000E+00      6.378479000000000E-01      1.386328000000000E+02
5360000000.000000      1.424942000000000E-01     -2.186426000000000E+01      7.055359000000000E-01      1.243711000000000E+02
5380000000.000000      1.385269000000000E-01     -3.935351000000000E+01      7.169189000000000E-01      1.108320000000000E+02
5400000000.000000      1.207008000000000E-01     -5.750390000000000E+01      7.166138000000000E-01      9.919140000000000E+01
5420000000.000000      8.578110000000000E-02     -7.458202000000000E+01      7.050781000000000E-01      8.622656000000000E+01
5440000000.000000      3.174782000000000E-02     -8.080858000000000E+01      6.485901000000000E-01      7.186718000000000E+01
5460000000.000000      4.104233000000000E-02      3.819140000000000E+01      5.408020000000000E-01      5.862305000000000E+01
5480000000.000000      1.101112000000000E-01      3.098828000000000E+01      4.131622000000000E-01      4.948047000000000E+01
5500000000.000000      1.731110000000000E-01      1.560986000000000E+01      2.942963000000000E-01      4.720117000000000E+01
5520000000.000000      2.196198000000000E-01      4.586792000000000E-01      1.953354000000000E-01      5.892187000000000E+01
5540000000.000000      2.507172000000000E-01     -1.330615000000000E+01      1.802216000000000E-01      9.067186000000000E+01
5560000000.000000      2.695465000000000E-01     -2.524316000000000E+01      2.615967000000000E-01      1.086523000000000E+02
5580000000.000000      2.819366000000000E-01     -3.516602000000000E+01      3.832245000000000E-01      1.087266000000000E+02
5600000000.000000      2.936401000000000E-01     -4.395508000000000E+01      5.057373000000000E-01      9.987108000000000E+01
5620000000.000000      3.041382000000000E-01     -5.310937000000000E+01      5.942383000000000E-01      8.710938000000000E+01
5640000000.000000      3.078918000000000E-01     -6.278125000000000E+01      6.458435000000000E-01      7.523438000000000E+01
5660000000.000000      2.987823000000000E-01     -7.336719000000000E+01      6.840210000000000E-01      6.397461000000000E+01
5680000000.000000      2.704315000000000E-01     -8.382813000000000E+01      6.976318000000000E-01      5.124609000000000E+01
5700000000.000000      2.235107000000000E-01     -9.111719000000000E+01      6.831360000000000E-01      3.887890000000000E+01
5720000000.000000      1.731567000000000E-01     -9.009375000000000E+01      6.430359000000000E-01      2.609082000000000E+01
5740000000.000000      1.518555000000000E-01     -7.594531000000000E+01      5.656128000000000E-01      1.279492000000000E+01
5760000000.000000      1.792450000000000E-01     -6.413280000000000E+01      4.520111000000000E-01      1.388367000000000E+00
5780000000.000000      2.252121000000000E-01     -6.544531000000000E+01      3.170013000000000E-01     -3.957886000000000E+00
5800000000.000000      2.578735000000000E-01     -7.332031000000000E+01      2.086563000000000E-01      6.941895000000000E+00
5820000000.000000      2.678986000000000E-01     -8.257813000000000E+01      1.886902000000000E-01      3.732226000000000E+01
5840000000.000000      2.584686000000000E-01     -9.110937000000000E+01      2.700195000000000E-01      5.401953000000000E+01
5860000000.000000      2.409515000000000E-01     -9.671875000000000E+01      3.701630000000000E-01      5.421875000000000E+01
5880000000.000000      2.269897000000000E-01     -9.981249000000000E+01      4.776154000000000E-01      4.880859000000000E+01
5900000000.000000      2.192612000000000E-01     -1.020351000000000E+02      5.947571000000000E-01      3.869531000000000E+01
5920000000.000000      2.111359000000000E-01     -1.048359000000000E+02      6.717834000000000E-01      2.478222000000000E+01
5940000000.000000      1.978836000000000E-01     -1.070156000000000E+02      7.014465000000000E-01      1.139404000000000E+01
5960000000.000000      1.800461000000000E-01     -1.054140000000000E+02      7.127380000000000E-01     -1.246948000000000E+00
5980000000.000000      1.677704000000000E-01     -9.796484000000000E+01      6.901550000000000E-01     -1.524805000000000E+01
6000000000.000000      1.826324000000000E-01     -8.873438000000000E+01      6.281433000000000E-01     -2.883105000000000E+01
6020000000.000000      2.171936000000000E-01     -8.691015000000000E+01      5.307312000000000E-01     -4.149610000000000E+01
6040000000.000000      2.527771000000000E-01     -9.201172000000000E+01      4.017181000000000E-01     -4.956055000000000E+01
6060000000.000000      2.776642000000000E-01     -1.007305000000000E+02      2.861786000000000E-01     -4.959961000000000E+01
6080000000.000000      2.880402000000000E-01     -1.108164000000000E+02      2.059250000000000E-01     -3.600390000000000E+01
