! Network Analyzer HP8722D
! Hewlett-Packard
! Data name: Linha & Wilkinson+CNT
! Saver's name: Rodrigo Anjos
! Comments: Teste da utilização de aquisição
continua pelo VNA HP8722D
! Time and date: 29/9/2025 13:52
!              Frequency                     S11                                                   S21                                                   S12                                                   S22
# HZ  S  MA R 50
3000000000.000000      4.240417000000000E-01     -5.565820000000000E+01      2.059021000000000E-01     -1.316094000000000E+02
3020000000.000000      4.480896000000000E-01     -6.983203000000000E+01      3.491821000000000E-01     -1.349062000000000E+02
3040000000.000000      4.531860000000000E-01     -8.283594000000000E+01      4.660950000000000E-01     -1.448437000000000E+02
3060000000.000000      4.448242000000000E-01     -9.495312000000000E+01      5.705566000000000E-01     -1.551250000000000E+02
3080000000.000000      4.298248000000000E-01     -1.062344000000000E+02      6.725159000000000E-01     -1.682578000000000E+02
3100000000.000000      4.091492000000000E-01     -1.174219000000000E+02      7.233276000000000E-01      1.769219000000000E+02
3120000000.000000      3.795319000000000E-01     -1.293203000000000E+02      7.315063000000000E-01      1.633047000000000E+02
3140000000.000000      3.389435000000000E-01     -1.424141000000000E+02      7.242737000000000E-01      1.506094000000000E+02
3160000000.000000      2.794189000000000E-01     -1.564531000000000E+02      6.838074000000000E-01      1.370469000000000E+02
3180000000.000000      2.002106000000000E-01     -1.691094000000000E+02      6.135864000000000E-01      1.245937000000000E+02
3200000000.000000      1.123810000000000E-01     -1.698828000000000E+02      5.216064000000000E-01      1.117812000000000E+02
3220000000.000000      7.908249000000000E-02     -1.247969000000000E+02      3.877716000000000E-01      1.006914000000000E+02
3240000000.000000      1.501846000000000E-01     -1.049101000000000E+02      2.474747000000000E-01      9.948046000000000E+01
3260000000.000000      2.294312000000000E-01     -1.150703000000000E+02      1.471634000000000E-01      1.248438000000000E+02
3280000000.000000      2.869415000000000E-01     -1.308047000000000E+02      2.018127000000000E-01      1.651641000000000E+02
3300000000.000000      3.204498000000000E-01     -1.471484000000000E+02      3.288269000000000E-01      1.696563000000000E+02
3320000000.000000      3.326263000000000E-01     -1.630391000000000E+02      4.616547000000000E-01      1.626797000000000E+02
3340000000.000000      3.291016000000000E-01     -1.784141000000000E+02      5.743408000000000E-01      1.506406000000000E+02
3360000000.000000      3.171692000000000E-01      1.668516000000000E+02      6.451416000000000E-01      1.384375000000000E+02
3380000000.000000      3.005981000000000E-01      1.525156000000000E+02      7.080688000000000E-01      1.271914000000000E+02
3400000000.000000      2.783661000000000E-01      1.377500000000000E+02      7.580872000000000E-01      1.133242000000000E+02
3420000000.000000      2.436523000000000E-01      1.228320000000000E+02      7.485657000000000E-01      9.853905000000000E+01
3440000000.000000      1.905441000000000E-01      1.081562000000000E+02      7.053223000000000E-01      8.565624000000000E+01
3460000000.000000      1.203613000000000E-01      9.723045000000000E+01      6.483765000000000E-01      7.247265000000000E+01
3480000000.000000      4.812050000000000E-02      1.204414000000000E+02      5.508423000000000E-01      5.906250000000000E+01
3500000000.000000      9.156418000000000E-02     -1.743906000000000E+02      4.258881000000000E-01      4.775195000000000E+01
3520000000.000000      1.831818000000000E-01      1.791719000000000E+02      2.801666000000000E-01      4.029882000000000E+01
3540000000.000000      2.626801000000000E-01      1.629844000000000E+02      1.484451000000000E-01      5.789063000000000E+01
3560000000.000000      3.226929000000000E-01      1.460234000000000E+02      1.657410000000000E-01      1.074258000000000E+02
3580000000.000000      3.593140000000000E-01      1.299844000000000E+02      2.930450000000000E-01      1.175273000000000E+02
3600000000.000000      3.760986000000000E-01      1.153242000000000E+02      4.183807000000000E-01      1.106328000000000E+02
3620000000.000000      3.779602000000000E-01      1.025937000000000E+02      5.197144000000000E-01      1.013359000000000E+02
3640000000.000000      3.684235000000000E-01      9.129686000000000E+01      6.206055000000000E-01      8.999609000000000E+01
3660000000.000000      3.521576000000000E-01      8.114061000000000E+01      6.920471000000000E-01      7.591797000000000E+01
3680000000.000000      3.298035000000000E-01      7.193359000000000E+01      7.103577000000000E-01      6.279491000000000E+01
3700000000.000000      2.990417000000000E-01      6.362499000000000E+01      7.207642000000000E-01      5.111718000000000E+01
3720000000.000000      2.548676000000000E-01      5.753906000000000E+01      7.246094000000000E-01      3.686718000000000E+01
3740000000.000000      2.047958000000000E-01      5.827343000000000E+01      6.645813000000000E-01      2.144922000000000E+01
3760000000.000000      1.773911000000000E-01      7.217187000000000E+01      5.675659000000000E-01      7.208252000000000E+00
3780000000.000000      2.111816000000000E-01      8.737890000000000E+01      4.371643000000000E-01     -6.083740000000000E+00
3800000000.000000      2.816772000000000E-01      8.903906000000000E+01      2.834930000000000E-01     -1.352734000000000E+01
3820000000.000000      3.492737000000000E-01      8.259766000000000E+01      1.546631000000000E-01     -7.800293000000000E-01
3840000000.000000      3.999786000000000E-01      7.394921000000000E+01      1.419754000000000E-01      4.731835000000000E+01
3860000000.000000      4.350128000000000E-01      6.532031000000000E+01      2.442551000000000E-01      6.529297000000000E+01
3880000000.000000      4.605103000000000E-01      5.776953000000000E+01      3.748169000000000E-01      6.114258000000000E+01
3900000000.000000      4.893646000000000E-01      5.078515000000000E+01      4.770203000000000E-01      4.779882000000000E+01
3920000000.000000      5.200806000000000E-01      4.310351000000000E+01      5.081482000000000E-01      3.610352000000000E+01
3940000000.000000      5.484009000000000E-01      3.419726000000000E+01      5.383606000000000E-01      2.954004000000000E+01
3960000000.000000      5.609741000000000E-01      2.419726000000000E+01      5.950623000000000E-01      2.021484000000000E+01
3980000000.000000      5.541382000000000E-01      1.356641000000000E+01      5.983276000000000E-01      8.151855000000000E+00
4000000000.000000      5.275269000000000E-01      3.146118000000000E+00      5.804138000000000E-01      1.213989000000000E+00
4020000000.000000      4.846802000000000E-01     -6.822510000000000E+00      5.991516000000000E-01     -6.509521000000000E+00
4040000000.000000      4.260254000000000E-01     -1.573389000000000E+01      5.850220000000000E-01     -1.874316000000000E+01
4060000000.000000      3.496246000000000E-01     -2.177929000000000E+01      5.282593000000000E-01     -2.882421000000000E+01
4080000000.000000      2.744446000000000E-01     -2.188672000000000E+01      4.695587000000000E-01     -3.826562000000000E+01
4100000000.000000      2.283020000000000E-01     -1.153711000000000E+01      3.675537000000000E-01     -4.749609000000000E+01
4120000000.000000      2.412720000000000E-01      1.724854000000000E+00      2.501831000000000E-01     -4.440430000000000E+01
4140000000.000000      2.893829000000000E-01      5.153809000000000E+00      2.026978000000000E-01     -2.025391000000000E+01
4160000000.000000      3.334808000000000E-01      1.040955000000000E+00      2.622528000000000E-01     -1.359558000000000E-01
4180000000.000000      3.616028000000000E-01     -5.853027000000000E+00      3.565063000000000E-01      3.867188000000000E+00
4200000000.000000      3.716888000000000E-01     -1.366016000000000E+01      4.873962000000000E-01      1.473511000000000E+00
4220000000.000000      3.670197000000000E-01     -2.085156000000000E+01      6.415405000000000E-01     -1.082178000000000E+01
4240000000.000000      3.482819000000000E-01     -2.834375000000000E+01      7.215271000000000E-01     -2.770898000000000E+01
4260000000.000000      3.105316000000000E-01     -3.417187000000000E+01      7.425232000000000E-01     -4.175390000000000E+01
4280000000.000000      2.603760000000000E-01     -3.551367000000000E+01      7.510376000000000E-01     -5.547461000000000E+01
4300000000.000000      2.229156000000000E-01     -2.755664000000000E+01      7.166748000000000E-01     -7.065624000000000E+01
4320000000.000000      2.353668000000000E-01     -1.472070000000000E+01      6.340942000000000E-01     -8.521484000000000E+01
4340000000.000000      2.928162000000000E-01     -1.059375000000000E+01      5.180359000000000E-01     -9.787498000000000E+01
4360000000.000000      3.581696000000000E-01     -1.556787000000000E+01      3.828278000000000E-01     -1.068555000000000E+02
4380000000.000000      4.048615000000000E-01     -2.456347000000000E+01      2.515106000000000E-01     -1.083164000000000E+02
4400000000.000000      4.258270000000000E-01     -3.454102000000000E+01      1.539154000000000E-01     -8.570313000000000E+01
4420000000.000000      4.250336000000000E-01     -4.396093000000000E+01      1.866455000000000E-01     -4.580078000000000E+01
4440000000.000000      4.082031000000000E-01     -5.200000000000000E+01      3.087769000000000E-01     -3.612305000000000E+01
4460000000.000000      3.869934000000000E-01     -5.867969000000000E+01      4.515533000000000E-01     -4.335938000000000E+01
4480000000.000000      3.684235000000000E-01     -6.488281000000000E+01      5.599060000000000E-01     -5.534570000000000E+01
4500000000.000000      3.467560000000000E-01     -7.154297000000000E+01      6.422119000000000E-01     -6.685156000000000E+01
4520000000.000000      3.140869000000000E-01     -7.927734000000000E+01      7.153015000000000E-01     -7.965234000000000E+01
4540000000.000000      2.625885000000000E-01     -8.557032000000000E+01      7.415466000000000E-01     -9.428125000000000E+01
4560000000.000000      2.020798000000000E-01     -8.393358000000000E+01      7.302856000000000E-01     -1.074805000000000E+02
4580000000.000000      1.738586000000000E-01     -6.823047000000000E+01      6.925354000000000E-01     -1.213008000000000E+02
4600000000.000000      2.112503000000000E-01     -5.397851000000000E+01      6.062012000000000E-01     -1.347109000000000E+02
4620000000.000000      2.762604000000000E-01     -5.521874000000000E+01      5.001526000000000E-01     -1.451406000000000E+02
4640000000.000000      3.301544000000000E-01     -6.507030000000000E+01      3.810120000000000E-01     -1.535000000000000E+02
4660000000.000000      3.543854000000000E-01     -7.828906000000000E+01      2.475967000000000E-01     -1.519687000000000E+02
4680000000.000000      3.466339000000000E-01     -9.223047000000000E+01      1.789398000000000E-01     -1.240000000000000E+02
4700000000.000000      3.099823000000000E-01     -1.054844000000000E+02      2.465973000000000E-01     -9.675781000000000E+01
4720000000.000000      2.538147000000000E-01     -1.162266000000000E+02      3.656464000000000E-01     -9.534374000000000E+01
4740000000.000000      1.917267000000000E-01     -1.214883000000000E+02      4.730072000000000E-01     -1.016094000000000E+02
4760000000.000000      1.391068000000000E-01     -1.177930000000000E+02      5.782776000000000E-01     -1.104805000000000E+02
4780000000.000000      1.124115000000000E-01     -1.020039000000000E+02      6.669617000000000E-01     -1.228203000000000E+02
4800000000.000000      1.182709000000000E-01     -8.383593000000000E+01      7.159729000000000E-01     -1.355469000000000E+02
4820000000.000000      1.465683000000000E-01     -7.413671000000000E+01      7.357788000000000E-01     -1.489297000000000E+02
4840000000.000000      1.872482000000000E-01     -7.388281000000000E+01      7.196960000000000E-01     -1.617656000000000E+02
4860000000.000000      2.306213000000000E-01     -8.021484000000000E+01      6.855164000000000E-01     -1.740781000000000E+02
4880000000.000000      2.680817000000000E-01     -9.064844000000000E+01      6.197205000000000E-01      1.719453000000000E+02
4900000000.000000      2.937012000000000E-01     -1.041055000000000E+02      4.962158000000000E-01      1.597500000000000E+02
4920000000.000000      2.999573000000000E-01     -1.192344000000000E+02      3.663483000000000E-01      1.534141000000000E+02
4940000000.000000      2.861023000000000E-01     -1.349219000000000E+02      2.528687000000000E-01      1.556719000000000E+02
4960000000.000000      2.551117000000000E-01     -1.502031000000000E+02      1.773224000000000E-01      1.768750000000000E+02
4980000000.000000      2.128220000000000E-01     -1.642969000000000E+02      2.132111000000000E-01     -1.515703000000000E+02
5000000000.000000      1.684799000000000E-01     -1.760547000000000E+02      3.285065000000000E-01     -1.435703000000000E+02
5020000000.000000      1.308975000000000E-01      1.739375000000000E+02      4.593811000000000E-01     -1.495312000000000E+02
5040000000.000000      1.003036000000000E-01      1.637969000000000E+02      5.668335000000000E-01     -1.602344000000000E+02
5060000000.000000      7.164764000000000E-02      1.489766000000000E+02      6.488953000000000E-01     -1.717500000000000E+02
5080000000.000000      4.194069000000000E-02      1.234023000000000E+02      7.184448000000000E-01      1.759687000000000E+02
5100000000.000000      1.730824000000000E-02      4.444921000000000E+01      7.571411000000000E-01      1.622813000000000E+02
5120000000.000000      4.058456000000000E-02     -5.006836000000000E+01      7.545776000000000E-01      1.480703000000000E+02
5140000000.000000      7.252502000000000E-02     -8.732031000000000E+01      7.040710000000000E-01      1.344375000000000E+02
5160000000.000000      9.595490000000000E-02     -1.184258000000000E+02      6.288147000000000E-01      1.218750000000000E+02
5180000000.000000      1.092644000000000E-01     -1.490937000000000E+02      5.345764000000000E-01      1.107578000000000E+02
5200000000.000000      1.124153000000000E-01      1.781328000000000E+02      4.172974000000000E-01      1.010156000000000E+02
5220000000.000000      1.094894000000000E-01      1.421250000000000E+02      2.851257000000000E-01      9.810547000000000E+01
5240000000.000000      1.086426000000000E-01      1.058047000000000E+02      1.845551000000000E-01      1.147461000000000E+02
5260000000.000000      1.135712000000000E-01      7.271093000000000E+01      1.953201000000000E-01      1.489375000000000E+02
5280000000.000000      1.204948000000000E-01      4.593554000000000E+01      2.952118000000000E-01      1.606172000000000E+02
5300000000.000000      1.274796000000000E-01      2.530468000000000E+01      4.084015000000000E-01      1.581328000000000E+02
5320000000.000000      1.331253000000000E-01      8.695313000000000E+00      5.264587000000000E-01      1.507031000000000E+02
5340000000.000000      1.389618000000000E-01     -5.667725000000000E+00      6.374817000000000E-01      1.386172000000000E+02
5360000000.000000      1.434784000000000E-01     -2.116406000000000E+01      7.056885000000000E-01      1.242500000000000E+02
5380000000.000000      1.385345000000000E-01     -3.856250000000000E+01      7.172546000000000E-01      1.108594000000000E+02
5400000000.000000      1.199989000000000E-01     -5.662109000000000E+01      7.187500000000000E-01      9.927734000000000E+01
5420000000.000000      8.489609000000000E-02     -7.367188000000000E+01      7.058105000000000E-01      8.607031000000000E+01
5440000000.000000      3.123188000000000E-02     -7.765234000000000E+01      6.479797000000000E-01      7.160937000000000E+01
5460000000.000000      4.250145000000000E-02      3.886914000000000E+01      5.412598000000000E-01      5.865039000000000E+01
5480000000.000000      1.123390000000000E-01      3.129101000000000E+01      4.135132000000000E-01      4.929296000000000E+01
5500000000.000000      1.746521000000000E-01      1.581738000000000E+01      2.939606000000000E-01      4.718163000000000E+01
5520000000.000000      2.211609000000000E-01      8.308411000000000E-01      1.959229000000000E-01      5.867188000000000E+01
5540000000.000000      2.515869000000000E-01     -1.308203000000000E+01      1.802597000000000E-01      9.041407000000000E+01
5560000000.000000      2.703552000000000E-01     -2.501953000000000E+01      2.612762000000000E-01      1.086211000000000E+02
5580000000.000000      2.826843000000000E-01     -3.490625000000000E+01      3.829498000000000E-01      1.086875000000000E+02
5600000000.000000      2.943878000000000E-01     -4.374413000000000E+01      5.053711000000000E-01      9.967968000000000E+01
5620000000.000000      3.042908000000000E-01     -5.292187000000000E+01      5.938416000000000E-01      8.718359000000000E+01
5640000000.000000      3.080444000000000E-01     -6.264843000000000E+01      6.464233000000000E-01      7.517968000000000E+01
5660000000.000000      2.983704000000000E-01     -7.326953000000000E+01      6.842957000000000E-01      6.391015000000000E+01
5680000000.000000      2.694244000000000E-01     -8.367188000000000E+01      6.987915000000000E-01      5.120703000000000E+01
5700000000.000000      2.219620000000000E-01     -9.123827000000000E+01      6.839600000000000E-01      3.887890000000000E+01
5720000000.000000      1.712875000000000E-01     -9.016405000000000E+01      6.440125000000000E-01      2.604687000000000E+01
5740000000.000000      1.496658000000000E-01     -7.567187000000000E+01      5.672913000000000E-01      1.273682000000000E+01
5760000000.000000      1.782303000000000E-01     -6.384960000000000E+01      4.529419000000000E-01      1.086243000000000E+00
5780000000.000000      2.244339000000000E-01     -6.507030000000000E+01      3.179321000000000E-01     -4.037598000000000E+00
5800000000.000000      2.560730000000000E-01     -7.293359000000000E+01      2.091141000000000E-01      6.665771000000000E+00
5820000000.000000      2.668152000000000E-01     -8.232813000000000E+01      1.887894000000000E-01      3.701562000000000E+01
5840000000.000000      2.571564000000000E-01     -9.094141000000000E+01      2.689056000000000E-01      5.391015000000000E+01
5860000000.000000      2.392197000000000E-01     -9.650000000000000E+01      3.702545000000000E-01      5.408593000000000E+01
5880000000.000000      2.241516000000000E-01     -9.985937000000000E+01      4.765625000000000E-01      4.874804000000000E+01
5900000000.000000      2.166061000000000E-01     -1.022227000000000E+02      5.929565000000000E-01      3.863281000000000E+01
5920000000.000000      2.087402000000000E-01     -1.050312000000000E+02      6.712341000000000E-01      2.459961000000000E+01
5940000000.000000      1.954498000000000E-01     -1.071328000000000E+02      7.011108000000000E-01      1.132275000000000E+01
5960000000.000000      1.778488000000000E-01     -1.054414000000000E+02      7.143250000000000E-01     -1.378784000000000E+00
5980000000.000000      1.653519000000000E-01     -9.776953000000000E+01      6.928711000000000E-01     -1.517383000000000E+01
6000000000.000000      1.808319000000000E-01     -8.855469000000000E+01      6.299438000000000E-01     -2.895215000000000E+01
6020000000.000000      2.150040000000000E-01     -8.657030000000000E+01      5.310364000000000E-01     -4.161523000000000E+01
6040000000.000000      2.504730000000000E-01     -9.173046000000000E+01      4.031067000000000E-01     -4.988671000000000E+01
6060000000.000000      2.752991000000000E-01     -1.007930000000000E+02      2.873230000000000E-01     -4.991015000000000E+01
6080000000.000000      2.859802000000000E-01     -1.109336000000000E+02      2.067871000000000E-01     -3.636914000000000E+01
