! Network Analyzer HP8722D
! Hewlett-Packard
! Data name: Linha & Wilkinson+CNT
! Saver's name: Rodrigo Anjos
! Comments: Teste da utilização de aquisição
continua pelo VNA HP8722D
! Time and date: 29/9/2025 16:34
!              Frequency                     S11                                                   S21                                                   S12                                                   S22
# HZ  S  MA R 50
3000000000.000000      4.237213000000000E-01     -5.554492000000000E+01      2.057266000000000E-01     -1.313906000000000E+02
3020000000.000000      4.491730000000000E-01     -6.971874000000000E+01      3.490295000000000E-01     -1.348125000000000E+02
3040000000.000000      4.534912000000000E-01     -8.264452000000000E+01      4.664154000000000E-01     -1.448125000000000E+02
3060000000.000000      4.451294000000000E-01     -9.470703000000000E+01      5.707703000000000E-01     -1.549687000000000E+02
3080000000.000000      4.298706000000000E-01     -1.059766000000000E+02      6.734009000000000E-01     -1.680703000000000E+02
3100000000.000000      4.095459000000000E-01     -1.171953000000000E+02      7.243652000000000E-01      1.770781000000000E+02
3120000000.000000      3.801880000000000E-01     -1.291328000000000E+02      7.328491000000000E-01      1.635937000000000E+02
3140000000.000000      3.400269000000000E-01     -1.421016000000000E+02      7.241821000000000E-01      1.506484000000000E+02
3160000000.000000      2.796478000000000E-01     -1.562109000000000E+02      6.854553000000000E-01      1.370859000000000E+02
3180000000.000000      2.002792000000000E-01     -1.690625000000000E+02      6.141663000000000E-01      1.246484000000000E+02
3200000000.000000      1.122932000000000E-01     -1.700469000000000E+02      5.211182000000000E-01      1.118008000000000E+02
3220000000.000000      7.887268000000000E-02     -1.247031000000000E+02      3.885193000000000E-01      1.008672000000000E+02
3240000000.000000      1.491547000000000E-01     -1.046055000000000E+02      2.488098000000000E-01      9.938671000000000E+01
3260000000.000000      2.293396000000000E-01     -1.148281000000000E+02      1.476364000000000E-01      1.246601000000000E+02
3280000000.000000      2.872620000000000E-01     -1.305234000000000E+02      2.012787000000000E-01      1.652344000000000E+02
3300000000.000000      3.203430000000000E-01     -1.467734000000000E+02      3.284454000000000E-01      1.697187000000000E+02
3320000000.000000      3.319550000000000E-01     -1.627500000000000E+02      4.620056000000000E-01      1.627578000000000E+02
3340000000.000000      3.286743000000000E-01     -1.782266000000000E+02      5.736694000000000E-01      1.506250000000000E+02
3360000000.000000      3.171997000000000E-01      1.670000000000000E+02      6.462708000000000E-01      1.386172000000000E+02
3380000000.000000      3.010864000000000E-01      1.527031000000000E+02      7.100525000000000E-01      1.273086000000000E+02
3400000000.000000      2.787323000000000E-01      1.380000000000000E+02      7.580566000000000E-01      1.135938000000000E+02
3420000000.000000      2.440948000000000E-01      1.231523000000000E+02      7.496643000000000E-01      9.866014000000000E+01
3440000000.000000      1.913071000000000E-01      1.082969000000000E+02      7.074890000000000E-01      8.576952000000000E+01
3460000000.000000      1.211243000000000E-01      9.728125000000000E+01      6.481323000000000E-01      7.261328000000000E+01
3480000000.000000      4.866791000000000E-02      1.199570000000000E+02      5.508728000000000E-01      5.914453000000000E+01
3500000000.000000      9.055710000000000E-02     -1.743672000000000E+02      4.265137000000000E-01      4.785546000000000E+01
3520000000.000000      1.826706000000000E-01      1.793281000000000E+02      2.812805000000000E-01      4.038281000000000E+01
3540000000.000000      2.618256000000000E-01      1.631484000000000E+02      1.480637000000000E-01      5.774414000000000E+01
3560000000.000000      3.224487000000000E-01      1.461406000000000E+02      1.656418000000000E-01      1.072461000000000E+02
3580000000.000000      3.595581000000000E-01      1.301250000000000E+02      2.924957000000000E-01      1.176133000000000E+02
3600000000.000000      3.764954000000000E-01      1.154140000000000E+02      4.179840000000000E-01      1.108242000000000E+02
3620000000.000000      3.780670000000000E-01      1.027461000000000E+02      5.210876000000000E-01      1.013515000000000E+02
3640000000.000000      3.687744000000000E-01      9.158594000000000E+01      6.217651000000000E-01      9.016796000000000E+01
3660000000.000000      3.530121000000000E-01      8.130468000000000E+01      6.928406000000000E-01      7.600780000000000E+01
3680000000.000000      3.301544000000000E-01      7.205078000000000E+01      7.103271000000000E-01      6.282227000000000E+01
3700000000.000000      2.997284000000000E-01      6.377343000000000E+01      7.211914000000000E-01      5.126171000000000E+01
3720000000.000000      2.562256000000000E-01      5.766992000000000E+01      7.259827000000000E-01      3.697851000000000E+01
3740000000.000000      2.055969000000000E-01      5.834765000000000E+01      6.658630000000000E-01      2.164160000000000E+01
3760000000.000000      1.778641000000000E-01      7.216406000000000E+01      5.686951000000000E-01      7.286621000000000E+00
3780000000.000000      2.110596000000000E-01      8.743359000000000E+01      4.383240000000000E-01     -5.994629000000000E+00
3800000000.000000      2.813416000000000E-01      8.914063000000000E+01      2.845612000000000E-01     -1.355713000000000E+01
3820000000.000000      3.490906000000000E-01      8.280077000000000E+01      1.548462000000000E-01     -1.080811000000000E+00
3840000000.000000      3.996124000000000E-01      7.412109000000000E+01      1.416168000000000E-01      4.716406000000000E+01
3860000000.000000      4.355011000000000E-01      6.558594000000000E+01      2.439957000000000E-01      6.537890000000000E+01
3880000000.000000      4.599304000000000E-01      5.802539000000000E+01      3.739014000000000E-01      6.125000000000000E+01
3900000000.000000      4.892731000000000E-01      5.090625000000000E+01      4.753723000000000E-01      4.802539000000000E+01
3920000000.000000      5.197754000000000E-01      4.322851000000000E+01      5.092773000000000E-01      3.617188000000000E+01
3940000000.000000      5.493469000000000E-01      3.440039000000000E+01      5.393066000000000E-01      2.965429000000000E+01
3960000000.000000      5.604553000000000E-01      2.439062000000000E+01      5.961609000000000E-01      2.023047000000000E+01
3980000000.000000      5.544739000000000E-01      1.387939000000000E+01      5.973206000000000E-01      8.289063000000000E+00
4000000000.000000      5.276794000000000E-01      3.324707000000000E+00      5.816956000000000E-01      1.544922000000000E+00
4020000000.000000      4.858093000000000E-01     -6.604248000000000E+00      5.970154000000000E-01     -6.333740000000000E+00
4040000000.000000      4.270782000000000E-01     -1.546191000000000E+01      5.865479000000000E-01     -1.850000000000000E+01
4060000000.000000      3.509674000000000E-01     -2.168164000000000E+01      5.284729000000000E-01     -2.881250000000000E+01
4080000000.000000      2.749786000000000E-01     -2.175293000000000E+01      4.704285000000000E-01     -3.799219000000000E+01
4100000000.000000      2.285919000000000E-01     -1.141113000000000E+01      3.709106000000000E-01     -4.753125000000000E+01
4120000000.000000      2.410431000000000E-01      1.834717000000000E+00      2.511444000000000E-01     -4.436523000000000E+01
4140000000.000000      2.887421000000000E-01      5.387207000000000E+00      2.026443000000000E-01     -2.064746000000000E+01
4160000000.000000      3.329926000000000E-01      1.168640000000000E+00      2.613831000000000E-01     -3.117371000000000E-01
4180000000.000000      3.611145000000000E-01     -5.640137000000000E+00      3.554382000000000E-01      3.985229000000000E+00
4200000000.000000      3.719025000000000E-01     -1.341748000000000E+01      4.852295000000000E-01      1.491394000000000E+00
4220000000.000000      3.677673000000000E-01     -2.068262000000000E+01      6.415710000000000E-01     -1.073779000000000E+01
4240000000.000000      3.495178000000000E-01     -2.813965000000000E+01      7.211609000000000E-01     -2.744824000000000E+01
4260000000.000000      3.110504000000000E-01     -3.401172000000000E+01      7.435913000000000E-01     -4.164063000000000E+01
4280000000.000000      2.606049000000000E-01     -3.542578000000000E+01      7.522888000000000E-01     -5.534374000000000E+01
4300000000.000000      2.220840000000000E-01     -2.749218000000000E+01      7.163696000000000E-01     -7.048828000000000E+01
4320000000.000000      2.345963000000000E-01     -1.465479000000000E+01      6.347656000000000E-01     -8.492968000000000E+01
4340000000.000000      2.920837000000000E-01     -1.044531000000000E+01      5.187073000000000E-01     -9.769531000000000E+01
4360000000.000000      3.575745000000000E-01     -1.542236000000000E+01      3.845520000000000E-01     -1.069180000000000E+02
4380000000.000000      4.046783000000000E-01     -2.435449000000000E+01      2.521515000000000E-01     -1.083008000000000E+02
4400000000.000000      4.263458000000000E-01     -3.432422000000000E+01      1.539536000000000E-01     -8.596874000000000E+01
4420000000.000000      4.253845000000000E-01     -4.373437000000000E+01      1.855621000000000E-01     -4.587695000000000E+01
4440000000.000000      4.087067000000000E-01     -5.168554000000000E+01      3.079834000000000E-01     -3.600000000000000E+01
4460000000.000000      3.870544000000000E-01     -5.849609000000000E+01      4.507141000000000E-01     -4.308203000000000E+01
4480000000.000000      3.677673000000000E-01     -6.481250000000000E+01      5.588074000000000E-01     -5.513476000000000E+01
4500000000.000000      3.470917000000000E-01     -7.142187000000000E+01      6.418762000000000E-01     -6.662109000000000E+01
4520000000.000000      3.148651000000000E-01     -7.918359000000000E+01      7.153320000000000E-01     -7.943359000000000E+01
4540000000.000000      2.631989000000000E-01     -8.557421000000000E+01      7.425842000000000E-01     -9.422655000000000E+01
4560000000.000000      2.023392000000000E-01     -8.415234000000000E+01      7.302246000000000E-01     -1.073516000000000E+02
4580000000.000000      1.737061000000000E-01     -6.832031000000000E+01      6.939087000000000E-01     -1.211992000000000E+02
4600000000.000000      2.104034000000000E-01     -5.389257000000000E+01      6.095886000000000E-01     -1.344453000000000E+02
4620000000.000000      2.752991000000000E-01     -5.500781000000000E+01      5.014954000000000E-01     -1.449297000000000E+02
4640000000.000000      3.298645000000000E-01     -6.470312000000000E+01      3.826904000000000E-01     -1.532969000000000E+02
4660000000.000000      3.542175000000000E-01     -7.809375000000000E+01      2.485504000000000E-01     -1.520703000000000E+02
4680000000.000000      3.467712000000000E-01     -9.208593000000000E+01      1.786270000000000E-01     -1.241953000000000E+02
4700000000.000000      3.102875000000000E-01     -1.053086000000000E+02      2.461853000000000E-01     -9.680077000000000E+01
4720000000.000000      2.545166000000000E-01     -1.160352000000000E+02      3.645172000000000E-01     -9.518358000000000E+01
4740000000.000000      1.923447000000000E-01     -1.216016000000000E+02      4.741364000000000E-01     -1.014609000000000E+02
4760000000.000000      1.392746000000000E-01     -1.178437000000000E+02      5.781250000000000E-01     -1.102148000000000E+02
4780000000.000000      1.119461000000000E-01     -1.022734000000000E+02      6.660767000000000E-01     -1.226055000000000E+02
4800000000.000000      1.167259000000000E-01     -8.387890000000000E+01      7.164001000000000E-01     -1.353437000000000E+02
4820000000.000000      1.450958000000000E-01     -7.373437000000000E+01      7.361755000000000E-01     -1.486953000000000E+02
4840000000.000000      1.857376000000000E-01     -7.337500000000000E+01      7.196045000000000E-01     -1.615625000000000E+02
4860000000.000000      2.293015000000000E-01     -7.988281000000000E+01      6.858521000000000E-01     -1.740937000000000E+02
4880000000.000000      2.678070000000000E-01     -9.028515000000000E+01      6.187744000000000E-01      1.721250000000000E+02
4900000000.000000      2.934723000000000E-01     -1.038242000000000E+02      4.991302000000000E-01      1.597422000000000E+02
4920000000.000000      3.003693000000000E-01     -1.189531000000000E+02      3.684692000000000E-01      1.536406000000000E+02
4940000000.000000      2.859650000000000E-01     -1.345078000000000E+02      2.541656000000000E-01      1.557188000000000E+02
4960000000.000000      2.554932000000000E-01     -1.499141000000000E+02      1.776657000000000E-01      1.763984000000000E+02
4980000000.000000      2.135696000000000E-01     -1.640000000000000E+02      2.123032000000000E-01     -1.516094000000000E+02
5000000000.000000      1.689911000000000E-01     -1.758828000000000E+02      3.268585000000000E-01     -1.435859000000000E+02
5020000000.000000      1.315384000000000E-01      1.739766000000000E+02      4.588776000000000E-01     -1.494531000000000E+02
5040000000.000000      1.009483000000000E-01      1.637891000000000E+02      5.670166000000000E-01     -1.602890000000000E+02
5060000000.000000      7.260513000000000E-02      1.489375000000000E+02      6.494751000000000E-01     -1.715781000000000E+02
5080000000.000000      4.259491000000000E-02      1.232344000000000E+02      7.188110000000000E-01      1.762500000000000E+02
5100000000.000000      1.697445000000000E-02      4.547265000000000E+01      7.555847000000000E-01      1.624531000000000E+02
5120000000.000000      4.103661000000000E-02     -4.989452000000000E+01      7.556763000000000E-01      1.482891000000000E+02
5140000000.000000      7.194519000000000E-02     -8.709764000000000E+01      7.043457000000000E-01      1.346328000000000E+02
5160000000.000000      9.598541000000000E-02     -1.180859000000000E+02      6.297913000000000E-01      1.222227000000000E+02
5180000000.000000      1.095161000000000E-01     -1.486797000000000E+02      5.359192000000000E-01      1.107461000000000E+02
5200000000.000000      1.129456000000000E-01      1.786094000000000E+02      4.187775000000000E-01      1.012031000000000E+02
5220000000.000000      1.101456000000000E-01      1.428203000000000E+02      2.859497000000000E-01      9.810547000000000E+01
5240000000.000000      1.090927000000000E-01      1.068086000000000E+02      1.848373000000000E-01      1.145586000000000E+02
5260000000.000000      1.131363000000000E-01      7.298046000000000E+01      1.943817000000000E-01      1.489687000000000E+02
5280000000.000000      1.207466000000000E-01      4.640625000000000E+01      2.938385000000000E-01      1.606719000000000E+02
5300000000.000000      1.275101000000000E-01      2.535645000000000E+01      4.071350000000000E-01      1.583516000000000E+02
5320000000.000000      1.334381000000000E-01      8.963379000000000E+00      5.262756000000000E-01      1.506875000000000E+02
5340000000.000000      1.394882000000000E-01     -5.394287000000000E+00      6.372375000000000E-01      1.388984000000000E+02
5360000000.000000      1.432877000000000E-01     -2.098437000000000E+01      7.064819000000000E-01      1.243008000000000E+02
5380000000.000000      1.389236000000000E-01     -3.850195000000000E+01      7.160645000000000E-01      1.110664000000000E+02
5400000000.000000      1.209259000000000E-01     -5.687109000000000E+01      7.185364000000000E-01      9.933594000000000E+01
5420000000.000000      8.580399000000000E-02     -7.398046000000000E+01      7.079163000000000E-01      8.624218000000000E+01
5440000000.000000      3.163719000000000E-02     -7.978516000000000E+01      6.503296000000000E-01      7.180859000000000E+01
5460000000.000000      4.122353000000000E-02      3.878515000000000E+01      5.429382000000000E-01      5.873241000000000E+01
5480000000.000000      1.115189000000000E-01      3.164453000000000E+01      4.170532000000000E-01      4.948047000000000E+01
5500000000.000000      1.742325000000000E-01      1.615234000000000E+01      2.951050000000000E-01      4.717773000000000E+01
5520000000.000000      2.204590000000000E-01      1.035461000000000E+00      1.964722000000000E-01      5.856054000000000E+01
5540000000.000000      2.521667000000000E-01     -1.268262000000000E+01      1.795197000000000E-01      9.024218000000000E+01
5560000000.000000      2.696838000000000E-01     -2.471386000000000E+01      2.602386000000000E-01      1.086914000000000E+02
5580000000.000000      2.825317000000000E-01     -3.478516000000000E+01      3.820648000000000E-01      1.087930000000000E+02
5600000000.000000      2.939606000000000E-01     -4.368360000000000E+01      5.052185000000000E-01      9.988670000000000E+01
5620000000.000000      3.051910000000000E-01     -5.280273000000000E+01      5.943909000000000E-01      8.741405000000000E+01
5640000000.000000      3.083038000000000E-01     -6.259179000000000E+01      6.472778000000000E-01      7.549609000000000E+01
5660000000.000000      2.986908000000000E-01     -7.318749000000000E+01      6.860962000000000E-01      6.418750000000000E+01
5680000000.000000      2.700806000000000E-01     -8.349218000000000E+01      7.001343000000000E-01      5.138281000000000E+01
5700000000.000000      2.220612000000000E-01     -9.109766000000000E+01      6.841431000000000E-01      3.913281000000000E+01
5720000000.000000      1.714401000000000E-01     -9.005468000000000E+01      6.464844000000000E-01      2.632324000000000E+01
5740000000.000000      1.491776000000000E-01     -7.580468000000000E+01      5.681152000000000E-01      1.303760000000000E+01
5760000000.000000      1.770477000000000E-01     -6.366211000000000E+01      4.547729000000000E-01      1.340332000000000E+00
5780000000.000000      2.235413000000000E-01     -6.507421000000000E+01      3.199615000000000E-01     -4.006104000000000E+00
5800000000.000000      2.566376000000000E-01     -7.296093000000000E+01      2.104263000000000E-01      6.370605000000000E+00
5820000000.000000      2.668152000000000E-01     -8.226171000000000E+01      1.877060000000000E-01      3.680273000000000E+01
5840000000.000000      2.579651000000000E-01     -9.085155000000000E+01      2.682343000000000E-01      5.387890000000000E+01
5860000000.000000      2.387390000000000E-01     -9.629686000000000E+01      3.692169000000000E-01      5.426171000000000E+01
5880000000.000000      2.237167000000000E-01     -9.981249000000000E+01      4.762115000000000E-01      4.911523000000000E+01
5900000000.000000      2.168121000000000E-01     -1.021055000000000E+02      5.936890000000000E-01      3.874023000000000E+01
5920000000.000000      2.089691000000000E-01     -1.049141000000000E+02      6.711426000000000E-01      2.479883000000000E+01
5940000000.000000      1.948318000000000E-01     -1.070039000000000E+02      7.010498000000000E-01      1.168506000000000E+01
5960000000.000000      1.772537000000000E-01     -1.055234000000000E+02      7.138367000000000E-01     -1.038208000000000E+00
5980000000.000000      1.653671000000000E-01     -9.765625000000000E+01      6.934509000000000E-01     -1.510498000000000E+01
6000000000.000000      1.804123000000000E-01     -8.836329000000000E+01      6.315613000000000E-01     -2.874316000000000E+01
6020000000.000000      2.149506000000000E-01     -8.608593000000000E+01      5.329285000000000E-01     -4.152148000000000E+01
6040000000.000000      2.506714000000000E-01     -9.142969000000000E+01      4.036865000000000E-01     -4.978710000000000E+01
6060000000.000000      2.748718000000000E-01     -1.005351000000000E+02      2.884979000000000E-01     -4.989648000000000E+01
6080000000.000000      2.858582000000000E-01     -1.106953000000000E+02      2.068787000000000E-01     -3.673047000000000E+01
