! Network Analyzer HP8722D
! Hewlett-Packard
! Data name: Linha & Wilkinson+CNT
! Saver's name: Rodrigo Anjos
! Comments: Teste da utilização de aquisição
continua pelo VNA HP8722D
! Time and date: 29/9/2025 15:06
!              Frequency                     S11                                                   S21                                                   S12                                                   S22
# HZ  S  MA R 50
3000000000.000000      4.256134000000000E-01     -5.545898000000000E+01      2.064438000000000E-01     -1.315859000000000E+02
3020000000.000000      4.484863000000000E-01     -6.995703000000000E+01      3.488617000000000E-01     -1.348828000000000E+02
3040000000.000000      4.531708000000000E-01     -8.267969000000000E+01      4.664459000000000E-01     -1.448828000000000E+02
3060000000.000000      4.446106000000000E-01     -9.489061000000000E+01      5.709534000000000E-01     -1.551875000000000E+02
3080000000.000000      4.295654000000000E-01     -1.061211000000000E+02      6.734009000000000E-01     -1.682578000000000E+02
3100000000.000000      4.088440000000000E-01     -1.173047000000000E+02      7.243347000000000E-01      1.769844000000000E+02
3120000000.000000      3.802490000000000E-01     -1.292578000000000E+02      7.313538000000000E-01      1.635547000000000E+02
3140000000.000000      3.392792000000000E-01     -1.423203000000000E+02      7.257080000000000E-01      1.507109000000000E+02
3160000000.000000      2.791138000000000E-01     -1.563281000000000E+02      6.850586000000000E-01      1.369922000000000E+02
3180000000.000000      2.001495000000000E-01     -1.690000000000000E+02      6.160278000000000E-01      1.245703000000000E+02
3200000000.000000      1.121750000000000E-01     -1.699453000000000E+02      5.212708000000000E-01      1.117578000000000E+02
3220000000.000000      7.897186000000000E-02     -1.245351000000000E+02      3.872223000000000E-01      1.007930000000000E+02
3240000000.000000      1.497116000000000E-01     -1.048047000000000E+02      2.480469000000000E-01      9.941015000000000E+01
3260000000.000000      2.290649000000000E-01     -1.148984000000000E+02      1.471710000000000E-01      1.248750000000000E+02
3280000000.000000      2.872925000000000E-01     -1.307734000000000E+02      2.014999000000000E-01      1.652422000000000E+02
3300000000.000000      3.204651000000000E-01     -1.470859000000000E+02      3.290710000000000E-01      1.698047000000000E+02
3320000000.000000      3.321686000000000E-01     -1.628828000000000E+02      4.621735000000000E-01      1.627422000000000E+02
3340000000.000000      3.283691000000000E-01     -1.783594000000000E+02      5.747070000000000E-01      1.506484000000000E+02
3360000000.000000      3.166809000000000E-01      1.668906000000000E+02      6.450806000000000E-01      1.385078000000000E+02
3380000000.000000      3.005066000000000E-01      1.526250000000000E+02      7.092285000000000E-01      1.271562000000000E+02
3400000000.000000      2.786407000000000E-01      1.379297000000000E+02      7.577209000000000E-01      1.133242000000000E+02
3420000000.000000      2.438965000000000E-01      1.229219000000000E+02      7.476807000000000E-01      9.856640000000000E+01
3440000000.000000      1.908722000000000E-01      1.081836000000000E+02      7.071838000000000E-01      8.566406000000000E+01
3460000000.000000      1.205559000000000E-01      9.742577000000000E+01      6.483154000000000E-01      7.255077000000000E+01
3480000000.000000      4.820061000000000E-02      1.198789000000000E+02      5.500793000000000E-01      5.903320000000000E+01
3500000000.000000      9.104919000000000E-02     -1.744219000000000E+02      4.266510000000000E-01      4.767187000000000E+01
3520000000.000000      1.827393000000000E-01      1.791719000000000E+02      2.808533000000000E-01      4.032617000000000E+01
3540000000.000000      2.626038000000000E-01      1.630312000000000E+02      1.479263000000000E-01      5.778906000000000E+01
3560000000.000000      3.222351000000000E-01      1.460625000000000E+02      1.658478000000000E-01      1.073711000000000E+02
3580000000.000000      3.594971000000000E-01      1.299687000000000E+02      2.929382000000000E-01      1.175156000000000E+02
3600000000.000000      3.759308000000000E-01      1.154140000000000E+02      4.182892000000000E-01      1.107344000000000E+02
3620000000.000000      3.777924000000000E-01      1.027226000000000E+02      5.208130000000000E-01      1.012773000000000E+02
3640000000.000000      3.691406000000000E-01      9.146484000000000E+01      6.214600000000000E-01      9.012890000000000E+01
3660000000.000000      3.525238000000000E-01      8.117579000000000E+01      6.919861000000000E-01      7.592968000000000E+01
3680000000.000000      3.298950000000000E-01      7.208593000000000E+01      7.115173000000000E-01      6.276562000000000E+01
3700000000.000000      2.995300000000000E-01      6.374413000000000E+01      7.211609000000000E-01      5.121875000000000E+01
3720000000.000000      2.556000000000000E-01      5.760351000000000E+01      7.250671000000000E-01      3.689844000000000E+01
3740000000.000000      2.054520000000000E-01      5.829102000000000E+01      6.641541000000000E-01      2.147656000000000E+01
3760000000.000000      1.775818000000000E-01      7.224218000000000E+01      5.678711000000000E-01      7.254883000000000E+00
3780000000.000000      2.109375000000000E-01      8.741796000000000E+01      4.385223000000000E-01     -5.913574000000000E+00
3800000000.000000      2.817535000000000E-01      8.917187000000000E+01      2.835693000000000E-01     -1.338965000000000E+01
3820000000.000000      3.493652000000000E-01      8.269922000000000E+01      1.545410000000000E-01     -8.514404000000000E-01
3840000000.000000      4.001312000000000E-01      7.403906000000000E+01      1.421356000000000E-01      4.745313000000000E+01
3860000000.000000      4.354553000000000E-01      6.545312000000000E+01      2.446060000000000E-01      6.544531000000000E+01
3880000000.000000      4.604492000000000E-01      5.784961000000000E+01      3.744202000000000E-01      6.127734000000000E+01
3900000000.000000      4.892120000000000E-01      5.083593000000000E+01      4.770050000000000E-01      4.776367000000000E+01
3920000000.000000      5.214844000000000E-01      4.324414000000000E+01      5.073547000000000E-01      3.601758000000000E+01
3940000000.000000      5.480652000000000E-01      3.435742000000000E+01      5.394897000000000E-01      2.953516000000000E+01
3960000000.000000      5.604858000000000E-01      2.425000000000000E+01      5.960388000000000E-01      2.013867000000000E+01
3980000000.000000      5.543213000000000E-01      1.379590000000000E+01      5.983582000000000E-01      8.239746000000000E+00
4000000000.000000      5.274658000000000E-01      3.147583000000000E+00      5.807495000000000E-01      1.477661000000000E+00
4020000000.000000      4.853516000000000E-01     -6.700439000000000E+00      5.976868000000000E-01     -6.575439000000000E+00
4040000000.000000      4.267578000000000E-01     -1.559961000000000E+01      5.860596000000000E-01     -1.875586000000000E+01
4060000000.000000      3.500214000000000E-01     -2.186230000000000E+01      5.291748000000000E-01     -2.884277000000000E+01
4080000000.000000      2.754517000000000E-01     -2.187695000000000E+01      4.698792000000000E-01     -3.815039000000000E+01
4100000000.000000      2.284012000000000E-01     -1.140967000000000E+01      3.676758000000000E-01     -4.745313000000000E+01
4120000000.000000      2.411804000000000E-01      1.866272000000000E+00      2.504578000000000E-01     -4.439649000000000E+01
4140000000.000000      2.889709000000000E-01      5.234863000000000E+00      2.024994000000000E-01     -2.041308000000000E+01
4160000000.000000      3.335571000000000E-01      1.045044000000000E+00      2.623138000000000E-01     -1.799011000000000E-01
4180000000.000000      3.614349000000000E-01     -5.795410000000000E+00      3.558807000000000E-01      3.913818000000000E+00
4200000000.000000      3.712463000000000E-01     -1.359033000000000E+01      4.863281000000000E-01      1.502380000000000E+00
4220000000.000000      3.678436000000000E-01     -2.077441000000000E+01      6.403809000000000E-01     -1.084766000000000E+01
4240000000.000000      3.487854000000000E-01     -2.825195000000000E+01      7.213135000000000E-01     -2.758203000000000E+01
4260000000.000000      3.106537000000000E-01     -3.413086000000000E+01      7.425232000000000E-01     -4.166992000000000E+01
4280000000.000000      2.603302000000000E-01     -3.543554000000000E+01      7.515564000000000E-01     -5.547461000000000E+01
4300000000.000000      2.225037000000000E-01     -2.748828000000000E+01      7.153931000000000E-01     -7.065234000000000E+01
4320000000.000000      2.348099000000000E-01     -1.473438000000000E+01      6.339417000000000E-01     -8.510157000000000E+01
4340000000.000000      2.925262000000000E-01     -1.048828000000000E+01      5.176086000000000E-01     -9.775000000000000E+01
4360000000.000000      3.580627000000000E-01     -1.546631000000000E+01      3.825073000000000E-01     -1.069180000000000E+02
4380000000.000000      4.047394000000000E-01     -2.447754000000000E+01      2.516632000000000E-01     -1.082695000000000E+02
4400000000.000000      4.259186000000000E-01     -3.444921000000000E+01      1.538849000000000E-01     -8.570313000000000E+01
4420000000.000000      4.250946000000000E-01     -4.376953000000000E+01      1.862106000000000E-01     -4.571094000000000E+01
4440000000.000000      4.078674000000000E-01     -5.188086000000000E+01      3.084869000000000E-01     -3.610547000000000E+01
4460000000.000000      3.874359000000000E-01     -5.840820000000000E+01      4.501038000000000E-01     -4.312696000000000E+01
4480000000.000000      3.684082000000000E-01     -6.481640000000000E+01      5.606689000000000E-01     -5.531054000000000E+01
4500000000.000000      3.470764000000000E-01     -7.156640000000000E+01      6.404114000000000E-01     -6.687109000000000E+01
4520000000.000000      3.138885000000000E-01     -7.924999000000000E+01      7.157898000000000E-01     -7.956640000000000E+01
4540000000.000000      2.630920000000000E-01     -8.555079000000000E+01      7.417908000000000E-01     -9.422655000000000E+01
4560000000.000000      2.017975000000000E-01     -8.404297000000000E+01      7.293701000000000E-01     -1.074297000000000E+02
4580000000.000000      1.737366000000000E-01     -6.815234000000000E+01      6.925659000000000E-01     -1.212187000000000E+02
4600000000.000000      2.109299000000000E-01     -5.391211000000000E+01      6.077271000000000E-01     -1.345469000000000E+02
4620000000.000000      2.758942000000000E-01     -5.511328000000000E+01      5.009155000000000E-01     -1.450547000000000E+02
4640000000.000000      3.297424000000000E-01     -6.489843000000000E+01      3.811340000000000E-01     -1.534688000000000E+02
4660000000.000000      3.542480000000000E-01     -7.816015000000000E+01      2.479019000000000E-01     -1.520391000000000E+02
4680000000.000000      3.469696000000000E-01     -9.221874000000000E+01      1.786804000000000E-01     -1.241602000000000E+02
4700000000.000000      3.098602000000000E-01     -1.054570000000000E+02      2.461853000000000E-01     -9.666405000000000E+01
4720000000.000000      2.539063000000000E-01     -1.161367000000000E+02      3.654938000000000E-01     -9.530077000000000E+01
4740000000.000000      1.917114000000000E-01     -1.215469000000000E+02      4.727478000000000E-01     -1.016758000000000E+02
4760000000.000000      1.390610000000000E-01     -1.179180000000000E+02      5.783691000000000E-01     -1.104180000000000E+02
4780000000.000000      1.119270000000000E-01     -1.020664000000000E+02      6.651306000000000E-01     -1.226953000000000E+02
4800000000.000000      1.168671000000000E-01     -8.430859000000000E+01      7.172241000000000E-01     -1.354375000000000E+02
4820000000.000000      1.454163000000000E-01     -7.402734000000000E+01      7.350159000000000E-01     -1.487422000000000E+02
4840000000.000000      1.864700000000000E-01     -7.360937000000000E+01      7.208557000000000E-01     -1.615234000000000E+02
4860000000.000000      2.302628000000000E-01     -8.009375000000000E+01      6.841736000000000E-01     -1.740703000000000E+02
4880000000.000000      2.681122000000000E-01     -9.050390000000000E+01      6.188965000000000E-01      1.720156000000000E+02
4900000000.000000      2.936707000000000E-01     -1.039492000000000E+02      4.968567000000000E-01      1.597500000000000E+02
4920000000.000000      2.998199000000000E-01     -1.190664000000000E+02      3.673401000000000E-01      1.534453000000000E+02
4940000000.000000      2.861481000000000E-01     -1.347344000000000E+02      2.532959000000000E-01      1.557734000000000E+02
4960000000.000000      2.551727000000000E-01     -1.499141000000000E+02      1.775208000000000E-01      1.766719000000000E+02
4980000000.000000      2.131424000000000E-01     -1.641875000000000E+02      2.132187000000000E-01     -1.514922000000000E+02
5000000000.000000      1.691284000000000E-01     -1.759766000000000E+02      3.280487000000000E-01     -1.435391000000000E+02
5020000000.000000      1.312408000000000E-01      1.740703000000000E+02      4.589996000000000E-01     -1.495391000000000E+02
5040000000.000000      1.004829000000000E-01      1.636250000000000E+02      5.675964000000000E-01     -1.602734000000000E+02
5060000000.000000      7.227707000000000E-02      1.490391000000000E+02      6.505432000000000E-01     -1.716797000000000E+02
5080000000.000000      4.243088000000000E-02      1.234258000000000E+02      7.179565000000000E-01      1.761641000000000E+02
5100000000.000000      1.716042000000000E-02      4.524414000000000E+01      7.563782000000000E-01      1.623516000000000E+02
5120000000.000000      4.038620000000000E-02     -5.014257000000000E+01      7.543640000000000E-01      1.482656000000000E+02
5140000000.000000      7.243729000000000E-02     -8.725389000000000E+01      7.048340000000000E-01      1.343750000000000E+02
5160000000.000000      9.595108000000000E-02     -1.180976000000000E+02      6.282349000000000E-01      1.222969000000000E+02
5180000000.000000      1.096916000000000E-01     -1.491719000000000E+02      5.345764000000000E-01      1.107969000000000E+02
5200000000.000000      1.128654000000000E-01      1.784219000000000E+02      4.180450000000000E-01      1.010195000000000E+02
5220000000.000000      1.102829000000000E-01      1.426797000000000E+02      2.848358000000000E-01      9.813671000000000E+01
5240000000.000000      1.090660000000000E-01      1.063711000000000E+02      1.846161000000000E-01      1.147461000000000E+02
5260000000.000000      1.133614000000000E-01      7.299999000000000E+01      1.950684000000000E-01      1.490000000000000E+02
5280000000.000000      1.207008000000000E-01      4.622656000000000E+01      2.948608000000000E-01      1.607031000000000E+02
5300000000.000000      1.271439000000000E-01      2.539258000000000E+01      4.081421000000000E-01      1.582500000000000E+02
5320000000.000000      1.337585000000000E-01      8.997559000000000E+00      5.254822000000000E-01      1.506719000000000E+02
5340000000.000000      1.390686000000000E-01     -5.452148000000000E+00      6.379089000000000E-01      1.386563000000000E+02
5360000000.000000      1.427536000000000E-01     -2.109277000000000E+01      7.056885000000000E-01      1.241055000000000E+02
5380000000.000000      1.389771000000000E-01     -3.874414000000000E+01      7.195740000000000E-01      1.108867000000000E+02
5400000000.000000      1.203537000000000E-01     -5.678124000000000E+01      7.196045000000000E-01      9.915625000000000E+01
5420000000.000000      8.526230000000000E-02     -7.378124000000000E+01      7.055054000000000E-01      8.613281000000000E+01
5440000000.000000      3.152466000000000E-02     -7.894921000000000E+01      6.490784000000000E-01      7.185156000000000E+01
5460000000.000000      4.245949000000000E-02      3.876758000000000E+01      5.419617000000000E-01      5.870703000000000E+01
5480000000.000000      1.120224000000000E-01      3.126660000000000E+01      4.138184000000000E-01      4.939258000000000E+01
5500000000.000000      1.745148000000000E-01      1.591211000000000E+01      2.942352000000000E-01      4.716016000000000E+01
5520000000.000000      2.205429000000000E-01      9.585571000000000E-01      1.961212000000000E-01      5.840429000000000E+01
5540000000.000000      2.519989000000000E-01     -1.298047000000000E+01      1.798935000000000E-01      9.040625000000000E+01
5560000000.000000      2.700195000000000E-01     -2.481836000000000E+01      2.609406000000000E-01      1.085469000000000E+02
5580000000.000000      2.822113000000000E-01     -3.483398000000000E+01      3.828888000000000E-01      1.086836000000000E+02
5600000000.000000      2.944336000000000E-01     -4.374804000000000E+01      5.059204000000000E-01      9.980469000000000E+01
5620000000.000000      3.044739000000000E-01     -5.280468000000000E+01      5.950928000000000E-01      8.710546000000000E+01
5640000000.000000      3.083191000000000E-01     -6.263866000000000E+01      6.461792000000000E-01      7.539063000000000E+01
5660000000.000000      2.983704000000000E-01     -7.313671000000000E+01      6.846619000000000E-01      6.401562000000000E+01
5680000000.000000      2.696686000000000E-01     -8.365234000000000E+01      6.994324000000000E-01      5.133007000000000E+01
5700000000.000000      2.217484000000000E-01     -9.108984000000000E+01      6.831665000000000E-01      3.892578000000000E+01
5720000000.000000      1.716003000000000E-01     -9.002344000000000E+01      6.454468000000000E-01      2.622070000000000E+01
5740000000.000000      1.494675000000000E-01     -7.554688000000000E+01      5.658569000000000E-01      1.308447000000000E+01
5760000000.000000      1.777496000000000E-01     -6.365429000000000E+01      4.533997000000000E-01      1.275757000000000E+00
5780000000.000000      2.240677000000000E-01     -6.512500000000000E+01      3.182526000000000E-01     -3.952393000000000E+00
5800000000.000000      2.563324000000000E-01     -7.285156000000000E+01      2.097778000000000E-01      6.573730000000000E+00
5820000000.000000      2.671661000000000E-01     -8.234766000000000E+01      1.884613000000000E-01      3.703711000000000E+01
5840000000.000000      2.565613000000000E-01     -9.087500000000000E+01      2.693024000000000E-01      5.377930000000000E+01
5860000000.000000      2.391281000000000E-01     -9.646873000000000E+01      3.691864000000000E-01      5.417773000000000E+01
5880000000.000000      2.242279000000000E-01     -9.981249000000000E+01      4.774170000000000E-01      4.879296000000000E+01
5900000000.000000      2.163925000000000E-01     -1.022148000000000E+02      5.943909000000000E-01      3.865234000000000E+01
5920000000.000000      2.091217000000000E-01     -1.050352000000000E+02      6.701660000000000E-01      2.485449000000000E+01
5940000000.000000      1.950531000000000E-01     -1.069922000000000E+02      7.019043000000000E-01      1.156152000000000E+01
5960000000.000000      1.776199000000000E-01     -1.053437000000000E+02      7.148743000000000E-01     -1.130249000000000E+00
5980000000.000000      1.653366000000000E-01     -9.772264000000000E+01      6.932373000000000E-01     -1.518311000000000E+01
6000000000.000000      1.809921000000000E-01     -8.826563000000000E+01      6.298523000000000E-01     -2.879883000000000E+01
6020000000.000000      2.154846000000000E-01     -8.642969000000000E+01      5.322571000000000E-01     -4.152148000000000E+01
6040000000.000000      2.507935000000000E-01     -9.154688000000000E+01      4.014893000000000E-01     -4.977148000000000E+01
6060000000.000000      2.749481000000000E-01     -1.005664000000000E+02      2.872314000000000E-01     -4.995117000000000E+01
6080000000.000000      2.851715000000000E-01     -1.108242000000000E+02      2.064362000000000E-01     -3.647265000000000E+01
