! Network Analyzer HP8722D
! Hewlett-Packard
! Data name: Linha & Wilkinson+CNT
! Saver's name: Rodrigo Anjos
! Comments: Teste da utilização de aquisição
continua pelo VNA HP8722D
! Time and date: 29/9/2025 16:53
!              Frequency                     S11                                                   S21                                                   S12                                                   S22
# HZ  S  MA R 50
3000000000.000000      4.264069000000000E-01     -5.585742000000000E+01      2.105026000000000E-01     -1.314062000000000E+02
3020000000.000000      4.470215000000000E-01     -7.014062000000000E+01      3.534546000000000E-01     -1.352266000000000E+02
3040000000.000000      4.520264000000000E-01     -8.291016000000000E+01      4.703522000000000E-01     -1.452812000000000E+02
3060000000.000000      4.449158000000000E-01     -9.503515000000000E+01      5.739441000000000E-01     -1.554531000000000E+02
3080000000.000000      4.289398000000000E-01     -1.062422000000000E+02      6.758728000000000E-01     -1.687266000000000E+02
3100000000.000000      4.080963000000000E-01     -1.174609000000000E+02      7.246399000000000E-01      1.765547000000000E+02
3120000000.000000      3.787994000000000E-01     -1.293906000000000E+02      7.323303000000000E-01      1.631172000000000E+02
3140000000.000000      3.377533000000000E-01     -1.424531000000000E+02      7.237549000000000E-01      1.502500000000000E+02
3160000000.000000      2.767792000000000E-01     -1.563672000000000E+02      6.832581000000000E-01      1.367188000000000E+02
3180000000.000000      1.965561000000000E-01     -1.689531000000000E+02      6.124573000000000E-01      1.242226000000000E+02
3200000000.000000      1.099319000000000E-01     -1.689766000000000E+02      5.161133000000000E-01      1.113789000000000E+02
3220000000.000000      8.125687000000000E-02     -1.228086000000000E+02      3.829498000000000E-01      1.008242000000000E+02
3240000000.000000      1.531525000000000E-01     -1.051015000000000E+02      2.442245000000000E-01      9.978516000000000E+01
3260000000.000000      2.320862000000000E-01     -1.154805000000000E+02      1.469803000000000E-01      1.265937000000000E+02
3280000000.000000      2.888489000000000E-01     -1.312500000000000E+02      2.064972000000000E-01      1.653516000000000E+02
3300000000.000000      3.209076000000000E-01     -1.475078000000000E+02      3.328857000000000E-01      1.693672000000000E+02
3320000000.000000      3.321838000000000E-01     -1.632891000000000E+02      4.652252000000000E-01      1.622890000000000E+02
3340000000.000000      3.280640000000000E-01     -1.786875000000000E+02      5.764771000000000E-01      1.501250000000000E+02
3360000000.000000      3.158569000000000E-01      1.665547000000000E+02      6.470947000000000E-01      1.381094000000000E+02
3380000000.000000      2.998810000000000E-01      1.522734000000000E+02      7.093506000000000E-01      1.267188000000000E+02
3400000000.000000      2.781067000000000E-01      1.377187000000000E+02      7.566833000000000E-01      1.129688000000000E+02
3420000000.000000      2.426224000000000E-01      1.228242000000000E+02      7.479248000000000E-01      9.812109000000000E+01
3440000000.000000      1.888275000000000E-01      1.080234000000000E+02      7.035217000000000E-01      8.535547000000000E+01
3460000000.000000      1.186638000000000E-01      9.781639000000000E+01      6.449585000000000E-01      7.226953000000000E+01
3480000000.000000      4.793930000000000E-02      1.234883000000000E+02      5.467224000000000E-01      5.887109000000000E+01
3500000000.000000      9.472656000000000E-02     -1.746094000000000E+02      4.218140000000000E-01      4.756249000000000E+01
3520000000.000000      1.862488000000000E-01      1.785469000000000E+02      2.754974000000000E-01      4.066406000000000E+01
3540000000.000000      2.646942000000000E-01      1.622969000000000E+02      1.463089000000000E-01      5.946484000000000E+01
3560000000.000000      3.242340000000000E-01      1.454609000000000E+02      1.695480000000000E-01      1.081250000000000E+02
3580000000.000000      3.608398000000000E-01      1.294922000000000E+02      2.971954000000000E-01      1.174531000000000E+02
3600000000.000000      3.768616000000000E-01      1.148984000000000E+02      4.215851000000000E-01      1.104102000000000E+02
3620000000.000000      3.778839000000000E-01      1.022812000000000E+02      5.233459000000000E-01      1.009805000000000E+02
3640000000.000000      3.682251000000000E-01      9.116014000000000E+01      6.230774000000000E-01      8.973827000000000E+01
3660000000.000000      3.518524000000000E-01      8.098436000000000E+01      6.930847000000000E-01      7.547265000000000E+01
3680000000.000000      3.292847000000000E-01      7.187890000000000E+01      7.117920000000000E-01      6.235546000000000E+01
3700000000.000000      2.982178000000000E-01      6.357422000000000E+01      7.196960000000000E-01      5.079102000000000E+01
3720000000.000000      2.541351000000000E-01      5.761328000000000E+01      7.212524000000000E-01      3.650976000000000E+01
3740000000.000000      2.043533000000000E-01      5.866211000000000E+01      6.602173000000000E-01      2.114844000000000E+01
3760000000.000000      1.783981000000000E-01      7.296875000000000E+01      5.634460000000000E-01      6.897949000000000E+00
3780000000.000000      2.137451000000000E-01      8.773829000000000E+01      4.317932000000000E-01     -6.262207000000000E+00
3800000000.000000      2.843628000000000E-01      8.903906000000000E+01      2.781982000000000E-01     -1.324023000000000E+01
3820000000.000000      3.515167000000000E-01      8.247656000000000E+01      1.518555000000000E-01      8.294678000000000E-01
3840000000.000000      4.015045000000000E-01      7.373437000000000E+01      1.452408000000000E-01      4.875586000000000E+01
3860000000.000000      4.356232000000000E-01      6.514453000000000E+01      2.492218000000000E-01      6.532812000000000E+01
3880000000.000000      4.613037000000000E-01      5.770702000000000E+01      3.789215000000000E-01      6.094140000000000E+01
3900000000.000000      4.906158000000000E-01      5.063281000000000E+01      4.792786000000000E-01      4.753711000000000E+01
3920000000.000000      5.209045000000000E-01      4.301171000000000E+01      5.097656000000000E-01      3.567578000000000E+01
3940000000.000000      5.492249000000000E-01      3.393164000000000E+01      5.398865000000000E-01      2.939355000000000E+01
3960000000.000000      5.592041000000000E-01      2.394531000000000E+01      5.959473000000000E-01      1.988574000000000E+01
3980000000.000000      5.528564000000000E-01      1.359961000000000E+01      5.968018000000000E-01      8.077637000000000E+00
4000000000.000000      5.276184000000000E-01      2.966309000000000E+00      5.796509000000000E-01      1.245544000000000E+00
4020000000.000000      4.829865000000000E-01     -6.933838000000000E+00      5.974121000000000E-01     -6.745605000000000E+00
4040000000.000000      4.230347000000000E-01     -1.574072000000000E+01      5.834961000000000E-01     -1.902832000000000E+01
4060000000.000000      3.474731000000000E-01     -2.176953000000000E+01      5.268250000000000E-01     -2.915722000000000E+01
4080000000.000000      2.735291000000000E-01     -2.140332000000000E+01      4.670715000000000E-01     -3.833984000000000E+01
4100000000.000000      2.284164000000000E-01     -1.054590000000000E+01      3.659821000000000E-01     -4.754102000000000E+01
4120000000.000000      2.429276000000000E-01      2.296143000000000E+00      2.476120000000000E-01     -4.363281000000000E+01
4140000000.000000      2.911072000000000E-01      5.234863000000000E+00      2.043152000000000E-01     -1.914551000000000E+01
4160000000.000000      3.344269000000000E-01      9.159851000000000E-01      2.666473000000000E-01     -3.570557000000000E-02
4180000000.000000      3.624725000000000E-01     -5.909424000000000E+00      3.610382000000000E-01      3.813599000000000E+00
4200000000.000000      3.717499000000000E-01     -1.366162000000000E+01      4.906921000000000E-01      1.143921000000000E+00
4220000000.000000      3.673706000000000E-01     -2.081152000000000E+01      6.441345000000000E-01     -1.144238000000000E+01
4240000000.000000      3.475800000000000E-01     -2.834375000000000E+01      7.222595000000000E-01     -2.802637000000000E+01
4260000000.000000      3.084259000000000E-01     -3.397851000000000E+01      7.431030000000000E-01     -4.231835000000000E+01
4280000000.000000      2.587585000000000E-01     -3.502344000000000E+01      7.507324000000000E-01     -5.609375000000000E+01
4300000000.000000      2.222137000000000E-01     -2.664063000000000E+01      7.117004000000000E-01     -7.099999000000000E+01
4320000000.000000      2.372437000000000E-01     -1.411230000000000E+01      6.285706000000000E-01     -8.539063000000000E+01
4340000000.000000      2.955475000000000E-01     -1.050049000000000E+01      5.119629000000000E-01     -9.796093000000000E+01
4360000000.000000      3.607330000000000E-01     -1.572705000000000E+01      3.772125000000000E-01     -1.068555000000000E+02
4380000000.000000      4.062195000000000E-01     -2.480469000000000E+01      2.466812000000000E-01     -1.076836000000000E+02
4400000000.000000      4.268188000000000E-01     -3.468554000000000E+01      1.533508000000000E-01     -8.361719000000000E+01
4420000000.000000      4.249268000000000E-01     -4.398438000000000E+01      1.909790000000000E-01     -4.503125000000000E+01
4440000000.000000      4.086304000000000E-01     -5.187500000000000E+01      3.141327000000000E-01     -3.629297000000000E+01
4460000000.000000      3.873596000000000E-01     -5.859179000000000E+01      4.558411000000000E-01     -4.366015000000000E+01
4480000000.000000      3.685150000000000E-01     -6.505468000000000E+01      5.636292000000000E-01     -5.565430000000000E+01
4500000000.000000      3.459015000000000E-01     -7.178124000000000E+01      6.445007000000000E-01     -6.718750000000000E+01
4520000000.000000      3.117218000000000E-01     -7.955078000000000E+01      7.163086000000000E-01     -8.028515000000000E+01
4540000000.000000      2.595978000000000E-01     -8.562500000000000E+01      7.416077000000000E-01     -9.469921000000000E+01
4560000000.000000      1.987686000000000E-01     -8.350780000000000E+01      7.279358000000000E-01     -1.080039000000000E+02
4580000000.000000      1.736679000000000E-01     -6.707812000000000E+01      6.884766000000000E-01     -1.217656000000000E+02
4600000000.000000      2.127991000000000E-01     -5.337891000000000E+01      6.035156000000000E-01     -1.349609000000000E+02
4620000000.000000      2.779083000000000E-01     -5.507813000000000E+01      4.954681000000000E-01     -1.451250000000000E+02
4640000000.000000      3.304138000000000E-01     -6.515234000000000E+01      3.765869000000000E-01     -1.534141000000000E+02
4660000000.000000      3.530121000000000E-01     -7.852734000000000E+01      2.440033000000000E-01     -1.510156000000000E+02
4680000000.000000      3.437500000000000E-01     -9.243359000000000E+01      1.805573000000000E-01     -1.222773000000000E+02
4700000000.000000      3.060455000000000E-01     -1.055781000000000E+02      2.526703000000000E-01     -9.649218000000000E+01
4720000000.000000      2.497559000000000E-01     -1.157734000000000E+02      3.708344000000000E-01     -9.572266000000000E+01
4740000000.000000      1.881485000000000E-01     -1.208516000000000E+02      4.773865000000000E-01     -1.021680000000000E+02
4760000000.000000      1.372910000000000E-01     -1.161484000000000E+02      5.820923000000000E-01     -1.110156000000000E+02
4780000000.000000      1.127586000000000E-01     -9.991014000000000E+01      6.686707000000000E-01     -1.232187000000000E+02
4800000000.000000      1.195297000000000E-01     -8.244141000000000E+01      7.179565000000000E-01     -1.363203000000000E+02
4820000000.000000      1.490021000000000E-01     -7.341797000000000E+01      7.345581000000000E-01     -1.493594000000000E+02
4840000000.000000      1.896820000000000E-01     -7.349999000000000E+01      7.167053000000000E-01     -1.621797000000000E+02
4860000000.000000      2.336960000000000E-01     -8.028906000000000E+01      6.816101000000000E-01     -1.746094000000000E+02
4880000000.000000      2.706604000000000E-01     -9.104296000000000E+01      6.145935000000000E-01      1.715469000000000E+02
4900000000.000000      2.951355000000000E-01     -1.045898000000000E+02      4.922638000000000E-01      1.595469000000000E+02
4920000000.000000      3.006287000000000E-01     -1.195937000000000E+02      3.621216000000000E-01      1.532656000000000E+02
4940000000.000000      2.849884000000000E-01     -1.352344000000000E+02      2.486801000000000E-01      1.562813000000000E+02
4960000000.000000      2.536163000000000E-01     -1.503750000000000E+02      1.769791000000000E-01      1.783672000000000E+02
4980000000.000000      2.111130000000000E-01     -1.644297000000000E+02      2.175064000000000E-01     -1.507266000000000E+02
5000000000.000000      1.672287000000000E-01     -1.760469000000000E+02      3.328400000000000E-01     -1.437813000000000E+02
5020000000.000000      1.298752000000000E-01      1.740625000000000E+02      4.636688000000000E-01     -1.499375000000000E+02
5040000000.000000      9.991074000000000E-02      1.639531000000000E+02      5.719910000000000E-01     -1.607734000000000E+02
5060000000.000000      7.124329000000000E-02      1.487266000000000E+02      6.531067000000000E-01     -1.721875000000000E+02
5080000000.000000      4.044151000000000E-02      1.229570000000000E+02      7.200317000000000E-01      1.754766000000000E+02
5100000000.000000      1.585579000000000E-02      3.832226000000000E+01      7.565613000000000E-01      1.617734000000000E+02
5120000000.000000      4.177856000000000E-02     -5.282031000000000E+01      7.517395000000000E-01      1.474453000000000E+02
5140000000.000000      7.360077000000000E-02     -8.906250000000000E+01      7.018127000000000E-01      1.339766000000000E+02
5160000000.000000      9.711838000000000E-02     -1.199961000000000E+02      6.262512000000000E-01      1.217422000000000E+02
5180000000.000000      1.101685000000000E-01     -1.504453000000000E+02      5.284729000000000E-01      1.104062000000000E+02
5200000000.000000      1.124725000000000E-01      1.767187000000000E+02      4.120178000000000E-01      1.010273000000000E+02
5220000000.000000      1.098785000000000E-01      1.410234000000000E+02      2.787933000000000E-01      9.850389000000000E+01
5240000000.000000      1.090851000000000E-01      1.050508000000000E+02      1.823044000000000E-01      1.165508000000000E+02
5260000000.000000      1.135483000000000E-01      7.168750000000000E+01      1.990280000000000E-01      1.503594000000000E+02
5280000000.000000      1.204376000000000E-01      4.504296000000000E+01      3.007355000000000E-01      1.605703000000000E+02
5300000000.000000      1.274643000000000E-01      2.448535000000000E+01      4.135284000000000E-01      1.577891000000000E+02
5320000000.000000      1.337509000000000E-01      8.224609000000000E+00      5.309753000000000E-01      1.500781000000000E+02
5340000000.000000      1.393127000000000E-01     -6.114014000000000E+00      6.416626000000000E-01      1.381172000000000E+02
5360000000.000000      1.433334000000000E-01     -2.194726000000000E+01      7.068481000000000E-01      1.237148000000000E+02
5380000000.000000      1.385803000000000E-01     -3.952539000000000E+01      7.171021000000000E-01      1.102851000000000E+02
5400000000.000000      1.187363000000000E-01     -5.788867000000000E+01      7.169189000000000E-01      9.862108000000000E+01
5420000000.000000      8.305740000000000E-02     -7.461328000000000E+01      7.027588000000000E-01      8.550390000000000E+01
5440000000.000000      2.923203000000000E-02     -7.805859000000000E+01      6.447449000000000E-01      7.124609000000000E+01
5460000000.000000      4.503059000000000E-02      3.919140000000000E+01      5.355225000000000E-01      5.832031000000000E+01
5480000000.000000      1.143913000000000E-01      3.055761000000000E+01      4.079742000000000E-01      4.922461000000000E+01
5500000000.000000      1.767044000000000E-01      1.513623000000000E+01      2.885284000000000E-01      4.761914000000000E+01
5520000000.000000      2.212982000000000E-01      2.444458000000000E-01      1.936035000000000E-01      6.010351000000000E+01
5540000000.000000      2.524261000000000E-01     -1.343506000000000E+01      1.835938000000000E-01      9.189453000000000E+01
5560000000.000000      2.702637000000000E-01     -2.529199000000000E+01      2.668457000000000E-01      1.087500000000000E+02
5580000000.000000      2.827301000000000E-01     -3.524023000000000E+01      3.888855000000000E-01      1.083242000000000E+02
5600000000.000000      2.942047000000000E-01     -4.407031000000000E+01      5.103455000000000E-01      9.928905000000000E+01
5620000000.000000      3.046417000000000E-01     -5.331249000000000E+01      5.984802000000000E-01      8.676172000000000E+01
5640000000.000000      3.075562000000000E-01     -6.302539000000000E+01      6.487122000000000E-01      7.486328000000000E+01
5660000000.000000      2.974091000000000E-01     -7.374609000000000E+01      6.849670000000000E-01      6.341797000000000E+01
5680000000.000000      2.667999000000000E-01     -8.405077000000000E+01      6.991577000000000E-01      5.068359000000000E+01
5700000000.000000      2.185898000000000E-01     -9.120312000000000E+01      6.815796000000000E-01      3.831445000000000E+01
5720000000.000000      1.686096000000000E-01     -8.932032000000000E+01      6.406860000000000E-01      2.547266000000000E+01
5740000000.000000      1.496048000000000E-01     -7.453125000000000E+01      5.620117000000000E-01      1.235645000000000E+01
5760000000.000000      1.799698000000000E-01     -6.345703000000000E+01      4.458923000000000E-01      9.928894000000000E-01
5780000000.000000      2.261887000000000E-01     -6.545312000000000E+01      3.122711000000000E-01     -3.652954000000000E+00
5800000000.000000      2.576904000000000E-01     -7.333984000000000E+01      2.057037000000000E-01      7.988281000000000E+00
5820000000.000000      2.668152000000000E-01     -8.257421000000000E+01      1.915283000000000E-01      3.869141000000000E+01
5840000000.000000      2.559509000000000E-01     -9.112499000000000E+01      2.755585000000000E-01      5.415429000000000E+01
5860000000.000000      2.380524000000000E-01     -9.650000000000000E+01      3.751221000000000E-01      5.380664000000000E+01
5880000000.000000      2.231140000000000E-01     -9.992188000000000E+01      4.818268000000000E-01      4.822656000000000E+01
5900000000.000000      2.155914000000000E-01     -1.022812000000000E+02      5.983276000000000E-01      3.792773000000000E+01
5920000000.000000      2.068634000000000E-01     -1.050859000000000E+02      6.738281000000000E-01      2.397070000000000E+01
5940000000.000000      1.934738000000000E-01     -1.069961000000000E+02      7.025146000000000E-01      1.083105000000000E+01
5960000000.000000      1.758804000000000E-01     -1.049414000000000E+02      7.143860000000000E-01     -1.945984000000000E+00
5980000000.000000      1.657867000000000E-01     -9.692577000000000E+01      6.878662000000000E-01     -1.596045000000000E+01
6000000000.000000      1.827545000000000E-01     -8.801561000000000E+01      6.246643000000000E-01     -2.935351000000000E+01
6020000000.000000      2.176666000000000E-01     -8.641016000000000E+01      5.244751000000000E-01     -4.187109000000000E+01
6040000000.000000      2.529449000000000E-01     -9.173828000000000E+01      3.951874000000000E-01     -4.980078000000000E+01
6060000000.000000      2.758789000000000E-01     -1.010039000000000E+02      2.818146000000000E-01     -4.930664000000000E+01
6080000000.000000      2.853088000000000E-01     -1.112187000000000E+02      2.043686000000000E-01     -3.483593000000000E+01
