! Network Analyzer HP8722D
! Hewlett-Packard
! Data name: Linha & Wilkinson+CNT
! Saver's name: Rodrigo Anjos
! Comments: Teste da utilização de aquisição
continua pelo VNA HP8722D
! Time and date: 29/9/2025 14:26
!              Frequency                     S11                                                   S21                                                   S12                                                   S22
# HZ  S  MA R 50
3000000000.000000      4.251556000000000E-01     -5.567187000000000E+01      2.060928000000000E-01     -1.316094000000000E+02
3020000000.000000      4.470673000000000E-01     -6.964844000000000E+01      3.498993000000000E-01     -1.350078000000000E+02
3040000000.000000      4.531097000000000E-01     -8.298437000000000E+01      4.675446000000000E-01     -1.447969000000000E+02
3060000000.000000      4.447327000000000E-01     -9.485155000000000E+01      5.713806000000000E-01     -1.551250000000000E+02
3080000000.000000      4.291992000000000E-01     -1.061797000000000E+02      6.727295000000000E-01     -1.683203000000000E+02
3100000000.000000      4.089966000000000E-01     -1.174180000000000E+02      7.232971000000000E-01      1.769531000000000E+02
3120000000.000000      3.795776000000000E-01     -1.292500000000000E+02      7.320862000000000E-01      1.635000000000000E+02
3140000000.000000      3.394165000000000E-01     -1.423516000000000E+02      7.239075000000000E-01      1.506797000000000E+02
3160000000.000000      2.786102000000000E-01     -1.562891000000000E+02      6.853638000000000E-01      1.370312000000000E+02
3180000000.000000      2.003174000000000E-01     -1.690391000000000E+02      6.149292000000000E-01      1.245937000000000E+02
3200000000.000000      1.120148000000000E-01     -1.699297000000000E+02      5.203857000000000E-01      1.115977000000000E+02
3220000000.000000      7.933807000000000E-02     -1.248281000000000E+02      3.864136000000000E-01      1.009062000000000E+02
3240000000.000000      1.499176000000000E-01     -1.047422000000000E+02      2.484055000000000E-01      9.947266000000000E+01
3260000000.000000      2.298279000000000E-01     -1.150312000000000E+02      1.472092000000000E-01      1.249726000000000E+02
3280000000.000000      2.868347000000000E-01     -1.307031000000000E+02      2.018051000000000E-01      1.651719000000000E+02
3300000000.000000      3.204346000000000E-01     -1.471016000000000E+02      3.288574000000000E-01      1.696250000000000E+02
3320000000.000000      3.322449000000000E-01     -1.630000000000000E+02      4.618073000000000E-01      1.626328000000000E+02
3340000000.000000      3.287201000000000E-01     -1.783906000000000E+02      5.735779000000000E-01      1.505625000000000E+02
3360000000.000000      3.169861000000000E-01      1.667891000000000E+02      6.457520000000000E-01      1.384609000000000E+02
3380000000.000000      3.010101000000000E-01      1.524609000000000E+02      7.092285000000000E-01      1.271875000000000E+02
3400000000.000000      2.786407000000000E-01      1.378281000000000E+02      7.578735000000000E-01      1.132461000000000E+02
3420000000.000000      2.437286000000000E-01      1.228477000000000E+02      7.483826000000000E-01      9.856640000000000E+01
3440000000.000000      1.908646000000000E-01      1.080625000000000E+02      7.055969000000000E-01      8.560938000000000E+01
3460000000.000000      1.207504000000000E-01      9.707031000000000E+01      6.470947000000000E-01      7.255077000000000E+01
3480000000.000000      4.807472000000000E-02      1.201250000000000E+02      5.509644000000000E-01      5.908789000000000E+01
3500000000.000000      9.106827000000000E-02     -1.742812000000000E+02      4.273834000000000E-01      4.757617000000000E+01
3520000000.000000      1.828384000000000E-01      1.790859000000000E+02      2.801208000000000E-01      4.041992000000000E+01
3540000000.000000      2.620850000000000E-01      1.629375000000000E+02      1.480255000000000E-01      5.781836000000000E+01
3560000000.000000      3.222656000000000E-01      1.460000000000000E+02      1.658173000000000E-01      1.074609000000000E+02
3580000000.000000      3.594513000000000E-01      1.299609000000000E+02      2.932587000000000E-01      1.175469000000000E+02
3600000000.000000      3.761597000000000E-01      1.152148000000000E+02      4.181976000000000E-01      1.106992000000000E+02
3620000000.000000      3.778229000000000E-01      1.027187000000000E+02      5.205078000000000E-01      1.012617000000000E+02
3640000000.000000      3.681335000000000E-01      9.144531000000000E+01      6.215210000000000E-01      9.015234000000000E+01
3660000000.000000      3.526764000000000E-01      8.112108000000000E+01      6.930237000000000E-01      7.569530000000000E+01
3680000000.000000      3.299561000000000E-01      7.194921000000000E+01      7.111511000000000E-01      6.279491000000000E+01
3700000000.000000      2.994995000000000E-01      6.370507000000000E+01      7.207031000000000E-01      5.117188000000000E+01
3720000000.000000      2.556305000000000E-01      5.762695000000000E+01      7.245483000000000E-01      3.695898000000000E+01
3740000000.000000      2.051163000000000E-01      5.834374000000000E+01      6.637268000000000E-01      2.147754000000000E+01
3760000000.000000      1.779175000000000E-01      7.222656000000000E+01      5.675964000000000E-01      7.242676000000000E+00
3780000000.000000      2.111206000000000E-01      8.737108000000000E+01      4.373169000000000E-01     -5.995850000000000E+00
3800000000.000000      2.812500000000000E-01      8.905859000000000E+01      2.839508000000000E-01     -1.354932000000000E+01
3820000000.000000      3.493652000000000E-01      8.268358000000000E+01      1.544266000000000E-01     -7.814026000000000E-01
3840000000.000000      4.000702000000000E-01      7.392187000000000E+01      1.418457000000000E-01      4.748047000000000E+01
3860000000.000000      4.350433000000000E-01      6.535937000000000E+01      2.449799000000000E-01      6.533203000000000E+01
3880000000.000000      4.598236000000000E-01      5.779687000000000E+01      3.750305000000000E-01      6.122851000000000E+01
3900000000.000000      4.896393000000000E-01      5.078515000000000E+01      4.760590000000000E-01      4.789648000000000E+01
3920000000.000000      5.193787000000000E-01      4.331055000000000E+01      5.080872000000000E-01      3.614062000000000E+01
3940000000.000000      5.496521000000000E-01      3.432422000000000E+01      5.387573000000000E-01      2.953906000000000E+01
3960000000.000000      5.594788000000000E-01      2.411718000000000E+01      5.942688000000000E-01      2.022656000000000E+01
3980000000.000000      5.541077000000000E-01      1.349658000000000E+01      5.976257000000000E-01      8.232422000000000E+00
4000000000.000000      5.287476000000000E-01      3.275269000000000E+00      5.805359000000000E-01      1.451538000000000E+00
4020000000.000000      4.848328000000000E-01     -6.784180000000000E+00      5.979004000000000E-01     -6.407959000000000E+00
4040000000.000000      4.262238000000000E-01     -1.569287000000000E+01      5.852966000000000E-01     -1.856055000000000E+01
4060000000.000000      3.506165000000000E-01     -2.183300000000000E+01      5.277100000000000E-01     -2.884277000000000E+01
4080000000.000000      2.761230000000000E-01     -2.183203000000000E+01      4.700165000000000E-01     -3.817578000000000E+01
4100000000.000000      2.290955000000000E-01     -1.149463000000000E+01      3.674774000000000E-01     -4.745703000000000E+01
4120000000.000000      2.413101000000000E-01      1.818237000000000E+00      2.508698000000000E-01     -4.436913000000000E+01
4140000000.000000      2.892456000000000E-01      5.196533000000000E+00      2.028046000000000E-01     -2.043945000000000E+01
4160000000.000000      3.341827000000000E-01      1.051941000000000E+00      2.620697000000000E-01     -2.169800000000000E-01
4180000000.000000      3.610382000000000E-01     -5.818848000000000E+00      3.562622000000000E-01      3.805298000000000E+00
4200000000.000000      3.713837000000000E-01     -1.364941000000000E+01      4.873199000000000E-01      1.535339000000000E+00
4220000000.000000      3.673553000000000E-01     -2.078418000000000E+01      6.405640000000000E-01     -1.090137000000000E+01
4240000000.000000      3.484802000000000E-01     -2.832031000000000E+01      7.216187000000000E-01     -2.759570000000000E+01
4260000000.000000      3.102264000000000E-01     -3.407422000000000E+01      7.428894000000000E-01     -4.172265000000000E+01
4280000000.000000      2.603607000000000E-01     -3.541211000000000E+01      7.509460000000000E-01     -5.561523000000000E+01
4300000000.000000      2.226715000000000E-01     -2.758594000000000E+01      7.165833000000000E-01     -7.066406000000000E+01
4320000000.000000      2.348099000000000E-01     -1.473291000000000E+01      6.350098000000000E-01     -8.489452000000000E+01
4340000000.000000      2.928772000000000E-01     -1.055811000000000E+01      5.172424000000000E-01     -9.798828000000000E+01
4360000000.000000      3.579407000000000E-01     -1.554053000000000E+01      3.826294000000000E-01     -1.069570000000000E+02
4380000000.000000      4.051514000000000E-01     -2.449902000000000E+01      2.515717000000000E-01     -1.082187000000000E+02
4400000000.000000      4.259186000000000E-01     -3.439453000000000E+01      1.536026000000000E-01     -8.571093000000000E+01
4420000000.000000      4.248047000000000E-01     -4.380664000000000E+01      1.863861000000000E-01     -4.573632000000000E+01
4440000000.000000      4.080353000000000E-01     -5.196875000000000E+01      3.088379000000000E-01     -3.606836000000000E+01
4460000000.000000      3.872528000000000E-01     -5.830859000000000E+01      4.513702000000000E-01     -4.328906000000000E+01
4480000000.000000      3.668060000000000E-01     -6.481250000000000E+01      5.593567000000000E-01     -5.534765000000000E+01
4500000000.000000      3.473358000000000E-01     -7.152734000000000E+01      6.416321000000000E-01     -6.658593000000000E+01
4520000000.000000      3.137207000000000E-01     -7.925781000000000E+01      7.151184000000000E-01     -7.960155000000000E+01
4540000000.000000      2.629700000000000E-01     -8.554296000000000E+01      7.417297000000000E-01     -9.428125000000000E+01
4560000000.000000      2.017899000000000E-01     -8.405468000000000E+01      7.289429000000000E-01     -1.075469000000000E+02
4580000000.000000      1.743393000000000E-01     -6.819530000000000E+01      6.921387000000000E-01     -1.214141000000000E+02
4600000000.000000      2.110596000000000E-01     -5.397461000000000E+01      6.071472000000000E-01     -1.346484000000000E+02
4620000000.000000      2.761383000000000E-01     -5.508203000000000E+01      5.006409000000000E-01     -1.450781000000000E+02
4640000000.000000      3.303528000000000E-01     -6.494922000000000E+01      3.806915000000000E-01     -1.533984000000000E+02
4660000000.000000      3.549194000000000E-01     -7.828125000000000E+01      2.480011000000000E-01     -1.520547000000000E+02
4680000000.000000      3.462982000000000E-01     -9.222265000000000E+01      1.786041000000000E-01     -1.240117000000000E+02
4700000000.000000      3.099976000000000E-01     -1.054375000000000E+02      2.461700000000000E-01     -9.678905000000000E+01
4720000000.000000      2.539520000000000E-01     -1.161172000000000E+02      3.650665000000000E-01     -9.530468000000000E+01
4740000000.000000      1.917191000000000E-01     -1.215039000000000E+02      4.723663000000000E-01     -1.015391000000000E+02
4760000000.000000      1.392899000000000E-01     -1.178984000000000E+02      5.793457000000000E-01     -1.104023000000000E+02
4780000000.000000      1.121826000000000E-01     -1.020351000000000E+02      6.662903000000000E-01     -1.227422000000000E+02
4800000000.000000      1.176834000000000E-01     -8.437500000000000E+01      7.165527000000000E-01     -1.356484000000000E+02
4820000000.000000      1.460495000000000E-01     -7.412499000000000E+01      7.375793000000000E-01     -1.489844000000000E+02
4840000000.000000      1.864243000000000E-01     -7.363281000000000E+01      7.191467000000000E-01     -1.616406000000000E+02
4860000000.000000      2.302856000000000E-01     -8.015625000000000E+01      6.846313000000000E-01     -1.741562000000000E+02
4880000000.000000      2.682495000000000E-01     -9.057421000000000E+01      6.186829000000000E-01      1.720859000000000E+02
4900000000.000000      2.933655000000000E-01     -1.041250000000000E+02      4.974976000000000E-01      1.600000000000000E+02
4920000000.000000      2.998810000000000E-01     -1.190898000000000E+02      3.659058000000000E-01      1.535078000000000E+02
4940000000.000000      2.855988000000000E-01     -1.347265000000000E+02      2.533112000000000E-01      1.557109000000000E+02
4960000000.000000      2.548828000000000E-01     -1.499531000000000E+02      1.773758000000000E-01      1.767187000000000E+02
4980000000.000000      2.132416000000000E-01     -1.642969000000000E+02      2.130814000000000E-01     -1.514141000000000E+02
5000000000.000000      1.687698000000000E-01     -1.760703000000000E+02      3.284149000000000E-01     -1.436016000000000E+02
5020000000.000000      1.310577000000000E-01      1.739063000000000E+02      4.588623000000000E-01     -1.494297000000000E+02
5040000000.000000      1.004333000000000E-01      1.635625000000000E+02      5.701294000000000E-01     -1.603594000000000E+02
5060000000.000000      7.257843000000000E-02      1.488594000000000E+02      6.494446000000000E-01     -1.717422000000000E+02
5080000000.000000      4.196167000000000E-02      1.229570000000000E+02      7.169800000000000E-01      1.761094000000000E+02
5100000000.000000      1.698685000000000E-02      4.461133000000000E+01      7.566528000000000E-01      1.622969000000000E+02
5120000000.000000      4.066467000000000E-02     -5.061328000000000E+01      7.545471000000000E-01      1.480781000000000E+02
5140000000.000000      7.209015000000000E-02     -8.719530000000000E+01      7.041321000000000E-01      1.342969000000000E+02
5160000000.000000      9.614563000000000E-02     -1.185390000000000E+02      6.293335000000000E-01      1.220351000000000E+02
5180000000.000000      1.094627000000000E-01     -1.491250000000000E+02      5.351257000000000E-01      1.106367000000000E+02
5200000000.000000      1.126099000000000E-01      1.782187000000000E+02      4.178314000000000E-01      1.010898000000000E+02
5220000000.000000      1.099930000000000E-01      1.423984000000000E+02      2.846832000000000E-01      9.810156000000000E+01
5240000000.000000      1.089325000000000E-01      1.061016000000000E+02      1.844254000000000E-01      1.147500000000000E+02
5260000000.000000      1.133423000000000E-01      7.277344000000000E+01      1.948776000000000E-01      1.490625000000000E+02
5280000000.000000      1.207161000000000E-01      4.603125000000000E+01      2.946167000000000E-01      1.606328000000000E+02
5300000000.000000      1.271973000000000E-01      2.533300000000000E+01      4.083710000000000E-01      1.582031000000000E+02
5320000000.000000      1.331482000000000E-01      8.727051000000000E+00      5.265808000000000E-01      1.505859000000000E+02
5340000000.000000      1.388321000000000E-01     -5.600342000000000E+00      6.377258000000000E-01      1.386406000000000E+02
5360000000.000000      1.435623000000000E-01     -2.124902000000000E+01      7.036133000000000E-01      1.242226000000000E+02
5380000000.000000      1.387863000000000E-01     -3.870312000000000E+01      7.175293000000000E-01      1.108398000000000E+02
5400000000.000000      1.204224000000000E-01     -5.675390000000000E+01      7.194214000000000E-01      9.908592000000000E+01
5420000000.000000      8.517838000000000E-02     -7.362499000000000E+01      7.063293000000000E-01      8.601563000000000E+01
5440000000.000000      3.104305000000000E-02     -7.903906000000000E+01      6.505432000000000E-01      7.185547000000000E+01
5460000000.000000      4.248810000000000E-02      3.870703000000000E+01      5.413818000000000E-01      5.872070000000000E+01
5480000000.000000      1.122475000000000E-01      3.121484000000000E+01      4.148560000000000E-01      4.929688000000000E+01
5500000000.000000      1.749115000000000E-01      1.578857000000000E+01      2.942963000000000E-01      4.707227000000000E+01
5520000000.000000      2.208633000000000E-01      8.912659000000000E-01      1.964340000000000E-01      5.867969000000000E+01
5540000000.000000      2.519379000000000E-01     -1.283105000000000E+01      1.800766000000000E-01      9.039843000000000E+01
5560000000.000000      2.700348000000000E-01     -2.488086000000000E+01      2.609100000000000E-01      1.086992000000000E+02
5580000000.000000      2.826538000000000E-01     -3.481054000000000E+01      3.831024000000000E-01      1.085586000000000E+02
5600000000.000000      2.936859000000000E-01     -4.374804000000000E+01      5.062866000000000E-01      9.979296000000000E+01
5620000000.000000      3.041229000000000E-01     -5.285156000000000E+01      5.959167000000000E-01      8.722265000000000E+01
5640000000.000000      3.078766000000000E-01     -6.255077000000000E+01      6.461182000000000E-01      7.523828000000000E+01
5660000000.000000      2.986145000000000E-01     -7.324219000000000E+01      6.850891000000000E-01      6.395117000000000E+01
5680000000.000000      2.691345000000000E-01     -8.375000000000000E+01      6.994324000000000E-01      5.111523000000000E+01
5700000000.000000      2.220383000000000E-01     -9.115625000000000E+01      6.839600000000000E-01      3.886719000000000E+01
5720000000.000000      1.712112000000000E-01     -8.985546000000000E+01      6.446228000000000E-01      2.606445000000000E+01
5740000000.000000      1.493835000000000E-01     -7.560156000000000E+01      5.673523000000000E-01      1.285645000000000E+01
5760000000.000000      1.778717000000000E-01     -6.375781000000000E+01      4.514771000000000E-01      1.238708000000000E+00
5780000000.000000      2.240677000000000E-01     -6.513672000000000E+01      3.183136000000000E-01     -4.297119000000000E+00
5800000000.000000      2.568970000000000E-01     -7.296093000000000E+01      2.089310000000000E-01      6.650635000000000E+00
5820000000.000000      2.661896000000000E-01     -8.235937000000000E+01      1.888657000000000E-01      3.695508000000000E+01
5840000000.000000      2.567444000000000E-01     -9.087109000000000E+01      2.694702000000000E-01      5.385351000000000E+01
5860000000.000000      2.384262000000000E-01     -9.649218000000000E+01      3.706512000000000E-01      5.409374000000000E+01
5880000000.000000      2.245865000000000E-01     -9.986328000000000E+01      4.776001000000000E-01      4.880664000000000E+01
5900000000.000000      2.168198000000000E-01     -1.023281000000000E+02      5.933533000000000E-01      3.875586000000000E+01
5920000000.000000      2.087250000000000E-01     -1.049766000000000E+02      6.719360000000000E-01      2.474512000000000E+01
5940000000.000000      1.953812000000000E-01     -1.070742000000000E+02      7.015381000000000E-01      1.140234000000000E+01
5960000000.000000      1.777649000000000E-01     -1.052773000000000E+02      7.149658000000000E-01     -1.301880000000000E+00
5980000000.000000      1.654816000000000E-01     -9.762108000000000E+01      6.918335000000000E-01     -1.512451000000000E+01
6000000000.000000      1.806259000000000E-01     -8.848047000000000E+01      6.291809000000000E-01     -2.890918000000000E+01
6020000000.000000      2.150116000000000E-01     -8.646484000000000E+01      5.317078000000000E-01     -4.160546000000000E+01
6040000000.000000      2.508392000000000E-01     -9.162889000000000E+01      4.019470000000000E-01     -4.982616000000000E+01
6060000000.000000      2.751923000000000E-01     -1.007227000000000E+02      2.874908000000000E-01     -4.986133000000000E+01
6080000000.000000      2.850800000000000E-01     -1.108555000000000E+02      2.062988000000000E-01     -3.634375000000000E+01
