! Network Analyzer HP8722D
! Hewlett-Packard
! Data name: Linha & Wilkinson+CNT
! Saver's name: Rodrigo Anjos
! Comments: Teste da utilização de aquisição
continua pelo VNA HP8722D
! Time and date: 29/9/2025 16:23
!              Frequency                     S11                                                   S21                                                   S12                                                   S22
# HZ  S  MA R 50
3000000000.000000      4.248352000000000E-01     -5.555273000000000E+01      2.061920000000000E-01     -1.314453000000000E+02
3020000000.000000      4.493256000000000E-01     -6.972265000000000E+01      3.495331000000000E-01     -1.349219000000000E+02
3040000000.000000      4.551392000000000E-01     -8.273046000000000E+01      4.678650000000000E-01     -1.446719000000000E+02
3060000000.000000      4.445343000000000E-01     -9.477734000000000E+01      5.722656000000000E-01     -1.550625000000000E+02
3080000000.000000      4.297028000000000E-01     -1.060039000000000E+02      6.738281000000000E-01     -1.682422000000000E+02
3100000000.000000      4.091187000000000E-01     -1.172461000000000E+02      7.245178000000000E-01      1.770000000000000E+02
3120000000.000000      3.800659000000000E-01     -1.292109000000000E+02      7.325745000000000E-01      1.635547000000000E+02
3140000000.000000      3.388977000000000E-01     -1.422500000000000E+02      7.241211000000000E-01      1.506562000000000E+02
3160000000.000000      2.790375000000000E-01     -1.562187000000000E+02      6.835632000000000E-01      1.370469000000000E+02
3180000000.000000      1.997299000000000E-01     -1.690781000000000E+02      6.147766000000000E-01      1.245195000000000E+02
3200000000.000000      1.120148000000000E-01     -1.700859000000000E+02      5.214844000000000E-01      1.116562000000000E+02
3220000000.000000      7.888412000000000E-02     -1.245586000000000E+02      3.876190000000000E-01      1.007930000000000E+02
3240000000.000000      1.496964000000000E-01     -1.047578000000000E+02      2.480774000000000E-01      9.954687000000000E+01
3260000000.000000      2.293472000000000E-01     -1.150625000000000E+02      1.478119000000000E-01      1.248789000000000E+02
3280000000.000000      2.876587000000000E-01     -1.305312000000000E+02      2.022400000000000E-01      1.652500000000000E+02
3300000000.000000      3.204193000000000E-01     -1.469453000000000E+02      3.291016000000000E-01      1.696797000000000E+02
3320000000.000000      3.319244000000000E-01     -1.628594000000000E+02      4.626160000000000E-01      1.626953000000000E+02
3340000000.000000      3.282623000000000E-01     -1.782891000000000E+02      5.743713000000000E-01      1.507266000000000E+02
3360000000.000000      3.169708000000000E-01      1.669219000000000E+02      6.457825000000000E-01      1.384766000000000E+02
3380000000.000000      3.005219000000000E-01      1.524922000000000E+02      7.084656000000000E-01      1.271719000000000E+02
3400000000.000000      2.787781000000000E-01      1.379609000000000E+02      7.587280000000000E-01      1.133789000000000E+02
3420000000.000000      2.440109000000000E-01      1.230078000000000E+02      7.510681000000000E-01      9.842186000000000E+01
3440000000.000000      1.908112000000000E-01      1.082031000000000E+02      7.063599000000000E-01      8.559374000000000E+01
3460000000.000000      1.205215000000000E-01      9.748047000000000E+01      6.492920000000000E-01      7.262890000000000E+01
3480000000.000000      4.841614000000000E-02      1.202383000000000E+02      5.511169000000000E-01      5.915234000000000E+01
3500000000.000000      9.105682000000000E-02     -1.742812000000000E+02      4.266357000000000E-01      4.771484000000000E+01
3520000000.000000      1.829681000000000E-01      1.792266000000000E+02      2.801819000000000E-01      4.042578000000000E+01
3540000000.000000      2.624054000000000E-01      1.630078000000000E+02      1.480103000000000E-01      5.792773000000000E+01
3560000000.000000      3.227081000000000E-01      1.460078000000000E+02      1.658173000000000E-01      1.075352000000000E+02
3580000000.000000      3.595428000000000E-01      1.299922000000000E+02      2.935333000000000E-01      1.175664000000000E+02
3600000000.000000      3.756561000000000E-01      1.153672000000000E+02      4.186707000000000E-01      1.108203000000000E+02
3620000000.000000      3.780060000000000E-01      1.027851000000000E+02      5.198669000000000E-01      1.012109000000000E+02
3640000000.000000      3.694305000000000E-01      9.140234000000000E+01      6.222839000000000E-01      9.021875000000000E+01
3660000000.000000      3.526611000000000E-01      8.125391000000000E+01      6.927185000000000E-01      7.585546000000000E+01
3680000000.000000      3.302612000000000E-01      7.207031000000000E+01      7.105713000000000E-01      6.282617000000000E+01
3700000000.000000      2.999725000000000E-01      6.376562000000000E+01      7.211914000000000E-01      5.120117000000000E+01
3720000000.000000      2.561798000000000E-01      5.766015000000000E+01      7.239990000000000E-01      3.689062000000000E+01
3740000000.000000      2.055969000000000E-01      5.839648000000000E+01      6.642456000000000E-01      2.159472000000000E+01
3760000000.000000      1.782074000000000E-01      7.230078000000000E+01      5.678101000000000E-01      7.198730000000000E+00
3780000000.000000      2.111435000000000E-01      8.735155000000000E+01      4.385223000000000E-01     -6.114014000000000E+00
3800000000.000000      2.819061000000000E-01      8.912500000000000E+01      2.837677000000000E-01     -1.342432000000000E+01
3820000000.000000      3.496857000000000E-01      8.276562000000000E+01      1.544113000000000E-01     -8.157349000000000E-01
3840000000.000000      4.005737000000000E-01      7.404687000000000E+01      1.423264000000000E-01      4.747460000000000E+01
3860000000.000000      4.355164000000000E-01      6.549609000000000E+01      2.450790000000000E-01      6.541797000000000E+01
3880000000.000000      4.608002000000000E-01      5.794531000000000E+01      3.750000000000000E-01      6.115039000000000E+01
3900000000.000000      4.898224000000000E-01      5.087500000000000E+01      4.762421000000000E-01      4.798242000000000E+01
3920000000.000000      5.196228000000000E-01      4.338281000000000E+01      5.091858000000000E-01      3.596680000000000E+01
3940000000.000000      5.488281000000000E-01      3.417383000000000E+01      5.393982000000000E-01      2.962695000000000E+01
3960000000.000000      5.596313000000000E-01      2.420605000000000E+01      5.962219000000000E-01      2.013574000000000E+01
3980000000.000000      5.540161000000000E-01      1.369678000000000E+01      5.983582000000000E-01      8.257324000000000E+00
4000000000.000000      5.277405000000000E-01      3.284912000000000E+00      5.802307000000000E-01      1.323853000000000E+00
4020000000.000000      4.851837000000000E-01     -6.711426000000000E+00      5.981140000000000E-01     -6.491699000000000E+00
4040000000.000000      4.262695000000000E-01     -1.557324000000000E+01      5.876160000000000E-01     -1.871680000000000E+01
4060000000.000000      3.508911000000000E-01     -2.168750000000000E+01      5.284424000000000E-01     -2.880664000000000E+01
4080000000.000000      2.747803000000000E-01     -2.182715000000000E+01      4.703217000000000E-01     -3.829687000000000E+01
4100000000.000000      2.285461000000000E-01     -1.119141000000000E+01      3.674927000000000E-01     -4.733984000000000E+01
4120000000.000000      2.415924000000000E-01      1.852539000000000E+00      2.503204000000000E-01     -4.422071000000000E+01
4140000000.000000      2.895508000000000E-01      5.288330000000000E+00      2.028503000000000E-01     -2.045410000000000E+01
4160000000.000000      3.334198000000000E-01      1.086243000000000E+00      2.620087000000000E-01     -1.606750000000000E-01
4180000000.000000      3.613434000000000E-01     -5.689697000000000E+00      3.562164000000000E-01      3.974243000000000E+00
4200000000.000000      3.717651000000000E-01     -1.353418000000000E+01      4.866333000000000E-01      1.520203000000000E+00
4220000000.000000      3.676758000000000E-01     -2.071094000000000E+01      6.405334000000000E-01     -1.086426000000000E+01
4240000000.000000      3.492126000000000E-01     -2.819531000000000E+01      7.216492000000000E-01     -2.762695000000000E+01
4260000000.000000      3.105774000000000E-01     -3.409375000000000E+01      7.435303000000000E-01     -4.160546000000000E+01
4280000000.000000      2.603760000000000E-01     -3.536914000000000E+01      7.530212000000000E-01     -5.541016000000000E+01
4300000000.000000      2.224808000000000E-01     -2.742676000000000E+01      7.159424000000000E-01     -7.045312000000000E+01
4320000000.000000      2.345047000000000E-01     -1.461182000000000E+01      6.343689000000000E-01     -8.502733000000000E+01
4340000000.000000      2.925873000000000E-01     -1.038623000000000E+01      5.176697000000000E-01     -9.776953000000000E+01
4360000000.000000      3.582458000000000E-01     -1.544971000000000E+01      3.835602000000000E-01     -1.068867000000000E+02
4380000000.000000      4.049225000000000E-01     -2.446191000000000E+01      2.516174000000000E-01     -1.082070000000000E+02
4400000000.000000      4.269409000000000E-01     -3.435351000000000E+01      1.538696000000000E-01     -8.578905000000000E+01
4420000000.000000      4.249725000000000E-01     -4.377343000000000E+01      1.860657000000000E-01     -4.575000000000000E+01
4440000000.000000      4.084778000000000E-01     -5.166797000000000E+01      3.087006000000000E-01     -3.601953000000000E+01
4460000000.000000      3.868103000000000E-01     -5.844727000000000E+01      4.507904000000000E-01     -4.321289000000000E+01
4480000000.000000      3.677063000000000E-01     -6.451562000000000E+01      5.599060000000000E-01     -5.518749000000000E+01
4500000000.000000      3.472748000000000E-01     -7.151562000000000E+01      6.422424000000000E-01     -6.669922000000000E+01
4520000000.000000      3.140717000000000E-01     -7.927734000000000E+01      7.145386000000000E-01     -7.961328000000000E+01
4540000000.000000      2.631073000000000E-01     -8.558985000000000E+01      7.422485000000000E-01     -9.416407000000000E+01
4560000000.000000      2.017059000000000E-01     -8.407030000000000E+01      7.307129000000000E-01     -1.074297000000000E+02
4580000000.000000      1.736908000000000E-01     -6.813281000000000E+01      6.928101000000000E-01     -1.213477000000000E+02
4600000000.000000      2.106705000000000E-01     -5.382617000000000E+01      6.083374000000000E-01     -1.344687000000000E+02
4620000000.000000      2.762299000000000E-01     -5.506836000000000E+01      5.008545000000000E-01     -1.451719000000000E+02
4640000000.000000      3.300934000000000E-01     -6.482812000000000E+01      3.816833000000000E-01     -1.534297000000000E+02
4660000000.000000      3.547668000000000E-01     -7.814453000000000E+01      2.478714000000000E-01     -1.519219000000000E+02
4680000000.000000      3.463745000000000E-01     -9.217577000000000E+01      1.787033000000000E-01     -1.239258000000000E+02
4700000000.000000      3.096008000000000E-01     -1.055078000000000E+02      2.466965000000000E-01     -9.673828000000000E+01
4720000000.000000      2.544556000000000E-01     -1.160508000000000E+02      3.647614000000000E-01     -9.534374000000000E+01
4740000000.000000      1.915436000000000E-01     -1.214844000000000E+02      4.728241000000000E-01     -1.015937000000000E+02
4760000000.000000      1.392899000000000E-01     -1.179414000000000E+02      5.780640000000000E-01     -1.103398000000000E+02
4780000000.000000      1.116905000000000E-01     -1.019453000000000E+02      6.666260000000000E-01     -1.226250000000000E+02
4800000000.000000      1.166649000000000E-01     -8.375780000000000E+01      7.182312000000000E-01     -1.355859000000000E+02
4820000000.000000      1.453400000000000E-01     -7.373828000000000E+01      7.362671000000000E-01     -1.488203000000000E+02
4840000000.000000      1.861038000000000E-01     -7.337109000000000E+01      7.197571000000000E-01     -1.615703000000000E+02
4860000000.000000      2.302246000000000E-01     -8.008204000000000E+01      6.844177000000000E-01     -1.740156000000000E+02
4880000000.000000      2.678833000000000E-01     -9.042969000000000E+01      6.177673000000000E-01      1.721719000000000E+02
4900000000.000000      2.942963000000000E-01     -1.038906000000000E+02      4.957581000000000E-01      1.598516000000000E+02
4920000000.000000      3.004150000000000E-01     -1.190625000000000E+02      3.670044000000000E-01      1.534609000000000E+02
4940000000.000000      2.860718000000000E-01     -1.347422000000000E+02      2.535095000000000E-01      1.558203000000000E+02
4960000000.000000      2.556305000000000E-01     -1.500156000000000E+02      1.773453000000000E-01      1.768437000000000E+02
4980000000.000000      2.130585000000000E-01     -1.641484000000000E+02      2.126694000000000E-01     -1.514062000000000E+02
5000000000.000000      1.688690000000000E-01     -1.759453000000000E+02      3.282928000000000E-01     -1.435156000000000E+02
5020000000.000000      1.310501000000000E-01      1.739922000000000E+02      4.595032000000000E-01     -1.495312000000000E+02
5040000000.000000      1.008720000000000E-01      1.639141000000000E+02      5.675049000000000E-01     -1.601172000000000E+02
5060000000.000000      7.221985000000000E-02      1.484766000000000E+02      6.506958000000000E-01     -1.716172000000000E+02
5080000000.000000      4.202271000000000E-02      1.228477000000000E+02      7.182007000000000E-01      1.761094000000000E+02
5100000000.000000      1.684666000000000E-02      4.394921000000000E+01      7.579651000000000E-01      1.624063000000000E+02
5120000000.000000      4.055977000000000E-02     -5.037304000000000E+01      7.549438000000000E-01      1.481328000000000E+02
5140000000.000000      7.250595000000000E-02     -8.712500000000000E+01      7.054749000000000E-01      1.345391000000000E+02
5160000000.000000      9.633636000000000E-02     -1.183320000000000E+02      6.296692000000000E-01      1.221445000000000E+02
5180000000.000000      1.096458000000000E-01     -1.489453000000000E+02      5.347900000000000E-01      1.109609000000000E+02
5200000000.000000      1.127205000000000E-01      1.784141000000000E+02      4.188538000000000E-01      1.012617000000000E+02
5220000000.000000      1.102295000000000E-01      1.426016000000000E+02      2.846527000000000E-01      9.816795000000000E+01
5240000000.000000      1.092224000000000E-01      1.065039000000000E+02      1.843109000000000E-01      1.146875000000000E+02
5260000000.000000      1.132317000000000E-01      7.289844000000000E+01      1.953049000000000E-01      1.491328000000000E+02
5280000000.000000      1.207542000000000E-01      4.620703000000000E+01      2.950134000000000E-01      1.606641000000000E+02
5300000000.000000      1.278076000000000E-01      2.538086000000000E+01      4.081268000000000E-01      1.581875000000000E+02
5320000000.000000      1.335678000000000E-01      8.742188000000000E+00      5.263977000000000E-01      1.507109000000000E+02
5340000000.000000      1.390686000000000E-01     -5.454834000000000E+00      6.376648000000000E-01      1.387656000000000E+02
5360000000.000000      1.434937000000000E-01     -2.116113000000000E+01      7.062683000000000E-01      1.242226000000000E+02
5380000000.000000      1.389847000000000E-01     -3.871875000000000E+01      7.175598000000000E-01      1.107734000000000E+02
5400000000.000000      1.203156000000000E-01     -5.693164000000000E+01      7.167053000000000E-01      9.922655000000000E+01
5420000000.000000      8.553696000000000E-02     -7.403515000000000E+01      7.063293000000000E-01      8.608984000000000E+01
5440000000.000000      3.162384000000000E-02     -7.977344000000000E+01      6.492920000000000E-01      7.181250000000000E+01
5460000000.000000      4.164314000000000E-02      3.887304000000000E+01      5.420532000000000E-01      5.842773000000000E+01
5480000000.000000      1.120453000000000E-01      3.127734000000000E+01      4.149170000000000E-01      4.937695000000000E+01
5500000000.000000      1.745911000000000E-01      1.603516000000000E+01      2.942200000000000E-01      4.724414000000000E+01
5520000000.000000      2.204285000000000E-01      1.039551000000000E+00      1.958389000000000E-01      5.851953000000000E+01
5540000000.000000      2.517548000000000E-01     -1.300537000000000E+01      1.806030000000000E-01      9.037500000000000E+01
5560000000.000000      2.700348000000000E-01     -2.487207000000000E+01      2.613831000000000E-01      1.086719000000000E+02
5580000000.000000      2.824249000000000E-01     -3.490234000000000E+01      3.828888000000000E-01      1.088047000000000E+02
5600000000.000000      2.938843000000000E-01     -4.375977000000000E+01      5.061646000000000E-01      9.983984000000000E+01
5620000000.000000      3.046722000000000E-01     -5.289648000000000E+01      5.962524000000000E-01      8.727734000000000E+01
5640000000.000000      3.085632000000000E-01     -6.255273000000000E+01      6.460876000000000E-01      7.539844000000000E+01
5660000000.000000      2.986145000000000E-01     -7.322656000000000E+01      6.842957000000000E-01      6.409374000000000E+01
5680000000.000000      2.693176000000000E-01     -8.369141000000000E+01      6.990051000000000E-01      5.129101000000000E+01
5700000000.000000      2.217026000000000E-01     -9.111328000000000E+01      6.853638000000000E-01      3.899609000000000E+01
5720000000.000000      1.713181000000000E-01     -8.989061000000000E+01      6.459045000000000E-01      2.628711000000000E+01
5740000000.000000      1.491013000000000E-01     -7.552343000000000E+01      5.680847000000000E-01      1.303760000000000E+01
5760000000.000000      1.779404000000000E-01     -6.368945000000000E+01      4.550171000000000E-01      1.116455000000000E+00
5780000000.000000      2.243347000000000E-01     -6.510937000000000E+01      3.181000000000000E-01     -4.020996000000000E+00
5800000000.000000      2.572174000000000E-01     -7.296875000000000E+01      2.096024000000000E-01      6.568359000000000E+00
5820000000.000000      2.670441000000000E-01     -8.230469000000000E+01      1.890411000000000E-01      3.708593000000000E+01
5840000000.000000      2.574158000000000E-01     -9.081640000000000E+01      2.694702000000000E-01      5.390234000000000E+01
5860000000.000000      2.397842000000000E-01     -9.650000000000000E+01      3.709259000000000E-01      5.416601000000000E+01
5880000000.000000      2.243652000000000E-01     -9.976171000000000E+01      4.776306000000000E-01      4.886328000000000E+01
5900000000.000000      2.163849000000000E-01     -1.022500000000000E+02      5.931396000000000E-01      3.865625000000000E+01
5920000000.000000      2.086182000000000E-01     -1.051211000000000E+02      6.718445000000000E-01      2.472558000000000E+01
5940000000.000000      1.951447000000000E-01     -1.069961000000000E+02      7.025146000000000E-01      1.150098000000000E+01
5960000000.000000      1.774750000000000E-01     -1.053320000000000E+02      7.138367000000000E-01     -1.328003000000000E+00
5980000000.000000      1.655121000000000E-01     -9.764452000000000E+01      6.929321000000000E-01     -1.524805000000000E+01
6000000000.000000      1.809235000000000E-01     -8.823437000000000E+01      6.294556000000000E-01     -2.876172000000000E+01
6020000000.000000      2.158661000000000E-01     -8.629297000000000E+01      5.306091000000000E-01     -4.160937000000000E+01
6040000000.000000      2.510681000000000E-01     -9.148438000000000E+01      4.017334000000000E-01     -4.980663000000000E+01
6060000000.000000      2.745056000000000E-01     -1.005742000000000E+02      2.873688000000000E-01     -4.987109000000000E+01
6080000000.000000      2.855072000000000E-01     -1.107148000000000E+02      2.066345000000000E-01     -3.634375000000000E+01
