! Network Analyzer HP8722D
! Hewlett-Packard
! Data name: Linha & Wilkinson+CNT
! Saver's name: Rodrigo Anjos
! Comments: Teste da utilização de aquisição
continua pelo VNA HP8722D
! Time and date: 29/9/2025 17:43
!              Frequency                     S11                                                   S21                                                   S12                                                   S22
# HZ  S  MA R 50
3000000000.000000      4.258881000000000E-01     -5.554296000000000E+01      2.062073000000000E-01     -1.315938000000000E+02
3020000000.000000      4.490356000000000E-01     -6.971093000000000E+01      3.495026000000000E-01     -1.348750000000000E+02
3040000000.000000      4.538269000000000E-01     -8.273829000000000E+01      4.670868000000000E-01     -1.447344000000000E+02
3060000000.000000      4.450684000000000E-01     -9.475780000000000E+01      5.714111000000000E-01     -1.550781000000000E+02
3080000000.000000      4.295807000000000E-01     -1.060195000000000E+02      6.747131000000000E-01     -1.682422000000000E+02
3100000000.000000      4.095306000000000E-01     -1.172187000000000E+02      7.250061000000000E-01      1.770156000000000E+02
3120000000.000000      3.803558000000000E-01     -1.291641000000000E+02      7.336731000000000E-01      1.635313000000000E+02
3140000000.000000      3.387909000000000E-01     -1.421641000000000E+02      7.247314000000000E-01      1.505859000000000E+02
3160000000.000000      2.785187000000000E-01     -1.561953000000000E+02      6.850586000000000E-01      1.370859000000000E+02
3180000000.000000      1.998291000000000E-01     -1.689531000000000E+02      6.135864000000000E-01      1.246133000000000E+02
3200000000.000000      1.115227000000000E-01     -1.697266000000000E+02      5.198364000000000E-01      1.118008000000000E+02
3220000000.000000      7.870483000000000E-02     -1.244648000000000E+02      3.870239000000000E-01      1.009922000000000E+02
3240000000.000000      1.499100000000000E-01     -1.047109000000000E+02      2.476578000000000E-01      9.954296000000000E+01
3260000000.000000      2.297668000000000E-01     -1.149414000000000E+02      1.474457000000000E-01      1.250156000000000E+02
3280000000.000000      2.877350000000000E-01     -1.306562000000000E+02      2.024002000000000E-01      1.651328000000000E+02
3300000000.000000      3.204498000000000E-01     -1.469609000000000E+02      3.294373000000000E-01      1.696640000000000E+02
3320000000.000000      3.320465000000000E-01     -1.628047000000000E+02      4.623718000000000E-01      1.627500000000000E+02
3340000000.000000      3.283844000000000E-01     -1.782969000000000E+02      5.739136000000000E-01      1.505859000000000E+02
3360000000.000000      3.168335000000000E-01      1.669375000000000E+02      6.466064000000000E-01      1.384922000000000E+02
3380000000.000000      3.011932000000000E-01      1.525938000000000E+02      7.088928000000000E-01      1.271484000000000E+02
3400000000.000000      2.785645000000000E-01      1.379297000000000E+02      7.586365000000000E-01      1.133711000000000E+02
3420000000.000000      2.437668000000000E-01      1.230312000000000E+02      7.492371000000000E-01      9.853516000000000E+01
3440000000.000000      1.912537000000000E-01      1.082422000000000E+02      7.055969000000000E-01      8.566406000000000E+01
3460000000.000000      1.205902000000000E-01      9.753124000000000E+01      6.479492000000000E-01      7.258203000000000E+01
3480000000.000000      4.853058000000000E-02      1.203008000000000E+02      5.512085000000000E-01      5.914844000000000E+01
3500000000.000000      9.151077000000000E-02     -1.743281000000000E+02      4.260254000000000E-01      4.758594000000000E+01
3520000000.000000      1.831131000000000E-01      1.791016000000000E+02      2.799988000000000E-01      4.055664000000000E+01
3540000000.000000      2.625427000000000E-01      1.628828000000000E+02      1.482239000000000E-01      5.792773000000000E+01
3560000000.000000      3.226471000000000E-01      1.459922000000000E+02      1.664047000000000E-01      1.074062000000000E+02
3580000000.000000      3.594971000000000E-01      1.299687000000000E+02      2.934875000000000E-01      1.175742000000000E+02
3600000000.000000      3.762054000000000E-01      1.153984000000000E+02      4.181976000000000E-01      1.107656000000000E+02
3620000000.000000      3.788910000000000E-01      1.027773000000000E+02      5.200500000000000E-01      1.011328000000000E+02
3640000000.000000      3.689575000000000E-01      9.152735000000000E+01      6.213074000000000E-01      9.021484000000000E+01
3660000000.000000      3.530731000000000E-01      8.138672000000000E+01      6.921082000000000E-01      7.599609000000000E+01
3680000000.000000      3.302002000000000E-01      7.200390000000000E+01      7.125244000000000E-01      6.291406000000000E+01
3700000000.000000      2.995605000000000E-01      6.383203000000000E+01      7.207642000000000E-01      5.111914000000000E+01
3720000000.000000      2.560425000000000E-01      5.771679000000000E+01      7.258301000000000E-01      3.693945000000000E+01
3740000000.000000      2.057953000000000E-01      5.838085000000000E+01      6.644592000000000E-01      2.139258000000000E+01
3760000000.000000      1.783447000000000E-01      7.231250000000000E+01      5.695801000000000E-01      7.226074000000000E+00
3780000000.000000      2.116776000000000E-01      8.751562000000000E+01      4.378967000000000E-01     -5.957520000000000E+00
3800000000.000000      2.817230000000000E-01      8.923437000000000E+01      2.836609000000000E-01     -1.344189000000000E+01
3820000000.000000      3.497925000000000E-01      8.277735000000000E+01      1.544266000000000E-01     -6.674194000000000E-01
3840000000.000000      4.006653000000000E-01      7.403125000000000E+01      1.425095000000000E-01      4.751172000000000E+01
3860000000.000000      4.360504000000000E-01      6.549609000000000E+01      2.454376000000000E-01      6.540625000000000E+01
3880000000.000000      4.608459000000000E-01      5.794335000000000E+01      3.752899000000000E-01      6.122265000000000E+01
3900000000.000000      4.904785000000000E-01      5.095312000000000E+01      4.770660000000000E-01      4.788281000000000E+01
3920000000.000000      5.222778000000000E-01      4.321289000000000E+01      5.083313000000000E-01      3.611719000000000E+01
3940000000.000000      5.490112000000000E-01      3.421679000000000E+01      5.386353000000000E-01      2.957617000000000E+01
3960000000.000000      5.608521000000000E-01      2.422266000000000E+01      5.966492000000000E-01      2.015820000000000E+01
3980000000.000000      5.539246000000000E-01      1.355811000000000E+01      5.967407000000000E-01      8.415527000000000E+00
4000000000.000000      5.294189000000000E-01      3.257446000000000E+00      5.803833000000000E-01      1.259277000000000E+00
4020000000.000000      4.855652000000000E-01     -6.701660000000000E+00      5.975647000000000E-01     -6.362549000000000E+00
4040000000.000000      4.263000000000000E-01     -1.556104000000000E+01      5.859375000000000E-01     -1.868652000000000E+01
4060000000.000000      3.505249000000000E-01     -2.170508000000000E+01      5.282898000000000E-01     -2.891406000000000E+01
4080000000.000000      2.762451000000000E-01     -2.169531000000000E+01      4.695587000000000E-01     -3.818164000000000E+01
4100000000.000000      2.285080000000000E-01     -1.130664000000000E+01      3.682709000000000E-01     -4.749413000000000E+01
4120000000.000000      2.409744000000000E-01      1.907471000000000E+00      2.504425000000000E-01     -4.421484000000000E+01
4140000000.000000      2.896118000000000E-01      5.284424000000000E+00      2.029037000000000E-01     -2.026074000000000E+01
4160000000.000000      3.337097000000000E-01      1.189270000000000E+00      2.619934000000000E-01     -2.801514000000000E-01
4180000000.000000      3.616486000000000E-01     -5.717041000000000E+00      3.562622000000000E-01      3.990723000000000E+00
4200000000.000000      3.721008000000000E-01     -1.348047000000000E+01      4.866486000000000E-01      1.455688000000000E+00
4220000000.000000      3.681488000000000E-01     -2.072070000000000E+01      6.408997000000000E-01     -1.086865000000000E+01
4240000000.000000      3.491211000000000E-01     -2.808008000000000E+01      7.215271000000000E-01     -2.762988000000000E+01
4260000000.000000      3.108521000000000E-01     -3.394531000000000E+01      7.446289000000000E-01     -4.170507000000000E+01
4280000000.000000      2.607117000000000E-01     -3.528125000000000E+01      7.524719000000000E-01     -5.548242000000000E+01
4300000000.000000      2.225800000000000E-01     -2.742188000000000E+01      7.147827000000000E-01     -7.055078000000000E+01
4320000000.000000      2.347946000000000E-01     -1.453906000000000E+01      6.341553000000000E-01     -8.494532000000000E+01
4340000000.000000      2.929535000000000E-01     -1.038525000000000E+01      5.184326000000000E-01     -9.771873000000000E+01
4360000000.000000      3.583984000000000E-01     -1.544141000000000E+01      3.826294000000000E-01     -1.068047000000000E+02
4380000000.000000      4.051971000000000E-01     -2.443554000000000E+01      2.512054000000000E-01     -1.082109000000000E+02
4400000000.000000      4.273071000000000E-01     -3.434570000000000E+01      1.537399000000000E-01     -8.564062000000000E+01
4420000000.000000      4.255981000000000E-01     -4.366796000000000E+01      1.868439000000000E-01     -4.572266000000000E+01
4440000000.000000      4.087372000000000E-01     -5.180469000000000E+01      3.091888000000000E-01     -3.604101000000000E+01
4460000000.000000      3.865662000000000E-01     -5.844336000000000E+01      4.514618000000000E-01     -4.316211000000000E+01
4480000000.000000      3.671265000000000E-01     -6.469140000000000E+01      5.602722000000000E-01     -5.513085000000000E+01
4500000000.000000      3.468781000000000E-01     -7.155468000000000E+01      6.411438000000000E-01     -6.670312000000000E+01
4520000000.000000      3.140564000000000E-01     -7.930859000000000E+01      7.151184000000000E-01     -7.947266000000000E+01
4540000000.000000      2.625885000000000E-01     -8.558985000000000E+01      7.427368000000000E-01     -9.417187000000000E+01
4560000000.000000      2.015610000000000E-01     -8.406641000000000E+01      7.290649000000000E-01     -1.074766000000000E+02
4580000000.000000      1.734009000000000E-01     -6.800390000000000E+01      6.933594000000000E-01     -1.213945000000000E+02
4600000000.000000      2.104721000000000E-01     -5.368750000000000E+01      6.073608000000000E-01     -1.345937000000000E+02
4620000000.000000      2.757416000000000E-01     -5.494726000000000E+01      5.000000000000000E-01     -1.450078000000000E+02
4640000000.000000      3.298187000000000E-01     -6.483984000000000E+01      3.807068000000000E-01     -1.535156000000000E+02
4660000000.000000      3.540802000000000E-01     -7.814062000000000E+01      2.475052000000000E-01     -1.519063000000000E+02
4680000000.000000      3.456116000000000E-01     -9.216797000000000E+01      1.787949000000000E-01     -1.238203000000000E+02
4700000000.000000      3.092651000000000E-01     -1.054297000000000E+02      2.470627000000000E-01     -9.669922000000000E+01
4720000000.000000      2.532043000000000E-01     -1.160742000000000E+02      3.668671000000000E-01     -9.524218000000000E+01
4740000000.000000      1.914444000000000E-01     -1.214726000000000E+02      4.732666000000000E-01     -1.015977000000000E+02
4760000000.000000      1.386108000000000E-01     -1.176641000000000E+02      5.806580000000000E-01     -1.102812000000000E+02
4780000000.000000      1.114540000000000E-01     -1.015508000000000E+02      6.680603000000000E-01     -1.226641000000000E+02
4800000000.000000      1.170654000000000E-01     -8.337109000000000E+01      7.175903000000000E-01     -1.356016000000000E+02
4820000000.000000      1.450882000000000E-01     -7.344140000000000E+01      7.373047000000000E-01     -1.487890000000000E+02
4840000000.000000      1.866455000000000E-01     -7.319921000000000E+01      7.189331000000000E-01     -1.617422000000000E+02
4860000000.000000      2.306824000000000E-01     -7.985937000000000E+01      6.836243000000000E-01     -1.741406000000000E+02
4880000000.000000      2.686005000000000E-01     -9.033594000000000E+01      6.192627000000000E-01      1.721016000000000E+02
4900000000.000000      2.942047000000000E-01     -1.038828000000000E+02      4.979248000000000E-01      1.599062000000000E+02
4920000000.000000      3.003693000000000E-01     -1.190000000000000E+02      3.673248000000000E-01      1.536094000000000E+02
4940000000.000000      2.859344000000000E-01     -1.347734000000000E+02      2.535248000000000E-01      1.557656000000000E+02
4960000000.000000      2.554321000000000E-01     -1.499063000000000E+02      1.774750000000000E-01      1.768047000000000E+02
4980000000.000000      2.131348000000000E-01     -1.640938000000000E+02      2.130432000000000E-01     -1.514375000000000E+02
5000000000.000000      1.690140000000000E-01     -1.758281000000000E+02      3.290253000000000E-01     -1.436250000000000E+02
5020000000.000000      1.311340000000000E-01      1.741328000000000E+02      4.593811000000000E-01     -1.495078000000000E+02
5040000000.000000      1.004868000000000E-01      1.640156000000000E+02      5.698242000000000E-01     -1.602890000000000E+02
5060000000.000000      7.217789000000000E-02      1.489922000000000E+02      6.514282000000000E-01     -1.719219000000000E+02
5080000000.000000      4.200935000000000E-02      1.233398000000000E+02      7.170715000000000E-01      1.761641000000000E+02
5100000000.000000      1.679039000000000E-02      4.256836000000000E+01      7.570801000000000E-01      1.623594000000000E+02
5120000000.000000      4.088974000000000E-02     -5.077929000000000E+01      7.538452000000000E-01      1.480781000000000E+02
5140000000.000000      7.255936000000000E-02     -8.710938000000000E+01      7.039490000000000E-01      1.344297000000000E+02
5160000000.000000      9.623337000000000E-02     -1.185898000000000E+02      6.301270000000000E-01      1.220469000000000E+02
5180000000.000000      1.100197000000000E-01     -1.490078000000000E+02      5.346985000000000E-01      1.107383000000000E+02
5200000000.000000      1.128693000000000E-01      1.783047000000000E+02      4.184265000000000E-01      1.011601000000000E+02
5220000000.000000      1.101341000000000E-01      1.425781000000000E+02      2.846832000000000E-01      9.814842000000000E+01
5240000000.000000      1.092072000000000E-01      1.063555000000000E+02      1.843719000000000E-01      1.148476000000000E+02
5260000000.000000      1.131935000000000E-01      7.280468000000000E+01      1.950607000000000E-01      1.491875000000000E+02
5280000000.000000      1.209946000000000E-01      4.613867000000000E+01      2.949982000000000E-01      1.606484000000000E+02
5300000000.000000      1.274948000000000E-01      2.534863000000000E+01      4.083405000000000E-01      1.581797000000000E+02
5320000000.000000      1.337357000000000E-01      8.893066000000000E+00      5.267639000000000E-01      1.507422000000000E+02
5340000000.000000      1.390305000000000E-01     -5.560547000000000E+00      6.378784000000000E-01      1.387578000000000E+02
5360000000.000000      1.433563000000000E-01     -2.130859000000000E+01      7.070618000000000E-01      1.241875000000000E+02
5380000000.000000      1.391449000000000E-01     -3.872070000000000E+01      7.174072000000000E-01      1.108945000000000E+02
5400000000.000000      1.205597000000000E-01     -5.714062000000000E+01      7.191467000000000E-01      9.916796000000000E+01
5420000000.000000      8.522034000000000E-02     -7.412109000000000E+01      7.074585000000000E-01      8.605078000000000E+01
5440000000.000000      3.114700000000000E-02     -7.981640000000000E+01      6.497498000000000E-01      7.169140000000000E+01
5460000000.000000      4.156113000000000E-02      3.920703000000000E+01      5.412292000000000E-01      5.852539000000000E+01
5480000000.000000      1.120262000000000E-01      3.122363000000000E+01      4.145813000000000E-01      4.932031000000000E+01
5500000000.000000      1.751709000000000E-01      1.602344000000000E+01      2.939301000000000E-01      4.724218000000000E+01
5520000000.000000      2.209702000000000E-01      8.789063000000000E-01      1.956558000000000E-01      5.872851000000000E+01
5540000000.000000      2.517700000000000E-01     -1.285840000000000E+01      1.803284000000000E-01      9.063671000000000E+01
5560000000.000000      2.698517000000000E-01     -2.485547000000000E+01      2.618256000000000E-01      1.087148000000000E+02
5580000000.000000      2.827301000000000E-01     -3.488476000000000E+01      3.835144000000000E-01      1.087109000000000E+02
5600000000.000000      2.937927000000000E-01     -4.379687000000000E+01      5.060425000000000E-01      9.984764000000000E+01
5620000000.000000      3.049927000000000E-01     -5.291406000000000E+01      5.956726000000000E-01      8.729687000000000E+01
5640000000.000000      3.081360000000000E-01     -6.263281000000000E+01      6.467285000000000E-01      7.529297000000000E+01
5660000000.000000      2.990723000000000E-01     -7.334374000000000E+01      6.868286000000000E-01      6.415625000000000E+01
5680000000.000000      2.697601000000000E-01     -8.365234000000000E+01      6.996765000000000E-01      5.124413000000000E+01
5700000000.000000      2.208862000000000E-01     -9.103907000000000E+01      6.844177000000000E-01      3.890429000000000E+01
5720000000.000000      1.705246000000000E-01     -8.985937000000000E+01      6.448364000000000E-01      2.610156000000000E+01
5740000000.000000      1.493149000000000E-01     -7.541016000000000E+01      5.682068000000000E-01      1.286475000000000E+01
5760000000.000000      1.773834000000000E-01     -6.375781000000000E+01      4.526062000000000E-01      1.196106000000000E+00
5780000000.000000      2.244263000000000E-01     -6.503515000000000E+01      3.177032000000000E-01     -3.993530000000000E+00
5800000000.000000      2.572174000000000E-01     -7.283593000000000E+01      2.090988000000000E-01      6.693359000000000E+00
5820000000.000000      2.669525000000000E-01     -8.223827000000000E+01      1.888580000000000E-01      3.725000000000000E+01
5840000000.000000      2.572784000000000E-01     -9.076563000000000E+01      2.700500000000000E-01      5.413086000000000E+01
5860000000.000000      2.385406000000000E-01     -9.640234000000000E+01      3.702393000000000E-01      5.425586000000000E+01
5880000000.000000      2.239532000000000E-01     -9.966406000000000E+01      4.771423000000000E-01      4.876367000000000E+01
5900000000.000000      2.159119000000000E-01     -1.022227000000000E+02      5.936890000000000E-01      3.866601000000000E+01
5920000000.000000      2.084427000000000E-01     -1.050312000000000E+02      6.724243000000000E-01      2.461328000000000E+01
5940000000.000000      1.941910000000000E-01     -1.070234000000000E+02      7.027588000000000E-01      1.134473000000000E+01
5960000000.000000      1.771164000000000E-01     -1.051992000000000E+02      7.142944000000000E-01     -1.223633000000000E+00
5980000000.000000      1.654510000000000E-01     -9.735546000000000E+01      6.933899000000000E-01     -1.531787000000000E+01
6000000000.000000      1.812668000000000E-01     -8.817577000000000E+01      6.301880000000000E-01     -2.890234000000000E+01
6020000000.000000      2.158432000000000E-01     -8.616014000000000E+01      5.307617000000000E-01     -4.156446000000000E+01
6040000000.000000      2.517700000000000E-01     -9.147264000000000E+01      4.014282000000000E-01     -4.977929000000000E+01
6060000000.000000      2.755127000000000E-01     -1.005000000000000E+02      2.875824000000000E-01     -4.978516000000000E+01
6080000000.000000      2.852020000000000E-01     -1.107344000000000E+02      2.065811000000000E-01     -3.617383000000000E+01
