! Network Analyzer HP8722D
! Hewlett-Packard
! Data name: Linha & Wilkinson+CNT
! Saver's name: Rodrigo Anjos
! Comments: Teste da utilização de aquisição
continua pelo VNA HP8722D
! Time and date: 29/9/2025 12:51
!              Frequency                     S11                                                   S21                                                   S12                                                   S22
# HZ  S  MA R 50
3000000000.000000      4.211426000000000E-01     -5.607616000000000E+01      2.070694000000000E-01     -1.313984000000000E+02
3020000000.000000      4.492340000000000E-01     -7.038280000000000E+01      3.497314000000000E-01     -1.347188000000000E+02
3040000000.000000      4.539032000000000E-01     -8.316015000000000E+01      4.676666000000000E-01     -1.446640000000000E+02
3060000000.000000      4.466095000000000E-01     -9.506250000000000E+01      5.717468000000000E-01     -1.550156000000000E+02
3080000000.000000      4.315643000000000E-01     -1.063203000000000E+02      6.734009000000000E-01     -1.681250000000000E+02
3100000000.000000      4.118652000000000E-01     -1.175078000000000E+02      7.246094000000000E-01      1.770078000000000E+02
3120000000.000000      3.829803000000000E-01     -1.293516000000000E+02      7.313843000000000E-01      1.635625000000000E+02
3140000000.000000      3.421631000000000E-01     -1.422188000000000E+02      7.234497000000000E-01      1.508047000000000E+02
3160000000.000000      2.822876000000000E-01     -1.560234000000000E+02      6.839600000000000E-01      1.372187000000000E+02
3180000000.000000      2.031326000000000E-01     -1.685156000000000E+02      6.149292000000000E-01      1.247187000000000E+02
3200000000.000000      1.150742000000000E-01     -1.689219000000000E+02      5.207520000000000E-01      1.118516000000000E+02
3220000000.000000      8.271027000000000E-02     -1.249844000000000E+02      3.867188000000000E-01      1.009453000000000E+02
3240000000.000000      1.529846000000000E-01     -1.055469000000000E+02      2.473221000000000E-01      9.976171000000000E+01
3260000000.000000      2.324905000000000E-01     -1.152812000000000E+02      1.472168000000000E-01      1.253320000000000E+02
3280000000.000000      2.907867000000000E-01     -1.306797000000000E+02      2.028885000000000E-01      1.654844000000000E+02
3300000000.000000      3.238831000000000E-01     -1.469141000000000E+02      3.299561000000000E-01      1.698125000000000E+02
3320000000.000000      3.356171000000000E-01     -1.626641000000000E+02      4.629974000000000E-01      1.627812000000000E+02
3340000000.000000      3.319397000000000E-01     -1.779531000000000E+02      5.751038000000000E-01      1.506562000000000E+02
3360000000.000000      3.195343000000000E-01      1.675000000000000E+02      6.463318000000000E-01      1.386484000000000E+02
3380000000.000000      3.026123000000000E-01      1.532656000000000E+02      7.101746000000000E-01      1.273945000000000E+02
3400000000.000000      2.793579000000000E-01      1.385859000000000E+02      7.596436000000000E-01      1.133711000000000E+02
3420000000.000000      2.435989000000000E-01      1.236953000000000E+02      7.503357000000000E-01      9.864843000000000E+01
3440000000.000000      1.897354000000000E-01      1.090469000000000E+02      7.058105000000000E-01      8.590235000000000E+01
3460000000.000000      1.190414000000000E-01      9.862499000000000E+01      6.488647000000000E-01      7.264843000000000E+01
3480000000.000000      4.786491000000000E-02      1.242656000000000E+02      5.506897000000000E-01      5.922265000000000E+01
3500000000.000000      9.455490000000000E-02     -1.728672000000000E+02      4.256134000000000E-01      4.797852000000000E+01
3520000000.000000      1.858215000000000E-01      1.798906000000000E+02      2.798004000000000E-01      4.076562000000000E+01
3540000000.000000      2.647705000000000E-01      1.637109000000000E+02      1.478729000000000E-01      5.829102000000000E+01
3560000000.000000      3.236694000000000E-01      1.466250000000000E+02      1.669540000000000E-01      1.077695000000000E+02
3580000000.000000      3.598480000000000E-01      1.305547000000000E+02      2.947693000000000E-01      1.177500000000000E+02
3600000000.000000      3.764343000000000E-01      1.157813000000000E+02      4.196930000000000E-01      1.108125000000000E+02
3620000000.000000      3.775940000000000E-01      1.030976000000000E+02      5.218506000000000E-01      1.014531000000000E+02
3640000000.000000      3.677826000000000E-01      9.175390000000000E+01      6.222229000000000E-01      9.023829000000000E+01
3660000000.000000      3.509521000000000E-01      8.147655000000000E+01      6.942749000000000E-01      7.589062000000000E+01
3680000000.000000      3.279877000000000E-01      7.217187000000000E+01      7.120361000000000E-01      6.274804000000000E+01
3700000000.000000      2.970734000000000E-01      6.375977000000000E+01      7.220459000000000E-01      5.113671000000000E+01
3720000000.000000      2.527771000000000E-01      5.769336000000000E+01      7.250366000000000E-01      3.716797000000000E+01
3740000000.000000      2.025146000000000E-01      5.841210000000000E+01      6.640930000000000E-01      2.164941000000000E+01
3760000000.000000      1.756439000000000E-01      7.255468000000000E+01      5.672913000000000E-01      7.360840000000000E+00
3780000000.000000      2.097244000000000E-01      8.792969000000000E+01      4.359589000000000E-01     -5.879150000000000E+00
3800000000.000000      2.804871000000000E-01      8.939062000000000E+01      2.830353000000000E-01     -1.320020000000000E+01
3820000000.000000      3.478851000000000E-01      8.286327000000000E+01      1.543732000000000E-01     -4.298401000000000E-01
3840000000.000000      3.987579000000000E-01      7.412499000000000E+01      1.428223000000000E-01      4.770117000000000E+01
3860000000.000000      4.343262000000000E-01      6.539453000000000E+01      2.457352000000000E-01      6.546875000000000E+01
3880000000.000000      4.585114000000000E-01      5.787695000000000E+01      3.763275000000000E-01      6.130077000000000E+01
3900000000.000000      4.875946000000000E-01      5.075000000000000E+01      4.773712000000000E-01      4.794141000000000E+01
3920000000.000000      5.201111000000000E-01      4.308398000000000E+01      5.088501000000000E-01      3.615820000000000E+01
3940000000.000000      5.461731000000000E-01      3.408203000000000E+01      5.397339000000000E-01      2.959082000000000E+01
3960000000.000000      5.586853000000000E-01      2.384668000000000E+01      5.958862000000000E-01      2.018652000000000E+01
3980000000.000000      5.529175000000000E-01      1.342773000000000E+01      5.981750000000000E-01      8.306641000000000E+00
4000000000.000000      5.267029000000000E-01      2.796021000000000E+00      5.803528000000000E-01      1.413086000000000E+00
4020000000.000000      4.841919000000000E-01     -7.095947000000000E+00      5.981750000000000E-01     -6.337891000000000E+00
4040000000.000000      4.247131000000000E-01     -1.594678000000000E+01      5.857849000000000E-01     -1.871875000000000E+01
4060000000.000000      3.493195000000000E-01     -2.216309000000000E+01      5.277710000000000E-01     -2.890234000000000E+01
4080000000.000000      2.751465000000000E-01     -2.212695000000000E+01      4.680939000000000E-01     -3.812695000000000E+01
4100000000.000000      2.277374000000000E-01     -1.194385000000000E+01      3.679352000000000E-01     -4.728711000000000E+01
4120000000.000000      2.411270000000000E-01      1.385620000000000E+00      2.499542000000000E-01     -4.405273000000000E+01
4140000000.000000      2.886810000000000E-01      4.680176000000000E+00      2.031250000000000E-01     -2.000098000000000E+01
4160000000.000000      3.332672000000000E-01      6.605530000000000E-01      2.629852000000000E-01      4.119873000000000E-03
4180000000.000000      3.612213000000000E-01     -6.137451000000000E+00      3.570251000000000E-01      3.971558000000000E+00
4200000000.000000      3.711090000000000E-01     -1.395410000000000E+01      4.875336000000000E-01      1.560059000000000E+00
4220000000.000000      3.674622000000000E-01     -2.125586000000000E+01      6.412964000000000E-01     -1.082031000000000E+01
4240000000.000000      3.479004000000000E-01     -2.873926000000000E+01      7.226563000000000E-01     -2.759961000000000E+01
4260000000.000000      3.102417000000000E-01     -3.459375000000000E+01      7.423706000000000E-01     -4.157227000000000E+01
4280000000.000000      2.601471000000000E-01     -3.580078000000000E+01      7.518005000000000E-01     -5.538671000000000E+01
4300000000.000000      2.225876000000000E-01     -2.779297000000000E+01      7.167053000000000E-01     -7.045312000000000E+01
4320000000.000000      2.360992000000000E-01     -1.514209000000000E+01      6.342163000000000E-01     -8.494141000000000E+01
4340000000.000000      2.935944000000000E-01     -1.088916000000000E+01      5.168762000000000E-01     -9.775391000000000E+01
4360000000.000000      3.589478000000000E-01     -1.585742000000000E+01      3.824005000000000E-01     -1.067734000000000E+02
4380000000.000000      4.049683000000000E-01     -2.481348000000000E+01      2.507019000000000E-01     -1.080820000000000E+02
4400000000.000000      4.269867000000000E-01     -3.468945000000000E+01      1.533813000000000E-01     -8.533983000000000E+01
4420000000.000000      4.253387000000000E-01     -4.415235000000000E+01      1.871872000000000E-01     -4.561132000000000E+01
4440000000.000000      4.090271000000000E-01     -5.218163000000000E+01      3.095703000000000E-01     -3.594727000000000E+01
4460000000.000000      3.889160000000000E-01     -5.891992000000000E+01      4.518890000000000E-01     -4.302734000000000E+01
4480000000.000000      3.701172000000000E-01     -6.521093000000000E+01      5.607300000000000E-01     -5.522655000000000E+01
4500000000.000000      3.481750000000000E-01     -7.166406000000000E+01      6.413879000000000E-01     -6.664844000000000E+01
4520000000.000000      3.148956000000000E-01     -7.924999000000000E+01      7.159424000000000E-01     -7.957421000000000E+01
4540000000.000000      2.643585000000000E-01     -8.525391000000000E+01      7.419128000000000E-01     -9.420702000000000E+01
4560000000.000000      2.039413000000000E-01     -8.366014000000000E+01      7.295532000000000E-01     -1.074141000000000E+02
4580000000.000000      1.770020000000000E-01     -6.813281000000000E+01      6.918030000000000E-01     -1.212578000000000E+02
4600000000.000000      2.137985000000000E-01     -5.430859000000000E+01      6.061096000000000E-01     -1.345703000000000E+02
4620000000.000000      2.789154000000000E-01     -5.553905000000000E+01      4.995728000000000E-01     -1.449141000000000E+02
4640000000.000000      3.331299000000000E-01     -6.520312000000000E+01      3.799438000000000E-01     -1.532266000000000E+02
4660000000.000000      3.574982000000000E-01     -7.832812000000000E+01      2.473450000000000E-01     -1.515781000000000E+02
4680000000.000000      3.495483000000000E-01     -9.214453000000000E+01      1.789246000000000E-01     -1.235586000000000E+02
4700000000.000000      3.122406000000000E-01     -1.052695000000000E+02      2.474747000000000E-01     -9.642578000000000E+01
4720000000.000000      2.557526000000000E-01     -1.156602000000000E+02      3.661346000000000E-01     -9.514452000000000E+01
4740000000.000000      1.937256000000000E-01     -1.210000000000000E+02      4.736176000000000E-01     -1.015312000000000E+02
4760000000.000000      1.409836000000000E-01     -1.170508000000000E+02      5.796509000000000E-01     -1.103281000000000E+02
4780000000.000000      1.152763000000000E-01     -1.013086000000000E+02      6.676941000000000E-01     -1.226875000000000E+02
4800000000.000000      1.213913000000000E-01     -8.395702000000000E+01      7.175598000000000E-01     -1.354141000000000E+02
4820000000.000000      1.501160000000000E-01     -7.473437000000000E+01      7.349854000000000E-01     -1.487578000000000E+02
4840000000.000000      1.909256000000000E-01     -7.417187000000000E+01      7.176819000000000E-01     -1.616250000000000E+02
4860000000.000000      2.341080000000000E-01     -8.036327000000000E+01      6.847839000000000E-01     -1.738828000000000E+02
4880000000.000000      2.713928000000000E-01     -9.080858000000000E+01      6.167297000000000E-01      1.722031000000000E+02
4900000000.000000      2.962646000000000E-01     -1.040351000000000E+02      4.957275000000000E-01      1.597969000000000E+02
4920000000.000000      3.025208000000000E-01     -1.189531000000000E+02      3.677216000000000E-01      1.537500000000000E+02
4940000000.000000      2.878876000000000E-01     -1.345000000000000E+02      2.527008000000000E-01      1.560469000000000E+02
4960000000.000000      2.568359000000000E-01     -1.495312000000000E+02      1.778030000000000E-01      1.770781000000000E+02
4980000000.000000      2.142563000000000E-01     -1.633594000000000E+02      2.139053000000000E-01     -1.510391000000000E+02
5000000000.000000      1.693573000000000E-01     -1.748906000000000E+02      3.298950000000000E-01     -1.434141000000000E+02
5020000000.000000      1.306915000000000E-01      1.754453000000000E+02      4.605103000000000E-01     -1.494766000000000E+02
5040000000.000000      9.980392000000000E-02      1.656016000000000E+02      5.703735000000000E-01     -1.602031000000000E+02
5060000000.000000      7.149506000000000E-02      1.518594000000000E+02      6.528931000000000E-01     -1.716016000000000E+02
5080000000.000000      4.031181000000000E-02      1.273281000000000E+02      7.185059000000000E-01      1.762031000000000E+02
5100000000.000000      1.344204000000000E-02      4.120703000000000E+01      7.575073000000000E-01      1.624375000000000E+02
5120000000.000000      4.116631000000000E-02     -5.444140000000000E+01      7.536316000000000E-01      1.483125000000000E+02
5140000000.000000      7.371902000000000E-02     -8.806250000000000E+01      7.044373000000000E-01      1.346719000000000E+02
5160000000.000000      9.738541000000000E-02     -1.183203000000000E+02      6.286621000000000E-01      1.223008000000000E+02
5180000000.000000      1.108398000000000E-01     -1.483672000000000E+02      5.350037000000000E-01      1.109687000000000E+02
5200000000.000000      1.126328000000000E-01      1.792656000000000E+02      4.159546000000000E-01      1.013359000000000E+02
5220000000.000000      1.086464000000000E-01      1.432109000000000E+02      2.840424000000000E-01      9.843750000000000E+01
5240000000.000000      1.073303000000000E-01      1.066289000000000E+02      1.847916000000000E-01      1.153750000000000E+02
5260000000.000000      1.111717000000000E-01      7.276953000000000E+01      1.962280000000000E-01      1.495625000000000E+02
5280000000.000000      1.185112000000000E-01      4.555469000000000E+01      2.959900000000000E-01      1.608047000000000E+02
5300000000.000000      1.255188000000000E-01      2.471777000000000E+01      4.098053000000000E-01      1.582344000000000E+02
5320000000.000000      1.318207000000000E-01      8.093750000000000E+00      5.267639000000000E-01      1.508281000000000E+02
5340000000.000000      1.380463000000000E-01     -6.437988000000000E+00      6.390076000000000E-01      1.387500000000000E+02
5360000000.000000      1.432343000000000E-01     -2.166699000000000E+01      7.059326000000000E-01      1.244180000000000E+02
5380000000.000000      1.392899000000000E-01     -3.924219000000000E+01      7.171631000000000E-01      1.109922000000000E+02
5400000000.000000      1.211739000000000E-01     -5.710155000000000E+01      7.196350000000000E-01      9.923828000000000E+01
5420000000.000000      8.679581000000000E-02     -7.369922000000000E+01      7.055969000000000E-01      8.630859000000000E+01
5440000000.000000      3.276825000000000E-02     -7.848437000000000E+01      6.495667000000000E-01      7.184375000000000E+01
5460000000.000000      4.090500000000000E-02      3.696680000000000E+01      5.407410000000000E-01      5.872851000000000E+01
5480000000.000000      1.105423000000000E-01      3.027539000000000E+01      4.136505000000000E-01      4.953906000000000E+01
5500000000.000000      1.737213000000000E-01      1.518311000000000E+01      2.928314000000000E-01      4.748242000000000E+01
5520000000.000000      2.200623000000000E-01      2.581787000000000E-01      1.957245000000000E-01      5.919922000000000E+01
5540000000.000000      2.516632000000000E-01     -1.368115000000000E+01      1.806717000000000E-01      9.070313000000000E+01
5560000000.000000      2.710876000000000E-01     -2.541894000000000E+01      2.622223000000000E-01      1.088086000000000E+02
5580000000.000000      2.829742000000000E-01     -3.516797000000000E+01      3.844147000000000E-01      1.088086000000000E+02
5600000000.000000      2.945709000000000E-01     -4.396484000000000E+01      5.060425000000000E-01      9.979296000000000E+01
5620000000.000000      3.058777000000000E-01     -5.303124000000000E+01      5.951843000000000E-01      8.730078000000000E+01
5640000000.000000      3.099213000000000E-01     -6.275195000000000E+01      6.458740000000000E-01      7.540625000000000E+01
5660000000.000000      3.013763000000000E-01     -7.332031000000000E+01      6.851196000000000E-01      6.410156000000000E+01
5680000000.000000      2.731323000000000E-01     -8.367968000000000E+01      6.983948000000000E-01      5.141015000000000E+01
5700000000.000000      2.252960000000000E-01     -9.112499000000000E+01      6.836548000000000E-01      3.903906000000000E+01
5720000000.000000      1.752396000000000E-01     -9.003124000000000E+01      6.431274000000000E-01      2.637890000000000E+01
5740000000.000000      1.523972000000000E-01     -7.606250000000000E+01      5.657959000000000E-01      1.303076000000000E+01
5760000000.000000      1.806412000000000E-01     -6.420312000000000E+01      4.514160000000000E-01      1.393860000000000E+00
5780000000.000000      2.261124000000000E-01     -6.548046000000000E+01      3.176880000000000E-01     -3.808228000000000E+00
5800000000.000000      2.588501000000000E-01     -7.313671000000000E+01      2.084961000000000E-01      7.093018000000000E+00
5820000000.000000      2.686005000000000E-01     -8.259375000000000E+01      1.892319000000000E-01      3.766406000000000E+01
5840000000.000000      2.592468000000000E-01     -9.092188000000000E+01      2.703400000000000E-01      5.406640000000000E+01
5860000000.000000      2.418137000000000E-01     -9.643358000000000E+01      3.703308000000000E-01      5.436718000000000E+01
5880000000.000000      2.273636000000000E-01     -9.967577000000000E+01      4.771576000000000E-01      4.900000000000000E+01
5900000000.000000      2.201996000000000E-01     -1.020508000000000E+02      5.939941000000000E-01      3.889843000000000E+01
5920000000.000000      2.126160000000000E-01     -1.049297000000000E+02      6.699829000000000E-01      2.495117000000000E+01
5940000000.000000      1.983261000000000E-01     -1.069062000000000E+02      7.023621000000000E-01      1.172900000000000E+01
5960000000.000000      1.807327000000000E-01     -1.053750000000000E+02      7.131958000000000E-01     -1.045105000000000E+00
5980000000.000000      1.673889000000000E-01     -9.805859000000000E+01      6.912842000000000E-01     -1.500732000000000E+01
6000000000.000000      1.829300000000000E-01     -8.864452000000000E+01      6.296082000000000E-01     -2.871484000000000E+01
6020000000.000000      2.177963000000000E-01     -8.668360000000000E+01      5.298767000000000E-01     -4.132421000000000E+01
6040000000.000000      2.534637000000000E-01     -9.172266000000000E+01      4.012909000000000E-01     -4.934375000000000E+01
6060000000.000000      2.778625000000000E-01     -1.005781000000000E+02      2.854919000000000E-01     -4.940039000000000E+01
6080000000.000000      2.887878000000000E-01     -1.106641000000000E+02      2.056808000000000E-01     -3.563672000000000E+01
