! Network Analyzer HP8722D
! Hewlett-Packard
! Data name: Linha & Wilkinson+CNT
! Saver's name: Rodrigo Anjos
! Comments: Teste da utilização de aquisição
continua pelo VNA HP8722D
! Time and date: 29/9/2025 12:22
!              Frequency                     S11                                                   S21                                                   S12                                                   S22
# HZ  S  MA R 50
3000000000.000000      4.236603000000000E-01     -5.609375000000000E+01      2.075424000000000E-01     -1.314062000000000E+02
3020000000.000000      4.487000000000000E-01     -7.019921000000000E+01      3.502502000000000E-01     -1.348438000000000E+02
3040000000.000000      4.536133000000000E-01     -8.312109000000000E+01      4.670410000000000E-01     -1.448125000000000E+02
3060000000.000000      4.462280000000000E-01     -9.520702000000000E+01      5.722656000000000E-01     -1.551250000000000E+02
3080000000.000000      4.309235000000000E-01     -1.064023000000000E+02      6.723328000000000E-01     -1.681875000000000E+02
3100000000.000000      4.111938000000000E-01     -1.175820000000000E+02      7.238464000000000E-01      1.769140000000000E+02
3120000000.000000      3.823853000000000E-01     -1.294766000000000E+02      7.312012000000000E-01      1.635625000000000E+02
3140000000.000000      3.421936000000000E-01     -1.424297000000000E+02      7.238464000000000E-01      1.507500000000000E+02
3160000000.000000      2.814789000000000E-01     -1.562344000000000E+02      6.825867000000000E-01      1.370859000000000E+02
3180000000.000000      2.021942000000000E-01     -1.685078000000000E+02      6.143188000000000E-01      1.244219000000000E+02
3200000000.000000      1.145706000000000E-01     -1.687969000000000E+02      5.194397000000000E-01      1.117578000000000E+02
3220000000.000000      8.292007000000000E-02     -1.247109000000000E+02      3.859558000000000E-01      1.009492000000000E+02
3240000000.000000      1.536942000000000E-01     -1.056406000000000E+02      2.463989000000000E-01      9.981249000000000E+01
3260000000.000000      2.332077000000000E-01     -1.154883000000000E+02      1.469727000000000E-01      1.256523000000000E+02
3280000000.000000      2.908783000000000E-01     -1.308984000000000E+02      2.035599000000000E-01      1.654922000000000E+02
3300000000.000000      3.234406000000000E-01     -1.471016000000000E+02      3.308868000000000E-01      1.697187000000000E+02
3320000000.000000      3.353424000000000E-01     -1.628438000000000E+02      4.636078000000000E-01      1.627109000000000E+02
3340000000.000000      3.318787000000000E-01     -1.780234000000000E+02      5.756226000000000E-01      1.506250000000000E+02
3360000000.000000      3.195190000000000E-01      1.673047000000000E+02      6.482239000000000E-01      1.383437000000000E+02
3380000000.000000      3.021545000000000E-01      1.531406000000000E+02      7.096863000000000E-01      1.271211000000000E+02
3400000000.000000      2.787476000000000E-01      1.383672000000000E+02      7.581482000000000E-01      1.133281000000000E+02
3420000000.000000      2.431030000000000E-01      1.235742000000000E+02      7.499084000000000E-01      9.855078000000000E+01
3440000000.000000      1.890945000000000E-01      1.088789000000000E+02      7.046814000000000E-01      8.561327000000000E+01
3460000000.000000      1.182899000000000E-01      9.857422000000000E+01      6.463928000000000E-01      7.259766000000000E+01
3480000000.000000      4.750252000000000E-02      1.250430000000000E+02      5.487671000000000E-01      5.903320000000000E+01
3500000000.000000      9.485626000000000E-02     -1.731953000000000E+02      4.255981000000000E-01      4.777148000000000E+01
3520000000.000000      1.866608000000000E-01      1.796953000000000E+02      2.788544000000000E-01      4.069531000000000E+01
3540000000.000000      2.653961000000000E-01      1.635078000000000E+02      1.474915000000000E-01      5.856445000000000E+01
3560000000.000000      3.238678000000000E-01      1.465078000000000E+02      1.672592000000000E-01      1.078398000000000E+02
3580000000.000000      3.598633000000000E-01      1.303984000000000E+02      2.949219000000000E-01      1.176172000000000E+02
3600000000.000000      3.755493000000000E-01      1.155937000000000E+02      4.203949000000000E-01      1.108086000000000E+02
3620000000.000000      3.775482000000000E-01      1.029414000000000E+02      5.218811000000000E-01      1.013789000000000E+02
3640000000.000000      3.676605000000000E-01      9.165625000000000E+01      6.220703000000000E-01      9.001953000000000E+01
3660000000.000000      3.508453000000000E-01      8.140625000000000E+01      6.930237000000000E-01      7.582421000000000E+01
3680000000.000000      3.276520000000000E-01      7.207421000000000E+01      7.126770000000000E-01      6.268359000000000E+01
3700000000.000000      2.969818000000000E-01      6.379296000000000E+01      7.220459000000000E-01      5.100780000000000E+01
3720000000.000000      2.522736000000000E-01      5.766992000000000E+01      7.243958000000000E-01      3.688477000000000E+01
3740000000.000000      2.019730000000000E-01      5.834961000000000E+01      6.629028000000000E-01      2.148730000000000E+01
3760000000.000000      1.754227000000000E-01      7.275391000000000E+01      5.656433000000000E-01      7.291992000000000E+00
3780000000.000000      2.098465000000000E-01      8.788280000000000E+01      4.332886000000000E-01     -5.929932000000000E+00
3800000000.000000      2.808685000000000E-01      8.931250000000000E+01      2.820282000000000E-01     -1.330615000000000E+01
3820000000.000000      3.486328000000000E-01      8.279688000000000E+01      1.535187000000000E-01     -7.141113000000000E-02
3840000000.000000      3.993683000000000E-01      7.399219000000000E+01      1.436691000000000E-01      4.810741000000000E+01
3860000000.000000      4.338226000000000E-01      6.533593000000000E+01      2.466888000000000E-01      6.549218000000000E+01
3880000000.000000      4.587860000000000E-01      5.774609000000000E+01      3.767853000000000E-01      6.122265000000000E+01
3900000000.000000      4.878693000000000E-01      5.067577000000000E+01      4.774017000000000E-01      4.775586000000000E+01
3920000000.000000      5.181274000000000E-01      4.290039000000000E+01      5.093079000000000E-01      3.610156000000000E+01
3940000000.000000      5.473328000000000E-01      3.392383000000000E+01      5.394592000000000E-01      2.942090000000000E+01
3960000000.000000      5.580750000000000E-01      2.377148000000000E+01      5.962524000000000E-01      2.014258000000000E+01
3980000000.000000      5.515747000000000E-01      1.336035000000000E+01      5.989990000000000E-01      8.250488000000000E+00
4000000000.000000      5.254822000000000E-01      2.878418000000000E+00      5.800781000000000E-01      1.215332000000000E+00
4020000000.000000      4.829559000000000E-01     -7.130127000000000E+00      5.974731000000000E-01     -6.645508000000000E+00
4040000000.000000      4.241180000000000E-01     -1.615723000000000E+01      5.851440000000000E-01     -1.883398000000000E+01
4060000000.000000      3.481293000000000E-01     -2.218359000000000E+01      5.277100000000000E-01     -2.884472000000000E+01
4080000000.000000      2.740326000000000E-01     -2.233398000000000E+01      4.685669000000000E-01     -3.845898000000000E+01
4100000000.000000      2.284851000000000E-01     -1.186279000000000E+01      3.666534000000000E-01     -4.744726000000000E+01
4120000000.000000      2.412567000000000E-01      1.207092000000000E+00      2.497559000000000E-01     -4.400195000000000E+01
4140000000.000000      2.887421000000000E-01      4.697998000000000E+00      2.032547000000000E-01     -1.975390000000000E+01
4160000000.000000      3.335266000000000E-01      5.451965000000000E-01      2.640533000000000E-01     -2.334595000000000E-02
4180000000.000000      3.615417000000000E-01     -6.326904000000000E+00      3.577271000000000E-01      3.834229000000000E+00
4200000000.000000      3.711243000000000E-01     -1.410107000000000E+01      4.875488000000000E-01      1.462524000000000E+00
4220000000.000000      3.672943000000000E-01     -2.129297000000000E+01      6.419373000000000E-01     -1.089746000000000E+01
4240000000.000000      3.478088000000000E-01     -2.881640000000000E+01      7.217407000000000E-01     -2.769140000000000E+01
4260000000.000000      3.097992000000000E-01     -3.453711000000000E+01      7.450256000000000E-01     -4.179492000000000E+01
4280000000.000000      2.597809000000000E-01     -3.583008000000000E+01      7.514038000000000E-01     -5.557617000000000E+01
4300000000.000000      2.227173000000000E-01     -2.766797000000000E+01      7.144470000000000E-01     -7.067577000000000E+01
4320000000.000000      2.360687000000000E-01     -1.505420000000000E+01      6.318665000000000E-01     -8.506639000000000E+01
4340000000.000000      2.941284000000000E-01     -1.096582000000000E+01      5.148010000000000E-01     -9.784765000000000E+01
4360000000.000000      3.591766000000000E-01     -1.596631000000000E+01      3.802338000000000E-01     -1.069062000000000E+02
4380000000.000000      4.052582000000000E-01     -2.495996000000000E+01      2.493439000000000E-01     -1.079492000000000E+02
4400000000.000000      4.266663000000000E-01     -3.488476000000000E+01      1.535339000000000E-01     -8.480078000000000E+01
4420000000.000000      4.257355000000000E-01     -4.417969000000000E+01      1.878510000000000E-01     -4.543554000000000E+01
4440000000.000000      4.088593000000000E-01     -5.221874000000000E+01      3.107910000000000E-01     -3.606836000000000E+01
4460000000.000000      3.885956000000000E-01     -5.892187000000000E+01      4.525604000000000E-01     -4.313867000000000E+01
4480000000.000000      3.688049000000000E-01     -6.487890000000000E+01      5.606689000000000E-01     -5.529882000000000E+01
4500000000.000000      3.472748000000000E-01     -7.171484000000000E+01      6.432190000000000E-01     -6.672656000000000E+01
4520000000.000000      3.144836000000000E-01     -7.930859000000000E+01      7.156982000000000E-01     -7.964844000000000E+01
4540000000.000000      2.635956000000000E-01     -8.532812000000000E+01      7.409973000000000E-01     -9.429296000000000E+01
4560000000.000000      2.035522000000000E-01     -8.349609000000000E+01      7.284546000000000E-01     -1.075156000000000E+02
4580000000.000000      1.772308000000000E-01     -6.791797000000000E+01      6.902771000000000E-01     -1.213320000000000E+02
4600000000.000000      2.147827000000000E-01     -5.427539000000000E+01      6.046753000000000E-01     -1.346328000000000E+02
4620000000.000000      2.796173000000000E-01     -5.557812000000000E+01      4.970245000000000E-01     -1.448594000000000E+02
4640000000.000000      3.331451000000000E-01     -6.545703000000000E+01      3.788605000000000E-01     -1.533359000000000E+02
4660000000.000000      3.570251000000000E-01     -7.855469000000000E+01      2.460098000000000E-01     -1.515625000000000E+02
4680000000.000000      3.486786000000000E-01     -9.230469000000000E+01      1.794128000000000E-01     -1.232813000000000E+02
4700000000.000000      3.117981000000000E-01     -1.053828000000000E+02      2.481155000000000E-01     -9.650780000000000E+01
4720000000.000000      2.550507000000000E-01     -1.158476000000000E+02      3.671265000000000E-01     -9.534765000000000E+01
4740000000.000000      1.929398000000000E-01     -1.209297000000000E+02      4.740906000000000E-01     -1.016602000000000E+02
4760000000.000000      1.410065000000000E-01     -1.166875000000000E+02      5.789490000000000E-01     -1.104492000000000E+02
4780000000.000000      1.153336000000000E-01     -1.013047000000000E+02      6.665039000000000E-01     -1.228203000000000E+02
4800000000.000000      1.217766000000000E-01     -8.375780000000000E+01      7.169800000000000E-01     -1.356719000000000E+02
4820000000.000000      1.498337000000000E-01     -7.462891000000000E+01      7.353516000000000E-01     -1.488281000000000E+02
4840000000.000000      1.910858000000000E-01     -7.424999000000000E+01      7.178040000000000E-01     -1.618594000000000E+02
4860000000.000000      2.344437000000000E-01     -8.071093000000000E+01      6.823730000000000E-01     -1.742188000000000E+02
4880000000.000000      2.712250000000000E-01     -9.083593000000000E+01      6.143494000000000E-01      1.719609000000000E+02
4900000000.000000      2.965240000000000E-01     -1.042266000000000E+02      4.964752000000000E-01      1.598203000000000E+02
4920000000.000000      3.017273000000000E-01     -1.190859000000000E+02      3.654938000000000E-01      1.536484000000000E+02
4940000000.000000      2.867279000000000E-01     -1.345156000000000E+02      2.516479000000000E-01      1.562813000000000E+02
4960000000.000000      2.565765000000000E-01     -1.494922000000000E+02      1.773987000000000E-01      1.777578000000000E+02
4980000000.000000      2.136078000000000E-01     -1.635391000000000E+02      2.148361000000000E-01     -1.510703000000000E+02
5000000000.000000      1.685028000000000E-01     -1.749063000000000E+02      3.310852000000000E-01     -1.435313000000000E+02
5020000000.000000      1.302185000000000E-01      1.754297000000000E+02      4.606476000000000E-01     -1.494609000000000E+02
5040000000.000000      9.933853000000000E-02      1.658516000000000E+02      5.696106000000000E-01     -1.602578000000000E+02
5060000000.000000      7.072830000000000E-02      1.514297000000000E+02      6.509705000000000E-01     -1.718828000000000E+02
5080000000.000000      3.989601000000000E-02      1.265039000000000E+02      7.189026000000000E-01      1.760156000000000E+02
5100000000.000000      1.360083000000000E-02      3.830078000000000E+01      7.567749000000000E-01      1.622422000000000E+02
5120000000.000000      4.155922000000000E-02     -5.431641000000000E+01      7.540894000000000E-01      1.481250000000000E+02
5140000000.000000      7.399368000000000E-02     -8.862499000000000E+01      7.040710000000000E-01      1.344844000000000E+02
5160000000.000000      9.786606000000000E-02     -1.187734000000000E+02      6.289673000000000E-01      1.221601000000000E+02
5180000000.000000      1.103706000000000E-01     -1.486016000000000E+02      5.328674000000000E-01      1.108867000000000E+02
5200000000.000000      1.122322000000000E-01      1.789063000000000E+02      4.156647000000000E-01      1.013086000000000E+02
5220000000.000000      1.085052000000000E-01      1.428594000000000E+02      2.834473000000000E-01      9.847265000000000E+01
5240000000.000000      1.063499000000000E-01      1.060664000000000E+02      1.838837000000000E-01      1.157422000000000E+02
5260000000.000000      1.107292000000000E-01      7.218359000000000E+01      1.970520000000000E-01      1.495234000000000E+02
5280000000.000000      1.187553000000000E-01      4.538281000000000E+01      2.974243000000000E-01      1.607422000000000E+02
5300000000.000000      1.253128000000000E-01      2.451367000000000E+01      4.103699000000000E-01      1.581250000000000E+02
5320000000.000000      1.319046000000000E-01      7.918213000000000E+00      5.285645000000000E-01      1.504531000000000E+02
5340000000.000000      1.378632000000000E-01     -6.462891000000000E+00      6.373596000000000E-01      1.386641000000000E+02
5360000000.000000      1.427231000000000E-01     -2.188086000000000E+01      7.059631000000000E-01      1.241211000000000E+02
5380000000.000000      1.388092000000000E-01     -3.920898000000000E+01      7.163086000000000E-01      1.109141000000000E+02
5400000000.000000      1.212425000000000E-01     -5.701953000000000E+01      7.197876000000000E-01      9.904686000000000E+01
5420000000.000000      8.612823000000000E-02     -7.369531000000000E+01      7.053223000000000E-01      8.605860000000000E+01
5440000000.000000      3.268051000000000E-02     -7.768359000000000E+01      6.480408000000000E-01      7.173828000000000E+01
5460000000.000000      4.201889000000000E-02      3.627930000000000E+01      5.403442000000000E-01      5.879687000000000E+01
5480000000.000000      1.114311000000000E-01      2.992188000000000E+01      4.120941000000000E-01      4.940430000000000E+01
5500000000.000000      1.740417000000000E-01      1.497266000000000E+01      2.924042000000000E-01      4.757617000000000E+01
5520000000.000000      2.208939000000000E-01     -5.218506000000000E-02      1.955414000000000E-01      5.934375000000000E+01
5540000000.000000      2.516632000000000E-01     -1.373877000000000E+01      1.816940000000000E-01      9.122265000000000E+01
5560000000.000000      2.709808000000000E-01     -2.549707000000000E+01      2.634735000000000E-01      1.088125000000000E+02
5580000000.000000      2.836304000000000E-01     -3.521484000000000E+01      3.843079000000000E-01      1.086094000000000E+02
5600000000.000000      2.952576000000000E-01     -4.403906000000000E+01      5.064087000000000E-01      9.973045000000000E+01
5620000000.000000      3.058167000000000E-01     -5.312500000000000E+01      5.956726000000000E-01      8.710938000000000E+01
5640000000.000000      3.097382000000000E-01     -6.279882000000000E+01      6.463318000000000E-01      7.521484000000000E+01
5660000000.000000      3.008881000000000E-01     -7.342578000000000E+01      6.848755000000000E-01      6.408203000000000E+01
5680000000.000000      2.719421000000000E-01     -8.383593000000000E+01      6.964417000000000E-01      5.128124000000000E+01
5700000000.000000      2.251358000000000E-01     -9.119141000000000E+01      6.824646000000000E-01      3.900000000000000E+01
5720000000.000000      1.750107000000000E-01     -8.998827000000000E+01      6.433716000000000E-01      2.624902000000000E+01
5740000000.000000      1.531982000000000E-01     -7.591406000000000E+01      5.645752000000000E-01      1.298438000000000E+01
5760000000.000000      1.809921000000000E-01     -6.412499000000000E+01      4.504395000000000E-01      1.273010000000000E+00
5780000000.000000      2.271271000000000E-01     -6.558594000000000E+01      3.155823000000000E-01     -3.639282000000000E+00
5800000000.000000      2.591858000000000E-01     -7.333202000000000E+01      2.079163000000000E-01      7.414307000000000E+00
5820000000.000000      2.686462000000000E-01     -8.255077000000000E+01      1.898575000000000E-01      3.782031000000000E+01
5840000000.000000      2.596893000000000E-01     -9.106640000000000E+01      2.718353000000000E-01      5.407031000000000E+01
5860000000.000000      2.422333000000000E-01     -9.658592000000000E+01      3.716278000000000E-01      5.422461000000000E+01
5880000000.000000      2.280426000000000E-01     -9.966797000000000E+01      4.776611000000000E-01      4.885742000000000E+01
5900000000.000000      2.208557000000000E-01     -1.021719000000000E+02      5.926514000000000E-01      3.859766000000000E+01
5920000000.000000      2.130737000000000E-01     -1.048711000000000E+02      6.709900000000000E-01      2.472656000000000E+01
5940000000.000000      1.987152000000000E-01     -1.069336000000000E+02      7.016602000000000E-01      1.142139000000000E+01
5960000000.000000      1.807251000000000E-01     -1.052031000000000E+02      7.102356000000000E-01     -1.275818000000000E+00
5980000000.000000      1.679306000000000E-01     -9.783983000000000E+01      6.918945000000000E-01     -1.507764000000000E+01
6000000000.000000      1.834030000000000E-01     -8.860155000000000E+01      6.274414000000000E-01     -2.891113000000000E+01
6020000000.000000      2.178650000000000E-01     -8.676172000000000E+01      5.294800000000000E-01     -4.150586000000000E+01
6040000000.000000      2.537537000000000E-01     -9.186718000000000E+01      3.983154000000000E-01     -4.963281000000000E+01
6060000000.000000      2.782593000000000E-01     -1.008320000000000E+02      2.849884000000000E-01     -4.928711000000000E+01
6080000000.000000      2.885742000000000E-01     -1.108594000000000E+02      2.054138000000000E-01     -3.552734000000000E+01
