! Network Analyzer HP8722D
! Hewlett-Packard
! Data name: Linha & Wilkinson+CNT
! Saver's name: Rodrigo Anjos
! Comments: Teste da utilização de aquisição
continua pelo VNA HP8722D
! Time and date: 29/9/2025 12:48
!              Frequency                     S11                                                   S21                                                   S12                                                   S22
# HZ  S  MA R 50
3000000000.000000      4.231110000000000E-01     -5.610156000000000E+01      2.066956000000000E-01     -1.314219000000000E+02
3020000000.000000      4.477692000000000E-01     -7.032421000000000E+01      3.495331000000000E-01     -1.347891000000000E+02
3040000000.000000      4.541473000000000E-01     -8.307421000000000E+01      4.659119000000000E-01     -1.445547000000000E+02
3060000000.000000      4.467621000000000E-01     -9.509766000000000E+01      5.721436000000000E-01     -1.549297000000000E+02
3080000000.000000      4.317474000000000E-01     -1.063594000000000E+02      6.738281000000000E-01     -1.681406000000000E+02
3100000000.000000      4.118042000000000E-01     -1.174961000000000E+02      7.234802000000000E-01      1.771250000000000E+02
3120000000.000000      3.826904000000000E-01     -1.293516000000000E+02      7.319946000000000E-01      1.636641000000000E+02
3140000000.000000      3.421936000000000E-01     -1.420625000000000E+02      7.251282000000000E-01      1.506328000000000E+02
3160000000.000000      2.821350000000000E-01     -1.560859000000000E+02      6.860046000000000E-01      1.370625000000000E+02
3180000000.000000      2.027588000000000E-01     -1.684141000000000E+02      6.131287000000000E-01      1.246328000000000E+02
3200000000.000000      1.153336000000000E-01     -1.687500000000000E+02      5.203247000000000E-01      1.118906000000000E+02
3220000000.000000      8.290100000000000E-02     -1.252226000000000E+02      3.868408000000000E-01      1.010117000000000E+02
3240000000.000000      1.529999000000000E-01     -1.054805000000000E+02      2.472992000000000E-01      9.965233000000000E+01
3260000000.000000      2.326660000000000E-01     -1.153320000000000E+02      1.471405000000000E-01      1.254609000000000E+02
3280000000.000000      2.902527000000000E-01     -1.307578000000000E+02      2.029114000000000E-01      1.653828000000000E+02
3300000000.000000      3.236389000000000E-01     -1.468984000000000E+02      3.298645000000000E-01      1.699687000000000E+02
3320000000.000000      3.356018000000000E-01     -1.626484000000000E+02      4.634705000000000E-01      1.628594000000000E+02
3340000000.000000      3.318024000000000E-01     -1.779609000000000E+02      5.747681000000000E-01      1.507109000000000E+02
3360000000.000000      3.198853000000000E-01      1.675000000000000E+02      6.472473000000000E-01      1.386719000000000E+02
3380000000.000000      3.018646000000000E-01      1.533125000000000E+02      7.109070000000000E-01      1.273438000000000E+02
3400000000.000000      2.793427000000000E-01      1.386484000000000E+02      7.577209000000000E-01      1.134609000000000E+02
3420000000.000000      2.432709000000000E-01      1.236367000000000E+02      7.497559000000000E-01      9.867577000000000E+01
3440000000.000000      1.897736000000000E-01      1.090469000000000E+02      7.077026000000000E-01      8.569139000000000E+01
3460000000.000000      1.188278000000000E-01      9.851563000000000E+01      6.482849000000000E-01      7.263281000000000E+01
3480000000.000000      4.761124000000000E-02      1.245351000000000E+02      5.498962000000000E-01      5.923633000000000E+01
3500000000.000000      9.437561000000000E-02     -1.731094000000000E+02      4.255219000000000E-01      4.781836000000000E+01
3520000000.000000      1.859589000000000E-01     -1.799609000000000E+02      2.793427000000000E-01      4.066602000000000E+01
3540000000.000000      2.644806000000000E-01      1.636797000000000E+02      1.482697000000000E-01      5.826953000000000E+01
3560000000.000000      3.235931000000000E-01      1.466250000000000E+02      1.669388000000000E-01      1.076445000000000E+02
3580000000.000000      3.595581000000000E-01      1.305234000000000E+02      2.941437000000000E-01      1.176523000000000E+02
3600000000.000000      3.759460000000000E-01      1.158476000000000E+02      4.192200000000000E-01      1.108281000000000E+02
3620000000.000000      3.777924000000000E-01      1.029961000000000E+02      5.226440000000000E-01      1.014336000000000E+02
3640000000.000000      3.675385000000000E-01      9.174608000000000E+01      6.228638000000000E-01      9.012110000000000E+01
3660000000.000000      3.513794000000000E-01      8.143749000000000E+01      6.939392000000000E-01      7.592968000000000E+01
3680000000.000000      3.279724000000000E-01      7.217968000000000E+01      7.127686000000000E-01      6.279491000000000E+01
3700000000.000000      2.974854000000000E-01      6.384766000000000E+01      7.221680000000000E-01      5.122656000000000E+01
3720000000.000000      2.524261000000000E-01      5.770898000000000E+01      7.251587000000000E-01      3.699023000000000E+01
3740000000.000000      2.022095000000000E-01      5.850586000000000E+01      6.644897000000000E-01      2.160840000000000E+01
3760000000.000000      1.756134000000000E-01      7.266406000000000E+01      5.678406000000000E-01      7.223389000000000E+00
3780000000.000000      2.093735000000000E-01      8.782030000000000E+01      4.365387000000000E-01     -5.766602000000000E+00
3800000000.000000      2.802124000000000E-01      8.944139000000000E+01      2.833405000000000E-01     -1.335693000000000E+01
3820000000.000000      3.482361000000000E-01      8.293749000000000E+01      1.539764000000000E-01     -4.037476000000000E-01
3840000000.000000      3.986053000000000E-01      7.412109000000000E+01      1.430206000000000E-01      4.765625000000000E+01
3860000000.000000      4.338226000000000E-01      6.550781000000000E+01      2.454605000000000E-01      6.544531000000000E+01
3880000000.000000      4.584045000000000E-01      5.784961000000000E+01      3.762512000000000E-01      6.127343000000000E+01
3900000000.000000      4.876099000000000E-01      5.078125000000000E+01      4.785767000000000E-01      4.774610000000000E+01
3920000000.000000      5.201721000000000E-01      4.302539000000000E+01      5.087891000000000E-01      3.628906000000000E+01
3940000000.000000      5.468445000000000E-01      3.395703000000000E+01      5.405579000000000E-01      2.985937000000000E+01
3960000000.000000      5.579529000000000E-01      2.384766000000000E+01      5.956726000000000E-01      2.018847000000000E+01
3980000000.000000      5.547180000000000E-01      1.334521000000000E+01      5.986328000000000E-01      8.312500000000000E+00
4000000000.000000      5.273438000000000E-01      3.170898000000000E+00      5.801697000000000E-01      1.266174000000000E+00
4020000000.000000      4.838562000000000E-01     -7.061523000000000E+00      5.972290000000000E-01     -6.503906000000000E+00
4040000000.000000      4.246826000000000E-01     -1.594824000000000E+01      5.860596000000000E-01     -1.867969000000000E+01
4060000000.000000      3.494720000000000E-01     -2.221582000000000E+01      5.281677000000000E-01     -2.884082000000000E+01
4080000000.000000      2.743683000000000E-01     -2.216504000000000E+01      4.686890000000000E-01     -3.820313000000000E+01
4100000000.000000      2.279510000000000E-01     -1.187256000000000E+01      3.670959000000000E-01     -4.724023000000000E+01
4120000000.000000      2.407303000000000E-01      1.212585000000000E+00      2.498245000000000E-01     -4.410742000000000E+01
4140000000.000000      2.889252000000000E-01      4.695068000000000E+00      2.031250000000000E-01     -2.008301000000000E+01
4160000000.000000      3.336487000000000E-01      6.289673000000000E-01      2.628479000000000E-01     -1.167297000000000E-01
4180000000.000000      3.612823000000000E-01     -6.236328000000000E+00      3.570251000000000E-01      3.883667000000000E+00
4200000000.000000      3.712769000000000E-01     -1.395020000000000E+01      4.871063000000000E-01      1.536682000000000E+00
4220000000.000000      3.675690000000000E-01     -2.126074000000000E+01      6.412354000000000E-01     -1.080664000000000E+01
4240000000.000000      3.483734000000000E-01     -2.876562000000000E+01      7.214661000000000E-01     -2.756348000000000E+01
4260000000.000000      3.101654000000000E-01     -3.448437000000000E+01      7.436829000000000E-01     -4.165820000000000E+01
4280000000.000000      2.602081000000000E-01     -3.586719000000000E+01      7.515259000000000E-01     -5.553320000000000E+01
4300000000.000000      2.226410000000000E-01     -2.787598000000000E+01      7.161255000000000E-01     -7.064843000000000E+01
4320000000.000000      2.359161000000000E-01     -1.505420000000000E+01      6.329041000000000E-01     -8.503906000000000E+01
4340000000.000000      2.934570000000000E-01     -1.093994000000000E+01      5.153198000000000E-01     -9.779297000000000E+01
4360000000.000000      3.587341000000000E-01     -1.585498000000000E+01      3.809204000000000E-01     -1.067188000000000E+02
4380000000.000000      4.053955000000000E-01     -2.480762000000000E+01      2.503510000000000E-01     -1.079726000000000E+02
4400000000.000000      4.273071000000000E-01     -3.483398000000000E+01      1.537781000000000E-01     -8.525391000000000E+01
4420000000.000000      4.256592000000000E-01     -4.405663000000000E+01      1.870041000000000E-01     -4.545312000000000E+01
4440000000.000000      4.101715000000000E-01     -5.218554000000000E+01      3.094788000000000E-01     -3.598437000000000E+01
4460000000.000000      3.894196000000000E-01     -5.886523000000000E+01      4.514160000000000E-01     -4.295898000000000E+01
4480000000.000000      3.687592000000000E-01     -6.497656000000000E+01      5.611572000000000E-01     -5.535937000000000E+01
4500000000.000000      3.484344000000000E-01     -7.168750000000000E+01      6.422119000000000E-01     -6.666406000000000E+01
4520000000.000000      3.150482000000000E-01     -7.921093000000000E+01      7.160645000000000E-01     -7.953906000000000E+01
4540000000.000000      2.640228000000000E-01     -8.526953000000000E+01      7.413635000000000E-01     -9.416016000000000E+01
4560000000.000000      2.040329000000000E-01     -8.369532000000000E+01      7.293091000000000E-01     -1.075078000000000E+02
4580000000.000000      1.767960000000000E-01     -6.814453000000000E+01      6.922302000000000E-01     -1.213086000000000E+02
4600000000.000000      2.138596000000000E-01     -5.431250000000000E+01      6.058960000000000E-01     -1.344531000000000E+02
4620000000.000000      2.796173000000000E-01     -5.549609000000000E+01      4.990234000000000E-01     -1.450078000000000E+02
4640000000.000000      3.331146000000000E-01     -6.523438000000000E+01      3.816071000000000E-01     -1.531875000000000E+02
4660000000.000000      3.573456000000000E-01     -7.840625000000000E+01      2.469864000000000E-01     -1.517422000000000E+02
4680000000.000000      3.492432000000000E-01     -9.217577000000000E+01      1.791840000000000E-01     -1.235156000000000E+02
4700000000.000000      3.118439000000000E-01     -1.052305000000000E+02      2.473068000000000E-01     -9.638672000000000E+01
4720000000.000000      2.562714000000000E-01     -1.157851000000000E+02      3.657074000000000E-01     -9.516016000000000E+01
4740000000.000000      1.939926000000000E-01     -1.209531000000000E+02      4.729004000000000E-01     -1.015078000000000E+02
4760000000.000000      1.409760000000000E-01     -1.170859000000000E+02      5.790405000000000E-01     -1.102695000000000E+02
4780000000.000000      1.154633000000000E-01     -1.012031000000000E+02      6.663818000000000E-01     -1.224570000000000E+02
4800000000.000000      1.213913000000000E-01     -8.398438000000000E+01      7.174377000000000E-01     -1.354766000000000E+02
4820000000.000000      1.503143000000000E-01     -7.474999000000000E+01      7.347717000000000E-01     -1.487734000000000E+02
4840000000.000000      1.905136000000000E-01     -7.410937000000000E+01      7.168884000000000E-01     -1.614922000000000E+02
4860000000.000000      2.343140000000000E-01     -8.048828000000000E+01      6.832275000000000E-01     -1.740391000000000E+02
4880000000.000000      2.709045000000000E-01     -9.073046000000000E+01      6.165466000000000E-01      1.720391000000000E+02
4900000000.000000      2.964172000000000E-01     -1.040469000000000E+02      4.961548000000000E-01      1.599062000000000E+02
4920000000.000000      3.024139000000000E-01     -1.189570000000000E+02      3.658447000000000E-01      1.536641000000000E+02
4940000000.000000      2.879028000000000E-01     -1.344844000000000E+02      2.524109000000000E-01      1.560859000000000E+02
4960000000.000000      2.569275000000000E-01     -1.494297000000000E+02      1.770630000000000E-01      1.773125000000000E+02
4980000000.000000      2.139740000000000E-01     -1.634766000000000E+02      2.141571000000000E-01     -1.510000000000000E+02
5000000000.000000      1.693268000000000E-01     -1.749766000000000E+02      3.299713000000000E-01     -1.432969000000000E+02
5020000000.000000      1.306763000000000E-01      1.754297000000000E+02      4.603729000000000E-01     -1.491875000000000E+02
5040000000.000000      1.003418000000000E-01      1.658047000000000E+02      5.697327000000000E-01     -1.602031000000000E+02
5060000000.000000      7.120514000000000E-02      1.514922000000000E+02      6.506958000000000E-01     -1.716172000000000E+02
5080000000.000000      4.072571000000000E-02      1.271328000000000E+02      7.191467000000000E-01      1.761562000000000E+02
5100000000.000000      1.378059000000000E-02      4.222852000000000E+01      7.571411000000000E-01      1.624766000000000E+02
5120000000.000000      4.127121000000000E-02     -5.427148000000000E+01      7.547913000000000E-01      1.482812000000000E+02
5140000000.000000      7.366562000000000E-02     -8.822266000000000E+01      7.035217000000000E-01      1.346094000000000E+02
5160000000.000000      9.753418000000000E-02     -1.183125000000000E+02      6.275635000000000E-01      1.223242000000000E+02
5180000000.000000      1.106186000000000E-01     -1.483828000000000E+02      5.334473000000000E-01      1.109687000000000E+02
5200000000.000000      1.126175000000000E-01      1.793594000000000E+02      4.176788000000000E-01      1.011992000000000E+02
5220000000.000000      1.083412000000000E-01      1.431172000000000E+02      2.841187000000000E-01      9.846092000000000E+01
5240000000.000000      1.071548000000000E-01      1.067305000000000E+02      1.842880000000000E-01      1.153594000000000E+02
5260000000.000000      1.110764000000000E-01      7.263672000000000E+01      1.964188000000000E-01      1.494688000000000E+02
5280000000.000000      1.184311000000000E-01      4.565820000000000E+01      2.960815000000000E-01      1.607109000000000E+02
5300000000.000000      1.254730000000000E-01      2.452832000000000E+01      4.101105000000000E-01      1.583125000000000E+02
5320000000.000000      1.317520000000000E-01      8.223145000000000E+00      5.282898000000000E-01      1.506875000000000E+02
5340000000.000000      1.381149000000000E-01     -6.298096000000000E+00      6.390381000000000E-01      1.387656000000000E+02
5360000000.000000      1.427460000000000E-01     -2.157324000000000E+01      7.067871000000000E-01      1.243437000000000E+02
5380000000.000000      1.391068000000000E-01     -3.882421000000000E+01      7.174683000000000E-01      1.109727000000000E+02
5400000000.000000      1.214981000000000E-01     -5.701757000000000E+01      7.194824000000000E-01      9.928905000000000E+01
5420000000.000000      8.673859000000000E-02     -7.396874000000000E+01      7.040100000000000E-01      8.624609000000000E+01
5440000000.000000      3.276825000000000E-02     -7.888672000000000E+01      6.495972000000000E-01      7.188671000000000E+01
5460000000.000000      4.106522000000000E-02      3.683008000000000E+01      5.398865000000000E-01      5.871484000000000E+01
5480000000.000000      1.107521000000000E-01      3.039844000000000E+01      4.130249000000000E-01      4.947656000000000E+01
5500000000.000000      1.738205000000000E-01      1.504395000000000E+01      2.935333000000000E-01      4.740430000000000E+01
5520000000.000000      2.197571000000000E-01      2.746582000000000E-02      1.959000000000000E-01      5.914844000000000E+01
5540000000.000000      2.525177000000000E-01     -1.357129000000000E+01      1.809006000000000E-01      9.080469000000000E+01
5560000000.000000      2.707672000000000E-01     -2.542285000000000E+01      2.622833000000000E-01      1.089883000000000E+02
5580000000.000000      2.834778000000000E-01     -3.519336000000000E+01      3.838959000000000E-01      1.087695000000000E+02
5600000000.000000      2.950287000000000E-01     -4.391797000000000E+01      5.059509000000000E-01      9.983984000000000E+01
5620000000.000000      3.061523000000000E-01     -5.298046000000000E+01      5.958252000000000E-01      8.715624000000000E+01
5640000000.000000      3.099976000000000E-01     -6.265234000000000E+01      6.458435000000000E-01      7.541797000000000E+01
5660000000.000000      3.009491000000000E-01     -7.328515000000000E+01      6.843262000000000E-01      6.426562000000000E+01
5680000000.000000      2.725525000000000E-01     -8.374218000000000E+01      6.987000000000000E-01      5.135937000000000E+01
5700000000.000000      2.253036000000000E-01     -9.116014000000000E+01      6.831970000000000E-01      3.912890000000000E+01
5720000000.000000      1.751328000000000E-01     -9.004686000000000E+01      6.430969000000000E-01      2.646191000000000E+01
5740000000.000000      1.525192000000000E-01     -7.603906000000000E+01      5.649414000000000E-01      1.317627000000000E+01
5760000000.000000      1.800003000000000E-01     -6.419922000000000E+01      4.503326000000000E-01      1.535339000000000E+00
5780000000.000000      2.263260000000000E-01     -6.541016000000000E+01      3.170013000000000E-01     -3.674927000000000E+00
5800000000.000000      2.592926000000000E-01     -7.310937000000000E+01      2.083054000000000E-01      7.082031000000000E+00
5820000000.000000      2.683868000000000E-01     -8.241014000000000E+01      1.897507000000000E-01      3.746094000000000E+01
5840000000.000000      2.600098000000000E-01     -9.090624000000000E+01      2.701874000000000E-01      5.433203000000000E+01
5860000000.000000      2.420883000000000E-01     -9.652733000000000E+01      3.706970000000000E-01      5.425976000000000E+01
5880000000.000000      2.281342000000000E-01     -9.966406000000000E+01      4.778442000000000E-01      4.906250000000000E+01
5900000000.000000      2.202377000000000E-01     -1.019141000000000E+02      5.938110000000000E-01      3.885937000000000E+01
5920000000.000000      2.129593000000000E-01     -1.049062000000000E+02      6.710510000000000E-01      2.477636000000000E+01
5940000000.000000      1.984177000000000E-01     -1.069453000000000E+02      7.030029000000000E-01      1.157959000000000E+01
5960000000.000000      1.807785000000000E-01     -1.054609000000000E+02      7.135010000000000E-01     -9.777832000000000E-01
5980000000.000000      1.677933000000000E-01     -9.778124000000000E+01      6.923828000000000E-01     -1.506543000000000E+01
6000000000.000000      1.831741000000000E-01     -8.876953000000000E+01      6.295471000000000E-01     -2.863476000000000E+01
6020000000.000000      2.178726000000000E-01     -8.667187000000000E+01      5.299988000000000E-01     -4.127930000000000E+01
6040000000.000000      2.535553000000000E-01     -9.175781000000000E+01      4.004669000000000E-01     -4.972851000000000E+01
6060000000.000000      2.778931000000000E-01     -1.006836000000000E+02      2.859955000000000E-01     -4.933398000000000E+01
6080000000.000000      2.885895000000000E-01     -1.106641000000000E+02      2.057800000000000E-01     -3.576953000000000E+01
