! Network Analyzer HP8722D
! Hewlett-Packard
! Data name: Linha & Wilkinson+CNT
! Saver's name: Rodrigo Anjos
! Comments: Teste da utilização de aquisição
continua pelo VNA HP8722D
! Time and date: 29/9/2025 15:13
!              Frequency                     S11                                                   S21                                                   S12                                                   S22
# HZ  S  MA R 50
3000000000.000000      4.243774000000000E-01     -5.551952000000000E+01      2.058716000000000E-01     -1.315391000000000E+02
3020000000.000000      4.472504000000000E-01     -6.974218000000000E+01      3.481293000000000E-01     -1.348828000000000E+02
3040000000.000000      4.532013000000000E-01     -8.267578000000000E+01      4.668732000000000E-01     -1.447187000000000E+02
3060000000.000000      4.451141000000000E-01     -9.473436000000000E+01      5.722351000000000E-01     -1.550547000000000E+02
3080000000.000000      4.298859000000000E-01     -1.061211000000000E+02      6.731567000000000E-01     -1.680312000000000E+02
3100000000.000000      4.090271000000000E-01     -1.172656000000000E+02      7.247009000000000E-01      1.770469000000000E+02
3120000000.000000      3.804016000000000E-01     -1.292266000000000E+02      7.321472000000000E-01      1.635625000000000E+02
3140000000.000000      3.389740000000000E-01     -1.421484000000000E+02      7.243042000000000E-01      1.506641000000000E+02
3160000000.000000      2.788391000000000E-01     -1.562656000000000E+02      6.864014000000000E-01      1.371641000000000E+02
3180000000.000000      2.000885000000000E-01     -1.690078000000000E+02      6.146240000000000E-01      1.246133000000000E+02
3200000000.000000      1.120949000000000E-01     -1.701484000000000E+02      5.213623000000000E-01      1.116133000000000E+02
3220000000.000000      7.847977000000000E-02     -1.247148000000000E+02      3.870239000000000E-01      1.009492000000000E+02
3240000000.000000      1.494751000000000E-01     -1.047422000000000E+02      2.486038000000000E-01      9.940233000000000E+01
3260000000.000000      2.289200000000000E-01     -1.148555000000000E+02      1.475906000000000E-01      1.246211000000000E+02
3280000000.000000      2.870026000000000E-01     -1.305781000000000E+02      2.017593000000000E-01      1.652734000000000E+02
3300000000.000000      3.203583000000000E-01     -1.469375000000000E+02      3.282776000000000E-01      1.697031000000000E+02
3320000000.000000      3.322601000000000E-01     -1.628672000000000E+02      4.619751000000000E-01      1.627656000000000E+02
3340000000.000000      3.287659000000000E-01     -1.783281000000000E+02      5.730591000000000E-01      1.506641000000000E+02
3360000000.000000      3.165741000000000E-01      1.669688000000000E+02      6.458435000000000E-01      1.387031000000000E+02
3380000000.000000      3.004608000000000E-01      1.525938000000000E+02      7.086792000000000E-01      1.271680000000000E+02
3400000000.000000      2.786713000000000E-01      1.379219000000000E+02      7.563171000000000E-01      1.134258000000000E+02
3420000000.000000      2.440414000000000E-01      1.228711000000000E+02      7.512207000000000E-01      9.860546000000000E+01
3440000000.000000      1.907578000000000E-01      1.081523000000000E+02      7.050781000000000E-01      8.565624000000000E+01
3460000000.000000      1.209297000000000E-01      9.724218000000000E+01      6.482239000000000E-01      7.260547000000000E+01
3480000000.000000      4.846382000000000E-02      1.204062000000000E+02      5.509644000000000E-01      5.916406000000000E+01
3500000000.000000      9.101868000000000E-02     -1.743359000000000E+02      4.264984000000000E-01      4.768164000000000E+01
3520000000.000000      1.826859000000000E-01      1.790547000000000E+02      2.809906000000000E-01      4.035156000000000E+01
3540000000.000000      2.625732000000000E-01      1.630625000000000E+02      1.484833000000000E-01      5.754296000000000E+01
3560000000.000000      3.218842000000000E-01      1.462031000000000E+02      1.655960000000000E-01      1.074297000000000E+02
3580000000.000000      3.597870000000000E-01      1.300390000000000E+02      2.924652000000000E-01      1.176094000000000E+02
3600000000.000000      3.767395000000000E-01      1.154140000000000E+02      4.180450000000000E-01      1.107500000000000E+02
3620000000.000000      3.788147000000000E-01      1.028320000000000E+02      5.201721000000000E-01      1.012930000000000E+02
3640000000.000000      3.690033000000000E-01      9.144922000000000E+01      6.214905000000000E-01      9.020311000000000E+01
3660000000.000000      3.523560000000000E-01      8.120703000000000E+01      6.930542000000000E-01      7.596484000000000E+01
3680000000.000000      3.302307000000000E-01      7.200781000000000E+01      7.089844000000000E-01      6.279491000000000E+01
3700000000.000000      2.998352000000000E-01      6.379687000000000E+01      7.222290000000000E-01      5.120507000000000E+01
3720000000.000000      2.558441000000000E-01      5.766211000000000E+01      7.251892000000000E-01      3.690430000000000E+01
3740000000.000000      2.054825000000000E-01      5.827538000000000E+01      6.651611000000000E-01      2.162500000000000E+01
3760000000.000000      1.779480000000000E-01      7.215625000000000E+01      5.682983000000000E-01      7.338867000000000E+00
3780000000.000000      2.109070000000000E-01      8.734375000000000E+01      4.394226000000000E-01     -6.149658000000000E+00
3800000000.000000      2.813110000000000E-01      8.914843000000000E+01      2.838287000000000E-01     -1.346680000000000E+01
3820000000.000000      3.490601000000000E-01      8.278906000000000E+01      1.543350000000000E-01     -9.434509000000000E-01
3840000000.000000      4.003296000000000E-01      7.407031000000000E+01      1.419678000000000E-01      4.721484000000000E+01
3860000000.000000      4.346771000000000E-01      6.544531000000000E+01      2.441788000000000E-01      6.542578000000000E+01
3880000000.000000      4.604034000000000E-01      5.786718000000000E+01      3.742523000000000E-01      6.124804000000000E+01
3900000000.000000      4.896851000000000E-01      5.090234000000000E+01      4.753418000000000E-01      4.781446000000000E+01
3920000000.000000      5.197144000000000E-01      4.324609000000000E+01      5.087585000000000E-01      3.616601000000000E+01
3940000000.000000      5.480652000000000E-01      3.423633000000000E+01      5.391235000000000E-01      2.963672000000000E+01
3960000000.000000      5.603638000000000E-01      2.423925000000000E+01      5.953979000000000E-01      2.028809000000000E+01
3980000000.000000      5.540161000000000E-01      1.372852000000000E+01      5.968018000000000E-01      8.336914000000000E+00
4000000000.000000      5.279541000000000E-01      3.143433000000000E+00      5.809937000000000E-01      1.477661000000000E+00
4020000000.000000      4.848633000000000E-01     -6.700439000000000E+00      5.977478000000000E-01     -6.336426000000000E+00
4040000000.000000      4.264069000000000E-01     -1.556396000000000E+01      5.858459000000000E-01     -1.850683000000000E+01
4060000000.000000      3.501129000000000E-01     -2.179004000000000E+01      5.297241000000000E-01     -2.876269000000000E+01
4080000000.000000      2.748718000000000E-01     -2.190332000000000E+01      4.710999000000000E-01     -3.813477000000000E+01
4100000000.000000      2.285767000000000E-01     -1.145508000000000E+01      3.681641000000000E-01     -4.749219000000000E+01
4120000000.000000      2.411957000000000E-01      1.755066000000000E+00      2.512665000000000E-01     -4.442773000000000E+01
4140000000.000000      2.894897000000000E-01      5.203369000000000E+00      2.025833000000000E-01     -2.054101000000000E+01
4160000000.000000      3.331909000000000E-01      1.036804000000000E+00      2.619629000000000E-01     -2.073669000000000E-01
4180000000.000000      3.617706000000000E-01     -5.712891000000000E+00      3.561707000000000E-01      3.930298000000000E+00
4200000000.000000      3.714447000000000E-01     -1.351465000000000E+01      4.856415000000000E-01      1.425476000000000E+00
4220000000.000000      3.676147000000000E-01     -2.071777000000000E+01      6.407166000000000E-01     -1.093018000000000E+01
4240000000.000000      3.484955000000000E-01     -2.825488000000000E+01      7.215271000000000E-01     -2.750488000000000E+01
4260000000.000000      3.105011000000000E-01     -3.400195000000000E+01      7.437744000000000E-01     -4.168750000000000E+01
4280000000.000000      2.606354000000000E-01     -3.543554000000000E+01      7.521667000000000E-01     -5.550195000000000E+01
4300000000.000000      2.225571000000000E-01     -2.754883000000000E+01      7.169495000000000E-01     -7.045703000000000E+01
4320000000.000000      2.346802000000000E-01     -1.468213000000000E+01      6.347351000000000E-01     -8.483202000000000E+01
4340000000.000000      2.922363000000000E-01     -1.048389000000000E+01      5.182495000000000E-01     -9.780468000000000E+01
4360000000.000000      3.580170000000000E-01     -1.548145000000000E+01      3.827820000000000E-01     -1.068711000000000E+02
4380000000.000000      4.045868000000000E-01     -2.441211000000000E+01      2.519989000000000E-01     -1.082695000000000E+02
4400000000.000000      4.263763000000000E-01     -3.429296000000000E+01      1.540451000000000E-01     -8.598827000000000E+01
4420000000.000000      4.249420000000000E-01     -4.378125000000000E+01      1.862335000000000E-01     -4.599023000000000E+01
4440000000.000000      4.086151000000000E-01     -5.188867000000000E+01      3.081970000000000E-01     -3.610156000000000E+01
4460000000.000000      3.887482000000000E-01     -5.855078000000000E+01      4.511108000000000E-01     -4.318749000000000E+01
4480000000.000000      3.692322000000000E-01     -6.491015000000000E+01      5.603333000000000E-01     -5.531250000000000E+01
4500000000.000000      3.474426000000000E-01     -7.148828000000000E+01      6.427917000000000E-01     -6.667578000000000E+01
4520000000.000000      3.142853000000000E-01     -7.922265000000000E+01      7.145081000000000E-01     -7.951562000000000E+01
4540000000.000000      2.633209000000000E-01     -8.558203000000000E+01      7.417908000000000E-01     -9.408203000000000E+01
4560000000.000000      2.021255000000000E-01     -8.406250000000000E+01      7.307129000000000E-01     -1.073359000000000E+02
4580000000.000000      1.739273000000000E-01     -6.819921000000000E+01      6.931152000000000E-01     -1.212969000000000E+02
4600000000.000000      2.105865000000000E-01     -5.391796000000000E+01      6.081848000000000E-01     -1.345859000000000E+02
4620000000.000000      2.761841000000000E-01     -5.501953000000000E+01      5.017700000000000E-01     -1.450859000000000E+02
4640000000.000000      3.302307000000000E-01     -6.482812000000000E+01      3.811340000000000E-01     -1.534219000000000E+02
4660000000.000000      3.547821000000000E-01     -7.820313000000000E+01      2.481766000000000E-01     -1.521094000000000E+02
4680000000.000000      3.465881000000000E-01     -9.215235000000000E+01      1.788406000000000E-01     -1.241836000000000E+02
4700000000.000000      3.100586000000000E-01     -1.054453000000000E+02      2.459564000000000E-01     -9.679688000000000E+01
4720000000.000000      2.541656000000000E-01     -1.160898000000000E+02      3.644714000000000E-01     -9.539063000000000E+01
4740000000.000000      1.921539000000000E-01     -1.214961000000000E+02      4.721985000000000E-01     -1.014805000000000E+02
4760000000.000000      1.394196000000000E-01     -1.179609000000000E+02      5.791016000000000E-01     -1.101797000000000E+02
4780000000.000000      1.119308000000000E-01     -1.022383000000000E+02      6.677551000000000E-01     -1.226445000000000E+02
4800000000.000000      1.174355000000000E-01     -8.408203000000000E+01      7.174377000000000E-01     -1.354297000000000E+02
4820000000.000000      1.456223000000000E-01     -7.398828000000000E+01      7.362671000000000E-01     -1.487578000000000E+02
4840000000.000000      1.862335000000000E-01     -7.352344000000000E+01      7.188416000000000E-01     -1.615625000000000E+02
4860000000.000000      2.302170000000000E-01     -8.012499000000000E+01      6.859741000000000E-01     -1.740625000000000E+02
4880000000.000000      2.675934000000000E-01     -9.041016000000000E+01      6.172791000000000E-01      1.721328000000000E+02
4900000000.000000      2.932892000000000E-01     -1.039570000000000E+02      5.002747000000000E-01      1.600234000000000E+02
4920000000.000000      3.005066000000000E-01     -1.190195000000000E+02      3.674774000000000E-01      1.533984000000000E+02
4940000000.000000      2.859344000000000E-01     -1.347422000000000E+02      2.537689000000000E-01      1.556562000000000E+02
4960000000.000000      2.556305000000000E-01     -1.498984000000000E+02      1.775589000000000E-01      1.766875000000000E+02
4980000000.000000      2.128601000000000E-01     -1.642109000000000E+02      2.122116000000000E-01     -1.514531000000000E+02
5000000000.000000      1.691284000000000E-01     -1.758672000000000E+02      3.275604000000000E-01     -1.435625000000000E+02
5020000000.000000      1.314545000000000E-01      1.739297000000000E+02      4.581299000000000E-01     -1.494922000000000E+02
5040000000.000000      1.010399000000000E-01      1.637187000000000E+02      5.684204000000000E-01     -1.602578000000000E+02
5060000000.000000      7.233429000000000E-02      1.487500000000000E+02      6.496582000000000E-01     -1.716406000000000E+02
5080000000.000000      4.240608000000000E-02      1.235625000000000E+02      7.179871000000000E-01      1.762734000000000E+02
5100000000.000000      1.642323000000000E-02      4.446679000000000E+01      7.561035000000000E-01      1.624531000000000E+02
5120000000.000000      4.021835000000000E-02     -5.011913000000000E+01      7.550049000000000E-01      1.481406000000000E+02
5140000000.000000      7.210541000000000E-02     -8.710938000000000E+01      7.055969000000000E-01      1.345703000000000E+02
5160000000.000000      9.592056000000000E-02     -1.182930000000000E+02      6.300049000000000E-01      1.222383000000000E+02
5180000000.000000      1.096115000000000E-01     -1.489219000000000E+02      5.355835000000000E-01      1.106445000000000E+02
5200000000.000000      1.128311000000000E-01      1.784375000000000E+02      4.193726000000000E-01      1.010938000000000E+02
5220000000.000000      1.101227000000000E-01      1.424766000000000E+02      2.855988000000000E-01      9.810547000000000E+01
5240000000.000000      1.091576000000000E-01      1.063711000000000E+02      1.845322000000000E-01      1.145781000000000E+02
5260000000.000000      1.135063000000000E-01      7.299999000000000E+01      1.948318000000000E-01      1.489297000000000E+02
5280000000.000000      1.207848000000000E-01      4.618360000000000E+01      2.945862000000000E-01      1.606250000000000E+02
5300000000.000000      1.276550000000000E-01      2.543848000000000E+01      4.074402000000000E-01      1.582500000000000E+02
5320000000.000000      1.334152000000000E-01      8.993652000000000E+00      5.268250000000000E-01      1.507031000000000E+02
5340000000.000000      1.392822000000000E-01     -5.390381000000000E+00      6.391602000000000E-01      1.388438000000000E+02
5360000000.000000      1.432266000000000E-01     -2.109179000000000E+01      7.057800000000000E-01      1.244453000000000E+02
5380000000.000000      1.389542000000000E-01     -3.855664000000000E+01      7.160645000000000E-01      1.108867000000000E+02
5400000000.000000      1.206131000000000E-01     -5.672656000000000E+01      7.198181000000000E-01      9.921875000000000E+01
5420000000.000000      8.546829000000000E-02     -7.367578000000000E+01      7.052307000000000E-01      8.618750000000000E+01
5440000000.000000      3.142929000000000E-02     -7.932812000000000E+01      6.509399000000000E-01      7.175390000000000E+01
5460000000.000000      4.195404000000000E-02      3.863476000000000E+01      5.414429000000000E-01      5.869726000000000E+01
5480000000.000000      1.117630000000000E-01      3.142187000000000E+01      4.163361000000000E-01      4.957226000000000E+01
5500000000.000000      1.745453000000000E-01      1.600390000000000E+01      2.946320000000000E-01      4.713086000000000E+01
5520000000.000000      2.203140000000000E-01      9.283447000000000E-01      1.962204000000000E-01      5.849414000000000E+01
5540000000.000000      2.512360000000000E-01     -1.276074000000000E+01      1.797333000000000E-01      9.021484000000000E+01
5560000000.000000      2.703400000000000E-01     -2.474902000000000E+01      2.608795000000000E-01      1.086875000000000E+02
5580000000.000000      2.823944000000000E-01     -3.475000000000000E+01      3.827972000000000E-01      1.088203000000000E+02
5600000000.000000      2.937317000000000E-01     -4.368945000000000E+01      5.045166000000000E-01      9.983202000000000E+01
5620000000.000000      3.047180000000000E-01     -5.280468000000000E+01      5.947876000000000E-01      8.749218000000000E+01
5640000000.000000      3.084717000000000E-01     -6.251171000000000E+01      6.461487000000000E-01      7.538671000000000E+01
5660000000.000000      2.992554000000000E-01     -7.320703000000000E+01      6.833496000000000E-01      6.416406000000000E+01
5680000000.000000      2.695465000000000E-01     -8.356249000000000E+01      6.991577000000000E-01      5.141992000000000E+01
5700000000.000000      2.226791000000000E-01     -9.115234000000000E+01      6.841125000000000E-01      3.912500000000000E+01
5720000000.000000      1.712952000000000E-01     -9.000000000000000E+01      6.459045000000000E-01      2.613867000000000E+01
5740000000.000000      1.493988000000000E-01     -7.565624000000000E+01      5.678406000000000E-01      1.285400000000000E+01
5760000000.000000      1.774979000000000E-01     -6.374804000000000E+01      4.527740000000000E-01      1.407593000000000E+00
5780000000.000000      2.241592000000000E-01     -6.509375000000000E+01      3.188782000000000E-01     -4.124023000000000E+00
5800000000.000000      2.574310000000000E-01     -7.293359000000000E+01      2.097168000000000E-01      6.506592000000000E+00
5820000000.000000      2.668762000000000E-01     -8.233593000000000E+01      1.883774000000000E-01      3.682031000000000E+01
5840000000.000000      2.573700000000000E-01     -9.082811000000000E+01      2.690735000000000E-01      5.389453000000000E+01
5860000000.000000      2.393417000000000E-01     -9.640625000000000E+01      3.695374000000000E-01      5.423437000000000E+01
5880000000.000000      2.248459000000000E-01     -9.969530000000000E+01      4.764404000000000E-01      4.897851000000000E+01
5900000000.000000      2.168503000000000E-01     -1.021250000000000E+02      5.927734000000000E-01      3.877344000000000E+01
5920000000.000000      2.090988000000000E-01     -1.050117000000000E+02      6.712952000000000E-01      2.486719000000000E+01
5940000000.000000      1.949921000000000E-01     -1.070391000000000E+02      7.024231000000000E-01      1.161084000000000E+01
5960000000.000000      1.774139000000000E-01     -1.054219000000000E+02      7.156067000000000E-01     -1.292297000000000E+00
5980000000.000000      1.654739000000000E-01     -9.774609000000000E+01      6.933594000000000E-01     -1.517529000000000E+01
6000000000.000000      1.804962000000000E-01     -8.836329000000000E+01      6.307373000000000E-01     -2.883398000000000E+01
6020000000.000000      2.145844000000000E-01     -8.633593000000000E+01      5.328674000000000E-01     -4.158203000000000E+01
6040000000.000000      2.510529000000000E-01     -9.148829000000000E+01      4.024506000000000E-01     -4.975976000000000E+01
6060000000.000000      2.747803000000000E-01     -1.005469000000000E+02      2.878876000000000E-01     -4.976367000000000E+01
6080000000.000000      2.859039000000000E-01     -1.108828000000000E+02      2.067108000000000E-01     -3.651367000000000E+01
