! Network Analyzer HP8722D
! Hewlett-Packard
! Data name: Linha & Wilkinson+CNT
! Saver's name: Rodrigo Anjos
! Comments: Teste da utilização de aquisição
continua pelo VNA HP8722D
! Time and date: 29/9/2025 17:14
!              Frequency                     S11                                                   S21                                                   S12                                                   S22
# HZ  S  MA R 50
3000000000.000000      4.237671000000000E-01     -5.560351000000000E+01      2.051392000000000E-01     -1.315000000000000E+02
3020000000.000000      4.476624000000000E-01     -6.946875000000000E+01      3.490753000000000E-01     -1.349375000000000E+02
3040000000.000000      4.526672000000000E-01     -8.251953000000000E+01      4.685516000000000E-01     -1.448125000000000E+02
3060000000.000000      4.451294000000000E-01     -9.465624000000000E+01      5.715942000000000E-01     -1.550078000000000E+02
3080000000.000000      4.299011000000000E-01     -1.060078000000000E+02      6.748962000000000E-01     -1.682969000000000E+02
3100000000.000000      4.094543000000000E-01     -1.171406000000000E+02      7.255859000000000E-01      1.769844000000000E+02
3120000000.000000      3.800354000000000E-01     -1.290859000000000E+02      7.321777000000000E-01      1.636797000000000E+02
3140000000.000000      3.392792000000000E-01     -1.421172000000000E+02      7.251892000000000E-01      1.507422000000000E+02
3160000000.000000      2.792511000000000E-01     -1.560547000000000E+02      6.847229000000000E-01      1.371797000000000E+02
3180000000.000000      2.002640000000000E-01     -1.688047000000000E+02      6.152039000000000E-01      1.245117000000000E+02
3200000000.000000      1.120682000000000E-01     -1.697266000000000E+02      5.217896000000000E-01      1.116328000000000E+02
3220000000.000000      7.893753000000000E-02     -1.242266000000000E+02      3.883362000000000E-01      1.006836000000000E+02
3240000000.000000      1.503601000000000E-01     -1.045469000000000E+02      2.490158000000000E-01      9.945702000000000E+01
3260000000.000000      2.298965000000000E-01     -1.148594000000000E+02      1.480560000000000E-01      1.246172000000000E+02
3280000000.000000      2.882690000000000E-01     -1.305000000000000E+02      2.018814000000000E-01      1.650312000000000E+02
3300000000.000000      3.209839000000000E-01     -1.468203000000000E+02      3.284302000000000E-01      1.695781000000000E+02
3320000000.000000      3.326569000000000E-01     -1.627500000000000E+02      4.613953000000000E-01      1.626094000000000E+02
3340000000.000000      3.296814000000000E-01     -1.781953000000000E+02      5.737915000000000E-01      1.507187000000000E+02
3360000000.000000      3.177032000000000E-01      1.670078000000000E+02      6.459961000000000E-01      1.384609000000000E+02
3380000000.000000      3.019104000000000E-01      1.526797000000000E+02      7.097778000000000E-01      1.272305000000000E+02
3400000000.000000      2.796936000000000E-01      1.381250000000000E+02      7.569580000000000E-01      1.133867000000000E+02
3420000000.000000      2.446518000000000E-01      1.230430000000000E+02      7.487793000000000E-01      9.858202000000000E+01
3440000000.000000      1.914673000000000E-01      1.085469000000000E+02      7.069397000000000E-01      8.576563000000000E+01
3460000000.000000      1.218796000000000E-01      9.769140000000000E+01      6.488037000000000E-01      7.274609000000000E+01
3480000000.000000      4.930687000000000E-02      1.201406000000000E+02      5.507507000000000E-01      5.909765000000000E+01
3500000000.000000      9.116745000000000E-02     -1.746328000000000E+02      4.272614000000000E-01      4.770312000000000E+01
3520000000.000000      1.823044000000000E-01      1.791016000000000E+02      2.820282000000000E-01      4.033399000000000E+01
3540000000.000000      2.622833000000000E-01      1.629766000000000E+02      1.489487000000000E-01      5.737695000000000E+01
3560000000.000000      3.231049000000000E-01      1.460469000000000E+02      1.651306000000000E-01      1.072148000000000E+02
3580000000.000000      3.599854000000000E-01      1.300234000000000E+02      2.915955000000000E-01      1.176015000000000E+02
3600000000.000000      3.766174000000000E-01      1.154766000000000E+02      4.170837000000000E-01      1.108047000000000E+02
3620000000.000000      3.784027000000000E-01      1.028437000000000E+02      5.196228000000000E-01      1.012969000000000E+02
3640000000.000000      3.691864000000000E-01      9.158983000000000E+01      6.219788000000000E-01      9.015625000000000E+01
3660000000.000000      3.524170000000000E-01      8.130077000000000E+01      6.927185000000000E-01      7.607031000000000E+01
3680000000.000000      3.301544000000000E-01      7.208593000000000E+01      7.108459000000000E-01      6.288671000000000E+01
3700000000.000000      3.003693000000000E-01      6.383007000000000E+01      7.211609000000000E-01      5.118359000000000E+01
3720000000.000000      2.563324000000000E-01      5.775976000000000E+01      7.249451000000000E-01      3.703906000000000E+01
3740000000.000000      2.060318000000000E-01      5.847461000000000E+01      6.669006000000000E-01      2.166894000000000E+01
3760000000.000000      1.782227000000000E-01      7.218359000000000E+01      5.681152000000000E-01      7.353760000000000E+00
3780000000.000000      2.110825000000000E-01      8.747656000000000E+01      4.387970000000000E-01     -5.747314000000000E+00
3800000000.000000      2.813568000000000E-01      8.922266000000000E+01      2.847290000000000E-01     -1.356299000000000E+01
3820000000.000000      3.494720000000000E-01      8.284765000000000E+01      1.550598000000000E-01     -9.750366000000000E-01
3840000000.000000      4.001312000000000E-01      7.417578000000000E+01      1.420288000000000E-01      4.726367000000000E+01
3860000000.000000      4.353790000000000E-01      6.551171000000000E+01      2.441635000000000E-01      6.541797000000000E+01
3880000000.000000      4.612274000000000E-01      5.799023000000000E+01      3.746033000000000E-01      6.140625000000000E+01
3900000000.000000      4.899750000000000E-01      5.089844000000000E+01      4.752502000000000E-01      4.798242000000000E+01
3920000000.000000      5.204773000000000E-01      4.325781000000000E+01      5.083313000000000E-01      3.626953000000000E+01
3940000000.000000      5.486145000000000E-01      3.429883000000000E+01      5.386353000000000E-01      2.980859000000000E+01
3960000000.000000      5.598145000000000E-01      2.435351000000000E+01      5.956421000000000E-01      2.031738000000000E+01
3980000000.000000      5.550232000000000E-01      1.359375000000000E+01      5.972900000000000E-01      8.466309000000000E+00
4000000000.000000      5.280151000000000E-01      3.319214000000000E+00      5.805664000000000E-01      1.343079000000000E+00
4020000000.000000      4.854431000000000E-01     -6.660645000000000E+00      5.987244000000000E-01     -6.320068000000000E+00
4040000000.000000      4.262695000000000E-01     -1.556934000000000E+01      5.881042000000000E-01     -1.869531000000000E+01
4060000000.000000      3.506927000000000E-01     -2.173144000000000E+01      5.280762000000000E-01     -2.880566000000000E+01
4080000000.000000      2.755127000000000E-01     -2.170898000000000E+01      4.700317000000000E-01     -3.784961000000000E+01
4100000000.000000      2.282028000000000E-01     -1.126807000000000E+01      3.688812000000000E-01     -4.744336000000000E+01
4120000000.000000      2.407990000000000E-01      1.963806000000000E+00      2.514343000000000E-01     -4.446485000000000E+01
4140000000.000000      2.890015000000000E-01      5.413330000000000E+00      2.027359000000000E-01     -2.050000000000000E+01
4160000000.000000      3.332367000000000E-01      1.222229000000000E+00      2.617493000000000E-01     -3.446960000000000E-01
4180000000.000000      3.614807000000000E-01     -5.571533000000000E+00      3.555145000000000E-01      3.909668000000000E+00
4200000000.000000      3.717346000000000E-01     -1.336377000000000E+01      4.865570000000000E-01      1.577881000000000E+00
4220000000.000000      3.682098000000000E-01     -2.059863000000000E+01      6.405945000000000E-01     -1.083691000000000E+01
4240000000.000000      3.497162000000000E-01     -2.804004000000000E+01      7.199402000000000E-01     -2.752539000000000E+01
4260000000.000000      3.109131000000000E-01     -3.380468000000000E+01      7.424927000000000E-01     -4.148438000000000E+01
4280000000.000000      2.602844000000000E-01     -3.534765000000000E+01      7.528381000000000E-01     -5.543359000000000E+01
4300000000.000000      2.227631000000000E-01     -2.737988000000000E+01      7.175903000000000E-01     -7.046093000000000E+01
4320000000.000000      2.346649000000000E-01     -1.450928000000000E+01      6.357727000000000E-01     -8.484766000000000E+01
4340000000.000000      2.923737000000000E-01     -1.036572000000000E+01      5.184631000000000E-01     -9.770702000000000E+01
4360000000.000000      3.581390000000000E-01     -1.537695000000000E+01      3.830872000000000E-01     -1.067578000000000E+02
4380000000.000000      4.049072000000000E-01     -2.434473000000000E+01      2.525482000000000E-01     -1.082734000000000E+02
4400000000.000000      4.268799000000000E-01     -3.429101000000000E+01      1.540222000000000E-01     -8.600389000000000E+01
4420000000.000000      4.252319000000000E-01     -4.371679000000000E+01      1.857147000000000E-01     -4.588867000000000E+01
4440000000.000000      4.086761000000000E-01     -5.171679000000000E+01      3.080292000000000E-01     -3.597461000000000E+01
4460000000.000000      3.891907000000000E-01     -5.839648000000000E+01      4.501038000000000E-01     -4.307813000000000E+01
4480000000.000000      3.692169000000000E-01     -6.458593000000000E+01      5.592651000000000E-01     -5.512695000000000E+01
4500000000.000000      3.476257000000000E-01     -7.148046000000000E+01      6.443176000000000E-01     -6.658203000000000E+01
4520000000.000000      3.138428000000000E-01     -7.934765000000000E+01      7.161865000000000E-01     -7.949219000000000E+01
4540000000.000000      2.626801000000000E-01     -8.573828000000000E+01      7.417603000000000E-01     -9.412500000000000E+01
4560000000.000000      2.009888000000000E-01     -8.415234000000000E+01      7.301636000000000E-01     -1.072734000000000E+02
4580000000.000000      1.725769000000000E-01     -6.817187000000000E+01      6.934509000000000E-01     -1.211250000000000E+02
4600000000.000000      2.095261000000000E-01     -5.357226000000000E+01      6.089172000000000E-01     -1.344297000000000E+02
4620000000.000000      2.750244000000000E-01     -5.473046000000000E+01      5.009766000000000E-01     -1.449687000000000E+02
4640000000.000000      3.286743000000000E-01     -6.459374000000000E+01      3.827972000000000E-01     -1.534219000000000E+02
4660000000.000000      3.534851000000000E-01     -7.782812000000000E+01      2.489395000000000E-01     -1.519297000000000E+02
4680000000.000000      3.449554000000000E-01     -9.185547000000000E+01      1.796188000000000E-01     -1.242617000000000E+02
4700000000.000000      3.087006000000000E-01     -1.050117000000000E+02      2.468719000000000E-01     -9.687109000000000E+01
4720000000.000000      2.523651000000000E-01     -1.156328000000000E+02      3.653259000000000E-01     -9.550781000000000E+01
4740000000.000000      1.906509000000000E-01     -1.208789000000000E+02      4.725800000000000E-01     -1.017226000000000E+02
4760000000.000000      1.388855000000000E-01     -1.170469000000000E+02      5.802002000000000E-01     -1.104336000000000E+02
4780000000.000000      1.128616000000000E-01     -1.008711000000000E+02      6.674500000000000E-01     -1.226367000000000E+02
4800000000.000000      1.183853000000000E-01     -8.323046000000000E+01      7.178955000000000E-01     -1.353750000000000E+02
4820000000.000000      1.470184000000000E-01     -7.362499000000000E+01      7.368774000000000E-01     -1.487656000000000E+02
4840000000.000000      1.883240000000000E-01     -7.337891000000000E+01      7.197266000000000E-01     -1.616328000000000E+02
4860000000.000000      2.315598000000000E-01     -7.986328000000000E+01      6.854553000000000E-01     -1.741406000000000E+02
4880000000.000000      2.692413000000000E-01     -9.035936000000000E+01      6.197510000000000E-01      1.720781000000000E+02
4900000000.000000      2.957001000000000E-01     -1.038750000000000E+02      4.980621000000000E-01      1.599375000000000E+02
4920000000.000000      3.018494000000000E-01     -1.188711000000000E+02      3.660889000000000E-01      1.534375000000000E+02
4940000000.000000      2.873230000000000E-01     -1.345937000000000E+02      2.543030000000000E-01      1.554375000000000E+02
4960000000.000000      2.566071000000000E-01     -1.496719000000000E+02      1.770477000000000E-01      1.761797000000000E+02
4980000000.000000      2.136459000000000E-01     -1.638515000000000E+02      2.113724000000000E-01     -1.517734000000000E+02
5000000000.000000      1.697464000000000E-01     -1.756250000000000E+02      3.265076000000000E-01     -1.435859000000000E+02
5020000000.000000      1.321411000000000E-01      1.744531000000000E+02      4.575653000000000E-01     -1.494141000000000E+02
5040000000.000000      1.013489000000000E-01      1.643516000000000E+02      5.676880000000000E-01     -1.602266000000000E+02
5060000000.000000      7.347107000000000E-02      1.494922000000000E+02      6.484985000000000E-01     -1.716328000000000E+02
5080000000.000000      4.272842000000000E-02      1.247930000000000E+02      7.183228000000000E-01      1.762500000000000E+02
5100000000.000000      1.642227000000000E-02      4.589648000000000E+01      7.570496000000000E-01      1.625625000000000E+02
5120000000.000000      3.998947000000000E-02     -5.027929000000000E+01      7.549438000000000E-01      1.482812000000000E+02
5140000000.000000      7.231522000000000E-02     -8.751953000000000E+01      7.046204000000000E-01      1.345781000000000E+02
5160000000.000000      9.630966000000000E-02     -1.182813000000000E+02      6.311951000000000E-01      1.224297000000000E+02
5180000000.000000      1.099892000000000E-01     -1.489922000000000E+02      5.367126000000000E-01      1.108984000000000E+02
5200000000.000000      1.133232000000000E-01      1.785547000000000E+02      4.199982000000000E-01      1.009453000000000E+02
5220000000.000000      1.111412000000000E-01      1.429297000000000E+02      2.857208000000000E-01      9.807812000000000E+01
5240000000.000000      1.096153000000000E-01      1.066797000000000E+02      1.844330000000000E-01      1.145156000000000E+02
5260000000.000000      1.137085000000000E-01      7.330468000000000E+01      1.941605000000000E-01      1.488750000000000E+02
5280000000.000000      1.205673000000000E-01      4.653516000000000E+01      2.943268000000000E-01      1.606328000000000E+02
5300000000.000000      1.275864000000000E-01      2.558398000000000E+01      4.072723000000000E-01      1.582891000000000E+02
5320000000.000000      1.335602000000000E-01      8.990723000000000E+00      5.245056000000000E-01      1.507969000000000E+02
5340000000.000000      1.392136000000000E-01     -5.437012000000000E+00      6.386719000000000E-01      1.388828000000000E+02
5360000000.000000      1.432648000000000E-01     -2.107910000000000E+01      7.049255000000000E-01      1.243711000000000E+02
5380000000.000000      1.389847000000000E-01     -3.878906000000000E+01      7.182007000000000E-01      1.110352000000000E+02
5400000000.000000      1.207161000000000E-01     -5.690624000000000E+01      7.184143000000000E-01      9.926170000000000E+01
5420000000.000000      8.591843000000000E-02     -7.449609000000000E+01      7.058411000000000E-01      8.622656000000000E+01
5440000000.000000      3.169823000000000E-02     -8.082031000000000E+01      6.494446000000000E-01      7.189453000000000E+01
5460000000.000000      4.068375000000000E-02      3.995703000000000E+01      5.437317000000000E-01      5.880664000000000E+01
5480000000.000000      1.109238000000000E-01      3.195996000000000E+01      4.161987000000000E-01      4.946289000000000E+01
5500000000.000000      1.739578000000000E-01      1.630469000000000E+01      2.952728000000000E-01      4.715234000000000E+01
5520000000.000000      2.196579000000000E-01      1.094482000000000E+00      1.962509000000000E-01      5.834374000000000E+01
5540000000.000000      2.511139000000000E-01     -1.277197000000000E+01      1.796799000000000E-01      9.035936000000000E+01
5560000000.000000      2.700500000000000E-01     -2.464844000000000E+01      2.601471000000000E-01      1.088359000000000E+02
5580000000.000000      2.829132000000000E-01     -3.478125000000000E+01      3.825989000000000E-01      1.087422000000000E+02
5600000000.000000      2.939911000000000E-01     -4.361914000000000E+01      5.040588000000000E-01      9.987890000000000E+01
5620000000.000000      3.045654000000000E-01     -5.282227000000000E+01      5.950012000000000E-01      8.731640000000000E+01
5640000000.000000      3.087616000000000E-01     -6.251953000000000E+01      6.481628000000000E-01      7.551171000000000E+01
5660000000.000000      2.988434000000000E-01     -7.325000000000000E+01      6.846008000000000E-01      6.405078000000000E+01
5680000000.000000      2.694397000000000E-01     -8.355860000000000E+01      7.005005000000000E-01      5.138281000000000E+01
5700000000.000000      2.220306000000000E-01     -9.114843000000000E+01      6.839905000000000E-01      3.906641000000000E+01
5720000000.000000      1.709518000000000E-01     -9.005468000000000E+01      6.457825000000000E-01      2.625586000000000E+01
5740000000.000000      1.487045000000000E-01     -7.569140000000000E+01      5.683899000000000E-01      1.298291000000000E+01
5760000000.000000      1.769104000000000E-01     -6.383007000000000E+01      4.547729000000000E-01      1.365051000000000E+00
5780000000.000000      2.236252000000000E-01     -6.508203000000000E+01      3.190918000000000E-01     -3.970215000000000E+00
5800000000.000000      2.566071000000000E-01     -7.284765000000000E+01      2.100525000000000E-01      6.370605000000000E+00
5820000000.000000      2.663574000000000E-01     -8.218359000000000E+01      1.880341000000000E-01      3.690430000000000E+01
5840000000.000000      2.574463000000000E-01     -9.080469000000000E+01      2.679596000000000E-01      5.400585000000000E+01
5860000000.000000      2.392426000000000E-01     -9.655077000000000E+01      3.687744000000000E-01      5.417578000000000E+01
5880000000.000000      2.236710000000000E-01     -9.967577000000000E+01      4.768982000000000E-01      4.897655000000000E+01
5900000000.000000      2.155991000000000E-01     -1.021758000000000E+02      5.926819000000000E-01      3.875781000000000E+01
5920000000.000000      2.083511000000000E-01     -1.051641000000000E+02      6.716003000000000E-01      2.486133000000000E+01
5940000000.000000      1.945038000000000E-01     -1.071875000000000E+02      7.026062000000000E-01      1.151758000000000E+01
5960000000.000000      1.779175000000000E-01     -1.054297000000000E+02      7.154541000000000E-01     -1.078064000000000E+00
5980000000.000000      1.654510000000000E-01     -9.756639000000000E+01      6.939392000000000E-01     -1.502148000000000E+01
6000000000.000000      1.806412000000000E-01     -8.803514000000000E+01      6.322327000000000E-01     -2.866699000000000E+01
6020000000.000000      2.150269000000000E-01     -8.613672000000000E+01      5.325623000000000E-01     -4.160156000000000E+01
6040000000.000000      2.502289000000000E-01     -9.150782000000000E+01      4.044800000000000E-01     -4.971874000000000E+01
6060000000.000000      2.744751000000000E-01     -1.004726000000000E+02      2.881470000000000E-01     -4.985156000000000E+01
6080000000.000000      2.850189000000000E-01     -1.106836000000000E+02      2.068481000000000E-01     -3.668750000000000E+01
