! Network Analyzer HP8722D
! Hewlett-Packard
! Data name: Linha & Wilkinson+CNT
! Saver's name: Rodrigo Anjos
! Comments: Teste da utilização de aquisição
continua pelo VNA HP8722D
! Time and date: 29/9/2025 13:16
!              Frequency                     S11                                                   S21                                                   S12                                                   S22
# HZ  S  MA R 50
3000000000.000000      4.242096000000000E-01     -5.576953000000000E+01      2.068100000000000E-01     -1.317031000000000E+02
3020000000.000000      4.483490000000000E-01     -7.011719000000000E+01      3.488617000000000E-01     -1.349609000000000E+02
3040000000.000000      4.537201000000000E-01     -8.275391000000000E+01      4.676514000000000E-01     -1.448750000000000E+02
3060000000.000000      4.448853000000000E-01     -9.495312000000000E+01      5.702209000000000E-01     -1.551875000000000E+02
3080000000.000000      4.298248000000000E-01     -1.063398000000000E+02      6.725464000000000E-01     -1.684453000000000E+02
3100000000.000000      4.093018000000000E-01     -1.175703000000000E+02      7.239075000000000E-01      1.768672000000000E+02
3120000000.000000      3.803253000000000E-01     -1.295156000000000E+02      7.317810000000000E-01      1.634063000000000E+02
3140000000.000000      3.389435000000000E-01     -1.424844000000000E+02      7.240601000000000E-01      1.505781000000000E+02
3160000000.000000      2.797241000000000E-01     -1.565078000000000E+02      6.849976000000000E-01      1.369453000000000E+02
3180000000.000000      2.001114000000000E-01     -1.692422000000000E+02      6.123047000000000E-01      1.244102000000000E+02
3200000000.000000      1.123085000000000E-01     -1.699297000000000E+02      5.197754000000000E-01      1.115312000000000E+02
3220000000.000000      7.912064000000000E-02     -1.244883000000000E+02      3.871307000000000E-01      1.008750000000000E+02
3240000000.000000      1.501236000000000E-01     -1.049648000000000E+02      2.477188000000000E-01      9.942968000000000E+01
3260000000.000000      2.295761000000000E-01     -1.152969000000000E+02      1.472473000000000E-01      1.250703000000000E+02
3280000000.000000      2.877350000000000E-01     -1.309062000000000E+02      2.021866000000000E-01      1.652266000000000E+02
3300000000.000000      3.207245000000000E-01     -1.472109000000000E+02      3.294830000000000E-01      1.695313000000000E+02
3320000000.000000      3.325043000000000E-01     -1.631641000000000E+02      4.616089000000000E-01      1.625781000000000E+02
3340000000.000000      3.293152000000000E-01     -1.785234000000000E+02      5.743408000000000E-01      1.504844000000000E+02
3360000000.000000      3.177032000000000E-01      1.667422000000000E+02      6.456299000000000E-01      1.383906000000000E+02
3380000000.000000      3.015747000000000E-01      1.524765000000000E+02      7.081299000000000E-01      1.271250000000000E+02
3400000000.000000      2.785187000000000E-01      1.378281000000000E+02      7.578735000000000E-01      1.132070000000000E+02
3420000000.000000      2.434616000000000E-01      1.227773000000000E+02      7.490845000000000E-01      9.841406000000000E+01
3440000000.000000      1.903381000000000E-01      1.080586000000000E+02      7.051086000000000E-01      8.553125000000000E+01
3460000000.000000      1.204872000000000E-01      9.741405000000000E+01      6.469421000000000E-01      7.256640000000000E+01
3480000000.000000      4.821396000000000E-02      1.211211000000000E+02      5.494080000000000E-01      5.908984000000000E+01
3500000000.000000      9.199142000000000E-02     -1.743828000000000E+02      4.266968000000000E-01      4.765234000000000E+01
3520000000.000000      1.837616000000000E-01      1.791953000000000E+02      2.801361000000000E-01      4.037695000000000E+01
3540000000.000000      2.627716000000000E-01      1.629609000000000E+02      1.479340000000000E-01      5.802148000000000E+01
3560000000.000000      3.227692000000000E-01      1.459375000000000E+02      1.660538000000000E-01      1.074531000000000E+02
3580000000.000000      3.593445000000000E-01      1.299297000000000E+02      2.930145000000000E-01      1.174141000000000E+02
3600000000.000000      3.758850000000000E-01      1.153672000000000E+02      4.186554000000000E-01      1.107344000000000E+02
3620000000.000000      3.783112000000000E-01      1.025430000000000E+02      5.202942000000000E-01      1.011601000000000E+02
3640000000.000000      3.688354000000000E-01      9.139452000000000E+01      6.218262000000000E-01      9.008593000000000E+01
3660000000.000000      3.525085000000000E-01      8.111328000000000E+01      6.931152000000000E-01      7.581249000000000E+01
3680000000.000000      3.292542000000000E-01      7.190234000000000E+01      7.099915000000000E-01      6.265625000000000E+01
3700000000.000000      2.989807000000000E-01      6.370117000000000E+01      7.213135000000000E-01      5.104882000000000E+01
3720000000.000000      2.550201000000000E-01      5.757617000000000E+01      7.244568000000000E-01      3.677929000000000E+01
3740000000.000000      2.044601000000000E-01      5.837695000000000E+01      6.632996000000000E-01      2.145996000000000E+01
3760000000.000000      1.771774000000000E-01      7.226171000000000E+01      5.668640000000000E-01      7.114990000000000E+00
3780000000.000000      2.110825000000000E-01      8.730078000000000E+01      4.380951000000000E-01     -6.192383000000000E+00
3800000000.000000      2.817993000000000E-01      8.903124000000000E+01      2.830353000000000E-01     -1.354785000000000E+01
3820000000.000000      3.492889000000000E-01      8.260157000000000E+01      1.542587000000000E-01     -8.706665000000000E-01
3840000000.000000      4.002991000000000E-01      7.387500000000000E+01      1.426697000000000E-01      4.735352000000000E+01
3860000000.000000      4.349365000000000E-01      6.529297000000000E+01      2.450714000000000E-01      6.515234000000000E+01
3880000000.000000      4.600830000000000E-01      5.771874000000000E+01      3.753357000000000E-01      6.127539000000000E+01
3900000000.000000      4.883575000000000E-01      5.072656000000000E+01      4.763489000000000E-01      4.783399000000000E+01
3920000000.000000      5.196533000000000E-01      4.304688000000000E+01      5.085754000000000E-01      3.610547000000000E+01
3940000000.000000      5.487061000000000E-01      3.397656000000000E+01      5.393372000000000E-01      2.941797000000000E+01
3960000000.000000      5.584717000000000E-01      2.397851000000000E+01      5.945129000000000E-01      1.999512000000000E+01
3980000000.000000      5.529480000000000E-01      1.355811000000000E+01      5.978088000000000E-01      8.089844000000000E+00
4000000000.000000      5.272522000000000E-01      3.118652000000000E+00      5.810852000000000E-01      1.248291000000000E+00
4020000000.000000      4.840088000000000E-01     -6.850098000000000E+00      5.987244000000000E-01     -6.644043000000000E+00
4040000000.000000      4.251099000000000E-01     -1.583447000000000E+01      5.851746000000000E-01     -1.883887000000000E+01
4060000000.000000      3.493958000000000E-01     -2.188672000000000E+01      5.286865000000000E-01     -2.886719000000000E+01
4080000000.000000      2.747040000000000E-01     -2.201855000000000E+01      4.693451000000000E-01     -3.828711000000000E+01
4100000000.000000      2.283249000000000E-01     -1.154150000000000E+01      3.676605000000000E-01     -4.749804000000000E+01
4120000000.000000      2.415009000000000E-01      1.639709000000000E+00      2.503204000000000E-01     -4.425781000000000E+01
4140000000.000000      2.890472000000000E-01      5.081055000000000E+00      2.028580000000000E-01     -2.033496000000000E+01
4160000000.000000      3.339233000000000E-01      8.294678000000000E-01      2.626801000000000E-01     -2.032471000000000E-01
4180000000.000000      3.617401000000000E-01     -5.903809000000000E+00      3.561859000000000E-01      3.731201000000000E+00
4200000000.000000      3.708801000000000E-01     -1.366602000000000E+01      4.877167000000000E-01      1.222229000000000E+00
4220000000.000000      3.668518000000000E-01     -2.095019000000000E+01      6.429138000000000E-01     -1.097168000000000E+01
4240000000.000000      3.480988000000000E-01     -2.843164000000000E+01      7.221680000000000E-01     -2.757715000000000E+01
4260000000.000000      3.100739000000000E-01     -3.418750000000000E+01      7.437744000000000E-01     -4.169335000000000E+01
4280000000.000000      2.597351000000000E-01     -3.556445000000000E+01      7.510376000000000E-01     -5.553905000000000E+01
4300000000.000000      2.228546000000000E-01     -2.755273000000000E+01      7.152100000000000E-01     -7.069530000000000E+01
4320000000.000000      2.352219000000000E-01     -1.477539000000000E+01      6.331787000000000E-01     -8.498827000000000E+01
4340000000.000000      2.930603000000000E-01     -1.067334000000000E+01      5.174866000000000E-01     -9.778906000000000E+01
4360000000.000000      3.586426000000000E-01     -1.567236000000000E+01      3.807831000000000E-01     -1.070469000000000E+02
4380000000.000000      4.048309000000000E-01     -2.460938000000000E+01      2.511902000000000E-01     -1.081875000000000E+02
4400000000.000000      4.259644000000000E-01     -3.458984000000000E+01      1.538925000000000E-01     -8.557032000000000E+01
4420000000.000000      4.246826000000000E-01     -4.406054000000000E+01      1.865692000000000E-01     -4.581445000000000E+01
4440000000.000000      4.085236000000000E-01     -5.207421000000000E+01      3.090515000000000E-01     -3.612695000000000E+01
4460000000.000000      3.885193000000000E-01     -5.866405000000000E+01      4.515991000000000E-01     -4.337304000000000E+01
4480000000.000000      3.679504000000000E-01     -6.512109000000000E+01      5.607910000000000E-01     -5.544531000000000E+01
4500000000.000000      3.465729000000000E-01     -7.163671000000000E+01      6.424255000000000E-01     -6.686718000000000E+01
4520000000.000000      3.139343000000000E-01     -7.930078000000000E+01      7.155151000000000E-01     -7.966797000000000E+01
4540000000.000000      2.626801000000000E-01     -8.555468000000000E+01      7.419434000000000E-01     -9.437109000000000E+01
4560000000.000000      2.020111000000000E-01     -8.394922000000000E+01      7.277527000000000E-01     -1.077617000000000E+02
4580000000.000000      1.745529000000000E-01     -6.817187000000000E+01      6.925659000000000E-01     -1.213945000000000E+02
4600000000.000000      2.112961000000000E-01     -5.409180000000000E+01      6.066589000000000E-01     -1.346797000000000E+02
4620000000.000000      2.765045000000000E-01     -5.535351000000000E+01      4.997406000000000E-01     -1.451953000000000E+02
4640000000.000000      3.306732000000000E-01     -6.517578000000000E+01      3.807831000000000E-01     -1.534453000000000E+02
4660000000.000000      3.545990000000000E-01     -7.835155000000000E+01      2.474899000000000E-01     -1.520469000000000E+02
4680000000.000000      3.469849000000000E-01     -9.232813000000000E+01      1.790085000000000E-01     -1.239805000000000E+02
4700000000.000000      3.097839000000000E-01     -1.055391000000000E+02      2.469025000000000E-01     -9.678123000000000E+01
4720000000.000000      2.535706000000000E-01     -1.161367000000000E+02      3.648987000000000E-01     -9.541796000000000E+01
4740000000.000000      1.915207000000000E-01     -1.215273000000000E+02      4.734497000000000E-01     -1.017930000000000E+02
4760000000.000000      1.390839000000000E-01     -1.176914000000000E+02      5.786743000000000E-01     -1.106719000000000E+02
4780000000.000000      1.128426000000000E-01     -1.018086000000000E+02      6.675110000000000E-01     -1.230820000000000E+02
4800000000.000000      1.185532000000000E-01     -8.406641000000000E+01      7.162476000000000E-01     -1.357188000000000E+02
4820000000.000000      1.466370000000000E-01     -7.431641000000000E+01      7.354736000000000E-01     -1.489297000000000E+02
4840000000.000000      1.879044000000000E-01     -7.416797000000000E+01      7.174072000000000E-01     -1.617188000000000E+02
4860000000.000000      2.306824000000000E-01     -8.040234000000000E+01      6.859131000000000E-01     -1.742656000000000E+02
4880000000.000000      2.685394000000000E-01     -9.066015000000000E+01      6.180420000000000E-01      1.718281000000000E+02
4900000000.000000      2.944946000000000E-01     -1.041328000000000E+02      4.971008000000000E-01      1.598047000000000E+02
4920000000.000000      2.997742000000000E-01     -1.192851000000000E+02      3.657227000000000E-01      1.535469000000000E+02
4940000000.000000      2.855835000000000E-01     -1.349531000000000E+02      2.531586000000000E-01      1.557188000000000E+02
4960000000.000000      2.555237000000000E-01     -1.501406000000000E+02      1.771545000000000E-01      1.767656000000000E+02
4980000000.000000      2.130280000000000E-01     -1.644844000000000E+02      2.131653000000000E-01     -1.514922000000000E+02
5000000000.000000      1.684723000000000E-01     -1.760313000000000E+02      3.284607000000000E-01     -1.437031000000000E+02
5020000000.000000      1.303482000000000E-01      1.739922000000000E+02      4.603119000000000E-01     -1.496172000000000E+02
5040000000.000000      9.984589000000000E-02      1.637812000000000E+02      5.677795000000000E-01     -1.605156000000000E+02
5060000000.000000      7.171249000000000E-02      1.489141000000000E+02      6.497803000000000E-01     -1.719219000000000E+02
5080000000.000000      4.207993000000000E-02      1.228828000000000E+02      7.176819000000000E-01      1.760000000000000E+02
5100000000.000000      1.691818000000000E-02      4.384766000000000E+01      7.570496000000000E-01      1.622109000000000E+02
5120000000.000000      4.065514000000000E-02     -5.114062000000000E+01      7.551270000000000E-01      1.479844000000000E+02
5140000000.000000      7.242584000000000E-02     -8.731640000000000E+01      7.053528000000000E-01      1.343828000000000E+02
5160000000.000000      9.574509000000000E-02     -1.184648000000000E+02      6.297607000000000E-01      1.219805000000000E+02
5180000000.000000      1.091385000000000E-01     -1.493047000000000E+02      5.345764000000000E-01      1.107070000000000E+02
5200000000.000000      1.122742000000000E-01      1.780703000000000E+02      4.169769000000000E-01      1.009922000000000E+02
5220000000.000000      1.094551000000000E-01      1.419453000000000E+02      2.843628000000000E-01      9.811327000000000E+01
5240000000.000000      1.088982000000000E-01      1.056680000000000E+02      1.843338000000000E-01      1.148828000000000E+02
5260000000.000000      1.133423000000000E-01      7.243750000000000E+01      1.954498000000000E-01      1.490937000000000E+02
5280000000.000000      1.210365000000000E-01      4.579102000000000E+01      2.951813000000000E-01      1.605078000000000E+02
5300000000.000000      1.275940000000000E-01      2.482910000000000E+01      4.087372000000000E-01      1.580859000000000E+02
5320000000.000000      1.334991000000000E-01      8.640625000000000E+00      5.270691000000000E-01      1.505078000000000E+02
5340000000.000000      1.395874000000000E-01     -5.789795000000000E+00      6.390686000000000E-01      1.386563000000000E+02
5360000000.000000      1.432114000000000E-01     -2.114648000000000E+01      7.064209000000000E-01      1.242383000000000E+02
5380000000.000000      1.387939000000000E-01     -3.865039000000000E+01      7.178345000000000E-01      1.107617000000000E+02
5400000000.000000      1.199799000000000E-01     -5.668750000000000E+01      7.204590000000000E-01      9.917578000000000E+01
5420000000.000000      8.469391000000000E-02     -7.346874000000000E+01      7.055359000000000E-01      8.596483000000000E+01
5440000000.000000      3.065777000000000E-02     -7.765625000000000E+01      6.485291000000000E-01      7.167187000000000E+01
5460000000.000000      4.292107000000000E-02      3.885742000000000E+01      5.411682000000000E-01      5.853320000000000E+01
5480000000.000000      1.127930000000000E-01      3.091894000000000E+01      4.140320000000000E-01      4.937695000000000E+01
5500000000.000000      1.749420000000000E-01      1.567188000000000E+01      2.938385000000000E-01      4.706250000000000E+01
5520000000.000000      2.209091000000000E-01      5.905151000000000E-01      1.956635000000000E-01      5.857226000000000E+01
5540000000.000000      2.528229000000000E-01     -1.316895000000000E+01      1.806030000000000E-01      9.042578000000000E+01
5560000000.000000      2.704315000000000E-01     -2.501074000000000E+01      2.616882000000000E-01      1.087226000000000E+02
5580000000.000000      2.825470000000000E-01     -3.498828000000000E+01      3.830261000000000E-01      1.086211000000000E+02
5600000000.000000      2.942200000000000E-01     -4.382813000000000E+01      5.054626000000000E-01      9.958593000000000E+01
5620000000.000000      3.043671000000000E-01     -5.293750000000000E+01      5.956421000000000E-01      8.705078000000000E+01
5640000000.000000      3.083496000000000E-01     -6.272851000000000E+01      6.459961000000000E-01      7.507421000000000E+01
5660000000.000000      2.981415000000000E-01     -7.338672000000000E+01      6.870117000000000E-01      6.389648000000000E+01
5680000000.000000      2.689972000000000E-01     -8.374609000000000E+01      6.981201000000000E-01      5.119726000000000E+01
5700000000.000000      2.220230000000000E-01     -9.123827000000000E+01      6.832275000000000E-01      3.885937000000000E+01
5720000000.000000      1.714783000000000E-01     -8.985155000000000E+01      6.445007000000000E-01      2.600000000000000E+01
5740000000.000000      1.501541000000000E-01     -7.567577000000000E+01      5.665588000000000E-01      1.283301000000000E+01
5760000000.000000      1.782913000000000E-01     -6.385547000000000E+01      4.531097000000000E-01      1.192017000000000E+00
5780000000.000000      2.245483000000000E-01     -6.524609000000000E+01      3.175659000000000E-01     -4.091064000000000E+00
5800000000.000000      2.562256000000000E-01     -7.303515000000000E+01      2.091904000000000E-01      6.711182000000000E+00
5820000000.000000      2.661285000000000E-01     -8.248438000000000E+01      1.891708000000000E-01      3.717773000000000E+01
5840000000.000000      2.574005000000000E-01     -9.098047000000000E+01      2.697601000000000E-01      5.380273000000000E+01
5860000000.000000      2.394333000000000E-01     -9.671875000000000E+01      3.706360000000000E-01      5.405273000000000E+01
5880000000.000000      2.246475000000000E-01     -9.975780000000000E+01      4.769897000000000E-01      4.869531000000000E+01
5900000000.000000      2.166138000000000E-01     -1.023047000000000E+02      5.931396000000000E-01      3.866406000000000E+01
5920000000.000000      2.094574000000000E-01     -1.050352000000000E+02      6.713562000000000E-01      2.461816000000000E+01
5940000000.000000      1.958313000000000E-01     -1.070430000000000E+02      7.024841000000000E-01      1.129492000000000E+01
5960000000.000000      1.773911000000000E-01     -1.054961000000000E+02      7.150574000000000E-01     -1.337585000000000E+00
5980000000.000000      1.655197000000000E-01     -9.767967000000000E+01      6.916809000000000E-01     -1.545654000000000E+01
6000000000.000000      1.808014000000000E-01     -8.858202000000000E+01      6.289978000000000E-01     -2.891504000000000E+01
6020000000.000000      2.152786000000000E-01     -8.662889000000000E+01      5.313416000000000E-01     -4.158789000000000E+01
6040000000.000000      2.512665000000000E-01     -9.181641000000000E+01      4.016724000000000E-01     -4.992382000000000E+01
6060000000.000000      2.749329000000000E-01     -1.008711000000000E+02      2.864685000000000E-01     -4.995117000000000E+01
6080000000.000000      2.856598000000000E-01     -1.111445000000000E+02      2.061081000000000E-01     -3.626953000000000E+01
