! Network Analyzer HP8722D
! Hewlett-Packard
! Data name: Linha & Wilkinson+CNT
! Saver's name: Rodrigo Anjos
! Comments: Teste da utilização de aquisição
continua pelo VNA HP8722D
! Time and date: 29/9/2025 13:38
!              Frequency                     S11                                                   S21                                                   S12                                                   S22
# HZ  S  MA R 50
3000000000.000000      4.233551000000000E-01     -5.565430000000000E+01      2.069016000000000E-01     -1.315938000000000E+02
3020000000.000000      4.476013000000000E-01     -6.993359000000000E+01      3.491364000000000E-01     -1.350000000000000E+02
3040000000.000000      4.529572000000000E-01     -8.283594000000000E+01      4.669800000000000E-01     -1.449687000000000E+02
3060000000.000000      4.448547000000000E-01     -9.502733000000000E+01      5.717163000000000E-01     -1.551406000000000E+02
3080000000.000000      4.293976000000000E-01     -1.063359000000000E+02      6.742249000000000E-01     -1.683594000000000E+02
3100000000.000000      4.089355000000000E-01     -1.175117000000000E+02      7.237549000000000E-01      1.768516000000000E+02
3120000000.000000      3.801727000000000E-01     -1.295000000000000E+02      7.313538000000000E-01      1.634140000000000E+02
3140000000.000000      3.387299000000000E-01     -1.424766000000000E+02      7.241211000000000E-01      1.504297000000000E+02
3160000000.000000      2.792358000000000E-01     -1.565156000000000E+02      6.835022000000000E-01      1.370703000000000E+02
3180000000.000000      1.998444000000000E-01     -1.692109000000000E+02      6.134949000000000E-01      1.244961000000000E+02
3200000000.000000      1.119041000000000E-01     -1.698281000000000E+02      5.206604000000000E-01      1.116328000000000E+02
3220000000.000000      7.943344000000000E-02     -1.245313000000000E+02      3.861847000000000E-01      1.009375000000000E+02
3240000000.000000      1.505051000000000E-01     -1.049141000000000E+02      2.469101000000000E-01      9.953905000000000E+01
3260000000.000000      2.295151000000000E-01     -1.151563000000000E+02      1.469116000000000E-01      1.250352000000000E+02
3280000000.000000      2.873535000000000E-01     -1.308594000000000E+02      2.024689000000000E-01      1.652891000000000E+02
3300000000.000000      3.206787000000000E-01     -1.472031000000000E+02      3.291168000000000E-01      1.696406000000000E+02
3320000000.000000      3.324127000000000E-01     -1.631016000000000E+02      4.624634000000000E-01      1.625937000000000E+02
3340000000.000000      3.290100000000000E-01     -1.785312000000000E+02      5.738831000000000E-01      1.505469000000000E+02
3360000000.000000      3.173676000000000E-01      1.667812000000000E+02      6.460876000000000E-01      1.384531000000000E+02
3380000000.000000      3.011322000000000E-01      1.524922000000000E+02      7.084656000000000E-01      1.271562000000000E+02
3400000000.000000      2.783966000000000E-01      1.377812000000000E+02      7.560425000000000E-01      1.132969000000000E+02
3420000000.000000      2.431335000000000E-01      1.228008000000000E+02      7.493591000000000E-01      9.835155000000000E+01
3440000000.000000      1.904144000000000E-01      1.081328000000000E+02      7.040100000000000E-01      8.548046000000000E+01
3460000000.000000      1.198883000000000E-01      9.717186000000000E+01      6.472778000000000E-01      7.247265000000000E+01
3480000000.000000      4.823303000000000E-02      1.209687000000000E+02      5.505066000000000E-01      5.898242000000000E+01
3500000000.000000      9.194946000000000E-02     -1.742422000000000E+02      4.257050000000000E-01      4.751367000000000E+01
3520000000.000000      1.837463000000000E-01      1.789375000000000E+02      2.793121000000000E-01      4.034961000000000E+01
3540000000.000000      2.629547000000000E-01      1.628515000000000E+02      1.475983000000000E-01      5.800976000000000E+01
3560000000.000000      3.222809000000000E-01      1.458984000000000E+02      1.661377000000000E-01      1.075234000000000E+02
3580000000.000000      3.597565000000000E-01      1.298516000000000E+02      2.935333000000000E-01      1.175469000000000E+02
3600000000.000000      3.762512000000000E-01      1.152617000000000E+02      4.185791000000000E-01      1.106250000000000E+02
3620000000.000000      3.777771000000000E-01      1.025586000000000E+02      5.204468000000000E-01      1.011445000000000E+02
3640000000.000000      3.680267000000000E-01      9.129297000000000E+01      6.210327000000000E-01      9.002733000000000E+01
3660000000.000000      3.520203000000000E-01      8.114452000000000E+01      6.923218000000000E-01      7.564843000000000E+01
3680000000.000000      3.294830000000000E-01      7.186328000000000E+01      7.110596000000000E-01      6.263866000000000E+01
3700000000.000000      2.989197000000000E-01      6.370312000000000E+01      7.214050000000000E-01      5.104492000000000E+01
3720000000.000000      2.549438000000000E-01      5.751758000000000E+01      7.235413000000000E-01      3.680273000000000E+01
3740000000.000000      2.047653000000000E-01      5.835938000000000E+01      6.638489000000000E-01      2.147754000000000E+01
3760000000.000000      1.775284000000000E-01      7.225780000000000E+01      5.668030000000000E-01      7.193115000000000E+00
3780000000.000000      2.111359000000000E-01      8.738672000000000E+01      4.349365000000000E-01     -6.285645000000000E+00
3800000000.000000      2.817993000000000E-01      8.901171000000000E+01      2.830353000000000E-01     -1.352295000000000E+01
3820000000.000000      3.496094000000000E-01      8.256250000000000E+01      1.541061000000000E-01     -5.616760000000000E-01
3840000000.000000      3.999939000000000E-01      7.391796000000000E+01      1.427917000000000E-01      4.760351000000000E+01
3860000000.000000      4.351654000000000E-01      6.528906000000000E+01      2.450790000000000E-01      6.530859000000000E+01
3880000000.000000      4.601440000000000E-01      5.773242000000000E+01      3.751831000000000E-01      6.112499000000000E+01
3900000000.000000      4.891357000000000E-01      5.073242000000000E+01      4.768372000000000E-01      4.785352000000000E+01
3920000000.000000      5.190735000000000E-01      4.307226000000000E+01      5.094299000000000E-01      3.594727000000000E+01
3940000000.000000      5.480652000000000E-01      3.415234000000000E+01      5.396423000000000E-01      2.953320000000000E+01
3960000000.000000      5.595703000000000E-01      2.405957000000000E+01      5.951843000000000E-01      2.002246000000000E+01
3980000000.000000      5.545349000000000E-01      1.358691000000000E+01      5.961609000000000E-01      8.164063000000000E+00
4000000000.000000      5.279846000000000E-01      3.157104000000000E+00      5.805359000000000E-01      1.143921000000000E+00
4020000000.000000      4.836578000000000E-01     -6.844482000000000E+00      5.984497000000000E-01     -6.657715000000000E+00
4040000000.000000      4.257965000000000E-01     -1.573828000000000E+01      5.852661000000000E-01     -1.870019000000000E+01
4060000000.000000      3.493805000000000E-01     -2.188281000000000E+01      5.283813000000000E-01     -2.886133000000000E+01
4080000000.000000      2.744141000000000E-01     -2.191406000000000E+01      4.686890000000000E-01     -3.819921000000000E+01
4100000000.000000      2.281952000000000E-01     -1.148242000000000E+01      3.676453000000000E-01     -4.745898000000000E+01
4120000000.000000      2.418823000000000E-01      1.604004000000000E+00      2.499390000000000E-01     -4.428124000000000E+01
4140000000.000000      2.897034000000000E-01      5.094727000000000E+00      2.028122000000000E-01     -2.027148000000000E+01
4160000000.000000      3.338013000000000E-01      9.544373000000000E-01      2.630463000000000E-01     -2.691650000000000E-01
4180000000.000000      3.616486000000000E-01     -5.903809000000000E+00      3.567200000000000E-01      3.941284000000000E+00
4200000000.000000      3.712616000000000E-01     -1.372217000000000E+01      4.875336000000000E-01      1.408997000000000E+00
4220000000.000000      3.670197000000000E-01     -2.087988000000000E+01      6.406250000000000E-01     -1.100830000000000E+01
4240000000.000000      3.475952000000000E-01     -2.842480000000000E+01      7.205811000000000E-01     -2.770410000000000E+01
4260000000.000000      3.101196000000000E-01     -3.419726000000000E+01      7.430115000000000E-01     -4.182226000000000E+01
4280000000.000000      2.598419000000000E-01     -3.551953000000000E+01      7.528381000000000E-01     -5.558007000000000E+01
4300000000.000000      2.226944000000000E-01     -2.739355000000000E+01      7.152405000000000E-01     -7.070313000000000E+01
4320000000.000000      2.355728000000000E-01     -1.474951000000000E+01      6.330872000000000E-01     -8.528906000000000E+01
4340000000.000000      2.928467000000000E-01     -1.063477000000000E+01      5.168457000000000E-01     -9.789843000000000E+01
4360000000.000000      3.582001000000000E-01     -1.558447000000000E+01      3.818359000000000E-01     -1.068164000000000E+02
4380000000.000000      4.048615000000000E-01     -2.459765000000000E+01      2.505798000000000E-01     -1.082305000000000E+02
4400000000.000000      4.260864000000000E-01     -3.461328000000000E+01      1.535950000000000E-01     -8.541407000000000E+01
4420000000.000000      4.245453000000000E-01     -4.397461000000000E+01      1.867371000000000E-01     -4.573632000000000E+01
4440000000.000000      4.086304000000000E-01     -5.198047000000000E+01      3.095856000000000E-01     -3.628125000000000E+01
4460000000.000000      3.891144000000000E-01     -5.861523000000000E+01      4.514923000000000E-01     -4.334570000000000E+01
4480000000.000000      3.684082000000000E-01     -6.490234000000000E+01      5.612183000000000E-01     -5.537304000000000E+01
4500000000.000000      3.463898000000000E-01     -7.163671000000000E+01      6.418762000000000E-01     -6.689453000000000E+01
4520000000.000000      3.136597000000000E-01     -7.932031000000000E+01      7.153931000000000E-01     -7.967578000000000E+01
4540000000.000000      2.628479000000000E-01     -8.553514000000000E+01      7.418213000000000E-01     -9.435547000000000E+01
4560000000.000000      2.018585000000000E-01     -8.393749000000000E+01      7.288208000000000E-01     -1.075937000000000E+02
4580000000.000000      1.743011000000000E-01     -6.814062000000000E+01      6.907654000000000E-01     -1.213945000000000E+02
4600000000.000000      2.114182000000000E-01     -5.397461000000000E+01      6.075745000000000E-01     -1.347265000000000E+02
4620000000.000000      2.764282000000000E-01     -5.527148000000000E+01      4.996185000000000E-01     -1.451250000000000E+02
4640000000.000000      3.303986000000000E-01     -6.506249000000000E+01      3.797760000000000E-01     -1.534922000000000E+02
4660000000.000000      3.546600000000000E-01     -7.842968000000000E+01      2.468567000000000E-01     -1.518672000000000E+02
4680000000.000000      3.464661000000000E-01     -9.229687000000000E+01      1.789093000000000E-01     -1.237695000000000E+02
4700000000.000000      3.093109000000000E-01     -1.054883000000000E+02      2.474060000000000E-01     -9.677343000000000E+01
4720000000.000000      2.536163000000000E-01     -1.161601000000000E+02      3.658142000000000E-01     -9.548046000000000E+01
4740000000.000000      1.918259000000000E-01     -1.216133000000000E+02      4.730988000000000E-01     -1.017930000000000E+02
4760000000.000000      1.387329000000000E-01     -1.176758000000000E+02      5.781555000000000E-01     -1.105351000000000E+02
4780000000.000000      1.127090000000000E-01     -1.018359000000000E+02      6.674194000000000E-01     -1.229531000000000E+02
4800000000.000000      1.179810000000000E-01     -8.393749000000000E+01      7.177734000000000E-01     -1.356797000000000E+02
4820000000.000000      1.467361000000000E-01     -7.416797000000000E+01      7.356567000000000E-01     -1.488672000000000E+02
4840000000.000000      1.873779000000000E-01     -7.404297000000000E+01      7.188721000000000E-01     -1.616797000000000E+02
4860000000.000000      2.314377000000000E-01     -8.031250000000000E+01      6.849976000000000E-01     -1.743672000000000E+02
4880000000.000000      2.684326000000000E-01     -9.081640000000000E+01      6.174316000000000E-01      1.718437000000000E+02
4900000000.000000      2.938690000000000E-01     -1.042109000000000E+02      4.962158000000000E-01      1.597422000000000E+02
4920000000.000000      2.998657000000000E-01     -1.192656000000000E+02      3.663635000000000E-01      1.536328000000000E+02
4940000000.000000      2.853851000000000E-01     -1.349844000000000E+02      2.531433000000000E-01      1.557344000000000E+02
4960000000.000000      2.549744000000000E-01     -1.502422000000000E+02      1.768875000000000E-01      1.770391000000000E+02
4980000000.000000      2.128448000000000E-01     -1.643047000000000E+02      2.137604000000000E-01     -1.513359000000000E+02
5000000000.000000      1.686172000000000E-01     -1.761328000000000E+02      3.287354000000000E-01     -1.437813000000000E+02
5020000000.000000      1.305161000000000E-01      1.738750000000000E+02      4.595642000000000E-01     -1.496406000000000E+02
5040000000.000000      1.003380000000000E-01      1.636797000000000E+02      5.685425000000000E-01     -1.603047000000000E+02
5060000000.000000      7.186508000000000E-02      1.486250000000000E+02      6.509399000000000E-01     -1.716484000000000E+02
5080000000.000000      4.213715000000000E-02      1.228945000000000E+02      7.179565000000000E-01      1.758984000000000E+02
5100000000.000000      1.680565000000000E-02      4.325585000000000E+01      7.544861000000000E-01      1.622734000000000E+02
5120000000.000000      4.088593000000000E-02     -5.102344000000000E+01      7.515259000000000E-01      1.478359000000000E+02
5140000000.000000      7.232285000000000E-02     -8.753124000000000E+01      7.050171000000000E-01      1.343594000000000E+02
5160000000.000000      9.593964000000000E-02     -1.187891000000000E+02      6.272278000000000E-01      1.218945000000000E+02
5180000000.000000      1.091156000000000E-01     -1.493515000000000E+02      5.325012000000000E-01      1.107265000000000E+02
5200000000.000000      1.122780000000000E-01      1.778984000000000E+02      4.169159000000000E-01      1.010156000000000E+02
5220000000.000000      1.092911000000000E-01      1.419922000000000E+02      2.837982000000000E-01      9.818748000000000E+01
5240000000.000000      1.089516000000000E-01      1.056367000000000E+02      1.841583000000000E-01      1.148750000000000E+02
5260000000.000000      1.132698000000000E-01      7.232422000000000E+01      1.959686000000000E-01      1.492266000000000E+02
5280000000.000000      1.209145000000000E-01      4.558007000000000E+01      2.957458000000000E-01      1.605391000000000E+02
5300000000.000000      1.278152000000000E-01      2.510058000000000E+01      4.093475000000000E-01      1.581172000000000E+02
5320000000.000000      1.332321000000000E-01      8.495117000000000E+00      5.267029000000000E-01      1.504219000000000E+02
5340000000.000000      1.389160000000000E-01     -5.773438000000000E+00      6.399841000000000E-01      1.387812000000000E+02
5360000000.000000      1.432953000000000E-01     -2.134961000000000E+01      7.062073000000000E-01      1.240469000000000E+02
5380000000.000000      1.387787000000000E-01     -3.866796000000000E+01      7.168274000000000E-01      1.106484000000000E+02
5400000000.000000      1.197968000000000E-01     -5.678711000000000E+01      7.187500000000000E-01      9.909765000000000E+01
5420000000.000000      8.484650000000000E-02     -7.362890000000000E+01      7.055664000000000E-01      8.596874000000000E+01
5440000000.000000      3.035927000000000E-02     -7.795312000000000E+01      6.488953000000000E-01      7.166016000000000E+01
5460000000.000000      4.325485000000000E-02      3.863867000000000E+01      5.407410000000000E-01      5.849023000000000E+01
5480000000.000000      1.127739000000000E-01      3.082715000000000E+01      4.133453000000000E-01      4.939843000000000E+01
5500000000.000000      1.750793000000000E-01      1.574170000000000E+01      2.931976000000000E-01      4.722265000000000E+01
5520000000.000000      2.203903000000000E-01      5.273438000000000E-01      1.955643000000000E-01      5.880664000000000E+01
5540000000.000000      2.523499000000000E-01     -1.303809000000000E+01      1.806717000000000E-01      9.062891000000000E+01
5560000000.000000      2.703400000000000E-01     -2.502050000000000E+01      2.618103000000000E-01      1.086758000000000E+02
5580000000.000000      2.825317000000000E-01     -3.501758000000000E+01      3.833466000000000E-01      1.086680000000000E+02
5600000000.000000      2.940369000000000E-01     -4.378711000000000E+01      5.057983000000000E-01      9.964062000000000E+01
5620000000.000000      3.045502000000000E-01     -5.300781000000000E+01      5.951843000000000E-01      8.717188000000000E+01
5640000000.000000      3.083191000000000E-01     -6.266211000000000E+01      6.463013000000000E-01      7.520312000000000E+01
5660000000.000000      2.985992000000000E-01     -7.336328000000000E+01      6.860657000000000E-01      6.370898000000000E+01
5680000000.000000      2.695313000000000E-01     -8.374609000000000E+01      6.985474000000000E-01      5.112499000000000E+01
5700000000.000000      2.224350000000000E-01     -9.113281000000000E+01      6.831665000000000E-01      3.878125000000000E+01
5720000000.000000      1.709900000000000E-01     -9.001562000000000E+01      6.439819000000000E-01      2.609570000000000E+01
5740000000.000000      1.498337000000000E-01     -7.549609000000000E+01      5.662842000000000E-01      1.299512000000000E+01
5760000000.000000      1.783295000000000E-01     -6.373632000000000E+01      4.514923000000000E-01      1.109619000000000E+00
5780000000.000000      2.248230000000000E-01     -6.517187000000000E+01      3.177338000000000E-01     -4.039063000000000E+00
5800000000.000000      2.563782000000000E-01     -7.295703000000000E+01      2.087936000000000E-01      6.477783000000000E+00
5820000000.000000      2.664490000000000E-01     -8.244921000000000E+01      1.893539000000000E-01      3.718750000000000E+01
5840000000.000000      2.566986000000000E-01     -9.095703000000000E+01      2.701569000000000E-01      5.389648000000000E+01
5860000000.000000      2.389984000000000E-01     -9.671875000000000E+01      3.706665000000000E-01      5.408789000000000E+01
5880000000.000000      2.247009000000000E-01     -9.989843000000000E+01      4.777222000000000E-01      4.868554000000000E+01
5900000000.000000      2.165070000000000E-01     -1.022930000000000E+02      5.928040000000000E-01      3.852344000000000E+01
5920000000.000000      2.092819000000000E-01     -1.050117000000000E+02      6.709900000000000E-01      2.450000000000000E+01
5940000000.000000      1.953430000000000E-01     -1.071094000000000E+02      7.019958000000000E-01      1.143115000000000E+01
5960000000.000000      1.779404000000000E-01     -1.053750000000000E+02      7.138977000000000E-01     -1.360962000000000E+00
5980000000.000000      1.651154000000000E-01     -9.775780000000000E+01      6.920776000000000E-01     -1.540576000000000E+01
6000000000.000000      1.810989000000000E-01     -8.852734000000000E+01      6.285095000000000E-01     -2.891113000000000E+01
6020000000.000000      2.153854000000000E-01     -8.662889000000000E+01      5.311890000000000E-01     -4.164648000000000E+01
6040000000.000000      2.509003000000000E-01     -9.180079000000000E+01      4.022217000000000E-01     -4.982812000000000E+01
6060000000.000000      2.748413000000000E-01     -1.007930000000000E+02      2.865753000000000E-01     -4.988671000000000E+01
6080000000.000000      2.855377000000000E-01     -1.111601000000000E+02      2.057495000000000E-01     -3.608398000000000E+01
