! Network Analyzer HP8722D
! Hewlett-Packard
! Data name: Linha & Wilkinson+CNT
! Saver's name: Rodrigo Anjos
! Comments: Teste da utilização de aquisição
continua pelo VNA HP8722D
! Time and date: 29/9/2025 17:02
!              Frequency                     S11                                                   S21                                                   S12                                                   S22
# HZ  S  MA R 50
3000000000.000000      4.252777000000000E-01     -5.545312000000000E+01      2.066345000000000E-01     -1.314922000000000E+02
3020000000.000000      4.469604000000000E-01     -6.974999000000000E+01      3.495636000000000E-01     -1.349688000000000E+02
3040000000.000000      4.528198000000000E-01     -8.271093000000000E+01      4.670105000000000E-01     -1.450234000000000E+02
3060000000.000000      4.449615000000000E-01     -9.478125000000000E+01      5.715637000000000E-01     -1.552031000000000E+02
3080000000.000000      4.291229000000000E-01     -1.060195000000000E+02      6.739807000000000E-01     -1.681094000000000E+02
3100000000.000000      4.094696000000000E-01     -1.172109000000000E+02      7.255859000000000E-01      1.769453000000000E+02
3120000000.000000      3.795319000000000E-01     -1.291719000000000E+02      7.330933000000000E-01      1.635625000000000E+02
3140000000.000000      3.388367000000000E-01     -1.421016000000000E+02      7.244873000000000E-01      1.506562000000000E+02
3160000000.000000      2.790527000000000E-01     -1.560625000000000E+02      6.838074000000000E-01      1.370234000000000E+02
3180000000.000000      1.991577000000000E-01     -1.688516000000000E+02      6.143494000000000E-01      1.244570000000000E+02
3200000000.000000      1.118317000000000E-01     -1.696719000000000E+02      5.210571000000000E-01      1.116445000000000E+02
3220000000.000000      7.936478000000000E-02     -1.242226000000000E+02      3.879395000000000E-01      1.008945000000000E+02
3240000000.000000      1.504059000000000E-01     -1.047578000000000E+02      2.483292000000000E-01      9.951952000000000E+01
3260000000.000000      2.305679000000000E-01     -1.150820000000000E+02      1.476974000000000E-01      1.248828000000000E+02
3280000000.000000      2.877045000000000E-01     -1.306172000000000E+02      2.019806000000000E-01      1.651172000000000E+02
3300000000.000000      3.207397000000000E-01     -1.469687000000000E+02      3.289337000000000E-01      1.695547000000000E+02
3320000000.000000      3.327332000000000E-01     -1.628672000000000E+02      4.619293000000000E-01      1.626562000000000E+02
3340000000.000000      3.286438000000000E-01     -1.783125000000000E+02      5.746155000000000E-01      1.505156000000000E+02
3360000000.000000      3.177795000000000E-01      1.669453000000000E+02      6.461487000000000E-01      1.384063000000000E+02
3380000000.000000      3.014069000000000E-01      1.525703000000000E+02      7.083130000000000E-01      1.271758000000000E+02
3400000000.000000      2.793121000000000E-01      1.378828000000000E+02      7.570190000000000E-01      1.133437000000000E+02
3420000000.000000      2.439728000000000E-01      1.230664000000000E+02      7.488403000000000E-01      9.852343000000000E+01
3440000000.000000      1.916122000000000E-01      1.084219000000000E+02      7.057800000000000E-01      8.568359000000000E+01
3460000000.000000      1.208687000000000E-01      9.768749000000000E+01      6.475830000000000E-01      7.254296000000000E+01
3480000000.000000      4.894257000000000E-02      1.202539000000000E+02      5.511475000000000E-01      5.888866000000000E+01
3500000000.000000      9.158707000000000E-02     -1.746484000000000E+02      4.262848000000000E-01      4.770117000000000E+01
3520000000.000000      1.828842000000000E-01      1.790703000000000E+02      2.804260000000000E-01      4.053320000000000E+01
3540000000.000000      2.627869000000000E-01      1.628594000000000E+02      1.482468000000000E-01      5.779101000000000E+01
3560000000.000000      3.228455000000000E-01      1.459766000000000E+02      1.658249000000000E-01      1.073594000000000E+02
3580000000.000000      3.598785000000000E-01      1.299453000000000E+02      2.931213000000000E-01      1.175547000000000E+02
3600000000.000000      3.764801000000000E-01      1.153359000000000E+02      4.185638000000000E-01      1.106680000000000E+02
3620000000.000000      3.784485000000000E-01      1.027031000000000E+02      5.195923000000000E-01      1.012656000000000E+02
3640000000.000000      3.686066000000000E-01      9.158594000000000E+01      6.220398000000000E-01      9.010157000000000E+01
3660000000.000000      3.524323000000000E-01      8.123047000000000E+01      6.929016000000000E-01      7.595312000000000E+01
3680000000.000000      3.300018000000000E-01      7.199609000000000E+01      7.109070000000000E-01      6.288280000000000E+01
3700000000.000000      2.999420000000000E-01      6.381249000000000E+01      7.212524000000000E-01      5.121094000000000E+01
3720000000.000000      2.557983000000000E-01      5.775976000000000E+01      7.244263000000000E-01      3.694531000000000E+01
3740000000.000000      2.054672000000000E-01      5.846289000000000E+01      6.645813000000000E-01      2.154199000000000E+01
3760000000.000000      1.781769000000000E-01      7.235546000000000E+01      5.671997000000000E-01      7.113525000000000E+00
3780000000.000000      2.118073000000000E-01      8.743750000000000E+01      4.378967000000000E-01     -6.063232000000000E+00
3800000000.000000      2.821045000000000E-01      8.907421000000000E+01      2.834320000000000E-01     -1.335156000000000E+01
3820000000.000000      3.498230000000000E-01      8.275782000000000E+01      1.545410000000000E-01     -7.017517000000000E-01
3840000000.000000      4.002533000000000E-01      7.402734000000000E+01      1.423798000000000E-01      4.742383000000000E+01
3860000000.000000      4.354706000000000E-01      6.551952000000000E+01      2.450867000000000E-01      6.549999000000000E+01
3880000000.000000      4.605255000000000E-01      5.795898000000000E+01      3.750763000000000E-01      6.121679000000000E+01
3900000000.000000      4.893646000000000E-01      5.093750000000000E+01      4.762421000000000E-01      4.777929000000000E+01
3920000000.000000      5.209351000000000E-01      4.328711000000000E+01      5.079651000000000E-01      3.617188000000000E+01
3940000000.000000      5.483093000000000E-01      3.442968000000000E+01      5.390930000000000E-01      2.950293000000000E+01
3960000000.000000      5.608826000000000E-01      2.431347000000000E+01      5.963135000000000E-01      2.025097000000000E+01
3980000000.000000      5.547791000000000E-01      1.372314000000000E+01      5.971680000000000E-01      8.282227000000000E+00
4000000000.000000      5.275269000000000E-01      3.276611000000000E+00      5.800171000000000E-01      1.354065000000000E+00
4020000000.000000      4.846649000000000E-01     -6.738770000000000E+00      5.976563000000000E-01     -6.536865000000000E+00
4040000000.000000      4.260254000000000E-01     -1.560791000000000E+01      5.862122000000000E-01     -1.870019000000000E+01
4060000000.000000      3.500366000000000E-01     -2.170410000000000E+01      5.289917000000000E-01     -2.871777000000000E+01
4080000000.000000      2.755432000000000E-01     -2.167285000000000E+01      4.701843000000000E-01     -3.821094000000000E+01
4100000000.000000      2.285538000000000E-01     -1.113232000000000E+01      3.678589000000000E-01     -4.747656000000000E+01
4120000000.000000      2.414551000000000E-01      2.066772000000000E+00      2.502899000000000E-01     -4.415039000000000E+01
4140000000.000000      2.892609000000000E-01      5.281494000000000E+00      2.031708000000000E-01     -2.030273000000000E+01
4160000000.000000      3.332367000000000E-01      1.212585000000000E+00      2.626038000000000E-01     -2.101135000000000E-01
4180000000.000000      3.614502000000000E-01     -5.729492000000000E+00      3.564453000000000E-01      3.971558000000000E+00
4200000000.000000      3.719025000000000E-01     -1.348877000000000E+01      4.873199000000000E-01      1.388367000000000E+00
4220000000.000000      3.682556000000000E-01     -2.069140000000000E+01      6.425781000000000E-01     -1.084766000000000E+01
4240000000.000000      3.491669000000000E-01     -2.813477000000000E+01      7.210083000000000E-01     -2.761328000000000E+01
4260000000.000000      3.106232000000000E-01     -3.390820000000000E+01      7.437439000000000E-01     -4.174024000000000E+01
4280000000.000000      2.601624000000000E-01     -3.527344000000000E+01      7.515869000000000E-01     -5.553905000000000E+01
4300000000.000000      2.225494000000000E-01     -2.728906000000000E+01      7.154541000000000E-01     -7.060547000000000E+01
4320000000.000000      2.346878000000000E-01     -1.450098000000000E+01      6.342468000000000E-01     -8.499218000000000E+01
4340000000.000000      2.927246000000000E-01     -1.037695000000000E+01      5.176392000000000E-01     -9.783203000000000E+01
4360000000.000000      3.583679000000000E-01     -1.546338000000000E+01      3.825684000000000E-01     -1.068750000000000E+02
4380000000.000000      4.055023000000000E-01     -2.447949000000000E+01      2.514343000000000E-01     -1.081875000000000E+02
4400000000.000000      4.270172000000000E-01     -3.436132000000000E+01      1.537781000000000E-01     -8.560156000000000E+01
4420000000.000000      4.257050000000000E-01     -4.372851000000000E+01      1.867599000000000E-01     -4.574804000000000E+01
4440000000.000000      4.089966000000000E-01     -5.185937000000000E+01      3.092499000000000E-01     -3.616601000000000E+01
4460000000.000000      3.883820000000000E-01     -5.831249000000000E+01      4.516754000000000E-01     -4.320508000000000E+01
4480000000.000000      3.674927000000000E-01     -6.472656000000000E+01      5.603027000000000E-01     -5.530468000000000E+01
4500000000.000000      3.466492000000000E-01     -7.159765000000000E+01      6.425781000000000E-01     -6.673437000000000E+01
4520000000.000000      3.135376000000000E-01     -7.931641000000000E+01      7.161865000000000E-01     -7.962891000000000E+01
4540000000.000000      2.618408000000000E-01     -8.569139000000000E+01      7.419434000000000E-01     -9.430468000000000E+01
4560000000.000000      2.008133000000000E-01     -8.403906000000000E+01      7.299500000000000E-01     -1.074766000000000E+02
4580000000.000000      1.727982000000000E-01     -6.787109000000000E+01      6.924438000000000E-01     -1.213008000000000E+02
4600000000.000000      2.102966000000000E-01     -5.356835000000000E+01      6.074219000000000E-01     -1.344687000000000E+02
4620000000.000000      2.761230000000000E-01     -5.480663000000000E+01      4.998322000000000E-01     -1.448672000000000E+02
4640000000.000000      3.294220000000000E-01     -6.475780000000000E+01      3.802948000000000E-01     -1.533906000000000E+02
4660000000.000000      3.531036000000000E-01     -7.792578000000000E+01      2.479401000000000E-01     -1.518516000000000E+02
4680000000.000000      3.450012000000000E-01     -9.206640000000000E+01      1.796417000000000E-01     -1.238633000000000E+02
4700000000.000000      3.083649000000000E-01     -1.052344000000000E+02      2.477722000000000E-01     -9.682812000000000E+01
4720000000.000000      2.525177000000000E-01     -1.157500000000000E+02      3.661804000000000E-01     -9.555079000000000E+01
4740000000.000000      1.905746000000000E-01     -1.210898000000000E+02      4.734039000000000E-01     -1.017109000000000E+02
4760000000.000000      1.383514000000000E-01     -1.170586000000000E+02      5.783081000000000E-01     -1.105586000000000E+02
4780000000.000000      1.124344000000000E-01     -1.009883000000000E+02      6.686401000000000E-01     -1.227500000000000E+02
4800000000.000000      1.182594000000000E-01     -8.313671000000000E+01      7.165833000000000E-01     -1.356484000000000E+02
4820000000.000000      1.472702000000000E-01     -7.337891000000000E+01      7.366333000000000E-01     -1.488359000000000E+02
4840000000.000000      1.878052000000000E-01     -7.334765000000000E+01      7.188416000000000E-01     -1.616875000000000E+02
4860000000.000000      2.319107000000000E-01     -8.005859000000000E+01      6.850586000000000E-01     -1.741484000000000E+02
4880000000.000000      2.695465000000000E-01     -9.048437000000000E+01      6.181641000000000E-01      1.719297000000000E+02
4900000000.000000      2.952881000000000E-01     -1.040703000000000E+02      4.973450000000000E-01      1.597734000000000E+02
4920000000.000000      3.013458000000000E-01     -1.191211000000000E+02      3.674469000000000E-01      1.537422000000000E+02
4940000000.000000      2.867432000000000E-01     -1.347344000000000E+02      2.531281000000000E-01      1.556250000000000E+02
4960000000.000000      2.561951000000000E-01     -1.500078000000000E+02      1.772690000000000E-01      1.767422000000000E+02
4980000000.000000      2.138901000000000E-01     -1.639688000000000E+02      2.129364000000000E-01     -1.513750000000000E+02
5000000000.000000      1.693878000000000E-01     -1.757031000000000E+02      3.280945000000000E-01     -1.436563000000000E+02
5020000000.000000      1.315002000000000E-01      1.742969000000000E+02      4.582062000000000E-01     -1.495000000000000E+02
5040000000.000000      1.008453000000000E-01      1.640469000000000E+02      5.674438000000000E-01     -1.603203000000000E+02
5060000000.000000      7.299042000000000E-02      1.491172000000000E+02      6.498108000000000E-01     -1.717422000000000E+02
5080000000.000000      4.213905000000000E-02      1.240351000000000E+02      7.173157000000000E-01      1.760625000000000E+02
5100000000.000000      1.627064000000000E-02      4.552148000000000E+01      7.561035000000000E-01      1.624219000000000E+02
5120000000.000000      4.038048000000000E-02     -5.054688000000000E+01      7.523193000000000E-01      1.482344000000000E+02
5140000000.000000      7.229614000000000E-02     -8.748438000000000E+01      7.037354000000000E-01      1.343750000000000E+02
5160000000.000000      9.630585000000000E-02     -1.186914000000000E+02      6.289673000000000E-01      1.220859000000000E+02
5180000000.000000      1.099586000000000E-01     -1.490313000000000E+02      5.347900000000000E-01      1.109492000000000E+02
5200000000.000000      1.134834000000000E-01      1.782344000000000E+02      4.182739000000000E-01      1.012031000000000E+02
5220000000.000000      1.106110000000000E-01      1.424609000000000E+02      2.846832000000000E-01      9.811327000000000E+01
5240000000.000000      1.091881000000000E-01      1.063789000000000E+02      1.837845000000000E-01      1.147617000000000E+02
5260000000.000000      1.134758000000000E-01      7.281640000000000E+01      1.951752000000000E-01      1.493438000000000E+02
5280000000.000000      1.209297000000000E-01      4.639453000000000E+01      2.946472000000000E-01      1.607500000000000E+02
5300000000.000000      1.274109000000000E-01      2.533496000000000E+01      4.084473000000000E-01      1.582734000000000E+02
5320000000.000000      1.334915000000000E-01      8.972656000000000E+00      5.265808000000000E-01      1.506953000000000E+02
5340000000.000000      1.394577000000000E-01     -5.515137000000000E+00      6.374207000000000E-01      1.386797000000000E+02
5360000000.000000      1.435089000000000E-01     -2.121192000000000E+01      7.049561000000000E-01      1.241719000000000E+02
5380000000.000000      1.390457000000000E-01     -3.896875000000000E+01      7.171021000000000E-01      1.108594000000000E+02
5400000000.000000      1.202240000000000E-01     -5.720898000000000E+01      7.182312000000000E-01      9.917578000000000E+01
5420000000.000000      8.543015000000000E-02     -7.464844000000000E+01      7.055054000000000E-01      8.611719000000000E+01
5440000000.000000      3.098965000000000E-02     -8.019531000000000E+01      6.492615000000000E-01      7.166406000000000E+01
5460000000.000000      4.209137000000000E-02      3.925000000000000E+01      5.411377000000000E-01      5.852734000000000E+01
5480000000.000000      1.122818000000000E-01      3.150976000000000E+01      4.142456000000000E-01      4.933007000000000E+01
5500000000.000000      1.746445000000000E-01      1.615039000000000E+01      2.940216000000000E-01      4.711914000000000E+01
5520000000.000000      2.204437000000000E-01      1.014832000000000E+00      1.955872000000000E-01      5.872656000000000E+01
5540000000.000000      2.519073000000000E-01     -1.278271000000000E+01      1.802826000000000E-01      9.060547000000000E+01
5560000000.000000      2.699127000000000E-01     -2.482715000000000E+01      2.614441000000000E-01      1.086875000000000E+02
5580000000.000000      2.824707000000000E-01     -3.482812000000000E+01      3.833160000000000E-01      1.087500000000000E+02
5600000000.000000      2.937012000000000E-01     -4.376172000000000E+01      5.055847000000000E-01      9.984764000000000E+01
5620000000.000000      3.046417000000000E-01     -5.294335000000000E+01      5.955200000000000E-01      8.712109000000000E+01
5640000000.000000      3.080902000000000E-01     -6.262109000000000E+01      6.464539000000000E-01      7.538671000000000E+01
5660000000.000000      2.979431000000000E-01     -7.332812000000000E+01      6.851501000000000E-01      6.411327000000000E+01
5680000000.000000      2.689819000000000E-01     -8.371874000000000E+01      6.992493000000000E-01      5.131054000000000E+01
5700000000.000000      2.219925000000000E-01     -9.113281000000000E+01      6.827393000000000E-01      3.881836000000000E+01
5720000000.000000      1.705246000000000E-01     -8.979687000000000E+01      6.453857000000000E-01      2.625097000000000E+01
5740000000.000000      1.490402000000000E-01     -7.547656000000000E+01      5.676575000000000E-01      1.289209000000000E+01
5760000000.000000      1.774445000000000E-01     -6.378515000000000E+01      4.520111000000000E-01      1.170044000000000E+00
5780000000.000000      2.241745000000000E-01     -6.512890000000000E+01      3.181610000000000E-01     -4.050049000000000E+00
5800000000.000000      2.568207000000000E-01     -7.303515000000000E+01      2.089920000000000E-01      6.707031000000000E+00
5820000000.000000      2.665558000000000E-01     -8.250391000000000E+01      1.884232000000000E-01      3.719922000000000E+01
5840000000.000000      2.571106000000000E-01     -9.080469000000000E+01      2.696686000000000E-01      5.394921000000000E+01
5860000000.000000      2.395172000000000E-01     -9.651171000000000E+01      3.695526000000000E-01      5.422852000000000E+01
5880000000.000000      2.240067000000000E-01     -9.978516000000000E+01      4.779358000000000E-01      4.886719000000000E+01
5900000000.000000      2.159271000000000E-01     -1.021523000000000E+02      5.932922000000000E-01      3.855664000000000E+01
5920000000.000000      2.080994000000000E-01     -1.050273000000000E+02      6.716309000000000E-01      2.466797000000000E+01
5940000000.000000      1.944427000000000E-01     -1.070156000000000E+02      7.025452000000000E-01      1.135010000000000E+01
5960000000.000000      1.769791000000000E-01     -1.054297000000000E+02      7.136536000000000E-01     -1.299133000000000E+00
5980000000.000000      1.656647000000000E-01     -9.740623000000000E+01      6.933289000000000E-01     -1.508740000000000E+01
6000000000.000000      1.809082000000000E-01     -8.820313000000000E+01      6.300049000000000E-01     -2.886425000000000E+01
6020000000.000000      2.156982000000000E-01     -8.627344000000000E+01      5.310669000000000E-01     -4.152148000000000E+01
6040000000.000000      2.514954000000000E-01     -9.144922000000000E+01      4.012299000000000E-01     -4.980273000000000E+01
6060000000.000000      2.751160000000000E-01     -1.006094000000000E+02      2.873230000000000E-01     -4.978125000000000E+01
6080000000.000000      2.849579000000000E-01     -1.108750000000000E+02      2.065582000000000E-01     -3.635937000000000E+01
