! Network Analyzer HP8722D
! Hewlett-Packard
! Data name: Linha & Wilkinson+CNT
! Saver's name: Rodrigo Anjos
! Comments: Teste da utilização de aquisição
continua pelo VNA HP8722D
! Time and date: 29/9/2025 12:34
!              Frequency                     S11                                                   S21                                                   S12                                                   S22
# HZ  S  MA R 50
3000000000.000000      4.241028000000000E-01     -5.605859000000000E+01      2.069397000000000E-01     -1.313828000000000E+02
3020000000.000000      4.470673000000000E-01     -7.028515000000000E+01      3.503113000000000E-01     -1.347500000000000E+02
3040000000.000000      4.545441000000000E-01     -8.328516000000000E+01      4.684448000000000E-01     -1.448125000000000E+02
3060000000.000000      4.464417000000000E-01     -9.520311000000000E+01      5.727234000000000E-01     -1.550390000000000E+02
3080000000.000000      4.313049000000000E-01     -1.063477000000000E+02      6.746521000000000E-01     -1.681172000000000E+02
3100000000.000000      4.111176000000000E-01     -1.174258000000000E+02      7.248535000000000E-01      1.770156000000000E+02
3120000000.000000      3.831787000000000E-01     -1.294219000000000E+02      7.319946000000000E-01      1.635156000000000E+02
3140000000.000000      3.422394000000000E-01     -1.424297000000000E+02      7.237244000000000E-01      1.507187000000000E+02
3160000000.000000      2.826691000000000E-01     -1.561484000000000E+02      6.833496000000000E-01      1.371484000000000E+02
3180000000.000000      2.024460000000000E-01     -1.684141000000000E+02      6.145325000000000E-01      1.246406000000000E+02
3200000000.000000      1.148071000000000E-01     -1.688516000000000E+02      5.196838000000000E-01      1.118711000000000E+02
3220000000.000000      8.287430000000000E-02     -1.247734000000000E+02      3.864136000000000E-01      1.009375000000000E+02
3240000000.000000      1.533051000000000E-01     -1.055000000000000E+02      2.468567000000000E-01      9.974609000000000E+01
3260000000.000000      2.328720000000000E-01     -1.154102000000000E+02      1.472397000000000E-01      1.255664000000000E+02
3280000000.000000      2.908478000000000E-01     -1.308750000000000E+02      2.034683000000000E-01      1.655625000000000E+02
3300000000.000000      3.236847000000000E-01     -1.470078000000000E+02      3.302307000000000E-01      1.697109000000000E+02
3320000000.000000      3.355713000000000E-01     -1.627031000000000E+02      4.633026000000000E-01      1.627344000000000E+02
3340000000.000000      3.320313000000000E-01     -1.780313000000000E+02      5.754700000000000E-01      1.506641000000000E+02
3360000000.000000      3.195648000000000E-01      1.673672000000000E+02      6.469116000000000E-01      1.386563000000000E+02
3380000000.000000      3.025208000000000E-01      1.531641000000000E+02      7.101135000000000E-01      1.272812000000000E+02
3400000000.000000      2.791748000000000E-01      1.385234000000000E+02      7.576904000000000E-01      1.134453000000000E+02
3420000000.000000      2.433472000000000E-01      1.235430000000000E+02      7.488708000000000E-01      9.858984000000000E+01
3440000000.000000      1.893005000000000E-01      1.089101000000000E+02      7.052612000000000E-01      8.573437000000000E+01
3460000000.000000      1.189346000000000E-01      9.849609000000000E+01      6.483459000000000E-01      7.266406000000000E+01
3480000000.000000      4.785156000000000E-02      1.247383000000000E+02      5.501404000000000E-01      5.915429000000000E+01
3500000000.000000      9.465408000000000E-02     -1.732422000000000E+02      4.253235000000000E-01      4.783008000000000E+01
3520000000.000000      1.860962000000000E-01      1.798047000000000E+02      2.792664000000000E-01      4.067773000000000E+01
3540000000.000000      2.650757000000000E-01      1.635547000000000E+02      1.477585000000000E-01      5.834961000000000E+01
3560000000.000000      3.236084000000000E-01      1.465312000000000E+02      1.673508000000000E-01      1.078164000000000E+02
3580000000.000000      3.596802000000000E-01      1.305156000000000E+02      2.943878000000000E-01      1.176719000000000E+02
3600000000.000000      3.755646000000000E-01      1.157422000000000E+02      4.201660000000000E-01      1.107461000000000E+02
3620000000.000000      3.778229000000000E-01      1.029609000000000E+02      5.220337000000000E-01      1.013008000000000E+02
3640000000.000000      3.671417000000000E-01      9.171875000000000E+01      6.222229000000000E-01      9.014063000000000E+01
3660000000.000000      3.512268000000000E-01      8.141016000000000E+01      6.933594000000000E-01      7.600780000000000E+01
3680000000.000000      3.279572000000000E-01      7.214844000000000E+01      7.108459000000000E-01      6.273046000000000E+01
3700000000.000000      2.968445000000000E-01      6.383007000000000E+01      7.211914000000000E-01      5.120117000000000E+01
3720000000.000000      2.524872000000000E-01      5.775781000000000E+01      7.242737000000000E-01      3.695313000000000E+01
3740000000.000000      2.023087000000000E-01      5.850780000000000E+01      6.631775000000000E-01      2.141894000000000E+01
3760000000.000000      1.754608000000000E-01      7.266796000000000E+01      5.675049000000000E-01      7.249512000000000E+00
3780000000.000000      2.101440000000000E-01      8.777344000000000E+01      4.362793000000000E-01     -5.949219000000000E+00
3800000000.000000      2.806244000000000E-01      8.936327000000000E+01      2.827759000000000E-01     -1.334570000000000E+01
3820000000.000000      3.482056000000000E-01      8.287109000000000E+01      1.541138000000000E-01     -2.774048000000000E-01
3840000000.000000      3.986511000000000E-01      7.408984000000000E+01      1.434326000000000E-01      4.779297000000000E+01
3860000000.000000      4.337158000000000E-01      6.545312000000000E+01      2.462158000000000E-01      6.535937000000000E+01
3880000000.000000      4.587860000000000E-01      5.778710000000000E+01      3.766937000000000E-01      6.121875000000000E+01
3900000000.000000      4.882050000000000E-01      5.072656000000000E+01      4.776917000000000E-01      4.779297000000000E+01
3920000000.000000      5.187988000000000E-01      4.281250000000000E+01      5.092773000000000E-01      3.608007000000000E+01
3940000000.000000      5.464783000000000E-01      3.389453000000000E+01      5.386353000000000E-01      2.968847000000000E+01
3960000000.000000      5.579834000000000E-01      2.385449000000000E+01      5.968323000000000E-01      2.014160000000000E+01
3980000000.000000      5.522766000000000E-01      1.326563000000000E+01      5.972900000000000E-01      8.270996000000000E+00
4000000000.000000      5.276184000000000E-01      2.897583000000000E+00      5.806274000000000E-01      1.358154000000000E+00
4020000000.000000      4.835205000000000E-01     -7.091797000000000E+00      5.984802000000000E-01     -6.502686000000000E+00
4040000000.000000      4.250031000000000E-01     -1.601563000000000E+01      5.853882000000000E-01     -1.863281000000000E+01
4060000000.000000      3.491669000000000E-01     -2.217187000000000E+01      5.276794000000000E-01     -2.874218000000000E+01
4080000000.000000      2.738495000000000E-01     -2.225195000000000E+01      4.681854000000000E-01     -3.809179000000000E+01
4100000000.000000      2.274551000000000E-01     -1.180664000000000E+01      3.679504000000000E-01     -4.757813000000000E+01
4120000000.000000      2.409668000000000E-01      1.352661000000000E+00      2.493973000000000E-01     -4.407422000000000E+01
4140000000.000000      2.892761000000000E-01      4.713135000000000E+00      2.029953000000000E-01     -1.993555000000000E+01
4160000000.000000      3.335419000000000E-01      5.767822000000000E-01      2.635803000000000E-01     -4.119873000000000E-03
4180000000.000000      3.613281000000000E-01     -6.193604000000000E+00      3.575134000000000E-01      3.886353000000000E+00
4200000000.000000      3.714600000000000E-01     -1.401855000000000E+01      4.878693000000000E-01      1.415833000000000E+00
4220000000.000000      3.666992000000000E-01     -2.121777000000000E+01      6.429443000000000E-01     -1.088623000000000E+01
4240000000.000000      3.476563000000000E-01     -2.879004000000000E+01      7.227783000000000E-01     -2.767187000000000E+01
4260000000.000000      3.096313000000000E-01     -3.461328000000000E+01      7.448120000000000E-01     -4.175781000000000E+01
4280000000.000000      2.598572000000000E-01     -3.586719000000000E+01      7.522278000000000E-01     -5.545116000000000E+01
4300000000.000000      2.228775000000000E-01     -2.769531000000000E+01      7.150879000000000E-01     -7.066406000000000E+01
4320000000.000000      2.360306000000000E-01     -1.505859000000000E+01      6.309814000000000E-01     -8.509766000000000E+01
4340000000.000000      2.940369000000000E-01     -1.098096000000000E+01      5.157166000000000E-01     -9.776953000000000E+01
4360000000.000000      3.590698000000000E-01     -1.594824000000000E+01      3.810120000000000E-01     -1.068398000000000E+02
4380000000.000000      4.051208000000000E-01     -2.486914000000000E+01      2.501221000000000E-01     -1.079609000000000E+02
4400000000.000000      4.268341000000000E-01     -3.475781000000000E+01      1.539917000000000E-01     -8.513281000000000E+01
4420000000.000000      4.252319000000000E-01     -4.405469000000000E+01      1.874619000000000E-01     -4.552343000000000E+01
4440000000.000000      4.088898000000000E-01     -5.218750000000000E+01      3.105316000000000E-01     -3.602930000000000E+01
4460000000.000000      3.887024000000000E-01     -5.878320000000000E+01      4.511261000000000E-01     -4.309766000000000E+01
4480000000.000000      3.690796000000000E-01     -6.506640000000000E+01      5.604858000000000E-01     -5.531250000000000E+01
4500000000.000000      3.471680000000000E-01     -7.175390000000000E+01      6.428528000000000E-01     -6.668750000000000E+01
4520000000.000000      3.150940000000000E-01     -7.923828000000000E+01      7.166138000000000E-01     -7.955468000000000E+01
4540000000.000000      2.638397000000000E-01     -8.532030000000000E+01      7.421265000000000E-01     -9.431641000000000E+01
4560000000.000000      2.035065000000000E-01     -8.357813000000000E+01      7.294617000000000E-01     -1.074414000000000E+02
4580000000.000000      1.771317000000000E-01     -6.801171000000000E+01      6.924744000000000E-01     -1.213359000000000E+02
4600000000.000000      2.143402000000000E-01     -5.427734000000000E+01      6.051636000000000E-01     -1.345234000000000E+02
4620000000.000000      2.792816000000000E-01     -5.563477000000000E+01      4.988251000000000E-01     -1.449531000000000E+02
4640000000.000000      3.330841000000000E-01     -6.537499000000000E+01      3.784332000000000E-01     -1.533281000000000E+02
4660000000.000000      3.570099000000000E-01     -7.839844000000000E+01      2.466965000000000E-01     -1.516094000000000E+02
4680000000.000000      3.490753000000000E-01     -9.225000000000000E+01      1.789627000000000E-01     -1.234180000000000E+02
4700000000.000000      3.120728000000000E-01     -1.052930000000000E+02      2.476654000000000E-01     -9.647264000000000E+01
4720000000.000000      2.551270000000000E-01     -1.157461000000000E+02      3.675385000000000E-01     -9.516016000000000E+01
4740000000.000000      1.933823000000000E-01     -1.209101000000000E+02      4.736176000000000E-01     -1.015625000000000E+02
4760000000.000000      1.414719000000000E-01     -1.169219000000000E+02      5.778198000000000E-01     -1.102851000000000E+02
4780000000.000000      1.151772000000000E-01     -1.011562000000000E+02      6.677551000000000E-01     -1.227617000000000E+02
4800000000.000000      1.221161000000000E-01     -8.390625000000000E+01      7.156677000000000E-01     -1.355391000000000E+02
4820000000.000000      1.503754000000000E-01     -7.444921000000000E+01      7.331543000000000E-01     -1.489375000000000E+02
4840000000.000000      1.909409000000000E-01     -7.422265000000000E+01      7.173767000000000E-01     -1.617422000000000E+02
4860000000.000000      2.341614000000000E-01     -8.069921000000000E+01      6.834717000000000E-01     -1.741641000000000E+02
4880000000.000000      2.711639000000000E-01     -9.081249000000000E+01      6.166382000000000E-01      1.720781000000000E+02
4900000000.000000      2.962341000000000E-01     -1.041953000000000E+02      4.965363000000000E-01      1.599766000000000E+02
4920000000.000000      3.022461000000000E-01     -1.190312000000000E+02      3.671570000000000E-01      1.537500000000000E+02
4940000000.000000      2.875366000000000E-01     -1.344844000000000E+02      2.519989000000000E-01      1.561094000000000E+02
4960000000.000000      2.562866000000000E-01     -1.495234000000000E+02      1.774597000000000E-01      1.773438000000000E+02
4980000000.000000      2.137451000000000E-01     -1.635391000000000E+02      2.144547000000000E-01     -1.510391000000000E+02
5000000000.000000      1.689987000000000E-01     -1.748281000000000E+02      3.299408000000000E-01     -1.434687000000000E+02
5020000000.000000      1.305847000000000E-01      1.753672000000000E+02      4.608917000000000E-01     -1.494219000000000E+02
5040000000.000000      9.986877000000000E-02      1.659219000000000E+02      5.693970000000000E-01     -1.601953000000000E+02
5060000000.000000      7.122421000000000E-02      1.516641000000000E+02      6.517944000000000E-01     -1.717891000000000E+02
5080000000.000000      4.024887000000000E-02      1.267656000000000E+02      7.186279000000000E-01      1.761172000000000E+02
5100000000.000000      1.414490000000000E-02      4.095117000000000E+01      7.570496000000000E-01      1.623594000000000E+02
5120000000.000000      4.159355000000000E-02     -5.408008000000000E+01      7.539368000000000E-01      1.482266000000000E+02
5140000000.000000      7.390976000000000E-02     -8.845312000000000E+01      7.046814000000000E-01      1.346797000000000E+02
5160000000.000000      9.748459000000000E-02     -1.182930000000000E+02      6.296997000000000E-01      1.221641000000000E+02
5180000000.000000      1.104813000000000E-01     -1.483438000000000E+02      5.340271000000000E-01      1.109062000000000E+02
5200000000.000000      1.123314000000000E-01      1.790547000000000E+02      4.164734000000000E-01      1.013515000000000E+02
5220000000.000000      1.087456000000000E-01      1.431562000000000E+02      2.836914000000000E-01      9.855078000000000E+01
5240000000.000000      1.066780000000000E-01      1.063906000000000E+02      1.840210000000000E-01      1.155312000000000E+02
5260000000.000000      1.109886000000000E-01      7.244141000000000E+01      1.971512000000000E-01      1.495547000000000E+02
5280000000.000000      1.185760000000000E-01      4.542773000000000E+01      2.968597000000000E-01      1.607734000000000E+02
5300000000.000000      1.255417000000000E-01      2.440332000000000E+01      4.101105000000000E-01      1.582109000000000E+02
5320000000.000000      1.318588000000000E-01      8.034668000000000E+00      5.274353000000000E-01      1.505703000000000E+02
5340000000.000000      1.378784000000000E-01     -6.505371000000000E+00      6.395264000000000E-01      1.385781000000000E+02
5360000000.000000      1.430054000000000E-01     -2.173730000000000E+01      7.062378000000000E-01      1.243164000000000E+02
5380000000.000000      1.390076000000000E-01     -3.904101000000000E+01      7.174988000000000E-01      1.109570000000000E+02
5400000000.000000      1.208878000000000E-01     -5.697070000000000E+01      7.193909000000000E-01      9.919922000000000E+01
5420000000.000000      8.609009000000000E-02     -7.382030000000000E+01      7.051086000000000E-01      8.617579000000000E+01
5440000000.000000      3.295708000000000E-02     -7.814062000000000E+01      6.485596000000000E-01      7.181641000000000E+01
5460000000.000000      4.158401000000000E-02      3.598437000000000E+01      5.400391000000000E-01      5.876562000000000E+01
5480000000.000000      1.111832000000000E-01      3.002930000000000E+01      4.130096000000000E-01      4.953711000000000E+01
5500000000.000000      1.740952000000000E-01      1.503027000000000E+01      2.929993000000000E-01      4.745507000000000E+01
5520000000.000000      2.201157000000000E-01      2.746582000000000E-02      1.954651000000000E-01      5.915429000000000E+01
5540000000.000000      2.518158000000000E-01     -1.360010000000000E+01      1.809158000000000E-01      9.087109000000000E+01
5560000000.000000      2.707520000000000E-01     -2.539258000000000E+01      2.627716000000000E-01      1.089961000000000E+02
5580000000.000000      2.835999000000000E-01     -3.523438000000000E+01      3.845825000000000E-01      1.087422000000000E+02
5600000000.000000      2.951202000000000E-01     -4.402148000000000E+01      5.072937000000000E-01      9.967577000000000E+01
5620000000.000000      3.061523000000000E-01     -5.307812000000000E+01      5.959473000000000E-01      8.726954000000000E+01
5640000000.000000      3.102722000000000E-01     -6.274023000000000E+01      6.472168000000000E-01      7.532031000000000E+01
5660000000.000000      3.008728000000000E-01     -7.340234000000000E+01      6.833496000000000E-01      6.405859000000000E+01
5680000000.000000      2.718048000000000E-01     -8.378124000000000E+01      6.975098000000000E-01      5.130273000000000E+01
5700000000.000000      2.251740000000000E-01     -9.112499000000000E+01      6.816406000000000E-01      3.897070000000000E+01
5720000000.000000      1.748886000000000E-01     -9.006250000000000E+01      6.431885000000000E-01      2.632715000000000E+01
5740000000.000000      1.525879000000000E-01     -7.588281000000000E+01      5.665588000000000E-01      1.315576000000000E+01
5760000000.000000      1.805038000000000E-01     -6.414844000000000E+01      4.514618000000000E-01      1.492737000000000E+00
5780000000.000000      2.266922000000000E-01     -6.555859000000000E+01      3.164673000000000E-01     -3.584351000000000E+00
5800000000.000000      2.588196000000000E-01     -7.318359000000000E+01      2.086716000000000E-01      7.198730000000000E+00
5820000000.000000      2.692108000000000E-01     -8.243750000000000E+01      1.886368000000000E-01      3.770312000000000E+01
5840000000.000000      2.597656000000000E-01     -9.093359000000000E+01      2.703552000000000E-01      5.424609000000000E+01
5860000000.000000      2.421875000000000E-01     -9.650780000000000E+01      3.708954000000000E-01      5.434179000000000E+01
5880000000.000000      2.277832000000000E-01     -9.967186000000000E+01      4.775391000000000E-01      4.901562000000000E+01
5900000000.000000      2.204361000000000E-01     -1.021016000000000E+02      5.938416000000000E-01      3.870703000000000E+01
5920000000.000000      2.126999000000000E-01     -1.049180000000000E+02      6.724548000000000E-01      2.485352000000000E+01
5940000000.000000      1.988373000000000E-01     -1.070430000000000E+02      7.006226000000000E-01      1.143506000000000E+01
5960000000.000000      1.810684000000000E-01     -1.054805000000000E+02      7.136841000000000E-01     -1.174194000000000E+00
5980000000.000000      1.681671000000000E-01     -9.774609000000000E+01      6.917114000000000E-01     -1.516016000000000E+01
6000000000.000000      1.827774000000000E-01     -8.864061000000000E+01      6.270447000000000E-01     -2.875879000000000E+01
6020000000.000000      2.175064000000000E-01     -8.660156000000000E+01      5.289307000000000E-01     -4.127343000000000E+01
6040000000.000000      2.538452000000000E-01     -9.188671000000000E+01      4.003296000000000E-01     -4.941015000000000E+01
6060000000.000000      2.786407000000000E-01     -1.008086000000000E+02      2.850342000000000E-01     -4.943359000000000E+01
6080000000.000000      2.883606000000000E-01     -1.107773000000000E+02      2.056808000000000E-01     -3.574219000000000E+01
