! Network Analyzer HP8722D
! Hewlett-Packard
! Data name: Linha & Wilkinson+CNT
! Saver's name: Rodrigo Anjos
! Comments: Teste da utilização de aquisição
continua pelo VNA HP8722D
! Time and date: 29/9/2025 11:48
!              Frequency                     S11                                                   S21                                                   S12                                                   S22
# HZ  S  MA R 50
3000000000.000000      4.196167000000000E-01     -5.693164000000000E+01      2.103271000000000E-01     -1.314375000000000E+02
3020000000.000000      4.463348000000000E-01     -7.097656000000000E+01      3.525085000000000E-01     -1.350859000000000E+02
3040000000.000000      4.519958000000000E-01     -8.392187000000000E+01      4.700012000000000E-01     -1.451641000000000E+02
3060000000.000000      4.444275000000000E-01     -9.590235000000000E+01      5.735779000000000E-01     -1.554922000000000E+02
3080000000.000000      4.296722000000000E-01     -1.072461000000000E+02      6.748657000000000E-01     -1.686094000000000E+02
3100000000.000000      4.101563000000000E-01     -1.185078000000000E+02      7.235718000000000E-01      1.766953000000000E+02
3120000000.000000      3.821259000000000E-01     -1.304219000000000E+02      7.315063000000000E-01      1.631875000000000E+02
3140000000.000000      3.409271000000000E-01     -1.434375000000000E+02      7.224426000000000E-01      1.502578000000000E+02
3160000000.000000      2.812805000000000E-01     -1.572969000000000E+02      6.819458000000000E-01      1.368281000000000E+02
3180000000.000000      2.020340000000000E-01     -1.695000000000000E+02      6.111145000000000E-01      1.244180000000000E+02
3200000000.000000      1.144829000000000E-01     -1.694687000000000E+02      5.163574000000000E-01      1.114101000000000E+02
3220000000.000000      8.392715000000000E-02     -1.256328000000000E+02      3.818207000000000E-01      1.007813000000000E+02
3240000000.000000      1.551056000000000E-01     -1.067930000000000E+02      2.442017000000000E-01      9.998047000000000E+01
3260000000.000000      2.345352000000000E-01     -1.165664000000000E+02      1.474991000000000E-01      1.266953000000000E+02
3280000000.000000      2.926483000000000E-01     -1.320156000000000E+02      2.069626000000000E-01      1.654219000000000E+02
3300000000.000000      3.259735000000000E-01     -1.480859000000000E+02      3.332062000000000E-01      1.694141000000000E+02
3320000000.000000      3.384247000000000E-01     -1.637578000000000E+02      4.660492000000000E-01      1.623047000000000E+02
3340000000.000000      3.341522000000000E-01     -1.789766000000000E+02      5.762634000000000E-01      1.501797000000000E+02
3360000000.000000      3.227081000000000E-01      1.665547000000000E+02      6.477966000000000E-01      1.380391000000000E+02
3380000000.000000      3.048401000000000E-01      1.525156000000000E+02      7.109375000000000E-01      1.265820000000000E+02
3400000000.000000      2.808533000000000E-01      1.382187000000000E+02      7.570801000000000E-01      1.129570000000000E+02
3420000000.000000      2.450790000000000E-01      1.234453000000000E+02      7.489319000000000E-01      9.813280000000000E+01
3440000000.000000      1.899796000000000E-01      1.092070000000000E+02      7.033997000000000E-01      8.516405000000000E+01
3460000000.000000      1.186104000000000E-01      9.994921000000000E+01      6.439209000000000E-01      7.212891000000000E+01
3480000000.000000      5.112076000000000E-02      1.287188000000000E+02      5.455933000000000E-01      5.874609000000000E+01
3500000000.000000      1.000862000000000E-01     -1.752109000000000E+02      4.207153000000000E-01      4.753320000000000E+01
3520000000.000000      1.917343000000000E-01      1.781250000000000E+02      2.754822000000000E-01      4.084374000000000E+01
3540000000.000000      2.698364000000000E-01      1.625859000000000E+02      1.468353000000000E-01      5.961719000000000E+01
3560000000.000000      3.280487000000000E-01      1.456953000000000E+02      1.698303000000000E-01      1.081797000000000E+02
3580000000.000000      3.631897000000000E-01      1.297266000000000E+02      2.976379000000000E-01      1.172773000000000E+02
3600000000.000000      3.786469000000000E-01      1.152109000000000E+02      4.222107000000000E-01      1.103125000000000E+02
3620000000.000000      3.796082000000000E-01      1.024609000000000E+02      5.241699000000000E-01      1.008555000000000E+02
3640000000.000000      3.689728000000000E-01      9.136328000000000E+01      6.238098000000000E-01      8.962500000000000E+01
3660000000.000000      3.515625000000000E-01      8.120312000000000E+01      6.943970000000000E-01      7.542578000000000E+01
3680000000.000000      3.276978000000000E-01      7.207812000000000E+01      7.122498000000000E-01      6.234765000000000E+01
3700000000.000000      2.958832000000000E-01      6.395508000000000E+01      7.202454000000000E-01      5.065234000000000E+01
3720000000.000000      2.508850000000000E-01      5.813086000000000E+01      7.214355000000000E-01      3.635742000000000E+01
3740000000.000000      2.012405000000000E-01      5.958008000000000E+01      6.603088000000000E-01      2.087793000000000E+01
3760000000.000000      1.775818000000000E-01      7.391015000000000E+01      5.611267000000000E-01      6.792236000000000E+00
3780000000.000000      2.141266000000000E-01      8.832811000000000E+01      4.301147000000000E-01     -6.472412000000000E+00
3800000000.000000      2.848969000000000E-01      8.931641000000000E+01      2.779541000000000E-01     -1.316895000000000E+01
3820000000.000000      3.519135000000000E-01      8.260937000000000E+01      1.517563000000000E-01      1.013489000000000E+00
3840000000.000000      4.010925000000000E-01      7.383203000000000E+01      1.464920000000000E-01      4.873632000000000E+01
3860000000.000000      4.351654000000000E-01      6.517187000000000E+01      2.496338000000000E-01      6.512890000000000E+01
3880000000.000000      4.601593000000000E-01      5.766015000000000E+01      3.791504000000000E-01      6.080468000000000E+01
3900000000.000000      4.881744000000000E-01      5.056054000000000E+01      4.799347000000000E-01      4.745117000000000E+01
3920000000.000000      5.191650000000000E-01      4.274023000000000E+01      5.096436000000000E-01      3.564648000000000E+01
3940000000.000000      5.459595000000000E-01      3.375000000000000E+01      5.412598000000000E-01      2.913671000000000E+01
3960000000.000000      5.567932000000000E-01      2.355273000000000E+01      5.955505000000000E-01      1.960058000000000E+01
3980000000.000000      5.482788000000000E-01      1.297070000000000E+01      5.979004000000000E-01      7.873047000000000E+00
4000000000.000000      5.233154000000000E-01      2.562500000000000E+00      5.807800000000000E-01      9.695435000000000E-01
4020000000.000000      4.787598000000000E-01     -7.399414000000000E+00      5.986633000000000E-01     -6.991455000000000E+00
4040000000.000000      4.195099000000000E-01     -1.613379000000000E+01      5.833130000000000E-01     -1.917676000000000E+01
4060000000.000000      3.435059000000000E-01     -2.213379000000000E+01      5.237122000000000E-01     -2.931055000000000E+01
4080000000.000000      2.694550000000000E-01     -2.178125000000000E+01      4.662933000000000E-01     -3.845898000000000E+01
4100000000.000000      2.262039000000000E-01     -1.100586000000000E+01      3.619537000000000E-01     -4.751367000000000E+01
4120000000.000000      2.409821000000000E-01      1.867676000000000E+00      2.468948000000000E-01     -4.362500000000000E+01
4140000000.000000      2.898560000000000E-01      4.929932000000000E+00      2.044678000000000E-01     -1.902832000000000E+01
4160000000.000000      3.335571000000000E-01      6.948853000000000E-01      2.676239000000000E-01     -5.218506000000000E-02
4180000000.000000      3.604736000000000E-01     -6.236328000000000E+00      3.608704000000000E-01      3.555420000000000E+00
4200000000.000000      3.696899000000000E-01     -1.397461000000000E+01      4.921570000000000E-01      7.429504000000000E-01
4220000000.000000      3.646393000000000E-01     -2.110938000000000E+01      6.439819000000000E-01     -1.167871000000000E+01
4240000000.000000      3.451385000000000E-01     -2.857422000000000E+01      7.212524000000000E-01     -2.833301000000000E+01
4260000000.000000      3.070984000000000E-01     -3.430664000000000E+01      7.420349000000000E-01     -4.238671000000000E+01
4280000000.000000      2.579346000000000E-01     -3.532422000000000E+01      7.464294000000000E-01     -5.610546000000000E+01
4300000000.000000      2.230072000000000E-01     -2.706347000000000E+01      7.102356000000000E-01     -7.118750000000000E+01
4320000000.000000      2.381363000000000E-01     -1.466699000000000E+01      6.253662000000000E-01     -8.549999000000000E+01
4340000000.000000      2.965851000000000E-01     -1.097266000000000E+01      5.102234000000000E-01     -9.826172000000000E+01
4360000000.000000      3.608704000000000E-01     -1.617969000000000E+01      3.755646000000000E-01     -1.069102000000000E+02
4380000000.000000      4.060669000000000E-01     -2.519922000000000E+01      2.454071000000000E-01     -1.075117000000000E+02
4400000000.000000      4.266663000000000E-01     -3.507813000000000E+01      1.531067000000000E-01     -8.346094000000000E+01
4420000000.000000      4.240723000000000E-01     -4.445508000000000E+01      1.917496000000000E-01     -4.507421000000000E+01
4440000000.000000      4.069061000000000E-01     -5.252343000000000E+01      3.145142000000000E-01     -3.640429000000000E+01
4460000000.000000      3.870087000000000E-01     -5.899023000000000E+01      4.560699000000000E-01     -4.375781000000000E+01
4480000000.000000      3.665466000000000E-01     -6.526172000000000E+01      5.638428000000000E-01     -5.594336000000000E+01
4500000000.000000      3.462219000000000E-01     -7.206640000000000E+01      6.435242000000000E-01     -6.728906000000000E+01
4520000000.000000      3.121796000000000E-01     -7.984765000000000E+01      7.151794000000000E-01     -8.032030000000000E+01
4540000000.000000      2.599335000000000E-01     -8.591797000000000E+01      7.419434000000000E-01     -9.489843000000000E+01
4560000000.000000      1.992874000000000E-01     -8.379686000000000E+01      7.279053000000000E-01     -1.081211000000000E+02
4580000000.000000      1.741409000000000E-01     -6.726171000000000E+01      6.865540000000000E-01     -1.218828000000000E+02
4600000000.000000      2.131958000000000E-01     -5.385937000000000E+01      6.004944000000000E-01     -1.350078000000000E+02
4620000000.000000      2.777405000000000E-01     -5.561718000000000E+01      4.923553000000000E-01     -1.452266000000000E+02
4640000000.000000      3.301392000000000E-01     -6.555859000000000E+01      3.742828000000000E-01     -1.531172000000000E+02
4660000000.000000      3.527832000000000E-01     -7.869922000000000E+01      2.436142000000000E-01     -1.505938000000000E+02
4680000000.000000      3.423920000000000E-01     -9.237499000000000E+01      1.823654000000000E-01     -1.218398000000000E+02
4700000000.000000      3.036194000000000E-01     -1.051992000000000E+02      2.546234000000000E-01     -9.670702000000000E+01
4720000000.000000      2.476273000000000E-01     -1.152539000000000E+02      3.723755000000000E-01     -9.615623000000000E+01
4740000000.000000      1.865845000000000E-01     -1.195742000000000E+02      4.781342000000000E-01     -1.025977000000000E+02
4760000000.000000      1.374283000000000E-01     -1.143633000000000E+02      5.830688000000000E-01     -1.112344000000000E+02
4780000000.000000      1.160240000000000E-01     -9.809374000000000E+01      6.678772000000000E-01     -1.236836000000000E+02
4800000000.000000      1.255112000000000E-01     -8.197266000000000E+01      7.168884000000000E-01     -1.363672000000000E+02
4820000000.000000      1.550598000000000E-01     -7.365234000000000E+01      7.337646000000000E-01     -1.496875000000000E+02
4840000000.000000      1.952972000000000E-01     -7.415234000000000E+01      7.144775000000000E-01     -1.624297000000000E+02
4860000000.000000      2.380295000000000E-01     -8.082811000000000E+01      6.796265000000000E-01     -1.748125000000000E+02
4880000000.000000      2.746429000000000E-01     -9.121874000000000E+01      6.121521000000000E-01      1.715391000000000E+02
4900000000.000000      2.984009000000000E-01     -1.046172000000000E+02      4.914398000000000E-01      1.593047000000000E+02
4920000000.000000      3.022919000000000E-01     -1.195547000000000E+02      3.614197000000000E-01      1.531406000000000E+02
4940000000.000000      2.861786000000000E-01     -1.351094000000000E+02      2.488403000000000E-01      1.562813000000000E+02
4960000000.000000      2.542572000000000E-01     -1.501094000000000E+02      1.766891000000000E-01      1.782891000000000E+02
4980000000.000000      2.113571000000000E-01     -1.639531000000000E+02      2.173538000000000E-01     -1.510703000000000E+02
5000000000.000000      1.670456000000000E-01     -1.752656000000000E+02      3.338623000000000E-01     -1.441015000000000E+02
5020000000.000000      1.294022000000000E-01      1.752734000000000E+02      4.629364000000000E-01     -1.502344000000000E+02
5040000000.000000      9.865189000000000E-02      1.653906000000000E+02      5.704346000000000E-01     -1.609766000000000E+02
5060000000.000000      7.039261000000000E-02      1.506562000000000E+02      6.499939000000000E-01     -1.724609000000000E+02
5080000000.000000      3.891563000000000E-02      1.250469000000000E+02      7.164001000000000E-01      1.753594000000000E+02
5100000000.000000      1.447916000000000E-02      3.314648000000000E+01      7.536926000000000E-01      1.615937000000000E+02
5120000000.000000      4.217339000000000E-02     -5.487499000000000E+01      7.490234000000000E-01      1.474375000000000E+02
5140000000.000000      7.434082000000000E-02     -8.949219000000000E+01      6.995850000000000E-01      1.338516000000000E+02
5160000000.000000      9.759140000000000E-02     -1.198750000000000E+02      6.236877000000000E-01      1.217539000000000E+02
5180000000.000000      1.102219000000000E-01     -1.499141000000000E+02      5.264282000000000E-01      1.105430000000000E+02
5200000000.000000      1.114044000000000E-01      1.774609000000000E+02      4.086914000000000E-01      1.009180000000000E+02
5220000000.000000      1.078796000000000E-01      1.412109000000000E+02      2.778625000000000E-01      9.849998000000000E+01
5240000000.000000      1.071854000000000E-01      1.044687000000000E+02      1.819611000000000E-01      1.165664000000000E+02
5260000000.000000      1.115761000000000E-01      7.080468000000000E+01      1.992264000000000E-01      1.502422000000000E+02
5280000000.000000      1.192245000000000E-01      4.426953000000000E+01      3.009491000000000E-01      1.605547000000000E+02
5300000000.000000      1.263351000000000E-01      2.358593000000000E+01      4.134521000000000E-01      1.577109000000000E+02
5320000000.000000      1.323700000000000E-01      7.166992000000000E+00      5.307617000000000E-01      1.499453000000000E+02
5340000000.000000      1.390305000000000E-01     -7.072510000000000E+00      6.393738000000000E-01      1.379375000000000E+02
5360000000.000000      1.435089000000000E-01     -2.268164000000000E+01      7.044678000000000E-01      1.234570000000000E+02
5380000000.000000      1.391220000000000E-01     -3.974218000000000E+01      7.150269000000000E-01      1.101211000000000E+02
5400000000.000000      1.197701000000000E-01     -5.777148000000000E+01      7.146912000000000E-01      9.837109000000000E+01
5420000000.000000      8.343887000000000E-02     -7.398828000000000E+01      7.001343000000000E-01      8.537889000000000E+01
5440000000.000000      2.938175000000000E-02     -7.519140000000000E+01      6.406860000000000E-01      7.100780000000000E+01
5460000000.000000      4.471207000000000E-02      3.677148000000000E+01      5.341187000000000E-01      5.808594000000000E+01
5480000000.000000      1.138878000000000E-01      2.924511000000000E+01      4.066010000000000E-01      4.916016000000000E+01
5500000000.000000      1.756134000000000E-01      1.415137000000000E+01      2.875214000000000E-01      4.763281000000000E+01
5520000000.000000      2.215118000000000E-01     -7.429504000000000E-01      1.929626000000000E-01      6.050781000000000E+01
5540000000.000000      2.521973000000000E-01     -1.433740000000000E+01      1.835632000000000E-01      9.184374000000000E+01
5560000000.000000      2.704163000000000E-01     -2.602148000000000E+01      2.668915000000000E-01      1.088555000000000E+02
5580000000.000000      2.830811000000000E-01     -3.571484000000000E+01      3.879395000000000E-01      1.082265000000000E+02
5600000000.000000      2.942963000000000E-01     -4.451367000000000E+01      5.094604000000000E-01      9.909765000000000E+01
5620000000.000000      3.042297000000000E-01     -5.359570000000000E+01      5.981445000000000E-01      8.652344000000000E+01
5640000000.000000      3.078766000000000E-01     -6.333593000000000E+01      6.463928000000000E-01      7.465234000000000E+01
5660000000.000000      2.973938000000000E-01     -7.398046000000000E+01      6.830444000000000E-01      6.335742000000000E+01
5680000000.000000      2.687378000000000E-01     -8.421484000000000E+01      6.974182000000000E-01      5.056445000000000E+01
5700000000.000000      2.213211000000000E-01     -9.131250000000000E+01      6.789246000000000E-01      3.831055000000000E+01
5720000000.000000      1.715851000000000E-01     -8.941406000000000E+01      6.380615000000000E-01      2.544531000000000E+01
5740000000.000000      1.527252000000000E-01     -7.506640000000000E+01      5.596619000000000E-01      1.222363000000000E+01
5760000000.000000      1.821289000000000E-01     -6.401562000000000E+01      4.431305000000000E-01      1.083496000000000E+00
5780000000.000000      2.273407000000000E-01     -6.587891000000000E+01      3.097076000000000E-01     -3.613159000000000E+00
5800000000.000000      2.584229000000000E-01     -7.375781000000000E+01      2.048950000000000E-01      8.086914000000000E+00
5820000000.000000      2.668152000000000E-01     -8.303125000000000E+01      1.913681000000000E-01      3.878320000000000E+01
5840000000.000000      2.571564000000000E-01     -9.131639000000000E+01      2.755585000000000E-01      5.423437000000000E+01
5860000000.000000      2.389679000000000E-01     -9.686718000000000E+01      3.756714000000000E-01      5.378515000000000E+01
5880000000.000000      2.262955000000000E-01     -9.979296000000000E+01      4.806519000000000E-01      4.813086000000000E+01
5900000000.000000      2.186966000000000E-01     -1.021601000000000E+02      5.963135000000000E-01      3.797266000000000E+01
5920000000.000000      2.109528000000000E-01     -1.049101000000000E+02      6.705627000000000E-01      2.396777000000000E+01
5940000000.000000      1.968079000000000E-01     -1.067226000000000E+02      7.011414000000000E-01      1.077881000000000E+01
5960000000.000000      1.795807000000000E-01     -1.048828000000000E+02      7.095642000000000E-01     -2.079224000000000E+00
5980000000.000000      1.685333000000000E-01     -9.754686000000000E+01      6.854248000000000E-01     -1.603516000000000E+01
6000000000.000000      1.843719000000000E-01     -8.877733000000000E+01      6.217346000000000E-01     -2.940136000000000E+01
6020000000.000000      2.187729000000000E-01     -8.732031000000000E+01      5.225525000000000E-01     -4.194140000000000E+01
6040000000.000000      2.536011000000000E-01     -9.274609000000000E+01      3.939667000000000E-01     -4.962891000000000E+01
6060000000.000000      2.772827000000000E-01     -1.015195000000000E+02      2.810211000000000E-01     -4.915429000000000E+01
6080000000.000000      2.871094000000000E-01     -1.115937000000000E+02      2.040558000000000E-01     -3.464844000000000E+01
