! Network Analyzer HP8722D
! Hewlett-Packard
! Data name: Linha & Wilkinson+CNT
! Saver's name: Rodrigo Anjos
! Comments: Teste da utilização de aquisição
continua pelo VNA HP8722D
! Time and date: 29/9/2025 14:25
!              Frequency                     S11                                                   S21                                                   S12                                                   S22
# HZ  S  MA R 50
3000000000.000000      4.236450000000000E-01     -5.558203000000000E+01      2.062836000000000E-01     -1.316250000000000E+02
3020000000.000000      4.486237000000000E-01     -6.971874000000000E+01      3.486633000000000E-01     -1.349219000000000E+02
3040000000.000000      4.528503000000000E-01     -8.266016000000000E+01      4.664307000000000E-01     -1.447266000000000E+02
3060000000.000000      4.447937000000000E-01     -9.490625000000000E+01      5.717163000000000E-01     -1.551719000000000E+02
3080000000.000000      4.294128000000000E-01     -1.061797000000000E+02      6.728821000000000E-01     -1.682656000000000E+02
3100000000.000000      4.089661000000000E-01     -1.173516000000000E+02      7.245483000000000E-01      1.768437000000000E+02
3120000000.000000      3.804016000000000E-01     -1.293594000000000E+02      7.317505000000000E-01      1.634063000000000E+02
3140000000.000000      3.386536000000000E-01     -1.423437000000000E+02      7.238159000000000E-01      1.507109000000000E+02
3160000000.000000      2.788849000000000E-01     -1.562656000000000E+02      6.843567000000000E-01      1.370781000000000E+02
3180000000.000000      1.997452000000000E-01     -1.691484000000000E+02      6.154175000000000E-01      1.246367000000000E+02
3200000000.000000      1.118660000000000E-01     -1.701328000000000E+02      5.209961000000000E-01      1.116992000000000E+02
3220000000.000000      7.893753000000000E-02     -1.246641000000000E+02      3.871002000000000E-01      1.009492000000000E+02
3240000000.000000      1.500626000000000E-01     -1.047539000000000E+02      2.479019000000000E-01      9.948046000000000E+01
3260000000.000000      2.292404000000000E-01     -1.151133000000000E+02      1.476593000000000E-01      1.247695000000000E+02
3280000000.000000      2.875519000000000E-01     -1.307344000000000E+02      2.020493000000000E-01      1.652031000000000E+02
3300000000.000000      3.205566000000000E-01     -1.471484000000000E+02      3.286285000000000E-01      1.695703000000000E+02
3320000000.000000      3.318329000000000E-01     -1.630156000000000E+02      4.623260000000000E-01      1.626328000000000E+02
3340000000.000000      3.285217000000000E-01     -1.784297000000000E+02      5.731506000000000E-01      1.505781000000000E+02
3360000000.000000      3.172913000000000E-01      1.668047000000000E+02      6.469727000000000E-01      1.385313000000000E+02
3380000000.000000      3.009033000000000E-01      1.526094000000000E+02      7.094727000000000E-01      1.271680000000000E+02
3400000000.000000      2.784729000000000E-01      1.377891000000000E+02      7.564087000000000E-01      1.133984000000000E+02
3420000000.000000      2.438660000000000E-01      1.227305000000000E+02      7.493286000000000E-01      9.858593000000000E+01
3440000000.000000      1.905441000000000E-01      1.080156000000000E+02      7.050476000000000E-01      8.565624000000000E+01
3460000000.000000      1.205750000000000E-01      9.728905000000000E+01      6.478882000000000E-01      7.247265000000000E+01
3480000000.000000      4.817772000000000E-02      1.203750000000000E+02      5.504761000000000E-01      5.903320000000000E+01
3500000000.000000      9.128952000000000E-02     -1.745078000000000E+02      4.265747000000000E-01      4.771874000000000E+01
3520000000.000000      1.835022000000000E-01      1.791641000000000E+02      2.803345000000000E-01      4.043359000000000E+01
3540000000.000000      2.624054000000000E-01      1.629375000000000E+02      1.481934000000000E-01      5.770702000000000E+01
3560000000.000000      3.225250000000000E-01      1.460000000000000E+02      1.660080000000000E-01      1.075781000000000E+02
3580000000.000000      3.595581000000000E-01      1.299687000000000E+02      2.933197000000000E-01      1.175547000000000E+02
3600000000.000000      3.764038000000000E-01      1.153242000000000E+02      4.184723000000000E-01      1.106484000000000E+02
3620000000.000000      3.781433000000000E-01      1.025781000000000E+02      5.197144000000000E-01      1.014609000000000E+02
3640000000.000000      3.690643000000000E-01      9.144140000000000E+01      6.210938000000000E-01      9.015625000000000E+01
3660000000.000000      3.525391000000000E-01      8.108593000000000E+01      6.914368000000000E-01      7.591015000000000E+01
3680000000.000000      3.289948000000000E-01      7.192187000000000E+01      7.098694000000000E-01      6.281250000000000E+01
3700000000.000000      2.998047000000000E-01      6.375195000000000E+01      7.198181000000000E-01      5.120312000000000E+01
3720000000.000000      2.551422000000000E-01      5.760547000000000E+01      7.243347000000000E-01      3.691406000000000E+01
3740000000.000000      2.048950000000000E-01      5.838085000000000E+01      6.651611000000000E-01      2.145898000000000E+01
3760000000.000000      1.779175000000000E-01      7.218750000000000E+01      5.695190000000000E-01      7.141113000000000E+00
3780000000.000000      2.112122000000000E-01      8.742579000000000E+01      4.372253000000000E-01     -5.979492000000000E+00
3800000000.000000      2.815399000000000E-01      8.918360000000000E+01      2.835846000000000E-01     -1.350391000000000E+01
3820000000.000000      3.488922000000000E-01      8.272655000000000E+01      1.542892000000000E-01     -7.333374000000000E-01
3840000000.000000      4.001617000000000E-01      7.396093000000000E+01      1.424332000000000E-01      4.759961000000000E+01
3860000000.000000      4.344025000000000E-01      6.537890000000000E+01      2.448425000000000E-01      6.539453000000000E+01
3880000000.000000      4.601288000000000E-01      5.785156000000000E+01      3.751678000000000E-01      6.113867000000000E+01
3900000000.000000      4.887390000000000E-01      5.085155000000000E+01      4.766846000000000E-01      4.774219000000000E+01
3920000000.000000      5.202942000000000E-01      4.328515000000000E+01      5.081787000000000E-01      3.607422000000000E+01
3940000000.000000      5.471191000000000E-01      3.409570000000000E+01      5.383911000000000E-01      2.958301000000000E+01
3960000000.000000      5.599670000000000E-01      2.408594000000000E+01      5.947571000000000E-01      2.021875000000000E+01
3980000000.000000      5.526733000000000E-01      1.357471000000000E+01      5.980835000000000E-01      8.233887000000000E+00
4000000000.000000      5.279541000000000E-01      3.313721000000000E+00      5.806580000000000E-01      1.256531000000000E+00
4020000000.000000      4.848633000000000E-01     -6.784180000000000E+00      5.974731000000000E-01     -6.565918000000000E+00
4040000000.000000      4.256287000000000E-01     -1.558008000000000E+01      5.868530000000000E-01     -1.867285000000000E+01
4060000000.000000      3.498535000000000E-01     -2.179199000000000E+01      5.284424000000000E-01     -2.883691000000000E+01
4080000000.000000      2.748718000000000E-01     -2.199219000000000E+01      4.689178000000000E-01     -3.806445000000000E+01
4100000000.000000      2.288971000000000E-01     -1.154980000000000E+01      3.677368000000000E-01     -4.738281000000000E+01
4120000000.000000      2.416306000000000E-01      1.928101000000000E+00      2.505798000000000E-01     -4.439062000000000E+01
4140000000.000000      2.891693000000000E-01      5.142822000000000E+00      2.029190000000000E-01     -2.038184000000000E+01
4160000000.000000      3.337708000000000E-01      9.640503000000000E-01      2.625122000000000E-01     -2.430725000000000E-01
4180000000.000000      3.617859000000000E-01     -5.726807000000000E+00      3.562775000000000E-01      3.909668000000000E+00
4200000000.000000      3.713837000000000E-01     -1.362305000000000E+01      4.870148000000000E-01      1.532593000000000E+00
4220000000.000000      3.674011000000000E-01     -2.074512000000000E+01      6.416016000000000E-01     -1.083154000000000E+01
4240000000.000000      3.485260000000000E-01     -2.827832000000000E+01      7.207336000000000E-01     -2.767675000000000E+01
4260000000.000000      3.103027000000000E-01     -3.408398000000000E+01      7.431030000000000E-01     -4.177734000000000E+01
4280000000.000000      2.599030000000000E-01     -3.547266000000000E+01      7.514343000000000E-01     -5.559179000000000E+01
4300000000.000000      2.227554000000000E-01     -2.748535000000000E+01      7.156677000000000E-01     -7.050390000000000E+01
4320000000.000000      2.350006000000000E-01     -1.463525000000000E+01      6.330261000000000E-01     -8.501953000000000E+01
4340000000.000000      2.923737000000000E-01     -1.050293000000000E+01      5.169373000000000E-01     -9.789843000000000E+01
4360000000.000000      3.579102000000000E-01     -1.553467000000000E+01      3.833923000000000E-01     -1.068633000000000E+02
4380000000.000000      4.048462000000000E-01     -2.454687000000000E+01      2.514343000000000E-01     -1.082070000000000E+02
4400000000.000000      4.263000000000000E-01     -3.441406000000000E+01      1.537933000000000E-01     -8.583984000000000E+01
4420000000.000000      4.247589000000000E-01     -4.383594000000000E+01      1.863403000000000E-01     -4.578125000000000E+01
4440000000.000000      4.088287000000000E-01     -5.181054000000000E+01      3.085480000000000E-01     -3.602930000000000E+01
4460000000.000000      3.893738000000000E-01     -5.858203000000000E+01      4.517670000000000E-01     -4.323438000000000E+01
4480000000.000000      3.700562000000000E-01     -6.486328000000000E+01      5.607300000000000E-01     -5.543945000000000E+01
4500000000.000000      3.470612000000000E-01     -7.160546000000000E+01      6.410522000000000E-01     -6.684375000000000E+01
4520000000.000000      3.139496000000000E-01     -7.930078000000000E+01      7.159729000000000E-01     -7.967968000000000E+01
4540000000.000000      2.630768000000000E-01     -8.551172000000000E+01      7.431030000000000E-01     -9.429688000000000E+01
4560000000.000000      2.019424000000000E-01     -8.397264000000000E+01      7.289734000000000E-01     -1.075664000000000E+02
4580000000.000000      1.738129000000000E-01     -6.817968000000000E+01      6.917725000000000E-01     -1.214336000000000E+02
4600000000.000000      2.111511000000000E-01     -5.397655000000000E+01      6.077576000000000E-01     -1.345781000000000E+02
4620000000.000000      2.764282000000000E-01     -5.508007000000000E+01      5.004272000000000E-01     -1.451797000000000E+02
4640000000.000000      3.303833000000000E-01     -6.499218000000000E+01      3.807831000000000E-01     -1.535078000000000E+02
4660000000.000000      3.545532000000000E-01     -7.827343000000000E+01      2.476654000000000E-01     -1.521016000000000E+02
4680000000.000000      3.463593000000000E-01     -9.225000000000000E+01      1.786804000000000E-01     -1.241250000000000E+02
4700000000.000000      3.101349000000000E-01     -1.055195000000000E+02      2.466278000000000E-01     -9.680859000000000E+01
4720000000.000000      2.541504000000000E-01     -1.161055000000000E+02      3.656616000000000E-01     -9.534374000000000E+01
4740000000.000000      1.917725000000000E-01     -1.216406000000000E+02      4.728394000000000E-01     -1.017305000000000E+02
4760000000.000000      1.394958000000000E-01     -1.178672000000000E+02      5.784912000000000E-01     -1.102226000000000E+02
4780000000.000000      1.121483000000000E-01     -1.020664000000000E+02      6.665344000000000E-01     -1.227656000000000E+02
4800000000.000000      1.174965000000000E-01     -8.390625000000000E+01      7.170105000000000E-01     -1.355391000000000E+02
4820000000.000000      1.459656000000000E-01     -7.411718000000000E+01      7.362976000000000E-01     -1.488125000000000E+02
4840000000.000000      1.870499000000000E-01     -7.389843000000000E+01      7.194214000000000E-01     -1.617266000000000E+02
4860000000.000000      2.302246000000000E-01     -8.026953000000000E+01      6.858215000000000E-01     -1.741719000000000E+02
4880000000.000000      2.682037000000000E-01     -9.053514000000000E+01      6.179504000000000E-01      1.720391000000000E+02
4900000000.000000      2.935028000000000E-01     -1.040430000000000E+02      4.984589000000000E-01      1.596875000000000E+02
4920000000.000000      3.001709000000000E-01     -1.192383000000000E+02      3.669281000000000E-01      1.535391000000000E+02
4940000000.000000      2.853394000000000E-01     -1.348359000000000E+02      2.530823000000000E-01      1.558359000000000E+02
4960000000.000000      2.548218000000000E-01     -1.500391000000000E+02      1.771011000000000E-01      1.767891000000000E+02
4980000000.000000      2.129669000000000E-01     -1.642812000000000E+02      2.129593000000000E-01     -1.513281000000000E+02
5000000000.000000      1.688843000000000E-01     -1.760156000000000E+02      3.285370000000000E-01     -1.436563000000000E+02
5020000000.000000      1.309967000000000E-01      1.740547000000000E+02      4.597015000000000E-01     -1.494844000000000E+02
5040000000.000000      1.002655000000000E-01      1.636328000000000E+02      5.671387000000000E-01     -1.602031000000000E+02
5060000000.000000      7.213593000000000E-02      1.488047000000000E+02      6.502686000000000E-01     -1.717891000000000E+02
5080000000.000000      4.248047000000000E-02      1.232265000000000E+02      7.190247000000000E-01      1.759922000000000E+02
5100000000.000000      1.704502000000000E-02      4.366211000000000E+01      7.566528000000000E-01      1.623281000000000E+02
5120000000.000000      4.061127000000000E-02     -5.050976000000000E+01      7.540588000000000E-01      1.481641000000000E+02
5140000000.000000      7.251358000000000E-02     -8.726563000000000E+01      7.054443000000000E-01      1.343437000000000E+02
5160000000.000000      9.569168000000000E-02     -1.184023000000000E+02      6.296997000000000E-01      1.222266000000000E+02
5180000000.000000      1.091118000000000E-01     -1.491875000000000E+02      5.343323000000000E-01      1.106875000000000E+02
5200000000.000000      1.124878000000000E-01      1.782109000000000E+02      4.183502000000000E-01      1.012539000000000E+02
5220000000.000000      1.098251000000000E-01      1.422969000000000E+02      2.851868000000000E-01      9.807030000000000E+01
5240000000.000000      1.091461000000000E-01      1.060976000000000E+02      1.843948000000000E-01      1.147812000000000E+02
5260000000.000000      1.136475000000000E-01      7.264062000000000E+01      1.952438000000000E-01      1.491953000000000E+02
5280000000.000000      1.204796000000000E-01      4.603320000000000E+01      2.951660000000000E-01      1.606484000000000E+02
5300000000.000000      1.275864000000000E-01      2.532422000000000E+01      4.080200000000000E-01      1.581250000000000E+02
5320000000.000000      1.333542000000000E-01      8.708984000000000E+00      5.265503000000000E-01      1.505703000000000E+02
5340000000.000000      1.385040000000000E-01     -5.553711000000000E+00      6.383972000000000E-01      1.386094000000000E+02
5360000000.000000      1.435013000000000E-01     -2.110840000000000E+01      7.065125000000000E-01      1.241797000000000E+02
5380000000.000000      1.388474000000000E-01     -3.859961000000000E+01      7.178040000000000E-01      1.108437000000000E+02
5400000000.000000      1.200409000000000E-01     -5.677929000000000E+01      7.216492000000000E-01      9.922655000000000E+01
5420000000.000000      8.514023000000000E-02     -7.366405000000000E+01      7.064514000000000E-01      8.609375000000000E+01
5440000000.000000      3.112507000000000E-02     -7.812500000000000E+01      6.491394000000000E-01      7.182031000000000E+01
5460000000.000000      4.264069000000000E-02      3.889257000000000E+01      5.411072000000000E-01      5.847851000000000E+01
5480000000.000000      1.120758000000000E-01      3.113574000000000E+01      4.149170000000000E-01      4.940430000000000E+01
5500000000.000000      1.750183000000000E-01      1.588721000000000E+01      2.943268000000000E-01      4.711719000000000E+01
5520000000.000000      2.204742000000000E-01      7.456970000000000E-01      1.959305000000000E-01      5.854687000000000E+01
5540000000.000000      2.517700000000000E-01     -1.303564000000000E+01      1.798172000000000E-01      9.046093000000000E+01
5560000000.000000      2.702332000000000E-01     -2.491601000000000E+01      2.609253000000000E-01      1.086875000000000E+02
5580000000.000000      2.826080000000000E-01     -3.483789000000000E+01      3.831940000000000E-01      1.087695000000000E+02
5600000000.000000      2.937012000000000E-01     -4.378515000000000E+01      5.056763000000000E-01      9.967577000000000E+01
5620000000.000000      3.042297000000000E-01     -5.283789000000000E+01      5.945129000000000E-01      8.733984000000000E+01
5640000000.000000      3.081970000000000E-01     -6.261913000000000E+01      6.451111000000000E-01      7.530078000000000E+01
5660000000.000000      2.984619000000000E-01     -7.328906000000000E+01      6.842346000000000E-01      6.394726000000000E+01
5680000000.000000      2.695007000000000E-01     -8.371094000000000E+01      6.996155000000000E-01      5.127343000000000E+01
5700000000.000000      2.220306000000000E-01     -9.110155000000000E+01      6.854553000000000E-01      3.891211000000000E+01
5720000000.000000      1.715469000000000E-01     -8.999218000000000E+01      6.450500000000000E-01      2.612793000000000E+01
5740000000.000000      1.496429000000000E-01     -7.553124000000000E+01      5.681152000000000E-01      1.286621000000000E+01
5760000000.000000      1.777573000000000E-01     -6.368750000000000E+01      4.546204000000000E-01      1.286743000000000E+00
5780000000.000000      2.243729000000000E-01     -6.509766000000000E+01      3.182373000000000E-01     -4.014160000000000E+00
5800000000.000000      2.568207000000000E-01     -7.299218000000000E+01      2.094421000000000E-01      6.472168000000000E+00
5820000000.000000      2.664642000000000E-01     -8.248047000000000E+01      1.886215000000000E-01      3.713476000000000E+01
5840000000.000000      2.575073000000000E-01     -9.079687000000000E+01      2.694092000000000E-01      5.388476000000000E+01
5860000000.000000      2.392578000000000E-01     -9.655077000000000E+01      3.699341000000000E-01      5.414257000000000E+01
5880000000.000000      2.242355000000000E-01     -9.979296000000000E+01      4.764709000000000E-01      4.876171000000000E+01
5900000000.000000      2.165146000000000E-01     -1.022500000000000E+02      5.930786000000000E-01      3.839258000000000E+01
5920000000.000000      2.091599000000000E-01     -1.050117000000000E+02      6.725464000000000E-01      2.470410000000000E+01
5940000000.000000      1.951828000000000E-01     -1.070547000000000E+02      7.018127000000000E-01      1.147363000000000E+01
5960000000.000000      1.779480000000000E-01     -1.054336000000000E+02      7.138977000000000E-01     -1.200256000000000E+00
5980000000.000000      1.657104000000000E-01     -9.783983000000000E+01      6.918030000000000E-01     -1.530029000000000E+01
6000000000.000000      1.805725000000000E-01     -8.839453000000000E+01      6.297913000000000E-01     -2.884375000000000E+01
6020000000.000000      2.148209000000000E-01     -8.642969000000000E+01      5.319519000000000E-01     -4.164844000000000E+01
6040000000.000000      2.507935000000000E-01     -9.171875000000000E+01      4.018707000000000E-01     -4.980663000000000E+01
6060000000.000000      2.748260000000000E-01     -1.007031000000000E+02      2.872772000000000E-01     -4.982031000000000E+01
6080000000.000000      2.852783000000000E-01     -1.107969000000000E+02      2.059479000000000E-01     -3.637890000000000E+01
