! Network Analyzer HP8722D
! Hewlett-Packard
! Data name: Linha & Wilkinson+CNT
! Saver's name: Rodrigo Anjos
! Comments: Teste da utilização de aquisição
continua pelo VNA HP8722D
! Time and date: 29/9/2025 14:09
!              Frequency                     S11                                                   S21                                                   S12                                                   S22
# HZ  S  MA R 50
3000000000.000000      4.244690000000000E-01     -5.574219000000000E+01      2.078552000000000E-01     -1.314766000000000E+02
3020000000.000000      4.475555000000000E-01     -6.992969000000000E+01      3.505859000000000E-01     -1.349453000000000E+02
3040000000.000000      4.533997000000000E-01     -8.305859000000000E+01      4.688568000000000E-01     -1.449531000000000E+02
3060000000.000000      4.448242000000000E-01     -9.502344000000000E+01      5.727539000000000E-01     -1.552187000000000E+02
3080000000.000000      4.292450000000000E-01     -1.062773000000000E+02      6.729126000000000E-01     -1.684687000000000E+02
3100000000.000000      4.086151000000000E-01     -1.175742000000000E+02      7.242432000000000E-01      1.766875000000000E+02
3120000000.000000      3.794098000000000E-01     -1.294922000000000E+02      7.320251000000000E-01      1.632969000000000E+02
3140000000.000000      3.380432000000000E-01     -1.424531000000000E+02      7.229919000000000E-01      1.505000000000000E+02
3160000000.000000      2.779388000000000E-01     -1.566328000000000E+02      6.832581000000000E-01      1.370859000000000E+02
3180000000.000000      1.993179000000000E-01     -1.691719000000000E+02      6.134033000000000E-01      1.243945000000000E+02
3200000000.000000      1.112480000000000E-01     -1.696484000000000E+02      5.191040000000000E-01      1.114141000000000E+02
3220000000.000000      7.971573000000000E-02     -1.238047000000000E+02      3.864594000000000E-01      1.007734000000000E+02
3240000000.000000      1.509628000000000E-01     -1.049726000000000E+02      2.462234000000000E-01      9.960938000000000E+01
3260000000.000000      2.302933000000000E-01     -1.152344000000000E+02      1.471558000000000E-01      1.257265000000000E+02
3280000000.000000      2.882385000000000E-01     -1.309844000000000E+02      2.038879000000000E-01      1.653828000000000E+02
3300000000.000000      3.203888000000000E-01     -1.473359000000000E+02      3.305511000000000E-01      1.696328000000000E+02
3320000000.000000      3.324127000000000E-01     -1.631406000000000E+02      4.632874000000000E-01      1.625234000000000E+02
3340000000.000000      3.285980000000000E-01     -1.785859000000000E+02      5.737305000000000E-01      1.504609000000000E+02
3360000000.000000      3.168335000000000E-01      1.667578000000000E+02      6.463013000000000E-01      1.383984000000000E+02
3380000000.000000      3.002472000000000E-01      1.522656000000000E+02      7.095642000000000E-01      1.270937000000000E+02
3400000000.000000      2.780151000000000E-01      1.376172000000000E+02      7.581177000000000E-01      1.131484000000000E+02
3420000000.000000      2.428360000000000E-01      1.227031000000000E+02      7.488403000000000E-01      9.842968000000000E+01
3440000000.000000      1.896362000000000E-01      1.079023000000000E+02      7.052002000000000E-01      8.542187000000000E+01
3460000000.000000      1.195679000000000E-01      9.723436000000000E+01      6.451721000000000E-01      7.240234000000000E+01
3480000000.000000      4.771233000000000E-02      1.216172000000000E+02      5.484619000000000E-01      5.892187000000000E+01
3500000000.000000      9.246445000000000E-02     -1.742734000000000E+02      4.243164000000000E-01      4.750390000000000E+01
3520000000.000000      1.844864000000000E-01      1.790078000000000E+02      2.782593000000000E-01      4.046484000000000E+01
3540000000.000000      2.633667000000000E-01      1.627422000000000E+02      1.470947000000000E-01      5.852929000000000E+01
3560000000.000000      3.229675000000000E-01      1.457656000000000E+02      1.673889000000000E-01      1.078008000000000E+02
3580000000.000000      3.596802000000000E-01      1.297734000000000E+02      2.951050000000000E-01      1.174805000000000E+02
3600000000.000000      3.758698000000000E-01      1.151406000000000E+02      4.198303000000000E-01      1.105508000000000E+02
3620000000.000000      3.773956000000000E-01      1.025430000000000E+02      5.225220000000000E-01      1.010664000000000E+02
3640000000.000000      3.684692000000000E-01      9.129686000000000E+01      6.214294000000000E-01      8.991796000000000E+01
3660000000.000000      3.520813000000000E-01      8.108593000000000E+01      6.926575000000000E-01      7.575390000000000E+01
3680000000.000000      3.292236000000000E-01      7.184375000000000E+01      7.121582000000000E-01      6.258594000000000E+01
3700000000.000000      2.984314000000000E-01      6.367578000000000E+01      7.215576000000000E-01      5.094921000000000E+01
3720000000.000000      2.544403000000000E-01      5.758203000000000E+01      7.239990000000000E-01      3.677929000000000E+01
3740000000.000000      2.041397000000000E-01      5.841601000000000E+01      6.638184000000000E-01      2.129492000000000E+01
3760000000.000000      1.775818000000000E-01      7.255468000000000E+01      5.665283000000000E-01      7.084717000000000E+00
3780000000.000000      2.119293000000000E-01      8.745703000000000E+01      4.342804000000000E-01     -6.130371000000000E+00
3800000000.000000      2.826233000000000E-01      8.897264000000000E+01      2.812653000000000E-01     -1.336230000000000E+01
3820000000.000000      3.505096000000000E-01      8.255859000000000E+01      1.529922000000000E-01     -2.568054000000000E-01
3840000000.000000      4.005127000000000E-01      7.386328000000000E+01      1.432800000000000E-01      4.799805000000000E+01
3860000000.000000      4.352875000000000E-01      6.524219000000000E+01      2.465897000000000E-01      6.538280000000000E+01
3880000000.000000      4.607849000000000E-01      5.772851000000000E+01      3.765106000000000E-01      6.113476000000000E+01
3900000000.000000      4.893341000000000E-01      5.073242000000000E+01      4.774628000000000E-01      4.769921000000000E+01
3920000000.000000      5.191956000000000E-01      4.332421000000000E+01      5.082397000000000E-01      3.577929000000000E+01
3940000000.000000      5.474243000000000E-01      3.400781000000000E+01      5.398254000000000E-01      2.935644000000000E+01
3960000000.000000      5.601501000000000E-01      2.402637000000000E+01      5.957336000000000E-01      2.006738000000000E+01
3980000000.000000      5.543823000000000E-01      1.333740000000000E+01      5.982056000000000E-01      8.140625000000000E+00
4000000000.000000      5.260925000000000E-01      2.982788000000000E+00      5.799561000000000E-01      1.229065000000000E+00
4020000000.000000      4.840393000000000E-01     -6.911865000000000E+00      5.964050000000000E-01     -6.639893000000000E+00
4040000000.000000      4.247589000000000E-01     -1.582031000000000E+01      5.845947000000000E-01     -1.881055000000000E+01
4060000000.000000      3.488617000000000E-01     -2.184668000000000E+01      5.278625000000000E-01     -2.900879000000000E+01
4080000000.000000      2.741852000000000E-01     -2.189258000000000E+01      4.678345000000000E-01     -3.814844000000000E+01
4100000000.000000      2.288284000000000E-01     -1.131592000000000E+01      3.662262000000000E-01     -4.777539000000000E+01
4120000000.000000      2.423248000000000E-01      1.785278000000000E+00      2.493820000000000E-01     -4.403906000000000E+01
4140000000.000000      2.900238000000000E-01      5.137451000000000E+00      2.028961000000000E-01     -1.991308000000000E+01
4160000000.000000      3.343811000000000E-01      9.187317000000000E-01      2.640686000000000E-01     -4.257202000000000E-02
4180000000.000000      3.615265000000000E-01     -6.005615000000000E+00      3.578339000000000E-01      3.825928000000000E+00
4200000000.000000      3.712769000000000E-01     -1.368115000000000E+01      4.882355000000000E-01      1.407593000000000E+00
4220000000.000000      3.670197000000000E-01     -2.088965000000000E+01      6.427612000000000E-01     -1.112939000000000E+01
4240000000.000000      3.478088000000000E-01     -2.841797000000000E+01      7.210999000000000E-01     -2.782519000000000E+01
4260000000.000000      3.097076000000000E-01     -3.413476000000000E+01      7.437744000000000E-01     -4.183594000000000E+01
4280000000.000000      2.595367000000000E-01     -3.540234000000000E+01      7.520142000000000E-01     -5.569921000000000E+01
4300000000.000000      2.219009000000000E-01     -2.731348000000000E+01      7.149963000000000E-01     -7.085938000000000E+01
4320000000.000000      2.359009000000000E-01     -1.455176000000000E+01      6.305237000000000E-01     -8.527735000000000E+01
4340000000.000000      2.938538000000000E-01     -1.061035000000000E+01      5.151367000000000E-01     -9.810936000000000E+01
4360000000.000000      3.587646000000000E-01     -1.567627000000000E+01      3.799591000000000E-01     -1.070625000000000E+02
4380000000.000000      4.053040000000000E-01     -2.467871000000000E+01      2.491455000000000E-01     -1.080820000000000E+02
4400000000.000000      4.264679000000000E-01     -3.451367000000000E+01      1.531906000000000E-01     -8.496874000000000E+01
4420000000.000000      4.244690000000000E-01     -4.412890000000000E+01      1.885300000000000E-01     -4.544726000000000E+01
4440000000.000000      4.077454000000000E-01     -5.194336000000000E+01      3.107758000000000E-01     -3.622265000000000E+01
4460000000.000000      3.877258000000000E-01     -5.854101000000000E+01      4.538574000000000E-01     -4.349805000000000E+01
4480000000.000000      3.665314000000000E-01     -6.498437000000000E+01      5.617676000000000E-01     -5.549609000000000E+01
4500000000.000000      3.462524000000000E-01     -7.157812000000000E+01      6.418762000000000E-01     -6.692187000000000E+01
4520000000.000000      3.132172000000000E-01     -7.936718000000000E+01      7.154846000000000E-01     -7.981640000000000E+01
4540000000.000000      2.620087000000000E-01     -8.557812000000000E+01      7.418518000000000E-01     -9.457031000000000E+01
4560000000.000000      2.010498000000000E-01     -8.373438000000000E+01      7.287598000000000E-01     -1.076914000000000E+02
4580000000.000000      1.740952000000000E-01     -6.779297000000000E+01      6.904602000000000E-01     -1.215234000000000E+02
4600000000.000000      2.120361000000000E-01     -5.385937000000000E+01      6.051025000000000E-01     -1.347500000000000E+02
4620000000.000000      2.775726000000000E-01     -5.520898000000000E+01      4.980316000000000E-01     -1.452266000000000E+02
4640000000.000000      3.308105000000000E-01     -6.517187000000000E+01      3.794098000000000E-01     -1.534453000000000E+02
4660000000.000000      3.546143000000000E-01     -7.846874000000000E+01      2.459717000000000E-01     -1.516875000000000E+02
4680000000.000000      3.462219000000000E-01     -9.245312000000000E+01      1.789551000000000E-01     -1.233398000000000E+02
4700000000.000000      3.092346000000000E-01     -1.055351000000000E+02      2.485123000000000E-01     -9.653124000000000E+01
4720000000.000000      2.530365000000000E-01     -1.162578000000000E+02      3.670807000000000E-01     -9.545702000000000E+01
4740000000.000000      1.906967000000000E-01     -1.214844000000000E+02      4.738464000000000E-01     -1.018242000000000E+02
4760000000.000000      1.384888000000000E-01     -1.174023000000000E+02      5.805664000000000E-01     -1.105898000000000E+02
4780000000.000000      1.122589000000000E-01     -1.015547000000000E+02      6.687622000000000E-01     -1.228555000000000E+02
4800000000.000000      1.180573000000000E-01     -8.376562000000000E+01      7.178345000000000E-01     -1.358125000000000E+02
4820000000.000000      1.470795000000000E-01     -7.422265000000000E+01      7.362366000000000E-01     -1.491016000000000E+02
4840000000.000000      1.874771000000000E-01     -7.398828000000000E+01      7.182312000000000E-01     -1.619297000000000E+02
4860000000.000000      2.313690000000000E-01     -8.049608000000000E+01      6.826172000000000E-01     -1.743515000000000E+02
4880000000.000000      2.686310000000000E-01     -9.086329000000000E+01      6.166992000000000E-01      1.719297000000000E+02
4900000000.000000      2.941589000000000E-01     -1.043906000000000E+02      4.954987000000000E-01      1.596484000000000E+02
4920000000.000000      2.993469000000000E-01     -1.194336000000000E+02      3.649292000000000E-01      1.534375000000000E+02
4940000000.000000      2.848206000000000E-01     -1.351172000000000E+02      2.509155000000000E-01      1.561328000000000E+02
4960000000.000000      2.543488000000000E-01     -1.501797000000000E+02      1.771927000000000E-01      1.775234000000000E+02
4980000000.000000      2.119827000000000E-01     -1.644297000000000E+02      2.149124000000000E-01     -1.510000000000000E+02
5000000000.000000      1.681213000000000E-01     -1.761797000000000E+02      3.306427000000000E-01     -1.436172000000000E+02
5020000000.000000      1.296997000000000E-01      1.738750000000000E+02      4.624023000000000E-01     -1.497187000000000E+02
5040000000.000000      9.995651000000000E-02      1.636641000000000E+02      5.703735000000000E-01     -1.605234000000000E+02
5060000000.000000      7.162476000000000E-02      1.486953000000000E+02      6.497498000000000E-01     -1.720781000000000E+02
5080000000.000000      4.101944000000000E-02      1.227226000000000E+02      7.181396000000000E-01      1.757500000000000E+02
5100000000.000000      1.698208000000000E-02      4.062304000000000E+01      7.566223000000000E-01      1.619844000000000E+02
5120000000.000000      4.123116000000000E-02     -5.144921000000000E+01      7.532959000000000E-01      1.477890000000000E+02
5140000000.000000      7.264709000000000E-02     -8.807032000000000E+01      7.033081000000000E-01      1.342500000000000E+02
5160000000.000000      9.628677000000000E-02     -1.189141000000000E+02      6.293335000000000E-01      1.219102000000000E+02
5180000000.000000      1.092262000000000E-01     -1.497266000000000E+02      5.332336000000000E-01      1.105547000000000E+02
5200000000.000000      1.122627000000000E-01      1.774297000000000E+02      4.160767000000000E-01      1.009883000000000E+02
5220000000.000000      1.095200000000000E-01      1.416250000000000E+02      2.826996000000000E-01      9.829687000000000E+01
5240000000.000000      1.091805000000000E-01      1.055781000000000E+02      1.837158000000000E-01      1.154648000000000E+02
5260000000.000000      1.132393000000000E-01      7.199219000000000E+01      1.969681000000000E-01      1.494297000000000E+02
5280000000.000000      1.209526000000000E-01      4.580468000000000E+01      2.974396000000000E-01      1.605781000000000E+02
5300000000.000000      1.274414000000000E-01      2.497461000000000E+01      4.104614000000000E-01      1.579453000000000E+02
5320000000.000000      1.331100000000000E-01      8.669434000000000E+00      5.273438000000000E-01      1.503672000000000E+02
5340000000.000000      1.392441000000000E-01     -5.621094000000000E+00      6.392822000000000E-01      1.385078000000000E+02
5360000000.000000      1.430969000000000E-01     -2.138086000000000E+01      7.053833000000000E-01      1.240000000000000E+02
5380000000.000000      1.388092000000000E-01     -3.881836000000000E+01      7.174072000000000E-01      1.106211000000000E+02
5400000000.000000      1.196327000000000E-01     -5.696289000000000E+01      7.193298000000000E-01      9.885546000000000E+01
5420000000.000000      8.391571000000000E-02     -7.403515000000000E+01      7.041321000000000E-01      8.575390000000000E+01
5440000000.000000      2.963924000000000E-02     -7.717578000000000E+01      6.476746000000000E-01      7.140234000000000E+01
5460000000.000000      4.393578000000000E-02      3.831836000000000E+01      5.383911000000000E-01      5.835155000000000E+01
5480000000.000000      1.135788000000000E-01      3.077637000000000E+01      4.122925000000000E-01      4.927539000000000E+01
5500000000.000000      1.755295000000000E-01      1.552344000000000E+01      2.916565000000000E-01      4.723828000000000E+01
5520000000.000000      2.212601000000000E-01      5.383301000000000E-01      1.950378000000000E-01      5.917187000000000E+01
5540000000.000000      2.522278000000000E-01     -1.328125000000000E+01      1.810913000000000E-01      9.105860000000000E+01
5560000000.000000      2.704926000000000E-01     -2.510449000000000E+01      2.635040000000000E-01      1.087266000000000E+02
5580000000.000000      2.827759000000000E-01     -3.507617000000000E+01      3.849792000000000E-01      1.085469000000000E+02
5600000000.000000      2.939148000000000E-01     -4.391015000000000E+01      5.069885000000000E-01      9.944921000000000E+01
5620000000.000000      3.042145000000000E-01     -5.307226000000000E+01      5.956116000000000E-01      8.706249000000000E+01
5640000000.000000      3.076172000000000E-01     -6.286523000000000E+01      6.463318000000000E-01      7.508594000000000E+01
5660000000.000000      2.982483000000000E-01     -7.353906000000000E+01      6.852112000000000E-01      6.375000000000000E+01
5680000000.000000      2.685089000000000E-01     -8.381250000000000E+01      6.991577000000000E-01      5.091601000000000E+01
5700000000.000000      2.207108000000000E-01     -9.116014000000000E+01      6.830444000000000E-01      3.870898000000000E+01
5720000000.000000      1.709900000000000E-01     -8.962891000000000E+01      6.423950000000000E-01      2.591894000000000E+01
5740000000.000000      1.502533000000000E-01     -7.519140000000000E+01      5.651245000000000E-01      1.261914000000000E+01
5760000000.000000      1.788483000000000E-01     -6.364258000000000E+01      4.497833000000000E-01      1.222229000000000E+00
5780000000.000000      2.250137000000000E-01     -6.536327000000000E+01      3.155060000000000E-01     -3.967529000000000E+00
5800000000.000000      2.570038000000000E-01     -7.313671000000000E+01      2.079773000000000E-01      7.245361000000000E+00
5820000000.000000      2.667084000000000E-01     -8.263672000000000E+01      1.896133000000000E-01      3.779101000000000E+01
5840000000.000000      2.565613000000000E-01     -9.099609000000000E+01      2.718964000000000E-01      5.397655000000000E+01
5860000000.000000      2.388763000000000E-01     -9.662109000000000E+01      3.726501000000000E-01      5.396874000000000E+01
5880000000.000000      2.243652000000000E-01     -9.994141000000000E+01      4.797058000000000E-01      4.846484000000000E+01
5900000000.000000      2.167664000000000E-01     -1.022422000000000E+02      5.944214000000000E-01      3.834765000000000E+01
5920000000.000000      2.086258000000000E-01     -1.050781000000000E+02      6.714478000000000E-01      2.443457000000000E+01
5940000000.000000      1.947250000000000E-01     -1.069453000000000E+02      7.010193000000000E-01      1.106006000000000E+01
5960000000.000000      1.773453000000000E-01     -1.053398000000000E+02      7.132263000000000E-01     -1.614990000000000E+00
5980000000.000000      1.654282000000000E-01     -9.735546000000000E+01      6.903992000000000E-01     -1.564209000000000E+01
6000000000.000000      1.816864000000000E-01     -8.823046000000000E+01      6.261597000000000E-01     -2.923535000000000E+01
6020000000.000000      2.154922000000000E-01     -8.653906000000000E+01      5.287170000000000E-01     -4.182031000000000E+01
6040000000.000000      2.517090000000000E-01     -9.187109000000000E+01      3.983307000000000E-01     -5.001367000000000E+01
6060000000.000000      2.753143000000000E-01     -1.009492000000000E+02      2.852173000000000E-01     -4.964257000000000E+01
6080000000.000000      2.853241000000000E-01     -1.111641000000000E+02      2.049103000000000E-01     -3.576172000000000E+01
