! Network Analyzer HP8722D
! Hewlett-Packard
! Data name: Linha & Wilkinson+CNT
! Saver's name: Rodrigo Anjos
! Comments: Teste da utilização de aquisição
continua pelo VNA HP8722D
! Time and date: 29/9/2025 13:18
!              Frequency                     S11                                                   S21                                                   S12                                                   S22
# HZ  S  MA R 50
3000000000.000000      4.244385000000000E-01     -5.577538000000000E+01      2.073441000000000E-01     -1.315391000000000E+02
3020000000.000000      4.493408000000000E-01     -6.994141000000000E+01      3.501740000000000E-01     -1.350859000000000E+02
3040000000.000000      4.533844000000000E-01     -8.294140000000000E+01      4.678802000000000E-01     -1.448750000000000E+02
3060000000.000000      4.450073000000000E-01     -9.503906000000000E+01      5.726318000000000E-01     -1.552109000000000E+02
3080000000.000000      4.294586000000000E-01     -1.063867000000000E+02      6.731873000000000E-01     -1.684141000000000E+02
3100000000.000000      4.091492000000000E-01     -1.175508000000000E+02      7.238159000000000E-01      1.767187000000000E+02
3120000000.000000      3.797607000000000E-01     -1.295469000000000E+02      7.320557000000000E-01      1.633672000000000E+02
3140000000.000000      3.394318000000000E-01     -1.425703000000000E+02      7.240601000000000E-01      1.505078000000000E+02
3160000000.000000      2.790375000000000E-01     -1.565234000000000E+02      6.837463000000000E-01      1.369453000000000E+02
3180000000.000000      1.995697000000000E-01     -1.692109000000000E+02      6.141357000000000E-01      1.242851000000000E+02
3200000000.000000      1.119003000000000E-01     -1.697656000000000E+02      5.195007000000000E-01      1.116875000000000E+02
3220000000.000000      7.968521000000000E-02     -1.243672000000000E+02      3.863831000000000E-01      1.007813000000000E+02
3240000000.000000      1.507339000000000E-01     -1.051406000000000E+02      2.469788000000000E-01      9.946875000000000E+01
3260000000.000000      2.302399000000000E-01     -1.154180000000000E+02      1.468811000000000E-01      1.252734000000000E+02
3280000000.000000      2.878265000000000E-01     -1.310000000000000E+02      2.032318000000000E-01      1.652656000000000E+02
3300000000.000000      3.208771000000000E-01     -1.472812000000000E+02      3.298187000000000E-01      1.695547000000000E+02
3320000000.000000      3.323975000000000E-01     -1.632031000000000E+02      4.631653000000000E-01      1.625547000000000E+02
3340000000.000000      3.291473000000000E-01     -1.785703000000000E+02      5.740662000000000E-01      1.506172000000000E+02
3360000000.000000      3.175049000000000E-01      1.667031000000000E+02      6.461182000000000E-01      1.383437000000000E+02
3380000000.000000      3.007050000000000E-01      1.524453000000000E+02      7.082825000000000E-01      1.269922000000000E+02
3400000000.000000      2.780304000000000E-01      1.377500000000000E+02      7.566833000000000E-01      1.132383000000000E+02
3420000000.000000      2.435760000000000E-01      1.228828000000000E+02      7.492065000000000E-01      9.846483000000000E+01
3440000000.000000      1.900253000000000E-01      1.080976000000000E+02      7.051697000000000E-01      8.554688000000000E+01
3460000000.000000      1.198769000000000E-01      9.753515000000000E+01      6.468506000000000E-01      7.244531000000000E+01
3480000000.000000      4.789734000000000E-02      1.213437000000000E+02      5.496216000000000E-01      5.895898000000000E+01
3500000000.000000      9.203720000000000E-02     -1.741406000000000E+02      4.250031000000000E-01      4.750000000000000E+01
3520000000.000000      1.844788000000000E-01      1.790625000000000E+02      2.789612000000000E-01      4.046875000000000E+01
3540000000.000000      2.633514000000000E-01      1.628203000000000E+02      1.475677000000000E-01      5.819726000000000E+01
3560000000.000000      3.228912000000000E-01      1.459063000000000E+02      1.667328000000000E-01      1.075977000000000E+02
3580000000.000000      3.598938000000000E-01      1.299141000000000E+02      2.939148000000000E-01      1.174805000000000E+02
3600000000.000000      3.765717000000000E-01      1.152461000000000E+02      4.194794000000000E-01      1.106055000000000E+02
3620000000.000000      3.783417000000000E-01      1.025156000000000E+02      5.210266000000000E-01      1.010312000000000E+02
3640000000.000000      3.684387000000000E-01      9.138281000000000E+01      6.210938000000000E-01      8.993750000000000E+01
3660000000.000000      3.526764000000000E-01      8.105078000000000E+01      6.922607000000000E-01      7.573437000000000E+01
3680000000.000000      3.291626000000000E-01      7.181250000000000E+01      7.107849000000000E-01      6.261523000000000E+01
3700000000.000000      2.987518000000000E-01      6.362890000000000E+01      7.210388000000000E-01      5.108593000000000E+01
3720000000.000000      2.544556000000000E-01      5.748437000000000E+01      7.232666000000000E-01      3.680664000000000E+01
3740000000.000000      2.045288000000000E-01      5.838281000000000E+01      6.638794000000000E-01      2.131348000000000E+01
3760000000.000000      1.773987000000000E-01      7.228906000000000E+01      5.663757000000000E-01      7.158936000000000E+00
3780000000.000000      2.115555000000000E-01      8.740234000000000E+01      4.368286000000000E-01     -6.114014000000000E+00
3800000000.000000      2.823181000000000E-01      8.902735000000000E+01      2.821655000000000E-01     -1.347656000000000E+01
3820000000.000000      3.496399000000000E-01      8.257030000000000E+01      1.537018000000000E-01     -4.490662000000000E-01
3840000000.000000      4.002075000000000E-01      7.385547000000000E+01      1.427612000000000E-01      4.776953000000000E+01
3860000000.000000      4.351807000000000E-01      6.534765000000000E+01      2.456284000000000E-01      6.530078000000000E+01
3880000000.000000      4.605103000000000E-01      5.776172000000000E+01      3.762665000000000E-01      6.099218000000000E+01
3900000000.000000      4.891815000000000E-01      5.065234000000000E+01      4.790192000000000E-01      4.771484000000000E+01
3920000000.000000      5.199585000000000E-01      4.293554000000000E+01      5.094604000000000E-01      3.602539000000000E+01
3940000000.000000      5.493774000000000E-01      3.405078000000000E+01      5.395813000000000E-01      2.944140000000000E+01
3960000000.000000      5.570068000000000E-01      2.412793000000000E+01      5.958557000000000E-01      1.998926000000000E+01
3980000000.000000      5.544739000000000E-01      1.349365000000000E+01      5.983887000000000E-01      8.255859000000000E+00
4000000000.000000      5.275269000000000E-01      3.087158000000000E+00      5.801697000000000E-01      1.334839000000000E+00
4020000000.000000      4.843140000000000E-01     -6.878906000000000E+00      5.998230000000000E-01     -6.492920000000000E+00
4040000000.000000      4.248657000000000E-01     -1.582471000000000E+01      5.851440000000000E-01     -1.874902000000000E+01
4060000000.000000      3.493652000000000E-01     -2.190430000000000E+01      5.278320000000000E-01     -2.896582000000000E+01
4080000000.000000      2.742615000000000E-01     -2.185059000000000E+01      4.674835000000000E-01     -3.835546000000000E+01
4100000000.000000      2.285919000000000E-01     -1.150977000000000E+01      3.671570000000000E-01     -4.749219000000000E+01
4120000000.000000      2.413254000000000E-01      1.680908000000000E+00      2.495956000000000E-01     -4.426367000000000E+01
4140000000.000000      2.897949000000000E-01      5.059082000000000E+00      2.032471000000000E-01     -2.017676000000000E+01
4160000000.000000      3.336639000000000E-01      8.569336000000000E-01      2.632904000000000E-01     -2.293396000000000E-01
4180000000.000000      3.616028000000000E-01     -5.946533000000000E+00      3.567352000000000E-01      3.898682000000000E+00
4200000000.000000      3.709412000000000E-01     -1.378809000000000E+01      4.881134000000000E-01      1.249695000000000E+00
4220000000.000000      3.671112000000000E-01     -2.094824000000000E+01      6.418152000000000E-01     -1.103027000000000E+01
4240000000.000000      3.477020000000000E-01     -2.843554000000000E+01      7.214050000000000E-01     -2.788769000000000E+01
4260000000.000000      3.096924000000000E-01     -3.426562000000000E+01      7.429504000000000E-01     -4.187109000000000E+01
4280000000.000000      2.598724000000000E-01     -3.549023000000000E+01      7.502136000000000E-01     -5.577148000000000E+01
4300000000.000000      2.222519000000000E-01     -2.736328000000000E+01      7.148438000000000E-01     -7.075000000000000E+01
4320000000.000000      2.356186000000000E-01     -1.471631000000000E+01      6.316223000000000E-01     -8.515234000000000E+01
4340000000.000000      2.934875000000000E-01     -1.070215000000000E+01      5.172424000000000E-01     -9.802734000000000E+01
4360000000.000000      3.588867000000000E-01     -1.571875000000000E+01      3.818817000000000E-01     -1.068125000000000E+02
4380000000.000000      4.046936000000000E-01     -2.466211000000000E+01      2.502441000000000E-01     -1.081641000000000E+02
4400000000.000000      4.260864000000000E-01     -3.464844000000000E+01      1.536102000000000E-01     -8.533983000000000E+01
4420000000.000000      4.242859000000000E-01     -4.398242000000000E+01      1.873016000000000E-01     -4.561132000000000E+01
4440000000.000000      4.085541000000000E-01     -5.200585000000000E+01      3.101196000000000E-01     -3.620117000000000E+01
4460000000.000000      3.887177000000000E-01     -5.855078000000000E+01      4.520569000000000E-01     -4.332617000000000E+01
4480000000.000000      3.679810000000000E-01     -6.499609000000000E+01      5.608215000000000E-01     -5.554296000000000E+01
4500000000.000000      3.465424000000000E-01     -7.174999000000000E+01      6.415100000000000E-01     -6.690624000000000E+01
4520000000.000000      3.137207000000000E-01     -7.935937000000000E+01      7.150574000000000E-01     -7.982031000000000E+01
4540000000.000000      2.623444000000000E-01     -8.557812000000000E+01      7.413635000000000E-01     -9.440233000000000E+01
4560000000.000000      2.013855000000000E-01     -8.389452000000000E+01      7.293091000000000E-01     -1.076680000000000E+02
4580000000.000000      1.746292000000000E-01     -6.799999000000000E+01      6.907349000000000E-01     -1.215898000000000E+02
4600000000.000000      2.120209000000000E-01     -5.400976000000000E+01      6.057739000000000E-01     -1.347344000000000E+02
4620000000.000000      2.772675000000000E-01     -5.543945000000000E+01      4.993286000000000E-01     -1.451484000000000E+02
4640000000.000000      3.309937000000000E-01     -6.523438000000000E+01      3.801727000000000E-01     -1.535000000000000E+02
4660000000.000000      3.545532000000000E-01     -7.842968000000000E+01      2.465744000000000E-01     -1.517891000000000E+02
4680000000.000000      3.462677000000000E-01     -9.242968000000000E+01      1.790161000000000E-01     -1.237148000000000E+02
4700000000.000000      3.094177000000000E-01     -1.055508000000000E+02      2.478104000000000E-01     -9.675781000000000E+01
4720000000.000000      2.534180000000000E-01     -1.162109000000000E+02      3.666077000000000E-01     -9.550390000000000E+01
4740000000.000000      1.909409000000000E-01     -1.214844000000000E+02      4.730835000000000E-01     -1.018672000000000E+02
4760000000.000000      1.388855000000000E-01     -1.178086000000000E+02      5.802612000000000E-01     -1.106953000000000E+02
4780000000.000000      1.130867000000000E-01     -1.016445000000000E+02      6.683655000000000E-01     -1.229766000000000E+02
4800000000.000000      1.181221000000000E-01     -8.402735000000000E+01      7.160950000000000E-01     -1.357734000000000E+02
4820000000.000000      1.468735000000000E-01     -7.453515000000000E+01      7.348633000000000E-01     -1.490313000000000E+02
4840000000.000000      1.881714000000000E-01     -7.387500000000000E+01      7.181396000000000E-01     -1.618828000000000E+02
4860000000.000000      2.311783000000000E-01     -8.049219000000000E+01      6.834106000000000E-01     -1.743906000000000E+02
4880000000.000000      2.687531000000000E-01     -9.078516000000000E+01      6.163330000000000E-01      1.718516000000000E+02
4900000000.000000      2.935028000000000E-01     -1.042930000000000E+02      4.962158000000000E-01      1.596875000000000E+02
4920000000.000000      3.001404000000000E-01     -1.193672000000000E+02      3.645935000000000E-01      1.534219000000000E+02
4940000000.000000      2.851105000000000E-01     -1.350234000000000E+02      2.520752000000000E-01      1.558750000000000E+02
4960000000.000000      2.549896000000000E-01     -1.502656000000000E+02      1.775131000000000E-01      1.771563000000000E+02
4980000000.000000      2.123642000000000E-01     -1.645078000000000E+02      2.141953000000000E-01     -1.513984000000000E+02
5000000000.000000      1.678467000000000E-01     -1.761641000000000E+02      3.300018000000000E-01     -1.437500000000000E+02
5020000000.000000      1.303101000000000E-01      1.739766000000000E+02      4.602509000000000E-01     -1.498828000000000E+02
5040000000.000000      9.983826000000000E-02      1.635703000000000E+02      5.694580000000000E-01     -1.605312000000000E+02
5060000000.000000      7.117844000000000E-02      1.487344000000000E+02      6.492615000000000E-01     -1.720156000000000E+02
5080000000.000000      4.170227000000000E-02      1.231094000000000E+02      7.185669000000000E-01      1.759063000000000E+02
5100000000.000000      1.693630000000000E-02      4.186328000000000E+01      7.573547000000000E-01      1.622187000000000E+02
5120000000.000000      4.085159000000000E-02     -5.086719000000000E+01      7.529907000000000E-01      1.479375000000000E+02
5140000000.000000      7.224655000000000E-02     -8.785547000000000E+01      7.038879000000000E-01      1.341875000000000E+02
5160000000.000000      9.555435000000000E-02     -1.189258000000000E+02      6.284790000000000E-01      1.219727000000000E+02
5180000000.000000      1.092529000000000E-01     -1.492266000000000E+02      5.338440000000000E-01      1.108359000000000E+02
5200000000.000000      1.113663000000000E-01      1.776328000000000E+02      4.171448000000000E-01      1.009570000000000E+02
5220000000.000000      1.092262000000000E-01      1.419062000000000E+02      2.831421000000000E-01      9.826561000000000E+01
5240000000.000000      1.088753000000000E-01      1.055976000000000E+02      1.842041000000000E-01      1.151953000000000E+02
5260000000.000000      1.133461000000000E-01      7.223046000000000E+01      1.959763000000000E-01      1.493515000000000E+02
5280000000.000000      1.206017000000000E-01      4.565625000000000E+01      2.964172000000000E-01      1.605234000000000E+02
5300000000.000000      1.274948000000000E-01      2.507715000000000E+01      4.089355000000000E-01      1.581406000000000E+02
5320000000.000000      1.337433000000000E-01      8.527832000000000E+00      5.277710000000000E-01      1.505312000000000E+02
5340000000.000000      1.390762000000000E-01     -5.884766000000000E+00      6.388855000000000E-01      1.384063000000000E+02
5360000000.000000      1.431580000000000E-01     -2.133887000000000E+01      7.062073000000000E-01      1.239570000000000E+02
5380000000.000000      1.384964000000000E-01     -3.870312000000000E+01      7.156982000000000E-01      1.107969000000000E+02
5400000000.000000      1.197510000000000E-01     -5.679296000000000E+01      7.197266000000000E-01      9.914063000000000E+01
5420000000.000000      8.446884000000000E-02     -7.344921000000000E+01      7.033386000000000E-01      8.583202000000000E+01
5440000000.000000      3.036213000000000E-02     -7.726171000000000E+01      6.477051000000000E-01      7.158593000000000E+01
5460000000.000000      4.348946000000000E-02      3.855469000000000E+01      5.407410000000000E-01      5.837500000000000E+01
5480000000.000000      1.128960000000000E-01      3.072851000000000E+01      4.123688000000000E-01      4.926952000000000E+01
5500000000.000000      1.751404000000000E-01      1.562793000000000E+01      2.925720000000000E-01      4.725586000000000E+01
5520000000.000000      2.206192000000000E-01      5.067444000000000E-01      1.948624000000000E-01      5.894336000000000E+01
5540000000.000000      2.525330000000000E-01     -1.325684000000000E+01      1.805115000000000E-01      9.074219000000000E+01
5560000000.000000      2.705688000000000E-01     -2.518261000000000E+01      2.624512000000000E-01      1.087344000000000E+02
5580000000.000000      2.828979000000000E-01     -3.497851000000000E+01      3.837891000000000E-01      1.085195000000000E+02
5600000000.000000      2.940063000000000E-01     -4.390234000000000E+01      5.069885000000000E-01      9.958593000000000E+01
5620000000.000000      3.045197000000000E-01     -5.300781000000000E+01      5.963440000000000E-01      8.698437000000000E+01
5640000000.000000      3.081207000000000E-01     -6.272070000000000E+01      6.467896000000000E-01      7.508203000000000E+01
5660000000.000000      2.982330000000000E-01     -7.347656000000000E+01      6.856995000000000E-01      6.382226000000000E+01
5680000000.000000      2.690735000000000E-01     -8.384766000000000E+01      6.986084000000000E-01      5.106054000000000E+01
5700000000.000000      2.216110000000000E-01     -9.114843000000000E+01      6.822205000000000E-01      3.872656000000000E+01
5720000000.000000      1.710587000000000E-01     -8.981640000000000E+01      6.437073000000000E-01      2.599414000000000E+01
5740000000.000000      1.502609000000000E-01     -7.541016000000000E+01      5.662842000000000E-01      1.274414000000000E+01
5760000000.000000      1.784821000000000E-01     -6.378711000000000E+01      4.507904000000000E-01      1.175537000000000E+00
5780000000.000000      2.245865000000000E-01     -6.522265000000000E+01      3.168945000000000E-01     -4.125488000000000E+00
5800000000.000000      2.566071000000000E-01     -7.310547000000000E+01      2.085495000000000E-01      6.886963000000000E+00
5820000000.000000      2.672119000000000E-01     -8.260546000000000E+01      1.895752000000000E-01      3.744531000000000E+01
5840000000.000000      2.571106000000000E-01     -9.106640000000000E+01      2.705841000000000E-01      5.384960000000000E+01
5860000000.000000      2.393723000000000E-01     -9.694139000000000E+01      3.717804000000000E-01      5.404101000000000E+01
5880000000.000000      2.243347000000000E-01     -1.000117000000000E+02      4.783325000000000E-01      4.860352000000000E+01
5900000000.000000      2.169266000000000E-01     -1.022539000000000E+02      5.939331000000000E-01      3.835546000000000E+01
5920000000.000000      2.091751000000000E-01     -1.051406000000000E+02      6.719360000000000E-01      2.443554000000000E+01
5940000000.000000      1.951828000000000E-01     -1.069922000000000E+02      7.016907000000000E-01      1.125537000000000E+01
5960000000.000000      1.779556000000000E-01     -1.053828000000000E+02      7.131653000000000E-01     -1.624634000000000E+00
5980000000.000000      1.655807000000000E-01     -9.774218000000000E+01      6.900940000000000E-01     -1.550732000000000E+01
6000000000.000000      1.814041000000000E-01     -8.846483000000000E+01      6.282654000000000E-01     -2.902539000000000E+01
6020000000.000000      2.155685000000000E-01     -8.673437000000000E+01      5.292053000000000E-01     -4.168359000000000E+01
6040000000.000000      2.517548000000000E-01     -9.193750000000000E+01      4.006500000000000E-01     -4.992188000000000E+01
6060000000.000000      2.750854000000000E-01     -1.009609000000000E+02      2.859497000000000E-01     -4.977148000000000E+01
6080000000.000000      2.854309000000000E-01     -1.111172000000000E+02      2.058945000000000E-01     -3.615625000000000E+01
