! Network Analyzer HP8722D
! Hewlett-Packard
! Data name: Linha & Wilkinson+CNT
! Saver's name: Rodrigo Anjos
! Comments: Teste da utilização de aquisição
continua pelo VNA HP8722D
! Time and date: 29/9/2025 17:34
!              Frequency                     S11                                                   S21                                                   S12                                                   S22
# HZ  S  MA R 50
3000000000.000000      4.268494000000000E-01     -5.612695000000000E+01      2.116699000000000E-01     -1.315156000000000E+02
3020000000.000000      4.471436000000000E-01     -6.998047000000000E+01      3.534851000000000E-01     -1.353281000000000E+02
3040000000.000000      4.521790000000000E-01     -8.314844000000000E+01      4.712982000000000E-01     -1.453281000000000E+02
3060000000.000000      4.440765000000000E-01     -9.510546000000000E+01      5.746155000000000E-01     -1.554766000000000E+02
3080000000.000000      4.287262000000000E-01     -1.063125000000000E+02      6.740112000000000E-01     -1.687187000000000E+02
3100000000.000000      4.083405000000000E-01     -1.175000000000000E+02      7.239075000000000E-01      1.764297000000000E+02
3120000000.000000      3.782806000000000E-01     -1.294844000000000E+02      7.316284000000000E-01      1.630938000000000E+02
3140000000.000000      3.367004000000000E-01     -1.424687000000000E+02      7.228699000000000E-01      1.502578000000000E+02
3160000000.000000      2.758026000000000E-01     -1.565391000000000E+02      6.812744000000000E-01      1.366875000000000E+02
3180000000.000000      1.964035000000000E-01     -1.690078000000000E+02      6.108093000000000E-01      1.240156000000000E+02
3200000000.000000      1.091728000000000E-01     -1.688594000000000E+02      5.166626000000000E-01      1.114023000000000E+02
3220000000.000000      8.118057000000000E-02     -1.226797000000000E+02      3.826141000000000E-01      1.008945000000000E+02
3240000000.000000      1.532593000000000E-01     -1.050273000000000E+02      2.432175000000000E-01      9.996094000000000E+01
3260000000.000000      2.321472000000000E-01     -1.155976000000000E+02      1.469955000000000E-01      1.271055000000000E+02
3280000000.000000      2.886810000000000E-01     -1.311797000000000E+02      2.073669000000000E-01      1.655625000000000E+02
3300000000.000000      3.206940000000000E-01     -1.475469000000000E+02      3.339996000000000E-01      1.692578000000000E+02
3320000000.000000      3.316650000000000E-01     -1.634063000000000E+02      4.664612000000000E-01      1.621719000000000E+02
3340000000.000000      3.277588000000000E-01     -1.787500000000000E+02      5.779419000000000E-01      1.500625000000000E+02
3360000000.000000      3.159027000000000E-01      1.665625000000000E+02      6.481934000000000E-01      1.379922000000000E+02
3380000000.000000      2.994232000000000E-01      1.522656000000000E+02      7.098999000000000E-01      1.266758000000000E+02
3400000000.000000      2.772827000000000E-01      1.375625000000000E+02      7.566223000000000E-01      1.128320000000000E+02
3420000000.000000      2.419052000000000E-01      1.225625000000000E+02      7.482605000000000E-01      9.803905000000000E+01
3440000000.000000      1.881638000000000E-01      1.080039000000000E+02      7.026062000000000E-01      8.532030000000000E+01
3460000000.000000      1.180000000000000E-01      9.769140000000000E+01      6.437073000000000E-01      7.224218000000000E+01
3480000000.000000      4.790306000000000E-02      1.246289000000000E+02      5.450745000000000E-01      5.871875000000000E+01
3500000000.000000      9.529114000000000E-02     -1.744297000000000E+02      4.203644000000000E-01      4.761328000000000E+01
3520000000.000000      1.866608000000000E-01      1.783281000000000E+02      2.744141000000000E-01      4.081836000000000E+01
3540000000.000000      2.654572000000000E-01      1.621484000000000E+02      1.461487000000000E-01      5.987109000000000E+01
3560000000.000000      3.244781000000000E-01      1.452891000000000E+02      1.705246000000000E-01      1.085195000000000E+02
3580000000.000000      3.602448000000000E-01      1.293750000000000E+02      2.984619000000000E-01      1.174414000000000E+02
3600000000.000000      3.761292000000000E-01      1.148398000000000E+02      4.227905000000000E-01      1.103125000000000E+02
3620000000.000000      3.780670000000000E-01      1.023320000000000E+02      5.239258000000000E-01      1.007695000000000E+02
3640000000.000000      3.680573000000000E-01      9.111328000000000E+01      6.238098000000000E-01      8.951172000000000E+01
3660000000.000000      3.513794000000000E-01      8.098436000000000E+01      6.929016000000000E-01      7.538671000000000E+01
3680000000.000000      3.287964000000000E-01      7.176171000000000E+01      7.082825000000000E-01      6.224023000000000E+01
3700000000.000000      2.985535000000000E-01      6.353516000000000E+01      7.204285000000000E-01      5.062109000000000E+01
3720000000.000000      2.538910000000000E-01      5.769336000000000E+01      7.208862000000000E-01      3.637304000000000E+01
3740000000.000000      2.037811000000000E-01      5.882030000000000E+01      6.597290000000000E-01      2.104199000000000E+01
3760000000.000000      1.785049000000000E-01      7.315624000000000E+01      5.616455000000000E-01      6.792236000000000E+00
3780000000.000000      2.145004000000000E-01      8.782421000000000E+01      4.301605000000000E-01     -6.199219000000000E+00
3800000000.000000      2.850647000000000E-01      8.896484000000000E+01      2.772522000000000E-01     -1.320166000000000E+01
3820000000.000000      3.514557000000000E-01      8.246874000000000E+01      1.512451000000000E-01      1.095886000000000E+00
3840000000.000000      4.015503000000000E-01      7.370703000000000E+01      1.460724000000000E-01      4.890625000000000E+01
3860000000.000000      4.364014000000000E-01      6.512500000000000E+01      2.503204000000000E-01      6.530468000000000E+01
3880000000.000000      4.618378000000000E-01      5.770702000000000E+01      3.794403000000000E-01      6.073632000000000E+01
3900000000.000000      4.904633000000000E-01      5.073047000000000E+01      4.796906000000000E-01      4.727929000000000E+01
3920000000.000000      5.218811000000000E-01      4.294922000000000E+01      5.079651000000000E-01      3.576172000000000E+01
3940000000.000000      5.508728000000000E-01      3.402539000000000E+01      5.392456000000000E-01      2.918066000000000E+01
3960000000.000000      5.599670000000000E-01      2.388379000000000E+01      5.956726000000000E-01      1.980957000000000E+01
3980000000.000000      5.539551000000000E-01      1.346484000000000E+01      5.969849000000000E-01      7.912842000000000E+00
4000000000.000000      5.265808000000000E-01      2.919556000000000E+00      5.796509000000000E-01      1.119202000000000E+00
4020000000.000000      4.821320000000000E-01     -7.005371000000000E+00      5.957642000000000E-01     -6.887207000000000E+00
4040000000.000000      4.226685000000000E-01     -1.581934000000000E+01      5.833435000000000E-01     -1.904492000000000E+01
4060000000.000000      3.470459000000000E-01     -2.169043000000000E+01      5.260010000000000E-01     -2.904101000000000E+01
4080000000.000000      2.727966000000000E-01     -2.142383000000000E+01      4.649048000000000E-01     -3.853320000000000E+01
4100000000.000000      2.287750000000000E-01     -1.042627000000000E+01      3.629913000000000E-01     -4.735156000000000E+01
4120000000.000000      2.433014000000000E-01      2.267212000000000E+00      2.468872000000000E-01     -4.355859000000000E+01
4140000000.000000      2.917175000000000E-01      5.236328000000000E+00      2.046661000000000E-01     -1.876074000000000E+01
4160000000.000000      3.349915000000000E-01      8.692932000000000E-01      2.678833000000000E-01      8.789063000000000E-02
4180000000.000000      3.621368000000000E-01     -6.024658000000000E+00      3.617249000000000E-01      3.733887000000000E+00
4200000000.000000      3.712921000000000E-01     -1.372070000000000E+01      4.922485000000000E-01      1.002502000000000E+00
4220000000.000000      3.676300000000000E-01     -2.087891000000000E+01      6.452026000000000E-01     -1.145605000000000E+01
4240000000.000000      3.476410000000000E-01     -2.834668000000000E+01      7.226563000000000E-01     -2.822558000000000E+01
4260000000.000000      3.087158000000000E-01     -3.399609000000000E+01      7.434692000000000E-01     -4.224805000000000E+01
4280000000.000000      2.582550000000000E-01     -3.498828000000000E+01      7.481995000000000E-01     -5.603906000000000E+01
4300000000.000000      2.219925000000000E-01     -2.662207000000000E+01      7.112732000000000E-01     -7.113671000000000E+01
4320000000.000000      2.375107000000000E-01     -1.399951000000000E+01      6.283875000000000E-01     -8.552343000000000E+01
4340000000.000000      2.960358000000000E-01     -1.050049000000000E+01      5.111694000000000E-01     -9.820702000000000E+01
4360000000.000000      3.610229000000000E-01     -1.583984000000000E+01      3.766327000000000E-01     -1.068476000000000E+02
4380000000.000000      4.066772000000000E-01     -2.482715000000000E+01      2.455750000000000E-01     -1.073867000000000E+02
4400000000.000000      4.266663000000000E-01     -3.476367000000000E+01      1.530533000000000E-01     -8.334375000000000E+01
4420000000.000000      4.245148000000000E-01     -4.400195000000000E+01      1.918259000000000E-01     -4.492773000000000E+01
4440000000.000000      4.073486000000000E-01     -5.206445000000000E+01      3.151550000000000E-01     -3.625391000000000E+01
4460000000.000000      3.871307000000000E-01     -5.855469000000000E+01      4.562378000000000E-01     -4.367383000000000E+01
4480000000.000000      3.670502000000000E-01     -6.479297000000000E+01      5.639648000000000E-01     -5.588281000000000E+01
4500000000.000000      3.453827000000000E-01     -7.173437000000000E+01      6.454468000000000E-01     -6.721484000000000E+01
4520000000.000000      3.116608000000000E-01     -7.957031000000000E+01      7.165527000000000E-01     -8.032030000000000E+01
4540000000.000000      2.594604000000000E-01     -8.559765000000000E+01      7.420959000000000E-01     -9.480469000000000E+01
4560000000.000000      1.988068000000000E-01     -8.341797000000000E+01      7.265930000000000E-01     -1.080195000000000E+02
4580000000.000000      1.740646000000000E-01     -6.700000000000000E+01      6.894226000000000E-01     -1.217930000000000E+02
4600000000.000000      2.136230000000000E-01     -5.339453000000000E+01      6.003723000000000E-01     -1.349375000000000E+02
4620000000.000000      2.788696000000000E-01     -5.528125000000000E+01      4.936371000000000E-01     -1.452344000000000E+02
4640000000.000000      3.311768000000000E-01     -6.531250000000000E+01      3.746338000000000E-01     -1.532656000000000E+02
4660000000.000000      3.533783000000000E-01     -7.865234000000000E+01      2.427139000000000E-01     -1.509140000000000E+02
4680000000.000000      3.436737000000000E-01     -9.262110000000000E+01      1.805115000000000E-01     -1.220195000000000E+02
4700000000.000000      3.056641000000000E-01     -1.057813000000000E+02      2.533112000000000E-01     -9.631248000000000E+01
4720000000.000000      2.497177000000000E-01     -1.160508000000000E+02      3.716736000000000E-01     -9.572266000000000E+01
4740000000.000000      1.878357000000000E-01     -1.208633000000000E+02      4.786072000000000E-01     -1.021016000000000E+02
4760000000.000000      1.371307000000000E-01     -1.164570000000000E+02      5.841675000000000E-01     -1.110117000000000E+02
4780000000.000000      1.126518000000000E-01     -1.001367000000000E+02      6.689758000000000E-01     -1.233906000000000E+02
4800000000.000000      1.194229000000000E-01     -8.254297000000000E+01      7.178040000000000E-01     -1.361406000000000E+02
4820000000.000000      1.487503000000000E-01     -7.335938000000000E+01      7.350464000000000E-01     -1.494531000000000E+02
4840000000.000000      1.893234000000000E-01     -7.366015000000000E+01      7.164307000000000E-01     -1.623203000000000E+02
4860000000.000000      2.330170000000000E-01     -8.048046000000000E+01      6.804504000000000E-01     -1.747578000000000E+02
4880000000.000000      2.701263000000000E-01     -9.101171000000000E+01      6.124573000000000E-01      1.714219000000000E+02
4900000000.000000      2.948303000000000E-01     -1.046797000000000E+02      4.905396000000000E-01      1.595156000000000E+02
4920000000.000000      2.996979000000000E-01     -1.196719000000000E+02      3.611603000000000E-01      1.535625000000000E+02
4940000000.000000      2.844086000000000E-01     -1.354063000000000E+02      2.477875000000000E-01      1.566250000000000E+02
4960000000.000000      2.527618000000000E-01     -1.504375000000000E+02      1.771698000000000E-01      1.788750000000000E+02
4980000000.000000      2.103043000000000E-01     -1.646172000000000E+02      2.184677000000000E-01     -1.505938000000000E+02
5000000000.000000      1.663589000000000E-01     -1.761328000000000E+02      3.348541000000000E-01     -1.438281000000000E+02
5020000000.000000      1.293716000000000E-01      1.739687000000000E+02      4.660492000000000E-01     -1.500781000000000E+02
5040000000.000000      9.880447000000000E-02      1.636562000000000E+02      5.726318000000000E-01     -1.608828000000000E+02
5060000000.000000      7.035828000000000E-02      1.485156000000000E+02      6.536865000000000E-01     -1.724375000000000E+02
5080000000.000000      4.020691000000000E-02      1.222734000000000E+02      7.184753000000000E-01      1.754297000000000E+02
5100000000.000000      1.602364000000000E-02      3.466015000000000E+01      7.542725000000000E-01      1.616953000000000E+02
5120000000.000000      4.240036000000000E-02     -5.334570000000000E+01      7.517090000000000E-01      1.473594000000000E+02
5140000000.000000      7.406235000000000E-02     -8.919140000000000E+01      6.987000000000000E-01      1.339297000000000E+02
5160000000.000000      9.724808000000000E-02     -1.201914000000000E+02      6.237793000000000E-01      1.216094000000000E+02
5180000000.000000      1.101570000000000E-01     -1.506016000000000E+02      5.261841000000000E-01      1.104688000000000E+02
5200000000.000000      1.128731000000000E-01      1.766797000000000E+02      4.105988000000000E-01      1.010156000000000E+02
5220000000.000000      1.095238000000000E-01      1.408047000000000E+02      2.782135000000000E-01      9.871874000000000E+01
5240000000.000000      1.086845000000000E-01      1.045820000000000E+02      1.826401000000000E-01      1.169453000000000E+02
5260000000.000000      1.132469000000000E-01      7.134375000000000E+01      2.005005000000000E-01      1.504062000000000E+02
5280000000.000000      1.198845000000000E-01      4.489648000000000E+01      3.017883000000000E-01      1.605703000000000E+02
5300000000.000000      1.279526000000000E-01      2.449609000000000E+01      4.144287000000000E-01      1.576797000000000E+02
5320000000.000000      1.339417000000000E-01      8.032227000000000E+00      5.307007000000000E-01      1.499375000000000E+02
5340000000.000000      1.391220000000000E-01     -6.179932000000000E+00      6.415710000000000E-01      1.380234000000000E+02
5360000000.000000      1.429443000000000E-01     -2.199121000000000E+01      7.075500000000000E-01      1.234453000000000E+02
5380000000.000000      1.380157000000000E-01     -3.980469000000000E+01      7.178650000000000E-01      1.102578000000000E+02
5400000000.000000      1.186943000000000E-01     -5.806445000000000E+01      7.153015000000000E-01      9.851563000000000E+01
5420000000.000000      8.266449000000000E-02     -7.489843000000000E+01      7.014465000000000E-01      8.543749000000000E+01
5440000000.000000      2.817631000000000E-02     -7.726171000000000E+01      6.418152000000000E-01      7.119922000000000E+01
5460000000.000000      4.538918000000000E-02      3.877539000000000E+01      5.336914000000000E-01      5.828515000000000E+01
5480000000.000000      1.150818000000000E-01      3.006543000000000E+01      4.061127000000000E-01      4.934375000000000E+01
5500000000.000000      1.770248000000000E-01      1.507178000000000E+01      2.878723000000000E-01      4.759961000000000E+01
5520000000.000000      2.219696000000000E-01      1.222229000000000E-01      1.927719000000000E-01      6.060937000000000E+01
5540000000.000000      2.520447000000000E-01     -1.363281000000000E+01      1.843414000000000E-01      9.205078000000000E+01
5560000000.000000      2.696991000000000E-01     -2.533789000000000E+01      2.683105000000000E-01      1.088906000000000E+02
5580000000.000000      2.822723000000000E-01     -3.541406000000000E+01      3.890991000000000E-01      1.082187000000000E+02
5600000000.000000      2.936859000000000E-01     -4.423242000000000E+01      5.108337000000000E-01      9.919531000000000E+01
5620000000.000000      3.043365000000000E-01     -5.341015000000000E+01      5.982361000000000E-01      8.665234000000000E+01
5640000000.000000      3.073883000000000E-01     -6.312890000000000E+01      6.466980000000000E-01      7.466015000000000E+01
5660000000.000000      2.965851000000000E-01     -7.376953000000000E+01      6.850586000000000E-01      6.328906000000000E+01
5680000000.000000      2.660828000000000E-01     -8.399609000000000E+01      6.972961000000000E-01      5.064453000000000E+01
5700000000.000000      2.183380000000000E-01     -9.113672000000000E+01      6.814270000000000E-01      3.816406000000000E+01
5720000000.000000      1.684799000000000E-01     -8.908983000000000E+01      6.399536000000000E-01      2.531738000000000E+01
5740000000.000000      1.501846000000000E-01     -7.438671000000000E+01      5.600891000000000E-01      1.246777000000000E+01
5760000000.000000      1.808243000000000E-01     -6.347265000000000E+01      4.445190000000000E-01      9.393311000000000E-01
5780000000.000000      2.266312000000000E-01     -6.543359000000000E+01      3.106995000000000E-01     -3.467651000000000E+00
5800000000.000000      2.576904000000000E-01     -7.356250000000000E+01      2.053146000000000E-01      8.350586000000000E+00
5820000000.000000      2.673035000000000E-01     -8.282812000000000E+01      1.925888000000000E-01      3.910742000000000E+01
5840000000.000000      2.562408000000000E-01     -9.115234000000000E+01      2.763367000000000E-01      5.411327000000000E+01
5860000000.000000      2.378693000000000E-01     -9.653515000000000E+01      3.779144000000000E-01      5.369531000000000E+01
5880000000.000000      2.237091000000000E-01     -9.976171000000000E+01      4.829102000000000E-01      4.817383000000000E+01
5900000000.000000      2.156525000000000E-01     -1.023516000000000E+02      5.981750000000000E-01      3.782812000000000E+01
5920000000.000000      2.073517000000000E-01     -1.052383000000000E+02      6.745300000000000E-01      2.380957000000000E+01
5940000000.000000      1.933365000000000E-01     -1.069805000000000E+02      7.019348000000000E-01      1.072656000000000E+01
5960000000.000000      1.759415000000000E-01     -1.048125000000000E+02      7.095337000000000E-01     -2.140991000000000E+00
5980000000.000000      1.653748000000000E-01     -9.659765000000000E+01      6.866150000000000E-01     -1.587012000000000E+01
6000000000.000000      1.837006000000000E-01     -8.767187000000000E+01      6.240234000000000E-01     -2.943164000000000E+01
6020000000.000000      2.180710000000000E-01     -8.627344000000000E+01      5.240784000000000E-01     -4.190625000000000E+01
6040000000.000000      2.529297000000000E-01     -9.174219000000000E+01      3.949585000000000E-01     -4.979882000000000E+01
6060000000.000000      2.752838000000000E-01     -1.010195000000000E+02      2.807617000000000E-01     -4.922461000000000E+01
6080000000.000000      2.849579000000000E-01     -1.113242000000000E+02      2.042694000000000E-01     -3.438477000000000E+01
