! Network Analyzer HP8722D
! Hewlett-Packard
! Data name: Linha & Wilkinson+CNT
! Saver's name: Rodrigo Anjos
! Comments: Teste da utilização de aquisição
continua pelo VNA HP8722D
! Time and date: 29/9/2025 12:06
!              Frequency                     S11                                                   S21                                                   S12                                                   S22
# HZ  S  MA R 50
3000000000.000000      4.230499000000000E-01     -5.608203000000000E+01      2.085190000000000E-01     -1.314219000000000E+02
3020000000.000000      4.464111000000000E-01     -7.047656000000000E+01      3.509216000000000E-01     -1.350000000000000E+02
3040000000.000000      4.546204000000000E-01     -8.325390000000000E+01      4.679718000000000E-01     -1.448359000000000E+02
3060000000.000000      4.465027000000000E-01     -9.528906000000000E+01      5.726318000000000E-01     -1.552187000000000E+02
3080000000.000000      4.309540000000000E-01     -1.065742000000000E+02      6.726379000000000E-01     -1.683359000000000E+02
3100000000.000000      4.116058000000000E-01     -1.176445000000000E+02      7.235718000000000E-01      1.768203000000000E+02
3120000000.000000      3.822937000000000E-01     -1.295938000000000E+02      7.316895000000000E-01      1.634687000000000E+02
3140000000.000000      3.414154000000000E-01     -1.424687000000000E+02      7.226257000000000E-01      1.505781000000000E+02
3160000000.000000      2.815094000000000E-01     -1.562969000000000E+02      6.822815000000000E-01      1.371094000000000E+02
3180000000.000000      2.021179000000000E-01     -1.686328000000000E+02      6.116943000000000E-01      1.244961000000000E+02
3200000000.000000      1.145134000000000E-01     -1.686875000000000E+02      5.181580000000000E-01      1.116914000000000E+02
3220000000.000000      8.312225000000000E-02     -1.247148000000000E+02      3.841705000000000E-01      1.009727000000000E+02
3240000000.000000      1.542511000000000E-01     -1.056211000000000E+02      2.460098000000000E-01      9.980078000000000E+01
3260000000.000000      2.333755000000000E-01     -1.155937000000000E+02      1.471481000000000E-01      1.260156000000000E+02
3280000000.000000      2.905731000000000E-01     -1.311328000000000E+02      2.049103000000000E-01      1.655625000000000E+02
3300000000.000000      3.239746000000000E-01     -1.472344000000000E+02      3.312225000000000E-01      1.698203000000000E+02
3320000000.000000      3.358002000000000E-01     -1.630078000000000E+02      4.639587000000000E-01      1.626406000000000E+02
3340000000.000000      3.317108000000000E-01     -1.782656000000000E+02      5.748901000000000E-01      1.505234000000000E+02
3360000000.000000      3.193054000000000E-01      1.671719000000000E+02      6.466675000000000E-01      1.385000000000000E+02
3380000000.000000      3.020935000000000E-01      1.530078000000000E+02      7.102051000000000E-01      1.270703000000000E+02
3400000000.000000      2.790680000000000E-01      1.384063000000000E+02      7.566528000000000E-01      1.133906000000000E+02
3420000000.000000      2.428818000000000E-01      1.234570000000000E+02      7.488708000000000E-01      9.847656000000000E+01
3440000000.000000      1.885681000000000E-01      1.088477000000000E+02      7.052307000000000E-01      8.548437000000000E+01
3460000000.000000      1.176910000000000E-01      9.862499000000000E+01      6.456604000000000E-01      7.234375000000000E+01
3480000000.000000      4.761887000000000E-02      1.260976000000000E+02      5.485229000000000E-01      5.898828000000000E+01
3500000000.000000      9.570694000000000E-02     -1.732031000000000E+02      4.245453000000000E-01      4.765821000000000E+01
3520000000.000000      1.869659000000000E-01      1.795859000000000E+02      2.776947000000000E-01      4.075781000000000E+01
3540000000.000000      2.655334000000000E-01      1.633125000000000E+02      1.473923000000000E-01      5.878906000000000E+01
3560000000.000000      3.243103000000000E-01      1.463125000000000E+02      1.682892000000000E-01      1.080000000000000E+02
3580000000.000000      3.601074000000000E-01      1.302500000000000E+02      2.957001000000000E-01      1.175781000000000E+02
3600000000.000000      3.756866000000000E-01      1.155703000000000E+02      4.207153000000000E-01      1.106484000000000E+02
3620000000.000000      3.771667000000000E-01      1.029102000000000E+02      5.227356000000000E-01      1.011875000000000E+02
3640000000.000000      3.672485000000000E-01      9.155859000000000E+01      6.229248000000000E-01      9.000780000000000E+01
3660000000.000000      3.507843000000000E-01      8.124609000000000E+01      6.936951000000000E-01      7.576172000000000E+01
3680000000.000000      3.275299000000000E-01      7.205078000000000E+01      7.109985000000000E-01      6.259960000000000E+01
3700000000.000000      2.963257000000000E-01      6.374218000000000E+01      7.218628000000000E-01      5.103320000000000E+01
3720000000.000000      2.520599000000000E-01      5.755664000000000E+01      7.241821000000000E-01      3.676562000000000E+01
3740000000.000000      2.014236000000000E-01      5.848633000000000E+01      6.631775000000000E-01      2.136817000000000E+01
3760000000.000000      1.755905000000000E-01      7.281250000000000E+01      5.657959000000000E-01      7.094238000000000E+00
3780000000.000000      2.103119000000000E-01      8.769140000000000E+01      4.343262000000000E-01     -6.076904000000000E+00
3800000000.000000      2.814484000000000E-01      8.915234000000000E+01      2.806854000000000E-01     -1.308203000000000E+01
3820000000.000000      3.487091000000000E-01      8.267969000000000E+01      1.532822000000000E-01      1.565552000000000E-01
3840000000.000000      3.990936000000000E-01      7.393359000000000E+01      1.441345000000000E-01      4.801952000000000E+01
3860000000.000000      4.338226000000000E-01      6.526953000000000E+01      2.474365000000000E-01      6.530468000000000E+01
3880000000.000000      4.585419000000000E-01      5.769531000000000E+01      3.777924000000000E-01      6.104101000000000E+01
3900000000.000000      4.879913000000000E-01      5.055273000000000E+01      4.785004000000000E-01      4.766406000000000E+01
3920000000.000000      5.188599000000000E-01      4.293164000000000E+01      5.094910000000000E-01      3.582812000000000E+01
3940000000.000000      5.455017000000000E-01      3.363672000000000E+01      5.403748000000000E-01      2.935351000000000E+01
3960000000.000000      5.578613000000000E-01      2.373730000000000E+01      5.956726000000000E-01      1.997949000000000E+01
3980000000.000000      5.529175000000000E-01      1.315576000000000E+01      5.976563000000000E-01      8.118652000000000E+00
4000000000.000000      5.261536000000000E-01      2.719116000000000E+00      5.800171000000000E-01      1.142578000000000E+00
4020000000.000000      4.818420000000000E-01     -7.250977000000000E+00      5.973511000000000E-01     -6.653809000000000E+00
4040000000.000000      4.236298000000000E-01     -1.612305000000000E+01      5.846558000000000E-01     -1.868848000000000E+01
4060000000.000000      3.480225000000000E-01     -2.228808000000000E+01      5.273438000000000E-01     -2.904297000000000E+01
4080000000.000000      2.733917000000000E-01     -2.214648000000000E+01      4.672546000000000E-01     -3.833398000000000E+01
4100000000.000000      2.280731000000000E-01     -1.173340000000000E+01      3.650818000000000E-01     -4.736524000000000E+01
4120000000.000000      2.417984000000000E-01      1.251038000000000E+00      2.487259000000000E-01     -4.388281000000000E+01
4140000000.000000      2.896881000000000E-01      4.652588000000000E+00      2.034607000000000E-01     -1.958398000000000E+01
4160000000.000000      3.335876000000000E-01      4.490662000000000E-01      2.650452000000000E-01      4.943848000000000E-02
4180000000.000000      3.614502000000000E-01     -6.337891000000000E+00      3.580322000000000E-01      3.850708000000000E+00
4200000000.000000      3.711700000000000E-01     -1.408057000000000E+01      4.889984000000000E-01      1.229065000000000E+00
4220000000.000000      3.664093000000000E-01     -2.139746000000000E+01      6.419373000000000E-01     -1.110059000000000E+01
4240000000.000000      3.472900000000000E-01     -2.889062000000000E+01      7.220764000000000E-01     -2.782324000000000E+01
4260000000.000000      3.090057000000000E-01     -3.464844000000000E+01      7.424316000000000E-01     -4.183203000000000E+01
4280000000.000000      2.593384000000000E-01     -3.591601000000000E+01      7.500610000000000E-01     -5.576366000000000E+01
4300000000.000000      2.228622000000000E-01     -2.763086000000000E+01      7.135925000000000E-01     -7.087109000000000E+01
4320000000.000000      2.366562000000000E-01     -1.499512000000000E+01      6.311340000000000E-01     -8.519531000000000E+01
4340000000.000000      2.949066000000000E-01     -1.104297000000000E+01      5.121765000000000E-01     -9.790234000000000E+01
4360000000.000000      3.598328000000000E-01     -1.613574000000000E+01      3.791504000000000E-01     -1.068281000000000E+02
4380000000.000000      4.054260000000000E-01     -2.504687000000000E+01      2.486191000000000E-01     -1.077734000000000E+02
4400000000.000000      4.270325000000000E-01     -3.497461000000000E+01      1.532440000000000E-01     -8.459764000000000E+01
4420000000.000000      4.253082000000000E-01     -4.429101000000000E+01      1.890030000000000E-01     -4.536718000000000E+01
4440000000.000000      4.095459000000000E-01     -5.235352000000000E+01      3.115387000000000E-01     -3.614843000000000E+01
4460000000.000000      3.885803000000000E-01     -5.894140000000000E+01      4.534149000000000E-01     -4.331250000000000E+01
4480000000.000000      3.694305000000000E-01     -6.512500000000000E+01      5.625000000000000E-01     -5.545898000000000E+01
4500000000.000000      3.479919000000000E-01     -7.179688000000000E+01      6.432800000000000E-01     -6.688281000000000E+01
4520000000.000000      3.139496000000000E-01     -7.930078000000000E+01      7.149963000000000E-01     -7.984765000000000E+01
4540000000.000000      2.633972000000000E-01     -8.529688000000000E+01      7.404175000000000E-01     -9.444139000000000E+01
4560000000.000000      2.033005000000000E-01     -8.342968000000000E+01      7.281799000000000E-01     -1.077344000000000E+02
4580000000.000000      1.776657000000000E-01     -6.778125000000000E+01      6.902771000000000E-01     -1.214687000000000E+02
4600000000.000000      2.150955000000000E-01     -5.434960000000000E+01      6.047974000000000E-01     -1.347188000000000E+02
4620000000.000000      2.800903000000000E-01     -5.577538000000000E+01      4.967194000000000E-01     -1.450625000000000E+02
4640000000.000000      3.330841000000000E-01     -6.556641000000000E+01      3.773499000000000E-01     -1.532500000000000E+02
4660000000.000000      3.574219000000000E-01     -7.858203000000000E+01      2.453537000000000E-01     -1.513672000000000E+02
4680000000.000000      3.486023000000000E-01     -9.242968000000000E+01      1.792908000000000E-01     -1.230781000000000E+02
4700000000.000000      3.108978000000000E-01     -1.054219000000000E+02      2.491913000000000E-01     -9.635937000000000E+01
4720000000.000000      2.545776000000000E-01     -1.159141000000000E+02      3.678589000000000E-01     -9.541796000000000E+01
4740000000.000000      1.924133000000000E-01     -1.210117000000000E+02      4.745941000000000E-01     -1.018398000000000E+02
4760000000.000000      1.405869000000000E-01     -1.167148000000000E+02      5.803528000000000E-01     -1.105312000000000E+02
4780000000.000000      1.152954000000000E-01     -1.006562000000000E+02      6.676025000000000E-01     -1.229258000000000E+02
4800000000.000000      1.217995000000000E-01     -8.349609000000000E+01      7.173157000000000E-01     -1.357812000000000E+02
4820000000.000000      1.512222000000000E-01     -7.437500000000000E+01      7.351379000000000E-01     -1.490000000000000E+02
4840000000.000000      1.915512000000000E-01     -7.418359000000000E+01      7.169189000000000E-01     -1.618359000000000E+02
4860000000.000000      2.350082000000000E-01     -8.067186000000000E+01      6.831055000000000E-01     -1.742344000000000E+02
4880000000.000000      2.715607000000000E-01     -9.096094000000000E+01      6.147461000000000E-01      1.720781000000000E+02
4900000000.000000      2.964478000000000E-01     -1.043281000000000E+02      4.929962000000000E-01      1.600078000000000E+02
4920000000.000000      3.014832000000000E-01     -1.190977000000000E+02      3.630676000000000E-01      1.535312000000000E+02
4940000000.000000      2.865753000000000E-01     -1.346875000000000E+02      2.507019000000000E-01      1.562734000000000E+02
4960000000.000000      2.554169000000000E-01     -1.497734000000000E+02      1.771851000000000E-01      1.778281000000000E+02
4980000000.000000      2.120972000000000E-01     -1.635703000000000E+02      2.155380000000000E-01     -1.507891000000000E+02
5000000000.000000      1.680145000000000E-01     -1.749922000000000E+02      3.315277000000000E-01     -1.436875000000000E+02
5020000000.000000      1.297455000000000E-01      1.755078000000000E+02      4.618683000000000E-01     -1.496328000000000E+02
5040000000.000000      9.880829000000000E-02      1.656406000000000E+02      5.711365000000000E-01     -1.603594000000000E+02
5060000000.000000      7.022858000000000E-02      1.512031000000000E+02      6.498108000000000E-01     -1.719687000000000E+02
5080000000.000000      3.945351000000000E-02      1.260898000000000E+02      7.178650000000000E-01      1.758359000000000E+02
5100000000.000000      1.390314000000000E-02      3.663671000000000E+01      7.574463000000000E-01      1.621172000000000E+02
5120000000.000000      4.211617000000000E-02     -5.499218000000000E+01      7.517700000000000E-01      1.480078000000000E+02
5140000000.000000      7.411957000000000E-02     -8.882813000000000E+01      7.026062000000000E-01      1.343906000000000E+02
5160000000.000000      9.771729000000000E-02     -1.188242000000000E+02      6.263123000000000E-01      1.219844000000000E+02
5180000000.000000      1.100578000000000E-01     -1.487344000000000E+02      5.321350000000000E-01      1.108320000000000E+02
5200000000.000000      1.117744000000000E-01      1.786875000000000E+02      4.146118000000000E-01      1.013086000000000E+02
5220000000.000000      1.078339000000000E-01      1.427500000000000E+02      2.819366000000000E-01      9.861717000000000E+01
5240000000.000000      1.060982000000000E-01      1.057265000000000E+02      1.838913000000000E-01      1.158828000000000E+02
5260000000.000000      1.109581000000000E-01      7.187500000000000E+01      1.981277000000000E-01      1.497500000000000E+02
5280000000.000000      1.185036000000000E-01      4.516406000000000E+01      2.978210000000000E-01      1.606406000000000E+02
5300000000.000000      1.252213000000000E-01      2.425488000000000E+01      4.114227000000000E-01      1.581250000000000E+02
5320000000.000000      1.315994000000000E-01      7.661377000000000E+00      5.290527000000000E-01      1.504375000000000E+02
5340000000.000000      1.384888000000000E-01     -6.731934000000000E+00      6.389160000000000E-01      1.383281000000000E+02
5360000000.000000      1.429825000000000E-01     -2.209082000000000E+01      7.056580000000000E-01      1.240977000000000E+02
5380000000.000000      1.392517000000000E-01     -3.924805000000000E+01      7.169495000000000E-01      1.107305000000000E+02
5400000000.000000      1.210556000000000E-01     -5.710546000000000E+01      7.177734000000000E-01      9.903515000000000E+01
5420000000.000000      8.600998000000000E-02     -7.349218000000000E+01      7.037659000000000E-01      8.595703000000000E+01
5440000000.000000      3.200722000000000E-02     -7.715234000000000E+01      6.461182000000000E-01      7.172265000000000E+01
5460000000.000000      4.269218000000000E-02      3.583008000000000E+01      5.384827000000000E-01      5.856835000000000E+01
5480000000.000000      1.118279000000000E-01      2.966113000000000E+01      4.114838000000000E-01      4.947656000000000E+01
5500000000.000000      1.745911000000000E-01      1.469141000000000E+01      2.906647000000000E-01      4.758203000000000E+01
5520000000.000000      2.207947000000000E-01     -3.048706000000000E-01      1.945267000000000E-01      5.961719000000000E+01
5540000000.000000      2.519989000000000E-01     -1.381836000000000E+01      1.819382000000000E-01      9.127344000000000E+01
5560000000.000000      2.711182000000000E-01     -2.563867000000000E+01      2.643585000000000E-01      1.088086000000000E+02
5580000000.000000      2.836151000000000E-01     -3.540820000000000E+01      3.858032000000000E-01      1.085703000000000E+02
5600000000.000000      2.950745000000000E-01     -4.411133000000000E+01      5.076294000000000E-01      9.951172000000000E+01
5620000000.000000      3.058624000000000E-01     -5.327148000000000E+01      5.963745000000000E-01      8.704687000000000E+01
5640000000.000000      3.099823000000000E-01     -6.301758000000000E+01      6.455688000000000E-01      7.517187000000000E+01
5660000000.000000      2.998352000000000E-01     -7.346484000000000E+01      6.848755000000000E-01      6.385351000000000E+01
5680000000.000000      2.713470000000000E-01     -8.396484000000000E+01      6.977539000000000E-01      5.114648000000000E+01
5700000000.000000      2.248383000000000E-01     -9.121874000000000E+01      6.819153000000000E-01      3.877734000000000E+01
5720000000.000000      1.749573000000000E-01     -8.982031000000000E+01      6.427307000000000E-01      2.608007000000000E+01
5740000000.000000      1.533890000000000E-01     -7.567187000000000E+01      5.623474000000000E-01      1.287305000000000E+01
5760000000.000000      1.818848000000000E-01     -6.427343000000000E+01      4.482422000000000E-01      1.406250000000000E+00
5780000000.000000      2.273407000000000E-01     -6.565234000000000E+01      3.142853000000000E-01     -3.613159000000000E+00
5800000000.000000      2.597351000000000E-01     -7.339844000000000E+01      2.073517000000000E-01      7.613525000000000E+00
5820000000.000000      2.688293000000000E-01     -8.265234000000000E+01      1.900635000000000E-01      3.806445000000000E+01
5840000000.000000      2.596741000000000E-01     -9.105078000000000E+01      2.726898000000000E-01      5.411327000000000E+01
5860000000.000000      2.418823000000000E-01     -9.673828000000000E+01      3.724365000000000E-01      5.414063000000000E+01
5880000000.000000      2.276382000000000E-01     -9.960546000000000E+01      4.789124000000000E-01      4.863867000000000E+01
5900000000.000000      2.213058000000000E-01     -1.020703000000000E+02      5.951843000000000E-01      3.851367000000000E+01
5920000000.000000      2.131348000000000E-01     -1.048633000000000E+02      6.709595000000000E-01      2.462011000000000E+01
5940000000.000000      1.985245000000000E-01     -1.068437000000000E+02      7.016602000000000E-01      1.141309000000000E+01
5960000000.000000      1.806488000000000E-01     -1.053828000000000E+02      7.119141000000000E-01     -1.370544000000000E+00
5980000000.000000      1.677322000000000E-01     -9.767967000000000E+01      6.895142000000000E-01     -1.539209000000000E+01
6000000000.000000      1.839142000000000E-01     -8.860937000000000E+01      6.264954000000000E-01     -2.872461000000000E+01
6020000000.000000      2.184982000000000E-01     -8.672266000000000E+01      5.275879000000000E-01     -4.165039000000000E+01
6040000000.000000      2.546997000000000E-01     -9.192186000000000E+01      3.982544000000000E-01     -4.956640000000000E+01
6060000000.000000      2.785339000000000E-01     -1.009570000000000E+02      2.843170000000000E-01     -4.929882000000000E+01
6080000000.000000      2.884369000000000E-01     -1.110195000000000E+02      2.052917000000000E-01     -3.528125000000000E+01
