! Network Analyzer HP8722D
! Hewlett-Packard
! Data name: Linha & Wilkinson+CNT
! Saver's name: Rodrigo Anjos
! Comments: Teste da utilização de aquisição
continua pelo VNA HP8722D
! Time and date: 29/9/2025 12:32
!              Frequency                     S11                                                   S21                                                   S12                                                   S22
# HZ  S  MA R 50
3000000000.000000      4.229126000000000E-01     -5.608984000000000E+01      2.072372000000000E-01     -1.313281000000000E+02
3020000000.000000      4.484406000000000E-01     -7.014453000000000E+01      3.503571000000000E-01     -1.348359000000000E+02
3040000000.000000      4.543915000000000E-01     -8.315233000000000E+01      4.680939000000000E-01     -1.447500000000000E+02
3060000000.000000      4.469757000000000E-01     -9.514452000000000E+01      5.709229000000000E-01     -1.550234000000000E+02
3080000000.000000      4.315338000000000E-01     -1.064180000000000E+02      6.725159000000000E-01     -1.681015000000000E+02
3100000000.000000      4.114532000000000E-01     -1.174805000000000E+02      7.232361000000000E-01      1.770156000000000E+02
3120000000.000000      3.829498000000000E-01     -1.293750000000000E+02      7.314758000000000E-01      1.635625000000000E+02
3140000000.000000      3.416290000000000E-01     -1.422891000000000E+02      7.232056000000000E-01      1.507813000000000E+02
3160000000.000000      2.819824000000000E-01     -1.560390000000000E+02      6.838379000000000E-01      1.371875000000000E+02
3180000000.000000      2.026062000000000E-01     -1.685625000000000E+02      6.133423000000000E-01      1.246797000000000E+02
3200000000.000000      1.149445000000000E-01     -1.687578000000000E+02      5.187683000000000E-01      1.118242000000000E+02
3220000000.000000      8.313370000000000E-02     -1.248906000000000E+02      3.861389000000000E-01      1.010742000000000E+02
3240000000.000000      1.533051000000000E-01     -1.054570000000000E+02      2.466507000000000E-01      9.974609000000000E+01
3260000000.000000      2.329559000000000E-01     -1.153398000000000E+02      1.470566000000000E-01      1.256211000000000E+02
3280000000.000000      2.907257000000000E-01     -1.308984000000000E+02      2.037506000000000E-01      1.654922000000000E+02
3300000000.000000      3.236237000000000E-01     -1.470391000000000E+02      3.302917000000000E-01      1.697656000000000E+02
3320000000.000000      3.354645000000000E-01     -1.627500000000000E+02      4.635468000000000E-01      1.627812000000000E+02
3340000000.000000      3.317108000000000E-01     -1.780547000000000E+02      5.745544000000000E-01      1.507813000000000E+02
3360000000.000000      3.191681000000000E-01      1.673594000000000E+02      6.477966000000000E-01      1.385000000000000E+02
3380000000.000000      3.024292000000000E-01      1.531953000000000E+02      7.100830000000000E-01      1.272344000000000E+02
3400000000.000000      2.790680000000000E-01      1.384766000000000E+02      7.582092000000000E-01      1.134805000000000E+02
3420000000.000000      2.428818000000000E-01      1.236523000000000E+02      7.500000000000000E-01      9.850780000000000E+01
3440000000.000000      1.892624000000000E-01      1.089570000000000E+02      7.055054000000000E-01      8.563280000000000E+01
3460000000.000000      1.185188000000000E-01      9.861717000000000E+01      6.477051000000000E-01      7.263281000000000E+01
3480000000.000000      4.764748000000000E-02      1.248789000000000E+02      5.494690000000000E-01      5.903515000000000E+01
3500000000.000000      9.458542000000000E-02     -1.730781000000000E+02      4.254150000000000E-01      4.778710000000000E+01
3520000000.000000      1.861115000000000E-01      1.798125000000000E+02      2.787323000000000E-01      4.054883000000000E+01
3540000000.000000      2.652283000000000E-01      1.635391000000000E+02      1.477890000000000E-01      5.854882000000000E+01
3560000000.000000      3.237000000000000E-01      1.465469000000000E+02      1.673431000000000E-01      1.078164000000000E+02
3580000000.000000      3.601227000000000E-01      1.303672000000000E+02      2.946472000000000E-01      1.176641000000000E+02
3600000000.000000      3.757629000000000E-01      1.157070000000000E+02      4.201813000000000E-01      1.107148000000000E+02
3620000000.000000      3.777924000000000E-01      1.029883000000000E+02      5.216675000000000E-01      1.013633000000000E+02
3640000000.000000      3.670044000000000E-01      9.173437000000000E+01      6.231689000000000E-01      9.021484000000000E+01
3660000000.000000      3.507233000000000E-01      8.141405000000000E+01      6.930847000000000E-01      7.592187000000000E+01
3680000000.000000      3.278198000000000E-01      7.215625000000000E+01      7.099609000000000E-01      6.276757000000000E+01
3700000000.000000      2.967377000000000E-01      6.377539000000000E+01      7.219849000000000E-01      5.110742000000000E+01
3720000000.000000      2.523651000000000E-01      5.762890000000000E+01      7.244568000000000E-01      3.689258000000000E+01
3740000000.000000      2.017059000000000E-01      5.846484000000000E+01      6.645813000000000E-01      2.160547000000000E+01
3760000000.000000      1.754761000000000E-01      7.267187000000000E+01      5.665283000000000E-01      7.097168000000000E+00
3780000000.000000      2.097244000000000E-01      8.782421000000000E+01      4.356689000000000E-01     -6.050781000000000E+00
3800000000.000000      2.807770000000000E-01      8.931250000000000E+01      2.826843000000000E-01     -1.326904000000000E+01
3820000000.000000      3.484497000000000E-01      8.280468000000000E+01      1.535492000000000E-01     -2.581787000000000E-01
3840000000.000000      3.988190000000000E-01      7.403906000000000E+01      1.435394000000000E-01      4.784765000000000E+01
3860000000.000000      4.331207000000000E-01      6.532421000000000E+01      2.462082000000000E-01      6.549999000000000E+01
3880000000.000000      4.588470000000000E-01      5.776953000000000E+01      3.763275000000000E-01      6.130077000000000E+01
3900000000.000000      4.874420000000000E-01      5.071484000000000E+01      4.784546000000000E-01      4.780663000000000E+01
3920000000.000000      5.177612000000000E-01      4.296679000000000E+01      5.090637000000000E-01      3.611914000000000E+01
3940000000.000000      5.475159000000000E-01      3.392187000000000E+01      5.397644000000000E-01      2.940820000000000E+01
3960000000.000000      5.589294000000000E-01      2.382519000000000E+01      5.955811000000000E-01      2.004590000000000E+01
3980000000.000000      5.534058000000000E-01      1.328613000000000E+01      5.975037000000000E-01      8.221680000000000E+00
4000000000.000000      5.271301000000000E-01      2.876953000000000E+00      5.796509000000000E-01      1.338928000000000E+00
4020000000.000000      4.833832000000000E-01     -7.106934000000000E+00      5.974426000000000E-01     -6.472412000000000E+00
4040000000.000000      4.246826000000000E-01     -1.606641000000000E+01      5.859070000000000E-01     -1.875586000000000E+01
4060000000.000000      3.492432000000000E-01     -2.221582000000000E+01      5.276794000000000E-01     -2.877344000000000E+01
4080000000.000000      2.740479000000000E-01     -2.247461000000000E+01      4.678802000000000E-01     -3.800976000000000E+01
4100000000.000000      2.279282000000000E-01     -1.186670000000000E+01      3.672485000000000E-01     -4.724805000000000E+01
4120000000.000000      2.411118000000000E-01      1.275757000000000E+00      2.496033000000000E-01     -4.402148000000000E+01
4140000000.000000      2.893219000000000E-01      4.682861000000000E+00      2.028503000000000E-01     -1.995117000000000E+01
4160000000.000000      3.334961000000000E-01      5.300903000000000E-01      2.635651000000000E-01     -4.943848000000000E-02
4180000000.000000      3.613739000000000E-01     -6.229248000000000E+00      3.577728000000000E-01      3.916626000000000E+00
4200000000.000000      3.712311000000000E-01     -1.403516000000000E+01      4.875031000000000E-01      1.244202000000000E+00
4220000000.000000      3.665619000000000E-01     -2.126074000000000E+01      6.423340000000000E-01     -1.096582000000000E+01
4240000000.000000      3.478699000000000E-01     -2.880273000000000E+01      7.221680000000000E-01     -2.769336000000000E+01
4260000000.000000      3.105469000000000E-01     -3.463672000000000E+01      7.425842000000000E-01     -4.171679000000000E+01
4280000000.000000      2.597809000000000E-01     -3.582617000000000E+01      7.505493000000000E-01     -5.542382000000000E+01
4300000000.000000      2.229385000000000E-01     -2.773730000000000E+01      7.138062000000000E-01     -7.063281000000000E+01
4320000000.000000      2.362595000000000E-01     -1.508594000000000E+01      6.307373000000000E-01     -8.502733000000000E+01
4340000000.000000      2.937775000000000E-01     -1.093994000000000E+01      5.156860000000000E-01     -9.782812000000000E+01
4360000000.000000      3.591003000000000E-01     -1.589209000000000E+01      3.815613000000000E-01     -1.067930000000000E+02
4380000000.000000      4.051971000000000E-01     -2.491601000000000E+01      2.498779000000000E-01     -1.079648000000000E+02
4400000000.000000      4.260864000000000E-01     -3.479297000000000E+01      1.535797000000000E-01     -8.499218000000000E+01
4420000000.000000      4.253845000000000E-01     -4.418750000000000E+01      1.873016000000000E-01     -4.553711000000000E+01
4440000000.000000      4.095459000000000E-01     -5.225586000000000E+01      3.101501000000000E-01     -3.598437000000000E+01
4460000000.000000      3.881378000000000E-01     -5.881249000000000E+01      4.526215000000000E-01     -4.303906000000000E+01
4480000000.000000      3.704376000000000E-01     -6.511328000000000E+01      5.610352000000000E-01     -5.531054000000000E+01
4500000000.000000      3.480072000000000E-01     -7.171093000000000E+01      6.418762000000000E-01     -6.671484000000000E+01
4520000000.000000      3.145752000000000E-01     -7.928124000000000E+01      7.157593000000000E-01     -7.958593000000000E+01
4540000000.000000      2.637787000000000E-01     -8.526562000000000E+01      7.420349000000000E-01     -9.426952000000000E+01
4560000000.000000      2.035294000000000E-01     -8.354296000000000E+01      7.291565000000000E-01     -1.075898000000000E+02
4580000000.000000      1.773682000000000E-01     -6.806641000000000E+01      6.912842000000000E-01     -1.214141000000000E+02
4600000000.000000      2.146072000000000E-01     -5.433203000000000E+01      6.056519000000000E-01     -1.345000000000000E+02
4620000000.000000      2.788391000000000E-01     -5.567968000000000E+01      4.978943000000000E-01     -1.448828000000000E+02
4640000000.000000      3.332062000000000E-01     -6.535937000000000E+01      3.789215000000000E-01     -1.532344000000000E+02
4660000000.000000      3.568878000000000E-01     -7.848437000000000E+01      2.462769000000000E-01     -1.516172000000000E+02
4680000000.000000      3.490295000000000E-01     -9.229687000000000E+01      1.792145000000000E-01     -1.233984000000000E+02
4700000000.000000      3.117218000000000E-01     -1.052734000000000E+02      2.475357000000000E-01     -9.641405000000000E+01
4720000000.000000      2.556610000000000E-01     -1.157539000000000E+02      3.667145000000000E-01     -9.523829000000000E+01
4740000000.000000      1.931000000000000E-01     -1.210547000000000E+02      4.744415000000000E-01     -1.014961000000000E+02
4760000000.000000      1.409531000000000E-01     -1.169883000000000E+02      5.786438000000000E-01     -1.103711000000000E+02
4780000000.000000      1.157150000000000E-01     -1.011719000000000E+02      6.672974000000000E-01     -1.226015000000000E+02
4800000000.000000      1.218185000000000E-01     -8.394922000000000E+01      7.167969000000000E-01     -1.354297000000000E+02
4820000000.000000      1.504593000000000E-01     -7.456249000000000E+01      7.349854000000000E-01     -1.487969000000000E+02
4840000000.000000      1.907883000000000E-01     -7.434375000000000E+01      7.159424000000000E-01     -1.615234000000000E+02
4860000000.000000      2.343140000000000E-01     -8.068359000000000E+01      6.836548000000000E-01     -1.739609000000000E+02
4880000000.000000      2.712555000000000E-01     -9.082811000000000E+01      6.177673000000000E-01      1.722422000000000E+02
4900000000.000000      2.963562000000000E-01     -1.041562000000000E+02      4.946289000000000E-01      1.600000000000000E+02
4920000000.000000      3.025818000000000E-01     -1.190859000000000E+02      3.649445000000000E-01      1.535938000000000E+02
4940000000.000000      2.872772000000000E-01     -1.345625000000000E+02      2.518463000000000E-01      1.562109000000000E+02
4960000000.000000      2.568207000000000E-01     -1.495781000000000E+02      1.774292000000000E-01      1.774297000000000E+02
4980000000.000000      2.134628000000000E-01     -1.634531000000000E+02      2.144165000000000E-01     -1.509063000000000E+02
5000000000.000000      1.690826000000000E-01     -1.749297000000000E+02      3.307953000000000E-01     -1.434219000000000E+02
5020000000.000000      1.306686000000000E-01      1.754766000000000E+02      4.613953000000000E-01     -1.494297000000000E+02
5040000000.000000      9.978485000000000E-02      1.659453000000000E+02      5.692749000000000E-01     -1.602187000000000E+02
5060000000.000000      7.102203000000000E-02      1.516094000000000E+02      6.508484000000000E-01     -1.717109000000000E+02
5080000000.000000      3.971481000000000E-02      1.271445000000000E+02      7.178040000000000E-01      1.760859000000000E+02
5100000000.000000      1.409864000000000E-02      3.924023000000000E+01      7.575073000000000E-01      1.622813000000000E+02
5120000000.000000      4.162216000000000E-02     -5.419726000000000E+01      7.541199000000000E-01      1.480391000000000E+02
5140000000.000000      7.366943000000000E-02     -8.883204000000000E+01      7.023010000000000E-01      1.344219000000000E+02
5160000000.000000      9.773254000000000E-02     -1.184414000000000E+02      6.290588000000000E-01      1.223555000000000E+02
5180000000.000000      1.102600000000000E-01     -1.483203000000000E+02      5.334473000000000E-01      1.110469000000000E+02
5200000000.000000      1.119843000000000E-01      1.792031000000000E+02      4.178467000000000E-01      1.013555000000000E+02
5220000000.000000      1.081009000000000E-01      1.431719000000000E+02      2.833252000000000E-01      9.851171000000000E+01
5240000000.000000      1.065445000000000E-01      1.064492000000000E+02      1.844788000000000E-01      1.154531000000000E+02
5260000000.000000      1.109200000000000E-01      7.229297000000000E+01      1.970062000000000E-01      1.496328000000000E+02
5280000000.000000      1.184349000000000E-01      4.565625000000000E+01      2.965088000000000E-01      1.607031000000000E+02
5300000000.000000      1.251526000000000E-01      2.442187000000000E+01      4.104004000000000E-01      1.581953000000000E+02
5320000000.000000      1.318893000000000E-01      7.973145000000000E+00      5.276794000000000E-01      1.505547000000000E+02
5340000000.000000      1.384430000000000E-01     -6.396973000000000E+00      6.386719000000000E-01      1.386328000000000E+02
5360000000.000000      1.432266000000000E-01     -2.190625000000000E+01      7.055664000000000E-01      1.240781000000000E+02
5380000000.000000      1.392441000000000E-01     -3.910156000000000E+01      7.170105000000000E-01      1.109453000000000E+02
5400000000.000000      1.211624000000000E-01     -5.705468000000000E+01      7.185059000000000E-01      9.908983000000000E+01
5420000000.000000      8.612061000000000E-02     -7.348046000000000E+01      7.055054000000000E-01      8.614061000000000E+01
5440000000.000000      3.250885000000000E-02     -7.869531000000000E+01      6.473389000000000E-01      7.175781000000000E+01
5460000000.000000      4.151726000000000E-02      3.644336000000000E+01      5.395508000000000E-01      5.876562000000000E+01
5480000000.000000      1.110535000000000E-01      2.995898000000000E+01      4.139404000000000E-01      4.952343000000000E+01
5500000000.000000      1.738510000000000E-01      1.508789000000000E+01      2.925110000000000E-01      4.738477000000000E+01
5520000000.000000      2.202530000000000E-01     -1.235962000000000E-02      1.950607000000000E-01      5.917773000000000E+01
5540000000.000000      2.516327000000000E-01     -1.365332000000000E+01      1.812210000000000E-01      9.094141000000000E+01
5560000000.000000      2.713165000000000E-01     -2.534472000000000E+01      2.630920000000000E-01      1.089648000000000E+02
5580000000.000000      2.836914000000000E-01     -3.524414000000000E+01      3.847046000000000E-01      1.085703000000000E+02
5600000000.000000      2.950287000000000E-01     -4.403516000000000E+01      5.067139000000000E-01      9.969921000000000E+01
5620000000.000000      3.059235000000000E-01     -5.312304000000000E+01      5.949097000000000E-01      8.728125000000000E+01
5640000000.000000      3.103180000000000E-01     -6.281054000000000E+01      6.464233000000000E-01      7.537890000000000E+01
5660000000.000000      3.006744000000000E-01     -7.333984000000000E+01      6.846008000000000E-01      6.401953000000000E+01
5680000000.000000      2.723083000000000E-01     -8.380859000000000E+01      6.990051000000000E-01      5.126953000000000E+01
5700000000.000000      2.255249000000000E-01     -9.125391000000000E+01      6.819763000000000E-01      3.894336000000000E+01
5720000000.000000      1.748352000000000E-01     -9.003515000000000E+01      6.422119000000000E-01      2.627636000000000E+01
5740000000.000000      1.527023000000000E-01     -7.605859000000000E+01      5.659485000000000E-01      1.302686000000000E+01
5760000000.000000      1.808014000000000E-01     -6.422265000000000E+01      4.512482000000000E-01      1.492737000000000E+00
5780000000.000000      2.267609000000000E-01     -6.553905000000000E+01      3.159180000000000E-01     -3.762817000000000E+00
5800000000.000000      2.589722000000000E-01     -7.331249000000000E+01      2.081223000000000E-01      7.093018000000000E+00
5820000000.000000      2.686310000000000E-01     -8.262890000000000E+01      1.896744000000000E-01      3.774023000000000E+01
5840000000.000000      2.594910000000000E-01     -9.108593000000000E+01      2.710419000000000E-01      5.421679000000000E+01
5860000000.000000      2.413864000000000E-01     -9.650780000000000E+01      3.711548000000000E-01      5.424218000000000E+01
5880000000.000000      2.281418000000000E-01     -9.969921000000000E+01      4.773254000000000E-01      4.893945000000000E+01
5900000000.000000      2.205582000000000E-01     -1.020508000000000E+02      5.933838000000000E-01      3.885937000000000E+01
5920000000.000000      2.127991000000000E-01     -1.049101000000000E+02      6.713257000000000E-01      2.472949000000000E+01
5940000000.000000      1.984482000000000E-01     -1.070703000000000E+02      7.009888000000000E-01      1.148340000000000E+01
5960000000.000000      1.805801000000000E-01     -1.054219000000000E+02      7.139893000000000E-01     -1.172791000000000E+00
5980000000.000000      1.678162000000000E-01     -9.790625000000000E+01      6.923523000000000E-01     -1.512451000000000E+01
6000000000.000000      1.828995000000000E-01     -8.861719000000000E+01      6.279602000000000E-01     -2.875195000000000E+01
6020000000.000000      2.172318000000000E-01     -8.673828000000000E+01      5.308228000000000E-01     -4.145508000000000E+01
6040000000.000000      2.533569000000000E-01     -9.191797000000000E+01      3.984985000000000E-01     -4.961719000000000E+01
6060000000.000000      2.782440000000000E-01     -1.008008000000000E+02      2.857208000000000E-01     -4.934375000000000E+01
6080000000.000000      2.884064000000000E-01     -1.108125000000000E+02      2.056274000000000E-01     -3.562695000000000E+01
