! Network Analyzer HP8722D
! Hewlett-Packard
! Data name: Linha & Wilkinson+CNT
! Saver's name: Rodrigo Anjos
! Comments: Teste da utilização de aquisição
continua pelo VNA HP8722D
! Time and date: 29/9/2025 14:16
!              Frequency                     S11                                                   S21                                                   S12                                                   S22
# HZ  S  MA R 50
3000000000.000000      4.244232000000000E-01     -5.568554000000000E+01      2.076797000000000E-01     -1.314766000000000E+02
3020000000.000000      4.475861000000000E-01     -6.994141000000000E+01      3.505554000000000E-01     -1.349609000000000E+02
3040000000.000000      4.522095000000000E-01     -8.309374000000000E+01      4.685669000000000E-01     -1.450703000000000E+02
3060000000.000000      4.445953000000000E-01     -9.501953000000000E+01      5.739441000000000E-01     -1.552969000000000E+02
3080000000.000000      4.290771000000000E-01     -1.062422000000000E+02      6.731262000000000E-01     -1.684687000000000E+02
3100000000.000000      4.086304000000000E-01     -1.175156000000000E+02      7.241211000000000E-01      1.768281000000000E+02
3120000000.000000      3.796234000000000E-01     -1.293906000000000E+02      7.321472000000000E-01      1.632266000000000E+02
3140000000.000000      3.386078000000000E-01     -1.424453000000000E+02      7.239990000000000E-01      1.504609000000000E+02
3160000000.000000      2.779694000000000E-01     -1.564609000000000E+02      6.837158000000000E-01      1.369766000000000E+02
3180000000.000000      1.990967000000000E-01     -1.691328000000000E+02      6.145020000000000E-01      1.243867000000000E+02
3200000000.000000      1.112976000000000E-01     -1.698359000000000E+02      5.185242000000000E-01      1.116797000000000E+02
3220000000.000000      7.961655000000000E-02     -1.239687000000000E+02      3.848419000000000E-01      1.006914000000000E+02
3240000000.000000      1.510468000000000E-01     -1.049219000000000E+02      2.462616000000000E-01      9.955858000000000E+01
3260000000.000000      2.301865000000000E-01     -1.151836000000000E+02      1.472015000000000E-01      1.255781000000000E+02
3280000000.000000      2.879181000000000E-01     -1.310156000000000E+02      2.033234000000000E-01      1.654219000000000E+02
3300000000.000000      3.204193000000000E-01     -1.472969000000000E+02      3.302460000000000E-01      1.695313000000000E+02
3320000000.000000      3.321991000000000E-01     -1.631641000000000E+02      4.637451000000000E-01      1.625469000000000E+02
3340000000.000000      3.284149000000000E-01     -1.785703000000000E+02      5.737000000000000E-01      1.503750000000000E+02
3360000000.000000      3.167725000000000E-01      1.666563000000000E+02      6.468201000000000E-01      1.383125000000000E+02
3380000000.000000      3.007050000000000E-01      1.523203000000000E+02      7.080688000000000E-01      1.269883000000000E+02
3400000000.000000      2.781372000000000E-01      1.376328000000000E+02      7.572632000000000E-01      1.131719000000000E+02
3420000000.000000      2.432022000000000E-01      1.227891000000000E+02      7.480469000000000E-01      9.826172000000000E+01
3440000000.000000      1.897964000000000E-01      1.080039000000000E+02      7.052002000000000E-01      8.538671000000000E+01
3460000000.000000      1.195602000000000E-01      9.714844000000000E+01      6.466675000000000E-01      7.228906000000000E+01
3480000000.000000      4.764366000000000E-02      1.215898000000000E+02      5.502930000000000E-01      5.891015000000000E+01
3500000000.000000      9.259415000000000E-02     -1.743828000000000E+02      4.248047000000000E-01      4.746875000000000E+01
3520000000.000000      1.842270000000000E-01      1.790313000000000E+02      2.784424000000000E-01      4.040235000000000E+01
3540000000.000000      2.633057000000000E-01      1.627266000000000E+02      1.469498000000000E-01      5.843750000000000E+01
3560000000.000000      3.231201000000000E-01      1.457734000000000E+02      1.673126000000000E-01      1.077461000000000E+02
3580000000.000000      3.595734000000000E-01      1.297734000000000E+02      2.945557000000000E-01      1.174531000000000E+02
3600000000.000000      3.766174000000000E-01      1.151523000000000E+02      4.200439000000000E-01      1.105195000000000E+02
3620000000.000000      3.779907000000000E-01      1.024023000000000E+02      5.214844000000000E-01      1.012070000000000E+02
3640000000.000000      3.684387000000000E-01      9.128124000000000E+01      6.215515000000000E-01      8.999609000000000E+01
3660000000.000000      3.522797000000000E-01      8.099609000000000E+01      6.921082000000000E-01      7.570703000000000E+01
3680000000.000000      3.291321000000000E-01      7.189453000000000E+01      7.101135000000000E-01      6.268359000000000E+01
3700000000.000000      2.985687000000000E-01      6.361328000000000E+01      7.205200000000000E-01      5.100390000000000E+01
3720000000.000000      2.545471000000000E-01      5.751171000000000E+01      7.239380000000000E-01      3.662695000000000E+01
3740000000.000000      2.042770000000000E-01      5.840038000000000E+01      6.640015000000000E-01      2.122656000000000E+01
3760000000.000000      1.778412000000000E-01      7.246484000000000E+01      5.661316000000000E-01      7.058594000000000E+00
3780000000.000000      2.121429000000000E-01      8.741014000000000E+01      4.344177000000000E-01     -6.348877000000000E+00
3800000000.000000      2.826843000000000E-01      8.903124000000000E+01      2.816162000000000E-01     -1.350391000000000E+01
3820000000.000000      3.503265000000000E-01      8.254297000000000E+01      1.531448000000000E-01     -4.806519000000000E-01
3840000000.000000      4.006195000000000E-01      7.385937000000000E+01      1.432571000000000E-01      4.780469000000000E+01
3860000000.000000      4.358978000000000E-01      6.525781000000000E+01      2.460327000000000E-01      6.544922000000000E+01
3880000000.000000      4.607544000000000E-01      5.768555000000000E+01      3.769073000000000E-01      6.109375000000000E+01
3900000000.000000      4.891052000000000E-01      5.071484000000000E+01      4.784241000000000E-01      4.760547000000000E+01
3920000000.000000      5.201721000000000E-01      4.315039000000000E+01      5.094299000000000E-01      3.593359000000000E+01
3940000000.000000      5.495605000000000E-01      3.406054000000000E+01      5.403748000000000E-01      2.944140000000000E+01
3960000000.000000      5.606079000000000E-01      2.400879000000000E+01      5.940857000000000E-01      1.994336000000000E+01
3980000000.000000      5.535278000000000E-01      1.348145000000000E+01      5.968628000000000E-01      8.218750000000000E+00
4000000000.000000      5.269470000000000E-01      3.073364000000000E+00      5.805664000000000E-01      1.099976000000000E+00
4020000000.000000      4.839478000000000E-01     -6.887207000000000E+00      5.975342000000000E-01     -6.677002000000000E+00
4040000000.000000      4.246521000000000E-01     -1.580127000000000E+01      5.853577000000000E-01     -1.887109000000000E+01
4060000000.000000      3.490601000000000E-01     -2.177929000000000E+01      5.283813000000000E-01     -2.904785000000000E+01
4080000000.000000      2.741394000000000E-01     -2.179590000000000E+01      4.682312000000000E-01     -3.831836000000000E+01
4100000000.000000      2.286377000000000E-01     -1.125000000000000E+01      3.666382000000000E-01     -4.752734000000000E+01
4120000000.000000      2.422409000000000E-01      1.922607000000000E+00      2.495651000000000E-01     -4.412499000000000E+01
4140000000.000000      2.901611000000000E-01      5.083740000000000E+00      2.032318000000000E-01     -1.991699000000000E+01
4160000000.000000      3.345490000000000E-01      1.001099000000000E+00      2.639923000000000E-01     -1.016235000000000E-01
4180000000.000000      3.620605000000000E-01     -5.995850000000000E+00      3.576965000000000E-01      3.864380000000000E+00
4200000000.000000      3.716125000000000E-01     -1.372070000000000E+01      4.884796000000000E-01      1.363647000000000E+00
4220000000.000000      3.673553000000000E-01     -2.088965000000000E+01      6.418152000000000E-01     -1.089746000000000E+01
4240000000.000000      3.477631000000000E-01     -2.834961000000000E+01      7.228394000000000E-01     -2.780371000000000E+01
4260000000.000000      3.101959000000000E-01     -3.411328000000000E+01      7.434387000000000E-01     -4.186132000000000E+01
4280000000.000000      2.594452000000000E-01     -3.535937000000000E+01      7.519226000000000E-01     -5.568945000000000E+01
4300000000.000000      2.220459000000000E-01     -2.725879000000000E+01      7.146912000000000E-01     -7.089062000000000E+01
4320000000.000000      2.359848000000000E-01     -1.452295000000000E+01      6.318054000000000E-01     -8.533594000000000E+01
4340000000.000000      2.938385000000000E-01     -1.057471000000000E+01      5.158691000000000E-01     -9.814842000000000E+01
4360000000.000000      3.590240000000000E-01     -1.568066000000000E+01      3.798065000000000E-01     -1.069219000000000E+02
4380000000.000000      4.055634000000000E-01     -2.458789000000000E+01      2.496490000000000E-01     -1.080273000000000E+02
4400000000.000000      4.264832000000000E-01     -3.458984000000000E+01      1.534805000000000E-01     -8.507421000000000E+01
4420000000.000000      4.246521000000000E-01     -4.397851000000000E+01      1.879120000000000E-01     -4.563477000000000E+01
4440000000.000000      4.078522000000000E-01     -5.209179000000000E+01      3.107452000000000E-01     -3.614062000000000E+01
4460000000.000000      3.877411000000000E-01     -5.839453000000000E+01      4.529572000000000E-01     -4.333203000000000E+01
4480000000.000000      3.663025000000000E-01     -6.487890000000000E+01      5.617065000000000E-01     -5.552539000000000E+01
4500000000.000000      3.469086000000000E-01     -7.167969000000000E+01      6.418762000000000E-01     -6.687890000000000E+01
4520000000.000000      3.129578000000000E-01     -7.935156000000000E+01      7.160950000000000E-01     -7.982422000000000E+01
4540000000.000000      2.619019000000000E-01     -8.559765000000000E+01      7.430115000000000E-01     -9.438280000000000E+01
4560000000.000000      2.012863000000000E-01     -8.375391000000000E+01      7.276611000000000E-01     -1.077070000000000E+02
4580000000.000000      1.744232000000000E-01     -6.783203000000000E+01      6.916809000000000E-01     -1.215156000000000E+02
4600000000.000000      2.123642000000000E-01     -5.379883000000000E+01      6.050110000000000E-01     -1.347812000000000E+02
4620000000.000000      2.772369000000000E-01     -5.525000000000000E+01      4.977722000000000E-01     -1.451406000000000E+02
4640000000.000000      3.305664000000000E-01     -6.522265000000000E+01      3.776855000000000E-01     -1.535469000000000E+02
4660000000.000000      3.545074000000000E-01     -7.845312000000000E+01      2.461548000000000E-01     -1.517109000000000E+02
4680000000.000000      3.457642000000000E-01     -9.237890000000000E+01      1.791458000000000E-01     -1.234687000000000E+02
4700000000.000000      3.088074000000000E-01     -1.055781000000000E+02      2.481003000000000E-01     -9.663280000000000E+01
4720000000.000000      2.527618000000000E-01     -1.161367000000000E+02      3.676453000000000E-01     -9.546484000000000E+01
4740000000.000000      1.908035000000000E-01     -1.214219000000000E+02      4.746094000000000E-01     -1.017812000000000E+02
4760000000.000000      1.383743000000000E-01     -1.176406000000000E+02      5.796814000000000E-01     -1.106797000000000E+02
4780000000.000000      1.127739000000000E-01     -1.016523000000000E+02      6.664429000000000E-01     -1.229219000000000E+02
4800000000.000000      1.177750000000000E-01     -8.361719000000000E+01      7.180786000000000E-01     -1.357578000000000E+02
4820000000.000000      1.470413000000000E-01     -7.415625000000000E+01      7.356873000000000E-01     -1.490078000000000E+02
4840000000.000000      1.872406000000000E-01     -7.385547000000000E+01      7.181702000000000E-01     -1.618203000000000E+02
4860000000.000000      2.308350000000000E-01     -8.030077000000000E+01      6.834106000000000E-01     -1.744141000000000E+02
4880000000.000000      2.688904000000000E-01     -9.072266000000000E+01      6.161194000000000E-01      1.719297000000000E+02
4900000000.000000      2.940979000000000E-01     -1.043086000000000E+02      4.956055000000000E-01      1.596172000000000E+02
4920000000.000000      2.999115000000000E-01     -1.193359000000000E+02      3.646393000000000E-01      1.534219000000000E+02
4940000000.000000      2.852020000000000E-01     -1.351094000000000E+02      2.514801000000000E-01      1.558672000000000E+02
4960000000.000000      2.540741000000000E-01     -1.502031000000000E+02      1.768875000000000E-01      1.773125000000000E+02
4980000000.000000      2.122498000000000E-01     -1.643047000000000E+02      2.143860000000000E-01     -1.510859000000000E+02
5000000000.000000      1.681061000000000E-01     -1.762187000000000E+02      3.307648000000000E-01     -1.436484000000000E+02
5020000000.000000      1.302567000000000E-01      1.738594000000000E+02      4.607391000000000E-01     -1.496484000000000E+02
5040000000.000000      1.000023000000000E-01      1.633125000000000E+02      5.693359000000000E-01     -1.605391000000000E+02
5060000000.000000      7.184219000000000E-02      1.483516000000000E+02      6.510010000000000E-01     -1.719844000000000E+02
5080000000.000000      4.167175000000000E-02      1.225820000000000E+02      7.187195000000000E-01      1.759063000000000E+02
5100000000.000000      1.653671000000000E-02      4.223633000000000E+01      7.575684000000000E-01      1.620625000000000E+02
5120000000.000000      4.154778000000000E-02     -5.132617000000000E+01      7.536316000000000E-01      1.477734000000000E+02
5140000000.000000      7.256699000000000E-02     -8.768749000000000E+01      7.038574000000000E-01      1.343828000000000E+02
5160000000.000000      9.614182000000000E-02     -1.190195000000000E+02      6.270447000000000E-01      1.220351000000000E+02
5180000000.000000      1.092300000000000E-01     -1.495312000000000E+02      5.325623000000000E-01      1.105742000000000E+02
5200000000.000000      1.121559000000000E-01      1.777812000000000E+02      4.168701000000000E-01      1.010859000000000E+02
5220000000.000000      1.096725000000000E-01      1.416953000000000E+02      2.825470000000000E-01      9.821484000000000E+01
5240000000.000000      1.087761000000000E-01      1.055547000000000E+02      1.842728000000000E-01      1.154688000000000E+02
5260000000.000000      1.134720000000000E-01      7.215234000000000E+01      1.965256000000000E-01      1.493906000000000E+02
5280000000.000000      1.207542000000000E-01      4.570703000000000E+01      2.966156000000000E-01      1.605937000000000E+02
5300000000.000000      1.274643000000000E-01      2.494922000000000E+01      4.105225000000000E-01      1.579844000000000E+02
5320000000.000000      1.333542000000000E-01      8.640625000000000E+00      5.282898000000000E-01      1.503906000000000E+02
5340000000.000000      1.392441000000000E-01     -6.004150000000000E+00      6.383362000000000E-01      1.385156000000000E+02
5360000000.000000      1.431732000000000E-01     -2.139453000000000E+01      7.061462000000000E-01      1.238906000000000E+02
5380000000.000000      1.388550000000000E-01     -3.889453000000000E+01      7.158203000000000E-01      1.106328000000000E+02
5400000000.000000      1.197891000000000E-01     -5.683984000000000E+01      7.188721000000000E-01      9.904686000000000E+01
5420000000.000000      8.391190000000000E-02     -7.381640000000000E+01      7.055054000000000E-01      8.592968000000000E+01
5440000000.000000      2.950001000000000E-02     -7.719531000000000E+01      6.479797000000000E-01      7.145702000000000E+01
5460000000.000000      4.401207000000000E-02      3.878125000000000E+01      5.400085000000000E-01      5.849804000000000E+01
5480000000.000000      1.136093000000000E-01      3.094238000000000E+01      4.129486000000000E-01      4.914453000000000E+01
5500000000.000000      1.754074000000000E-01      1.554541000000000E+01      2.926331000000000E-01      4.723437000000000E+01
5520000000.000000      2.208328000000000E-01      5.822754000000000E-01      1.948318000000000E-01      5.906250000000000E+01
5540000000.000000      2.523346000000000E-01     -1.329102000000000E+01      1.810760000000000E-01      9.093359000000000E+01
5560000000.000000      2.701111000000000E-01     -2.510449000000000E+01      2.631989000000000E-01      1.087109000000000E+02
5580000000.000000      2.828979000000000E-01     -3.507813000000000E+01      3.851013000000000E-01      1.085156000000000E+02
5600000000.000000      2.942810000000000E-01     -4.386914000000000E+01      5.070496000000000E-01      9.957031000000000E+01
5620000000.000000      3.042145000000000E-01     -5.306250000000000E+01      5.954285000000000E-01      8.698437000000000E+01
5640000000.000000      3.078918000000000E-01     -6.282031000000000E+01      6.468506000000000E-01      7.507813000000000E+01
5660000000.000000      2.977753000000000E-01     -7.346874000000000E+01      6.853943000000000E-01      6.370898000000000E+01
5680000000.000000      2.686462000000000E-01     -8.398438000000000E+01      6.987915000000000E-01      5.101757000000000E+01
5700000000.000000      2.216187000000000E-01     -9.121874000000000E+01      6.831665000000000E-01      3.869922000000000E+01
5720000000.000000      1.708450000000000E-01     -8.983202000000000E+01      6.442261000000000E-01      2.598730000000000E+01
5740000000.000000      1.497955000000000E-01     -7.532421000000000E+01      5.661621000000000E-01      1.258301000000000E+01
5760000000.000000      1.789703000000000E-01     -6.376367000000000E+01      4.500885000000000E-01      1.067017000000000E+00
5780000000.000000      2.251129000000000E-01     -6.532421000000000E+01      3.164520000000000E-01     -3.953735000000000E+00
5800000000.000000      2.578278000000000E-01     -7.304296000000000E+01      2.079086000000000E-01      7.218018000000000E+00
5820000000.000000      2.663727000000000E-01     -8.260157000000000E+01      1.894073000000000E-01      3.759180000000000E+01
5840000000.000000      2.573395000000000E-01     -9.101954000000000E+01      2.714691000000000E-01      5.403320000000000E+01
5860000000.000000      2.388382000000000E-01     -9.663280000000000E+01      3.719330000000000E-01      5.400000000000000E+01
5880000000.000000      2.241440000000000E-01     -9.989061000000000E+01      4.788513000000000E-01      4.864258000000000E+01
5900000000.000000      2.167053000000000E-01     -1.023672000000000E+02      5.933838000000000E-01      3.819140000000000E+01
5920000000.000000      2.087631000000000E-01     -1.051523000000000E+02      6.718445000000000E-01      2.443750000000000E+01
5940000000.000000      1.945724000000000E-01     -1.069687000000000E+02      7.027283000000000E-01      1.130176000000000E+01
5960000000.000000      1.770096000000000E-01     -1.052187000000000E+02      7.124634000000000E-01     -1.555969000000000E+00
5980000000.000000      1.656418000000000E-01     -9.744141000000000E+01      6.928406000000000E-01     -1.554883000000000E+01
6000000000.000000      1.812057000000000E-01     -8.842577000000000E+01      6.288147000000000E-01     -2.910156000000000E+01
6020000000.000000      2.162323000000000E-01     -8.638281000000000E+01      5.284119000000000E-01     -4.180273000000000E+01
6040000000.000000      2.519073000000000E-01     -9.184765000000000E+01      3.993835000000000E-01     -4.975586000000000E+01
6060000000.000000      2.750092000000000E-01     -1.009609000000000E+02      2.846832000000000E-01     -4.967187000000000E+01
6080000000.000000      2.852020000000000E-01     -1.111914000000000E+02      2.058868000000000E-01     -3.585546000000000E+01
