! Network Analyzer HP8722D
! Hewlett-Packard
! Data name: Linha & Wilkinson+CNT
! Saver's name: Rodrigo Anjos
! Comments: Teste da utilização de aquisição
continua pelo VNA HP8722D
! Time and date: 29/9/2025 14:23
!              Frequency                     S11                                                   S21                                                   S12                                                   S22
# HZ  S  MA R 50
3000000000.000000      4.238129000000000E-01     -5.584374000000000E+01      2.062149000000000E-01     -1.315391000000000E+02
3020000000.000000      4.484406000000000E-01     -6.981640000000000E+01      3.493805000000000E-01     -1.348906000000000E+02
3040000000.000000      4.528503000000000E-01     -8.284374000000000E+01      4.666901000000000E-01     -1.449453000000000E+02
3060000000.000000      4.445801000000000E-01     -9.488672000000000E+01      5.707397000000000E-01     -1.551484000000000E+02
3080000000.000000      4.297028000000000E-01     -1.062266000000000E+02      6.724854000000000E-01     -1.682969000000000E+02
3100000000.000000      4.091339000000000E-01     -1.173906000000000E+02      7.236328000000000E-01      1.768750000000000E+02
3120000000.000000      3.796387000000000E-01     -1.293516000000000E+02      7.320862000000000E-01      1.634766000000000E+02
3140000000.000000      3.394470000000000E-01     -1.423437000000000E+02      7.242126000000000E-01      1.505938000000000E+02
3160000000.000000      2.791595000000000E-01     -1.564062000000000E+02      6.832275000000000E-01      1.369844000000000E+02
3180000000.000000      1.998825000000000E-01     -1.690312000000000E+02      6.144714000000000E-01      1.243516000000000E+02
3200000000.000000      1.121941000000000E-01     -1.697969000000000E+02      5.199585000000000E-01      1.115234000000000E+02
3220000000.000000      7.892227000000000E-02     -1.245625000000000E+02      3.871613000000000E-01      1.009141000000000E+02
3240000000.000000      1.500320000000000E-01     -1.048906000000000E+02      2.480774000000000E-01      9.940624000000000E+01
3260000000.000000      2.294159000000000E-01     -1.150352000000000E+02      1.469498000000000E-01      1.249570000000000E+02
3280000000.000000      2.870636000000000E-01     -1.307031000000000E+02      2.022018000000000E-01      1.652344000000000E+02
3300000000.000000      3.202667000000000E-01     -1.471641000000000E+02      3.288116000000000E-01      1.696640000000000E+02
3320000000.000000      3.321838000000000E-01     -1.630156000000000E+02      4.621582000000000E-01      1.626719000000000E+02
3340000000.000000      3.285675000000000E-01     -1.783437000000000E+02      5.740356000000000E-01      1.506250000000000E+02
3360000000.000000      3.173981000000000E-01      1.668047000000000E+02      6.456299000000000E-01      1.384844000000000E+02
3380000000.000000      3.005219000000000E-01      1.524609000000000E+02      7.083130000000000E-01      1.271875000000000E+02
3400000000.000000      2.781677000000000E-01      1.377969000000000E+02      7.573242000000000E-01      1.134101000000000E+02
3420000000.000000      2.435074000000000E-01      1.228203000000000E+02      7.495117000000000E-01      9.840624000000000E+01
3440000000.000000      1.905212000000000E-01      1.081055000000000E+02      7.057495000000000E-01      8.555859000000000E+01
3460000000.000000      1.203613000000000E-01      9.717577000000000E+01      6.467285000000000E-01      7.265625000000000E+01
3480000000.000000      4.831696000000000E-02      1.207070000000000E+02      5.514526000000000E-01      5.900585000000000E+01
3500000000.000000      9.107590000000000E-02     -1.746016000000000E+02      4.272461000000000E-01      4.765821000000000E+01
3520000000.000000      1.832275000000000E-01      1.791406000000000E+02      2.799377000000000E-01      4.033008000000000E+01
3540000000.000000      2.624359000000000E-01      1.629297000000000E+02      1.479492000000000E-01      5.782617000000000E+01
3560000000.000000      3.224487000000000E-01      1.459063000000000E+02      1.658783000000000E-01      1.073633000000000E+02
3580000000.000000      3.595734000000000E-01      1.298828000000000E+02      2.932892000000000E-01      1.175117000000000E+02
3600000000.000000      3.759155000000000E-01      1.153750000000000E+02      4.185791000000000E-01      1.107148000000000E+02
3620000000.000000      3.782043000000000E-01      1.025625000000000E+02      5.201416000000000E-01      1.014180000000000E+02
3640000000.000000      3.686218000000000E-01      9.139063000000000E+01      6.207275000000000E-01      9.014063000000000E+01
3660000000.000000      3.524933000000000E-01      8.123047000000000E+01      6.920776000000000E-01      7.597265000000000E+01
3680000000.000000      3.300171000000000E-01      7.191015000000000E+01      7.092896000000000E-01      6.268749000000000E+01
3700000000.000000      2.991943000000000E-01      6.370703000000000E+01      7.206116000000000E-01      5.118359000000000E+01
3720000000.000000      2.552032000000000E-01      5.760742000000000E+01      7.248535000000000E-01      3.694140000000000E+01
3740000000.000000      2.047653000000000E-01      5.837304000000000E+01      6.647339000000000E-01      2.149609000000000E+01
3760000000.000000      1.776657000000000E-01      7.207421000000000E+01      5.668030000000000E-01      7.242676000000000E+00
3780000000.000000      2.111206000000000E-01      8.740234000000000E+01      4.364014000000000E-01     -6.006836000000000E+00
3800000000.000000      2.813416000000000E-01      8.907812000000000E+01      2.835541000000000E-01     -1.356152000000000E+01
3820000000.000000      3.494873000000000E-01      8.272264000000000E+01      1.541519000000000E-01     -8.363342000000000E-01
3840000000.000000      4.000244000000000E-01      7.396093000000000E+01      1.421585000000000E-01      4.755273000000000E+01
3860000000.000000      4.351501000000000E-01      6.539063000000000E+01      2.449493000000000E-01      6.531640000000000E+01
3880000000.000000      4.602203000000000E-01      5.782421000000000E+01      3.748169000000000E-01      6.127734000000000E+01
3900000000.000000      4.893646000000000E-01      5.078515000000000E+01      4.773712000000000E-01      4.779687000000000E+01
3920000000.000000      5.187683000000000E-01      4.297852000000000E+01      5.083008000000000E-01      3.605859000000000E+01
3940000000.000000      5.475769000000000E-01      3.414648000000000E+01      5.389099000000000E-01      2.952539000000000E+01
3960000000.000000      5.598755000000000E-01      2.421387000000000E+01      5.949707000000000E-01      2.013476000000000E+01
3980000000.000000      5.535583000000000E-01      1.360791000000000E+01      5.972900000000000E-01      8.191406000000000E+00
4000000000.000000      5.280151000000000E-01      3.166748000000000E+00      5.805664000000000E-01      1.234558000000000E+00
4020000000.000000      4.845734000000000E-01     -6.773193000000000E+00      5.986023000000000E-01     -6.501221000000000E+00
4040000000.000000      4.254608000000000E-01     -1.564063000000000E+01      5.856934000000000E-01     -1.881152000000000E+01
4060000000.000000      3.504333000000000E-01     -2.185645000000000E+01      5.273743000000000E-01     -2.883984000000000E+01
4080000000.000000      2.752991000000000E-01     -2.194140000000000E+01      4.683990000000000E-01     -3.814258000000000E+01
4100000000.000000      2.282639000000000E-01     -1.144678000000000E+01      3.685455000000000E-01     -4.746679000000000E+01
4120000000.000000      2.411118000000000E-01      1.797607000000000E+00      2.502594000000000E-01     -4.428906000000000E+01
4140000000.000000      2.896271000000000E-01      5.064697000000000E+00      2.025833000000000E-01     -2.035156000000000E+01
4160000000.000000      3.337860000000000E-01      1.029968000000000E+00      2.623749000000000E-01     -1.332092000000000E-01
4180000000.000000      3.618927000000000E-01     -5.896973000000000E+00      3.560638000000000E-01      3.904175000000000E+00
4200000000.000000      3.717346000000000E-01     -1.364502000000000E+01      4.870605000000000E-01      1.481750000000000E+00
4220000000.000000      3.671722000000000E-01     -2.074023000000000E+01      6.408997000000000E-01     -1.092627000000000E+01
4240000000.000000      3.484192000000000E-01     -2.832617000000000E+01      7.216187000000000E-01     -2.765625000000000E+01
4260000000.000000      3.100433000000000E-01     -3.409961000000000E+01      7.434387000000000E-01     -4.161718000000000E+01
4280000000.000000      2.602997000000000E-01     -3.545898000000000E+01      7.509155000000000E-01     -5.563281000000000E+01
4300000000.000000      2.225113000000000E-01     -2.749218000000000E+01      7.144470000000000E-01     -7.067577000000000E+01
4320000000.000000      2.347107000000000E-01     -1.470264000000000E+01      6.337585000000000E-01     -8.507813000000000E+01
4340000000.000000      2.931976000000000E-01     -1.058008000000000E+01      5.176392000000000E-01     -9.792578000000000E+01
4360000000.000000      3.583221000000000E-01     -1.559668000000000E+01      3.820648000000000E-01     -1.069922000000000E+02
4380000000.000000      4.052277000000000E-01     -2.453418000000000E+01      2.510376000000000E-01     -1.081602000000000E+02
4400000000.000000      4.261932000000000E-01     -3.449804000000000E+01      1.536102000000000E-01     -8.578905000000000E+01
4420000000.000000      4.243774000000000E-01     -4.385351000000000E+01      1.867218000000000E-01     -4.581836000000000E+01
4440000000.000000      4.088440000000000E-01     -5.193749000000000E+01      3.091888000000000E-01     -3.615625000000000E+01
4460000000.000000      3.880310000000000E-01     -5.859570000000000E+01      4.512177000000000E-01     -4.333008000000000E+01
4480000000.000000      3.682098000000000E-01     -6.475390000000000E+01      5.604553000000000E-01     -5.543163000000000E+01
4500000000.000000      3.467712000000000E-01     -7.160156000000000E+01      6.416626000000000E-01     -6.681250000000000E+01
4520000000.000000      3.140564000000000E-01     -7.932422000000000E+01      7.147522000000000E-01     -7.964844000000000E+01
4540000000.000000      2.626190000000000E-01     -8.550390000000000E+01      7.424011000000000E-01     -9.427343000000000E+01
4560000000.000000      2.020111000000000E-01     -8.392578000000000E+01      7.286682000000000E-01     -1.074453000000000E+02
4580000000.000000      1.739960000000000E-01     -6.812500000000000E+01      6.917725000000000E-01     -1.213242000000000E+02
4600000000.000000      2.114182000000000E-01     -5.392187000000000E+01      6.064453000000000E-01     -1.346250000000000E+02
4620000000.000000      2.763672000000000E-01     -5.513476000000000E+01      5.000305000000000E-01     -1.451484000000000E+02
4640000000.000000      3.302307000000000E-01     -6.497265000000000E+01      3.809357000000000E-01     -1.534531000000000E+02
4660000000.000000      3.540039000000000E-01     -7.826172000000000E+01      2.473984000000000E-01     -1.519453000000000E+02
4680000000.000000      3.464355000000000E-01     -9.227734000000000E+01      1.788712000000000E-01     -1.240000000000000E+02
4700000000.000000      3.097687000000000E-01     -1.055312000000000E+02      2.463913000000000E-01     -9.674217000000000E+01
4720000000.000000      2.533722000000000E-01     -1.161328000000000E+02      3.655396000000000E-01     -9.537889000000000E+01
4740000000.000000      1.917343000000000E-01     -1.214336000000000E+02      4.734039000000000E-01     -1.017461000000000E+02
4760000000.000000      1.391983000000000E-01     -1.178242000000000E+02      5.798340000000000E-01     -1.104102000000000E+02
4780000000.000000      1.123810000000000E-01     -1.018437000000000E+02      6.681213000000000E-01     -1.227656000000000E+02
4800000000.000000      1.178436000000000E-01     -8.406250000000000E+01      7.185669000000000E-01     -1.356641000000000E+02
4820000000.000000      1.461334000000000E-01     -7.401562000000000E+01      7.362366000000000E-01     -1.489844000000000E+02
4840000000.000000      1.864014000000000E-01     -7.378124000000000E+01      7.183533000000000E-01     -1.617031000000000E+02
4860000000.000000      2.309036000000000E-01     -8.024609000000000E+01      6.856079000000000E-01     -1.741641000000000E+02
4880000000.000000      2.680969000000000E-01     -9.053905000000000E+01      6.186218000000000E-01      1.719687000000000E+02
4900000000.000000      2.940216000000000E-01     -1.040937000000000E+02      4.967804000000000E-01      1.598828000000000E+02
4920000000.000000      2.998810000000000E-01     -1.191133000000000E+02      3.672180000000000E-01      1.535938000000000E+02
4940000000.000000      2.853699000000000E-01     -1.348906000000000E+02      2.531433000000000E-01      1.556953000000000E+02
4960000000.000000      2.549286000000000E-01     -1.500313000000000E+02      1.773300000000000E-01      1.766875000000000E+02
4980000000.000000      2.133484000000000E-01     -1.641875000000000E+02      2.136002000000000E-01     -1.513125000000000E+02
5000000000.000000      1.685867000000000E-01     -1.761484000000000E+02      3.281403000000000E-01     -1.436250000000000E+02
5020000000.000000      1.309662000000000E-01      1.739141000000000E+02      4.587555000000000E-01     -1.495156000000000E+02
5040000000.000000      1.002960000000000E-01      1.634687000000000E+02      5.689392000000000E-01     -1.604297000000000E+02
5060000000.000000      7.206345000000000E-02      1.487578000000000E+02      6.495056000000000E-01     -1.717109000000000E+02
5080000000.000000      4.209137000000000E-02      1.228047000000000E+02      7.187500000000000E-01      1.761172000000000E+02
5100000000.000000      1.718998000000000E-02      4.319140000000000E+01      7.557983000000000E-01      1.622890000000000E+02
5120000000.000000      4.061508000000000E-02     -5.045116000000000E+01      7.521667000000000E-01      1.480859000000000E+02
5140000000.000000      7.240677000000000E-02     -8.702343000000000E+01      7.046204000000000E-01      1.344297000000000E+02
5160000000.000000      9.638214000000000E-02     -1.183242000000000E+02      6.313171000000000E-01      1.221328000000000E+02
5180000000.000000      1.092987000000000E-01     -1.490313000000000E+02      5.346069000000000E-01      1.108828000000000E+02
5200000000.000000      1.122704000000000E-01      1.781250000000000E+02      4.174805000000000E-01      1.010117000000000E+02
5220000000.000000      1.093941000000000E-01      1.422266000000000E+02      2.847900000000000E-01      9.809374000000000E+01
5240000000.000000      1.090660000000000E-01      1.060781000000000E+02      1.839523000000000E-01      1.146797000000000E+02
5260000000.000000      1.130295000000000E-01      7.260547000000000E+01      1.952896000000000E-01      1.491484000000000E+02
5280000000.000000      1.203880000000000E-01      4.624413000000000E+01      2.950897000000000E-01      1.605859000000000E+02
5300000000.000000      1.277771000000000E-01      2.521679000000000E+01      4.090424000000000E-01      1.581250000000000E+02
5320000000.000000      1.334381000000000E-01      8.843750000000000E+00      5.261536000000000E-01      1.507578000000000E+02
5340000000.000000      1.389694000000000E-01     -5.600342000000000E+00      6.380615000000000E-01      1.386406000000000E+02
5360000000.000000      1.436615000000000E-01     -2.096484000000000E+01      7.060242000000000E-01      1.240703000000000E+02
5380000000.000000      1.384735000000000E-01     -3.852930000000000E+01      7.178345000000000E-01      1.107773000000000E+02
5400000000.000000      1.201286000000000E-01     -5.675976000000000E+01      7.185974000000000E-01      9.924608000000000E+01
5420000000.000000      8.503723000000000E-02     -7.377343000000000E+01      7.060852000000000E-01      8.609766000000000E+01
5440000000.000000      3.057384000000000E-02     -7.820703000000000E+01      6.492004000000000E-01      7.181641000000000E+01
5460000000.000000      4.273224000000000E-02      3.853906000000000E+01      5.412292000000000E-01      5.872656000000000E+01
5480000000.000000      1.119690000000000E-01      3.137109000000000E+01      4.146576000000000E-01      4.940234000000000E+01
5500000000.000000      1.750870000000000E-01      1.585986000000000E+01      2.938232000000000E-01      4.720508000000000E+01
5520000000.000000      2.204590000000000E-01      7.937622000000000E-01      1.956024000000000E-01      5.863476000000000E+01
5540000000.000000      2.513733000000000E-01     -1.301611000000000E+01      1.800003000000000E-01      9.044531000000000E+01
5560000000.000000      2.703552000000000E-01     -2.491211000000000E+01      2.615814000000000E-01      1.087891000000000E+02
5580000000.000000      2.829590000000000E-01     -3.489843000000000E+01      3.834686000000000E-01      1.086016000000000E+02
5600000000.000000      2.937012000000000E-01     -4.381249000000000E+01      5.055847000000000E-01      9.973045000000000E+01
5620000000.000000      3.045959000000000E-01     -5.288867000000000E+01      5.948181000000000E-01      8.717188000000000E+01
5640000000.000000      3.075104000000000E-01     -6.261719000000000E+01      6.473083000000000E-01      7.541406000000000E+01
5660000000.000000      2.979126000000000E-01     -7.336328000000000E+01      6.848145000000000E-01      6.393555000000000E+01
5680000000.000000      2.690125000000000E-01     -8.364452000000000E+01      6.985474000000000E-01      5.114452000000000E+01
5700000000.000000      2.215805000000000E-01     -9.111328000000000E+01      6.839294000000000E-01      3.877344000000000E+01
5720000000.000000      1.713486000000000E-01     -9.003906000000000E+01      6.438293000000000E-01      2.608105000000000E+01
5740000000.000000      1.495667000000000E-01     -7.566406000000000E+01      5.676575000000000E-01      1.283887000000000E+01
5760000000.000000      1.775970000000000E-01     -6.381836000000000E+01      4.534454000000000E-01      1.215332000000000E+00
5780000000.000000      2.239304000000000E-01     -6.508984000000000E+01      3.181152000000000E-01     -3.968872000000000E+00
5800000000.000000      2.565002000000000E-01     -7.289844000000000E+01      2.091980000000000E-01      6.694580000000000E+00
5820000000.000000      2.664795000000000E-01     -8.242188000000000E+01      1.881638000000000E-01      3.714062000000000E+01
5840000000.000000      2.568054000000000E-01     -9.104687000000000E+01      2.694702000000000E-01      5.393359000000000E+01
5860000000.000000      2.397614000000000E-01     -9.650780000000000E+01      3.704681000000000E-01      5.398046000000000E+01
5880000000.000000      2.239456000000000E-01     -9.977343000000000E+01      4.779510000000000E-01      4.887500000000000E+01
5900000000.000000      2.168503000000000E-01     -1.021289000000000E+02      5.932007000000000E-01      3.859179000000000E+01
5920000000.000000      2.090378000000000E-01     -1.049375000000000E+02      6.734924000000000E-01      2.466113000000000E+01
5940000000.000000      1.952667000000000E-01     -1.069453000000000E+02      7.009277000000000E-01      1.150244000000000E+01
5960000000.000000      1.772003000000000E-01     -1.054609000000000E+02      7.145691000000000E-01     -1.387024000000000E+00
5980000000.000000      1.651764000000000E-01     -9.758984000000000E+01      6.937256000000000E-01     -1.529297000000000E+01
6000000000.000000      1.812210000000000E-01     -8.835938000000000E+01      6.303406000000000E-01     -2.894824000000000E+01
6020000000.000000      2.157211000000000E-01     -8.653515000000000E+01      5.300903000000000E-01     -4.152148000000000E+01
6040000000.000000      2.512207000000000E-01     -9.180468000000000E+01      4.014893000000000E-01     -4.978906000000000E+01
6060000000.000000      2.752228000000000E-01     -1.008242000000000E+02      2.870483000000000E-01     -4.968163000000000E+01
6080000000.000000      2.855835000000000E-01     -1.110352000000000E+02      2.061768000000000E-01     -3.638867000000000E+01
