! Network Analyzer HP8722D
! Hewlett-Packard
! Data name: Linha & Wilkinson+CNT
! Saver's name: Rodrigo Anjos
! Comments: Teste da utilização de aquisição
continua pelo VNA HP8722D
! Time and date: 29/9/2025 15:05
!              Frequency                     S11                                                   S21                                                   S12                                                   S22
# HZ  S  MA R 50
3000000000.000000      4.240723000000000E-01     -5.560156000000000E+01      2.059174000000000E-01     -1.315391000000000E+02
3020000000.000000      4.468689000000000E-01     -6.987499000000000E+01      3.490753000000000E-01     -1.349219000000000E+02
3040000000.000000      4.533539000000000E-01     -8.275391000000000E+01      4.675903000000000E-01     -1.447813000000000E+02
3060000000.000000      4.449921000000000E-01     -9.482422000000000E+01      5.698242000000000E-01     -1.550234000000000E+02
3080000000.000000      4.295349000000000E-01     -1.060625000000000E+02      6.726074000000000E-01     -1.682578000000000E+02
3100000000.000000      4.089966000000000E-01     -1.173281000000000E+02      7.234192000000000E-01      1.768906000000000E+02
3120000000.000000      3.799286000000000E-01     -1.293516000000000E+02      7.321167000000000E-01      1.633906000000000E+02
3140000000.000000      3.393860000000000E-01     -1.423672000000000E+02      7.250977000000000E-01      1.506016000000000E+02
3160000000.000000      2.794037000000000E-01     -1.563125000000000E+02      6.833496000000000E-01      1.370938000000000E+02
3180000000.000000      1.997757000000000E-01     -1.691172000000000E+02      6.140137000000000E-01      1.244961000000000E+02
3200000000.000000      1.119957000000000E-01     -1.699609000000000E+02      5.205078000000000E-01      1.116133000000000E+02
3220000000.000000      7.859039000000000E-02     -1.245313000000000E+02      3.866119000000000E-01      1.009219000000000E+02
3240000000.000000      1.495743000000000E-01     -1.047734000000000E+02      2.483826000000000E-01      9.943748000000000E+01
3260000000.000000      2.293777000000000E-01     -1.150234000000000E+02      1.473846000000000E-01      1.249062000000000E+02
3280000000.000000      2.873535000000000E-01     -1.306094000000000E+02      2.018585000000000E-01      1.650703000000000E+02
3300000000.000000      3.203430000000000E-01     -1.470000000000000E+02      3.285065000000000E-01      1.697813000000000E+02
3320000000.000000      3.319092000000000E-01     -1.629297000000000E+02      4.619446000000000E-01      1.627109000000000E+02
3340000000.000000      3.289337000000000E-01     -1.783437000000000E+02      5.737000000000000E-01      1.505547000000000E+02
3360000000.000000      3.169098000000000E-01      1.668984000000000E+02      6.466064000000000E-01      1.385937000000000E+02
3380000000.000000      3.007355000000000E-01      1.525156000000000E+02      7.088013000000000E-01      1.272187000000000E+02
3400000000.000000      2.784576000000000E-01      1.378438000000000E+02      7.596436000000000E-01      1.132813000000000E+02
3420000000.000000      2.438507000000000E-01      1.228164000000000E+02      7.488403000000000E-01      9.850389000000000E+01
3440000000.000000      1.910553000000000E-01      1.080976000000000E+02      7.059326000000000E-01      8.560156000000000E+01
3460000000.000000      1.207504000000000E-01      9.740234000000000E+01      6.472778000000000E-01      7.248047000000000E+01
3480000000.000000      4.854965000000000E-02      1.204297000000000E+02      5.518494000000000E-01      5.901953000000000E+01
3500000000.000000      9.120178000000000E-02     -1.745234000000000E+02      4.264221000000000E-01      4.771093000000000E+01
3520000000.000000      1.830673000000000E-01      1.793125000000000E+02      2.801666000000000E-01      4.046094000000000E+01
3540000000.000000      2.619629000000000E-01      1.629766000000000E+02      1.480713000000000E-01      5.789648000000000E+01
3560000000.000000      3.222046000000000E-01      1.460781000000000E+02      1.656418000000000E-01      1.074609000000000E+02
3580000000.000000      3.597412000000000E-01      1.300000000000000E+02      2.928925000000000E-01      1.176055000000000E+02
3600000000.000000      3.761597000000000E-01      1.153906000000000E+02      4.180908000000000E-01      1.107578000000000E+02
3620000000.000000      3.784027000000000E-01      1.027695000000000E+02      5.205994000000000E-01      1.012539000000000E+02
3640000000.000000      3.688965000000000E-01      9.139843000000000E+01      6.214600000000000E-01      9.016405000000000E+01
3660000000.000000      3.522797000000000E-01      8.126562000000000E+01      6.926880000000000E-01      7.594531000000000E+01
3680000000.000000      3.300171000000000E-01      7.203906000000000E+01      7.117615000000000E-01      6.265038000000000E+01
3700000000.000000      2.996674000000000E-01      6.376758000000000E+01      7.208862000000000E-01      5.122460000000000E+01
3720000000.000000      2.555695000000000E-01      5.760742000000000E+01      7.251282000000000E-01      3.706640000000000E+01
3740000000.000000      2.053986000000000E-01      5.825781000000000E+01      6.651917000000000E-01      2.156543000000000E+01
3760000000.000000      1.777878000000000E-01      7.207421000000000E+01      5.671082000000000E-01      7.252197000000000E+00
3780000000.000000      2.108459000000000E-01      8.730860000000000E+01      4.368134000000000E-01     -6.046631000000000E+00
3800000000.000000      2.813568000000000E-01      8.916016000000000E+01      2.836151000000000E-01     -1.339551000000000E+01
3820000000.000000      3.489685000000000E-01      8.267578000000000E+01      1.548080000000000E-01     -6.797791000000000E-01
3840000000.000000      3.999481000000000E-01      7.401953000000000E+01      1.417770000000000E-01      4.746679000000000E+01
3860000000.000000      4.355011000000000E-01      6.541016000000000E+01      2.447205000000000E-01      6.535546000000000E+01
3880000000.000000      4.604187000000000E-01      5.787890000000000E+01      3.750610000000000E-01      6.128515000000000E+01
3900000000.000000      4.894409000000000E-01      5.097265000000000E+01      4.762115000000000E-01      4.775976000000000E+01
3920000000.000000      5.206299000000000E-01      4.329102000000000E+01      5.079346000000000E-01      3.600195000000000E+01
3940000000.000000      5.487366000000000E-01      3.429101000000000E+01      5.399780000000000E-01      2.958301000000000E+01
3960000000.000000      5.606689000000000E-01      2.432422000000000E+01      5.949402000000000E-01      2.008301000000000E+01
3980000000.000000      5.535583000000000E-01      1.373389000000000E+01      5.966187000000000E-01      8.331543000000000E+00
4000000000.000000      5.271912000000000E-01      3.240967000000000E+00      5.797729000000000E-01      1.318359000000000E+00
4020000000.000000      4.846954000000000E-01     -6.742920000000000E+00      5.987549000000000E-01     -6.481934000000000E+00
4040000000.000000      4.260101000000000E-01     -1.558691000000000E+01      5.863953000000000E-01     -1.874023000000000E+01
4060000000.000000      3.501587000000000E-01     -2.182519000000000E+01      5.283203000000000E-01     -2.880566000000000E+01
4080000000.000000      2.754974000000000E-01     -2.194531000000000E+01      4.704285000000000E-01     -3.817773000000000E+01
4100000000.000000      2.281113000000000E-01     -1.134912000000000E+01      3.685455000000000E-01     -4.736133000000000E+01
4120000000.000000      2.416916000000000E-01      1.808594000000000E+00      2.506104000000000E-01     -4.437696000000000E+01
4140000000.000000      2.893524000000000E-01      5.206055000000000E+00      2.026901000000000E-01     -2.037012000000000E+01
4160000000.000000      3.338470000000000E-01      1.025818000000000E+00      2.622681000000000E-01     -2.169800000000000E-01
4180000000.000000      3.615112000000000E-01     -5.774902000000000E+00      3.558807000000000E-01      3.977051000000000E+00
4200000000.000000      3.714294000000000E-01     -1.355029000000000E+01      4.862213000000000E-01      1.560059000000000E+00
4220000000.000000      3.678284000000000E-01     -2.073730000000000E+01      6.427002000000000E-01     -1.086719000000000E+01
4240000000.000000      3.485565000000000E-01     -2.824609000000000E+01      7.210083000000000E-01     -2.747363000000000E+01
4260000000.000000      3.103943000000000E-01     -3.400000000000000E+01      7.435303000000000E-01     -4.159570000000000E+01
4280000000.000000      2.600861000000000E-01     -3.547266000000000E+01      7.518311000000000E-01     -5.543163000000000E+01
4300000000.000000      2.222290000000000E-01     -2.741992000000000E+01      7.148743000000000E-01     -7.050781000000000E+01
4320000000.000000      2.348480000000000E-01     -1.463672000000000E+01      6.340637000000000E-01     -8.499218000000000E+01
4340000000.000000      2.925720000000000E-01     -1.049609000000000E+01      5.177307000000000E-01     -9.777733000000000E+01
4360000000.000000      3.581543000000000E-01     -1.549805000000000E+01      3.820343000000000E-01     -1.068906000000000E+02
4380000000.000000      4.050293000000000E-01     -2.445019000000000E+01      2.510834000000000E-01     -1.082617000000000E+02
4400000000.000000      4.265900000000000E-01     -3.448242000000000E+01      1.538773000000000E-01     -8.581249000000000E+01
4420000000.000000      4.253845000000000E-01     -4.373437000000000E+01      1.862411000000000E-01     -4.575976000000000E+01
4440000000.000000      4.085236000000000E-01     -5.177734000000000E+01      3.087311000000000E-01     -3.613867000000000E+01
4460000000.000000      3.872375000000000E-01     -5.844336000000000E+01      4.507446000000000E-01     -4.315820000000000E+01
4480000000.000000      3.683777000000000E-01     -6.487499000000000E+01      5.610657000000000E-01     -5.524219000000000E+01
4500000000.000000      3.467407000000000E-01     -7.147655000000000E+01      6.410522000000000E-01     -6.661718000000000E+01
4520000000.000000      3.142700000000000E-01     -7.924999000000000E+01      7.145691000000000E-01     -7.960938000000000E+01
4540000000.000000      2.631378000000000E-01     -8.557812000000000E+01      7.418213000000000E-01     -9.424999000000000E+01
4560000000.000000      2.019119000000000E-01     -8.401562000000000E+01      7.302551000000000E-01     -1.074922000000000E+02
4580000000.000000      1.740875000000000E-01     -6.822266000000000E+01      6.920471000000000E-01     -1.212695000000000E+02
4600000000.000000      2.104874000000000E-01     -5.382226000000000E+01      6.081848000000000E-01     -1.345391000000000E+02
4620000000.000000      2.759247000000000E-01     -5.514648000000000E+01      5.005493000000000E-01     -1.450000000000000E+02
4640000000.000000      3.300781000000000E-01     -6.493750000000000E+01      3.813171000000000E-01     -1.533750000000000E+02
4660000000.000000      3.544159000000000E-01     -7.816015000000000E+01      2.474213000000000E-01     -1.519375000000000E+02
4680000000.000000      3.464661000000000E-01     -9.214844000000000E+01      1.786880000000000E-01     -1.241367000000000E+02
4700000000.000000      3.097534000000000E-01     -1.054805000000000E+02      2.462921000000000E-01     -9.672655000000000E+01
4720000000.000000      2.539978000000000E-01     -1.161875000000000E+02      3.654480000000000E-01     -9.537500000000000E+01
4740000000.000000      1.917114000000000E-01     -1.214922000000000E+02      4.738770000000000E-01     -1.015664000000000E+02
4760000000.000000      1.391602000000000E-01     -1.179609000000000E+02      5.789490000000000E-01     -1.105391000000000E+02
4780000000.000000      1.122360000000000E-01     -1.019648000000000E+02      6.664124000000000E-01     -1.226328000000000E+02
4800000000.000000      1.177940000000000E-01     -8.367188000000000E+01      7.161865000000000E-01     -1.355859000000000E+02
4820000000.000000      1.458359000000000E-01     -7.412890000000000E+01      7.353516000000000E-01     -1.488359000000000E+02
4840000000.000000      1.863861000000000E-01     -7.361718000000000E+01      7.194519000000000E-01     -1.615469000000000E+02
4860000000.000000      2.304230000000000E-01     -8.005859000000000E+01      6.855164000000000E-01     -1.741406000000000E+02
4880000000.000000      2.675781000000000E-01     -9.046484000000000E+01      6.194153000000000E-01      1.719609000000000E+02
4900000000.000000      2.937775000000000E-01     -1.040156000000000E+02      4.969330000000000E-01      1.598516000000000E+02
4920000000.000000      3.000641000000000E-01     -1.190195000000000E+02      3.669128000000000E-01      1.535391000000000E+02
4940000000.000000      2.857666000000000E-01     -1.347031000000000E+02      2.539215000000000E-01      1.557266000000000E+02
4960000000.000000      2.552948000000000E-01     -1.500859000000000E+02      1.776810000000000E-01      1.767031000000000E+02
4980000000.000000      2.133484000000000E-01     -1.643828000000000E+02      2.131729000000000E-01     -1.514375000000000E+02
5000000000.000000      1.688614000000000E-01     -1.760547000000000E+02      3.278656000000000E-01     -1.436406000000000E+02
5020000000.000000      1.310349000000000E-01      1.740625000000000E+02      4.592438000000000E-01     -1.494531000000000E+02
5040000000.000000      1.006126000000000E-01      1.637422000000000E+02      5.679932000000000E-01     -1.602422000000000E+02
5060000000.000000      7.231903000000000E-02      1.488203000000000E+02      6.502075000000000E-01     -1.717813000000000E+02
5080000000.000000      4.215050000000000E-02      1.229140000000000E+02      7.171631000000000E-01      1.762266000000000E+02
5100000000.000000      1.741123000000000E-02      4.467773000000000E+01      7.566528000000000E-01      1.625000000000000E+02
5120000000.000000      4.026222000000000E-02     -5.049023000000000E+01      7.538147000000000E-01      1.481406000000000E+02
5140000000.000000      7.279587000000000E-02     -8.715624000000000E+01      7.052917000000000E-01      1.345547000000000E+02
5160000000.000000      9.577179000000000E-02     -1.182305000000000E+02      6.304016000000000E-01      1.220078000000000E+02
5180000000.000000      1.093063000000000E-01     -1.489297000000000E+02      5.356750000000000E-01      1.108633000000000E+02
5200000000.000000      1.125221000000000E-01      1.783750000000000E+02      4.185791000000000E-01      1.011094000000000E+02
5220000000.000000      1.093864000000000E-01      1.422891000000000E+02      2.851105000000000E-01      9.808983000000000E+01
5240000000.000000      1.089973000000000E-01      1.062773000000000E+02      1.845627000000000E-01      1.148281000000000E+02
5260000000.000000      1.138382000000000E-01      7.269531000000000E+01      1.952744000000000E-01      1.491641000000000E+02
5280000000.000000      1.206779000000000E-01      4.622656000000000E+01      2.941895000000000E-01      1.606797000000000E+02
5300000000.000000      1.275177000000000E-01      2.524219000000000E+01      4.084167000000000E-01      1.582109000000000E+02
5320000000.000000      1.335373000000000E-01      8.698242000000000E+00      5.261536000000000E-01      1.507266000000000E+02
5340000000.000000      1.389694000000000E-01     -5.588135000000000E+00      6.378784000000000E-01      1.389141000000000E+02
5360000000.000000      1.431808000000000E-01     -2.111230000000000E+01      7.044983000000000E-01      1.242188000000000E+02
5380000000.000000      1.393204000000000E-01     -3.868555000000000E+01      7.179565000000000E-01      1.109375000000000E+02
5400000000.000000      1.204262000000000E-01     -5.675195000000000E+01      7.188721000000000E-01      9.916016000000000E+01
5420000000.000000      8.542633000000000E-02     -7.385156000000000E+01      7.059631000000000E-01      8.632813000000000E+01
5440000000.000000      3.101635000000000E-02     -7.907421000000000E+01      6.495972000000000E-01      7.178124000000000E+01
5460000000.000000      4.227066000000000E-02      3.893555000000000E+01      5.422058000000000E-01      5.862109000000000E+01
5480000000.000000      1.118317000000000E-01      3.135351000000000E+01      4.143524000000000E-01      4.940430000000000E+01
5500000000.000000      1.744156000000000E-01      1.596289000000000E+01      2.947388000000000E-01      4.724023000000000E+01
5520000000.000000      2.204361000000000E-01      9.365845000000000E-01      1.958694000000000E-01      5.855663000000000E+01
5540000000.000000      2.516632000000000E-01     -1.295020000000000E+01      1.799469000000000E-01      9.036718000000000E+01
5560000000.000000      2.702179000000000E-01     -2.485840000000000E+01      2.611084000000000E-01      1.087422000000000E+02
5580000000.000000      2.825012000000000E-01     -3.483007000000000E+01      3.820496000000000E-01      1.087344000000000E+02
5600000000.000000      2.939148000000000E-01     -4.372851000000000E+01      5.050354000000000E-01      9.975780000000000E+01
5620000000.000000      3.042450000000000E-01     -5.281640000000000E+01      5.953979000000000E-01      8.727734000000000E+01
5640000000.000000      3.079987000000000E-01     -6.258007000000000E+01      6.459656000000000E-01      7.535937000000000E+01
5660000000.000000      2.983398000000000E-01     -7.326953000000000E+01      6.848755000000000E-01      6.388085000000000E+01
5680000000.000000      2.693634000000000E-01     -8.366405000000000E+01      7.004395000000000E-01      5.132813000000000E+01
5700000000.000000      2.218399000000000E-01     -9.111719000000000E+01      6.828613000000000E-01      3.896875000000000E+01
5720000000.000000      1.715393000000000E-01     -8.993359000000000E+01      6.455688000000000E-01      2.609375000000000E+01
5740000000.000000      1.494370000000000E-01     -7.555859000000000E+01      5.683899000000000E-01      1.294287000000000E+01
5760000000.000000      1.775360000000000E-01     -6.368164000000000E+01      4.535065000000000E-01      1.347168000000000E+00
5780000000.000000      2.241287000000000E-01     -6.503124000000000E+01      3.184967000000000E-01     -3.806763000000000E+00
5800000000.000000      2.567291000000000E-01     -7.282812000000000E+01      2.093658000000000E-01      6.598633000000000E+00
5820000000.000000      2.663879000000000E-01     -8.228907000000000E+01      1.888962000000000E-01      3.699219000000000E+01
5840000000.000000      2.574463000000000E-01     -9.082422000000000E+01      2.695770000000000E-01      5.391992000000000E+01
5860000000.000000      2.392807000000000E-01     -9.651171000000000E+01      3.705902000000000E-01      5.409570000000000E+01
5880000000.000000      2.244568000000000E-01     -9.978905000000000E+01      4.768372000000000E-01      4.873241000000000E+01
5900000000.000000      2.169113000000000E-01     -1.022695000000000E+02      5.938416000000000E-01      3.881250000000000E+01
5920000000.000000      2.091446000000000E-01     -1.051211000000000E+02      6.713257000000000E-01      2.470410000000000E+01
5940000000.000000      1.948700000000000E-01     -1.070430000000000E+02      7.016296000000000E-01      1.146240000000000E+01
5960000000.000000      1.773987000000000E-01     -1.053008000000000E+02      7.150879000000000E-01     -1.219482000000000E+00
5980000000.000000      1.652679000000000E-01     -9.757421000000000E+01      6.930542000000000E-01     -1.525488000000000E+01
6000000000.000000      1.810455000000000E-01     -8.838282000000000E+01      6.296997000000000E-01     -2.886523000000000E+01
6020000000.000000      2.150803000000000E-01     -8.645702000000000E+01      5.313721000000000E-01     -4.160352000000000E+01
6040000000.000000      2.510681000000000E-01     -9.156250000000000E+01      4.014893000000000E-01     -4.984961000000000E+01
6060000000.000000      2.745056000000000E-01     -1.006406000000000E+02      2.873230000000000E-01     -4.979882000000000E+01
6080000000.000000      2.854919000000000E-01     -1.109101000000000E+02      2.058716000000000E-01     -3.650781000000000E+01
