! Network Analyzer HP8722D
! Hewlett-Packard
! Data name: Linha & Wilkinson+CNT
! Saver's name: Rodrigo Anjos
! Comments: Teste da utilização de aquisição
continua pelo VNA HP8722D
! Time and date: 29/9/2025 12:31
!              Frequency                     S11                                                   S21                                                   S12                                                   S22
# HZ  S  MA R 50
3000000000.000000      4.233856000000000E-01     -5.609765000000000E+01      2.072830000000000E-01     -1.313359000000000E+02
3020000000.000000      4.478607000000000E-01     -7.019921000000000E+01      3.500977000000000E-01     -1.348672000000000E+02
3040000000.000000      4.541779000000000E-01     -8.329687000000000E+01      4.682007000000000E-01     -1.449844000000000E+02
3060000000.000000      4.467926000000000E-01     -9.514452000000000E+01      5.716553000000000E-01     -1.550937000000000E+02
3080000000.000000      4.316101000000000E-01     -1.064141000000000E+02      6.722412000000000E-01     -1.682578000000000E+02
3100000000.000000      4.113312000000000E-01     -1.175156000000000E+02      7.235107000000000E-01      1.768828000000000E+02
3120000000.000000      3.828888000000000E-01     -1.294297000000000E+02      7.320862000000000E-01      1.635469000000000E+02
3140000000.000000      3.420715000000000E-01     -1.423828000000000E+02      7.243652000000000E-01      1.507500000000000E+02
3160000000.000000      2.819824000000000E-01     -1.560625000000000E+02      6.839905000000000E-01      1.370938000000000E+02
3180000000.000000      2.026520000000000E-01     -1.684141000000000E+02      6.127319000000000E-01      1.247070000000000E+02
3200000000.000000      1.150246000000000E-01     -1.688125000000000E+02      5.190430000000000E-01      1.118086000000000E+02
3220000000.000000      8.298492000000000E-02     -1.248594000000000E+02      3.862000000000000E-01      1.010898000000000E+02
3240000000.000000      1.534424000000000E-01     -1.055781000000000E+02      2.468796000000000E-01      9.965233000000000E+01
3260000000.000000      2.327194000000000E-01     -1.154023000000000E+02      1.475296000000000E-01      1.256172000000000E+02
3280000000.000000      2.908020000000000E-01     -1.308203000000000E+02      2.035446000000000E-01      1.655781000000000E+02
3300000000.000000      3.239899000000000E-01     -1.470312000000000E+02      3.301086000000000E-01      1.697891000000000E+02
3320000000.000000      3.356781000000000E-01     -1.627578000000000E+02      4.629822000000000E-01      1.627891000000000E+02
3340000000.000000      3.320923000000000E-01     -1.780391000000000E+02      5.752869000000000E-01      1.506641000000000E+02
3360000000.000000      3.194427000000000E-01      1.673594000000000E+02      6.479797000000000E-01      1.385937000000000E+02
3380000000.000000      3.022614000000000E-01      1.531953000000000E+02      7.091370000000000E-01      1.273359000000000E+02
3400000000.000000      2.790527000000000E-01      1.385859000000000E+02      7.584229000000000E-01      1.133320000000000E+02
3420000000.000000      2.434845000000000E-01      1.236797000000000E+02      7.492676000000000E-01      9.844530000000000E+01
3440000000.000000      1.892548000000000E-01      1.090234000000000E+02      7.059631000000000E-01      8.570704000000000E+01
3460000000.000000      1.186600000000000E-01      9.854296000000000E+01      6.474915000000000E-01      7.253906000000000E+01
3480000000.000000      4.771996000000000E-02      1.250117000000000E+02      5.495605000000000E-01      5.908984000000000E+01
3500000000.000000      9.524918000000000E-02     -1.730937000000000E+02      4.254150000000000E-01      4.778710000000000E+01
3520000000.000000      1.863403000000000E-01      1.798203000000000E+02      2.789307000000000E-01      4.058984000000000E+01
3540000000.000000      2.649689000000000E-01      1.634922000000000E+02      1.479721000000000E-01      5.862305000000000E+01
3560000000.000000      3.235321000000000E-01      1.464844000000000E+02      1.673737000000000E-01      1.076836000000000E+02
3580000000.000000      3.597260000000000E-01      1.303984000000000E+02      2.949371000000000E-01      1.175742000000000E+02
3600000000.000000      3.759613000000000E-01      1.157851000000000E+02      4.198456000000000E-01      1.107734000000000E+02
3620000000.000000      3.774719000000000E-01      1.029766000000000E+02      5.226746000000000E-01      1.012539000000000E+02
3640000000.000000      3.677216000000000E-01      9.175390000000000E+01      6.219482000000000E-01      9.017969000000000E+01
3660000000.000000      3.507843000000000E-01      8.142187000000000E+01      6.932983000000000E-01      7.592968000000000E+01
3680000000.000000      3.277740000000000E-01      7.212500000000000E+01      7.118835000000000E-01      6.272655000000000E+01
3700000000.000000      2.968903000000000E-01      6.384960000000000E+01      7.225952000000000E-01      5.122265000000000E+01
3720000000.000000      2.527618000000000E-01      5.760156000000000E+01      7.249451000000000E-01      3.693554000000000E+01
3740000000.000000      2.017212000000000E-01      5.845508000000000E+01      6.647949000000000E-01      2.155566000000000E+01
3760000000.000000      1.753159000000000E-01      7.273828000000000E+01      5.662537000000000E-01      7.061279000000000E+00
3780000000.000000      2.098541000000000E-01      8.790234000000000E+01      4.355621000000000E-01     -5.846191000000000E+00
3800000000.000000      2.806091000000000E-01      8.941797000000000E+01      2.824097000000000E-01     -1.330615000000000E+01
3820000000.000000      3.484344000000000E-01      8.287109000000000E+01      1.540909000000000E-01     -1.785278000000000E-01
3840000000.000000      3.987885000000000E-01      7.401172000000000E+01      1.437378000000000E-01      4.796875000000000E+01
3860000000.000000      4.334564000000000E-01      6.542578000000000E+01      2.467728000000000E-01      6.546093000000000E+01
3880000000.000000      4.586639000000000E-01      5.785351000000000E+01      3.766174000000000E-01      6.119141000000000E+01
3900000000.000000      4.873962000000000E-01      5.068554000000000E+01      4.776764000000000E-01      4.776172000000000E+01
3920000000.000000      5.187378000000000E-01      4.301367000000000E+01      5.092163000000000E-01      3.603906000000000E+01
3940000000.000000      5.458984000000000E-01      3.395312000000000E+01      5.399170000000000E-01      2.952343000000000E+01
3960000000.000000      5.578003000000000E-01      2.381836000000000E+01      5.966187000000000E-01      2.001563000000000E+01
3980000000.000000      5.519714000000000E-01      1.324365000000000E+01      5.978394000000000E-01      8.208008000000000E+00
4000000000.000000      5.260010000000000E-01      2.933350000000000E+00      5.810852000000000E-01      1.389771000000000E+00
4020000000.000000      4.828644000000000E-01     -7.082275000000000E+00      5.974121000000000E-01     -6.483398000000000E+00
4040000000.000000      4.241943000000000E-01     -1.602148000000000E+01      5.852356000000000E-01     -1.875098000000000E+01
4060000000.000000      3.485870000000000E-01     -2.223828000000000E+01      5.266724000000000E-01     -2.891602000000000E+01
4080000000.000000      2.741394000000000E-01     -2.224414000000000E+01      4.673920000000000E-01     -3.829102000000000E+01
4100000000.000000      2.281036000000000E-01     -1.177734000000000E+01      3.663177000000000E-01     -4.749413000000000E+01
4120000000.000000      2.412567000000000E-01      1.308716000000000E+00      2.494965000000000E-01     -4.405859000000000E+01
4140000000.000000      2.891541000000000E-01      4.670410000000000E+00      2.033310000000000E-01     -1.978418000000000E+01
4160000000.000000      3.335419000000000E-01      6.083679000000000E-01      2.638245000000000E-01     -4.943848000000000E-02
4180000000.000000      3.611450000000000E-01     -6.226563000000000E+00      3.576050000000000E-01      3.912476000000000E+00
4200000000.000000      3.712311000000000E-01     -1.402002000000000E+01      4.878387000000000E-01      1.360901000000000E+00
4220000000.000000      3.669586000000000E-01     -2.125195000000000E+01      6.403809000000000E-01     -1.097852000000000E+01
4240000000.000000      3.476257000000000E-01     -2.873535000000000E+01      7.228699000000000E-01     -2.758691000000000E+01
4260000000.000000      3.098145000000000E-01     -3.457812000000000E+01      7.427979000000000E-01     -4.165625000000000E+01
4280000000.000000      2.599182000000000E-01     -3.591601000000000E+01      7.520447000000000E-01     -5.562109000000000E+01
4300000000.000000      2.228851000000000E-01     -2.764160000000000E+01      7.141113000000000E-01     -7.057812000000000E+01
4320000000.000000      2.362518000000000E-01     -1.501172000000000E+01      6.327209000000000E-01     -8.510157000000000E+01
4340000000.000000      2.937317000000000E-01     -1.102344000000000E+01      5.148926000000000E-01     -9.778124000000000E+01
4360000000.000000      3.589020000000000E-01     -1.595361000000000E+01      3.812714000000000E-01     -1.067383000000000E+02
4380000000.000000      4.057617000000000E-01     -2.491015000000000E+01      2.495651000000000E-01     -1.079609000000000E+02
4400000000.000000      4.268799000000000E-01     -3.481836000000000E+01      1.538849000000000E-01     -8.500780000000000E+01
4420000000.000000      4.255066000000000E-01     -4.418359000000000E+01      1.876297000000000E-01     -4.547265000000000E+01
4440000000.000000      4.095306000000000E-01     -5.233788000000000E+01      3.101044000000000E-01     -3.602734000000000E+01
4460000000.000000      3.880463000000000E-01     -5.872070000000000E+01      4.520569000000000E-01     -4.317383000000000E+01
4480000000.000000      3.692780000000000E-01     -6.501953000000000E+01      5.609131000000000E-01     -5.523438000000000E+01
4500000000.000000      3.477173000000000E-01     -7.172656000000000E+01      6.423645000000000E-01     -6.689453000000000E+01
4520000000.000000      3.148346000000000E-01     -7.919922000000000E+01      7.153320000000000E-01     -7.970703000000000E+01
4540000000.000000      2.639160000000000E-01     -8.528515000000000E+01      7.411194000000000E-01     -9.433985000000000E+01
4560000000.000000      2.035217000000000E-01     -8.351563000000000E+01      7.295227000000000E-01     -1.074492000000000E+02
4580000000.000000      1.770401000000000E-01     -6.803124000000000E+01      6.913452000000000E-01     -1.213906000000000E+02
4600000000.000000      2.143021000000000E-01     -5.424218000000000E+01      6.057129000000000E-01     -1.346250000000000E+02
4620000000.000000      2.792206000000000E-01     -5.555859000000000E+01      4.982147000000000E-01     -1.450391000000000E+02
4640000000.000000      3.331604000000000E-01     -6.532812000000000E+01      3.786163000000000E-01     -1.531563000000000E+02
4660000000.000000      3.572540000000000E-01     -7.842578000000000E+01      2.461472000000000E-01     -1.515859000000000E+02
4680000000.000000      3.489075000000000E-01     -9.228125000000000E+01      1.788177000000000E-01     -1.233203000000000E+02
4700000000.000000      3.118439000000000E-01     -1.052773000000000E+02      2.479858000000000E-01     -9.642967000000000E+01
4720000000.000000      2.554016000000000E-01     -1.157305000000000E+02      3.668365000000000E-01     -9.526562000000000E+01
4740000000.000000      1.929779000000000E-01     -1.208945000000000E+02      4.739532000000000E-01     -1.015820000000000E+02
4760000000.000000      1.413879000000000E-01     -1.169375000000000E+02      5.791626000000000E-01     -1.103555000000000E+02
4780000000.000000      1.154060000000000E-01     -1.010859000000000E+02      6.661072000000000E-01     -1.228320000000000E+02
4800000000.000000      1.215401000000000E-01     -8.383593000000000E+01      7.163086000000000E-01     -1.355000000000000E+02
4820000000.000000      1.510544000000000E-01     -7.484375000000000E+01      7.348328000000000E-01     -1.489219000000000E+02
4840000000.000000      1.907043000000000E-01     -7.430078000000000E+01      7.183838000000000E-01     -1.616719000000000E+02
4860000000.000000      2.340927000000000E-01     -8.064453000000000E+01      6.833496000000000E-01     -1.740547000000000E+02
4880000000.000000      2.708588000000000E-01     -9.084375000000000E+01      6.171570000000000E-01      1.722031000000000E+02
4900000000.000000      2.964935000000000E-01     -1.041445000000000E+02      4.962463000000000E-01      1.599844000000000E+02
4920000000.000000      3.021851000000000E-01     -1.190781000000000E+02      3.652344000000000E-01      1.539297000000000E+02
4940000000.000000      2.877045000000000E-01     -1.345391000000000E+02      2.519836000000000E-01      1.561484000000000E+02
4960000000.000000      2.564240000000000E-01     -1.495156000000000E+02      1.773148000000000E-01      1.776094000000000E+02
4980000000.000000      2.137146000000000E-01     -1.634609000000000E+02      2.146759000000000E-01     -1.511016000000000E+02
5000000000.000000      1.687164000000000E-01     -1.749375000000000E+02      3.304291000000000E-01     -1.435156000000000E+02
5020000000.000000      1.306458000000000E-01      1.755156000000000E+02      4.601746000000000E-01     -1.494844000000000E+02
5040000000.000000      9.990311000000000E-02      1.657344000000000E+02      5.703735000000000E-01     -1.602266000000000E+02
5060000000.000000      7.104111000000000E-02      1.514844000000000E+02      6.513977000000000E-01     -1.717344000000000E+02
5080000000.000000      4.003716000000000E-02      1.272734000000000E+02      7.189331000000000E-01      1.761328000000000E+02
5100000000.000000      1.417685000000000E-02      4.046484000000000E+01      7.568359000000000E-01      1.623672000000000E+02
5120000000.000000      4.130173000000000E-02     -5.416016000000000E+01      7.517395000000000E-01      1.482188000000000E+02
5140000000.000000      7.391357000000000E-02     -8.827734000000000E+01      7.028809000000000E-01      1.345547000000000E+02
5160000000.000000      9.783173000000000E-02     -1.185898000000000E+02      6.289673000000000E-01      1.222617000000000E+02
5180000000.000000      1.105690000000000E-01     -1.483750000000000E+02      5.341492000000000E-01      1.108359000000000E+02
5200000000.000000      1.121292000000000E-01      1.789453000000000E+02      4.158325000000000E-01      1.012500000000000E+02
5220000000.000000      1.083794000000000E-01      1.431406000000000E+02      2.836304000000000E-01      9.856640000000000E+01
5240000000.000000      1.064720000000000E-01      1.063125000000000E+02      1.841736000000000E-01      1.155391000000000E+02
5260000000.000000      1.107101000000000E-01      7.257813000000000E+01      1.966400000000000E-01      1.494688000000000E+02
5280000000.000000      1.184006000000000E-01      4.519727000000000E+01      2.967377000000000E-01      1.607188000000000E+02
5300000000.000000      1.255493000000000E-01      2.460058000000000E+01      4.105530000000000E-01      1.581719000000000E+02
5320000000.000000      1.316223000000000E-01      7.899170000000000E+00      5.277405000000000E-01      1.506719000000000E+02
5340000000.000000      1.378860000000000E-01     -6.375000000000000E+00      6.377869000000000E-01      1.387187000000000E+02
5360000000.000000      1.430969000000000E-01     -2.187988000000000E+01      7.068787000000000E-01      1.242148000000000E+02
5380000000.000000      1.392059000000000E-01     -3.916211000000000E+01      7.168274000000000E-01      1.108945000000000E+02
5400000000.000000      1.211357000000000E-01     -5.677343000000000E+01      7.181396000000000E-01      9.926952000000000E+01
5420000000.000000      8.628845000000000E-02     -7.382030000000000E+01      7.035522000000000E-01      8.607422000000000E+01
5440000000.000000      3.265572000000000E-02     -7.801562000000000E+01      6.475220000000000E-01      7.171875000000000E+01
5460000000.000000      4.151535000000000E-02      3.698828000000000E+01      5.383606000000000E-01      5.876758000000000E+01
5480000000.000000      1.111870000000000E-01      3.009472000000000E+01      4.118958000000000E-01      4.942968000000000E+01
5500000000.000000      1.738434000000000E-01      1.497412000000000E+01      2.928467000000000E-01      4.740234000000000E+01
5520000000.000000      2.206039000000000E-01     -2.059937000000000E-02      1.950607000000000E-01      5.912499000000000E+01
5540000000.000000      2.518463000000000E-01     -1.383057000000000E+01      1.808929000000000E-01      9.089453000000000E+01
5560000000.000000      2.705994000000000E-01     -2.555566000000000E+01      2.628326000000000E-01      1.088867000000000E+02
5580000000.000000      2.831726000000000E-01     -3.525586000000000E+01      3.844910000000000E-01      1.086719000000000E+02
5600000000.000000      2.950897000000000E-01     -4.409961000000000E+01      5.067444000000000E-01      9.965624000000000E+01
5620000000.000000      3.060913000000000E-01     -5.310741000000000E+01      5.951233000000000E-01      8.729296000000000E+01
5640000000.000000      3.094940000000000E-01     -6.273632000000000E+01      6.463318000000000E-01      7.530078000000000E+01
5660000000.000000      3.009644000000000E-01     -7.336328000000000E+01      6.848450000000000E-01      6.396289000000000E+01
5680000000.000000      2.721100000000000E-01     -8.373047000000000E+01      6.970825000000000E-01      5.126367000000000E+01
5700000000.000000      2.254562000000000E-01     -9.110155000000000E+01      6.825867000000000E-01      3.893359000000000E+01
5720000000.000000      1.747665000000000E-01     -9.005468000000000E+01      6.431885000000000E-01      2.631152000000000E+01
5740000000.000000      1.529694000000000E-01     -7.584374000000000E+01      5.654907000000000E-01      1.301318000000000E+01
5760000000.000000      1.804733000000000E-01     -6.423828000000000E+01      4.503326000000000E-01      1.529846000000000E+00
5780000000.000000      2.267303000000000E-01     -6.555859000000000E+01      3.166199000000000E-01     -3.812256000000000E+00
5800000000.000000      2.587280000000000E-01     -7.318359000000000E+01      2.077408000000000E-01      7.172607000000000E+00
5820000000.000000      2.691345000000000E-01     -8.262110000000000E+01      1.894913000000000E-01      3.768945000000000E+01
5840000000.000000      2.592468000000000E-01     -9.088282000000000E+01      2.711945000000000E-01      5.419140000000000E+01
5860000000.000000      2.419891000000000E-01     -9.655077000000000E+01      3.724213000000000E-01      5.421484000000000E+01
5880000000.000000      2.280655000000000E-01     -9.972265000000000E+01      4.775848000000000E-01      4.893164000000000E+01
5900000000.000000      2.204361000000000E-01     -1.020273000000000E+02      5.954285000000000E-01      3.866211000000000E+01
5920000000.000000      2.129745000000000E-01     -1.048750000000000E+02      6.714783000000000E-01      2.475293000000000E+01
5940000000.000000      1.986923000000000E-01     -1.070117000000000E+02      7.004395000000000E-01      1.161084000000000E+01
5960000000.000000      1.801071000000000E-01     -1.053984000000000E+02      7.131958000000000E-01     -1.160461000000000E+00
5980000000.000000      1.683350000000000E-01     -9.765234000000000E+01      6.917114000000000E-01     -1.524658000000000E+01
6000000000.000000      1.830215000000000E-01     -8.858202000000000E+01      6.290894000000000E-01     -2.860644000000000E+01
6020000000.000000      2.182388000000000E-01     -8.662500000000000E+01      5.294495000000000E-01     -4.135156000000000E+01
6040000000.000000      2.544403000000000E-01     -9.169140000000000E+01      4.006195000000000E-01     -4.962695000000000E+01
6060000000.000000      2.788696000000000E-01     -1.007500000000000E+02      2.855988000000000E-01     -4.936523000000000E+01
6080000000.000000      2.893982000000000E-01     -1.108476000000000E+02      2.057343000000000E-01     -3.553125000000000E+01
