! Network Analyzer HP8722D
! Hewlett-Packard
! Data name: Linha & Wilkinson+CNT
! Saver's name: Rodrigo Anjos
! Comments: Teste da utilização de aquisição
continua pelo VNA HP8722D
! Time and date: 29/9/2025 14:49
!              Frequency                     S11                                                   S21                                                   S12                                                   S22
# HZ  S  MA R 50
3000000000.000000      4.259491000000000E-01     -5.568554000000000E+01      2.084427000000000E-01     -1.315391000000000E+02
3020000000.000000      4.494781000000000E-01     -6.990624000000000E+01      3.509827000000000E-01     -1.350469000000000E+02
3040000000.000000      4.532928000000000E-01     -8.296875000000000E+01      4.686127000000000E-01     -1.449609000000000E+02
3060000000.000000      4.450226000000000E-01     -9.500391000000000E+01      5.717163000000000E-01     -1.552656000000000E+02
3080000000.000000      4.290466000000000E-01     -1.062695000000000E+02      6.744385000000000E-01     -1.683906000000000E+02
3100000000.000000      4.085846000000000E-01     -1.175000000000000E+02      7.246399000000000E-01      1.768125000000000E+02
3120000000.000000      3.796234000000000E-01     -1.294219000000000E+02      7.317810000000000E-01      1.633203000000000E+02
3140000000.000000      3.378754000000000E-01     -1.424687000000000E+02      7.243042000000000E-01      1.504297000000000E+02
3160000000.000000      2.785187000000000E-01     -1.565000000000000E+02      6.824341000000000E-01      1.369531000000000E+02
3180000000.000000      1.985016000000000E-01     -1.690547000000000E+02      6.131287000000000E-01      1.242695000000000E+02
3200000000.000000      1.110268000000000E-01     -1.696172000000000E+02      5.186768000000000E-01      1.115469000000000E+02
3220000000.000000      7.988358000000000E-02     -1.239101000000000E+02      3.851624000000000E-01      1.008242000000000E+02
3240000000.000000      1.512985000000000E-01     -1.049531000000000E+02      2.458572000000000E-01      9.960938000000000E+01
3260000000.000000      2.307739000000000E-01     -1.152344000000000E+02      1.467514000000000E-01      1.259297000000000E+02
3280000000.000000      2.876587000000000E-01     -1.309687000000000E+02      2.041245000000000E-01      1.654453000000000E+02
3300000000.000000      3.202820000000000E-01     -1.473203000000000E+02      3.310852000000000E-01      1.695703000000000E+02
3320000000.000000      3.314362000000000E-01     -1.631875000000000E+02      4.638977000000000E-01      1.625859000000000E+02
3340000000.000000      3.280792000000000E-01     -1.786016000000000E+02      5.737305000000000E-01      1.503750000000000E+02
3360000000.000000      3.167419000000000E-01      1.666875000000000E+02      6.462402000000000E-01      1.383203000000000E+02
3380000000.000000      3.000793000000000E-01      1.523594000000000E+02      7.107544000000000E-01      1.269648000000000E+02
3400000000.000000      2.780151000000000E-01      1.377187000000000E+02      7.576294000000000E-01      1.131094000000000E+02
3420000000.000000      2.428741000000000E-01      1.227266000000000E+02      7.472839000000000E-01      9.842968000000000E+01
3440000000.000000      1.896667000000000E-01      1.078828000000000E+02      7.041626000000000E-01      8.546875000000000E+01
3460000000.000000      1.189880000000000E-01      9.739843000000000E+01      6.459656000000000E-01      7.242578000000000E+01
3480000000.000000      4.761696000000000E-02      1.217383000000000E+02      5.489197000000000E-01      5.894140000000000E+01
3500000000.000000      9.327316000000000E-02     -1.742969000000000E+02      4.224396000000000E-01      4.745117000000000E+01
3520000000.000000      1.847763000000000E-01      1.789531000000000E+02      2.777863000000000E-01      4.046679000000000E+01
3540000000.000000      2.635956000000000E-01      1.627344000000000E+02      1.467209000000000E-01      5.866405000000000E+01
3560000000.000000      3.231201000000000E-01      1.457109000000000E+02      1.675644000000000E-01      1.078945000000000E+02
3580000000.000000      3.599091000000000E-01      1.297031000000000E+02      2.952881000000000E-01      1.174336000000000E+02
3600000000.000000      3.761444000000000E-01      1.151484000000000E+02      4.201508000000000E-01      1.105312000000000E+02
3620000000.000000      3.779907000000000E-01      1.025117000000000E+02      5.224304000000000E-01      1.010547000000000E+02
3640000000.000000      3.688660000000000E-01      9.123047000000000E+01      6.231384000000000E-01      8.989452000000000E+01
3660000000.000000      3.521423000000000E-01      8.107422000000000E+01      6.933899000000000E-01      7.561328000000000E+01
3680000000.000000      3.291626000000000E-01      7.179688000000000E+01      7.103271000000000E-01      6.258789000000000E+01
3700000000.000000      2.988434000000000E-01      6.360352000000000E+01      7.208557000000000E-01      5.085546000000000E+01
3720000000.000000      2.547455000000000E-01      5.762304000000000E+01      7.234802000000000E-01      3.660156000000000E+01
3740000000.000000      2.044754000000000E-01      5.846484000000000E+01      6.629333000000000E-01      2.129687000000000E+01
3760000000.000000      1.779099000000000E-01      7.258203000000000E+01      5.648804000000000E-01      6.928223000000000E+00
3780000000.000000      2.118912000000000E-01      8.752733000000000E+01      4.347534000000000E-01     -6.133301000000000E+00
3800000000.000000      2.828674000000000E-01      8.905859000000000E+01      2.806396000000000E-01     -1.344873000000000E+01
3820000000.000000      3.503571000000000E-01      8.256250000000000E+01      1.528625000000000E-01     -6.591797000000000E-02
3840000000.000000      4.008942000000000E-01      7.382421000000000E+01      1.437531000000000E-01      4.803905000000000E+01
3860000000.000000      4.357147000000000E-01      6.530078000000000E+01      2.465897000000000E-01      6.536718000000000E+01
3880000000.000000      4.608765000000000E-01      5.778125000000000E+01      3.769226000000000E-01      6.110546000000000E+01
3900000000.000000      4.895630000000000E-01      5.074023000000000E+01      4.776764000000000E-01      4.759375000000000E+01
3920000000.000000      5.207214000000000E-01      4.296094000000000E+01      5.088196000000000E-01      3.587305000000000E+01
3940000000.000000      5.490112000000000E-01      3.424023000000000E+01      5.399780000000000E-01      2.943848000000000E+01
3960000000.000000      5.585327000000000E-01      2.403027000000000E+01      5.940247000000000E-01      2.003027000000000E+01
3980000000.000000      5.540771000000000E-01      1.354199000000000E+01      5.975037000000000E-01      8.180664000000000E+00
4000000000.000000      5.263367000000000E-01      3.021240000000000E+00      5.803528000000000E-01      1.186523000000000E+00
4020000000.000000      4.838715000000000E-01     -6.845947000000000E+00      5.976257000000000E-01     -6.653809000000000E+00
4040000000.000000      4.241943000000000E-01     -1.570508000000000E+01      5.848083000000000E-01     -1.889844000000000E+01
4060000000.000000      3.484344000000000E-01     -2.180469000000000E+01      5.275879000000000E-01     -2.902344000000000E+01
4080000000.000000      2.745819000000000E-01     -2.160351000000000E+01      4.672241000000000E-01     -3.835351000000000E+01
4100000000.000000      2.287369000000000E-01     -1.115674000000000E+01      3.659668000000000E-01     -4.737305000000000E+01
4120000000.000000      2.421951000000000E-01      1.952820000000000E+00      2.489700000000000E-01     -4.415235000000000E+01
4140000000.000000      2.898865000000000E-01      5.157959000000000E+00      2.030563000000000E-01     -1.970410000000000E+01
4160000000.000000      3.340607000000000E-01      8.816528000000000E-01      2.645874000000000E-01     -3.021240000000000E-02
4180000000.000000      3.614807000000000E-01     -5.910645000000000E+00      3.587646000000000E-01      3.828735000000000E+00
4200000000.000000      3.717194000000000E-01     -1.364941000000000E+01      4.895935000000000E-01      1.278503000000000E+00
4220000000.000000      3.672333000000000E-01     -2.090039000000000E+01      6.426392000000000E-01     -1.116797000000000E+01
4240000000.000000      3.479919000000000E-01     -2.835644000000000E+01      7.219543000000000E-01     -2.784961000000000E+01
4260000000.000000      3.087769000000000E-01     -3.416992000000000E+01      7.429199000000000E-01     -4.201172000000000E+01
4280000000.000000      2.591400000000000E-01     -3.528125000000000E+01      7.499084000000000E-01     -5.582617000000000E+01
4300000000.000000      2.220306000000000E-01     -2.716406000000000E+01      7.137451000000000E-01     -7.080468000000000E+01
4320000000.000000      2.360077000000000E-01     -1.448291000000000E+01      6.315002000000000E-01     -8.523046000000000E+01
4340000000.000000      2.940216000000000E-01     -1.051709000000000E+01      5.155029000000000E-01     -9.787889000000000E+01
4360000000.000000      3.590546000000000E-01     -1.563770000000000E+01      3.805542000000000E-01     -1.070586000000000E+02
4380000000.000000      4.054260000000000E-01     -2.466211000000000E+01      2.486954000000000E-01     -1.079531000000000E+02
4400000000.000000      4.261017000000000E-01     -3.455078000000000E+01      1.533813000000000E-01     -8.474609000000000E+01
4420000000.000000      4.241486000000000E-01     -4.401172000000000E+01      1.885910000000000E-01     -4.533593000000000E+01
4440000000.000000      4.081879000000000E-01     -5.196484000000000E+01      3.111572000000000E-01     -3.614258000000000E+01
4460000000.000000      3.868408000000000E-01     -5.869335000000000E+01      4.538269000000000E-01     -4.331640000000000E+01
4480000000.000000      3.677216000000000E-01     -6.482031000000000E+01      5.620117000000000E-01     -5.548828000000000E+01
4500000000.000000      3.466797000000000E-01     -7.170312000000000E+01      6.420593000000000E-01     -6.691796000000000E+01
4520000000.000000      3.127594000000000E-01     -7.935937000000000E+01      7.153625000000000E-01     -7.981640000000000E+01
4540000000.000000      2.614288000000000E-01     -8.549608000000000E+01      7.418518000000000E-01     -9.447657000000000E+01
4560000000.000000      2.008057000000000E-01     -8.373438000000000E+01      7.287598000000000E-01     -1.077851000000000E+02
4580000000.000000      1.744537000000000E-01     -6.754687000000000E+01      6.898804000000000E-01     -1.215586000000000E+02
4600000000.000000      2.122192000000000E-01     -5.370117000000000E+01      6.051636000000000E-01     -1.348359000000000E+02
4620000000.000000      2.766266000000000E-01     -5.523242000000000E+01      4.989777000000000E-01     -1.451875000000000E+02
4640000000.000000      3.309174000000000E-01     -6.523046000000000E+01      3.783569000000000E-01     -1.533984000000000E+02
4660000000.000000      3.544769000000000E-01     -7.848046000000000E+01      2.454987000000000E-01     -1.516641000000000E+02
4680000000.000000      3.456726000000000E-01     -9.242188000000000E+01      1.792297000000000E-01     -1.231211000000000E+02
4700000000.000000      3.083191000000000E-01     -1.055898000000000E+02      2.491379000000000E-01     -9.642578000000000E+01
4720000000.000000      2.527313000000000E-01     -1.161406000000000E+02      3.672485000000000E-01     -9.556641000000000E+01
4740000000.000000      1.902847000000000E-01     -1.213359000000000E+02      4.750366000000000E-01     -1.017969000000000E+02
4760000000.000000      1.385727000000000E-01     -1.175391000000000E+02      5.800781000000000E-01     -1.107344000000000E+02
4780000000.000000      1.124458000000000E-01     -1.012070000000000E+02      6.671143000000000E-01     -1.230781000000000E+02
4800000000.000000      1.182022000000000E-01     -8.371874000000000E+01      7.168579000000000E-01     -1.358828000000000E+02
4820000000.000000      1.469040000000000E-01     -7.387890000000000E+01      7.360840000000000E-01     -1.490703000000000E+02
4840000000.000000      1.879501000000000E-01     -7.389062000000000E+01      7.177429000000000E-01     -1.618203000000000E+02
4860000000.000000      2.307205000000000E-01     -8.036327000000000E+01      6.837463000000000E-01     -1.744141000000000E+02
4880000000.000000      2.691193000000000E-01     -9.087109000000000E+01      6.144104000000000E-01      1.718203000000000E+02
4900000000.000000      2.938538000000000E-01     -1.043828000000000E+02      4.937134000000000E-01      1.597891000000000E+02
4920000000.000000      3.002472000000000E-01     -1.194336000000000E+02      3.648834000000000E-01      1.534453000000000E+02
4940000000.000000      2.850952000000000E-01     -1.351406000000000E+02      2.513275000000000E-01      1.560781000000000E+02
4960000000.000000      2.541199000000000E-01     -1.504375000000000E+02      1.768265000000000E-01      1.775547000000000E+02
4980000000.000000      2.123337000000000E-01     -1.644453000000000E+02      2.149124000000000E-01     -1.510391000000000E+02
5000000000.000000      1.678467000000000E-01     -1.761484000000000E+02      3.318176000000000E-01     -1.435313000000000E+02
5020000000.000000      1.299973000000000E-01      1.736250000000000E+02      4.614563000000000E-01     -1.496875000000000E+02
5040000000.000000      9.970093000000000E-02      1.634844000000000E+02      5.709534000000000E-01     -1.606250000000000E+02
5060000000.000000      7.188416000000000E-02      1.485156000000000E+02      6.506042000000000E-01     -1.720547000000000E+02
5080000000.000000      4.165649000000000E-02      1.229023000000000E+02      7.191772000000000E-01      1.758516000000000E+02
5100000000.000000      1.698303000000000E-02      4.061913000000000E+01      7.561340000000000E-01      1.621562000000000E+02
5120000000.000000      4.137421000000000E-02     -5.186523000000000E+01      7.524109000000000E-01      1.478516000000000E+02
5140000000.000000      7.303619000000000E-02     -8.771093000000000E+01      7.026672000000000E-01      1.341875000000000E+02
5160000000.000000      9.645844000000000E-02     -1.192266000000000E+02      6.256714000000000E-01      1.218398000000000E+02
5180000000.000000      1.093903000000000E-01     -1.496875000000000E+02      5.312500000000000E-01      1.106211000000000E+02
5200000000.000000      1.123276000000000E-01      1.774844000000000E+02      4.143524000000000E-01      1.010898000000000E+02
5220000000.000000      1.096916000000000E-01      1.414687000000000E+02      2.817383000000000E-01      9.828125000000000E+01
5240000000.000000      1.087685000000000E-01      1.053711000000000E+02      1.831131000000000E-01      1.156445000000000E+02
5260000000.000000      1.134529000000000E-01      7.203515000000000E+01      1.975937000000000E-01      1.496094000000000E+02
5280000000.000000      1.207542000000000E-01      4.548437000000000E+01      2.978210000000000E-01      1.606016000000000E+02
5300000000.000000      1.275177000000000E-01      2.494238000000000E+01      4.112549000000000E-01      1.579687000000000E+02
5320000000.000000      1.335144000000000E-01      8.361816000000000E+00      5.297852000000000E-01      1.502656000000000E+02
5340000000.000000      1.386871000000000E-01     -5.940918000000000E+00      6.398926000000000E-01      1.383828000000000E+02
5360000000.000000      1.431198000000000E-01     -2.143652000000000E+01      7.060547000000000E-01      1.238164000000000E+02
5380000000.000000      1.382446000000000E-01     -3.905273000000000E+01      7.164612000000000E-01      1.105547000000000E+02
5400000000.000000      1.194763000000000E-01     -5.714453000000000E+01      7.176819000000000E-01      9.879295000000000E+01
5420000000.000000      8.408356000000000E-02     -7.418359000000000E+01      7.052307000000000E-01      8.576172000000000E+01
5440000000.000000      3.017712000000000E-02     -7.760547000000000E+01      6.455994000000000E-01      7.143359000000000E+01
5460000000.000000      4.390526000000000E-02      3.877344000000000E+01      5.374146000000000E-01      5.834179000000000E+01
5480000000.000000      1.134109000000000E-01      3.079102000000000E+01      4.109039000000000E-01      4.932422000000000E+01
5500000000.000000      1.760025000000000E-01      1.548242000000000E+01      2.909241000000000E-01      4.734179000000000E+01
5520000000.000000      2.209167000000000E-01      4.902649000000000E-01      1.947556000000000E-01      5.934375000000000E+01
5540000000.000000      2.520599000000000E-01     -1.324023000000000E+01      1.816559000000000E-01      9.121485000000000E+01
5560000000.000000      2.706451000000000E-01     -2.516016000000000E+01      2.637634000000000E-01      1.088398000000000E+02
5580000000.000000      2.828217000000000E-01     -3.506250000000000E+01      3.856049000000000E-01      1.084805000000000E+02
5600000000.000000      2.940063000000000E-01     -4.390429000000000E+01      5.074768000000000E-01      9.953125000000000E+01
5620000000.000000      3.042145000000000E-01     -5.301171000000000E+01      5.973816000000000E-01      8.694921000000000E+01
5640000000.000000      3.077240000000000E-01     -6.282812000000000E+01      6.468811000000000E-01      7.496484000000000E+01
5660000000.000000      2.980499000000000E-01     -7.350390000000000E+01      6.846924000000000E-01      6.372851000000000E+01
5680000000.000000      2.680817000000000E-01     -8.390234000000000E+01      6.984253000000000E-01      5.098046000000000E+01
5700000000.000000      2.206497000000000E-01     -9.112499000000000E+01      6.839905000000000E-01      3.867188000000000E+01
5720000000.000000      1.701050000000000E-01     -8.962891000000000E+01      6.415710000000000E-01      2.565234000000000E+01
5740000000.000000      1.500549000000000E-01     -7.507813000000000E+01      5.643005000000000E-01      1.280859000000000E+01
5760000000.000000      1.791153000000000E-01     -6.358593000000000E+01      4.480133000000000E-01      9.915161000000000E-01
5780000000.000000      2.252121000000000E-01     -6.523046000000000E+01      3.153534000000000E-01     -3.853516000000000E+00
5800000000.000000      2.576752000000000E-01     -7.318749000000000E+01      2.073364000000000E-01      7.252197000000000E+00
5820000000.000000      2.664490000000000E-01     -8.258593000000000E+01      1.901932000000000E-01      3.812109000000000E+01
5840000000.000000      2.568207000000000E-01     -9.106249000000000E+01      2.722015000000000E-01      5.417187000000000E+01
5860000000.000000      2.386932000000000E-01     -9.656639000000000E+01      3.734131000000000E-01      5.389257000000000E+01
5880000000.000000      2.237854000000000E-01     -9.994141000000000E+01      4.798431000000000E-01      4.849804000000000E+01
5900000000.000000      2.165909000000000E-01     -1.022812000000000E+02      5.953369000000000E-01      3.828320000000000E+01
5920000000.000000      2.087097000000000E-01     -1.050859000000000E+02      6.724548000000000E-01      2.427343000000000E+01
5940000000.000000      1.943054000000000E-01     -1.069883000000000E+02      7.031555000000000E-01      1.113721000000000E+01
5960000000.000000      1.773376000000000E-01     -1.051680000000000E+02      7.131042000000000E-01     -1.649353000000000E+00
5980000000.000000      1.648560000000000E-01     -9.732031000000000E+01      6.899414000000000E-01     -1.565576000000000E+01
6000000000.000000      1.819153000000000E-01     -8.822266000000000E+01      6.279907000000000E-01     -2.902929000000000E+01
6020000000.000000      2.166290000000000E-01     -8.637499000000000E+01      5.290527000000000E-01     -4.187500000000000E+01
6040000000.000000      2.516632000000000E-01     -9.182421000000000E+01      3.987274000000000E-01     -4.976953000000000E+01
6060000000.000000      2.755737000000000E-01     -1.008125000000000E+02      2.842407000000000E-01     -4.958789000000000E+01
6080000000.000000      2.855988000000000E-01     -1.111875000000000E+02      2.047195000000000E-01     -3.560351000000000E+01
