! Network Analyzer HP8722D
! Hewlett-Packard
! Data name: Linha & Wilkinson+CNT
! Saver's name: Rodrigo Anjos
! Comments: Teste da utilização de aquisição
continua pelo VNA HP8722D
! Time and date: 29/9/2025 17:45
!              Frequency                     S11                                                   S21                                                   S12                                                   S22
# HZ  S  MA R 50
3000000000.000000      4.246216000000000E-01     -5.542773000000000E+01      2.066879000000000E-01     -1.315625000000000E+02
3020000000.000000      4.490356000000000E-01     -6.978906000000000E+01      3.489685000000000E-01     -1.348203000000000E+02
3040000000.000000      4.529877000000000E-01     -8.273829000000000E+01      4.672089000000000E-01     -1.447422000000000E+02
3060000000.000000      4.449310000000000E-01     -9.473827000000000E+01      5.716858000000000E-01     -1.551797000000000E+02
3080000000.000000      4.294281000000000E-01     -1.059961000000000E+02      6.735229000000000E-01     -1.682891000000000E+02
3100000000.000000      4.089508000000000E-01     -1.171172000000000E+02      7.245483000000000E-01      1.769687000000000E+02
3120000000.000000      3.803101000000000E-01     -1.291328000000000E+02      7.335815000000000E-01      1.635391000000000E+02
3140000000.000000      3.390961000000000E-01     -1.421016000000000E+02      7.232971000000000E-01      1.506641000000000E+02
3160000000.000000      2.791138000000000E-01     -1.560469000000000E+02      6.850281000000000E-01      1.370781000000000E+02
3180000000.000000      1.995697000000000E-01     -1.688672000000000E+02      6.132813000000000E-01      1.246367000000000E+02
3200000000.000000      1.118660000000000E-01     -1.696406000000000E+02      5.219421000000000E-01      1.116640000000000E+02
3220000000.000000      7.940292000000000E-02     -1.242578000000000E+02      3.883514000000000E-01      1.007422000000000E+02
3240000000.000000      1.499710000000000E-01     -1.046601000000000E+02      2.483444000000000E-01      9.945702000000000E+01
3260000000.000000      2.298126000000000E-01     -1.149766000000000E+02      1.475754000000000E-01      1.249414000000000E+02
3280000000.000000      2.877350000000000E-01     -1.306094000000000E+02      2.024612000000000E-01      1.651172000000000E+02
3300000000.000000      3.205719000000000E-01     -1.469687000000000E+02      3.292236000000000E-01      1.696484000000000E+02
3320000000.000000      3.320465000000000E-01     -1.628750000000000E+02      4.624023000000000E-01      1.627109000000000E+02
3340000000.000000      3.288116000000000E-01     -1.782500000000000E+02      5.746765000000000E-01      1.504141000000000E+02
3360000000.000000      3.173370000000000E-01      1.669922000000000E+02      6.459351000000000E-01      1.384687000000000E+02
3380000000.000000      3.008423000000000E-01      1.526328000000000E+02      7.080688000000000E-01      1.271680000000000E+02
3400000000.000000      2.791443000000000E-01      1.380156000000000E+02      7.575684000000000E-01      1.134141000000000E+02
3420000000.000000      2.442780000000000E-01      1.230547000000000E+02      7.489929000000000E-01      9.854296000000000E+01
3440000000.000000      1.912003000000000E-01      1.084180000000000E+02      7.068176000000000E-01      8.558985000000000E+01
3460000000.000000      1.210213000000000E-01      9.748827000000000E+01      6.487732000000000E-01      7.269140000000000E+01
3480000000.000000      4.879570000000000E-02      1.204180000000000E+02      5.510254000000000E-01      5.908398000000000E+01
3500000000.000000      9.120941000000000E-02     -1.745781000000000E+02      4.278412000000000E-01      4.767383000000000E+01
3520000000.000000      1.826553000000000E-01      1.790625000000000E+02      2.805176000000000E-01      4.047656000000000E+01
3540000000.000000      2.625427000000000E-01      1.629453000000000E+02      1.480560000000000E-01      5.780078000000000E+01
3560000000.000000      3.225403000000000E-01      1.460469000000000E+02      1.659470000000000E-01      1.075195000000000E+02
3580000000.000000      3.598480000000000E-01      1.300000000000000E+02      2.931213000000000E-01      1.175352000000000E+02
3600000000.000000      3.765411000000000E-01      1.153594000000000E+02      4.179230000000000E-01      1.107305000000000E+02
3620000000.000000      3.780823000000000E-01      1.027187000000000E+02      5.202637000000000E-01      1.013359000000000E+02
3640000000.000000      3.689117000000000E-01      9.139063000000000E+01      6.210327000000000E-01      9.008593000000000E+01
3660000000.000000      3.528748000000000E-01      8.113672000000000E+01      6.922302000000000E-01      7.588281000000000E+01
3680000000.000000      3.304443000000000E-01      7.207031000000000E+01      7.103577000000000E-01      6.270898000000000E+01
3700000000.000000      2.998657000000000E-01      6.382226000000000E+01      7.211609000000000E-01      5.111133000000000E+01
3720000000.000000      2.561188000000000E-01      5.776953000000000E+01      7.246704000000000E-01      3.696484000000000E+01
3740000000.000000      2.056351000000000E-01      5.845898000000000E+01      6.654053000000000E-01      2.153809000000000E+01
3760000000.000000      1.785126000000000E-01      7.230859000000000E+01      5.678101000000000E-01      7.220703000000000E+00
3780000000.000000      2.116699000000000E-01      8.750391000000000E+01      4.380493000000000E-01     -5.951904000000000E+00
3800000000.000000      2.819214000000000E-01      8.909765000000000E+01      2.834625000000000E-01     -1.343262000000000E+01
3820000000.000000      3.495789000000000E-01      8.286327000000000E+01      1.547470000000000E-01     -7.003784000000000E-01
3840000000.000000      4.001312000000000E-01      7.410937000000000E+01      1.424561000000000E-01      4.740820000000000E+01
3860000000.000000      4.355011000000000E-01      6.550781000000000E+01      2.448196000000000E-01      6.541016000000000E+01
3880000000.000000      4.611511000000000E-01      5.798437000000000E+01      3.757324000000000E-01      6.125390000000000E+01
3900000000.000000      4.899292000000000E-01      5.099609000000000E+01      4.763641000000000E-01      4.787695000000000E+01
3920000000.000000      5.207825000000000E-01      4.336133000000000E+01      5.082703000000000E-01      3.622461000000000E+01
3940000000.000000      5.500793000000000E-01      3.427929000000000E+01      5.397034000000000E-01      2.968164000000000E+01
3960000000.000000      5.603638000000000E-01      2.427929000000000E+01      5.958252000000000E-01      2.029687000000000E+01
3980000000.000000      5.551453000000000E-01      1.368750000000000E+01      5.966797000000000E-01      8.431641000000000E+00
4000000000.000000      5.278625000000000E-01      3.376831000000000E+00      5.793457000000000E-01      1.398010000000000E+00
4020000000.000000      4.856567000000000E-01     -6.685303000000000E+00      5.975342000000000E-01     -6.459961000000000E+00
4040000000.000000      4.264984000000000E-01     -1.560205000000000E+01      5.874634000000000E-01     -1.859668000000000E+01
4060000000.000000      3.510132000000000E-01     -2.167383000000000E+01      5.296021000000000E-01     -2.880566000000000E+01
4080000000.000000      2.753906000000000E-01     -2.166699000000000E+01      4.696503000000000E-01     -3.816406000000000E+01
4100000000.000000      2.286453000000000E-01     -1.123926000000000E+01      3.683929000000000E-01     -4.737305000000000E+01
4120000000.000000      2.412491000000000E-01      2.098389000000000E+00      2.510071000000000E-01     -4.432031000000000E+01
4140000000.000000      2.894135000000000E-01      5.347412000000000E+00      2.028961000000000E-01     -2.043652000000000E+01
4160000000.000000      3.335876000000000E-01      1.218079000000000E+00      2.622833000000000E-01     -2.224731000000000E-01
4180000000.000000      3.615417000000000E-01     -5.689697000000000E+00      3.560791000000000E-01      3.979736000000000E+00
4200000000.000000      3.717651000000000E-01     -1.344629000000000E+01      4.868011000000000E-01      1.569641000000000E+00
4220000000.000000      3.681946000000000E-01     -2.058789000000000E+01      6.416931000000000E-01     -1.075195000000000E+01
4240000000.000000      3.489838000000000E-01     -2.807226000000000E+01      7.217407000000000E-01     -2.757617000000000E+01
4260000000.000000      3.110504000000000E-01     -3.395703000000000E+01      7.443542000000000E-01     -4.163476000000000E+01
4280000000.000000      2.605591000000000E-01     -3.527734000000000E+01      7.515564000000000E-01     -5.538671000000000E+01
4300000000.000000      2.225494000000000E-01     -2.722754000000000E+01      7.160950000000000E-01     -7.064062000000000E+01
4320000000.000000      2.347565000000000E-01     -1.454346000000000E+01      6.344299000000000E-01     -8.507813000000000E+01
4340000000.000000      2.927856000000000E-01     -1.036328000000000E+01      5.178223000000000E-01     -9.785936000000000E+01
4360000000.000000      3.581848000000000E-01     -1.539502000000000E+01      3.831177000000000E-01     -1.068672000000000E+02
4380000000.000000      4.048462000000000E-01     -2.442187000000000E+01      2.518158000000000E-01     -1.082109000000000E+02
4400000000.000000      4.272308000000000E-01     -3.427343000000000E+01      1.538544000000000E-01     -8.562109000000000E+01
4420000000.000000      4.251404000000000E-01     -4.374023000000000E+01      1.865311000000000E-01     -4.591601000000000E+01
4440000000.000000      4.088593000000000E-01     -5.181250000000000E+01      3.087311000000000E-01     -3.607422000000000E+01
4460000000.000000      3.874664000000000E-01     -5.842578000000000E+01      4.512329000000000E-01     -4.313281000000000E+01
4480000000.000000      3.685760000000000E-01     -6.468750000000000E+01      5.602112000000000E-01     -5.533398000000000E+01
4500000000.000000      3.472900000000000E-01     -7.156250000000000E+01      6.432190000000000E-01     -6.670312000000000E+01
4520000000.000000      3.142090000000000E-01     -7.933594000000000E+01      7.162781000000000E-01     -7.955859000000000E+01
4540000000.000000      2.626343000000000E-01     -8.570313000000000E+01      7.429810000000000E-01     -9.416016000000000E+01
4560000000.000000      2.010498000000000E-01     -8.408594000000000E+01      7.297058000000000E-01     -1.074492000000000E+02
4580000000.000000      1.732864000000000E-01     -6.810937000000000E+01      6.934204000000000E-01     -1.211641000000000E+02
4600000000.000000      2.103806000000000E-01     -5.361328000000000E+01      6.072693000000000E-01     -1.345078000000000E+02
4620000000.000000      2.754364000000000E-01     -5.490820000000000E+01      5.007629000000000E-01     -1.449219000000000E+02
4640000000.000000      3.296509000000000E-01     -6.472265000000000E+01      3.807831000000000E-01     -1.533828000000000E+02
4660000000.000000      3.538055000000000E-01     -7.807031000000000E+01      2.473755000000000E-01     -1.520156000000000E+02
4680000000.000000      3.452606000000000E-01     -9.204687000000000E+01      1.793365000000000E-01     -1.238750000000000E+02
4700000000.000000      3.088074000000000E-01     -1.052266000000000E+02      2.472687000000000E-01     -9.674999000000000E+01
4720000000.000000      2.524261000000000E-01     -1.158633000000000E+02      3.666840000000000E-01     -9.537109000000000E+01
4740000000.000000      1.912079000000000E-01     -1.212695000000000E+02      4.730835000000000E-01     -1.016562000000000E+02
4760000000.000000      1.387024000000000E-01     -1.173008000000000E+02      5.779724000000000E-01     -1.104336000000000E+02
4780000000.000000      1.121788000000000E-01     -1.011367000000000E+02      6.674194000000000E-01     -1.225312000000000E+02
4800000000.000000      1.175613000000000E-01     -8.333202000000000E+01      7.189331000000000E-01     -1.354844000000000E+02
4820000000.000000      1.465225000000000E-01     -7.342968000000000E+01      7.374878000000000E-01     -1.488047000000000E+02
4840000000.000000      1.878815000000000E-01     -7.325390000000000E+01      7.184753000000000E-01     -1.616484000000000E+02
4860000000.000000      2.309952000000000E-01     -7.982031000000000E+01      6.850586000000000E-01     -1.742266000000000E+02
4880000000.000000      2.689209000000000E-01     -9.039063000000000E+01      6.196594000000000E-01      1.718750000000000E+02
4900000000.000000      2.950592000000000E-01     -1.038555000000000E+02      4.982147000000000E-01      1.597891000000000E+02
4920000000.000000      3.008728000000000E-01     -1.189492000000000E+02      3.681793000000000E-01      1.535625000000000E+02
4940000000.000000      2.861938000000000E-01     -1.345703000000000E+02      2.534485000000000E-01      1.556406000000000E+02
4960000000.000000      2.555389000000000E-01     -1.498594000000000E+02      1.774597000000000E-01      1.767344000000000E+02
4980000000.000000      2.135620000000000E-01     -1.640312000000000E+02      2.129974000000000E-01     -1.515078000000000E+02
5000000000.000000      1.692963000000000E-01     -1.757109000000000E+02      3.286896000000000E-01     -1.437109000000000E+02
5020000000.000000      1.314240000000000E-01      1.742500000000000E+02      4.596252000000000E-01     -1.495391000000000E+02
5040000000.000000      1.011391000000000E-01      1.640078000000000E+02      5.671997000000000E-01     -1.603672000000000E+02
5060000000.000000      7.278442000000000E-02      1.493203000000000E+02      6.497803000000000E-01     -1.717969000000000E+02
5080000000.000000      4.239273000000000E-02      1.234258000000000E+02      7.171326000000000E-01      1.760703000000000E+02
5100000000.000000      1.695633000000000E-02      4.471093000000000E+01      7.574463000000000E-01      1.623437000000000E+02
5120000000.000000      4.083061000000000E-02     -5.032227000000000E+01      7.545471000000000E-01      1.481719000000000E+02
5140000000.000000      7.254028000000000E-02     -8.719921000000000E+01      7.035828000000000E-01      1.345625000000000E+02
5160000000.000000      9.625626000000000E-02     -1.185000000000000E+02      6.293640000000000E-01      1.221836000000000E+02
5180000000.000000      1.100616000000000E-01     -1.490703000000000E+02      5.351563000000000E-01      1.110156000000000E+02
5200000000.000000      1.135979000000000E-01      1.785312000000000E+02      4.179993000000000E-01      1.011641000000000E+02
5220000000.000000      1.106682000000000E-01      1.427344000000000E+02      2.848206000000000E-01      9.814453000000000E+01
5240000000.000000      1.091957000000000E-01      1.064375000000000E+02      1.842041000000000E-01      1.145937000000000E+02
5260000000.000000      1.132202000000000E-01      7.292187000000000E+01      1.952744000000000E-01      1.491016000000000E+02
5280000000.000000      1.203194000000000E-01      4.623828000000000E+01      2.945557000000000E-01      1.607109000000000E+02
5300000000.000000      1.277695000000000E-01      2.538476000000000E+01      4.084930000000000E-01      1.582187000000000E+02
5320000000.000000      1.334534000000000E-01      9.100586000000000E+00      5.268250000000000E-01      1.507109000000000E+02
5340000000.000000      1.391220000000000E-01     -5.427246000000000E+00      6.389465000000000E-01      1.387344000000000E+02
5360000000.000000      1.433868000000000E-01     -2.127734000000000E+01      7.053528000000000E-01      1.243476000000000E+02
5380000000.000000      1.388245000000000E-01     -3.879101000000000E+01      7.173767000000000E-01      1.109453000000000E+02
5400000000.000000      1.204605000000000E-01     -5.720898000000000E+01      7.197266000000000E-01      9.922655000000000E+01
5420000000.000000      8.568192000000000E-02     -7.413671000000000E+01      7.060547000000000E-01      8.603907000000000E+01
5440000000.000000      3.099632000000000E-02     -8.045702000000000E+01      6.496887000000000E-01      7.187500000000000E+01
5460000000.000000      4.170799000000000E-02      3.965625000000000E+01      5.435181000000000E-01      5.865234000000000E+01
5480000000.000000      1.119308000000000E-01      3.147265000000000E+01      4.156342000000000E-01      4.934570000000000E+01
5500000000.000000      1.746140000000000E-01      1.606445000000000E+01      2.944489000000000E-01      4.712500000000000E+01
5520000000.000000      2.206268000000000E-01      9.873962000000000E-01      1.962280000000000E-01      5.883007000000000E+01
5540000000.000000      2.513123000000000E-01     -1.285547000000000E+01      1.801071000000000E-01      9.054688000000000E+01
5560000000.000000      2.696686000000000E-01     -2.485254000000000E+01      2.610016000000000E-01      1.087266000000000E+02
5580000000.000000      2.825317000000000E-01     -3.482422000000000E+01      3.832703000000000E-01      1.086836000000000E+02
5600000000.000000      2.942200000000000E-01     -4.370117000000000E+01      5.061340000000000E-01      9.976952000000000E+01
5620000000.000000      3.044586000000000E-01     -5.288671000000000E+01      5.953674000000000E-01      8.720703000000000E+01
5640000000.000000      3.081360000000000E-01     -6.266406000000000E+01      6.467590000000000E-01      7.541016000000000E+01
5660000000.000000      2.987366000000000E-01     -7.337109000000000E+01      6.859131000000000E-01      6.413671000000000E+01
5680000000.000000      2.691345000000000E-01     -8.368359000000000E+01      6.990967000000000E-01      5.128515000000000E+01
5700000000.000000      2.217560000000000E-01     -9.125391000000000E+01      6.850281000000000E-01      3.895117000000000E+01
5720000000.000000      1.705551000000000E-01     -8.985155000000000E+01      6.466675000000000E-01      2.622656000000000E+01
5740000000.000000      1.488953000000000E-01     -7.555859000000000E+01      5.681152000000000E-01      1.289795000000000E+01
5760000000.000000      1.774216000000000E-01     -6.369141000000000E+01      4.539642000000000E-01      1.268921000000000E+00
5780000000.000000      2.242966000000000E-01     -6.510547000000000E+01      3.186798000000000E-01     -4.050049000000000E+00
5800000000.000000      2.569122000000000E-01     -7.283593000000000E+01      2.094345000000000E-01      6.771484000000000E+00
5820000000.000000      2.673492000000000E-01     -8.226171000000000E+01      1.890411000000000E-01      3.719531000000000E+01
5840000000.000000      2.575073000000000E-01     -9.083202000000000E+01      2.698669000000000E-01      5.390429000000000E+01
5860000000.000000      2.384338000000000E-01     -9.657030000000000E+01      3.704529000000000E-01      5.419140000000000E+01
5880000000.000000      2.235565000000000E-01     -9.974218000000000E+01      4.778595000000000E-01      4.880468000000000E+01
5900000000.000000      2.157135000000000E-01     -1.021680000000000E+02      5.929871000000000E-01      3.863281000000000E+01
5920000000.000000      2.082138000000000E-01     -1.051289000000000E+02      6.718445000000000E-01      2.462305000000000E+01
5940000000.000000      1.941910000000000E-01     -1.070273000000000E+02      7.026367000000000E-01      1.141602000000000E+01
5960000000.000000      1.768036000000000E-01     -1.052070000000000E+02      7.143860000000000E-01     -1.194763000000000E+00
5980000000.000000      1.651001000000000E-01     -9.750780000000000E+01      6.933289000000000E-01     -1.532227000000000E+01
6000000000.000000      1.810074000000000E-01     -8.821484000000000E+01      6.299744000000000E-01     -2.878027000000000E+01
6020000000.000000      2.162094000000000E-01     -8.624609000000000E+01      5.320435000000000E-01     -4.138281000000000E+01
6040000000.000000      2.518311000000000E-01     -9.140234000000000E+01      4.021606000000000E-01     -4.996875000000000E+01
6060000000.000000      2.750702000000000E-01     -1.004648000000000E+02      2.875824000000000E-01     -4.986718000000000E+01
6080000000.000000      2.850037000000000E-01     -1.108359000000000E+02      2.062607000000000E-01     -3.620508000000000E+01
