! Network Analyzer HP8722D
! Hewlett-Packard
! Data name: Linha & Wilkinson+CNT
! Saver's name: Rodrigo Anjos
! Comments: Teste da utilização de aquisição
continua pelo VNA HP8722D
! Time and date: 29/9/2025 14:31
!              Frequency                     S11                                                   S21                                                   S12                                                   S22
# HZ  S  MA R 50
3000000000.000000      4.226227000000000E-01     -5.571484000000000E+01      2.060318000000000E-01     -1.315859000000000E+02
3020000000.000000      4.483643000000000E-01     -6.993359000000000E+01      3.488007000000000E-01     -1.348594000000000E+02
3040000000.000000      4.526367000000000E-01     -8.273046000000000E+01      4.670258000000000E-01     -1.446640000000000E+02
3060000000.000000      4.449158000000000E-01     -9.485937000000000E+01      5.705566000000000E-01     -1.552578000000000E+02
3080000000.000000      4.293518000000000E-01     -1.061055000000000E+02      6.742249000000000E-01     -1.682812000000000E+02
3100000000.000000      4.090576000000000E-01     -1.174062000000000E+02      7.237854000000000E-01      1.769453000000000E+02
3120000000.000000      3.805084000000000E-01     -1.293203000000000E+02      7.320251000000000E-01      1.634922000000000E+02
3140000000.000000      3.393555000000000E-01     -1.423516000000000E+02      7.234192000000000E-01      1.506797000000000E+02
3160000000.000000      2.798004000000000E-01     -1.563359000000000E+02      6.843872000000000E-01      1.371094000000000E+02
3180000000.000000      2.002869000000000E-01     -1.690625000000000E+02      6.152649000000000E-01      1.245234000000000E+02
3200000000.000000      1.120949000000000E-01     -1.700391000000000E+02      5.200806000000000E-01      1.117891000000000E+02
3220000000.000000      7.903671000000000E-02     -1.246836000000000E+02      3.872223000000000E-01      1.008633000000000E+02
3240000000.000000      1.497269000000000E-01     -1.047539000000000E+02      2.484512000000000E-01      9.949219000000000E+01
3260000000.000000      2.295074000000000E-01     -1.149922000000000E+02      1.472778000000000E-01      1.248711000000000E+02
3280000000.000000      2.875061000000000E-01     -1.306172000000000E+02      2.017441000000000E-01      1.652891000000000E+02
3300000000.000000      3.202057000000000E-01     -1.470156000000000E+02      3.289337000000000E-01      1.696719000000000E+02
3320000000.000000      3.320618000000000E-01     -1.629219000000000E+02      4.620667000000000E-01      1.627266000000000E+02
3340000000.000000      3.289337000000000E-01     -1.783750000000000E+02      5.730591000000000E-01      1.505938000000000E+02
3360000000.000000      3.170624000000000E-01      1.667500000000000E+02      6.463928000000000E-01      1.385078000000000E+02
3380000000.000000      3.007050000000000E-01      1.524062000000000E+02      7.090454000000000E-01      1.272461000000000E+02
3400000000.000000      2.784424000000000E-01      1.378047000000000E+02      7.583923000000000E-01      1.133125000000000E+02
3420000000.000000      2.438278000000000E-01      1.228828000000000E+02      7.494812000000000E-01      9.869530000000000E+01
3440000000.000000      1.908493000000000E-01      1.081055000000000E+02      7.053833000000000E-01      8.559765000000000E+01
3460000000.000000      1.207962000000000E-01      9.720703000000000E+01      6.481323000000000E-01      7.248828000000000E+01
3480000000.000000      4.832077000000000E-02      1.201601000000000E+02      5.516052000000000E-01      5.905468000000000E+01
3500000000.000000      9.128571000000000E-02     -1.742422000000000E+02      4.264984000000000E-01      4.766406000000000E+01
3520000000.000000      1.829300000000000E-01      1.791172000000000E+02      2.804871000000000E-01      4.022070000000000E+01
3540000000.000000      2.621918000000000E-01      1.630312000000000E+02      1.478806000000000E-01      5.763672000000000E+01
3560000000.000000      3.222046000000000E-01      1.460078000000000E+02      1.656265000000000E-01      1.074766000000000E+02
3580000000.000000      3.598328000000000E-01      1.300156000000000E+02      2.927246000000000E-01      1.176015000000000E+02
3600000000.000000      3.762665000000000E-01      1.154062000000000E+02      4.184570000000000E-01      1.107227000000000E+02
3620000000.000000      3.788757000000000E-01      1.026172000000000E+02      5.210876000000000E-01      1.013984000000000E+02
3640000000.000000      3.687286000000000E-01      9.139843000000000E+01      6.226501000000000E-01      9.012890000000000E+01
3660000000.000000      3.524628000000000E-01      8.121874000000000E+01      6.925964000000000E-01      7.603516000000000E+01
3680000000.000000      3.299561000000000E-01      7.200781000000000E+01      7.100830000000000E-01      6.270898000000000E+01
3700000000.000000      2.996368000000000E-01      6.370312000000000E+01      7.209167000000000E-01      5.119726000000000E+01
3720000000.000000      2.554932000000000E-01      5.755859000000000E+01      7.249451000000000E-01      3.691406000000000E+01
3740000000.000000      2.052155000000000E-01      5.831055000000000E+01      6.646729000000000E-01      2.151465000000000E+01
3760000000.000000      1.780472000000000E-01      7.208593000000000E+01      5.674438000000000E-01      7.302979000000000E+00
3780000000.000000      2.110062000000000E-01      8.736719000000000E+01      4.371948000000000E-01     -6.092041000000000E+00
3800000000.000000      2.814331000000000E-01      8.905468000000000E+01      2.835999000000000E-01     -1.349707000000000E+01
3820000000.000000      3.493347000000000E-01      8.270311000000000E+01      1.544189000000000E-01     -8.830261000000000E-01
3840000000.000000      3.999634000000000E-01      7.397265000000000E+01      1.418610000000000E-01      4.740430000000000E+01
3860000000.000000      4.349823000000000E-01      6.537890000000000E+01      2.450027000000000E-01      6.530468000000000E+01
3880000000.000000      4.606018000000000E-01      5.786327000000000E+01      3.744354000000000E-01      6.113086000000000E+01
3900000000.000000      4.891815000000000E-01      5.085155000000000E+01      4.769135000000000E-01      4.799024000000000E+01
3920000000.000000      5.208435000000000E-01      4.307031000000000E+01      5.068970000000000E-01      3.611133000000000E+01
3940000000.000000      5.474854000000000E-01      3.417383000000000E+01      5.390625000000000E-01      2.961328000000000E+01
3960000000.000000      5.593872000000000E-01      2.433008000000000E+01      5.963135000000000E-01      2.012793000000000E+01
3980000000.000000      5.548096000000000E-01      1.370508000000000E+01      5.979309000000000E-01      8.254395000000000E+00
4000000000.000000      5.270081000000000E-01      3.183228000000000E+00      5.797119000000000E-01      1.285400000000000E+00
4020000000.000000      4.848785000000000E-01     -6.711426000000000E+00      5.984802000000000E-01     -6.428467000000000E+00
4040000000.000000      4.259186000000000E-01     -1.569678000000000E+01      5.851746000000000E-01     -1.863086000000000E+01
4060000000.000000      3.509827000000000E-01     -2.191699000000000E+01      5.282593000000000E-01     -2.890039000000000E+01
4080000000.000000      2.752380000000000E-01     -2.183887000000000E+01      4.696503000000000E-01     -3.808984000000000E+01
4100000000.000000      2.284927000000000E-01     -1.143555000000000E+01      3.686829000000000E-01     -4.764062000000000E+01
4120000000.000000      2.411346000000000E-01      1.711121000000000E+00      2.507477000000000E-01     -4.439258000000000E+01
4140000000.000000      2.888641000000000E-01      5.140137000000000E+00      2.029724000000000E-01     -2.045605000000000E+01
4160000000.000000      3.341064000000000E-01      1.115112000000000E+00      2.621918000000000E-01     -3.103638000000000E-01
4180000000.000000      3.612366000000000E-01     -5.820068000000000E+00      3.562164000000000E-01      3.931641000000000E+00
4200000000.000000      3.713837000000000E-01     -1.361084000000000E+01      4.868927000000000E-01      1.569641000000000E+00
4220000000.000000      3.675385000000000E-01     -2.083887000000000E+01      6.408997000000000E-01     -1.080811000000000E+01
4240000000.000000      3.483429000000000E-01     -2.825000000000000E+01      7.210388000000000E-01     -2.755859000000000E+01
4260000000.000000      3.105164000000000E-01     -3.408203000000000E+01      7.429504000000000E-01     -4.165625000000000E+01
4280000000.000000      2.602386000000000E-01     -3.550976000000000E+01      7.519531000000000E-01     -5.556641000000000E+01
4300000000.000000      2.225952000000000E-01     -2.744141000000000E+01      7.158813000000000E-01     -7.058594000000000E+01
4320000000.000000      2.347565000000000E-01     -1.474951000000000E+01      6.333618000000000E-01     -8.508984000000000E+01
4340000000.000000      2.929230000000000E-01     -1.060205000000000E+01      5.181580000000000E-01     -9.783592000000000E+01
4360000000.000000      3.580780000000000E-01     -1.548682000000000E+01      3.829956000000000E-01     -1.068594000000000E+02
4380000000.000000      4.048767000000000E-01     -2.446191000000000E+01      2.515564000000000E-01     -1.082813000000000E+02
4400000000.000000      4.266052000000000E-01     -3.441211000000000E+01      1.537552000000000E-01     -8.598436000000000E+01
4420000000.000000      4.252014000000000E-01     -4.383789000000000E+01      1.859970000000000E-01     -4.584570000000000E+01
4440000000.000000      4.083405000000000E-01     -5.195898000000000E+01      3.087769000000000E-01     -3.617773000000000E+01
4460000000.000000      3.866425000000000E-01     -5.860546000000000E+01      4.513245000000000E-01     -4.331836000000000E+01
4480000000.000000      3.664703000000000E-01     -6.494531000000000E+01      5.600586000000000E-01     -5.526367000000000E+01
4500000000.000000      3.469086000000000E-01     -7.150000000000000E+01      6.425781000000000E-01     -6.667969000000000E+01
4520000000.000000      3.141022000000000E-01     -7.925390000000000E+01      7.156372000000000E-01     -7.962109000000000E+01
4540000000.000000      2.629700000000000E-01     -8.552734000000000E+01      7.415161000000000E-01     -9.418749000000000E+01
4560000000.000000      2.021408000000000E-01     -8.400782000000000E+01      7.311707000000000E-01     -1.074883000000000E+02
4580000000.000000      1.738434000000000E-01     -6.822266000000000E+01      6.929932000000000E-01     -1.213750000000000E+02
4600000000.000000      2.106018000000000E-01     -5.393749000000000E+01      6.080322000000000E-01     -1.344219000000000E+02
4620000000.000000      2.759094000000000E-01     -5.509375000000000E+01      5.004578000000000E-01     -1.450469000000000E+02
4640000000.000000      3.303986000000000E-01     -6.493750000000000E+01      3.820801000000000E-01     -1.536094000000000E+02
4660000000.000000      3.544922000000000E-01     -7.819530000000000E+01      2.479782000000000E-01     -1.521484000000000E+02
4680000000.000000      3.469391000000000E-01     -9.216797000000000E+01      1.789169000000000E-01     -1.241836000000000E+02
4700000000.000000      3.103180000000000E-01     -1.054844000000000E+02      2.461395000000000E-01     -9.667969000000000E+01
4720000000.000000      2.541809000000000E-01     -1.161289000000000E+02      3.652954000000000E-01     -9.539843000000000E+01
4740000000.000000      1.918640000000000E-01     -1.215234000000000E+02      4.722900000000000E-01     -1.016406000000000E+02
4760000000.000000      1.395798000000000E-01     -1.178281000000000E+02      5.781860000000000E-01     -1.104531000000000E+02
4780000000.000000      1.122284000000000E-01     -1.020195000000000E+02      6.663513000000000E-01     -1.226601000000000E+02
4800000000.000000      1.180992000000000E-01     -8.421875000000000E+01      7.166748000000000E-01     -1.355156000000000E+02
4820000000.000000      1.457901000000000E-01     -7.407031000000000E+01      7.363281000000000E-01     -1.487734000000000E+02
4840000000.000000      1.865158000000000E-01     -7.358593000000000E+01      7.198181000000000E-01     -1.615937000000000E+02
4860000000.000000      2.302094000000000E-01     -8.012110000000000E+01      6.850281000000000E-01     -1.740625000000000E+02
4880000000.000000      2.676086000000000E-01     -9.059765000000000E+01      6.184998000000000E-01      1.720156000000000E+02
4900000000.000000      2.934265000000000E-01     -1.039687000000000E+02      4.971313000000000E-01      1.598516000000000E+02
4920000000.000000      3.001099000000000E-01     -1.190430000000000E+02      3.670807000000000E-01      1.535078000000000E+02
4940000000.000000      2.853851000000000E-01     -1.347891000000000E+02      2.531433000000000E-01      1.558672000000000E+02
4960000000.000000      2.559357000000000E-01     -1.499922000000000E+02      1.770096000000000E-01      1.766094000000000E+02
4980000000.000000      2.134781000000000E-01     -1.642969000000000E+02      2.127457000000000E-01     -1.515391000000000E+02
5000000000.000000      1.689682000000000E-01     -1.759297000000000E+02      3.283844000000000E-01     -1.436328000000000E+02
5020000000.000000      1.312561000000000E-01      1.738516000000000E+02      4.586945000000000E-01     -1.494922000000000E+02
5040000000.000000      1.010170000000000E-01      1.636875000000000E+02      5.693665000000000E-01     -1.601563000000000E+02
5060000000.000000      7.263184000000000E-02      1.488672000000000E+02      6.485596000000000E-01     -1.717813000000000E+02
5080000000.000000      4.242897000000000E-02      1.232461000000000E+02      7.169189000000000E-01      1.760937000000000E+02
5100000000.000000      1.665688000000000E-02      4.374609000000000E+01      7.574158000000000E-01      1.623359000000000E+02
5120000000.000000      4.038811000000000E-02     -5.009375000000000E+01      7.547302000000000E-01      1.481406000000000E+02
5140000000.000000      7.199860000000000E-02     -8.720703000000000E+01      7.049866000000000E-01      1.344063000000000E+02
5160000000.000000      9.601212000000000E-02     -1.184609000000000E+02      6.301575000000000E-01      1.222109000000000E+02
5180000000.000000      1.095009000000000E-01     -1.490703000000000E+02      5.363159000000000E-01      1.107773000000000E+02
5200000000.000000      1.126633000000000E-01      1.782187000000000E+02      4.192810000000000E-01      1.011601000000000E+02
5220000000.000000      1.100121000000000E-01      1.425156000000000E+02      2.854156000000000E-01      9.804688000000000E+01
5240000000.000000      1.091881000000000E-01      1.061680000000000E+02      1.848373000000000E-01      1.146797000000000E+02
5260000000.000000      1.131248000000000E-01      7.276172000000000E+01      1.950150000000000E-01      1.490703000000000E+02
5280000000.000000      1.207237000000000E-01      4.623047000000000E+01      2.942352000000000E-01      1.606328000000000E+02
5300000000.000000      1.274719000000000E-01      2.531933000000000E+01      4.079742000000000E-01      1.582656000000000E+02
5320000000.000000      1.332245000000000E-01      8.791504000000000E+00      5.262756000000000E-01      1.507266000000000E+02
5340000000.000000      1.388168000000000E-01     -5.575684000000000E+00      6.372070000000000E-01      1.386250000000000E+02
5360000000.000000      1.434250000000000E-01     -2.102734000000000E+01      7.073975000000000E-01      1.242266000000000E+02
5380000000.000000      1.388626000000000E-01     -3.853906000000000E+01      7.163086000000000E-01      1.109492000000000E+02
5400000000.000000      1.201401000000000E-01     -5.670507000000000E+01      7.194824000000000E-01      9.929688000000000E+01
5420000000.000000      8.553314000000000E-02     -7.372656000000000E+01      7.066650000000000E-01      8.618750000000000E+01
5440000000.000000      3.131104000000000E-02     -7.929296000000000E+01      6.490479000000000E-01      7.168750000000000E+01
5460000000.000000      4.234505000000000E-02      3.907227000000000E+01      5.414734000000000E-01      5.861718000000000E+01
5480000000.000000      1.118126000000000E-01      3.116211000000000E+01      4.140015000000000E-01      4.930664000000000E+01
5500000000.000000      1.746902000000000E-01      1.611523000000000E+01      2.943878000000000E-01      4.703321000000000E+01
5520000000.000000      2.205200000000000E-01      9.750366000000000E-01      1.961060000000000E-01      5.854882000000000E+01
5540000000.000000      2.516937000000000E-01     -1.288574000000000E+01      1.797943000000000E-01      9.044140000000000E+01
5560000000.000000      2.701263000000000E-01     -2.495703000000000E+01      2.605591000000000E-01      1.086875000000000E+02
5580000000.000000      2.825775000000000E-01     -3.480859000000000E+01      3.829956000000000E-01      1.087383000000000E+02
5600000000.000000      2.941589000000000E-01     -4.376172000000000E+01      5.039368000000000E-01      9.985546000000000E+01
5620000000.000000      3.042145000000000E-01     -5.283203000000000E+01      5.946960000000000E-01      8.731640000000000E+01
5640000000.000000      3.082123000000000E-01     -6.253124000000000E+01      6.457214000000000E-01      7.535156000000000E+01
5660000000.000000      2.986755000000000E-01     -7.322656000000000E+01      6.838074000000000E-01      6.400391000000000E+01
5680000000.000000      2.694702000000000E-01     -8.367188000000000E+01      6.976929000000000E-01      5.123241000000000E+01
5700000000.000000      2.223282000000000E-01     -9.104296000000000E+01      6.854553000000000E-01      3.899023000000000E+01
5720000000.000000      1.714249000000000E-01     -9.002344000000000E+01      6.458435000000000E-01      2.616113000000000E+01
5740000000.000000      1.497650000000000E-01     -7.559765000000000E+01      5.667725000000000E-01      1.295801000000000E+01
5760000000.000000      1.778183000000000E-01     -6.374023000000000E+01      4.538879000000000E-01      1.135681000000000E+00
5780000000.000000      2.240753000000000E-01     -6.513672000000000E+01      3.190308000000000E-01     -4.078857000000000E+00
5800000000.000000      2.567902000000000E-01     -7.299218000000000E+01      2.095718000000000E-01      6.669922000000000E+00
5820000000.000000      2.668457000000000E-01     -8.232813000000000E+01      1.882553000000000E-01      3.713086000000000E+01
5840000000.000000      2.580872000000000E-01     -9.094530000000000E+01      2.690887000000000E-01      5.387695000000000E+01
5860000000.000000      2.395020000000000E-01     -9.661327000000000E+01      3.695374000000000E-01      5.417969000000000E+01
5880000000.000000      2.246628000000000E-01     -9.985546000000000E+01      4.763641000000000E-01      4.879296000000000E+01
5900000000.000000      2.163696000000000E-01     -1.022734000000000E+02      5.936279000000000E-01      3.858203000000000E+01
5920000000.000000      2.091675000000000E-01     -1.051484000000000E+02      6.726990000000000E-01      2.463476000000000E+01
5940000000.000000      1.952972000000000E-01     -1.070976000000000E+02      7.020569000000000E-01      1.158203000000000E+01
5960000000.000000      1.778946000000000E-01     -1.053008000000000E+02      7.133484000000000E-01     -1.264832000000000E+00
5980000000.000000      1.656113000000000E-01     -9.767967000000000E+01      6.924438000000000E-01     -1.518604000000000E+01
6000000000.000000      1.809235000000000E-01     -8.839844000000000E+01      6.300049000000000E-01     -2.904590000000000E+01
6020000000.000000      2.152100000000000E-01     -8.638281000000000E+01      5.316467000000000E-01     -4.161914000000000E+01
6040000000.000000      2.507477000000000E-01     -9.159765000000000E+01      4.018707000000000E-01     -4.995898000000000E+01
6060000000.000000      2.753143000000000E-01     -1.007187000000000E+02      2.878876000000000E-01     -4.988086000000000E+01
6080000000.000000      2.850037000000000E-01     -1.108476000000000E+02      2.063751000000000E-01     -3.647265000000000E+01
