! Network Analyzer HP8722D
! Hewlett-Packard
! Data name: Linha & Wilkinson+CNT
! Saver's name: Rodrigo Anjos
! Comments: Teste da utilização de aquisição
continua pelo VNA HP8722D
! Time and date: 29/9/2025 12:44
!              Frequency                     S11                                                   S21                                                   S12                                                   S22
# HZ  S  MA R 50
3000000000.000000      4.238281000000000E-01     -5.608203000000000E+01      2.065277000000000E-01     -1.314062000000000E+02
3020000000.000000      4.479065000000000E-01     -7.012890000000000E+01      3.501587000000000E-01     -1.347969000000000E+02
3040000000.000000      4.540100000000000E-01     -8.297655000000000E+01      4.664307000000000E-01     -1.446328000000000E+02
3060000000.000000      4.468384000000000E-01     -9.512890000000000E+01      5.712891000000000E-01     -1.550859000000000E+02
3080000000.000000      4.318695000000000E-01     -1.063711000000000E+02      6.734009000000000E-01     -1.681953000000000E+02
3100000000.000000      4.116364000000000E-01     -1.173516000000000E+02      7.248840000000000E-01      1.770859000000000E+02
3120000000.000000      3.826447000000000E-01     -1.293203000000000E+02      7.332153000000000E-01      1.636094000000000E+02
3140000000.000000      3.424530000000000E-01     -1.422969000000000E+02      7.237244000000000E-01      1.506875000000000E+02
3160000000.000000      2.822723000000000E-01     -1.559922000000000E+02      6.850586000000000E-01      1.371328000000000E+02
3180000000.000000      2.032166000000000E-01     -1.684922000000000E+02      6.142273000000000E-01      1.245391000000000E+02
3200000000.000000      1.151276000000000E-01     -1.687266000000000E+02      5.185242000000000E-01      1.117695000000000E+02
3220000000.000000      8.292389000000000E-02     -1.247578000000000E+02      3.868256000000000E-01      1.011406000000000E+02
3240000000.000000      1.530685000000000E-01     -1.055976000000000E+02      2.471542000000000E-01      9.969921000000000E+01
3260000000.000000      2.325516000000000E-01     -1.152891000000000E+02      1.474228000000000E-01      1.253672000000000E+02
3280000000.000000      2.904968000000000E-01     -1.307812000000000E+02      2.030945000000000E-01      1.654219000000000E+02
3300000000.000000      3.239136000000000E-01     -1.468984000000000E+02      3.295135000000000E-01      1.697656000000000E+02
3320000000.000000      3.355408000000000E-01     -1.626172000000000E+02      4.628754000000000E-01      1.627344000000000E+02
3340000000.000000      3.316345000000000E-01     -1.779844000000000E+02      5.755310000000000E-01      1.506797000000000E+02
3360000000.000000      3.194733000000000E-01      1.673437000000000E+02      6.477051000000000E-01      1.386016000000000E+02
3380000000.000000      3.027802000000000E-01      1.531719000000000E+02      7.108154000000000E-01      1.272773000000000E+02
3400000000.000000      2.791748000000000E-01      1.386406000000000E+02      7.593994000000000E-01      1.134414000000000E+02
3420000000.000000      2.431412000000000E-01      1.237187000000000E+02      7.513428000000000E-01      9.868750000000000E+01
3440000000.000000      1.896667000000000E-01      1.089258000000000E+02      7.072144000000000E-01      8.568359000000000E+01
3460000000.000000      1.189308000000000E-01      9.890234000000000E+01      6.489258000000000E-01      7.267187000000000E+01
3480000000.000000      4.793739000000000E-02      1.245820000000000E+02      5.501404000000000E-01      5.916992000000000E+01
3500000000.000000      9.492874000000000E-02     -1.730078000000000E+02      4.257050000000000E-01      4.777539000000000E+01
3520000000.000000      1.861267000000000E-01      1.799141000000000E+02      2.794342000000000E-01      4.070703000000000E+01
3540000000.000000      2.645416000000000E-01      1.636641000000000E+02      1.480408000000000E-01      5.837695000000000E+01
3560000000.000000      3.238220000000000E-01      1.465312000000000E+02      1.668015000000000E-01      1.078398000000000E+02
3580000000.000000      3.598480000000000E-01      1.305000000000000E+02      2.945251000000000E-01      1.176797000000000E+02
3600000000.000000      3.753662000000000E-01      1.158125000000000E+02      4.199524000000000E-01      1.107851000000000E+02
3620000000.000000      3.772583000000000E-01      1.030469000000000E+02      5.227966000000000E-01      1.012187000000000E+02
3640000000.000000      3.677979000000000E-01      9.169922000000000E+01      6.234131000000000E-01      9.017578000000000E+01
3660000000.000000      3.510742000000000E-01      8.148829000000000E+01      6.931763000000000E-01      7.588672000000000E+01
3680000000.000000      3.278961000000000E-01      7.218359000000000E+01      7.114258000000000E-01      6.282227000000000E+01
3700000000.000000      2.972565000000000E-01      6.378711000000000E+01      7.224731000000000E-01      5.115820000000000E+01
3720000000.000000      2.526550000000000E-01      5.758984000000000E+01      7.250671000000000E-01      3.697266000000000E+01
3740000000.000000      2.022476000000000E-01      5.834570000000000E+01      6.638794000000000E-01      2.160645000000000E+01
3760000000.000000      1.752853000000000E-01      7.257421000000000E+01      5.667114000000000E-01      7.278320000000000E+00
3780000000.000000      2.098541000000000E-01      8.781641000000000E+01      4.363556000000000E-01     -6.096191000000000E+00
3800000000.000000      2.805481000000000E-01      8.940624000000000E+01      2.828064000000000E-01     -1.335693000000000E+01
3820000000.000000      3.480835000000000E-01      8.283594000000000E+01      1.540527000000000E-01     -3.172302000000000E-01
3840000000.000000      3.988800000000000E-01      7.408984000000000E+01      1.431656000000000E-01      4.774610000000000E+01
3860000000.000000      4.337769000000000E-01      6.549218000000000E+01      2.461700000000000E-01      6.548437000000000E+01
3880000000.000000      4.593964000000000E-01      5.787499000000000E+01      3.766632000000000E-01      6.129492000000000E+01
3900000000.000000      4.882660000000000E-01      5.072266000000000E+01      4.785614000000000E-01      4.771484000000000E+01
3920000000.000000      5.187378000000000E-01      4.293945000000000E+01      5.087891000000000E-01      3.618945000000000E+01
3940000000.000000      5.467834000000000E-01      3.397265000000000E+01      5.406799000000000E-01      2.967480000000000E+01
3960000000.000000      5.591125000000000E-01      2.383301000000000E+01      5.959778000000000E-01      2.035742000000000E+01
3980000000.000000      5.533447000000000E-01      1.345410000000000E+01      5.980530000000000E-01      8.246582000000000E+00
4000000000.000000      5.261841000000000E-01      2.937378000000000E+00      5.804138000000000E-01      1.256531000000000E+00
4020000000.000000      4.838257000000000E-01     -7.126221000000000E+00      5.974121000000000E-01     -6.307617000000000E+00
4040000000.000000      4.249115000000000E-01     -1.599072000000000E+01      5.852966000000000E-01     -1.876758000000000E+01
4060000000.000000      3.492889000000000E-01     -2.223437000000000E+01      5.296631000000000E-01     -2.888476000000000E+01
4080000000.000000      2.741394000000000E-01     -2.218457000000000E+01      4.688568000000000E-01     -3.809570000000000E+01
4100000000.000000      2.278900000000000E-01     -1.200830000000000E+01      3.679962000000000E-01     -4.745117000000000E+01
4120000000.000000      2.415619000000000E-01      1.321106000000000E+00      2.498398000000000E-01     -4.414258000000000E+01
4140000000.000000      2.891235000000000E-01      4.703369000000000E+00      2.031174000000000E-01     -1.994433000000000E+01
4160000000.000000      3.335571000000000E-01      6.275940000000000E-01      2.630463000000000E-01     -1.098633000000000E-01
4180000000.000000      3.614197000000000E-01     -6.206055000000000E+00      3.568268000000000E-01      3.968750000000000E+00
4200000000.000000      3.713684000000000E-01     -1.404346000000000E+01      4.874268000000000E-01      1.717957000000000E+00
4220000000.000000      3.671875000000000E-01     -2.122461000000000E+01      6.422119000000000E-01     -1.086035000000000E+01
4240000000.000000      3.484344000000000E-01     -2.873632000000000E+01      7.211914000000000E-01     -2.760742000000000E+01
4260000000.000000      3.102875000000000E-01     -3.455664000000000E+01      7.443542000000000E-01     -4.158789000000000E+01
4280000000.000000      2.601166000000000E-01     -3.584765000000000E+01      7.513123000000000E-01     -5.547265000000000E+01
4300000000.000000      2.232437000000000E-01     -2.779297000000000E+01      7.135010000000000E-01     -7.045312000000000E+01
4320000000.000000      2.357559000000000E-01     -1.504053000000000E+01      6.324158000000000E-01     -8.500780000000000E+01
4340000000.000000      2.935028000000000E-01     -1.093311000000000E+01      5.168762000000000E-01     -9.780077000000000E+01
4360000000.000000      3.585205000000000E-01     -1.588916000000000E+01      3.819122000000000E-01     -1.068398000000000E+02
4380000000.000000      4.056854000000000E-01     -2.479687000000000E+01      2.505493000000000E-01     -1.079180000000000E+02
4400000000.000000      4.270172000000000E-01     -3.466601000000000E+01      1.538773000000000E-01     -8.510937000000000E+01
4420000000.000000      4.256897000000000E-01     -4.417578000000000E+01      1.875305000000000E-01     -4.555860000000000E+01
4440000000.000000      4.081573000000000E-01     -5.232812000000000E+01      3.095398000000000E-01     -3.596289000000000E+01
4460000000.000000      3.894348000000000E-01     -5.882421000000000E+01      4.517212000000000E-01     -4.299024000000000E+01
4480000000.000000      3.702545000000000E-01     -6.504687000000000E+01      5.615845000000000E-01     -5.520508000000000E+01
4500000000.000000      3.482971000000000E-01     -7.163280000000000E+01      6.419067000000000E-01     -6.663671000000000E+01
4520000000.000000      3.150177000000000E-01     -7.923046000000000E+01      7.156372000000000E-01     -7.967578000000000E+01
4540000000.000000      2.640686000000000E-01     -8.530077000000000E+01      7.419739000000000E-01     -9.422266000000000E+01
4560000000.000000      2.039719000000000E-01     -8.365234000000000E+01      7.290344000000000E-01     -1.074570000000000E+02
4580000000.000000      1.768723000000000E-01     -6.813281000000000E+01      6.906738000000000E-01     -1.212148000000000E+02
4600000000.000000      2.138596000000000E-01     -5.425781000000000E+01      6.069336000000000E-01     -1.345469000000000E+02
4620000000.000000      2.788239000000000E-01     -5.556054000000000E+01      4.985504000000000E-01     -1.448984000000000E+02
4640000000.000000      3.334808000000000E-01     -6.527734000000000E+01      3.794403000000000E-01     -1.531719000000000E+02
4660000000.000000      3.575897000000000E-01     -7.841797000000000E+01      2.464294000000000E-01     -1.517109000000000E+02
4680000000.000000      3.491669000000000E-01     -9.218750000000000E+01      1.792068000000000E-01     -1.235352000000000E+02
4700000000.000000      3.122253000000000E-01     -1.052695000000000E+02      2.476807000000000E-01     -9.647264000000000E+01
4720000000.000000      2.560883000000000E-01     -1.157773000000000E+02      3.666687000000000E-01     -9.517187000000000E+01
4740000000.000000      1.935120000000000E-01     -1.209219000000000E+02      4.732971000000000E-01     -1.016172000000000E+02
4760000000.000000      1.412277000000000E-01     -1.169883000000000E+02      5.802612000000000E-01     -1.102851000000000E+02
4780000000.000000      1.151581000000000E-01     -1.014297000000000E+02      6.677551000000000E-01     -1.226250000000000E+02
4800000000.000000      1.215210000000000E-01     -8.391796000000000E+01      7.175598000000000E-01     -1.354922000000000E+02
4820000000.000000      1.503601000000000E-01     -7.451953000000000E+01      7.371521000000000E-01     -1.487500000000000E+02
4840000000.000000      1.906052000000000E-01     -7.424609000000000E+01      7.184753000000000E-01     -1.616328000000000E+02
4860000000.000000      2.341232000000000E-01     -8.069530000000000E+01      6.842346000000000E-01     -1.739844000000000E+02
4880000000.000000      2.710724000000000E-01     -9.084764000000000E+01      6.183167000000000E-01      1.723281000000000E+02
4900000000.000000      2.966461000000000E-01     -1.040351000000000E+02      4.970093000000000E-01      1.598906000000000E+02
4920000000.000000      3.025818000000000E-01     -1.189609000000000E+02      3.661957000000000E-01      1.538750000000000E+02
4940000000.000000      2.876434000000000E-01     -1.346250000000000E+02      2.525635000000000E-01      1.560781000000000E+02
4960000000.000000      2.565155000000000E-01     -1.494531000000000E+02      1.774445000000000E-01      1.773906000000000E+02
4980000000.000000      2.142487000000000E-01     -1.635313000000000E+02      2.142792000000000E-01     -1.510391000000000E+02
5000000000.000000      1.689606000000000E-01     -1.748047000000000E+02      3.298340000000000E-01     -1.432656000000000E+02
5020000000.000000      1.306992000000000E-01      1.755703000000000E+02      4.610443000000000E-01     -1.493281000000000E+02
5040000000.000000      1.002464000000000E-01      1.655781000000000E+02      5.696411000000000E-01     -1.603047000000000E+02
5060000000.000000      7.170486000000000E-02      1.517500000000000E+02      6.503906000000000E-01     -1.715859000000000E+02
5080000000.000000      4.031944000000000E-02      1.274687000000000E+02      7.193909000000000E-01      1.761875000000000E+02
5100000000.000000      1.419687000000000E-02      4.148438000000000E+01      7.572632000000000E-01      1.624063000000000E+02
5120000000.000000      4.131317000000000E-02     -5.429882000000000E+01      7.545471000000000E-01      1.482422000000000E+02
5140000000.000000      7.376480000000000E-02     -8.787109000000000E+01      7.061462000000000E-01      1.345703000000000E+02
5160000000.000000      9.786606000000000E-02     -1.184922000000000E+02      6.287231000000000E-01      1.221601000000000E+02
5180000000.000000      1.106148000000000E-01     -1.483828000000000E+02      5.345154000000000E-01      1.108359000000000E+02
5200000000.000000      1.123123000000000E-01      1.792031000000000E+02      4.176636000000000E-01      1.014180000000000E+02
5220000000.000000      1.084290000000000E-01      1.431719000000000E+02      2.842560000000000E-01      9.850389000000000E+01
5240000000.000000      1.069527000000000E-01      1.066875000000000E+02      1.844482000000000E-01      1.153906000000000E+02
5260000000.000000      1.112556000000000E-01      7.266015000000000E+01      1.965714000000000E-01      1.493984000000000E+02
5280000000.000000      1.184349000000000E-01      4.552539000000000E+01      2.960815000000000E-01      1.607500000000000E+02
5300000000.000000      1.251450000000000E-01      2.438672000000000E+01      4.098511000000000E-01      1.583125000000000E+02
5320000000.000000      1.315079000000000E-01      7.989746000000000E+00      5.275879000000000E-01      1.508516000000000E+02
5340000000.000000      1.380844000000000E-01     -6.318604000000000E+00      6.381531000000000E-01      1.387891000000000E+02
5360000000.000000      1.428452000000000E-01     -2.170410000000000E+01      7.063599000000000E-01      1.242226000000000E+02
5380000000.000000      1.394119000000000E-01     -3.925976000000000E+01      7.174988000000000E-01      1.110078000000000E+02
5400000000.000000      1.214256000000000E-01     -5.690234000000000E+01      7.175293000000000E-01      9.921093000000000E+01
5420000000.000000      8.638382000000000E-02     -7.383984000000000E+01      7.055664000000000E-01      8.614843000000000E+01
5440000000.000000      3.310204000000000E-02     -7.875000000000000E+01      6.484375000000000E-01      7.190234000000000E+01
5460000000.000000      4.111671000000000E-02      3.697070000000000E+01      5.408936000000000E-01      5.886719000000000E+01
5480000000.000000      1.104279000000000E-01      3.042480000000000E+01      4.141998000000000E-01      4.932031000000000E+01
5500000000.000000      1.736450000000000E-01      1.510596000000000E+01      2.937164000000000E-01      4.737305000000000E+01
5520000000.000000      2.201843000000000E-01      2.499390000000000E-01      1.953354000000000E-01      5.913086000000000E+01
5540000000.000000      2.522125000000000E-01     -1.351758000000000E+01      1.808167000000000E-01      9.076952000000000E+01
5560000000.000000      2.702637000000000E-01     -2.538183000000000E+01      2.624512000000000E-01      1.088086000000000E+02
5580000000.000000      2.828369000000000E-01     -3.520312000000000E+01      3.836365000000000E-01      1.087383000000000E+02
5600000000.000000      2.946777000000000E-01     -4.392774000000000E+01      5.059814000000000E-01      9.978125000000000E+01
5620000000.000000      3.057709000000000E-01     -5.300781000000000E+01      5.957031000000000E-01      8.728516000000000E+01
5640000000.000000      3.095093000000000E-01     -6.274414000000000E+01      6.469727000000000E-01      7.550390000000000E+01
5660000000.000000      3.009186000000000E-01     -7.333984000000000E+01      6.851807000000000E-01      6.417578000000000E+01
5680000000.000000      2.722778000000000E-01     -8.373047000000000E+01      6.988831000000000E-01      5.138672000000000E+01
5700000000.000000      2.252502000000000E-01     -9.111328000000000E+01      6.831665000000000E-01      3.905078000000000E+01
5720000000.000000      1.750717000000000E-01     -9.004297000000000E+01      6.430359000000000E-01      2.650097000000000E+01
5740000000.000000      1.525879000000000E-01     -7.596484000000000E+01      5.641174000000000E-01      1.329443000000000E+01
5760000000.000000      1.805115000000000E-01     -6.432422000000000E+01      4.514313000000000E-01      1.543579000000000E+00
5780000000.000000      2.264175000000000E-01     -6.548828000000000E+01      3.176270000000000E-01     -3.679077000000000E+00
5800000000.000000      2.588348000000000E-01     -7.321875000000000E+01      2.086563000000000E-01      7.161621000000000E+00
5820000000.000000      2.687531000000000E-01     -8.258593000000000E+01      1.888428000000000E-01      3.758008000000000E+01
5840000000.000000      2.594910000000000E-01     -9.093359000000000E+01      2.703552000000000E-01      5.421484000000000E+01
5860000000.000000      2.424164000000000E-01     -9.661327000000000E+01      3.700714000000000E-01      5.444921000000000E+01
5880000000.000000      2.279434000000000E-01     -9.968750000000000E+01      4.770508000000000E-01      4.907227000000000E+01
5900000000.000000      2.200851000000000E-01     -1.020351000000000E+02      5.922852000000000E-01      3.870898000000000E+01
5920000000.000000      2.125702000000000E-01     -1.049062000000000E+02      6.706848000000000E-01      2.493750000000000E+01
5940000000.000000      1.989059000000000E-01     -1.069687000000000E+02      7.014465000000000E-01      1.170996000000000E+01
5960000000.000000      1.807861000000000E-01     -1.053008000000000E+02      7.146912000000000E-01     -1.047852000000000E+00
5980000000.000000      1.677704000000000E-01     -9.791796000000000E+01      6.930542000000000E-01     -1.519043000000000E+01
6000000000.000000      1.828918000000000E-01     -8.869141000000000E+01      6.286621000000000E-01     -2.869922000000000E+01
6020000000.000000      2.176666000000000E-01     -8.660156000000000E+01      5.300903000000000E-01     -4.132813000000000E+01
6040000000.000000      2.539978000000000E-01     -9.180468000000000E+01      3.995361000000000E-01     -4.954687000000000E+01
6060000000.000000      2.784424000000000E-01     -1.006211000000000E+02      2.861328000000000E-01     -4.928905000000000E+01
6080000000.000000      2.886963000000000E-01     -1.107187000000000E+02      2.058945000000000E-01     -3.570117000000000E+01
