! Network Analyzer HP8722D
! Hewlett-Packard
! Data name: Linha & Wilkinson+CNT
! Saver's name: Rodrigo Anjos
! Comments: Teste da utilização de aquisição
continua pelo VNA HP8722D
! Time and date: 29/9/2025 13:23
!              Frequency                     S11                                                   S21                                                   S12                                                   S22
# HZ  S  MA R 50
3000000000.000000      4.250031000000000E-01     -5.582812000000000E+01      2.072449000000000E-01     -1.315859000000000E+02
3020000000.000000      4.483337000000000E-01     -7.013281000000000E+01      3.500061000000000E-01     -1.351016000000000E+02
3040000000.000000      4.538574000000000E-01     -8.294140000000000E+01      4.682617000000000E-01     -1.448750000000000E+02
3060000000.000000      4.448700000000000E-01     -9.504686000000000E+01      5.736694000000000E-01     -1.552109000000000E+02
3080000000.000000      4.293060000000000E-01     -1.063047000000000E+02      6.729736000000000E-01     -1.684453000000000E+02
3100000000.000000      4.084320000000000E-01     -1.175586000000000E+02      7.229919000000000E-01      1.767812000000000E+02
3120000000.000000      3.797302000000000E-01     -1.295312000000000E+02      7.330933000000000E-01      1.633281000000000E+02
3140000000.000000      3.393402000000000E-01     -1.426484000000000E+02      7.235718000000000E-01      1.505312000000000E+02
3160000000.000000      2.788239000000000E-01     -1.565234000000000E+02      6.837158000000000E-01      1.368906000000000E+02
3180000000.000000      1.996841000000000E-01     -1.691641000000000E+02      6.132813000000000E-01      1.242891000000000E+02
3200000000.000000      1.118393000000000E-01     -1.698516000000000E+02      5.188904000000000E-01      1.115117000000000E+02
3220000000.000000      7.995605000000000E-02     -1.243320000000000E+02      3.843079000000000E-01      1.007930000000000E+02
3240000000.000000      1.505814000000000E-01     -1.051211000000000E+02      2.468109000000000E-01      9.953514000000000E+01
3260000000.000000      2.302017000000000E-01     -1.152461000000000E+02      1.469269000000000E-01      1.252578000000000E+02
3280000000.000000      2.881317000000000E-01     -1.309297000000000E+02      2.033463000000000E-01      1.653125000000000E+02
3300000000.000000      3.204193000000000E-01     -1.472969000000000E+02      3.301239000000000E-01      1.696250000000000E+02
3320000000.000000      3.323517000000000E-01     -1.631562000000000E+02      4.628754000000000E-01      1.626016000000000E+02
3340000000.000000      3.290710000000000E-01     -1.785938000000000E+02      5.731812000000000E-01      1.503750000000000E+02
3360000000.000000      3.175354000000000E-01      1.667812000000000E+02      6.463013000000000E-01      1.383516000000000E+02
3380000000.000000      3.005676000000000E-01      1.523125000000000E+02      7.080383000000000E-01      1.269492000000000E+02
3400000000.000000      2.783356000000000E-01      1.377578000000000E+02      7.576294000000000E-01      1.131289000000000E+02
3420000000.000000      2.430420000000000E-01      1.228359000000000E+02      7.492371000000000E-01      9.840624000000000E+01
3440000000.000000      1.901321000000000E-01      1.081562000000000E+02      7.044067000000000E-01      8.550781000000000E+01
3460000000.000000      1.196899000000000E-01      9.722656000000000E+01      6.472778000000000E-01      7.238281000000000E+01
3480000000.000000      4.810524000000000E-02      1.214922000000000E+02      5.492249000000000E-01      5.882617000000000E+01
3500000000.000000      9.307098000000000E-02     -1.740391000000000E+02      4.250183000000000E-01      4.760156000000000E+01
3520000000.000000      1.840591000000000E-01      1.790547000000000E+02      2.789154000000000E-01      4.039258000000000E+01
3540000000.000000      2.631989000000000E-01      1.627578000000000E+02      1.472549000000000E-01      5.817187000000000E+01
3560000000.000000      3.228455000000000E-01      1.458281000000000E+02      1.669083000000000E-01      1.076563000000000E+02
3580000000.000000      3.597870000000000E-01      1.298047000000000E+02      2.942810000000000E-01      1.174726000000000E+02
3600000000.000000      3.758545000000000E-01      1.152187000000000E+02      4.192352000000000E-01      1.105625000000000E+02
3620000000.000000      3.785400000000000E-01      1.024219000000000E+02      5.213928000000000E-01      1.010820000000000E+02
3640000000.000000      3.688965000000000E-01      9.121094000000000E+01      6.217957000000000E-01      8.995312000000000E+01
3660000000.000000      3.523254000000000E-01      8.105469000000000E+01      6.917114000000000E-01      7.569530000000000E+01
3680000000.000000      3.292236000000000E-01      7.184765000000000E+01      7.104797000000000E-01      6.261328000000000E+01
3700000000.000000      2.987366000000000E-01      6.361718000000000E+01      7.215271000000000E-01      5.106054000000000E+01
3720000000.000000      2.540436000000000E-01      5.756054000000000E+01      7.240906000000000E-01      3.670898000000000E+01
3740000000.000000      2.043610000000000E-01      5.837304000000000E+01      6.647949000000000E-01      2.131152000000000E+01
3760000000.000000      1.774521000000000E-01      7.226171000000000E+01      5.667725000000000E-01      6.976318000000000E+00
3780000000.000000      2.115250000000000E-01      8.750000000000000E+01      4.358826000000000E-01     -6.247314000000000E+00
3800000000.000000      2.824707000000000E-01      8.900000000000000E+01      2.818909000000000E-01     -1.347754000000000E+01
3820000000.000000      3.495789000000000E-01      8.253124000000000E+01      1.534042000000000E-01     -2.856445000000000E-01
3840000000.000000      4.002075000000000E-01      7.378906000000000E+01      1.431656000000000E-01      4.786914000000000E+01
3860000000.000000      4.349518000000000E-01      6.528906000000000E+01      2.457581000000000E-01      6.533593000000000E+01
3880000000.000000      4.601288000000000E-01      5.768749000000000E+01      3.761749000000000E-01      6.116015000000000E+01
3900000000.000000      4.891052000000000E-01      5.063671000000000E+01      4.765320000000000E-01      4.764257000000000E+01
3920000000.000000      5.209351000000000E-01      4.301171000000000E+01      5.085754000000000E-01      3.598047000000000E+01
3940000000.000000      5.480042000000000E-01      3.392578000000000E+01      5.399170000000000E-01      2.948730000000000E+01
3960000000.000000      5.604248000000000E-01      2.379004000000000E+01      5.949402000000000E-01      2.008984000000000E+01
3980000000.000000      5.522766000000000E-01      1.334424000000000E+01      5.971985000000000E-01      8.151855000000000E+00
4000000000.000000      5.261230000000000E-01      3.107666000000000E+00      5.800476000000000E-01      1.175537000000000E+00
4020000000.000000      4.837189000000000E-01     -6.931152000000000E+00      5.996094000000000E-01     -6.594727000000000E+00
4040000000.000000      4.248962000000000E-01     -1.581934000000000E+01      5.838623000000000E-01     -1.879102000000000E+01
4060000000.000000      3.486938000000000E-01     -2.188379000000000E+01      5.286865000000000E-01     -2.898144000000000E+01
4080000000.000000      2.742157000000000E-01     -2.183692000000000E+01      4.686584000000000E-01     -3.820508000000000E+01
4100000000.000000      2.286987000000000E-01     -1.142725000000000E+01      3.673706000000000E-01     -4.759179000000000E+01
4120000000.000000      2.416840000000000E-01      1.742676000000000E+00      2.496567000000000E-01     -4.421288000000000E+01
4140000000.000000      2.899323000000000E-01      4.993164000000000E+00      2.028961000000000E-01     -2.016894000000000E+01
4160000000.000000      3.339233000000000E-01      8.294678000000000E-01      2.633057000000000E-01     -2.320862000000000E-01
4180000000.000000      3.618011000000000E-01     -6.037109000000000E+00      3.571014000000000E-01      3.824585000000000E+00
4200000000.000000      3.717651000000000E-01     -1.383887000000000E+01      4.871216000000000E-01      1.192017000000000E+00
4220000000.000000      3.668823000000000E-01     -2.097754000000000E+01      6.420593000000000E-01     -1.098926000000000E+01
4240000000.000000      3.478699000000000E-01     -2.844922000000000E+01      7.210083000000000E-01     -2.789648000000000E+01
4260000000.000000      3.092651000000000E-01     -3.415625000000000E+01      7.437134000000000E-01     -4.192383000000000E+01
4280000000.000000      2.594757000000000E-01     -3.545507000000000E+01      7.524109000000000E-01     -5.570117000000000E+01
4300000000.000000      2.224350000000000E-01     -2.741015000000000E+01      7.146301000000000E-01     -7.075000000000000E+01
4320000000.000000      2.357559000000000E-01     -1.467920000000000E+01      6.325684000000000E-01     -8.519922000000000E+01
4340000000.000000      2.934570000000000E-01     -1.057617000000000E+01      5.163269000000000E-01     -9.796484000000000E+01
4360000000.000000      3.584137000000000E-01     -1.568164000000000E+01      3.806763000000000E-01     -1.070859000000000E+02
4380000000.000000      4.051514000000000E-01     -2.466601000000000E+01      2.500000000000000E-01     -1.081641000000000E+02
4400000000.000000      4.263000000000000E-01     -3.465234000000000E+01      1.533661000000000E-01     -8.519531000000000E+01
4420000000.000000      4.246979000000000E-01     -4.397461000000000E+01      1.874084000000000E-01     -4.559375000000000E+01
4440000000.000000      4.081421000000000E-01     -5.217968000000000E+01      3.103638000000000E-01     -3.613867000000000E+01
4460000000.000000      3.869476000000000E-01     -5.871288000000000E+01      4.520111000000000E-01     -4.348046000000000E+01
4480000000.000000      3.679810000000000E-01     -6.483593000000000E+01      5.606384000000000E-01     -5.544140000000000E+01
4500000000.000000      3.465729000000000E-01     -7.168750000000000E+01      6.425171000000000E-01     -6.690624000000000E+01
4520000000.000000      3.136139000000000E-01     -7.938671000000000E+01      7.164001000000000E-01     -7.993359000000000E+01
4540000000.000000      2.623138000000000E-01     -8.555859000000000E+01      7.401428000000000E-01     -9.447657000000000E+01
4560000000.000000      2.016983000000000E-01     -8.381250000000000E+01      7.291870000000000E-01     -1.076367000000000E+02
4580000000.000000      1.746597000000000E-01     -6.789844000000000E+01      6.917725000000000E-01     -1.215351000000000E+02
4600000000.000000      2.119675000000000E-01     -5.399414000000000E+01      6.069031000000000E-01     -1.348203000000000E+02
4620000000.000000      2.769318000000000E-01     -5.533008000000000E+01      4.981689000000000E-01     -1.452031000000000E+02
4640000000.000000      3.310242000000000E-01     -6.519531000000000E+01      3.793793000000000E-01     -1.535312000000000E+02
4660000000.000000      3.545380000000000E-01     -7.842968000000000E+01      2.465668000000000E-01     -1.518828000000000E+02
4680000000.000000      3.465118000000000E-01     -9.243359000000000E+01      1.790543000000000E-01     -1.236016000000000E+02
4700000000.000000      3.095856000000000E-01     -1.055742000000000E+02      2.480087000000000E-01     -9.666796000000000E+01
4720000000.000000      2.534637000000000E-01     -1.162422000000000E+02      3.662720000000000E-01     -9.553905000000000E+01
4740000000.000000      1.909866000000000E-01     -1.215391000000000E+02      4.731903000000000E-01     -1.016992000000000E+02
4760000000.000000      1.389542000000000E-01     -1.175156000000000E+02      5.800476000000000E-01     -1.104844000000000E+02
4780000000.000000      1.129265000000000E-01     -1.017656000000000E+02      6.649475000000000E-01     -1.229570000000000E+02
4800000000.000000      1.181946000000000E-01     -8.413280000000000E+01      7.173157000000000E-01     -1.356641000000000E+02
4820000000.000000      1.475677000000000E-01     -7.419922000000000E+01      7.364197000000000E-01     -1.490313000000000E+02
4840000000.000000      1.875763000000000E-01     -7.389843000000000E+01      7.185974000000000E-01     -1.617734000000000E+02
4860000000.000000      2.311859000000000E-01     -8.031641000000000E+01      6.842651000000000E-01     -1.742969000000000E+02
4880000000.000000      2.686310000000000E-01     -9.078516000000000E+01      6.170044000000000E-01      1.717422000000000E+02
4900000000.000000      2.937622000000000E-01     -1.042734000000000E+02      4.945068000000000E-01      1.595469000000000E+02
4920000000.000000      2.998352000000000E-01     -1.194102000000000E+02      3.653107000000000E-01      1.534531000000000E+02
4940000000.000000      2.850952000000000E-01     -1.350547000000000E+02      2.512207000000000E-01      1.557891000000000E+02
4960000000.000000      2.542725000000000E-01     -1.501797000000000E+02      1.772461000000000E-01      1.773672000000000E+02
4980000000.000000      2.123413000000000E-01     -1.643750000000000E+02      2.149200000000000E-01     -1.511797000000000E+02
5000000000.000000      1.677246000000000E-01     -1.760547000000000E+02      3.306732000000000E-01     -1.436797000000000E+02
5020000000.000000      1.302948000000000E-01      1.737813000000000E+02      4.606628000000000E-01     -1.497266000000000E+02
5040000000.000000      9.992599000000000E-02      1.637500000000000E+02      5.687561000000000E-01     -1.605312000000000E+02
5060000000.000000      7.168961000000000E-02      1.482891000000000E+02      6.499634000000000E-01     -1.720156000000000E+02
5080000000.000000      4.121590000000000E-02      1.228711000000000E+02      7.186279000000000E-01      1.759219000000000E+02
5100000000.000000      1.699829000000000E-02      4.208789000000000E+01      7.565002000000000E-01      1.620391000000000E+02
5120000000.000000      4.107666000000000E-02     -5.107422000000000E+01      7.530518000000000E-01      1.478281000000000E+02
5140000000.000000      7.255173000000000E-02     -8.765234000000000E+01      7.047729000000000E-01      1.342500000000000E+02
5160000000.000000      9.606934000000000E-02     -1.186953000000000E+02      6.283264000000000E-01      1.218750000000000E+02
5180000000.000000      1.092262000000000E-01     -1.495781000000000E+02      5.340881000000000E-01      1.105430000000000E+02
5200000000.000000      1.120605000000000E-01      1.779453000000000E+02      4.144897000000000E-01      1.011016000000000E+02
5220000000.000000      1.093674000000000E-01      1.416094000000000E+02      2.830963000000000E-01      9.825390000000000E+01
5240000000.000000      1.088600000000000E-01      1.054062000000000E+02      1.838531000000000E-01      1.151523000000000E+02
5260000000.000000      1.135750000000000E-01      7.219531000000000E+01      1.963272000000000E-01      1.493515000000000E+02
5280000000.000000      1.206207000000000E-01      4.593750000000000E+01      2.967072000000000E-01      1.605781000000000E+02
5300000000.000000      1.274109000000000E-01      2.495605000000000E+01      4.098816000000000E-01      1.580000000000000E+02
5320000000.000000      1.331940000000000E-01      8.563477000000000E+00      5.277710000000000E-01      1.504453000000000E+02
5340000000.000000      1.394196000000000E-01     -5.884766000000000E+00      6.392212000000000E-01      1.384140000000000E+02
5360000000.000000      1.434479000000000E-01     -2.133887000000000E+01      7.059326000000000E-01      1.239609000000000E+02
5380000000.000000      1.390228000000000E-01     -3.878711000000000E+01      7.157593000000000E-01      1.106758000000000E+02
5400000000.000000      1.199074000000000E-01     -5.686718000000000E+01      7.193604000000000E-01      9.884375000000000E+01
5420000000.000000      8.428574000000000E-02     -7.330859000000000E+01      7.043762000000000E-01      8.587500000000000E+01
5440000000.000000      3.011322000000000E-02     -7.773828000000000E+01      6.476440000000000E-01      7.155468000000000E+01
5460000000.000000      4.359055000000000E-02      3.901758000000000E+01      5.390320000000000E-01      5.844727000000000E+01
5480000000.000000      1.133003000000000E-01      3.083789000000000E+01      4.116058000000000E-01      4.921875000000000E+01
5500000000.000000      1.754456000000000E-01      1.546045000000000E+01      2.929077000000000E-01      4.730859000000000E+01
5520000000.000000      2.210617000000000E-01      5.136108000000000E-01      1.947632000000000E-01      5.904297000000000E+01
5540000000.000000      2.524719000000000E-01     -1.324561000000000E+01      1.809616000000000E-01      9.080858000000000E+01
5560000000.000000      2.703552000000000E-01     -2.500781000000000E+01      2.632141000000000E-01      1.087656000000000E+02
5580000000.000000      2.827911000000000E-01     -3.518945000000000E+01      3.845978000000000E-01      1.084219000000000E+02
5600000000.000000      2.940369000000000E-01     -4.389648000000000E+01      5.074463000000000E-01      9.957031000000000E+01
5620000000.000000      3.047180000000000E-01     -5.305859000000000E+01      5.958557000000000E-01      8.706249000000000E+01
5640000000.000000      3.076324000000000E-01     -6.276367000000000E+01      6.479187000000000E-01      7.501562000000000E+01
5660000000.000000      2.982178000000000E-01     -7.337500000000000E+01      6.849670000000000E-01      6.368945000000000E+01
5680000000.000000      2.690430000000000E-01     -8.395702000000000E+01      6.994629000000000E-01      5.096874000000000E+01
5700000000.000000      2.216644000000000E-01     -9.122656000000000E+01      6.822205000000000E-01      3.869336000000000E+01
5720000000.000000      1.708908000000000E-01     -8.982031000000000E+01      6.435547000000000E-01      2.589746000000000E+01
5740000000.000000      1.498489000000000E-01     -7.539844000000000E+01      5.661621000000000E-01      1.262695000000000E+01
5760000000.000000      1.786652000000000E-01     -6.381640000000000E+01      4.504089000000000E-01      1.183777000000000E+00
5780000000.000000      2.248001000000000E-01     -6.527734000000000E+01      3.168640000000000E-01     -3.962036000000000E+00
5800000000.000000      2.563782000000000E-01     -7.310156000000000E+01      2.080460000000000E-01      7.091553000000000E+00
5820000000.000000      2.664795000000000E-01     -8.250780000000000E+01      1.895599000000000E-01      3.765625000000000E+01
5840000000.000000      2.565308000000000E-01     -9.108984000000000E+01      2.709045000000000E-01      5.397265000000000E+01
5860000000.000000      2.395020000000000E-01     -9.661327000000000E+01      3.717041000000000E-01      5.400781000000000E+01
5880000000.000000      2.244034000000000E-01     -9.970312000000000E+01      4.778290000000000E-01      4.858788000000000E+01
5900000000.000000      2.164917000000000E-01     -1.024219000000000E+02      5.953979000000000E-01      3.841406000000000E+01
5920000000.000000      2.089462000000000E-01     -1.050664000000000E+02      6.721191000000000E-01      2.441797000000000E+01
5940000000.000000      1.951294000000000E-01     -1.070039000000000E+02      7.015686000000000E-01      1.114258000000000E+01
5960000000.000000      1.773987000000000E-01     -1.053320000000000E+02      7.138367000000000E-01     -1.382935000000000E+00
5980000000.000000      1.654205000000000E-01     -9.757030000000000E+01      6.909180000000000E-01     -1.545654000000000E+01
6000000000.000000      1.812134000000000E-01     -8.841015000000000E+01      6.282654000000000E-01     -2.897168000000000E+01
6020000000.000000      2.160034000000000E-01     -8.666016000000000E+01      5.291748000000000E-01     -4.186913000000000E+01
6040000000.000000      2.517548000000000E-01     -9.181250000000000E+01      4.007263000000000E-01     -4.991796000000000E+01
6060000000.000000      2.756195000000000E-01     -1.008984000000000E+02      2.854156000000000E-01     -4.977148000000000E+01
6080000000.000000      2.854767000000000E-01     -1.111562000000000E+02      2.055817000000000E-01     -3.599804000000000E+01
