! Network Analyzer HP8722D
! Hewlett-Packard
! Data name: Linha & Wilkinson+CNT
! Saver's name: Rodrigo Anjos
! Comments: Teste da utilização de aquisição
continua pelo VNA HP8722D
! Time and date: 29/9/2025 16:32
!              Frequency                     S11                                                   S21                                                   S12                                                   S22
# HZ  S  MA R 50
3000000000.000000      4.234009000000000E-01     -5.551952000000000E+01      2.058334000000000E-01     -1.316015000000000E+02
3020000000.000000      4.472809000000000E-01     -6.948047000000000E+01      3.483276000000000E-01     -1.348203000000000E+02
3040000000.000000      4.523163000000000E-01     -8.254686000000000E+01      4.665833000000000E-01     -1.447422000000000E+02
3060000000.000000      4.452972000000000E-01     -9.469921000000000E+01      5.706787000000000E-01     -1.549844000000000E+02
3080000000.000000      4.296417000000000E-01     -1.060234000000000E+02      6.730957000000000E-01     -1.681641000000000E+02
3100000000.000000      4.093170000000000E-01     -1.172266000000000E+02      7.249451000000000E-01      1.770469000000000E+02
3120000000.000000      3.807526000000000E-01     -1.291250000000000E+02      7.323303000000000E-01      1.636797000000000E+02
3140000000.000000      3.397217000000000E-01     -1.421484000000000E+02      7.247009000000000E-01      1.507266000000000E+02
3160000000.000000      2.796021000000000E-01     -1.561797000000000E+02      6.854553000000000E-01      1.371328000000000E+02
3180000000.000000      2.003479000000000E-01     -1.688828000000000E+02      6.146851000000000E-01      1.244765000000000E+02
3200000000.000000      1.123276000000000E-01     -1.700781000000000E+02      5.216980000000000E-01      1.117773000000000E+02
3220000000.000000      7.851791000000000E-02     -1.247187000000000E+02      3.883209000000000E-01      1.009844000000000E+02
3240000000.000000      1.494370000000000E-01     -1.046797000000000E+02      2.490082000000000E-01      9.949608000000000E+01
3260000000.000000      2.292557000000000E-01     -1.147578000000000E+02      1.477585000000000E-01      1.247539000000000E+02
3280000000.000000      2.873383000000000E-01     -1.305703000000000E+02      2.017441000000000E-01      1.651875000000000E+02
3300000000.000000      3.202057000000000E-01     -1.468437000000000E+02      3.284760000000000E-01      1.696875000000000E+02
3320000000.000000      3.321838000000000E-01     -1.627891000000000E+02      4.617310000000000E-01      1.627812000000000E+02
3340000000.000000      3.285675000000000E-01     -1.782500000000000E+02      5.726929000000000E-01      1.507266000000000E+02
3360000000.000000      3.171387000000000E-01      1.669765000000000E+02      6.460876000000000E-01      1.386484000000000E+02
3380000000.000000      3.013306000000000E-01      1.526172000000000E+02      7.086182000000000E-01      1.272890000000000E+02
3400000000.000000      2.787018000000000E-01      1.379375000000000E+02      7.589111000000000E-01      1.135273000000000E+02
3420000000.000000      2.439880000000000E-01      1.231250000000000E+02      7.484436000000000E-01      9.865234000000000E+01
3440000000.000000      1.912308000000000E-01      1.082891000000000E+02      7.061157000000000E-01      8.569139000000000E+01
3460000000.000000      1.211128000000000E-01      9.742968000000000E+01      6.491699000000000E-01      7.266406000000000E+01
3480000000.000000      4.870224000000000E-02      1.198945000000000E+02      5.518188000000000E-01      5.900781000000000E+01
3500000000.000000      9.078979000000000E-02     -1.740937000000000E+02      4.268341000000000E-01      4.770508000000000E+01
3520000000.000000      1.822510000000000E-01      1.793125000000000E+02      2.811890000000000E-01      4.045703000000000E+01
3540000000.000000      2.624207000000000E-01      1.631328000000000E+02      1.481857000000000E-01      5.767578000000000E+01
3560000000.000000      3.228607000000000E-01      1.462031000000000E+02      1.656189000000000E-01      1.073242000000000E+02
3580000000.000000      3.594971000000000E-01      1.301172000000000E+02      2.924500000000000E-01      1.176172000000000E+02
3600000000.000000      3.765564000000000E-01      1.154922000000000E+02      4.180298000000000E-01      1.108437000000000E+02
3620000000.000000      3.787689000000000E-01      1.027617000000000E+02      5.198059000000000E-01      1.013555000000000E+02
3640000000.000000      3.690796000000000E-01      9.157812000000000E+01      6.206970000000000E-01      9.032812000000000E+01
3660000000.000000      3.525543000000000E-01      8.136328000000000E+01      6.919250000000000E-01      7.599218000000000E+01
3680000000.000000      3.305359000000000E-01      7.212109000000000E+01      7.100220000000000E-01      6.296679000000000E+01
3700000000.000000      2.999725000000000E-01      6.385937000000000E+01      7.209778000000000E-01      5.135351000000000E+01
3720000000.000000      2.562714000000000E-01      5.770702000000000E+01      7.254944000000000E-01      3.697656000000000E+01
3740000000.000000      2.058411000000000E-01      5.826172000000000E+01      6.648865000000000E-01      2.158594000000000E+01
3760000000.000000      1.780014000000000E-01      7.211328000000000E+01      5.686035000000000E-01      7.346924000000000E+00
3780000000.000000      2.112274000000000E-01      8.737890000000000E+01      4.393463000000000E-01     -5.887451000000000E+00
3800000000.000000      2.808990000000000E-01      8.922655000000000E+01      2.846527000000000E-01     -1.341992000000000E+01
3820000000.000000      3.492737000000000E-01      8.282812000000000E+01      1.550446000000000E-01     -1.003906000000000E+00
3840000000.000000      3.998871000000000E-01      7.411327000000000E+01      1.417007000000000E-01      4.725195000000000E+01
3860000000.000000      4.349976000000000E-01      6.548046000000000E+01      2.444229000000000E-01      6.534374000000000E+01
3880000000.000000      4.602814000000000E-01      5.793945000000000E+01      3.745117000000000E-01      6.130077000000000E+01
3900000000.000000      4.893341000000000E-01      5.088476000000000E+01      4.761963000000000E-01      4.803124000000000E+01
3920000000.000000      5.201721000000000E-01      4.330664000000000E+01      5.079041000000000E-01      3.619531000000000E+01
3940000000.000000      5.484009000000000E-01      3.428320000000000E+01      5.395813000000000E-01      2.972265000000000E+01
3960000000.000000      5.603638000000000E-01      2.427148000000000E+01      5.951843000000000E-01      2.027442000000000E+01
3980000000.000000      5.537415000000000E-01      1.381104000000000E+01      5.966492000000000E-01      8.367188000000000E+00
4000000000.000000      5.268555000000000E-01      3.396118000000000E+00      5.805359000000000E-01      1.340332000000000E+00
4020000000.000000      4.858246000000000E-01     -6.683838000000000E+00      5.975647000000000E-01     -6.326904000000000E+00
4040000000.000000      4.264832000000000E-01     -1.560645000000000E+01      5.858154000000000E-01     -1.867871000000000E+01
4060000000.000000      3.506927000000000E-01     -2.173144000000000E+01      5.281982000000000E-01     -2.864453000000000E+01
4080000000.000000      2.755585000000000E-01     -2.188672000000000E+01      4.696808000000000E-01     -3.797266000000000E+01
4100000000.000000      2.283478000000000E-01     -1.138086000000000E+01      3.691711000000000E-01     -4.725586000000000E+01
4120000000.000000      2.412338000000000E-01      1.919861000000000E+00      2.514343000000000E-01     -4.430860000000000E+01
4140000000.000000      2.889862000000000E-01      5.337891000000000E+00      2.024765000000000E-01     -2.067383000000000E+01
4160000000.000000      3.331604000000000E-01      1.181030000000000E+00      2.612610000000000E-01     -2.677917000000000E-01
4180000000.000000      3.617401000000000E-01     -5.684082000000000E+00      3.556671000000000E-01      3.985229000000000E+00
4200000000.000000      3.713531000000000E-01     -1.343262000000000E+01      4.864655000000000E-01      1.549072000000000E+00
4220000000.000000      3.681946000000000E-01     -2.066895000000000E+01      6.403809000000000E-01     -1.066406000000000E+01
4240000000.000000      3.491974000000000E-01     -2.820117000000000E+01      7.218323000000000E-01     -2.748047000000000E+01
4260000000.000000      3.104706000000000E-01     -3.402148000000000E+01      7.430420000000000E-01     -4.153906000000000E+01
4280000000.000000      2.606964000000000E-01     -3.537695000000000E+01      7.528381000000000E-01     -5.539063000000000E+01
4300000000.000000      2.223129000000000E-01     -2.754590000000000E+01      7.165527000000000E-01     -7.040234000000000E+01
4320000000.000000      2.346268000000000E-01     -1.471631000000000E+01      6.337585000000000E-01     -8.491014000000000E+01
4340000000.000000      2.922668000000000E-01     -1.039063000000000E+01      5.186768000000000E-01     -9.774609000000000E+01
4360000000.000000      3.577423000000000E-01     -1.540723000000000E+01      3.842468000000000E-01     -1.068555000000000E+02
4380000000.000000      4.045715000000000E-01     -2.434473000000000E+01      2.521515000000000E-01     -1.082539000000000E+02
4400000000.000000      4.263916000000000E-01     -3.435547000000000E+01      1.539230000000000E-01     -8.604687000000000E+01
4420000000.000000      4.252472000000000E-01     -4.367773000000000E+01      1.857376000000000E-01     -4.588867000000000E+01
4440000000.000000      4.088135000000000E-01     -5.183788000000000E+01      3.079529000000000E-01     -3.598437000000000E+01
4460000000.000000      3.875275000000000E-01     -5.839648000000000E+01      4.500122000000000E-01     -4.311328000000000E+01
4480000000.000000      3.684082000000000E-01     -6.482812000000000E+01      5.604248000000000E-01     -5.525195000000000E+01
4500000000.000000      3.470917000000000E-01     -7.142968000000000E+01      6.419678000000000E-01     -6.658593000000000E+01
4520000000.000000      3.142853000000000E-01     -7.919922000000000E+01      7.151489000000000E-01     -7.958984000000000E+01
4540000000.000000      2.636261000000000E-01     -8.559374000000000E+01      7.421875000000000E-01     -9.405859000000000E+01
4560000000.000000      2.019653000000000E-01     -8.409374000000000E+01      7.299805000000000E-01     -1.074258000000000E+02
4580000000.000000      1.737518000000000E-01     -6.829296000000000E+01      6.931763000000000E-01     -1.211445000000000E+02
4600000000.000000      2.103882000000000E-01     -5.391211000000000E+01      6.082764000000000E-01     -1.345625000000000E+02
4620000000.000000      2.753143000000000E-01     -5.487305000000000E+01      5.024414000000000E-01     -1.451172000000000E+02
4640000000.000000      3.295441000000000E-01     -6.474218000000000E+01      3.822021000000000E-01     -1.536328000000000E+02
4660000000.000000      3.546295000000000E-01     -7.798437000000000E+01      2.483063000000000E-01     -1.521484000000000E+02
4680000000.000000      3.465424000000000E-01     -9.210546000000000E+01      1.785278000000000E-01     -1.242617000000000E+02
4700000000.000000      3.098450000000000E-01     -1.053828000000000E+02      2.459946000000000E-01     -9.678905000000000E+01
4720000000.000000      2.543793000000000E-01     -1.159961000000000E+02      3.648987000000000E-01     -9.533203000000000E+01
4740000000.000000      1.922989000000000E-01     -1.215586000000000E+02      4.738464000000000E-01     -1.015742000000000E+02
4760000000.000000      1.392365000000000E-01     -1.178437000000000E+02      5.786438000000000E-01     -1.102148000000000E+02
4780000000.000000      1.118164000000000E-01     -1.022617000000000E+02      6.668701000000000E-01     -1.225039000000000E+02
4800000000.000000      1.170120000000000E-01     -8.389063000000000E+01      7.168274000000000E-01     -1.353516000000000E+02
4820000000.000000      1.452408000000000E-01     -7.377343000000000E+01      7.365417000000000E-01     -1.486875000000000E+02
4840000000.000000      1.857605000000000E-01     -7.316796000000000E+01      7.193909000000000E-01     -1.614219000000000E+02
4860000000.000000      2.288361000000000E-01     -7.989843000000000E+01      6.864929000000000E-01     -1.739766000000000E+02
4880000000.000000      2.680511000000000E-01     -9.037500000000000E+01      6.194763000000000E-01      1.721641000000000E+02
4900000000.000000      2.935638000000000E-01     -1.038789000000000E+02      4.978180000000000E-01      1.600703000000000E+02
4920000000.000000      3.001556000000000E-01     -1.189297000000000E+02      3.672180000000000E-01      1.537188000000000E+02
4940000000.000000      2.859802000000000E-01     -1.346094000000000E+02      2.537537000000000E-01      1.557500000000000E+02
4960000000.000000      2.557983000000000E-01     -1.498750000000000E+02      1.775131000000000E-01      1.764922000000000E+02
4980000000.000000      2.136841000000000E-01     -1.641094000000000E+02      2.122879000000000E-01     -1.515859000000000E+02
5000000000.000000      1.690521000000000E-01     -1.759140000000000E+02      3.276367000000000E-01     -1.434766000000000E+02
5020000000.000000      1.312561000000000E-01      1.738750000000000E+02      4.585266000000000E-01     -1.495469000000000E+02
5040000000.000000      1.012726000000000E-01      1.637812000000000E+02      5.686340000000000E-01     -1.601875000000000E+02
5060000000.000000      7.251740000000000E-02      1.489375000000000E+02      6.494446000000000E-01     -1.716719000000000E+02
5080000000.000000      4.214668000000000E-02      1.235469000000000E+02      7.181702000000000E-01      1.761953000000000E+02
5100000000.000000      1.701641000000000E-02      4.474805000000000E+01      7.567444000000000E-01      1.624766000000000E+02
5120000000.000000      4.054070000000000E-02     -4.988476000000000E+01      7.533264000000000E-01      1.482734000000000E+02
5140000000.000000      7.227325000000000E-02     -8.686718000000000E+01      7.060242000000000E-01      1.346250000000000E+02
5160000000.000000      9.646225000000000E-02     -1.180781000000000E+02      6.308289000000000E-01      1.222773000000000E+02
5180000000.000000      1.095772000000000E-01     -1.489219000000000E+02      5.358887000000000E-01      1.109727000000000E+02
5200000000.000000      1.128387000000000E-01      1.784844000000000E+02      4.193115000000000E-01      1.012930000000000E+02
5220000000.000000      1.104355000000000E-01      1.429297000000000E+02      2.859650000000000E-01      9.808594000000000E+01
5240000000.000000      1.091995000000000E-01      1.066367000000000E+02      1.848297000000000E-01      1.146211000000000E+02
5260000000.000000      1.134148000000000E-01      7.309765000000000E+01      1.944122000000000E-01      1.489141000000000E+02
5280000000.000000      1.205902000000000E-01      4.655469000000000E+01      2.937927000000000E-01      1.606250000000000E+02
5300000000.000000      1.276093000000000E-01      2.557031000000000E+01      4.076691000000000E-01      1.583437000000000E+02
5320000000.000000      1.330719000000000E-01      8.928711000000000E+00      5.251160000000000E-01      1.509063000000000E+02
5340000000.000000      1.388779000000000E-01     -5.320313000000000E+00      6.369934000000000E-01      1.388203000000000E+02
5360000000.000000      1.435928000000000E-01     -2.094336000000000E+01      7.059326000000000E-01      1.244297000000000E+02
5380000000.000000      1.387405000000000E-01     -3.857422000000000E+01      7.181396000000000E-01      1.109219000000000E+02
5400000000.000000      1.207390000000000E-01     -5.683788000000000E+01      7.204895000000000E-01      9.937109000000000E+01
5420000000.000000      8.574295000000000E-02     -7.377343000000000E+01      7.070618000000000E-01      8.615234000000000E+01
5440000000.000000      3.133011000000000E-02     -8.008593000000000E+01      6.510010000000000E-01      7.183594000000000E+01
5460000000.000000      4.115486000000000E-02      3.959570000000000E+01      5.429993000000000E-01      5.883007000000000E+01
5480000000.000000      1.116295000000000E-01      3.157129000000000E+01      4.150543000000000E-01      4.942577000000000E+01
5500000000.000000      1.746826000000000E-01      1.604785000000000E+01      2.949371000000000E-01      4.717187000000000E+01
5520000000.000000      2.206116000000000E-01      1.010742000000000E+00      1.962280000000000E-01      5.845508000000000E+01
5540000000.000000      2.514648000000000E-01     -1.270313000000000E+01      1.796570000000000E-01      9.029297000000000E+01
5560000000.000000      2.700348000000000E-01     -2.487890000000000E+01      2.607574000000000E-01      1.087773000000000E+02
5580000000.000000      2.825775000000000E-01     -3.484179000000000E+01      3.825378000000000E-01      1.088047000000000E+02
5600000000.000000      2.937012000000000E-01     -4.374804000000000E+01      5.051880000000000E-01      9.995312000000000E+01
5620000000.000000      3.049622000000000E-01     -5.277734000000000E+01      5.941162000000000E-01      8.748047000000000E+01
5640000000.000000      3.083496000000000E-01     -6.250586000000000E+01      6.463013000000000E-01      7.555078000000000E+01
5660000000.000000      2.989960000000000E-01     -7.321875000000000E+01      6.843872000000000E-01      6.414453000000000E+01
5680000000.000000      2.696533000000000E-01     -8.351954000000000E+01      7.002258000000000E-01      5.143164000000000E+01
5700000000.000000      2.220001000000000E-01     -9.107031000000000E+01      6.834412000000000E-01      3.903711000000000E+01
5720000000.000000      1.712570000000000E-01     -9.005077000000000E+01      6.458740000000000E-01      2.633398000000000E+01
5740000000.000000      1.487656000000000E-01     -7.572656000000000E+01      5.667419000000000E-01      1.294580000000000E+01
5760000000.000000      1.771317000000000E-01     -6.378711000000000E+01      4.529419000000000E-01      1.315613000000000E+00
5780000000.000000      2.239761000000000E-01     -6.504296000000000E+01      3.197479000000000E-01     -3.986694000000000E+00
5800000000.000000      2.569427000000000E-01     -7.285546000000000E+01      2.095032000000000E-01      6.424072000000000E+00
5820000000.000000      2.671204000000000E-01     -8.239843000000000E+01      1.885223000000000E-01      3.697851000000000E+01
5840000000.000000      2.571411000000000E-01     -9.074610000000000E+01      2.688141000000000E-01      5.395312000000000E+01
5860000000.000000      2.398376000000000E-01     -9.657030000000000E+01      3.692017000000000E-01      5.421288000000000E+01
5880000000.000000      2.240143000000000E-01     -9.968359000000000E+01      4.759521000000000E-01      4.891211000000000E+01
5900000000.000000      2.161713000000000E-01     -1.021328000000000E+02      5.935974000000000E-01      3.878515000000000E+01
5920000000.000000      2.086945000000000E-01     -1.050820000000000E+02      6.709290000000000E-01      2.486425000000000E+01
5940000000.000000      1.948395000000000E-01     -1.070234000000000E+02      7.018738000000000E-01      1.162891000000000E+01
5960000000.000000      1.773758000000000E-01     -1.053359000000000E+02      7.152100000000000E-01     -1.122009000000000E+00
5980000000.000000      1.651306000000000E-01     -9.754295000000000E+01      6.940002000000000E-01     -1.505273000000000E+01
6000000000.000000      1.808853000000000E-01     -8.832031000000000E+01      6.315613000000000E-01     -2.879980000000000E+01
6020000000.000000      2.156143000000000E-01     -8.630468000000000E+01      5.326233000000000E-01     -4.154882000000000E+01
6040000000.000000      2.510376000000000E-01     -9.137890000000000E+01      4.030609000000000E-01     -4.978906000000000E+01
6060000000.000000      2.746124000000000E-01     -1.005391000000000E+02      2.879486000000000E-01     -4.985352000000000E+01
6080000000.000000      2.852631000000000E-01     -1.107851000000000E+02      2.065048000000000E-01     -3.655664000000000E+01
