! Network Analyzer HP8722D
! Hewlett-Packard
! Data name: Linha & Wilkinson+CNT
! Saver's name: Rodrigo Anjos
! Comments: Teste da utilização de aquisição
continua pelo VNA HP8722D
! Time and date: 29/9/2025 12:45
!              Frequency                     S11                                                   S21                                                   S12                                                   S22
# HZ  S  MA R 50
3000000000.000000      4.240112000000000E-01     -5.593554000000000E+01      2.069397000000000E-01     -1.313984000000000E+02
3020000000.000000      4.478607000000000E-01     -7.021874000000000E+01      3.499908000000000E-01     -1.348828000000000E+02
3040000000.000000      4.546356000000000E-01     -8.311718000000000E+01      4.667969000000000E-01     -1.448359000000000E+02
3060000000.000000      4.467316000000000E-01     -9.510546000000000E+01      5.720215000000000E-01     -1.550469000000000E+02
3080000000.000000      4.317474000000000E-01     -1.063594000000000E+02      6.727600000000000E-01     -1.681250000000000E+02
3100000000.000000      4.117126000000000E-01     -1.175039000000000E+02      7.233887000000000E-01      1.770156000000000E+02
3120000000.000000      3.833008000000000E-01     -1.293437000000000E+02      7.330933000000000E-01      1.635937000000000E+02
3140000000.000000      3.425293000000000E-01     -1.422891000000000E+02      7.242737000000000E-01      1.508203000000000E+02
3160000000.000000      2.822113000000000E-01     -1.561016000000000E+02      6.841125000000000E-01      1.371484000000000E+02
3180000000.000000      2.027588000000000E-01     -1.684531000000000E+02      6.131287000000000E-01      1.246562000000000E+02
3200000000.000000      1.150894000000000E-01     -1.690625000000000E+02      5.205383000000000E-01      1.119961000000000E+02
3220000000.000000      8.283615000000000E-02     -1.248633000000000E+02      3.869171000000000E-01      1.010625000000000E+02
3240000000.000000      1.531677000000000E-01     -1.054922000000000E+02      2.471619000000000E-01      9.975389000000000E+01
3260000000.000000      2.326736000000000E-01     -1.153008000000000E+02      1.473694000000000E-01      1.254219000000000E+02
3280000000.000000      2.908936000000000E-01     -1.307656000000000E+02      2.033386000000000E-01      1.654609000000000E+02
3300000000.000000      3.237000000000000E-01     -1.469375000000000E+02      3.298340000000000E-01      1.698125000000000E+02
3320000000.000000      3.358002000000000E-01     -1.626875000000000E+02      4.630585000000000E-01      1.627266000000000E+02
3340000000.000000      3.319855000000000E-01     -1.779687000000000E+02      5.748596000000000E-01      1.506562000000000E+02
3360000000.000000      3.190765000000000E-01      1.674297000000000E+02      6.483154000000000E-01      1.385234000000000E+02
3380000000.000000      3.027191000000000E-01      1.532422000000000E+02      7.097778000000000E-01      1.272305000000000E+02
3400000000.000000      2.795868000000000E-01      1.385781000000000E+02      7.584229000000000E-01      1.134922000000000E+02
3420000000.000000      2.433853000000000E-01      1.236992000000000E+02      7.500000000000000E-01      9.870312000000000E+01
3440000000.000000      1.895370000000000E-01      1.090273000000000E+02      7.052612000000000E-01      8.574219000000000E+01
3460000000.000000      1.189117000000000E-01      9.863670000000000E+01      6.484985000000000E-01      7.266406000000000E+01
3480000000.000000      4.765511000000000E-02      1.244727000000000E+02      5.504150000000000E-01      5.919140000000000E+01
3500000000.000000      9.424210000000000E-02     -1.731797000000000E+02      4.256287000000000E-01      4.779687000000000E+01
3520000000.000000      1.859131000000000E-01      1.798906000000000E+02      2.797546000000000E-01      4.054492000000000E+01
3540000000.000000      2.649994000000000E-01      1.636484000000000E+02      1.476746000000000E-01      5.832617000000000E+01
3560000000.000000      3.235779000000000E-01      1.465781000000000E+02      1.669998000000000E-01      1.078281000000000E+02
3580000000.000000      3.601227000000000E-01      1.305078000000000E+02      2.942810000000000E-01      1.176641000000000E+02
3600000000.000000      3.760834000000000E-01      1.157539000000000E+02      4.198151000000000E-01      1.108125000000000E+02
3620000000.000000      3.773193000000000E-01      1.030078000000000E+02      5.221558000000000E-01      1.011875000000000E+02
3640000000.000000      3.678741000000000E-01      9.171484000000000E+01      6.224976000000000E-01      9.012890000000000E+01
3660000000.000000      3.508759000000000E-01      8.144140000000000E+01      6.934204000000000E-01      7.586328000000000E+01
3680000000.000000      3.280792000000000E-01      7.218359000000000E+01      7.120667000000000E-01      6.277929000000000E+01
3700000000.000000      2.973785000000000E-01      6.380859000000000E+01      7.217407000000000E-01      5.118554000000000E+01
3720000000.000000      2.527161000000000E-01      5.765625000000000E+01      7.251892000000000E-01      3.688086000000000E+01
3740000000.000000      2.024231000000000E-01      5.833008000000000E+01      6.648865000000000E-01      2.154687000000000E+01
3760000000.000000      1.754990000000000E-01      7.257030000000000E+01      5.664063000000000E-01      7.334717000000000E+00
3780000000.000000      2.095413000000000E-01      8.783203000000000E+01      4.372406000000000E-01     -5.986328000000000E+00
3800000000.000000      2.803955000000000E-01      8.942577000000000E+01      2.833405000000000E-01     -1.332520000000000E+01
3820000000.000000      3.480377000000000E-01      8.295313000000000E+01      1.542435000000000E-01     -3.199768000000000E-01
3840000000.000000      3.988647000000000E-01      7.407031000000000E+01      1.428833000000000E-01      4.758008000000000E+01
3860000000.000000      4.332275000000000E-01      6.548046000000000E+01      2.461624000000000E-01      6.549609000000000E+01
3880000000.000000      4.589081000000000E-01      5.784961000000000E+01      3.763885000000000E-01      6.131445000000000E+01
3900000000.000000      4.878235000000000E-01      5.073437000000000E+01      4.772949000000000E-01      4.793164000000000E+01
3920000000.000000      5.193481000000000E-01      4.310742000000000E+01      5.092163000000000E-01      3.600976000000000E+01
3940000000.000000      5.473328000000000E-01      3.398828000000000E+01      5.393372000000000E-01      2.965137000000000E+01
3960000000.000000      5.590515000000000E-01      2.390820000000000E+01      5.962524000000000E-01      2.029004000000000E+01
3980000000.000000      5.527039000000000E-01      1.327832000000000E+01      5.979004000000000E-01      8.313477000000000E+00
4000000000.000000      5.257568000000000E-01      2.900391000000000E+00      5.805054000000000E-01      1.424072000000000E+00
4020000000.000000      4.833832000000000E-01     -7.089111000000000E+00      5.975342000000000E-01     -6.480713000000000E+00
4040000000.000000      4.249420000000000E-01     -1.600879000000000E+01      5.857849000000000E-01     -1.865820000000000E+01
4060000000.000000      3.488617000000000E-01     -2.215625000000000E+01      5.274658000000000E-01     -2.878222000000000E+01
4080000000.000000      2.744293000000000E-01     -2.234766000000000E+01      4.696198000000000E-01     -3.806250000000000E+01
4100000000.000000      2.277451000000000E-01     -1.185742000000000E+01      3.681030000000000E-01     -4.735937000000000E+01
4120000000.000000      2.410355000000000E-01      1.388367000000000E+00      2.501831000000000E-01     -4.413671000000000E+01
4140000000.000000      2.888641000000000E-01      4.726807000000000E+00      2.030869000000000E-01     -1.996777000000000E+01
4160000000.000000      3.329620000000000E-01      6.481934000000000E-01      2.634430000000000E-01     -3.707886000000000E-02
4180000000.000000      3.612061000000000E-01     -6.228027000000000E+00      3.574982000000000E-01      3.996216000000000E+00
4200000000.000000      3.714294000000000E-01     -1.395410000000000E+01      4.870605000000000E-01      1.496887000000000E+00
4220000000.000000      3.674164000000000E-01     -2.121387000000000E+01      6.406555000000000E-01     -1.082715000000000E+01
4240000000.000000      3.482208000000000E-01     -2.870800000000000E+01      7.226563000000000E-01     -2.754297000000000E+01
4260000000.000000      3.099060000000000E-01     -3.460938000000000E+01      7.421875000000000E-01     -4.170312000000000E+01
4280000000.000000      2.602844000000000E-01     -3.589453000000000E+01      7.525024000000000E-01     -5.555859000000000E+01
4300000000.000000      2.229385000000000E-01     -2.793164000000000E+01      7.170715000000000E-01     -7.046093000000000E+01
4320000000.000000      2.356033000000000E-01     -1.500342000000000E+01      6.322937000000000E-01     -8.507421000000000E+01
4340000000.000000      2.935028000000000E-01     -1.096338000000000E+01      5.163879000000000E-01     -9.781639000000000E+01
4360000000.000000      3.589020000000000E-01     -1.584961000000000E+01      3.816986000000000E-01     -1.067422000000000E+02
4380000000.000000      4.057007000000000E-01     -2.482129000000000E+01      2.504730000000000E-01     -1.079766000000000E+02
4400000000.000000      4.273224000000000E-01     -3.476758000000000E+01      1.537552000000000E-01     -8.510546000000000E+01
4420000000.000000      4.254913000000000E-01     -4.421484000000000E+01      1.873474000000000E-01     -4.553711000000000E+01
4440000000.000000      4.087982000000000E-01     -5.215234000000000E+01      3.097076000000000E-01     -3.604883000000000E+01
4460000000.000000      3.885040000000000E-01     -5.880859000000000E+01      4.503632000000000E-01     -4.316015000000000E+01
4480000000.000000      3.689117000000000E-01     -6.513672000000000E+01      5.612183000000000E-01     -5.523046000000000E+01
4500000000.000000      3.476868000000000E-01     -7.163671000000000E+01      6.432190000000000E-01     -6.669531000000000E+01
4520000000.000000      3.150330000000000E-01     -7.926171000000000E+01      7.161560000000000E-01     -7.951562000000000E+01
4540000000.000000      2.640991000000000E-01     -8.528515000000000E+01      7.425232000000000E-01     -9.422655000000000E+01
4560000000.000000      2.039337000000000E-01     -8.362890000000000E+01      7.300110000000000E-01     -1.073476000000000E+02
4580000000.000000      1.768188000000000E-01     -6.806250000000000E+01      6.914978000000000E-01     -1.212500000000000E+02
4600000000.000000      2.140808000000000E-01     -5.433788000000000E+01      6.055908000000000E-01     -1.345859000000000E+02
4620000000.000000      2.790222000000000E-01     -5.556054000000000E+01      4.987488000000000E-01     -1.448281000000000E+02
4640000000.000000      3.331909000000000E-01     -6.530078000000000E+01      3.793335000000000E-01     -1.531797000000000E+02
4660000000.000000      3.572693000000000E-01     -7.841406000000000E+01      2.469482000000000E-01     -1.516406000000000E+02
4680000000.000000      3.491974000000000E-01     -9.216406000000000E+01      1.789246000000000E-01     -1.235469000000000E+02
4700000000.000000      3.122406000000000E-01     -1.052344000000000E+02      2.475281000000000E-01     -9.643358000000000E+01
4720000000.000000      2.560730000000000E-01     -1.157383000000000E+02      3.662415000000000E-01     -9.511719000000000E+01
4740000000.000000      1.936417000000000E-01     -1.209062000000000E+02      4.740448000000000E-01     -1.014726000000000E+02
4760000000.000000      1.417465000000000E-01     -1.169258000000000E+02      5.793762000000000E-01     -1.101680000000000E+02
4780000000.000000      1.152649000000000E-01     -1.010781000000000E+02      6.665344000000000E-01     -1.227305000000000E+02
4800000000.000000      1.217270000000000E-01     -8.392187000000000E+01      7.164001000000000E-01     -1.354453000000000E+02
4820000000.000000      1.506042000000000E-01     -7.434765000000000E+01      7.359009000000000E-01     -1.487734000000000E+02
4840000000.000000      1.912155000000000E-01     -7.417578000000000E+01      7.179871000000000E-01     -1.614922000000000E+02
4860000000.000000      2.342682000000000E-01     -8.052343000000000E+01      6.830444000000000E-01     -1.740703000000000E+02
4880000000.000000      2.709656000000000E-01     -9.079687000000000E+01      6.165161000000000E-01      1.721094000000000E+02
4900000000.000000      2.965240000000000E-01     -1.040859000000000E+02      4.954071000000000E-01      1.600391000000000E+02
4920000000.000000      3.021393000000000E-01     -1.189101000000000E+02      3.654327000000000E-01      1.535703000000000E+02
4940000000.000000      2.874756000000000E-01     -1.343750000000000E+02      2.524567000000000E-01      1.561719000000000E+02
4960000000.000000      2.570038000000000E-01     -1.493515000000000E+02      1.781921000000000E-01      1.773516000000000E+02
4980000000.000000      2.143555000000000E-01     -1.634687000000000E+02      2.142105000000000E-01     -1.510313000000000E+02
5000000000.000000      1.691666000000000E-01     -1.748203000000000E+02      3.298950000000000E-01     -1.434453000000000E+02
5020000000.000000      1.305389000000000E-01      1.754219000000000E+02      4.611511000000000E-01     -1.493359000000000E+02
5040000000.000000      1.000099000000000E-01      1.659922000000000E+02      5.698853000000000E-01     -1.604219000000000E+02
5060000000.000000      7.126999000000000E-02      1.512344000000000E+02      6.512756000000000E-01     -1.715469000000000E+02
5080000000.000000      4.052734000000000E-02      1.270430000000000E+02      7.176514000000000E-01      1.761953000000000E+02
5100000000.000000      1.397848000000000E-02      4.095508000000000E+01      7.570190000000000E-01      1.624297000000000E+02
5120000000.000000      4.125595000000000E-02     -5.375390000000000E+01      7.524719000000000E-01      1.481875000000000E+02
5140000000.000000      7.361603000000000E-02     -8.810156000000000E+01      7.046204000000000E-01      1.345781000000000E+02
5160000000.000000      9.745026000000000E-02     -1.183242000000000E+02      6.306152000000000E-01      1.224258000000000E+02
5180000000.000000      1.105118000000000E-01     -1.485312000000000E+02      5.331421000000000E-01      1.109375000000000E+02
5200000000.000000      1.124611000000000E-01      1.790781000000000E+02      4.173431000000000E-01      1.012031000000000E+02
5220000000.000000      1.082077000000000E-01      1.432344000000000E+02      2.837524000000000E-01      9.851171000000000E+01
5240000000.000000      1.071396000000000E-01      1.067851000000000E+02      1.842346000000000E-01      1.153008000000000E+02
5260000000.000000      1.108589000000000E-01      7.271093000000000E+01      1.960297000000000E-01      1.495078000000000E+02
5280000000.000000      1.187515000000000E-01      4.547852000000000E+01      2.963257000000000E-01      1.606719000000000E+02
5300000000.000000      1.254501000000000E-01      2.448242000000000E+01      4.096832000000000E-01      1.583125000000000E+02
5320000000.000000      1.312561000000000E-01      7.907227000000000E+00      5.280457000000000E-01      1.507656000000000E+02
5340000000.000000      1.380310000000000E-01     -6.381836000000000E+00      6.372986000000000E-01      1.387187000000000E+02
5360000000.000000      1.428909000000000E-01     -2.176856000000000E+01      7.057800000000000E-01      1.242148000000000E+02
5380000000.000000      1.392059000000000E-01     -3.905078000000000E+01      7.169189000000000E-01      1.108203000000000E+02
5400000000.000000      1.213188000000000E-01     -5.706445000000000E+01      7.184143000000000E-01      9.932030000000000E+01
5420000000.000000      8.642960000000000E-02     -7.358593000000000E+01      7.047729000000000E-01      8.622265000000000E+01
5440000000.000000      3.288841000000000E-02     -7.837891000000000E+01      6.481323000000000E-01      7.191796000000000E+01
5460000000.000000      4.113007000000000E-02      3.666992000000000E+01      5.399170000000000E-01      5.865039000000000E+01
5480000000.000000      1.108093000000000E-01      3.012695000000000E+01      4.136353000000000E-01      4.946875000000000E+01
5500000000.000000      1.737442000000000E-01      1.506592000000000E+01      2.938995000000000E-01      4.746875000000000E+01
5520000000.000000      2.198792000000000E-01      6.317139000000000E-02      1.961823000000000E-01      5.916601000000000E+01
5540000000.000000      2.520447000000000E-01     -1.359033000000000E+01      1.804962000000000E-01      9.092188000000000E+01
5560000000.000000      2.710724000000000E-01     -2.526367000000000E+01      2.622833000000000E-01      1.088398000000000E+02
5580000000.000000      2.830963000000000E-01     -3.507421000000000E+01      3.839264000000000E-01      1.087383000000000E+02
5600000000.000000      2.946167000000000E-01     -4.393750000000000E+01      5.061646000000000E-01      9.973827000000000E+01
5620000000.000000      3.057556000000000E-01     -5.304492000000000E+01      5.950012000000000E-01      8.718359000000000E+01
5640000000.000000      3.094940000000000E-01     -6.269921000000000E+01      6.462708000000000E-01      7.544531000000000E+01
5660000000.000000      3.010101000000000E-01     -7.336328000000000E+01      6.842651000000000E-01      6.413280000000000E+01
5680000000.000000      2.720490000000000E-01     -8.366796000000000E+01      6.980896000000000E-01      5.138672000000000E+01
5700000000.000000      2.254562000000000E-01     -9.108593000000000E+01      6.826782000000000E-01      3.916992000000000E+01
5720000000.000000      1.749039000000000E-01     -9.002344000000000E+01      6.451721000000000E-01      2.628613000000000E+01
5740000000.000000      1.522903000000000E-01     -7.595703000000000E+01      5.659485000000000E-01      1.307373000000000E+01
5760000000.000000      1.803818000000000E-01     -6.419140000000000E+01      4.509125000000000E-01      1.462524000000000E+00
5780000000.000000      2.261353000000000E-01     -6.552734000000000E+01      3.172150000000000E-01     -3.720337000000000E+00
5800000000.000000      2.590179000000000E-01     -7.307422000000000E+01      2.088165000000000E-01      7.053223000000000E+00
5820000000.000000      2.685852000000000E-01     -8.250780000000000E+01      1.887054000000000E-01      3.759375000000000E+01
5840000000.000000      2.597961000000000E-01     -9.111328000000000E+01      2.707062000000000E-01      5.419922000000000E+01
5860000000.000000      2.419968000000000E-01     -9.640625000000000E+01      3.707581000000000E-01      5.424414000000000E+01
5880000000.000000      2.274399000000000E-01     -9.967968000000000E+01      4.769135000000000E-01      4.885156000000000E+01
5900000000.000000      2.207642000000000E-01     -1.020664000000000E+02      5.942383000000000E-01      3.886719000000000E+01
5920000000.000000      2.128830000000000E-01     -1.048828000000000E+02      6.716614000000000E-01      2.496289000000000E+01
5940000000.000000      1.989441000000000E-01     -1.068633000000000E+02      7.023621000000000E-01      1.159717000000000E+01
5960000000.000000      1.810837000000000E-01     -1.052773000000000E+02      7.138367000000000E-01     -1.083557000000000E+00
5980000000.000000      1.677704000000000E-01     -9.796093000000000E+01      6.929932000000000E-01     -1.502686000000000E+01
6000000000.000000      1.827469000000000E-01     -8.857031000000000E+01      6.284180000000000E-01     -2.871191000000000E+01
6020000000.000000      2.180634000000000E-01     -8.673828000000000E+01      5.285645000000000E-01     -4.127930000000000E+01
6040000000.000000      2.538300000000000E-01     -9.173828000000000E+01      4.006805000000000E-01     -4.953515000000000E+01
6060000000.000000      2.782898000000000E-01     -1.007891000000000E+02      2.859192000000000E-01     -4.942383000000000E+01
6080000000.000000      2.882843000000000E-01     -1.106875000000000E+02      2.055969000000000E-01     -3.576172000000000E+01
