! Network Analyzer HP8722D
! Hewlett-Packard
! Data name: Linha & Wilkinson+CNT
! Saver's name: Rodrigo Anjos
! Comments: Teste da utilização de aquisição
continua pelo VNA HP8722D
! Time and date: 29/9/2025 14:11
!              Frequency                     S11                                                   S21                                                   S12                                                   S22
# HZ  S  MA R 50
3000000000.000000      4.242096000000000E-01     -5.587500000000000E+01      2.079697000000000E-01     -1.316172000000000E+02
3020000000.000000      4.473267000000000E-01     -6.995312000000000E+01      3.507843000000000E-01     -1.350469000000000E+02
3040000000.000000      4.518433000000000E-01     -8.298046000000000E+01      4.685516000000000E-01     -1.450000000000000E+02
3060000000.000000      4.447479000000000E-01     -9.505859000000000E+01      5.731506000000000E-01     -1.554375000000000E+02
3080000000.000000      4.291382000000000E-01     -1.062578000000000E+02      6.735535000000000E-01     -1.684687000000000E+02
3100000000.000000      4.088745000000000E-01     -1.174961000000000E+02      7.241211000000000E-01      1.766484000000000E+02
3120000000.000000      3.794098000000000E-01     -1.294141000000000E+02      7.331238000000000E-01      1.632891000000000E+02
3140000000.000000      3.377228000000000E-01     -1.424844000000000E+02      7.226563000000000E-01      1.504688000000000E+02
3160000000.000000      2.774506000000000E-01     -1.565703000000000E+02      6.829529000000000E-01      1.369219000000000E+02
3180000000.000000      1.990967000000000E-01     -1.692188000000000E+02      6.129456000000000E-01      1.244062000000000E+02
3200000000.000000      1.108932000000000E-01     -1.695937000000000E+02      5.185242000000000E-01      1.114101000000000E+02
3220000000.000000      7.968903000000000E-02     -1.239219000000000E+02      3.853912000000000E-01      1.009727000000000E+02
3240000000.000000      1.506729000000000E-01     -1.048906000000000E+02      2.460709000000000E-01      9.953125000000000E+01
3260000000.000000      2.307129000000000E-01     -1.153398000000000E+02      1.469650000000000E-01      1.255469000000000E+02
3280000000.000000      2.875366000000000E-01     -1.309844000000000E+02      2.037888000000000E-01      1.654609000000000E+02
3300000000.000000      3.203278000000000E-01     -1.471953000000000E+02      3.307343000000000E-01      1.695391000000000E+02
3320000000.000000      3.320160000000000E-01     -1.631641000000000E+02      4.634094000000000E-01      1.625313000000000E+02
3340000000.000000      3.284302000000000E-01     -1.785547000000000E+02      5.749817000000000E-01      1.504219000000000E+02
3360000000.000000      3.167877000000000E-01      1.666563000000000E+02      6.469116000000000E-01      1.382734000000000E+02
3380000000.000000      3.002472000000000E-01      1.523906000000000E+02      7.090759000000000E-01      1.269765000000000E+02
3400000000.000000      2.778015000000000E-01      1.376641000000000E+02      7.575073000000000E-01      1.130976000000000E+02
3420000000.000000      2.429352000000000E-01      1.226992000000000E+02      7.498779000000000E-01      9.834764000000000E+01
3440000000.000000      1.896820000000000E-01      1.079961000000000E+02      7.049866000000000E-01      8.547266000000000E+01
3460000000.000000      1.193314000000000E-01      9.735937000000000E+01      6.455688000000000E-01      7.247265000000000E+01
3480000000.000000      4.792595000000000E-02      1.218828000000000E+02      5.487976000000000E-01      5.891796000000000E+01
3500000000.000000      9.269714000000000E-02     -1.740547000000000E+02      4.247284000000000E-01      4.732031000000000E+01
3520000000.000000      1.839447000000000E-01      1.789609000000000E+02      2.784119000000000E-01      4.040625000000000E+01
3540000000.000000      2.634888000000000E-01      1.627031000000000E+02      1.471100000000000E-01      5.845898000000000E+01
3560000000.000000      3.232574000000000E-01      1.457578000000000E+02      1.675110000000000E-01      1.078398000000000E+02
3580000000.000000      3.596039000000000E-01      1.298203000000000E+02      2.948151000000000E-01      1.174922000000000E+02
3600000000.000000      3.760376000000000E-01      1.151250000000000E+02      4.199524000000000E-01      1.106055000000000E+02
3620000000.000000      3.780365000000000E-01      1.025703000000000E+02      5.207520000000000E-01      1.010625000000000E+02
3640000000.000000      3.683624000000000E-01      9.124218000000000E+01      6.221924000000000E-01      8.997656000000000E+01
3660000000.000000      3.514404000000000E-01      8.107031000000000E+01      6.914063000000000E-01      7.577343000000000E+01
3680000000.000000      3.291931000000000E-01      7.187890000000000E+01      7.107544000000000E-01      6.247070000000000E+01
3700000000.000000      2.989502000000000E-01      6.356250000000000E+01      7.200317000000000E-01      5.092968000000000E+01
3720000000.000000      2.542114000000000E-01      5.756249000000000E+01      7.248230000000000E-01      3.672852000000000E+01
3740000000.000000      2.037964000000000E-01      5.841015000000000E+01      6.619263000000000E-01      2.127344000000000E+01
3760000000.000000      1.777878000000000E-01      7.244141000000000E+01      5.655518000000000E-01      6.937744000000000E+00
3780000000.000000      2.119980000000000E-01      8.757421000000000E+01      4.339447000000000E-01     -6.256836000000000E+00
3800000000.000000      2.823486000000000E-01      8.903906000000000E+01      2.808838000000000E-01     -1.336084000000000E+01
3820000000.000000      3.503113000000000E-01      8.251953000000000E+01      1.536713000000000E-01     -2.279663000000000E-01
3840000000.000000      4.008484000000000E-01      7.383984000000000E+01      1.433334000000000E-01      4.796875000000000E+01
3860000000.000000      4.354095000000000E-01      6.523828000000000E+01      2.467499000000000E-01      6.531250000000000E+01
3880000000.000000      4.602203000000000E-01      5.775585000000000E+01      3.766785000000000E-01      6.108007000000000E+01
3900000000.000000      4.899292000000000E-01      5.073828000000000E+01      4.771729000000000E-01      4.770312000000000E+01
3920000000.000000      5.198059000000000E-01      4.305078000000000E+01      5.090637000000000E-01      3.597851000000000E+01
3940000000.000000      5.484619000000000E-01      3.408594000000000E+01      5.403442000000000E-01      2.940136000000000E+01
3960000000.000000      5.600891000000000E-01      2.409375000000000E+01      5.946045000000000E-01      1.997559000000000E+01
3980000000.000000      5.533142000000000E-01      1.339209000000000E+01      5.980835000000000E-01      7.998047000000000E+00
4000000000.000000      5.270691000000000E-01      3.073364000000000E+00      5.799866000000000E-01      1.370544000000000E+00
4020000000.000000      4.842529000000000E-01     -6.861084000000000E+00      5.977783000000000E-01     -6.653809000000000E+00
4040000000.000000      4.238586000000000E-01     -1.572168000000000E+01      5.859375000000000E-01     -1.888867000000000E+01
4060000000.000000      3.491211000000000E-01     -2.195410000000000E+01      5.266113000000000E-01     -2.896875000000000E+01
4080000000.000000      2.739105000000000E-01     -2.189941000000000E+01      4.697113000000000E-01     -3.828320000000000E+01
4100000000.000000      2.281876000000000E-01     -1.115967000000000E+01      3.665924000000000E-01     -4.750000000000000E+01
4120000000.000000      2.417679000000000E-01      1.800354000000000E+00      2.487869000000000E-01     -4.406250000000000E+01
4140000000.000000      2.897339000000000E-01      5.038574000000000E+00      2.034988000000000E-01     -1.992383000000000E+01
4160000000.000000      3.341980000000000E-01      8.734131000000000E-01      2.640991000000000E-01     -1.290894000000000E-01
4180000000.000000      3.617859000000000E-01     -5.957520000000000E+00      3.582001000000000E-01      3.808105000000000E+00
4200000000.000000      3.712921000000000E-01     -1.374268000000000E+01      4.882965000000000E-01      1.256531000000000E+00
4220000000.000000      3.674622000000000E-01     -2.082812000000000E+01      6.428528000000000E-01     -1.106201000000000E+01
4240000000.000000      3.475952000000000E-01     -2.834277000000000E+01      7.223206000000000E-01     -2.783203000000000E+01
4260000000.000000      3.099518000000000E-01     -3.417187000000000E+01      7.430725000000000E-01     -4.202538000000000E+01
4280000000.000000      2.595215000000000E-01     -3.539844000000000E+01      7.519836000000000E-01     -5.588672000000000E+01
4300000000.000000      2.221680000000000E-01     -2.720703000000000E+01      7.126160000000000E-01     -7.081640000000000E+01
4320000000.000000      2.358704000000000E-01     -1.452686000000000E+01      6.313477000000000E-01     -8.519140000000000E+01
4340000000.000000      2.939453000000000E-01     -1.056787000000000E+01      5.149536000000000E-01     -9.794531000000000E+01
4360000000.000000      3.590088000000000E-01     -1.566260000000000E+01      3.811646000000000E-01     -1.068359000000000E+02
4380000000.000000      4.052277000000000E-01     -2.466894000000000E+01      2.490463000000000E-01     -1.080703000000000E+02
4400000000.000000      4.266510000000000E-01     -3.455664000000000E+01      1.533585000000000E-01     -8.482031000000000E+01
4420000000.000000      4.251862000000000E-01     -4.398242000000000E+01      1.883698000000000E-01     -4.539453000000000E+01
4440000000.000000      4.082642000000000E-01     -5.203906000000000E+01      3.110199000000000E-01     -3.612305000000000E+01
4460000000.000000      3.875427000000000E-01     -5.870898000000000E+01      4.540863000000000E-01     -4.343359000000000E+01
4480000000.000000      3.675690000000000E-01     -6.500000000000000E+01      5.618591000000000E-01     -5.554492000000000E+01
4500000000.000000      3.466797000000000E-01     -7.160156000000000E+01      6.422729000000000E-01     -6.686718000000000E+01
4520000000.000000      3.129883000000000E-01     -7.933203000000000E+01      7.153320000000000E-01     -7.984765000000000E+01
4540000000.000000      2.619629000000000E-01     -8.550390000000000E+01      7.413025000000000E-01     -9.434374000000000E+01
4560000000.000000      2.006226000000000E-01     -8.382030000000000E+01      7.298279000000000E-01     -1.076719000000000E+02
4580000000.000000      1.743240000000000E-01     -6.776953000000000E+01      6.911316000000000E-01     -1.215547000000000E+02
4600000000.000000      2.122192000000000E-01     -5.385742000000000E+01      6.053467000000000E-01     -1.347188000000000E+02
4620000000.000000      2.775116000000000E-01     -5.537109000000000E+01      4.975281000000000E-01     -1.451953000000000E+02
4640000000.000000      3.309784000000000E-01     -6.518359000000000E+01      3.789063000000000E-01     -1.533516000000000E+02
4660000000.000000      3.544922000000000E-01     -7.842968000000000E+01      2.455902000000000E-01     -1.517109000000000E+02
4680000000.000000      3.462830000000000E-01     -9.242188000000000E+01      1.790466000000000E-01     -1.233867000000000E+02
4700000000.000000      3.092651000000000E-01     -1.056250000000000E+02      2.489624000000000E-01     -9.663671000000000E+01
4720000000.000000      2.531738000000000E-01     -1.162148000000000E+02      3.671570000000000E-01     -9.536327000000000E+01
4740000000.000000      1.908340000000000E-01     -1.213594000000000E+02      4.734039000000000E-01     -1.018398000000000E+02
4760000000.000000      1.387863000000000E-01     -1.174101000000000E+02      5.792542000000000E-01     -1.106016000000000E+02
4780000000.000000      1.122398000000000E-01     -1.013125000000000E+02      6.659851000000000E-01     -1.230273000000000E+02
4800000000.000000      1.182022000000000E-01     -8.376562000000000E+01      7.170715000000000E-01     -1.359141000000000E+02
4820000000.000000      1.473999000000000E-01     -7.414844000000000E+01      7.342834000000000E-01     -1.490469000000000E+02
4840000000.000000      1.877060000000000E-01     -7.394531000000000E+01      7.188721000000000E-01     -1.619531000000000E+02
4860000000.000000      2.310028000000000E-01     -8.032812000000000E+01      6.825562000000000E-01     -1.743125000000000E+02
4880000000.000000      2.687378000000000E-01     -9.085155000000000E+01      6.147461000000000E-01      1.718594000000000E+02
4900000000.000000      2.942505000000000E-01     -1.043711000000000E+02      4.946136000000000E-01      1.595859000000000E+02
4920000000.000000      2.995911000000000E-01     -1.193906000000000E+02      3.648376000000000E-01      1.535469000000000E+02
4940000000.000000      2.847748000000000E-01     -1.350859000000000E+02      2.502441000000000E-01      1.560937000000000E+02
4960000000.000000      2.541351000000000E-01     -1.502266000000000E+02      1.768265000000000E-01      1.775391000000000E+02
4980000000.000000      2.119141000000000E-01     -1.644687000000000E+02      2.145615000000000E-01     -1.512031000000000E+02
5000000000.000000      1.679459000000000E-01     -1.760625000000000E+02      3.304443000000000E-01     -1.435859000000000E+02
5020000000.000000      1.305008000000000E-01      1.737500000000000E+02      4.617462000000000E-01     -1.497656000000000E+02
5040000000.000000      9.978485000000000E-02      1.632578000000000E+02      5.702209000000000E-01     -1.605625000000000E+02
5060000000.000000      7.189560000000000E-02      1.487813000000000E+02      6.514893000000000E-01     -1.720234000000000E+02
5080000000.000000      4.177856000000000E-02      1.223750000000000E+02      7.189026000000000E-01      1.756797000000000E+02
5100000000.000000      1.665020000000000E-02      4.151172000000000E+01      7.563477000000000E-01      1.621641000000000E+02
5120000000.000000      4.143333000000000E-02     -5.101953000000000E+01      7.528381000000000E-01      1.477890000000000E+02
5140000000.000000      7.279205000000000E-02     -8.803125000000000E+01      7.032471000000000E-01      1.341406000000000E+02
5160000000.000000      9.597778000000000E-02     -1.191055000000000E+02      6.276855000000000E-01      1.219844000000000E+02
5180000000.000000      1.093636000000000E-01     -1.496250000000000E+02      5.332642000000000E-01      1.106211000000000E+02
5200000000.000000      1.125946000000000E-01      1.777812000000000E+02      4.149017000000000E-01      1.012539000000000E+02
5220000000.000000      1.094170000000000E-01      1.416094000000000E+02      2.822113000000000E-01      9.829687000000000E+01
5240000000.000000      1.087036000000000E-01      1.054492000000000E+02      1.836395000000000E-01      1.155156000000000E+02
5260000000.000000      1.134033000000000E-01      7.206249000000000E+01      1.967239000000000E-01      1.494375000000000E+02
5280000000.000000      1.208267000000000E-01      4.581055000000000E+01      2.972412000000000E-01      1.605469000000000E+02
5300000000.000000      1.275177000000000E-01      2.481348000000000E+01      4.109039000000000E-01      1.580312000000000E+02
5320000000.000000      1.336823000000000E-01      8.499023000000000E+00      5.278625000000000E-01      1.503828000000000E+02
5340000000.000000      1.386261000000000E-01     -5.899658000000000E+00      6.391296000000000E-01      1.383750000000000E+02
5360000000.000000      1.430893000000000E-01     -2.138770000000000E+01      7.051392000000000E-01      1.238633000000000E+02
5380000000.000000      1.384659000000000E-01     -3.891406000000000E+01      7.176819000000000E-01      1.105234000000000E+02
5400000000.000000      1.195984000000000E-01     -5.708008000000000E+01      7.193909000000000E-01      9.890234000000000E+01
5420000000.000000      8.408356000000000E-02     -7.398046000000000E+01      7.034302000000000E-01      8.578516000000000E+01
5440000000.000000      3.019238000000000E-02     -7.696484000000000E+01      6.470032000000000E-01      7.149609000000000E+01
5460000000.000000      4.400063000000000E-02      3.897851000000000E+01      5.400085000000000E-01      5.834765000000000E+01
5480000000.000000      1.135635000000000E-01      3.091894000000000E+01      4.127045000000000E-01      4.908008000000000E+01
5500000000.000000      1.756592000000000E-01      1.561523000000000E+01      2.918549000000000E-01      4.717773000000000E+01
5520000000.000000      2.217178000000000E-01      5.960083000000000E-01      1.946030000000000E-01      5.934765000000000E+01
5540000000.000000      2.518921000000000E-01     -1.322656000000000E+01      1.818085000000000E-01      9.096094000000000E+01
5560000000.000000      2.702942000000000E-01     -2.509863000000000E+01      2.636108000000000E-01      1.087070000000000E+02
5580000000.000000      2.827454000000000E-01     -3.512500000000000E+01      3.850861000000000E-01      1.085234000000000E+02
5600000000.000000      2.935791000000000E-01     -4.393164000000000E+01      5.072021000000000E-01      9.944921000000000E+01
5620000000.000000      3.047485000000000E-01     -5.308594000000000E+01      5.964966000000000E-01      8.705469000000000E+01
5640000000.000000      3.076172000000000E-01     -6.284570000000000E+01      6.480408000000000E-01      7.512109000000000E+01
5660000000.000000      2.980804000000000E-01     -7.352344000000000E+01      6.849060000000000E-01      6.375000000000000E+01
5680000000.000000      2.684326000000000E-01     -8.393749000000000E+01      6.975098000000000E-01      5.084765000000000E+01
5700000000.000000      2.211456000000000E-01     -9.120703000000000E+01      6.831970000000000E-01      3.865429000000000E+01
5720000000.000000      1.707458000000000E-01     -8.969141000000000E+01      6.434937000000000E-01      2.594141000000000E+01
5740000000.000000      1.500397000000000E-01     -7.543359000000000E+01      5.646057000000000E-01      1.285254000000000E+01
5760000000.000000      1.789017000000000E-01     -6.376367000000000E+01      4.488068000000000E-01      1.263428000000000E+00
5780000000.000000      2.250595000000000E-01     -6.530078000000000E+01      3.155365000000000E-01     -3.929077000000000E+00
5800000000.000000      2.570038000000000E-01     -7.324609000000000E+01      2.078857000000000E-01      7.153320000000000E+00
5820000000.000000      2.668762000000000E-01     -8.255468000000000E+01      1.898422000000000E-01      3.779882000000000E+01
5840000000.000000      2.565613000000000E-01     -9.114843000000000E+01      2.718048000000000E-01      5.394140000000000E+01
5860000000.000000      2.390976000000000E-01     -9.681641000000000E+01      3.729706000000000E-01      5.397070000000000E+01
5880000000.000000      2.237473000000000E-01     -9.977734000000000E+01      4.798584000000000E-01      4.867188000000000E+01
5900000000.000000      2.161331000000000E-01     -1.020469000000000E+02      5.936279000000000E-01      3.833984000000000E+01
5920000000.000000      2.087250000000000E-01     -1.050625000000000E+02      6.718140000000000E-01      2.435449000000000E+01
5940000000.000000      1.950302000000000E-01     -1.070117000000000E+02      7.010498000000000E-01      1.119189000000000E+01
5960000000.000000      1.773834000000000E-01     -1.053164000000000E+02      7.131653000000000E-01     -1.698792000000000E+00
5980000000.000000      1.655884000000000E-01     -9.755077000000000E+01      6.915283000000000E-01     -1.557861000000000E+01
6000000000.000000      1.813354000000000E-01     -8.833202000000000E+01      6.270142000000000E-01     -2.906933000000000E+01
6020000000.000000      2.164383000000000E-01     -8.646875000000000E+01      5.289917000000000E-01     -4.179101000000000E+01
6040000000.000000      2.514801000000000E-01     -9.185156000000000E+01      3.985596000000000E-01     -4.988086000000000E+01
6060000000.000000      2.757568000000000E-01     -1.008437000000000E+02      2.847748000000000E-01     -4.961914000000000E+01
6080000000.000000      2.858887000000000E-01     -1.111680000000000E+02      2.054214000000000E-01     -3.580078000000000E+01
