! Network Analyzer HP8722D
! Hewlett-Packard
! Data name: Linha & Wilkinson+CNT
! Saver's name: Rodrigo Anjos
! Comments: Teste da utilização de aquisição
continua pelo VNA HP8722D
! Time and date: 29/9/2025 13:41
!              Frequency                     S11                                                   S21                                                   S12                                                   S22
# HZ  S  MA R 50
3000000000.000000      4.225922000000000E-01     -5.584570000000000E+01      2.062454000000000E-01     -1.315938000000000E+02
3020000000.000000      4.471893000000000E-01     -7.001171000000000E+01      3.490753000000000E-01     -1.350234000000000E+02
3040000000.000000      4.537048000000000E-01     -8.283594000000000E+01      4.673157000000000E-01     -1.450625000000000E+02
3060000000.000000      4.445038000000000E-01     -9.497656000000000E+01      5.701904000000000E-01     -1.552969000000000E+02
3080000000.000000      4.294281000000000E-01     -1.062891000000000E+02      6.734924000000000E-01     -1.682969000000000E+02
3100000000.000000      4.091949000000000E-01     -1.175273000000000E+02      7.247925000000000E-01      1.768281000000000E+02
3120000000.000000      3.800354000000000E-01     -1.294609000000000E+02      7.314758000000000E-01      1.634375000000000E+02
3140000000.000000      3.395233000000000E-01     -1.424922000000000E+02      7.239990000000000E-01      1.505078000000000E+02
3160000000.000000      2.790222000000000E-01     -1.564922000000000E+02      6.842346000000000E-01      1.371406000000000E+02
3180000000.000000      2.000885000000000E-01     -1.692344000000000E+02      6.135864000000000E-01      1.245195000000000E+02
3200000000.000000      1.119270000000000E-01     -1.699766000000000E+02      5.194092000000000E-01      1.116328000000000E+02
3220000000.000000      7.901001000000000E-02     -1.246211000000000E+02      3.866577000000000E-01      1.006914000000000E+02
3240000000.000000      1.499329000000000E-01     -1.049883000000000E+02      2.476501000000000E-01      9.942577000000000E+01
3260000000.000000      2.293396000000000E-01     -1.152187000000000E+02      1.472321000000000E-01      1.249219000000000E+02
3280000000.000000      2.873840000000000E-01     -1.308594000000000E+02      2.022247000000000E-01      1.653281000000000E+02
3300000000.000000      3.204498000000000E-01     -1.472031000000000E+02      3.291931000000000E-01      1.696563000000000E+02
3320000000.000000      3.321991000000000E-01     -1.631328000000000E+02      4.621277000000000E-01      1.626406000000000E+02
3340000000.000000      3.287354000000000E-01     -1.784531000000000E+02      5.735474000000000E-01      1.505859000000000E+02
3360000000.000000      3.175812000000000E-01      1.668047000000000E+02      6.472473000000000E-01      1.385000000000000E+02
3380000000.000000      3.006744000000000E-01      1.524375000000000E+02      7.089844000000000E-01      1.270937000000000E+02
3400000000.000000      2.783203000000000E-01      1.377422000000000E+02      7.581482000000000E-01      1.132265000000000E+02
3420000000.000000      2.432632000000000E-01      1.227773000000000E+02      7.498169000000000E-01      9.836327000000000E+01
3440000000.000000      1.905899000000000E-01      1.079258000000000E+02      7.051697000000000E-01      8.560156000000000E+01
3460000000.000000      1.203308000000000E-01      9.733593000000000E+01      6.470337000000000E-01      7.244531000000000E+01
3480000000.000000      4.801941000000000E-02      1.203906000000000E+02      5.499878000000000E-01      5.888281000000000E+01
3500000000.000000      9.199142000000000E-02     -1.743203000000000E+02      4.254761000000000E-01      4.769140000000000E+01
3520000000.000000      1.835098000000000E-01      1.791250000000000E+02      2.798767000000000E-01      4.044726000000000E+01
3540000000.000000      2.625885000000000E-01      1.629844000000000E+02      1.478119000000000E-01      5.788086000000000E+01
3560000000.000000      3.225555000000000E-01      1.459609000000000E+02      1.661072000000000E-01      1.075391000000000E+02
3580000000.000000      3.594666000000000E-01      1.299062000000000E+02      2.933197000000000E-01      1.175664000000000E+02
3600000000.000000      3.765106000000000E-01      1.153750000000000E+02      4.189148000000000E-01      1.106172000000000E+02
3620000000.000000      3.780365000000000E-01      1.025820000000000E+02      5.208435000000000E-01      1.012226000000000E+02
3640000000.000000      3.683014000000000E-01      9.127344000000000E+01      6.208496000000000E-01      9.001171000000000E+01
3660000000.000000      3.525238000000000E-01      8.107031000000000E+01      6.935730000000000E-01      7.575390000000000E+01
3680000000.000000      3.296356000000000E-01      7.191796000000000E+01      7.098999000000000E-01      6.270312000000000E+01
3700000000.000000      2.989807000000000E-01      6.358788000000000E+01      7.207947000000000E-01      5.112499000000000E+01
3720000000.000000      2.550201000000000E-01      5.750781000000000E+01      7.238770000000000E-01      3.692773000000000E+01
3740000000.000000      2.042923000000000E-01      5.824804000000000E+01      6.647339000000000E-01      2.145020000000000E+01
3760000000.000000      1.776733000000000E-01      7.219921000000000E+01      5.671692000000000E-01      7.014648000000000E+00
3780000000.000000      2.113953000000000E-01      8.737890000000000E+01      4.362946000000000E-01     -6.104492000000000E+00
3800000000.000000      2.819824000000000E-01      8.904297000000000E+01      2.830048000000000E-01     -1.351318000000000E+01
3820000000.000000      3.494873000000000E-01      8.259375000000000E+01      1.539307000000000E-01     -6.852722000000000E-01
3840000000.000000      4.002533000000000E-01      7.389453000000000E+01      1.421890000000000E-01      4.748047000000000E+01
3860000000.000000      4.355469000000000E-01      6.527344000000000E+01      2.459183000000000E-01      6.537499000000000E+01
3880000000.000000      4.606628000000000E-01      5.774609000000000E+01      3.754425000000000E-01      6.111523000000000E+01
3900000000.000000      4.890900000000000E-01      5.071679000000000E+01      4.762268000000000E-01      4.780663000000000E+01
3920000000.000000      5.199280000000000E-01      4.312500000000000E+01      5.089417000000000E-01      3.598633000000000E+01
3940000000.000000      5.487976000000000E-01      3.409570000000000E+01      5.395508000000000E-01      2.952832000000000E+01
3960000000.000000      5.590210000000000E-01      2.397851000000000E+01      5.960999000000000E-01      2.006152000000000E+01
3980000000.000000      5.548401000000000E-01      1.359814000000000E+01      5.989990000000000E-01      8.312500000000000E+00
4000000000.000000      5.278320000000000E-01      3.188721000000000E+00      5.790710000000000E-01      1.301880000000000E+00
4020000000.000000      4.842834000000000E-01     -6.916016000000000E+00      5.975647000000000E-01     -6.633057000000000E+00
4040000000.000000      4.252167000000000E-01     -1.577246000000000E+01      5.859680000000000E-01     -1.882813000000000E+01
4060000000.000000      3.501129000000000E-01     -2.188379000000000E+01      5.281067000000000E-01     -2.898242000000000E+01
4080000000.000000      2.747803000000000E-01     -2.203320000000000E+01      4.685059000000000E-01     -3.816797000000000E+01
4100000000.000000      2.284470000000000E-01     -1.133105000000000E+01      3.673859000000000E-01     -4.766406000000000E+01
4120000000.000000      2.414017000000000E-01      1.665771000000000E+00      2.501221000000000E-01     -4.432031000000000E+01
4140000000.000000      2.897339000000000E-01      5.032959000000000E+00      2.027359000000000E-01     -2.023144000000000E+01
4160000000.000000      3.336487000000000E-01      9.063721000000000E-01      2.626495000000000E-01     -2.568054000000000E-01
4180000000.000000      3.612518000000000E-01     -5.899658000000000E+00      3.565979000000000E-01      3.933105000000000E+00
4200000000.000000      3.709717000000000E-01     -1.366162000000000E+01      4.866333000000000E-01      1.365051000000000E+00
4220000000.000000      3.670654000000000E-01     -2.086524000000000E+01      6.405945000000000E-01     -1.092334000000000E+01
4240000000.000000      3.480530000000000E-01     -2.841015000000000E+01      7.207031000000000E-01     -2.772754000000000E+01
4260000000.000000      3.105316000000000E-01     -3.416797000000000E+01      7.440491000000000E-01     -4.180078000000000E+01
4280000000.000000      2.601776000000000E-01     -3.550586000000000E+01      7.522583000000000E-01     -5.565430000000000E+01
4300000000.000000      2.223892000000000E-01     -2.748242000000000E+01      7.154236000000000E-01     -7.067187000000000E+01
4320000000.000000      2.352371000000000E-01     -1.465186000000000E+01      6.322937000000000E-01     -8.507421000000000E+01
4340000000.000000      2.932587000000000E-01     -1.060498000000000E+01      5.158691000000000E-01     -9.795311000000000E+01
4360000000.000000      3.585510000000000E-01     -1.558447000000000E+01      3.826752000000000E-01     -1.068047000000000E+02
4380000000.000000      4.049530000000000E-01     -2.452637000000000E+01      2.508545000000000E-01     -1.082617000000000E+02
4400000000.000000      4.260406000000000E-01     -3.453711000000000E+01      1.537781000000000E-01     -8.548437000000000E+01
4420000000.000000      4.248047000000000E-01     -4.394531000000000E+01      1.865005000000000E-01     -4.581836000000000E+01
4440000000.000000      4.073486000000000E-01     -5.203906000000000E+01      3.091125000000000E-01     -3.615234000000000E+01
4460000000.000000      3.868713000000000E-01     -5.856054000000000E+01      4.512482000000000E-01     -4.330274000000000E+01
4480000000.000000      3.669434000000000E-01     -6.479687000000000E+01      5.608215000000000E-01     -5.538671000000000E+01
4500000000.000000      3.466949000000000E-01     -7.167187000000000E+01      6.415710000000000E-01     -6.680078000000000E+01
4520000000.000000      3.138275000000000E-01     -7.932031000000000E+01      7.155151000000000E-01     -7.978516000000000E+01
4540000000.000000      2.626953000000000E-01     -8.552343000000000E+01      7.427063000000000E-01     -9.446093000000000E+01
4560000000.000000      2.018280000000000E-01     -8.390625000000000E+01      7.300110000000000E-01     -1.076641000000000E+02
4580000000.000000      1.744308000000000E-01     -6.802343000000000E+01      6.917725000000000E-01     -1.213750000000000E+02
4600000000.000000      2.115326000000000E-01     -5.398828000000000E+01      6.074829000000000E-01     -1.346719000000000E+02
4620000000.000000      2.769318000000000E-01     -5.523828000000000E+01      4.990997000000000E-01     -1.453125000000000E+02
4640000000.000000      3.305054000000000E-01     -6.512890000000000E+01      3.809357000000000E-01     -1.535000000000000E+02
4660000000.000000      3.545227000000000E-01     -7.839453000000000E+01      2.476273000000000E-01     -1.519531000000000E+02
4680000000.000000      3.468018000000000E-01     -9.235546000000000E+01      1.790771000000000E-01     -1.238477000000000E+02
4700000000.000000      3.095856000000000E-01     -1.056016000000000E+02      2.468109000000000E-01     -9.668749000000000E+01
4720000000.000000      2.536774000000000E-01     -1.160898000000000E+02      3.656464000000000E-01     -9.542969000000000E+01
4740000000.000000      1.919098000000000E-01     -1.215195000000000E+02      4.722595000000000E-01     -1.017383000000000E+02
4760000000.000000      1.397629000000000E-01     -1.176328000000000E+02      5.783997000000000E-01     -1.105273000000000E+02
4780000000.000000      1.123581000000000E-01     -1.020234000000000E+02      6.660156000000000E-01     -1.228516000000000E+02
4800000000.000000      1.177979000000000E-01     -8.401953000000000E+01      7.165527000000000E-01     -1.357031000000000E+02
4820000000.000000      1.467819000000000E-01     -7.443749000000000E+01      7.364197000000000E-01     -1.489766000000000E+02
4840000000.000000      1.874390000000000E-01     -7.379296000000000E+01      7.175903000000000E-01     -1.617734000000000E+02
4860000000.000000      2.303619000000000E-01     -8.026953000000000E+01      6.855469000000000E-01     -1.741328000000000E+02
4880000000.000000      2.684479000000000E-01     -9.067577000000000E+01      6.165161000000000E-01      1.718359000000000E+02
4900000000.000000      2.939148000000000E-01     -1.041836000000000E+02      4.966583000000000E-01      1.596641000000000E+02
4920000000.000000      3.001556000000000E-01     -1.192344000000000E+02      3.670959000000000E-01      1.535625000000000E+02
4940000000.000000      2.851563000000000E-01     -1.351172000000000E+02      2.527618000000000E-01      1.558516000000000E+02
4960000000.000000      2.551117000000000E-01     -1.501484000000000E+02      1.773376000000000E-01      1.769063000000000E+02
4980000000.000000      2.128067000000000E-01     -1.643437000000000E+02      2.134933000000000E-01     -1.515000000000000E+02
5000000000.000000      1.687317000000000E-01     -1.760781000000000E+02      3.288422000000000E-01     -1.436563000000000E+02
5020000000.000000      1.306763000000000E-01      1.739141000000000E+02      4.600983000000000E-01     -1.496016000000000E+02
5040000000.000000      1.001625000000000E-01      1.636016000000000E+02      5.691528000000000E-01     -1.603672000000000E+02
5060000000.000000      7.188034000000000E-02      1.488516000000000E+02      6.507568000000000E-01     -1.717344000000000E+02
5080000000.000000      4.186821000000000E-02      1.227461000000000E+02      7.176514000000000E-01      1.759375000000000E+02
5100000000.000000      1.679325000000000E-02      4.289453000000000E+01      7.566223000000000E-01      1.622344000000000E+02
5120000000.000000      4.038048000000000E-02     -5.038086000000000E+01      7.537842000000000E-01      1.479844000000000E+02
5140000000.000000      7.219315000000000E-02     -8.751953000000000E+01      7.040100000000000E-01      1.341875000000000E+02
5160000000.000000      9.607697000000000E-02     -1.186562000000000E+02      6.287842000000000E-01      1.221367000000000E+02
5180000000.000000      1.090317000000000E-01     -1.492578000000000E+02      5.329590000000000E-01      1.107734000000000E+02
5200000000.000000      1.123238000000000E-01      1.781016000000000E+02      4.171600000000000E-01      1.009609000000000E+02
5220000000.000000      1.095543000000000E-01      1.421797000000000E+02      2.842407000000000E-01      9.816795000000000E+01
5240000000.000000      1.090050000000000E-01      1.058359000000000E+02      1.842651000000000E-01      1.150352000000000E+02
5260000000.000000      1.132240000000000E-01      7.237109000000000E+01      1.955795000000000E-01      1.491484000000000E+02
5280000000.000000      1.208153000000000E-01      4.583203000000000E+01      2.951965000000000E-01      1.605469000000000E+02
5300000000.000000      1.274185000000000E-01      2.510351000000000E+01      4.086151000000000E-01      1.581563000000000E+02
5320000000.000000      1.333313000000000E-01      8.602051000000000E+00      5.261536000000000E-01      1.504922000000000E+02
5340000000.000000      1.388550000000000E-01     -5.583984000000000E+00      6.394043000000000E-01      1.386875000000000E+02
5360000000.000000      1.432037000000000E-01     -2.113379000000000E+01      7.039795000000000E-01      1.241211000000000E+02
5380000000.000000      1.384735000000000E-01     -3.864258000000000E+01      7.163696000000000E-01      1.107461000000000E+02
5400000000.000000      1.202812000000000E-01     -5.663867000000000E+01      7.184753000000000E-01      9.910545000000000E+01
5420000000.000000      8.491135000000000E-02     -7.348046000000000E+01      7.049866000000000E-01      8.601171000000000E+01
5440000000.000000      3.044796000000000E-02     -7.837109000000000E+01      6.481323000000000E-01      7.160937000000000E+01
5460000000.000000      4.248238000000000E-02      3.891211000000000E+01      5.405273000000000E-01      5.844140000000000E+01
5480000000.000000      1.125946000000000E-01      3.085840000000000E+01      4.137115000000000E-01      4.922852000000000E+01
5500000000.000000      1.748505000000000E-01      1.568018000000000E+01      2.935333000000000E-01      4.708984000000000E+01
5520000000.000000      2.205429000000000E-01      6.825256000000000E-01      1.955643000000000E-01      5.882617000000000E+01
5540000000.000000      2.520447000000000E-01     -1.310400000000000E+01      1.803818000000000E-01      9.048828000000000E+01
5560000000.000000      2.705841000000000E-01     -2.502734000000000E+01      2.617950000000000E-01      1.086875000000000E+02
5580000000.000000      2.831116000000000E-01     -3.489453000000000E+01      3.836060000000000E-01      1.086758000000000E+02
5600000000.000000      2.939911000000000E-01     -4.380273000000000E+01      5.050049000000000E-01      9.971483000000000E+01
5620000000.000000      3.044128000000000E-01     -5.294726000000000E+01      5.959473000000000E-01      8.702343000000000E+01
5640000000.000000      3.078613000000000E-01     -6.268945000000000E+01      6.470642000000000E-01      7.509766000000000E+01
5660000000.000000      2.982178000000000E-01     -7.348046000000000E+01      6.824341000000000E-01      6.408984000000000E+01
5680000000.000000      2.689362000000000E-01     -8.377344000000000E+01      6.998291000000000E-01      5.112305000000000E+01
5700000000.000000      2.217331000000000E-01     -9.112499000000000E+01      6.832275000000000E-01      3.882617000000000E+01
5720000000.000000      1.713715000000000E-01     -8.992579000000000E+01      6.452942000000000E-01      2.606445000000000E+01
5740000000.000000      1.499252000000000E-01     -7.557812000000000E+01      5.656433000000000E-01      1.290479000000000E+01
5760000000.000000      1.781540000000000E-01     -6.369726000000000E+01      4.525452000000000E-01      1.323853000000000E+00
5780000000.000000      2.240295000000000E-01     -6.525000000000000E+01      3.176575000000000E-01     -4.124023000000000E+00
5800000000.000000      2.566376000000000E-01     -7.308594000000000E+01      2.089996000000000E-01      6.707031000000000E+00
5820000000.000000      2.669525000000000E-01     -8.249218000000000E+01      1.890869000000000E-01      3.706836000000000E+01
5840000000.000000      2.569275000000000E-01     -9.103516000000000E+01      2.698975000000000E-01      5.383984000000000E+01
5860000000.000000      2.389450000000000E-01     -9.669922000000000E+01      3.712006000000000E-01      5.409374000000000E+01
5880000000.000000      2.243652000000000E-01     -9.990234000000000E+01      4.776154000000000E-01      4.879296000000000E+01
5900000000.000000      2.164841000000000E-01     -1.022344000000000E+02      5.942383000000000E-01      3.857031000000000E+01
5920000000.000000      2.092285000000000E-01     -1.051133000000000E+02      6.706848000000000E-01      2.464160000000000E+01
5940000000.000000      1.955719000000000E-01     -1.069922000000000E+02      7.016296000000000E-01      1.139111000000000E+01
5960000000.000000      1.777878000000000E-01     -1.053164000000000E+02      7.132263000000000E-01     -1.392517000000000E+00
5980000000.000000      1.652756000000000E-01     -9.757813000000000E+01      6.932373000000000E-01     -1.550879000000000E+01
6000000000.000000      1.810989000000000E-01     -8.845703000000000E+01      6.298218000000000E-01     -2.897558000000000E+01
6020000000.000000      2.155380000000000E-01     -8.667969000000000E+01      5.315857000000000E-01     -4.164453000000000E+01
6040000000.000000      2.504272000000000E-01     -9.179688000000000E+01      4.011841000000000E-01     -4.986523000000000E+01
6060000000.000000      2.748566000000000E-01     -1.008476000000000E+02      2.868195000000000E-01     -4.975390000000000E+01
6080000000.000000      2.851105000000000E-01     -1.111094000000000E+02      2.057648000000000E-01     -3.624218000000000E+01
