! Network Analyzer HP8722D
! Hewlett-Packard
! Data name: Linha & Wilkinson+CNT
! Saver's name: Rodrigo Anjos
! Comments: Teste da utilização de aquisição
continua pelo VNA HP8722D
! Time and date: 29/9/2025 12:21
!              Frequency                     S11                                                   S21                                                   S12                                                   S22
# HZ  S  MA R 50
3000000000.000000      4.248810000000000E-01     -5.615429000000000E+01      2.078094000000000E-01     -1.313750000000000E+02
3020000000.000000      4.485779000000000E-01     -7.051171000000000E+01      3.501129000000000E-01     -1.349141000000000E+02
3040000000.000000      4.537201000000000E-01     -8.321093000000000E+01      4.681396000000000E-01     -1.448594000000000E+02
3060000000.000000      4.462128000000000E-01     -9.519531000000000E+01      5.723572000000000E-01     -1.551016000000000E+02
3080000000.000000      4.312439000000000E-01     -1.064453000000000E+02      6.732178000000000E-01     -1.683125000000000E+02
3100000000.000000      4.118500000000000E-01     -1.175273000000000E+02      7.237244000000000E-01      1.769687000000000E+02
3120000000.000000      3.824615000000000E-01     -1.295312000000000E+02      7.321472000000000E-01      1.635547000000000E+02
3140000000.000000      3.412933000000000E-01     -1.424453000000000E+02      7.237549000000000E-01      1.506641000000000E+02
3160000000.000000      2.827148000000000E-01     -1.560937000000000E+02      6.825256000000000E-01      1.370156000000000E+02
3180000000.000000      2.024765000000000E-01     -1.685547000000000E+02      6.134949000000000E-01      1.246797000000000E+02
3200000000.000000      1.145744000000000E-01     -1.688125000000000E+02      5.189209000000000E-01      1.118789000000000E+02
3220000000.000000      8.290863000000000E-02     -1.245976000000000E+02      3.850555000000000E-01      1.009961000000000E+02
3240000000.000000      1.532898000000000E-01     -1.055625000000000E+02      2.461319000000000E-01      9.971874000000000E+01
3260000000.000000      2.330933000000000E-01     -1.154648000000000E+02      1.473618000000000E-01      1.256953000000000E+02
3280000000.000000      2.908325000000000E-01     -1.309844000000000E+02      2.038422000000000E-01      1.655000000000000E+02
3300000000.000000      3.237152000000000E-01     -1.470625000000000E+02      3.307190000000000E-01      1.698047000000000E+02
3320000000.000000      3.354797000000000E-01     -1.628438000000000E+02      4.636078000000000E-01      1.627187000000000E+02
3340000000.000000      3.319244000000000E-01     -1.781094000000000E+02      5.744019000000000E-01      1.506562000000000E+02
3360000000.000000      3.196411000000000E-01      1.673359000000000E+02      6.477051000000000E-01      1.384609000000000E+02
3380000000.000000      3.030396000000000E-01      1.531953000000000E+02      7.104797000000000E-01      1.271211000000000E+02
3400000000.000000      2.790527000000000E-01      1.385625000000000E+02      7.588501000000000E-01      1.133906000000000E+02
3420000000.000000      2.430191000000000E-01      1.235430000000000E+02      7.501831000000000E-01      9.846092000000000E+01
3440000000.000000      1.890259000000000E-01      1.089414000000000E+02      7.051086000000000E-01      8.568359000000000E+01
3460000000.000000      1.182861000000000E-01      9.870703000000000E+01      6.466675000000000E-01      7.262109000000000E+01
3480000000.000000      4.737854000000000E-02      1.251797000000000E+02      5.493164000000000E-01      5.898242000000000E+01
3500000000.000000      9.557343000000000E-02     -1.732265000000000E+02      4.251556000000000E-01      4.767187000000000E+01
3520000000.000000      1.867676000000000E-01      1.796250000000000E+02      2.785339000000000E-01      4.068555000000000E+01
3540000000.000000      2.650299000000000E-01      1.634766000000000E+02      1.472321000000000E-01      5.872460000000000E+01
3560000000.000000      3.237915000000000E-01      1.464766000000000E+02      1.673660000000000E-01      1.079570000000000E+02
3580000000.000000      3.595123000000000E-01      1.303516000000000E+02      2.949677000000000E-01      1.176523000000000E+02
3600000000.000000      3.758698000000000E-01      1.156797000000000E+02      4.202881000000000E-01      1.107578000000000E+02
3620000000.000000      3.772583000000000E-01      1.029023000000000E+02      5.214844000000000E-01      1.012930000000000E+02
3640000000.000000      3.668518000000000E-01      9.175390000000000E+01      6.215820000000000E-01      9.016016000000000E+01
3660000000.000000      3.504181000000000E-01      8.133984000000000E+01      6.925354000000000E-01      7.584374000000000E+01
3680000000.000000      3.275757000000000E-01      7.215234000000000E+01      7.126465000000000E-01      6.268749000000000E+01
3700000000.000000      2.967377000000000E-01      6.378124000000000E+01      7.213135000000000E-01      5.115624000000000E+01
3720000000.000000      2.522583000000000E-01      5.760547000000000E+01      7.240295000000000E-01      3.683984000000000E+01
3740000000.000000      2.017746000000000E-01      5.845508000000000E+01      6.629639000000000E-01      2.145312000000000E+01
3760000000.000000      1.755676000000000E-01      7.272265000000000E+01      5.663757000000000E-01      7.071045000000000E+00
3780000000.000000      2.100372000000000E-01      8.779297000000000E+01      4.353333000000000E-01     -6.002686000000000E+00
3800000000.000000      2.808380000000000E-01      8.930468000000000E+01      2.820892000000000E-01     -1.327051000000000E+01
3820000000.000000      3.483429000000000E-01      8.274218000000000E+01      1.536484000000000E-01      3.433228000000000E-02
3840000000.000000      3.987427000000000E-01      7.398438000000000E+01      1.439896000000000E-01      4.793750000000000E+01
3860000000.000000      4.343109000000000E-01      6.540625000000000E+01      2.464218000000000E-01      6.535937000000000E+01
3880000000.000000      4.589844000000000E-01      5.779882000000000E+01      3.766937000000000E-01      6.121875000000000E+01
3900000000.000000      4.871826000000000E-01      5.058788000000000E+01      4.786530000000000E-01      4.776367000000000E+01
3920000000.000000      5.188599000000000E-01      4.301367000000000E+01      5.093079000000000E-01      3.617773000000000E+01
3940000000.000000      5.479431000000000E-01      3.379101000000000E+01      5.387268000000000E-01      2.947266000000000E+01
3960000000.000000      5.594482000000000E-01      2.384668000000000E+01      5.966492000000000E-01      2.020508000000000E+01
3980000000.000000      5.523682000000000E-01      1.302979000000000E+01      5.976868000000000E-01      8.165527000000000E+00
4000000000.000000      5.274658000000000E-01      2.894897000000000E+00      5.805969000000000E-01      1.315613000000000E+00
4020000000.000000      4.833527000000000E-01     -7.137207000000000E+00      5.991516000000000E-01     -6.612549000000000E+00
4040000000.000000      4.241638000000000E-01     -1.602832000000000E+01      5.853271000000000E-01     -1.874609000000000E+01
4060000000.000000      3.487854000000000E-01     -2.216015000000000E+01      5.260315000000000E-01     -2.876172000000000E+01
4080000000.000000      2.733154000000000E-01     -2.233398000000000E+01      4.678650000000000E-01     -3.814844000000000E+01
4100000000.000000      2.276688000000000E-01     -1.177051000000000E+01      3.654938000000000E-01     -4.731641000000000E+01
4120000000.000000      2.412949000000000E-01      1.231812000000000E+00      2.493210000000000E-01     -4.389844000000000E+01
4140000000.000000      2.896423000000000E-01      4.644287000000000E+00      2.034760000000000E-01     -1.970215000000000E+01
4160000000.000000      3.336792000000000E-01      5.548096000000000E-01      2.640228000000000E-01     -3.021240000000000E-02
4180000000.000000      3.610687000000000E-01     -6.342041000000000E+00      3.582764000000000E-01      3.967407000000000E+00
4200000000.000000      3.708954000000000E-01     -1.405713000000000E+01      4.878845000000000E-01      1.329346000000000E+00
4220000000.000000      3.668671000000000E-01     -2.131934000000000E+01      6.426697000000000E-01     -1.093701000000000E+01
4240000000.000000      3.477173000000000E-01     -2.881054000000000E+01      7.216492000000000E-01     -2.771484000000000E+01
4260000000.000000      3.096924000000000E-01     -3.460938000000000E+01      7.425842000000000E-01     -4.174805000000000E+01
4280000000.000000      2.598724000000000E-01     -3.583203000000000E+01      7.503967000000000E-01     -5.562695000000000E+01
4300000000.000000      2.229309000000000E-01     -2.768066000000000E+01      7.136230000000000E-01     -7.065234000000000E+01
4320000000.000000      2.365265000000000E-01     -1.498438000000000E+01      6.307678000000000E-01     -8.508984000000000E+01
4340000000.000000      2.940674000000000E-01     -1.094971000000000E+01      5.151367000000000E-01     -9.784374000000000E+01
4360000000.000000      3.591766000000000E-01     -1.600586000000000E+01      3.802490000000000E-01     -1.068750000000000E+02
4380000000.000000      4.054413000000000E-01     -2.492871000000000E+01      2.494583000000000E-01     -1.078789000000000E+02
4400000000.000000      4.268188000000000E-01     -3.493555000000000E+01      1.534119000000000E-01     -8.492188000000000E+01
4420000000.000000      4.255066000000000E-01     -4.423047000000000E+01      1.882248000000000E-01     -4.553124000000000E+01
4440000000.000000      4.091187000000000E-01     -5.232226000000000E+01      3.103638000000000E-01     -3.601367000000000E+01
4460000000.000000      3.880463000000000E-01     -5.862499000000000E+01      4.531860000000000E-01     -4.332617000000000E+01
4480000000.000000      3.699493000000000E-01     -6.489843000000000E+01      5.621643000000000E-01     -5.541210000000000E+01
4500000000.000000      3.475494000000000E-01     -7.169140000000000E+01      6.425781000000000E-01     -6.675390000000000E+01
4520000000.000000      3.147888000000000E-01     -7.933594000000000E+01      7.154541000000000E-01     -7.977734000000000E+01
4540000000.000000      2.635345000000000E-01     -8.533203000000000E+01      7.427979000000000E-01     -9.435547000000000E+01
4560000000.000000      2.035904000000000E-01     -8.353516000000000E+01      7.276306000000000E-01     -1.075898000000000E+02
4580000000.000000      1.774063000000000E-01     -6.793750000000000E+01      6.908264000000000E-01     -1.213867000000000E+02
4600000000.000000      2.148819000000000E-01     -5.437109000000000E+01      6.047668000000000E-01     -1.345469000000000E+02
4620000000.000000      2.792358000000000E-01     -5.567773000000000E+01      4.972382000000000E-01     -1.450859000000000E+02
4640000000.000000      3.334045000000000E-01     -6.544922000000000E+01      3.782654000000000E-01     -1.532422000000000E+02
4660000000.000000      3.569489000000000E-01     -7.855859000000000E+01      2.459717000000000E-01     -1.514375000000000E+02
4680000000.000000      3.487549000000000E-01     -9.231640000000000E+01      1.789169000000000E-01     -1.232383000000000E+02
4700000000.000000      3.114319000000000E-01     -1.053320000000000E+02      2.484055000000000E-01     -9.647655000000000E+01
4720000000.000000      2.553101000000000E-01     -1.159297000000000E+02      3.671722000000000E-01     -9.534765000000000E+01
4740000000.000000      1.925888000000000E-01     -1.208867000000000E+02      4.734039000000000E-01     -1.018906000000000E+02
4760000000.000000      1.409836000000000E-01     -1.168476000000000E+02      5.802612000000000E-01     -1.103711000000000E+02
4780000000.000000      1.154404000000000E-01     -1.010078000000000E+02      6.674805000000000E-01     -1.228281000000000E+02
4800000000.000000      1.213303000000000E-01     -8.378124000000000E+01      7.151184000000000E-01     -1.355859000000000E+02
4820000000.000000      1.506195000000000E-01     -7.457421000000000E+01      7.357788000000000E-01     -1.488125000000000E+02
4840000000.000000      1.906891000000000E-01     -7.408593000000000E+01      7.164917000000000E-01     -1.616562000000000E+02
4860000000.000000      2.348251000000000E-01     -8.073828000000000E+01      6.827393000000000E-01     -1.741250000000000E+02
4880000000.000000      2.716217000000000E-01     -9.087891000000000E+01      6.170959000000000E-01      1.722031000000000E+02
4900000000.000000      2.965240000000000E-01     -1.041055000000000E+02      4.940033000000000E-01      1.599062000000000E+02
4920000000.000000      3.014374000000000E-01     -1.190234000000000E+02      3.650208000000000E-01      1.537188000000000E+02
4940000000.000000      2.872925000000000E-01     -1.345469000000000E+02      2.513428000000000E-01      1.561875000000000E+02
4960000000.000000      2.559357000000000E-01     -1.496328000000000E+02      1.771774000000000E-01      1.775703000000000E+02
4980000000.000000      2.132263000000000E-01     -1.635937000000000E+02      2.150345000000000E-01     -1.511094000000000E+02
5000000000.000000      1.687622000000000E-01     -1.748750000000000E+02      3.311157000000000E-01     -1.434453000000000E+02
5020000000.000000      1.305618000000000E-01      1.753125000000000E+02      4.609222000000000E-01     -1.495234000000000E+02
5040000000.000000      9.952927000000000E-02      1.656875000000000E+02      5.694580000000000E-01     -1.604609000000000E+02
5060000000.000000      7.108307000000000E-02      1.514219000000000E+02      6.508484000000000E-01     -1.718047000000000E+02
5080000000.000000      3.984642000000000E-02      1.268281000000000E+02      7.192078000000000E-01      1.761094000000000E+02
5100000000.000000      1.377583000000000E-02      3.941406000000000E+01      7.557983000000000E-01      1.623984000000000E+02
5120000000.000000      4.140282000000000E-02     -5.388866000000000E+01      7.541199000000000E-01      1.480547000000000E+02
5140000000.000000      7.416916000000000E-02     -8.860155000000000E+01      7.040710000000000E-01      1.344609000000000E+02
5160000000.000000      9.745026000000000E-02     -1.187109000000000E+02      6.282959000000000E-01      1.220898000000000E+02
5180000000.000000      1.104050000000000E-01     -1.486953000000000E+02      5.326843000000000E-01      1.109062000000000E+02
5200000000.000000      1.119194000000000E-01      1.790078000000000E+02      4.157867000000000E-01      1.011406000000000E+02
5220000000.000000      1.083260000000000E-01      1.428437000000000E+02      2.828827000000000E-01      9.847265000000000E+01
5240000000.000000      1.069221000000000E-01      1.060664000000000E+02      1.843948000000000E-01      1.156289000000000E+02
5260000000.000000      1.109581000000000E-01      7.241405000000000E+01      1.971664000000000E-01      1.496484000000000E+02
5280000000.000000      1.183777000000000E-01      4.529492000000000E+01      2.974396000000000E-01      1.607265000000000E+02
5300000000.000000      1.253891000000000E-01      2.424805000000000E+01      4.107971000000000E-01      1.582109000000000E+02
5320000000.000000      1.317062000000000E-01      7.985596000000000E+00      5.279541000000000E-01      1.505703000000000E+02
5340000000.000000      1.384354000000000E-01     -6.464111000000000E+00      6.398010000000000E-01      1.386484000000000E+02
5360000000.000000      1.430817000000000E-01     -2.192773000000000E+01      7.043152000000000E-01      1.240937000000000E+02
5380000000.000000      1.389618000000000E-01     -3.908203000000000E+01      7.181702000000000E-01      1.108320000000000E+02
5400000000.000000      1.210480000000000E-01     -5.705273000000000E+01      7.182007000000000E-01      9.907812000000000E+01
5420000000.000000      8.632660000000000E-02     -7.380077000000000E+01      7.035828000000000E-01      8.618359000000000E+01
5440000000.000000      3.265190000000000E-02     -7.762890000000000E+01      6.469727000000000E-01      7.173437000000000E+01
5460000000.000000      4.187393000000000E-02      3.641797000000000E+01      5.385132000000000E-01      5.875781000000000E+01
5480000000.000000      1.112595000000000E-01      3.006543000000000E+01      4.138947000000000E-01      4.961719000000000E+01
5500000000.000000      1.739883000000000E-01      1.490430000000000E+01      2.927399000000000E-01      4.752149000000000E+01
5520000000.000000      2.203369000000000E-01     -1.867676000000000E-01      1.950302000000000E-01      5.929688000000000E+01
5540000000.000000      2.518616000000000E-01     -1.376074000000000E+01      1.814651000000000E-01      9.110546000000000E+01
5560000000.000000      2.705841000000000E-01     -2.545215000000000E+01      2.630615000000000E-01      1.088008000000000E+02
5580000000.000000      2.832794000000000E-01     -3.525781000000000E+01      3.855286000000000E-01      1.086758000000000E+02
5600000000.000000      2.949524000000000E-01     -4.402539000000000E+01      5.069885000000000E-01      9.970703000000000E+01
5620000000.000000      3.056488000000000E-01     -5.314258000000000E+01      5.960388000000000E-01      8.719141000000000E+01
5640000000.000000      3.097382000000000E-01     -6.279882000000000E+01      6.474915000000000E-01      7.529297000000000E+01
5660000000.000000      3.008118000000000E-01     -7.354687000000000E+01      6.854553000000000E-01      6.415625000000000E+01
5680000000.000000      2.719421000000000E-01     -8.381250000000000E+01      6.984253000000000E-01      5.126562000000000E+01
5700000000.000000      2.252426000000000E-01     -9.113672000000000E+01      6.797791000000000E-01      3.906641000000000E+01
5720000000.000000      1.747665000000000E-01     -8.991405000000000E+01      6.427307000000000E-01      2.612402000000000E+01
5740000000.000000      1.529770000000000E-01     -7.591406000000000E+01      5.658569000000000E-01      1.299512000000000E+01
5760000000.000000      1.811905000000000E-01     -6.423046000000000E+01      4.513397000000000E-01      1.251038000000000E+00
5780000000.000000      2.274780000000000E-01     -6.570313000000000E+01      3.155365000000000E-01     -3.651611000000000E+00
5800000000.000000      2.591705000000000E-01     -7.326562000000000E+01      2.075958000000000E-01      7.444580000000000E+00
5820000000.000000      2.688904000000000E-01     -8.260546000000000E+01      1.898727000000000E-01      3.791601000000000E+01
5840000000.000000      2.595062000000000E-01     -9.105078000000000E+01      2.708893000000000E-01      5.419922000000000E+01
5860000000.000000      2.419739000000000E-01     -9.645311000000000E+01      3.723297000000000E-01      5.410742000000000E+01
5880000000.000000      2.283936000000000E-01     -9.978905000000000E+01      4.783630000000000E-01      4.897461000000000E+01
5900000000.000000      2.203979000000000E-01     -1.021641000000000E+02      5.946045000000000E-01      3.859766000000000E+01
5920000000.000000      2.132645000000000E-01     -1.049101000000000E+02      6.720581000000000E-01      2.481738000000000E+01
5940000000.000000      1.986465000000000E-01     -1.070351000000000E+02      7.004089000000000E-01      1.160938000000000E+01
5960000000.000000      1.801376000000000E-01     -1.054766000000000E+02      7.138367000000000E-01     -1.273071000000000E+00
5980000000.000000      1.680527000000000E-01     -9.791796000000000E+01      6.921387000000000E-01     -1.517529000000000E+01
6000000000.000000      1.834488000000000E-01     -8.850780000000000E+01      6.271973000000000E-01     -2.895996000000000E+01
6020000000.000000      2.176208000000000E-01     -8.673437000000000E+01      5.276489000000000E-01     -4.151367000000000E+01
6040000000.000000      2.544861000000000E-01     -9.186718000000000E+01      3.992462000000000E-01     -4.965429000000000E+01
6060000000.000000      2.786407000000000E-01     -1.008320000000000E+02      2.848206000000000E-01     -4.930664000000000E+01
6080000000.000000      2.887573000000000E-01     -1.107500000000000E+02      2.054062000000000E-01     -3.532812000000000E+01
