! Network Analyzer HP8722D
! Hewlett-Packard
! Data name: Linha & Wilkinson+CNT
! Saver's name: Rodrigo Anjos
! Comments: Teste da utilização de aquisição
continua pelo VNA HP8722D
! Time and date: 29/9/2025 17:09
!              Frequency                     S11                                                   S21                                                   S12                                                   S22
# HZ  S  MA R 50
3000000000.000000      4.228516000000000E-01     -5.551952000000000E+01      2.058868000000000E-01     -1.315547000000000E+02
3020000000.000000      4.485931000000000E-01     -6.986328000000000E+01      3.488464000000000E-01     -1.348203000000000E+02
3040000000.000000      4.525757000000000E-01     -8.280468000000000E+01      4.665222000000000E-01     -1.446797000000000E+02
3060000000.000000      4.447327000000000E-01     -9.471483000000000E+01      5.713196000000000E-01     -1.550078000000000E+02
3080000000.000000      4.293365000000000E-01     -1.059961000000000E+02      6.740112000000000E-01     -1.682422000000000E+02
3100000000.000000      4.093475000000000E-01     -1.171992000000000E+02      7.243347000000000E-01      1.769140000000000E+02
3120000000.000000      3.807068000000000E-01     -1.290390000000000E+02      7.337646000000000E-01      1.635781000000000E+02
3140000000.000000      3.392029000000000E-01     -1.422422000000000E+02      7.250977000000000E-01      1.506797000000000E+02
3160000000.000000      2.792511000000000E-01     -1.562031000000000E+02      6.850891000000000E-01      1.370703000000000E+02
3180000000.000000      1.997986000000000E-01     -1.688516000000000E+02      6.152954000000000E-01      1.246758000000000E+02
3200000000.000000      1.118355000000000E-01     -1.696484000000000E+02      5.222778000000000E-01      1.117266000000000E+02
3220000000.000000      7.913208000000000E-02     -1.243594000000000E+02      3.882904000000000E-01      1.009141000000000E+02
3240000000.000000      1.504593000000000E-01     -1.047266000000000E+02      2.490845000000000E-01      9.939842000000000E+01
3260000000.000000      2.298813000000000E-01     -1.148320000000000E+02      1.477890000000000E-01      1.246211000000000E+02
3280000000.000000      2.874908000000000E-01     -1.305859000000000E+02      2.017517000000000E-01      1.648828000000000E+02
3300000000.000000      3.213196000000000E-01     -1.469375000000000E+02      3.283997000000000E-01      1.696172000000000E+02
3320000000.000000      3.322906000000000E-01     -1.627969000000000E+02      4.617004000000000E-01      1.626094000000000E+02
3340000000.000000      3.288879000000000E-01     -1.782031000000000E+02      5.737000000000000E-01      1.506562000000000E+02
3360000000.000000      3.179474000000000E-01      1.670469000000000E+02      6.450500000000000E-01      1.385625000000000E+02
3380000000.000000      3.011780000000000E-01      1.527734000000000E+02      7.089233000000000E-01      1.271523000000000E+02
3400000000.000000      2.793732000000000E-01      1.380078000000000E+02      7.568359000000000E-01      1.133555000000000E+02
3420000000.000000      2.443085000000000E-01      1.231797000000000E+02      7.486267000000000E-01      9.866796000000000E+01
3440000000.000000      1.914291000000000E-01      1.083789000000000E+02      7.054749000000000E-01      8.566797000000000E+01
3460000000.000000      1.213875000000000E-01      9.770311000000000E+01      6.482849000000000E-01      7.264062000000000E+01
3480000000.000000      4.919624000000000E-02      1.202891000000000E+02      5.509949000000000E-01      5.925976000000000E+01
3500000000.000000      9.103775000000000E-02     -1.747187000000000E+02      4.285583000000000E-01      4.773828000000000E+01
3520000000.000000      1.826706000000000E-01      1.790000000000000E+02      2.812500000000000E-01      4.039648000000000E+01
3540000000.000000      2.621002000000000E-01      1.630078000000000E+02      1.483231000000000E-01      5.758398000000000E+01
3560000000.000000      3.227386000000000E-01      1.460391000000000E+02      1.653290000000000E-01      1.073203000000000E+02
3580000000.000000      3.600311000000000E-01      1.300625000000000E+02      2.923584000000000E-01      1.175547000000000E+02
3600000000.000000      3.766022000000000E-01      1.154219000000000E+02      4.176636000000000E-01      1.108476000000000E+02
3620000000.000000      3.787231000000000E-01      1.028359000000000E+02      5.191040000000000E-01      1.014023000000000E+02
3640000000.000000      3.689880000000000E-01      9.157030000000000E+01      6.216125000000000E-01      9.022655000000000E+01
3660000000.000000      3.526611000000000E-01      8.126953000000000E+01      6.920776000000000E-01      7.596874000000000E+01
3680000000.000000      3.302155000000000E-01      7.211328000000000E+01      7.104187000000000E-01      6.288867000000000E+01
3700000000.000000      3.001862000000000E-01      6.378711000000000E+01      7.218323000000000E-01      5.120507000000000E+01
3720000000.000000      2.560730000000000E-01      5.772265000000000E+01      7.237549000000000E-01      3.697851000000000E+01
3740000000.000000      2.057037000000000E-01      5.839062000000000E+01      6.653442000000000E-01      2.159277000000000E+01
3760000000.000000      1.781693000000000E-01      7.238671000000000E+01      5.681763000000000E-01      7.259033000000000E+00
3780000000.000000      2.112427000000000E-01      8.748438000000000E+01      4.382324000000000E-01     -5.837891000000000E+00
3800000000.000000      2.814484000000000E-01      8.920702000000000E+01      2.842102000000000E-01     -1.344727000000000E+01
3820000000.000000      3.495789000000000E-01      8.283203000000000E+01      1.546631000000000E-01     -8.033752000000000E-01
3840000000.000000      3.997803000000000E-01      7.408593000000000E+01      1.418915000000000E-01      4.719336000000000E+01
3860000000.000000      4.354553000000000E-01      6.551171000000000E+01      2.445297000000000E-01      6.537890000000000E+01
3880000000.000000      4.609222000000000E-01      5.797070000000000E+01      3.748779000000000E-01      6.122070000000000E+01
3900000000.000000      4.894104000000000E-01      5.091991000000000E+01      4.762268000000000E-01      4.791211000000000E+01
3920000000.000000      5.204163000000000E-01      4.349023000000000E+01      5.084534000000000E-01      3.617773000000000E+01
3940000000.000000      5.497437000000000E-01      3.439844000000000E+01      5.385742000000000E-01      2.954883000000000E+01
3960000000.000000      5.592651000000000E-01      2.415136000000000E+01      5.953979000000000E-01      2.034863000000000E+01
3980000000.000000      5.546265000000000E-01      1.373975000000000E+01      5.972900000000000E-01      8.401367000000000E+00
4000000000.000000      5.276184000000000E-01      3.269775000000000E+00      5.811462000000000E-01      1.290894000000000E+00
4020000000.000000      4.853516000000000E-01     -6.668701000000000E+00      5.984802000000000E-01     -6.414795000000000E+00
4040000000.000000      4.266357000000000E-01     -1.551025000000000E+01      5.868530000000000E-01     -1.859766000000000E+01
4060000000.000000      3.502655000000000E-01     -2.166308000000000E+01      5.280457000000000E-01     -2.877050000000000E+01
4080000000.000000      2.751770000000000E-01     -2.171484000000000E+01      4.706421000000000E-01     -3.811328000000000E+01
4100000000.000000      2.284088000000000E-01     -1.119824000000000E+01      3.676605000000000E-01     -4.753125000000000E+01
4120000000.000000      2.410736000000000E-01      1.867676000000000E+00      2.508240000000000E-01     -4.440625000000000E+01
4140000000.000000      2.894135000000000E-01      5.347412000000000E+00      2.032852000000000E-01     -2.058105000000000E+01
4160000000.000000      3.330078000000000E-01      1.234558000000000E+00      2.620392000000000E-01     -2.774048000000000E-01
4180000000.000000      3.619690000000000E-01     -5.582520000000000E+00      3.554688000000000E-01      4.026367000000000E+00
4200000000.000000      3.715973000000000E-01     -1.340234000000000E+01      4.864502000000000E-01      1.517456000000000E+00
4220000000.000000      3.683319000000000E-01     -2.063379000000000E+01      6.407776000000000E-01     -1.070361000000000E+01
4240000000.000000      3.489227000000000E-01     -2.811426000000000E+01      7.209167000000000E-01     -2.756836000000000E+01
4260000000.000000      3.109589000000000E-01     -3.395898000000000E+01      7.435608000000000E-01     -4.166992000000000E+01
4280000000.000000      2.602844000000000E-01     -3.527539000000000E+01      7.532959000000000E-01     -5.537304000000000E+01
4300000000.000000      2.227402000000000E-01     -2.732519000000000E+01      7.157288000000000E-01     -7.032812000000000E+01
4320000000.000000      2.347641000000000E-01     -1.453662000000000E+01      6.355896000000000E-01     -8.494141000000000E+01
4340000000.000000      2.924652000000000E-01     -1.048389000000000E+01      5.187378000000000E-01     -9.772264000000000E+01
4360000000.000000      3.578796000000000E-01     -1.535498000000000E+01      3.832703000000000E-01     -1.069414000000000E+02
4380000000.000000      4.051361000000000E-01     -2.436230000000000E+01      2.520599000000000E-01     -1.082031000000000E+02
4400000000.000000      4.267578000000000E-01     -3.441797000000000E+01      1.539001000000000E-01     -8.584764000000000E+01
4420000000.000000      4.254761000000000E-01     -4.362305000000000E+01      1.861038000000000E-01     -4.588672000000000E+01
4440000000.000000      4.084320000000000E-01     -5.178711000000000E+01      3.085480000000000E-01     -3.609375000000000E+01
4460000000.000000      3.868866000000000E-01     -5.831445000000000E+01      4.504089000000000E-01     -4.308398000000000E+01
4480000000.000000      3.673859000000000E-01     -6.472265000000000E+01      5.610046000000000E-01     -5.526172000000000E+01
4500000000.000000      3.466949000000000E-01     -7.152734000000000E+01      6.419678000000000E-01     -6.643749000000000E+01
4520000000.000000      3.139801000000000E-01     -7.933594000000000E+01      7.167969000000000E-01     -7.962109000000000E+01
4540000000.000000      2.624207000000000E-01     -8.568750000000000E+01      7.430725000000000E-01     -9.425390000000000E+01
4560000000.000000      2.008057000000000E-01     -8.411327000000000E+01      7.308350000000000E-01     -1.073672000000000E+02
4580000000.000000      1.729050000000000E-01     -6.802343000000000E+01      6.930237000000000E-01     -1.211289000000000E+02
4600000000.000000      2.097321000000000E-01     -5.361718000000000E+01      6.089783000000000E-01     -1.345391000000000E+02
4620000000.000000      2.751923000000000E-01     -5.477929000000000E+01      5.012207000000000E-01     -1.449063000000000E+02
4640000000.000000      3.292694000000000E-01     -6.459765000000000E+01      3.813782000000000E-01     -1.532969000000000E+02
4660000000.000000      3.532562000000000E-01     -7.794140000000000E+01      2.484589000000000E-01     -1.520859000000000E+02
4680000000.000000      3.456879000000000E-01     -9.194139000000000E+01      1.799927000000000E-01     -1.240312000000000E+02
4700000000.000000      3.083191000000000E-01     -1.051445000000000E+02      2.466812000000000E-01     -9.691406000000000E+01
4720000000.000000      2.528839000000000E-01     -1.156758000000000E+02      3.655548000000000E-01     -9.546484000000000E+01
4740000000.000000      1.908646000000000E-01     -1.208984000000000E+02      4.727783000000000E-01     -1.016406000000000E+02
4760000000.000000      1.394119000000000E-01     -1.168594000000000E+02      5.791321000000000E-01     -1.104609000000000E+02
4780000000.000000      1.123428000000000E-01     -1.011953000000000E+02      6.667480000000000E-01     -1.227851000000000E+02
4800000000.000000      1.184616000000000E-01     -8.298046000000000E+01      7.172546000000000E-01     -1.355234000000000E+02
4820000000.000000      1.472626000000000E-01     -7.364452000000000E+01      7.353821000000000E-01     -1.487813000000000E+02
4840000000.000000      1.879501000000000E-01     -7.335938000000000E+01      7.198181000000000E-01     -1.616328000000000E+02
4860000000.000000      2.316895000000000E-01     -7.987499000000000E+01      6.849060000000000E-01     -1.741094000000000E+02
4880000000.000000      2.694550000000000E-01     -9.037109000000000E+01      6.208191000000000E-01      1.720781000000000E+02
4900000000.000000      2.956848000000000E-01     -1.039023000000000E+02      4.988403000000000E-01      1.597422000000000E+02
4920000000.000000      3.017426000000000E-01     -1.189805000000000E+02      3.684082000000000E-01      1.533594000000000E+02
4940000000.000000      2.873230000000000E-01     -1.346328000000000E+02      2.544250000000000E-01      1.556484000000000E+02
4960000000.000000      2.560883000000000E-01     -1.498125000000000E+02      1.771545000000000E-01      1.763281000000000E+02
4980000000.000000      2.143860000000000E-01     -1.639453000000000E+02      2.118683000000000E-01     -1.515156000000000E+02
5000000000.000000      1.696701000000000E-01     -1.757969000000000E+02      3.273621000000000E-01     -1.433984000000000E+02
5020000000.000000      1.320648000000000E-01      1.743438000000000E+02      4.577332000000000E-01     -1.495234000000000E+02
5040000000.000000      1.015701000000000E-01      1.645547000000000E+02      5.686340000000000E-01     -1.602344000000000E+02
5060000000.000000      7.292175000000000E-02      1.494375000000000E+02      6.487122000000000E-01     -1.715312000000000E+02
5080000000.000000      4.246140000000000E-02      1.243789000000000E+02      7.172852000000000E-01      1.762578000000000E+02
5100000000.000000      1.672554000000000E-02      4.705078000000000E+01      7.572937000000000E-01      1.623594000000000E+02
5120000000.000000      4.000664000000000E-02     -5.043163000000000E+01      7.543640000000000E-01      1.482266000000000E+02
5140000000.000000      7.233429000000000E-02     -8.705858000000000E+01      7.058716000000000E-01      1.344687000000000E+02
5160000000.000000      9.639359000000000E-02     -1.185000000000000E+02      6.304626000000000E-01      1.221797000000000E+02
5180000000.000000      1.105690000000000E-01     -1.490078000000000E+02      5.352783000000000E-01      1.108945000000000E+02
5200000000.000000      1.133766000000000E-01      1.784844000000000E+02      4.188385000000000E-01      1.010781000000000E+02
5220000000.000000      1.107063000000000E-01      1.429375000000000E+02      2.854919000000000E-01      9.799999000000000E+01
5240000000.000000      1.095963000000000E-01      1.066640000000000E+02      1.841660000000000E-01      1.146992000000000E+02
5260000000.000000      1.138191000000000E-01      7.338281000000000E+01      1.941528000000000E-01      1.490859000000000E+02
5280000000.000000      1.210709000000000E-01      4.643945000000000E+01      2.939453000000000E-01      1.606953000000000E+02
5300000000.000000      1.273117000000000E-01      2.549511000000000E+01      4.076691000000000E-01      1.583828000000000E+02
5320000000.000000      1.335831000000000E-01      8.705078000000000E+00      5.256042000000000E-01      1.508281000000000E+02
5340000000.000000      1.395340000000000E-01     -5.351807000000000E+00      6.373291000000000E-01      1.389062000000000E+02
5360000000.000000      1.433029000000000E-01     -2.101465000000000E+01      7.059631000000000E-01      1.242695000000000E+02
5380000000.000000      1.391754000000000E-01     -3.886914000000000E+01      7.181396000000000E-01      1.109609000000000E+02
5400000000.000000      1.205635000000000E-01     -5.699023000000000E+01      7.189026000000000E-01      9.921875000000000E+01
5420000000.000000      8.588028000000000E-02     -7.409765000000000E+01      7.059021000000000E-01      8.617579000000000E+01
5440000000.000000      3.150558000000000E-02     -8.087891000000000E+01      6.514282000000000E-01      7.169531000000000E+01
5460000000.000000      4.128075000000000E-02      4.000390000000000E+01      5.426025000000000E-01      5.868554000000000E+01
5480000000.000000      1.113586000000000E-01      3.182422000000000E+01      4.152985000000000E-01      4.950585000000000E+01
5500000000.000000      1.742096000000000E-01      1.613965000000000E+01      2.948303000000000E-01      4.721093000000000E+01
5520000000.000000      2.198029000000000E-01      1.006592000000000E+00      1.959229000000000E-01      5.848242000000000E+01
5540000000.000000      2.507172000000000E-01     -1.271143000000000E+01      1.797409000000000E-01      9.025000000000000E+01
5560000000.000000      2.697296000000000E-01     -2.473340000000000E+01      2.605286000000000E-01      1.087109000000000E+02
5580000000.000000      2.819366000000000E-01     -3.467773000000000E+01      3.825836000000000E-01      1.086953000000000E+02
5600000000.000000      2.937012000000000E-01     -4.369141000000000E+01      5.049438000000000E-01      9.987890000000000E+01
5620000000.000000      3.048248000000000E-01     -5.281445000000000E+01      5.948792000000000E-01      8.730860000000000E+01
5640000000.000000      3.081360000000000E-01     -6.261913000000000E+01      6.453857000000000E-01      7.544531000000000E+01
5660000000.000000      2.987976000000000E-01     -7.321094000000000E+01      6.844482000000000E-01      6.407421000000000E+01
5680000000.000000      2.696381000000000E-01     -8.358202000000000E+01      6.990662000000000E-01      5.137890000000000E+01
5700000000.000000      2.214661000000000E-01     -9.127733000000000E+01      6.833496000000000E-01      3.897851000000000E+01
5720000000.000000      1.710587000000000E-01     -9.014843000000000E+01      6.464539000000000E-01      2.620214000000000E+01
5740000000.000000      1.487122000000000E-01     -7.576562000000000E+01      5.701294000000000E-01      1.286182000000000E+01
5760000000.000000      1.770020000000000E-01     -6.368945000000000E+01      4.541626000000000E-01      1.428223000000000E+00
5780000000.000000      2.237930000000000E-01     -6.509375000000000E+01      3.193512000000000E-01     -4.062256000000000E+00
5800000000.000000      2.568359000000000E-01     -7.287499000000000E+01      2.093887000000000E-01      6.347168000000000E+00
5820000000.000000      2.668915000000000E-01     -8.226171000000000E+01      1.880417000000000E-01      3.705273000000000E+01
5840000000.000000      2.576141000000000E-01     -9.075781000000000E+01      2.690582000000000E-01      5.398632000000000E+01
5860000000.000000      2.392197000000000E-01     -9.640234000000000E+01      3.700104000000000E-01      5.410546000000000E+01
5880000000.000000      2.240448000000000E-01     -9.987499000000000E+01      4.765472000000000E-01      4.889062000000000E+01
5900000000.000000      2.158966000000000E-01     -1.022812000000000E+02      5.934448000000000E-01      3.867773000000000E+01
5920000000.000000      2.081451000000000E-01     -1.051367000000000E+02      6.708374000000000E-01      2.480762000000000E+01
5940000000.000000      1.945190000000000E-01     -1.070508000000000E+02      7.026367000000000E-01      1.150928000000000E+01
5960000000.000000      1.775742000000000E-01     -1.055039000000000E+02      7.144470000000000E-01     -1.189270000000000E+00
5980000000.000000      1.652222000000000E-01     -9.743750000000000E+01      6.910400000000000E-01     -1.509668000000000E+01
6000000000.000000      1.803894000000000E-01     -8.818359000000000E+01      6.304932000000000E-01     -2.885644000000000E+01
6020000000.000000      2.151718000000000E-01     -8.628124000000000E+01      5.331116000000000E-01     -4.151563000000000E+01
6040000000.000000      2.510529000000000E-01     -9.150391000000000E+01      4.033051000000000E-01     -4.975976000000000E+01
6060000000.000000      2.749634000000000E-01     -1.005469000000000E+02      2.877808000000000E-01     -4.983788000000000E+01
6080000000.000000      2.852631000000000E-01     -1.106914000000000E+02      2.062607000000000E-01     -3.658594000000000E+01
