! Network Analyzer HP8722D
! Hewlett-Packard
! Data name: Linha & Wilkinson+CNT
! Saver's name: Rodrigo Anjos
! Comments: Teste da utilização de aquisição
continua pelo VNA HP8722D
! Time and date: 29/9/2025 12:27
!              Frequency                     S11                                                   S21                                                   S12                                                   S22
# HZ  S  MA R 50
3000000000.000000      4.234161000000000E-01     -5.626953000000000E+01      2.074814000000000E-01     -1.315000000000000E+02
3020000000.000000      4.455872000000000E-01     -7.020312000000000E+01      3.501282000000000E-01     -1.349141000000000E+02
3040000000.000000      4.535065000000000E-01     -8.314844000000000E+01      4.662781000000000E-01     -1.447344000000000E+02
3060000000.000000      4.466400000000000E-01     -9.523438000000000E+01      5.711365000000000E-01     -1.551172000000000E+02
3080000000.000000      4.313965000000000E-01     -1.064141000000000E+02      6.724854000000000E-01     -1.682109000000000E+02
3100000000.000000      4.117432000000000E-01     -1.175000000000000E+02      7.238770000000000E-01      1.768359000000000E+02
3120000000.000000      3.822479000000000E-01     -1.294531000000000E+02      7.316589000000000E-01      1.634844000000000E+02
3140000000.000000      3.421631000000000E-01     -1.422969000000000E+02      7.227783000000000E-01      1.506953000000000E+02
3160000000.000000      2.825317000000000E-01     -1.561328000000000E+02      6.833801000000000E-01      1.372109000000000E+02
3180000000.000000      2.025757000000000E-01     -1.684219000000000E+02      6.133728000000000E-01      1.246328000000000E+02
3200000000.000000      1.149368000000000E-01     -1.687734000000000E+02      5.195313000000000E-01      1.118047000000000E+02
3220000000.000000      8.277130000000000E-02     -1.248359000000000E+02      3.856964000000000E-01      1.010586000000000E+02
3240000000.000000      1.530685000000000E-01     -1.055039000000000E+02      2.462234000000000E-01      9.975389000000000E+01
3260000000.000000      2.330551000000000E-01     -1.155078000000000E+02      1.469879000000000E-01      1.256094000000000E+02
3280000000.000000      2.905579000000000E-01     -1.308984000000000E+02      2.035370000000000E-01      1.655234000000000E+02
3300000000.000000      3.237305000000000E-01     -1.470703000000000E+02      3.302002000000000E-01      1.697891000000000E+02
3320000000.000000      3.353119000000000E-01     -1.627969000000000E+02      4.631042000000000E-01      1.627891000000000E+02
3340000000.000000      3.319550000000000E-01     -1.780937000000000E+02      5.753479000000000E-01      1.506484000000000E+02
3360000000.000000      3.195953000000000E-01      1.673359000000000E+02      6.475220000000000E-01      1.385937000000000E+02
3380000000.000000      3.019714000000000E-01      1.530859000000000E+02      7.091980000000000E-01      1.272773000000000E+02
3400000000.000000      2.788239000000000E-01      1.385078000000000E+02      7.574463000000000E-01      1.133008000000000E+02
3420000000.000000      2.431412000000000E-01      1.235469000000000E+02      7.487183000000000E-01      9.851952000000000E+01
3440000000.000000      1.890640000000000E-01      1.088672000000000E+02      7.059937000000000E-01      8.563671000000000E+01
3460000000.000000      1.183624000000000E-01      9.861328000000000E+01      6.470947000000000E-01      7.258594000000000E+01
3480000000.000000      4.751968000000000E-02      1.246328000000000E+02      5.504761000000000E-01      5.902148000000000E+01
3500000000.000000      9.476471000000000E-02     -1.730469000000000E+02      4.245300000000000E-01      4.770898000000000E+01
3520000000.000000      1.863708000000000E-01      1.797969000000000E+02      2.789612000000000E-01      4.064258000000000E+01
3540000000.000000      2.650909000000000E-01      1.635625000000000E+02      1.473999000000000E-01      5.855663000000000E+01
3560000000.000000      3.237610000000000E-01      1.464844000000000E+02      1.672897000000000E-01      1.079219000000000E+02
3580000000.000000      3.599396000000000E-01      1.304297000000000E+02      2.948456000000000E-01      1.176172000000000E+02
3600000000.000000      3.755188000000000E-01      1.156484000000000E+02      4.201813000000000E-01      1.107070000000000E+02
3620000000.000000      3.771515000000000E-01      1.029883000000000E+02      5.218811000000000E-01      1.012969000000000E+02
3640000000.000000      3.674927000000000E-01      9.167187000000000E+01      6.221008000000000E-01      9.014063000000000E+01
3660000000.000000      3.510132000000000E-01      8.144531000000000E+01      6.936646000000000E-01      7.586328000000000E+01
3680000000.000000      3.278351000000000E-01      7.209765000000000E+01      7.117920000000000E-01      6.273046000000000E+01
3700000000.000000      2.967224000000000E-01      6.371679000000000E+01      7.221375000000000E-01      5.106835000000000E+01
3720000000.000000      2.521210000000000E-01      5.764062000000000E+01      7.243042000000000E-01      3.683594000000000E+01
3740000000.000000      2.023621000000000E-01      5.850586000000000E+01      6.636658000000000E-01      2.141894000000000E+01
3760000000.000000      1.757736000000000E-01      7.268749000000000E+01      5.664063000000000E-01      7.208252000000000E+00
3780000000.000000      2.098312000000000E-01      8.790234000000000E+01      4.345856000000000E-01     -6.027588000000000E+00
3800000000.000000      2.810516000000000E-01      8.933985000000000E+01      2.819519000000000E-01     -1.336670000000000E+01
3820000000.000000      3.483429000000000E-01      8.284765000000000E+01      1.538315000000000E-01     -3.021240000000000E-01
3840000000.000000      3.990784000000000E-01      7.403515000000000E+01      1.436768000000000E-01      4.799805000000000E+01
3860000000.000000      4.335938000000000E-01      6.539453000000000E+01      2.462921000000000E-01      6.533593000000000E+01
3880000000.000000      4.590454000000000E-01      5.780859000000000E+01      3.766174000000000E-01      6.125000000000000E+01
3900000000.000000      4.878387000000000E-01      5.068554000000000E+01      4.769897000000000E-01      4.785937000000000E+01
3920000000.000000      5.202332000000000E-01      4.298633000000000E+01      5.089111000000000E-01      3.608593000000000E+01
3940000000.000000      5.472107000000000E-01      3.397070000000000E+01      5.408936000000000E-01      2.950976000000000E+01
3960000000.000000      5.576782000000000E-01      2.375879000000000E+01      5.966187000000000E-01      2.007031000000000E+01
3980000000.000000      5.531311000000000E-01      1.324121000000000E+01      5.969238000000000E-01      8.268555000000000E+00
4000000000.000000      5.259705000000000E-01      2.870117000000000E+00      5.798340000000000E-01      1.329346000000000E+00
4020000000.000000      4.830170000000000E-01     -7.094482000000000E+00      5.966492000000000E-01     -6.510986000000000E+00
4040000000.000000      4.241943000000000E-01     -1.599072000000000E+01      5.856018000000000E-01     -1.873633000000000E+01
4060000000.000000      3.493195000000000E-01     -2.216309000000000E+01      5.284424000000000E-01     -2.889355000000000E+01
4080000000.000000      2.743683000000000E-01     -2.230273000000000E+01      4.682770000000000E-01     -3.815039000000000E+01
4100000000.000000      2.278442000000000E-01     -1.176270000000000E+01      3.666229000000000E-01     -4.723828000000000E+01
4120000000.000000      2.413940000000000E-01      1.380127000000000E+00      2.495117000000000E-01     -4.403516000000000E+01
4140000000.000000      2.890167000000000E-01      4.676025000000000E+00      2.029419000000000E-01     -1.991015000000000E+01
4160000000.000000      3.337250000000000E-01      5.493164000000000E-01      2.635498000000000E-01     -1.647949000000000E-02
4180000000.000000      3.611755000000000E-01     -6.237549000000000E+00      3.577271000000000E-01      3.945435000000000E+00
4200000000.000000      3.712006000000000E-01     -1.407666000000000E+01      4.874420000000000E-01      1.424072000000000E+00
4220000000.000000      3.670349000000000E-01     -2.126563000000000E+01      6.416931000000000E-01     -1.091113000000000E+01
4240000000.000000      3.477936000000000E-01     -2.881738000000000E+01      7.211609000000000E-01     -2.771875000000000E+01
4260000000.000000      3.101044000000000E-01     -3.455273000000000E+01      7.424927000000000E-01     -4.173633000000000E+01
4280000000.000000      2.596436000000000E-01     -3.588476000000000E+01      7.510681000000000E-01     -5.552148000000000E+01
4300000000.000000      2.226334000000000E-01     -2.772851000000000E+01      7.139587000000000E-01     -7.072656000000000E+01
4320000000.000000      2.361526000000000E-01     -1.502930000000000E+01      6.327209000000000E-01     -8.530077000000000E+01
4340000000.000000      2.938843000000000E-01     -1.105127000000000E+01      5.161133000000000E-01     -9.791016000000000E+01
4360000000.000000      3.592224000000000E-01     -1.591113000000000E+01      3.814850000000000E-01     -1.067539000000000E+02
4380000000.000000      4.052582000000000E-01     -2.489258000000000E+01      2.498016000000000E-01     -1.079570000000000E+02
4400000000.000000      4.264069000000000E-01     -3.481250000000000E+01      1.533127000000000E-01     -8.488672000000000E+01
4420000000.000000      4.252930000000000E-01     -4.424218000000000E+01      1.877975000000000E-01     -4.545117000000000E+01
4440000000.000000      4.093018000000000E-01     -5.232812000000000E+01      3.106384000000000E-01     -3.595312000000000E+01
4460000000.000000      3.896942000000000E-01     -5.879492000000000E+01      4.523773000000000E-01     -4.321094000000000E+01
4480000000.000000      3.696899000000000E-01     -6.516406000000000E+01      5.616150000000000E-01     -5.536327000000000E+01
4500000000.000000      3.481903000000000E-01     -7.177734000000000E+01      6.423645000000000E-01     -6.676952000000000E+01
4520000000.000000      3.148041000000000E-01     -7.932422000000000E+01      7.152405000000000E-01     -7.959374000000000E+01
4540000000.000000      2.637787000000000E-01     -8.532421000000000E+01      7.425537000000000E-01     -9.425390000000000E+01
4560000000.000000      2.035751000000000E-01     -8.358202000000000E+01      7.284851000000000E-01     -1.074492000000000E+02
4580000000.000000      1.769791000000000E-01     -6.801952000000000E+01      6.907654000000000E-01     -1.213945000000000E+02
4600000000.000000      2.143860000000000E-01     -5.436913000000000E+01      6.059265000000000E-01     -1.346094000000000E+02
4620000000.000000      2.791901000000000E-01     -5.558203000000000E+01      4.975891000000000E-01     -1.449453000000000E+02
4640000000.000000      3.332672000000000E-01     -6.536327000000000E+01      3.785706000000000E-01     -1.533437000000000E+02
4660000000.000000      3.574371000000000E-01     -7.848827000000000E+01      2.460861000000000E-01     -1.516172000000000E+02
4680000000.000000      3.488617000000000E-01     -9.232422000000000E+01      1.789474000000000E-01     -1.233008000000000E+02
4700000000.000000      3.117065000000000E-01     -1.054102000000000E+02      2.479324000000000E-01     -9.641014000000000E+01
4720000000.000000      2.552338000000000E-01     -1.157656000000000E+02      3.672943000000000E-01     -9.528124000000000E+01
4740000000.000000      1.932907000000000E-01     -1.209180000000000E+02      4.737854000000000E-01     -1.015117000000000E+02
4760000000.000000      1.408005000000000E-01     -1.169609000000000E+02      5.786743000000000E-01     -1.103633000000000E+02
4780000000.000000      1.154976000000000E-01     -1.010156000000000E+02      6.683655000000000E-01     -1.227109000000000E+02
4800000000.000000      1.218300000000000E-01     -8.366014000000000E+01      7.165833000000000E-01     -1.356406000000000E+02
4820000000.000000      1.506958000000000E-01     -7.437500000000000E+01      7.356873000000000E-01     -1.488516000000000E+02
4840000000.000000      1.905746000000000E-01     -7.448047000000000E+01      7.170715000000000E-01     -1.617344000000000E+02
4860000000.000000      2.348938000000000E-01     -8.067577000000000E+01      6.840820000000000E-01     -1.740859000000000E+02
4880000000.000000      2.709351000000000E-01     -9.085155000000000E+01      6.158752000000000E-01      1.720547000000000E+02
4900000000.000000      2.964935000000000E-01     -1.040898000000000E+02      4.947662000000000E-01      1.600469000000000E+02
4920000000.000000      3.021698000000000E-01     -1.190859000000000E+02      3.656616000000000E-01      1.535547000000000E+02
4940000000.000000      2.873688000000000E-01     -1.345312000000000E+02      2.517090000000000E-01      1.561406000000000E+02
4960000000.000000      2.563019000000000E-01     -1.496484000000000E+02      1.771774000000000E-01      1.775547000000000E+02
4980000000.000000      2.135239000000000E-01     -1.635547000000000E+02      2.146912000000000E-01     -1.510937000000000E+02
5000000000.000000      1.689606000000000E-01     -1.749375000000000E+02      3.306885000000000E-01     -1.434453000000000E+02
5020000000.000000      1.304703000000000E-01      1.754531000000000E+02      4.607239000000000E-01     -1.495312000000000E+02
5040000000.000000      9.966278000000000E-02      1.655469000000000E+02      5.707703000000000E-01     -1.604766000000000E+02
5060000000.000000      7.098007000000000E-02      1.515469000000000E+02      6.506348000000000E-01     -1.717578000000000E+02
5080000000.000000      3.988838000000000E-02      1.267695000000000E+02      7.183533000000000E-01      1.760156000000000E+02
5100000000.000000      1.411486000000000E-02      3.982812000000000E+01      7.562866000000000E-01      1.624063000000000E+02
5120000000.000000      4.167366000000000E-02     -5.423046000000000E+01      7.529602000000000E-01      1.482266000000000E+02
5140000000.000000      7.386398000000000E-02     -8.840624000000000E+01      7.031860000000000E-01      1.345312000000000E+02
5160000000.000000      9.748840000000000E-02     -1.185469000000000E+02      6.292114000000000E-01      1.220742000000000E+02
5180000000.000000      1.103477000000000E-01     -1.486797000000000E+02      5.325928000000000E-01      1.108437000000000E+02
5200000000.000000      1.122208000000000E-01      1.790000000000000E+02      4.156189000000000E-01      1.010898000000000E+02
5220000000.000000      1.081314000000000E-01      1.429688000000000E+02      2.833710000000000E-01      9.853905000000000E+01
5240000000.000000      1.065254000000000E-01      1.061836000000000E+02      1.842880000000000E-01      1.154883000000000E+02
5260000000.000000      1.109276000000000E-01      7.241015000000000E+01      1.969299000000000E-01      1.494844000000000E+02
5280000000.000000      1.185493000000000E-01      4.541992000000000E+01      2.967072000000000E-01      1.608125000000000E+02
5300000000.000000      1.255264000000000E-01      2.439648000000000E+01      4.104614000000000E-01      1.582187000000000E+02
5320000000.000000      1.317978000000000E-01      7.932129000000000E+00      5.287170000000000E-01      1.506406000000000E+02
5340000000.000000      1.382370000000000E-01     -6.394043000000000E+00      6.381836000000000E-01      1.385703000000000E+02
5360000000.000000      1.430817000000000E-01     -2.186328000000000E+01      7.060242000000000E-01      1.243164000000000E+02
5380000000.000000      1.391907000000000E-01     -3.913476000000000E+01      7.181396000000000E-01      1.108984000000000E+02
5400000000.000000      1.208000000000000E-01     -5.699609000000000E+01      7.185974000000000E-01      9.909765000000000E+01
5420000000.000000      8.597946000000000E-02     -7.359765000000000E+01      7.047119000000000E-01      8.605860000000000E+01
5440000000.000000      3.297234000000000E-02     -7.863671000000000E+01      6.470642000000000E-01      7.170703000000000E+01
5460000000.000000      4.145622000000000E-02      3.627930000000000E+01      5.387573000000000E-01      5.888672000000000E+01
5480000000.000000      1.111794000000000E-01      3.000293000000000E+01      4.107361000000000E-01      4.956836000000000E+01
5500000000.000000      1.740570000000000E-01      1.486816000000000E+01      2.921753000000000E-01      4.734961000000000E+01
5520000000.000000      2.204971000000000E-01      2.059937000000000E-02      1.951294000000000E-01      5.923046000000000E+01
5540000000.000000      2.514343000000000E-01     -1.355615000000000E+01      1.813965000000000E-01      9.090624000000000E+01
5560000000.000000      2.711945000000000E-01     -2.534472000000000E+01      2.630310000000000E-01      1.088398000000000E+02
5580000000.000000      2.839050000000000E-01     -3.521289000000000E+01      3.844604000000000E-01      1.087031000000000E+02
5600000000.000000      2.950897000000000E-01     -4.409570000000000E+01      5.065918000000000E-01      9.979687000000000E+01
5620000000.000000      3.060608000000000E-01     -5.315624000000000E+01      5.955200000000000E-01      8.724218000000000E+01
5640000000.000000      3.096466000000000E-01     -6.275781000000000E+01      6.459045000000000E-01      7.528906000000000E+01
5660000000.000000      3.007050000000000E-01     -7.338672000000000E+01      6.828613000000000E-01      6.408984000000000E+01
5680000000.000000      2.723389000000000E-01     -8.380468000000000E+01      6.980286000000000E-01      5.134179000000000E+01
5700000000.000000      2.253265000000000E-01     -9.111719000000000E+01      6.812134000000000E-01      3.902539000000000E+01
5720000000.000000      1.749191000000000E-01     -8.996094000000000E+01      6.429749000000000E-01      2.617871000000000E+01
5740000000.000000      1.532593000000000E-01     -7.591797000000000E+01      5.653992000000000E-01      1.302539000000000E+01
5760000000.000000      1.809082000000000E-01     -6.424609000000000E+01      4.512939000000000E-01      1.459778000000000E+00
5780000000.000000      2.266541000000000E-01     -6.562109000000000E+01      3.154602000000000E-01     -3.760132000000000E+00
5800000000.000000      2.587128000000000E-01     -7.317577000000000E+01      2.081604000000000E-01      7.389648000000000E+00
5820000000.000000      2.681580000000000E-01     -8.257813000000000E+01      1.896210000000000E-01      3.797656000000000E+01
5840000000.000000      2.593384000000000E-01     -9.110937000000000E+01      2.712250000000000E-01      5.410937000000000E+01
5860000000.000000      2.418442000000000E-01     -9.663280000000000E+01      3.714447000000000E-01      5.411133000000000E+01
5880000000.000000      2.276917000000000E-01     -9.979296000000000E+01      4.779968000000000E-01      4.889257000000000E+01
5900000000.000000      2.202148000000000E-01     -1.020937000000000E+02      5.947876000000000E-01      3.862695000000000E+01
5920000000.000000      2.126312000000000E-01     -1.048984000000000E+02      6.718140000000000E-01      2.477539000000000E+01
5940000000.000000      1.986923000000000E-01     -1.069727000000000E+02      7.011719000000000E-01      1.165234000000000E+01
5960000000.000000      1.806717000000000E-01     -1.055039000000000E+02      7.126160000000000E-01     -1.253845000000000E+00
5980000000.000000      1.678009000000000E-01     -9.774218000000000E+01      6.919250000000000E-01     -1.524219000000000E+01
6000000000.000000      1.831131000000000E-01     -8.861719000000000E+01      6.279907000000000E-01     -2.864453000000000E+01
6020000000.000000      2.177963000000000E-01     -8.673828000000000E+01      5.287781000000000E-01     -4.140821000000000E+01
6040000000.000000      2.536774000000000E-01     -9.180079000000000E+01      3.996124000000000E-01     -4.960351000000000E+01
6060000000.000000      2.780304000000000E-01     -1.007148000000000E+02      2.853699000000000E-01     -4.935547000000000E+01
6080000000.000000      2.887573000000000E-01     -1.107500000000000E+02      2.050705000000000E-01     -3.541211000000000E+01
