! Network Analyzer HP8722D
! Hewlett-Packard
! Data name: Linha & Wilkinson+CNT
! Saver's name: Rodrigo Anjos
! Comments: Teste da utilização de aquisição
continua pelo VNA HP8722D
! Time and date: 29/9/2025 17:18
!              Frequency                     S11                                                   S21                                                   S12                                                   S22
# HZ  S  MA R 50
3000000000.000000      4.249268000000000E-01     -5.583984000000000E+01      2.095108000000000E-01     -1.315156000000000E+02
3020000000.000000      4.479218000000000E-01     -6.983984000000000E+01      3.520355000000000E-01     -1.350547000000000E+02
3040000000.000000      4.530487000000000E-01     -8.288671000000000E+01      4.699402000000000E-01     -1.449844000000000E+02
3060000000.000000      4.446411000000000E-01     -9.490625000000000E+01      5.725098000000000E-01     -1.553437000000000E+02
3080000000.000000      4.295044000000000E-01     -1.061484000000000E+02      6.748657000000000E-01     -1.685390000000000E+02
3100000000.000000      4.089661000000000E-01     -1.173906000000000E+02      7.242432000000000E-01      1.767266000000000E+02
3120000000.000000      3.799133000000000E-01     -1.293828000000000E+02      7.315369000000000E-01      1.633125000000000E+02
3140000000.000000      3.381042000000000E-01     -1.423437000000000E+02      7.242432000000000E-01      1.503672000000000E+02
3160000000.000000      2.775574000000000E-01     -1.564297000000000E+02      6.835327000000000E-01      1.369453000000000E+02
3180000000.000000      1.978912000000000E-01     -1.690156000000000E+02      6.120605000000000E-01      1.244180000000000E+02
3200000000.000000      1.107979000000000E-01     -1.694922000000000E+02      5.177917000000000E-01      1.115039000000000E+02
3220000000.000000      7.996750000000000E-02     -1.232070000000000E+02      3.843079000000000E-01      1.009023000000000E+02
3240000000.000000      1.517563000000000E-01     -1.048828000000000E+02      2.451782000000000E-01      9.980858000000000E+01
3260000000.000000      2.311096000000000E-01     -1.152266000000000E+02      1.470947000000000E-01      1.261836000000000E+02
3280000000.000000      2.878876000000000E-01     -1.309453000000000E+02      2.055054000000000E-01      1.655078000000000E+02
3300000000.000000      3.206177000000000E-01     -1.472109000000000E+02      3.319550000000000E-01      1.695391000000000E+02
3320000000.000000      3.316193000000000E-01     -1.630859000000000E+02      4.646454000000000E-01      1.624219000000000E+02
3340000000.000000      3.279266000000000E-01     -1.785312000000000E+02      5.749817000000000E-01      1.503438000000000E+02
3360000000.000000      3.161621000000000E-01      1.667812000000000E+02      6.483459000000000E-01      1.384140000000000E+02
3380000000.000000      3.000641000000000E-01      1.524297000000000E+02      7.104797000000000E-01      1.269492000000000E+02
3400000000.000000      2.779694000000000E-01      1.378203000000000E+02      7.562256000000000E-01      1.131406000000000E+02
3420000000.000000      2.428131000000000E-01      1.228789000000000E+02      7.486877000000000E-01      9.835938000000000E+01
3440000000.000000      1.890182000000000E-01      1.081367000000000E+02      7.046814000000000E-01      8.531641000000000E+01
3460000000.000000      1.188545000000000E-01      9.776953000000000E+01      6.461792000000000E-01      7.237109000000000E+01
3480000000.000000      4.773140000000000E-02      1.226797000000000E+02      5.487671000000000E-01      5.892383000000000E+01
3500000000.000000      9.321594000000000E-02     -1.742812000000000E+02      4.224396000000000E-01      4.765234000000000E+01
3520000000.000000      1.852951000000000E-01      1.787812000000000E+02      2.767487000000000E-01      4.060937000000000E+01
3540000000.000000      2.641449000000000E-01      1.626484000000000E+02      1.470795000000000E-01      5.900976000000000E+01
3560000000.000000      3.234863000000000E-01      1.456250000000000E+02      1.684265000000000E-01      1.081523000000000E+02
3580000000.000000      3.603058000000000E-01      1.297422000000000E+02      2.960052000000000E-01      1.174570000000000E+02
3600000000.000000      3.761444000000000E-01      1.151797000000000E+02      4.208069000000000E-01      1.105664000000000E+02
3620000000.000000      3.782196000000000E-01      1.024687000000000E+02      5.228271000000000E-01      1.009258000000000E+02
3640000000.000000      3.684540000000000E-01      9.137499000000000E+01      6.238708000000000E-01      8.991405000000000E+01
3660000000.000000      3.520966000000000E-01      8.111719000000000E+01      6.930542000000000E-01      7.571484000000000E+01
3680000000.000000      3.293762000000000E-01      7.187500000000000E+01      7.104187000000000E-01      6.248241000000000E+01
3700000000.000000      2.988434000000000E-01      6.368945000000000E+01      7.208252000000000E-01      5.099609000000000E+01
3720000000.000000      2.546234000000000E-01      5.772461000000000E+01      7.219849000000000E-01      3.672656000000000E+01
3740000000.000000      2.043839000000000E-01      5.875390000000000E+01      6.616211000000000E-01      2.130371000000000E+01
3760000000.000000      1.785049000000000E-01      7.283984000000000E+01      5.640869000000000E-01      7.028320000000000E+00
3780000000.000000      2.126389000000000E-01      8.770311000000000E+01      4.327698000000000E-01     -6.004150000000000E+00
3800000000.000000      2.836456000000000E-01      8.918360000000000E+01      2.796021000000000E-01     -1.320459000000000E+01
3820000000.000000      3.508759000000000E-01      8.270702000000000E+01      1.526031000000000E-01      4.216003000000000E-01
3840000000.000000      4.010925000000000E-01      7.392578000000000E+01      1.444092000000000E-01      4.829102000000000E+01
3860000000.000000      4.357605000000000E-01      6.531640000000000E+01      2.477188000000000E-01      6.539844000000000E+01
3880000000.000000      4.615936000000000E-01      5.788086000000000E+01      3.774719000000000E-01      6.095703000000000E+01
3900000000.000000      4.905396000000000E-01      5.076366000000000E+01      4.783630000000000E-01      4.762304000000000E+01
3920000000.000000      5.220947000000000E-01      4.323828000000000E+01      5.085144000000000E-01      3.576367000000000E+01
3940000000.000000      5.493774000000000E-01      3.423437000000000E+01      5.394287000000000E-01      2.940136000000000E+01
3960000000.000000      5.591431000000000E-01      2.392871000000000E+01      5.955811000000000E-01      2.002344000000000E+01
3980000000.000000      5.547180000000000E-01      1.354590000000000E+01      5.971985000000000E-01      8.071777000000000E+00
4000000000.000000      5.277710000000000E-01      3.032227000000000E+00      5.803223000000000E-01      1.231812000000000E+00
4020000000.000000      4.839630000000000E-01     -6.840576000000000E+00      5.977478000000000E-01     -6.686768000000000E+00
4040000000.000000      4.247894000000000E-01     -1.569287000000000E+01      5.856018000000000E-01     -1.891992000000000E+01
4060000000.000000      3.488007000000000E-01     -2.167285000000000E+01      5.261841000000000E-01     -2.906641000000000E+01
4080000000.000000      2.735138000000000E-01     -2.155566000000000E+01      4.684143000000000E-01     -3.818750000000000E+01
4100000000.000000      2.284012000000000E-01     -1.087256000000000E+01      3.650970000000000E-01     -4.734571000000000E+01
4120000000.000000      2.422333000000000E-01      2.198608000000000E+00      2.484741000000000E-01     -4.373437000000000E+01
4140000000.000000      2.903748000000000E-01      5.357178000000000E+00      2.038498000000000E-01     -1.946387000000000E+01
4160000000.000000      3.341827000000000E-01      1.075256000000000E+00      2.652740000000000E-01     -6.317139000000000E-02
4180000000.000000      3.618469000000000E-01     -5.887451000000000E+00      3.593140000000000E-01      3.890503000000000E+00
4200000000.000000      3.713074000000000E-01     -1.361621000000000E+01      4.899445000000000E-01      1.248291000000000E+00
4220000000.000000      3.676910000000000E-01     -2.077832000000000E+01      6.427002000000000E-01     -1.121191000000000E+01
4240000000.000000      3.479919000000000E-01     -2.819043000000000E+01      7.226257000000000E-01     -2.800195000000000E+01
4260000000.000000      3.099060000000000E-01     -3.398633000000000E+01      7.440491000000000E-01     -4.201757000000000E+01
4280000000.000000      2.590485000000000E-01     -3.516406000000000E+01      7.518921000000000E-01     -5.579102000000000E+01
4300000000.000000      2.222519000000000E-01     -2.696484000000000E+01      7.126160000000000E-01     -7.081640000000000E+01
4320000000.000000      2.360458000000000E-01     -1.430713000000000E+01      6.302795000000000E-01     -8.531641000000000E+01
4340000000.000000      2.943573000000000E-01     -1.043457000000000E+01      5.137024000000000E-01     -9.791796000000000E+01
4360000000.000000      3.596497000000000E-01     -1.562988000000000E+01      3.785095000000000E-01     -1.067969000000000E+02
4380000000.000000      4.057312000000000E-01     -2.459570000000000E+01      2.483444000000000E-01     -1.077617000000000E+02
4400000000.000000      4.263916000000000E-01     -3.458008000000000E+01      1.535034000000000E-01     -8.427343000000000E+01
4420000000.000000      4.244537000000000E-01     -4.384570000000000E+01      1.895447000000000E-01     -4.520117000000000E+01
4440000000.000000      4.088745000000000E-01     -5.195898000000000E+01      3.127136000000000E-01     -3.613867000000000E+01
4460000000.000000      3.861542000000000E-01     -5.871679000000000E+01      4.535370000000000E-01     -4.328906000000000E+01
4480000000.000000      3.670197000000000E-01     -6.471093000000000E+01      5.632629000000000E-01     -5.560741000000000E+01
4500000000.000000      3.458862000000000E-01     -7.175390000000000E+01      6.430054000000000E-01     -6.698437000000000E+01
4520000000.000000      3.128357000000000E-01     -7.938281000000000E+01      7.176208000000000E-01     -7.988671000000000E+01
4540000000.000000      2.612610000000000E-01     -8.560156000000000E+01      7.420349000000000E-01     -9.446875000000000E+01
4560000000.000000      2.002945000000000E-01     -8.371485000000000E+01      7.277222000000000E-01     -1.078164000000000E+02
4580000000.000000      1.737518000000000E-01     -6.754296000000000E+01      6.910400000000000E-01     -1.216094000000000E+02
4600000000.000000      2.124023000000000E-01     -5.358788000000000E+01      6.041565000000000E-01     -1.348047000000000E+02
4620000000.000000      2.770538000000000E-01     -5.518555000000000E+01      4.965363000000000E-01     -1.450547000000000E+02
4640000000.000000      3.307495000000000E-01     -6.508594000000000E+01      3.773193000000000E-01     -1.532109000000000E+02
4660000000.000000      3.538208000000000E-01     -7.844531000000000E+01      2.447433000000000E-01     -1.514141000000000E+02
4680000000.000000      3.451233000000000E-01     -9.242188000000000E+01      1.795883000000000E-01     -1.227851000000000E+02
4700000000.000000      3.078766000000000E-01     -1.055742000000000E+02      2.506256000000000E-01     -9.639843000000000E+01
4720000000.000000      2.516937000000000E-01     -1.160703000000000E+02      3.691101000000000E-01     -9.549999000000000E+01
4740000000.000000      1.896515000000000E-01     -1.211445000000000E+02      4.761658000000000E-01     -1.018672000000000E+02
4760000000.000000      1.379318000000000E-01     -1.169570000000000E+02      5.823364000000000E-01     -1.105742000000000E+02
4780000000.000000      1.122055000000000E-01     -1.009883000000000E+02      6.681213000000000E-01     -1.229805000000000E+02
4800000000.000000      1.185303000000000E-01     -8.323046000000000E+01      7.172852000000000E-01     -1.359453000000000E+02
4820000000.000000      1.472626000000000E-01     -7.355078000000000E+01      7.356873000000000E-01     -1.492109000000000E+02
4840000000.000000      1.875610000000000E-01     -7.347656000000000E+01      7.178650000000000E-01     -1.617812000000000E+02
4860000000.000000      2.317657000000000E-01     -8.022264000000000E+01      6.821289000000000E-01     -1.743984000000000E+02
4880000000.000000      2.692261000000000E-01     -9.082031000000000E+01      6.140747000000000E-01      1.717344000000000E+02
4900000000.000000      2.942657000000000E-01     -1.042969000000000E+02      4.930725000000000E-01      1.596328000000000E+02
4920000000.000000      2.997589000000000E-01     -1.194297000000000E+02      3.624115000000000E-01      1.536641000000000E+02
4940000000.000000      2.856598000000000E-01     -1.350781000000000E+02      2.505798000000000E-01      1.561406000000000E+02
4960000000.000000      2.537689000000000E-01     -1.502344000000000E+02      1.773071000000000E-01      1.780078000000000E+02
4980000000.000000      2.117386000000000E-01     -1.643437000000000E+02      2.161484000000000E-01     -1.509922000000000E+02
5000000000.000000      1.679153000000000E-01     -1.760313000000000E+02      3.328400000000000E-01     -1.437031000000000E+02
5020000000.000000      1.300812000000000E-01      1.738516000000000E+02      4.622192000000000E-01     -1.497890000000000E+02
5040000000.000000      9.964371000000000E-02      1.636484000000000E+02      5.722961000000000E-01     -1.606484000000000E+02
5060000000.000000      7.152939000000000E-02      1.488906000000000E+02      6.508179000000000E-01     -1.721250000000000E+02
5080000000.000000      4.091263000000000E-02      1.230976000000000E+02      7.206116000000000E-01      1.757578000000000E+02
5100000000.000000      1.630306000000000E-02      3.846289000000000E+01      7.570801000000000E-01      1.620547000000000E+02
5120000000.000000      4.175186000000000E-02     -5.263281000000000E+01      7.511902000000000E-01      1.477578000000000E+02
5140000000.000000      7.324600000000000E-02     -8.857422000000000E+01      7.033997000000000E-01      1.342500000000000E+02
5160000000.000000      9.707260000000000E-02     -1.194961000000000E+02      6.269836000000000E-01      1.219609000000000E+02
5180000000.000000      1.100388000000000E-01     -1.501094000000000E+02      5.313416000000000E-01      1.106328000000000E+02
5200000000.000000      1.133118000000000E-01      1.772109000000000E+02      4.134064000000000E-01      1.011055000000000E+02
5220000000.000000      1.098862000000000E-01      1.416953000000000E+02      2.807007000000000E-01      9.853516000000000E+01
5240000000.000000      1.093979000000000E-01      1.055391000000000E+02      1.833878000000000E-01      1.160938000000000E+02
5260000000.000000      1.135635000000000E-01      7.201562000000000E+01      1.983261000000000E-01      1.499141000000000E+02
5280000000.000000      1.205482000000000E-01      4.567187000000000E+01      2.995148000000000E-01      1.607265000000000E+02
5300000000.000000      1.274414000000000E-01      2.492383000000000E+01      4.122925000000000E-01      1.579687000000000E+02
5320000000.000000      1.338501000000000E-01      8.583984000000000E+00      5.289917000000000E-01      1.503594000000000E+02
5340000000.000000      1.393433000000000E-01     -5.947754000000000E+00      6.403503000000000E-01      1.383672000000000E+02
5360000000.000000      1.430588000000000E-01     -2.153809000000000E+01      7.061462000000000E-01      1.239883000000000E+02
5380000000.000000      1.381683000000000E-01     -3.907617000000000E+01      7.169495000000000E-01      1.106055000000000E+02
5400000000.000000      1.194916000000000E-01     -5.751562000000000E+01      7.175598000000000E-01      9.887108000000000E+01
5420000000.000000      8.404160000000000E-02     -7.459765000000000E+01      7.040710000000000E-01      8.576172000000000E+01
5440000000.000000      2.983284000000000E-02     -7.844531000000000E+01      6.450806000000000E-01      7.144531000000000E+01
5460000000.000000      4.396057000000000E-02      3.874023000000000E+01      5.359497000000000E-01      5.843163000000000E+01
5480000000.000000      1.137619000000000E-01      3.098145000000000E+01      4.130859000000000E-01      4.922656000000000E+01
5500000000.000000      1.756897000000000E-01      1.544775000000000E+01      2.901001000000000E-01      4.747266000000000E+01
5520000000.000000      2.213364000000000E-01      6.001282000000000E-01      1.940155000000000E-01      5.959179000000000E+01
5540000000.000000      2.515106000000000E-01     -1.326904000000000E+01      1.823349000000000E-01      9.146875000000000E+01
5560000000.000000      2.697601000000000E-01     -2.504492000000000E+01      2.650604000000000E-01      1.087812000000000E+02
5580000000.000000      2.821808000000000E-01     -3.510547000000000E+01      3.869324000000000E-01      1.084297000000000E+02
5600000000.000000      2.936249000000000E-01     -4.393164000000000E+01      5.097961000000000E-01      9.945702000000000E+01
5620000000.000000      3.046417000000000E-01     -5.314648000000000E+01      5.987244000000000E-01      8.698828000000000E+01
5640000000.000000      3.074188000000000E-01     -6.286523000000000E+01      6.457825000000000E-01      7.520312000000000E+01
5660000000.000000      2.976227000000000E-01     -7.347656000000000E+01      6.843872000000000E-01      6.375195000000000E+01
5680000000.000000      2.678528000000000E-01     -8.389843000000000E+01      6.989746000000000E-01      5.090234000000000E+01
5700000000.000000      2.201157000000000E-01     -9.100780000000000E+01      6.824951000000000E-01      3.849218000000000E+01
5720000000.000000      1.695099000000000E-01     -8.956249000000000E+01      6.411743000000000E-01      2.582324000000000E+01
5740000000.000000      1.493683000000000E-01     -7.491796000000000E+01      5.634766000000000E-01      1.269189000000000E+01
5760000000.000000      1.794815000000000E-01     -6.354101000000000E+01      4.490662000000000E-01      1.137085000000000E+00
5780000000.000000      2.257996000000000E-01     -6.539063000000000E+01      3.144989000000000E-01     -3.753296000000000E+00
5800000000.000000      2.574768000000000E-01     -7.323437000000000E+01      2.069931000000000E-01      7.668457000000000E+00
5820000000.000000      2.669220000000000E-01     -8.253124000000000E+01      1.907196000000000E-01      3.843359000000000E+01
5840000000.000000      2.567596000000000E-01     -9.095312000000000E+01      2.735291000000000E-01      5.411523000000000E+01
5860000000.000000      2.384567000000000E-01     -9.664063000000000E+01      3.748169000000000E-01      5.393945000000000E+01
5880000000.000000      2.235565000000000E-01     -9.983202000000000E+01      4.806976000000000E-01      4.850195000000000E+01
5900000000.000000      2.155457000000000E-01     -1.021367000000000E+02      5.973511000000000E-01      3.845312000000000E+01
5920000000.000000      2.076340000000000E-01     -1.050547000000000E+02      6.722717000000000E-01      2.429199000000000E+01
5940000000.000000      1.938553000000000E-01     -1.071172000000000E+02      7.023926000000000E-01      1.098193000000000E+01
5960000000.000000      1.763840000000000E-01     -1.051133000000000E+02      7.118530000000000E-01     -1.665833000000000E+00
5980000000.000000      1.658020000000000E-01     -9.703905000000000E+01      6.892395000000000E-01     -1.547168000000000E+01
6000000000.000000      1.821671000000000E-01     -8.797266000000000E+01      6.246033000000000E-01     -2.911035000000000E+01
6020000000.000000      2.169571000000000E-01     -8.625780000000000E+01      5.258484000000000E-01     -4.171288000000000E+01
6040000000.000000      2.524109000000000E-01     -9.177343000000000E+01      3.971558000000000E-01     -4.985352000000000E+01
6060000000.000000      2.752991000000000E-01     -1.008750000000000E+02      2.837677000000000E-01     -4.938281000000000E+01
6080000000.000000      2.850952000000000E-01     -1.110117000000000E+02      2.048111000000000E-01     -3.523633000000000E+01
