! Network Analyzer HP8722D
! Hewlett-Packard
! Data name: Linha & Wilkinson+CNT
! Saver's name: Rodrigo Anjos
! Comments: Teste da utilização de aquisição
continua pelo VNA HP8722D
! Time and date: 29/9/2025 15:19
!              Frequency                     S11                                                   S21                                                   S12                                                   S22
# HZ  S  MA R 50
3000000000.000000      4.235992000000000E-01     -5.579883000000000E+01      2.084045000000000E-01     -1.314219000000000E+02
3020000000.000000      4.487762000000000E-01     -6.980078000000000E+01      3.511810000000000E-01     -1.349688000000000E+02
3040000000.000000      4.528656000000000E-01     -8.275391000000000E+01      4.674835000000000E-01     -1.450859000000000E+02
3060000000.000000      4.446869000000000E-01     -9.491796000000000E+01      5.720520000000000E-01     -1.552031000000000E+02
3080000000.000000      4.291229000000000E-01     -1.061641000000000E+02      6.747742000000000E-01     -1.684141000000000E+02
3100000000.000000      4.089966000000000E-01     -1.173867000000000E+02      7.235107000000000E-01      1.768828000000000E+02
3120000000.000000      3.793335000000000E-01     -1.293984000000000E+02      7.320557000000000E-01      1.633672000000000E+02
3140000000.000000      3.383179000000000E-01     -1.423828000000000E+02      7.244263000000000E-01      1.505469000000000E+02
3160000000.000000      2.780762000000000E-01     -1.565000000000000E+02      6.842346000000000E-01      1.368438000000000E+02
3180000000.000000      1.989594000000000E-01     -1.691250000000000E+02      6.134949000000000E-01      1.243984000000000E+02
3200000000.000000      1.113243000000000E-01     -1.695625000000000E+02      5.191040000000000E-01      1.115664000000000E+02
3220000000.000000      7.934189000000000E-02     -1.235508000000000E+02      3.841705000000000E-01      1.008867000000000E+02
3240000000.000000      1.511917000000000E-01     -1.048594000000000E+02      2.462769000000000E-01      9.962109000000000E+01
3260000000.000000      2.304916000000000E-01     -1.151758000000000E+02      1.469040000000000E-01      1.257539000000000E+02
3280000000.000000      2.876892000000000E-01     -1.308672000000000E+02      2.040558000000000E-01      1.653984000000000E+02
3300000000.000000      3.205414000000000E-01     -1.471719000000000E+02      3.306580000000000E-01      1.695625000000000E+02
3320000000.000000      3.317871000000000E-01     -1.630938000000000E+02      4.643097000000000E-01      1.625703000000000E+02
3340000000.000000      3.283844000000000E-01     -1.785859000000000E+02      5.746765000000000E-01      1.504531000000000E+02
3360000000.000000      3.163757000000000E-01      1.667734000000000E+02      6.480103000000000E-01      1.383516000000000E+02
3380000000.000000      3.003387000000000E-01      1.524688000000000E+02      7.093506000000000E-01      1.269765000000000E+02
3400000000.000000      2.779694000000000E-01      1.377422000000000E+02      7.569275000000000E-01      1.131211000000000E+02
3420000000.000000      2.426834000000000E-01      1.227930000000000E+02      7.487183000000000E-01      9.843359000000000E+01
3440000000.000000      1.896667000000000E-01      1.079726000000000E+02      7.044678000000000E-01      8.549219000000000E+01
3460000000.000000      1.194077000000000E-01      9.738670000000000E+01      6.456299000000000E-01      7.230469000000000E+01
3480000000.000000      4.746246000000000E-02      1.217812000000000E+02      5.480957000000000E-01      5.898242000000000E+01
3500000000.000000      9.303665000000000E-02     -1.740156000000000E+02      4.235535000000000E-01      4.766602000000000E+01
3520000000.000000      1.838608000000000E-01      1.790156000000000E+02      2.777863000000000E-01      4.046679000000000E+01
3540000000.000000      2.635956000000000E-01      1.627812000000000E+02      1.471176000000000E-01      5.844921000000000E+01
3560000000.000000      3.230896000000000E-01      1.457813000000000E+02      1.674881000000000E-01      1.079102000000000E+02
3580000000.000000      3.600159000000000E-01      1.297891000000000E+02      2.953644000000000E-01      1.174766000000000E+02
3600000000.000000      3.764648000000000E-01      1.152930000000000E+02      4.203033000000000E-01      1.105586000000000E+02
3620000000.000000      3.777924000000000E-01      1.025547000000000E+02      5.218201000000000E-01      1.011250000000000E+02
3640000000.000000      3.683624000000000E-01      9.125000000000000E+01      6.231384000000000E-01      8.985155000000000E+01
3660000000.000000      3.519592000000000E-01      8.112890000000000E+01      6.933899000000000E-01      7.577343000000000E+01
3680000000.000000      3.292999000000000E-01      7.189062000000000E+01      7.115479000000000E-01      6.245898000000000E+01
3700000000.000000      2.987671000000000E-01      6.368359000000000E+01      7.215271000000000E-01      5.096874000000000E+01
3720000000.000000      2.547607000000000E-01      5.756836000000000E+01      7.232361000000000E-01      3.672266000000000E+01
3740000000.000000      2.045670000000000E-01      5.851367000000000E+01      6.639099000000000E-01      2.131152000000000E+01
3760000000.000000      1.778717000000000E-01      7.251953000000000E+01      5.651245000000000E-01      6.958252000000000E+00
3780000000.000000      2.119980000000000E-01      8.752344000000000E+01      4.348602000000000E-01     -6.289795000000000E+00
3800000000.000000      2.826843000000000E-01      8.907030000000000E+01      2.816315000000000E-01     -1.343945000000000E+01
3820000000.000000      3.496399000000000E-01      8.262499000000000E+01      1.534195000000000E-01     -2.018738000000000E-01
3840000000.000000      4.007721000000000E-01      7.388672000000000E+01      1.434326000000000E-01      4.804296000000000E+01
3860000000.000000      4.354706000000000E-01      6.533203000000000E+01      2.461853000000000E-01      6.535937000000000E+01
3880000000.000000      4.613190000000000E-01      5.784180000000000E+01      3.764801000000000E-01      6.116405000000000E+01
3900000000.000000      4.894562000000000E-01      5.074804000000000E+01      4.779205000000000E-01      4.764453000000000E+01
3920000000.000000      5.201721000000000E-01      4.302539000000000E+01      5.081482000000000E-01      3.584961000000000E+01
3940000000.000000      5.477600000000000E-01      3.416992000000000E+01      5.388794000000000E-01      2.948730000000000E+01
3960000000.000000      5.595093000000000E-01      2.405566000000000E+01      5.961609000000000E-01      2.004785000000000E+01
3980000000.000000      5.543518000000000E-01      1.353516000000000E+01      5.969543000000000E-01      8.284668000000000E+00
4000000000.000000      5.273438000000000E-01      3.080200000000000E+00      5.797424000000000E-01      1.245544000000000E+00
4020000000.000000      4.846191000000000E-01     -6.823975000000000E+00      5.974426000000000E-01     -6.628906000000000E+00
4040000000.000000      4.245758000000000E-01     -1.572021000000000E+01      5.845337000000000E-01     -1.879004000000000E+01
4060000000.000000      3.488007000000000E-01     -2.183398000000000E+01      5.288391000000000E-01     -2.895605000000000E+01
4080000000.000000      2.747803000000000E-01     -2.158691000000000E+01      4.685211000000000E-01     -3.818945000000000E+01
4100000000.000000      2.282562000000000E-01     -1.107422000000000E+01      3.667908000000000E-01     -4.755078000000000E+01
4120000000.000000      2.425156000000000E-01      1.921204000000000E+00      2.491837000000000E-01     -4.404492000000000E+01
4140000000.000000      2.898407000000000E-01      5.160645000000000E+00      2.034454000000000E-01     -1.971777000000000E+01
4160000000.000000      3.337402000000000E-01      9.805298000000000E-01      2.639160000000000E-01     -4.257202000000000E-02
4180000000.000000      3.616333000000000E-01     -5.887451000000000E+00      3.578339000000000E-01      3.838257000000000E+00
4200000000.000000      3.712921000000000E-01     -1.366309000000000E+01      4.885406000000000E-01      1.402100000000000E+00
4220000000.000000      3.670654000000000E-01     -2.079102000000000E+01      6.421204000000000E-01     -1.115820000000000E+01
4240000000.000000      3.481750000000000E-01     -2.833398000000000E+01      7.225037000000000E-01     -2.786328000000000E+01
4260000000.000000      3.094330000000000E-01     -3.410937000000000E+01      7.445068000000000E-01     -4.191406000000000E+01
4280000000.000000      2.595367000000000E-01     -3.525976000000000E+01      7.521973000000000E-01     -5.574804000000000E+01
4300000000.000000      2.220917000000000E-01     -2.720410000000000E+01      7.146301000000000E-01     -7.081249000000000E+01
4320000000.000000      2.354431000000000E-01     -1.441553000000000E+01      6.321411000000000E-01     -8.510546000000000E+01
4340000000.000000      2.941742000000000E-01     -1.054150000000000E+01      5.149231000000000E-01     -9.795702000000000E+01
4360000000.000000      3.589478000000000E-01     -1.562012000000000E+01      3.804779000000000E-01     -1.068711000000000E+02
4380000000.000000      4.054108000000000E-01     -2.463086000000000E+01      2.491302000000000E-01     -1.080273000000000E+02
4400000000.000000      4.261932000000000E-01     -3.446875000000000E+01      1.535339000000000E-01     -8.481249000000000E+01
4420000000.000000      4.248810000000000E-01     -4.389062000000000E+01      1.884308000000000E-01     -4.539453000000000E+01
4440000000.000000      4.082336000000000E-01     -5.195703000000000E+01      3.113861000000000E-01     -3.612695000000000E+01
4460000000.000000      3.859711000000000E-01     -5.845703000000000E+01      4.534302000000000E-01     -4.328125000000000E+01
4480000000.000000      3.668823000000000E-01     -6.474218000000000E+01      5.621643000000000E-01     -5.538476000000000E+01
4500000000.000000      3.468475000000000E-01     -7.155078000000000E+01      6.430664000000000E-01     -6.701172000000000E+01
4520000000.000000      3.131561000000000E-01     -7.937109000000000E+01      7.163696000000000E-01     -7.981250000000000E+01
4540000000.000000      2.618561000000000E-01     -8.556250000000000E+01      7.423096000000000E-01     -9.454296000000000E+01
4560000000.000000      2.012558000000000E-01     -8.380859000000000E+01      7.297363000000000E-01     -1.076172000000000E+02
4580000000.000000      1.744003000000000E-01     -6.768749000000000E+01      6.916504000000000E-01     -1.215781000000000E+02
4600000000.000000      2.119598000000000E-01     -5.380077000000000E+01      6.058960000000000E-01     -1.346562000000000E+02
4620000000.000000      2.774200000000000E-01     -5.515038000000000E+01      4.988251000000000E-01     -1.450781000000000E+02
4640000000.000000      3.308411000000000E-01     -6.507813000000000E+01      3.783264000000000E-01     -1.535781000000000E+02
4660000000.000000      3.545227000000000E-01     -7.844531000000000E+01      2.458496000000000E-01     -1.517969000000000E+02
4680000000.000000      3.460846000000000E-01     -9.238281000000000E+01      1.792755000000000E-01     -1.232930000000000E+02
4700000000.000000      3.090057000000000E-01     -1.055664000000000E+02      2.486420000000000E-01     -9.647655000000000E+01
4720000000.000000      2.528992000000000E-01     -1.161992000000000E+02      3.678131000000000E-01     -9.539454000000000E+01
4740000000.000000      1.906052000000000E-01     -1.214063000000000E+02      4.751282000000000E-01     -1.017734000000000E+02
4760000000.000000      1.381836000000000E-01     -1.175586000000000E+02      5.789185000000000E-01     -1.105156000000000E+02
4780000000.000000      1.120567000000000E-01     -1.014492000000000E+02      6.676941000000000E-01     -1.228672000000000E+02
4800000000.000000      1.177635000000000E-01     -8.355078000000000E+01      7.174072000000000E-01     -1.358281000000000E+02
4820000000.000000      1.466599000000000E-01     -7.381249000000000E+01      7.362671000000000E-01     -1.490859000000000E+02
4840000000.000000      1.872635000000000E-01     -7.362499000000000E+01      7.183533000000000E-01     -1.618125000000000E+02
4860000000.000000      2.314682000000000E-01     -8.035547000000000E+01      6.845398000000000E-01     -1.743672000000000E+02
4880000000.000000      2.687073000000000E-01     -9.074999000000000E+01      6.171570000000000E-01      1.718281000000000E+02
4900000000.000000      2.937927000000000E-01     -1.042578000000000E+02      4.944611000000000E-01      1.598984000000000E+02
4920000000.000000      2.997589000000000E-01     -1.193320000000000E+02      3.650513000000000E-01      1.534609000000000E+02
4940000000.000000      2.850037000000000E-01     -1.352344000000000E+02      2.507629000000000E-01      1.559141000000000E+02
4960000000.000000      2.547302000000000E-01     -1.502969000000000E+02      1.773300000000000E-01      1.775391000000000E+02
4980000000.000000      2.123489000000000E-01     -1.643750000000000E+02      2.148819000000000E-01     -1.510234000000000E+02
5000000000.000000      1.682892000000000E-01     -1.761719000000000E+02      3.304138000000000E-01     -1.435859000000000E+02
5020000000.000000      1.305008000000000E-01      1.737500000000000E+02      4.615173000000000E-01     -1.496328000000000E+02
5040000000.000000      1.000175000000000E-01      1.637031000000000E+02      5.709229000000000E-01     -1.605078000000000E+02
5060000000.000000      7.164001000000000E-02      1.483594000000000E+02      6.513977000000000E-01     -1.719297000000000E+02
5080000000.000000      4.177284000000000E-02      1.225234000000000E+02      7.181396000000000E-01      1.758516000000000E+02
5100000000.000000      1.657867000000000E-02      4.028906000000000E+01      7.565918000000000E-01      1.621406000000000E+02
5120000000.000000      4.111099000000000E-02     -5.150781000000000E+01      7.538452000000000E-01      1.479609000000000E+02
5140000000.000000      7.253265000000000E-02     -8.787500000000000E+01      7.037354000000000E-01      1.342734000000000E+02
5160000000.000000      9.660721000000000E-02     -1.191133000000000E+02      6.293945000000000E-01      1.218750000000000E+02
5180000000.000000      1.096115000000000E-01     -1.496406000000000E+02      5.328064000000000E-01      1.107656000000000E+02
5200000000.000000      1.126060000000000E-01      1.776406000000000E+02      4.155273000000000E-01      1.009805000000000E+02
5220000000.000000      1.099358000000000E-01      1.418125000000000E+02      2.822113000000000E-01      9.832811000000000E+01
5240000000.000000      1.089287000000000E-01      1.056797000000000E+02      1.836624000000000E-01      1.156562000000000E+02
5260000000.000000      1.131668000000000E-01      7.225780000000000E+01      1.973953000000000E-01      1.496484000000000E+02
5280000000.000000      1.207390000000000E-01      4.577538000000000E+01      2.976837000000000E-01      1.606250000000000E+02
5300000000.000000      1.272583000000000E-01      2.516504000000000E+01      4.105835000000000E-01      1.580625000000000E+02
5320000000.000000      1.335602000000000E-01      8.610352000000000E+00      5.275879000000000E-01      1.505078000000000E+02
5340000000.000000      1.389465000000000E-01     -5.750000000000000E+00      6.404419000000000E-01      1.384453000000000E+02
5360000000.000000      1.431885000000000E-01     -2.130664000000000E+01      7.056274000000000E-01      1.239492000000000E+02
5380000000.000000      1.387100000000000E-01     -3.890234000000000E+01      7.170410000000000E-01      1.105703000000000E+02
5400000000.000000      1.197701000000000E-01     -5.716797000000000E+01      7.196655000000000E-01      9.894531000000000E+01
5420000000.000000      8.431625000000000E-02     -7.407031000000000E+01      7.046509000000000E-01      8.585155000000000E+01
5440000000.000000      2.960110000000000E-02     -7.807812000000000E+01      6.471558000000000E-01      7.149609000000000E+01
5460000000.000000      4.373360000000000E-02      3.871289000000000E+01      5.383606000000000E-01      5.833593000000000E+01
5480000000.000000      1.133499000000000E-01      3.082324000000000E+01      4.125214000000000E-01      4.931445000000000E+01
5500000000.000000      1.759109000000000E-01      1.561426000000000E+01      2.915497000000000E-01      4.738281000000000E+01
5520000000.000000      2.210617000000000E-01      5.424500000000000E-01      1.949234000000000E-01      5.927929000000000E+01
5540000000.000000      2.521667000000000E-01     -1.316162000000000E+01      1.814957000000000E-01      9.103516000000000E+01
5560000000.000000      2.705994000000000E-01     -2.507031000000000E+01      2.640533000000000E-01      1.088750000000000E+02
5580000000.000000      2.824402000000000E-01     -3.494141000000000E+01      3.853912000000000E-01      1.086289000000000E+02
5600000000.000000      2.936401000000000E-01     -4.388672000000000E+01      5.084534000000000E-01      9.960155000000000E+01
5620000000.000000      3.045502000000000E-01     -5.304101000000000E+01      5.974426000000000E-01      8.709375000000000E+01
5640000000.000000      3.076477000000000E-01     -6.275781000000000E+01      6.455688000000000E-01      7.518749000000000E+01
5660000000.000000      2.984314000000000E-01     -7.351171000000000E+01      6.844788000000000E-01      6.378906000000000E+01
5680000000.000000      2.687683000000000E-01     -8.386719000000000E+01      6.977234000000000E-01      5.114648000000000E+01
5700000000.000000      2.207565000000000E-01     -9.111719000000000E+01      6.843567000000000E-01      3.861914000000000E+01
5720000000.000000      1.697159000000000E-01     -8.977343000000000E+01      6.437073000000000E-01      2.597851000000000E+01
5740000000.000000      1.494217000000000E-01     -7.510156000000000E+01      5.640564000000000E-01      1.272217000000000E+01
5760000000.000000      1.789017000000000E-01     -6.354101000000000E+01      4.507904000000000E-01      1.303223000000000E+00
5780000000.000000      2.254257000000000E-01     -6.517187000000000E+01      3.160095000000000E-01     -3.942749000000000E+00
5800000000.000000      2.570953000000000E-01     -7.304688000000000E+01      2.078018000000000E-01      7.188965000000000E+00
5820000000.000000      2.662659000000000E-01     -8.255859000000000E+01      1.900864000000000E-01      3.774219000000000E+01
5840000000.000000      2.565002000000000E-01     -9.100389000000000E+01      2.722168000000000E-01      5.405078000000000E+01
5860000000.000000      2.388000000000000E-01     -9.652344000000000E+01      3.733826000000000E-01      5.400391000000000E+01
5880000000.000000      2.237091000000000E-01     -9.980469000000000E+01      4.794312000000000E-01      4.860352000000000E+01
5900000000.000000      2.165604000000000E-01     -1.023516000000000E+02      5.952148000000000E-01      3.832422000000000E+01
5920000000.000000      2.083282000000000E-01     -1.050352000000000E+02      6.719971000000000E-01      2.445117000000000E+01
5940000000.000000      1.944656000000000E-01     -1.070156000000000E+02      7.023315000000000E-01      1.140088000000000E+01
5960000000.000000      1.767120000000000E-01     -1.052461000000000E+02      7.148743000000000E-01     -1.501038000000000E+00
5980000000.000000      1.658554000000000E-01     -9.732031000000000E+01      6.911316000000000E-01     -1.561035000000000E+01
6000000000.000000      1.813431000000000E-01     -8.828905000000000E+01      6.283875000000000E-01     -2.889062000000000E+01
6020000000.000000      2.160645000000000E-01     -8.625000000000000E+01      5.298157000000000E-01     -4.173242000000000E+01
6040000000.000000      2.523651000000000E-01     -9.161718000000000E+01      3.985748000000000E-01     -4.992578000000000E+01
6060000000.000000      2.755585000000000E-01     -1.007461000000000E+02      2.850189000000000E-01     -4.959961000000000E+01
6080000000.000000      2.849884000000000E-01     -1.110742000000000E+02      2.051392000000000E-01     -3.568945000000000E+01
