! Network Analyzer HP8722D
! Hewlett-Packard
! Data name: Linha & Wilkinson+CNT
! Saver's name: Rodrigo Anjos
! Comments: Teste da utilização de aquisição
continua pelo VNA HP8722D
! Time and date: 29/9/2025 12:36
!              Frequency                     S11                                                   S21                                                   S12                                                   S22
# HZ  S  MA R 50
3000000000.000000      4.241486000000000E-01     -5.621679000000000E+01      2.073669000000000E-01     -1.314453000000000E+02
3020000000.000000      4.478302000000000E-01     -7.025391000000000E+01      3.497925000000000E-01     -1.347109000000000E+02
3040000000.000000      4.544525000000000E-01     -8.310547000000000E+01      4.669342000000000E-01     -1.448594000000000E+02
3060000000.000000      4.470978000000000E-01     -9.514452000000000E+01      5.715027000000000E-01     -1.549766000000000E+02
3080000000.000000      4.313049000000000E-01     -1.064180000000000E+02      6.729431000000000E-01     -1.680938000000000E+02
3100000000.000000      4.106750000000000E-01     -1.175000000000000E+02      7.246704000000000E-01      1.768203000000000E+02
3120000000.000000      3.830566000000000E-01     -1.293828000000000E+02      7.317200000000000E-01      1.635547000000000E+02
3140000000.000000      3.420715000000000E-01     -1.423750000000000E+02      7.226563000000000E-01      1.507344000000000E+02
3160000000.000000      2.824554000000000E-01     -1.561172000000000E+02      6.833801000000000E-01      1.370547000000000E+02
3180000000.000000      2.031479000000000E-01     -1.684922000000000E+02      6.139526000000000E-01      1.245586000000000E+02
3200000000.000000      1.149712000000000E-01     -1.688594000000000E+02      5.194092000000000E-01      1.118828000000000E+02
3220000000.000000      8.306503000000000E-02     -1.249141000000000E+02      3.863373000000000E-01      1.010352000000000E+02
3240000000.000000      1.536636000000000E-01     -1.054688000000000E+02      2.468338000000000E-01      9.974609000000000E+01
3260000000.000000      2.327805000000000E-01     -1.153555000000000E+02      1.470413000000000E-01      1.256562000000000E+02
3280000000.000000      2.906342000000000E-01     -1.308672000000000E+02      2.033310000000000E-01      1.654687000000000E+02
3300000000.000000      3.237762000000000E-01     -1.469922000000000E+02      3.301697000000000E-01      1.698203000000000E+02
3320000000.000000      3.354950000000000E-01     -1.626953000000000E+02      4.630280000000000E-01      1.627734000000000E+02
3340000000.000000      3.317413000000000E-01     -1.780859000000000E+02      5.742493000000000E-01      1.506875000000000E+02
3360000000.000000      3.196411000000000E-01      1.673984000000000E+02      6.471558000000000E-01      1.386172000000000E+02
3380000000.000000      3.027191000000000E-01      1.532187000000000E+02      7.109985000000000E-01      1.273125000000000E+02
3400000000.000000      2.792816000000000E-01      1.386016000000000E+02      7.575073000000000E-01      1.134258000000000E+02
3420000000.000000      2.428589000000000E-01      1.236094000000000E+02      7.482605000000000E-01      9.859764000000000E+01
3440000000.000000      1.893692000000000E-01      1.090625000000000E+02      7.073059000000000E-01      8.561718000000000E+01
3460000000.000000      1.188660000000000E-01      9.862499000000000E+01      6.477661000000000E-01      7.263281000000000E+01
3480000000.000000      4.755211000000000E-02      1.245547000000000E+02      5.503235000000000E-01      5.914063000000000E+01
3500000000.000000      9.468842000000000E-02     -1.732969000000000E+02      4.248657000000000E-01      4.779882000000000E+01
3520000000.000000      1.858826000000000E-01      1.798281000000000E+02      2.787628000000000E-01      4.063672000000000E+01
3540000000.000000      2.650146000000000E-01      1.635859000000000E+02      1.478424000000000E-01      5.859570000000000E+01
3560000000.000000      3.239136000000000E-01      1.466016000000000E+02      1.669617000000000E-01      1.080195000000000E+02
3580000000.000000      3.602295000000000E-01      1.304922000000000E+02      2.947083000000000E-01      1.176797000000000E+02
3600000000.000000      3.762512000000000E-01      1.157305000000000E+02      4.197540000000000E-01      1.108437000000000E+02
3620000000.000000      3.767090000000000E-01      1.029180000000000E+02      5.220642000000000E-01      1.013320000000000E+02
3640000000.000000      3.675232000000000E-01      9.169140000000000E+01      6.221313000000000E-01      9.009766000000000E+01
3660000000.000000      3.514099000000000E-01      8.148829000000000E+01      6.932068000000000E-01      7.610937000000000E+01
3680000000.000000      3.280640000000000E-01      7.214062000000000E+01      7.122803000000000E-01      6.276562000000000E+01
3700000000.000000      2.973175000000000E-01      6.383594000000000E+01      7.229614000000000E-01      5.107226000000000E+01
3720000000.000000      2.525787000000000E-01      5.765038000000000E+01      7.249146000000000E-01      3.680469000000000E+01
3740000000.000000      2.022552000000000E-01      5.848242000000000E+01      6.644897000000000E-01      2.169336000000000E+01
3760000000.000000      1.755295000000000E-01      7.265234000000000E+01      5.671997000000000E-01      7.197266000000000E+00
3780000000.000000      2.093506000000000E-01      8.773438000000000E+01      4.355774000000000E-01     -5.866699000000000E+00
3800000000.000000      2.803802000000000E-01      8.933594000000000E+01      2.827301000000000E-01     -1.333496000000000E+01
3820000000.000000      3.482361000000000E-01      8.282030000000000E+01      1.539612000000000E-01     -2.416992000000000E-01
3840000000.000000      3.989410000000000E-01      7.404687000000000E+01      1.432877000000000E-01      4.781054000000000E+01
3860000000.000000      4.335175000000000E-01      6.538280000000000E+01      2.463760000000000E-01      6.552734000000000E+01
3880000000.000000      4.586029000000000E-01      5.773242000000000E+01      3.764343000000000E-01      6.127148000000000E+01
3900000000.000000      4.878387000000000E-01      5.076562000000000E+01      4.779816000000000E-01      4.777539000000000E+01
3920000000.000000      5.192871000000000E-01      4.288867000000000E+01      5.103149000000000E-01      3.609961000000000E+01
3940000000.000000      5.452271000000000E-01      3.405273000000000E+01      5.401917000000000E-01      2.962695000000000E+01
3960000000.000000      5.590820000000000E-01      2.394141000000000E+01      5.963440000000000E-01      2.008984000000000E+01
3980000000.000000      5.522156000000000E-01      1.337402000000000E+01      5.976257000000000E-01      8.243652000000000E+00
4000000000.000000      5.267639000000000E-01      2.920898000000000E+00      5.810547000000000E-01      1.378784000000000E+00
4020000000.000000      4.838867000000000E-01     -7.122070000000000E+00      5.988464000000000E-01     -6.495850000000000E+00
4040000000.000000      4.242706000000000E-01     -1.599756000000000E+01      5.847473000000000E-01     -1.874902000000000E+01
4060000000.000000      3.493958000000000E-01     -2.218457000000000E+01      5.288696000000000E-01     -2.877344000000000E+01
4080000000.000000      2.742462000000000E-01     -2.226855000000000E+01      4.685364000000000E-01     -3.816797000000000E+01
4100000000.000000      2.280655000000000E-01     -1.185840000000000E+01      3.666840000000000E-01     -4.755468000000000E+01
4120000000.000000      2.411346000000000E-01      1.207092000000000E+00      2.498474000000000E-01     -4.401757000000000E+01
4140000000.000000      2.895355000000000E-01      4.708984000000000E+00      2.031097000000000E-01     -1.992969000000000E+01
4160000000.000000      3.336639000000000E-01      6.729126000000000E-01      2.636566000000000E-01     -7.553101000000000E-02
4180000000.000000      3.611755000000000E-01     -6.200439000000000E+00      3.576050000000000E-01      3.864380000000000E+00
4200000000.000000      3.712311000000000E-01     -1.403516000000000E+01      4.874420000000000E-01      1.380127000000000E+00
4220000000.000000      3.668976000000000E-01     -2.133594000000000E+01      6.412659000000000E-01     -1.081201000000000E+01
4240000000.000000      3.483582000000000E-01     -2.878027000000000E+01      7.222595000000000E-01     -2.776855000000000E+01
4260000000.000000      3.097382000000000E-01     -3.455078000000000E+01      7.430115000000000E-01     -4.169531000000000E+01
4280000000.000000      2.599792000000000E-01     -3.590429000000000E+01      7.510681000000000E-01     -5.554492000000000E+01
4300000000.000000      2.229614000000000E-01     -2.776464000000000E+01      7.142334000000000E-01     -7.062109000000000E+01
4320000000.000000      2.357407000000000E-01     -1.508984000000000E+01      6.328125000000000E-01     -8.499218000000000E+01
4340000000.000000      2.944489000000000E-01     -1.093555000000000E+01      5.173340000000000E-01     -9.788280000000000E+01
4360000000.000000      3.592377000000000E-01     -1.589355000000000E+01      3.813782000000000E-01     -1.066211000000000E+02
4380000000.000000      4.050598000000000E-01     -2.482910000000000E+01      2.499695000000000E-01     -1.079844000000000E+02
4400000000.000000      4.266663000000000E-01     -3.476953000000000E+01      1.536789000000000E-01     -8.501953000000000E+01
4420000000.000000      4.253693000000000E-01     -4.417578000000000E+01      1.875076000000000E-01     -4.541601000000000E+01
4440000000.000000      4.100800000000000E-01     -5.225390000000000E+01      3.098907000000000E-01     -3.600781000000000E+01
4460000000.000000      3.893585000000000E-01     -5.887890000000000E+01      4.523010000000000E-01     -4.327344000000000E+01
4480000000.000000      3.684998000000000E-01     -6.503124000000000E+01      5.608826000000000E-01     -5.521484000000000E+01
4500000000.000000      3.482361000000000E-01     -7.164453000000000E+01      6.418762000000000E-01     -6.662109000000000E+01
4520000000.000000      3.149109000000000E-01     -7.927734000000000E+01      7.168579000000000E-01     -7.959374000000000E+01
4540000000.000000      2.637939000000000E-01     -8.535936000000000E+01      7.434082000000000E-01     -9.423437000000000E+01
4560000000.000000      2.040405000000000E-01     -8.356640000000000E+01      7.290649000000000E-01     -1.075273000000000E+02
4580000000.000000      1.770325000000000E-01     -6.803124000000000E+01      6.907959000000000E-01     -1.213320000000000E+02
4600000000.000000      2.143707000000000E-01     -5.426171000000000E+01      6.056213000000000E-01     -1.344453000000000E+02
4620000000.000000      2.790070000000000E-01     -5.559179000000000E+01      4.991455000000000E-01     -1.450625000000000E+02
4640000000.000000      3.330383000000000E-01     -6.534765000000000E+01      3.806458000000000E-01     -1.532500000000000E+02
4660000000.000000      3.572235000000000E-01     -7.844140000000000E+01      2.468796000000000E-01     -1.516562000000000E+02
4680000000.000000      3.494263000000000E-01     -9.223047000000000E+01      1.791229000000000E-01     -1.234101000000000E+02
4700000000.000000      3.119812000000000E-01     -1.052656000000000E+02      2.481232000000000E-01     -9.654686000000000E+01
4720000000.000000      2.553101000000000E-01     -1.158555000000000E+02      3.672943000000000E-01     -9.519140000000000E+01
4740000000.000000      1.931534000000000E-01     -1.209805000000000E+02      4.736176000000000E-01     -1.015898000000000E+02
4760000000.000000      1.412888000000000E-01     -1.169961000000000E+02      5.804443000000000E-01     -1.103867000000000E+02
4780000000.000000      1.152191000000000E-01     -1.012578000000000E+02      6.666260000000000E-01     -1.227461000000000E+02
4800000000.000000      1.216850000000000E-01     -8.389843000000000E+01      7.160950000000000E-01     -1.355000000000000E+02
4820000000.000000      1.509094000000000E-01     -7.452734000000000E+01      7.354431000000000E-01     -1.487969000000000E+02
4840000000.000000      1.910019000000000E-01     -7.414844000000000E+01      7.187500000000000E-01     -1.615625000000000E+02
4860000000.000000      2.342987000000000E-01     -8.041796000000000E+01      6.837158000000000E-01     -1.739609000000000E+02
4880000000.000000      2.714081000000000E-01     -9.084764000000000E+01      6.171875000000000E-01      1.722109000000000E+02
4900000000.000000      2.962799000000000E-01     -1.041289000000000E+02      4.964905000000000E-01      1.599688000000000E+02
4920000000.000000      3.020477000000000E-01     -1.190351000000000E+02      3.653412000000000E-01      1.538047000000000E+02
4940000000.000000      2.875671000000000E-01     -1.346719000000000E+02      2.519379000000000E-01      1.560000000000000E+02
4960000000.000000      2.566071000000000E-01     -1.495391000000000E+02      1.776428000000000E-01      1.774375000000000E+02
4980000000.000000      2.136307000000000E-01     -1.634844000000000E+02      2.145538000000000E-01     -1.511719000000000E+02
5000000000.000000      1.685181000000000E-01     -1.748672000000000E+02      3.301849000000000E-01     -1.434219000000000E+02
5020000000.000000      1.305847000000000E-01      1.754141000000000E+02      4.611664000000000E-01     -1.494062000000000E+02
5040000000.000000      1.000862000000000E-01      1.659219000000000E+02      5.689392000000000E-01     -1.602109000000000E+02
5060000000.000000      7.135773000000000E-02      1.516562000000000E+02      6.509094000000000E-01     -1.716250000000000E+02
5080000000.000000      4.001427000000000E-02      1.266719000000000E+02      7.180786000000000E-01      1.760703000000000E+02
5100000000.000000      1.399279000000000E-02      3.871679000000000E+01      7.578125000000000E-01      1.623672000000000E+02
5120000000.000000      4.151535000000000E-02     -5.401562000000000E+01      7.546997000000000E-01      1.482812000000000E+02
5140000000.000000      7.337952000000000E-02     -8.829296000000000E+01      7.033997000000000E-01      1.344922000000000E+02
5160000000.000000      9.760666000000000E-02     -1.182734000000000E+02      6.287842000000000E-01      1.220859000000000E+02
5180000000.000000      1.105461000000000E-01     -1.484531000000000E+02      5.345764000000000E-01      1.110859000000000E+02
5200000000.000000      1.123581000000000E-01      1.791797000000000E+02      4.163971000000000E-01      1.012344000000000E+02
5220000000.000000      1.082916000000000E-01      1.432109000000000E+02      2.840271000000000E-01      9.859764000000000E+01
5240000000.000000      1.068001000000000E-01      1.065195000000000E+02      1.845016000000000E-01      1.154609000000000E+02
5260000000.000000      1.109848000000000E-01      7.234375000000000E+01      1.966934000000000E-01      1.495312000000000E+02
5280000000.000000      1.183128000000000E-01      4.548828000000000E+01      2.972412000000000E-01      1.606719000000000E+02
5300000000.000000      1.254120000000000E-01      2.445215000000000E+01      4.102325000000000E-01      1.582031000000000E+02
5320000000.000000      1.320190000000000E-01      8.122559000000000E+00      5.274048000000000E-01      1.506641000000000E+02
5340000000.000000      1.381989000000000E-01     -6.192383000000000E+00      6.383667000000000E-01      1.386406000000000E+02
5360000000.000000      1.434174000000000E-01     -2.175586000000000E+01      7.054443000000000E-01      1.240430000000000E+02
5380000000.000000      1.396103000000000E-01     -3.913086000000000E+01      7.161560000000000E-01      1.109023000000000E+02
5400000000.000000      1.212883000000000E-01     -5.701172000000000E+01      7.185059000000000E-01      9.916796000000000E+01
5420000000.000000      8.655548000000000E-02     -7.362109000000000E+01      7.048035000000000E-01      8.616405000000000E+01
5440000000.000000      3.300095000000000E-02     -7.854687000000000E+01      6.492615000000000E-01      7.183594000000000E+01
5460000000.000000      4.174995000000000E-02      3.616796000000000E+01      5.390930000000000E-01      5.875781000000000E+01
5480000000.000000      1.111145000000000E-01      3.019433000000000E+01      4.141693000000000E-01      4.943945000000000E+01
5500000000.000000      1.737671000000000E-01      1.519922000000000E+01      2.928772000000000E-01      4.754687000000000E+01
5520000000.000000      2.198181000000000E-01     -8.239746000000000E-03      1.954193000000000E-01      5.920898000000000E+01
5540000000.000000      2.518768000000000E-01     -1.356543000000000E+01      1.812134000000000E-01      9.092968000000000E+01
5560000000.000000      2.710876000000000E-01     -2.537207000000000E+01      2.626343000000000E-01      1.089336000000000E+02
5580000000.000000      2.835846000000000E-01     -3.522461000000000E+01      3.845367000000000E-01      1.087656000000000E+02
5600000000.000000      2.950592000000000E-01     -4.399804000000000E+01      5.065308000000000E-01      9.974609000000000E+01
5620000000.000000      3.053741000000000E-01     -5.309570000000000E+01      5.966492000000000E-01      8.721483000000000E+01
5640000000.000000      3.097076000000000E-01     -6.276953000000000E+01      6.481323000000000E-01      7.526562000000000E+01
5660000000.000000      3.006897000000000E-01     -7.341015000000000E+01      6.838989000000000E-01      6.404297000000000E+01
5680000000.000000      2.720795000000000E-01     -8.378515000000000E+01      6.974792000000000E-01      5.129883000000000E+01
5700000000.000000      2.254868000000000E-01     -9.109375000000000E+01      6.831970000000000E-01      3.916601000000000E+01
5720000000.000000      1.745682000000000E-01     -8.994921000000000E+01      6.437988000000000E-01      2.637402000000000E+01
5740000000.000000      1.527405000000000E-01     -7.611328000000000E+01      5.659485000000000E-01      1.312695000000000E+01
5760000000.000000      1.803665000000000E-01     -6.427734000000000E+01      4.508820000000000E-01      1.428223000000000E+00
5780000000.000000      2.267456000000000E-01     -6.554688000000000E+01      3.165588000000000E-01     -3.710693000000000E+00
5800000000.000000      2.586975000000000E-01     -7.323047000000000E+01      2.082443000000000E-01      7.201416000000000E+00
5820000000.000000      2.683563000000000E-01     -8.258984000000000E+01      1.891785000000000E-01      3.772070000000000E+01
5840000000.000000      2.598724000000000E-01     -9.095312000000000E+01      2.705688000000000E-01      5.408398000000000E+01
5860000000.000000      2.421494000000000E-01     -9.652344000000000E+01      3.713226000000000E-01      5.419140000000000E+01
5880000000.000000      2.281265000000000E-01     -9.978516000000000E+01      4.772339000000000E-01      4.909180000000000E+01
5900000000.000000      2.203751000000000E-01     -1.021211000000000E+02      5.931396000000000E-01      3.872656000000000E+01
5920000000.000000      2.127838000000000E-01     -1.048789000000000E+02      6.720581000000000E-01      2.480664000000000E+01
5940000000.000000      1.983414000000000E-01     -1.070078000000000E+02      7.008057000000000E-01      1.159424000000000E+01
5960000000.000000      1.803894000000000E-01     -1.053945000000000E+02      7.136841000000000E-01     -9.997559000000000E-01
5980000000.000000      1.683426000000000E-01     -9.780468000000000E+01      6.921997000000000E-01     -1.503076000000000E+01
6000000000.000000      1.834030000000000E-01     -8.851563000000000E+01      6.286011000000000E-01     -2.867773000000000E+01
6020000000.000000      2.177658000000000E-01     -8.667187000000000E+01      5.299377000000000E-01     -4.124023000000000E+01
6040000000.000000      2.537079000000000E-01     -9.175781000000000E+01      3.989563000000000E-01     -4.953125000000000E+01
6060000000.000000      2.779846000000000E-01     -1.006836000000000E+02      2.854614000000000E-01     -4.941601000000000E+01
6080000000.000000      2.884369000000000E-01     -1.106992000000000E+02      2.061615000000000E-01     -3.565625000000000E+01
