! Network Analyzer HP8722D
! Hewlett-Packard
! Data name: Linha & Wilkinson+CNT
! Saver's name: Rodrigo Anjos
! Comments: Teste da utilização de aquisição
continua pelo VNA HP8722D
! Time and date: 29/9/2025 12:11
!              Frequency                     S11                                                   S21                                                   S12                                                   S22
# HZ  S  MA R 50
3000000000.000000      4.228058000000000E-01     -5.612499000000000E+01      2.082825000000000E-01     -1.313828000000000E+02
3020000000.000000      4.487000000000000E-01     -7.037499000000000E+01      3.506775000000000E-01     -1.349609000000000E+02
3040000000.000000      4.550018000000000E-01     -8.325390000000000E+01      4.679108000000000E-01     -1.450312000000000E+02
3060000000.000000      4.465485000000000E-01     -9.528515000000000E+01      5.718079000000000E-01     -1.551172000000000E+02
3080000000.000000      4.311371000000000E-01     -1.064883000000000E+02      6.736145000000000E-01     -1.682891000000000E+02
3100000000.000000      4.107056000000000E-01     -1.176523000000000E+02      7.237549000000000E-01      1.768984000000000E+02
3120000000.000000      3.824768000000000E-01     -1.295312000000000E+02      7.316589000000000E-01      1.636094000000000E+02
3140000000.000000      3.413696000000000E-01     -1.424062000000000E+02      7.230530000000000E-01      1.505703000000000E+02
3160000000.000000      2.816925000000000E-01     -1.562187000000000E+02      6.827087000000000E-01      1.371094000000000E+02
3180000000.000000      2.020111000000000E-01     -1.685703000000000E+02      6.125488000000000E-01      1.245273000000000E+02
3200000000.000000      1.144753000000000E-01     -1.687656000000000E+02      5.184631000000000E-01      1.117500000000000E+02
3220000000.000000      8.330154000000000E-02     -1.247187000000000E+02      3.856201000000000E-01      1.009648000000000E+02
3240000000.000000      1.537857000000000E-01     -1.057031000000000E+02      2.466049000000000E-01      9.978516000000000E+01
3260000000.000000      2.331924000000000E-01     -1.156523000000000E+02      1.475525000000000E-01      1.258437000000000E+02
3280000000.000000      2.909698000000000E-01     -1.310313000000000E+02      2.041779000000000E-01      1.654219000000000E+02
3300000000.000000      3.238068000000000E-01     -1.472031000000000E+02      3.311615000000000E-01      1.697656000000000E+02
3320000000.000000      3.352203000000000E-01     -1.629219000000000E+02      4.638672000000000E-01      1.627109000000000E+02
3340000000.000000      3.312988000000000E-01     -1.782344000000000E+02      5.750122000000000E-01      1.505156000000000E+02
3360000000.000000      3.194580000000000E-01      1.672109000000000E+02      6.478577000000000E-01      1.384140000000000E+02
3380000000.000000      3.018494000000000E-01      1.531172000000000E+02      7.102356000000000E-01      1.271719000000000E+02
3400000000.000000      2.786255000000000E-01      1.384297000000000E+02      7.572327000000000E-01      1.133359000000000E+02
3420000000.000000      2.429428000000000E-01      1.235430000000000E+02      7.486877000000000E-01      9.845312000000000E+01
3440000000.000000      1.889038000000000E-01      1.087891000000000E+02      7.049255000000000E-01      8.561718000000000E+01
3460000000.000000      1.180992000000000E-01      9.849998000000000E+01      6.456909000000000E-01      7.252343000000000E+01
3480000000.000000      4.759026000000000E-02      1.253477000000000E+02      5.498352000000000E-01      5.905273000000000E+01
3500000000.000000      9.508514000000000E-02     -1.734297000000000E+02      4.244232000000000E-01      4.755468000000000E+01
3520000000.000000      1.868134000000000E-01      1.795859000000000E+02      2.780609000000000E-01      4.065039000000000E+01
3540000000.000000      2.653198000000000E-01      1.633672000000000E+02      1.472321000000000E-01      5.877930000000000E+01
3560000000.000000      3.239899000000000E-01      1.463906000000000E+02      1.680832000000000E-01      1.079180000000000E+02
3580000000.000000      3.599396000000000E-01      1.302422000000000E+02      2.957458000000000E-01      1.175586000000000E+02
3600000000.000000      3.763275000000000E-01      1.156406000000000E+02      4.207153000000000E-01      1.106875000000000E+02
3620000000.000000      3.774261000000000E-01      1.028906000000000E+02      5.221558000000000E-01      1.009766000000000E+02
3640000000.000000      3.673096000000000E-01      9.153515000000000E+01      6.225281000000000E-01      8.996874000000000E+01
3660000000.000000      3.506775000000000E-01      8.121874000000000E+01      6.939392000000000E-01      7.564453000000000E+01
3680000000.000000      3.274078000000000E-01      7.207031000000000E+01      7.122192000000000E-01      6.262304000000000E+01
3700000000.000000      2.960205000000000E-01      6.375000000000000E+01      7.222290000000000E-01      5.105078000000000E+01
3720000000.000000      2.520599000000000E-01      5.767383000000000E+01      7.239990000000000E-01      3.689062000000000E+01
3740000000.000000      2.016449000000000E-01      5.851953000000000E+01      6.632996000000000E-01      2.150097000000000E+01
3760000000.000000      1.756516000000000E-01      7.278125000000000E+01      5.654907000000000E-01      6.985840000000000E+00
3780000000.000000      2.102966000000000E-01      8.792187000000000E+01      4.343719000000000E-01     -6.118164000000000E+00
3800000000.000000      2.811127000000000E-01      8.918360000000000E+01      2.812042000000000E-01     -1.331445000000000E+01
3820000000.000000      3.488159000000000E-01      8.271093000000000E+01      1.536713000000000E-01      1.016235000000000E-01
3840000000.000000      3.990021000000000E-01      7.387890000000000E+01      1.438599000000000E-01      4.823437000000000E+01
3860000000.000000      4.338989000000000E-01      6.534374000000000E+01      2.467346000000000E-01      6.538671000000000E+01
3880000000.000000      4.585724000000000E-01      5.771484000000000E+01      3.768158000000000E-01      6.114452000000000E+01
3900000000.000000      4.877319000000000E-01      5.056445000000000E+01      4.773254000000000E-01      4.774219000000000E+01
3920000000.000000      5.191650000000000E-01      4.308789000000000E+01      5.097351000000000E-01      3.600195000000000E+01
3940000000.000000      5.470886000000000E-01      3.385156000000000E+01      5.394287000000000E-01      2.950098000000000E+01
3960000000.000000      5.589600000000000E-01      2.381054000000000E+01      5.959778000000000E-01      2.000000000000000E+01
3980000000.000000      5.517883000000000E-01      1.317627000000000E+01      5.966797000000000E-01      8.198242000000000E+00
4000000000.000000      5.260315000000000E-01      2.859131000000000E+00      5.791321000000000E-01      1.198853000000000E+00
4020000000.000000      4.828186000000000E-01     -7.222168000000000E+00      5.969238000000000E-01     -6.531494000000000E+00
4040000000.000000      4.234619000000000E-01     -1.616992000000000E+01      5.843506000000000E-01     -1.885742000000000E+01
4060000000.000000      3.481140000000000E-01     -2.225976000000000E+01      5.267334000000000E-01     -2.899219000000000E+01
4080000000.000000      2.736359000000000E-01     -2.224219000000000E+01      4.679718000000000E-01     -3.825586000000000E+01
4100000000.000000      2.283554000000000E-01     -1.185303000000000E+01      3.656616000000000E-01     -4.748047000000000E+01
4120000000.000000      2.414932000000000E-01      1.277161000000000E+00      2.491074000000000E-01     -4.390234000000000E+01
4140000000.000000      2.894440000000000E-01      4.659424000000000E+00      2.033005000000000E-01     -1.965527000000000E+01
4160000000.000000      3.337402000000000E-01      5.053711000000000E-01      2.645874000000000E-01     -5.218506000000000E-02
4180000000.000000      3.614349000000000E-01     -6.379150000000000E+00      3.582611000000000E-01      3.760010000000000E+00
4200000000.000000      3.709717000000000E-01     -1.411230000000000E+01      4.884644000000000E-01      1.343079000000000E+00
4220000000.000000      3.665924000000000E-01     -2.130566000000000E+01      6.421509000000000E-01     -1.110742000000000E+01
4240000000.000000      3.475189000000000E-01     -2.884668000000000E+01      7.221069000000000E-01     -2.770410000000000E+01
4260000000.000000      3.093262000000000E-01     -3.460938000000000E+01      7.436218000000000E-01     -4.194531000000000E+01
4280000000.000000      2.599335000000000E-01     -3.581055000000000E+01      7.507324000000000E-01     -5.564062000000000E+01
4300000000.000000      2.233734000000000E-01     -2.766406000000000E+01      7.126160000000000E-01     -7.070703000000000E+01
4320000000.000000      2.362747000000000E-01     -1.497607000000000E+01      6.305542000000000E-01     -8.528515000000000E+01
4340000000.000000      2.944946000000000E-01     -1.098535000000000E+01      5.144348000000000E-01     -9.788280000000000E+01
4360000000.000000      3.596191000000000E-01     -1.604199000000000E+01      3.804626000000000E-01     -1.067031000000000E+02
4380000000.000000      4.053650000000000E-01     -2.498632000000000E+01      2.488708000000000E-01     -1.078477000000000E+02
4400000000.000000      4.266815000000000E-01     -3.489258000000000E+01      1.536636000000000E-01     -8.463671000000000E+01
4420000000.000000      4.253998000000000E-01     -4.429296000000000E+01      1.883087000000000E-01     -4.545703000000000E+01
4440000000.000000      4.090576000000000E-01     -5.241405000000000E+01      3.108978000000000E-01     -3.605469000000000E+01
4460000000.000000      3.878021000000000E-01     -5.884570000000000E+01      4.532471000000000E-01     -4.307617000000000E+01
4480000000.000000      3.693695000000000E-01     -6.507421000000000E+01      5.617371000000000E-01     -5.552539000000000E+01
4500000000.000000      3.481445000000000E-01     -7.183594000000000E+01      6.417542000000000E-01     -6.691796000000000E+01
4520000000.000000      3.143768000000000E-01     -7.924218000000000E+01      7.156067000000000E-01     -7.977344000000000E+01
4540000000.000000      2.635651000000000E-01     -8.533983000000000E+01      7.416687000000000E-01     -9.446484000000000E+01
4560000000.000000      2.035294000000000E-01     -8.349218000000000E+01      7.283936000000000E-01     -1.076797000000000E+02
4580000000.000000      1.773682000000000E-01     -6.788671000000000E+01      6.916504000000000E-01     -1.214844000000000E+02
4600000000.000000      2.151031000000000E-01     -5.429688000000000E+01      6.038513000000000E-01     -1.346484000000000E+02
4620000000.000000      2.796478000000000E-01     -5.566796000000000E+01      4.965057000000000E-01     -1.450234000000000E+02
4640000000.000000      3.336182000000000E-01     -6.551952000000000E+01      3.778534000000000E-01     -1.532422000000000E+02
4660000000.000000      3.575439000000000E-01     -7.861718000000000E+01      2.456360000000000E-01     -1.513984000000000E+02
4680000000.000000      3.481903000000000E-01     -9.243359000000000E+01      1.794739000000000E-01     -1.230859000000000E+02
4700000000.000000      3.111725000000000E-01     -1.053828000000000E+02      2.491150000000000E-01     -9.638281000000000E+01
4720000000.000000      2.547302000000000E-01     -1.157656000000000E+02      3.682251000000000E-01     -9.530468000000000E+01
4740000000.000000      1.922684000000000E-01     -1.208945000000000E+02      4.739990000000000E-01     -1.017188000000000E+02
4760000000.000000      1.406708000000000E-01     -1.166211000000000E+02      5.801086000000000E-01     -1.105859000000000E+02
4780000000.000000      1.149902000000000E-01     -1.009336000000000E+02      6.672974000000000E-01     -1.229140000000000E+02
4800000000.000000      1.217346000000000E-01     -8.391016000000000E+01      7.156982000000000E-01     -1.357422000000000E+02
4820000000.000000      1.512070000000000E-01     -7.464453000000000E+01      7.344055000000000E-01     -1.489297000000000E+02
4840000000.000000      1.918182000000000E-01     -7.434765000000000E+01      7.169189000000000E-01     -1.616719000000000E+02
4860000000.000000      2.352524000000000E-01     -8.075781000000000E+01      6.836548000000000E-01     -1.740937000000000E+02
4880000000.000000      2.717438000000000E-01     -9.094921000000000E+01      6.159058000000000E-01      1.721250000000000E+02
4900000000.000000      2.959595000000000E-01     -1.042578000000000E+02      4.934387000000000E-01      1.598516000000000E+02
4920000000.000000      3.022156000000000E-01     -1.191523000000000E+02      3.655090000000000E-01      1.538359000000000E+02
4940000000.000000      2.862854000000000E-01     -1.346719000000000E+02      2.510986000000000E-01      1.562891000000000E+02
4960000000.000000      2.557220000000000E-01     -1.497266000000000E+02      1.774521000000000E-01      1.778125000000000E+02
4980000000.000000      2.125854000000000E-01     -1.636094000000000E+02      2.153931000000000E-01     -1.508594000000000E+02
5000000000.000000      1.679993000000000E-01     -1.749922000000000E+02      3.316040000000000E-01     -1.433984000000000E+02
5020000000.000000      1.297684000000000E-01      1.755234000000000E+02      4.614410000000000E-01     -1.496641000000000E+02
5040000000.000000      9.940338000000000E-02      1.658906000000000E+02      5.724487000000000E-01     -1.604766000000000E+02
5060000000.000000      7.003403000000000E-02      1.513515000000000E+02      6.511536000000000E-01     -1.719609000000000E+02
5080000000.000000      3.963470000000000E-02      1.266484000000000E+02      7.187500000000000E-01      1.759531000000000E+02
5100000000.000000      1.379490000000000E-02      3.812109000000000E+01      7.567444000000000E-01      1.621484000000000E+02
5120000000.000000      4.180908000000000E-02     -5.475586000000000E+01      7.513123000000000E-01      1.478359000000000E+02
5140000000.000000      7.400894000000000E-02     -8.837109000000000E+01      7.028198000000000E-01      1.344375000000000E+02
5160000000.000000      9.738922000000000E-02     -1.187578000000000E+02      6.278687000000000E-01      1.219765000000000E+02
5180000000.000000      1.099548000000000E-01     -1.486094000000000E+02      5.318298000000000E-01      1.109570000000000E+02
5200000000.000000      1.118011000000000E-01      1.787578000000000E+02      4.141998000000000E-01      1.012226000000000E+02
5220000000.000000      1.080017000000000E-01      1.426328000000000E+02      2.825317000000000E-01      9.854687000000000E+01
5240000000.000000      1.068192000000000E-01      1.059531000000000E+02      1.839905000000000E-01      1.158594000000000E+02
5260000000.000000      1.108398000000000E-01      7.208593000000000E+01      1.976471000000000E-01      1.496641000000000E+02
5280000000.000000      1.184845000000000E-01      4.514844000000000E+01      2.974243000000000E-01      1.607265000000000E+02
5300000000.000000      1.254120000000000E-01      2.420410000000000E+01      4.115753000000000E-01      1.580625000000000E+02
5320000000.000000      1.317825000000000E-01      7.794678000000000E+00      5.286255000000000E-01      1.504297000000000E+02
5340000000.000000      1.380310000000000E-01     -6.648193000000000E+00      6.384888000000000E-01      1.385625000000000E+02
5360000000.000000      1.427155000000000E-01     -2.200195000000000E+01      7.059937000000000E-01      1.240547000000000E+02
5380000000.000000      1.390533000000000E-01     -3.910351000000000E+01      7.170105000000000E-01      1.106836000000000E+02
5400000000.000000      1.211510000000000E-01     -5.719921000000000E+01      7.167664000000000E-01      9.907812000000000E+01
5420000000.000000      8.579636000000000E-02     -7.336328000000000E+01      7.036133000000000E-01      8.585938000000000E+01
5440000000.000000      3.245926000000000E-02     -7.700390000000000E+01      6.462708000000000E-01      7.176562000000000E+01
5460000000.000000      4.228210000000000E-02      3.610352000000000E+01      5.382080000000000E-01      5.851757000000000E+01
5480000000.000000      1.116867000000000E-01      2.977930000000000E+01      4.119568000000000E-01      4.957812000000000E+01
5500000000.000000      1.746292000000000E-01      1.468311000000000E+01      2.915344000000000E-01      4.747851000000000E+01
5520000000.000000      2.198944000000000E-01     -2.705383000000000E-01      1.949921000000000E-01      5.945703000000000E+01
5540000000.000000      2.516327000000000E-01     -1.387598000000000E+01      1.817780000000000E-01      9.121094000000000E+01
5560000000.000000      2.710724000000000E-01     -2.552734000000000E+01      2.638245000000000E-01      1.087930000000000E+02
5580000000.000000      2.836456000000000E-01     -3.540039000000000E+01      3.851471000000000E-01      1.085781000000000E+02
5600000000.000000      2.951965000000000E-01     -4.415625000000000E+01      5.072937000000000E-01      9.955467000000000E+01
5620000000.000000      3.058167000000000E-01     -5.311523000000000E+01      5.963745000000000E-01      8.717577000000000E+01
5640000000.000000      3.099518000000000E-01     -6.290820000000000E+01      6.451111000000000E-01      7.517578000000000E+01
5660000000.000000      3.003540000000000E-01     -7.353906000000000E+01      6.826477000000000E-01      6.382226000000000E+01
5680000000.000000      2.720490000000000E-01     -8.385546000000000E+01      6.976013000000000E-01      5.117773000000000E+01
5700000000.000000      2.245636000000000E-01     -9.112499000000000E+01      6.816101000000000E-01      3.895312000000000E+01
5720000000.000000      1.747894000000000E-01     -8.990234000000000E+01      6.413574000000000E-01      2.611133000000000E+01
5740000000.000000      1.533966000000000E-01     -7.569140000000000E+01      5.645752000000000E-01      1.279346000000000E+01
5760000000.000000      1.815948000000000E-01     -6.430078000000000E+01      4.499054000000000E-01      1.400757000000000E+00
5780000000.000000      2.272949000000000E-01     -6.558984000000000E+01      3.150177000000000E-01     -3.687378000000000E+00
5800000000.000000      2.594452000000000E-01     -7.332031000000000E+01      2.071838000000000E-01      7.397705000000000E+00
5820000000.000000      2.688904000000000E-01     -8.275391000000000E+01      1.899490000000000E-01      3.807812000000000E+01
5840000000.000000      2.586517000000000E-01     -9.099609000000000E+01      2.719879000000000E-01      5.415234000000000E+01
5860000000.000000      2.414780000000000E-01     -9.651171000000000E+01      3.719940000000000E-01      5.401757000000000E+01
5880000000.000000      2.277145000000000E-01     -9.978125000000000E+01      4.782104000000000E-01      4.879296000000000E+01
5900000000.000000      2.203293000000000E-01     -1.018125000000000E+02      5.948181000000000E-01      3.859375000000000E+01
5920000000.000000      2.129517000000000E-01     -1.049023000000000E+02      6.702881000000000E-01      2.462500000000000E+01
5940000000.000000      1.984711000000000E-01     -1.068398000000000E+02      7.013550000000000E-01      1.135254000000000E+01
5960000000.000000      1.803665000000000E-01     -1.052851000000000E+02      7.126465000000000E-01     -1.246948000000000E+00
5980000000.000000      1.682434000000000E-01     -9.765234000000000E+01      6.901855000000000E-01     -1.538086000000000E+01
6000000000.000000      1.833115000000000E-01     -8.858202000000000E+01      6.268311000000000E-01     -2.889746000000000E+01
6020000000.000000      2.175980000000000E-01     -8.680079000000000E+01      5.281372000000000E-01     -4.144921000000000E+01
6040000000.000000      2.542114000000000E-01     -9.195313000000000E+01      3.988953000000000E-01     -4.945507000000000E+01
6060000000.000000      2.784271000000000E-01     -1.008633000000000E+02      2.849579000000000E-01     -4.930664000000000E+01
6080000000.000000      2.882233000000000E-01     -1.109414000000000E+02      2.050323000000000E-01     -3.527344000000000E+01
