! Network Analyzer HP8722D
! Hewlett-Packard
! Data name: Linha & Wilkinson+CNT
! Saver's name: Rodrigo Anjos
! Comments: Teste da utilização de aquisição
continua pelo VNA HP8722D
! Time and date: 29/9/2025 12:16
!              Frequency                     S11                                                   S21                                                   S12                                                   S22
# HZ  S  MA R 50
3000000000.000000      4.240723000000000E-01     -5.616601000000000E+01      2.080307000000000E-01     -1.313594000000000E+02
3020000000.000000      4.474335000000000E-01     -7.041016000000000E+01      3.502808000000000E-01     -1.348984000000000E+02
3040000000.000000      4.534149000000000E-01     -8.324219000000000E+01      4.682465000000000E-01     -1.447500000000000E+02
3060000000.000000      4.466858000000000E-01     -9.530468000000000E+01      5.734253000000000E-01     -1.552031000000000E+02
3080000000.000000      4.312897000000000E-01     -1.064531000000000E+02      6.722717000000000E-01     -1.682344000000000E+02
3100000000.000000      4.114838000000000E-01     -1.175859000000000E+02      7.231140000000000E-01      1.769453000000000E+02
3120000000.000000      3.820953000000000E-01     -1.294766000000000E+02      7.305908000000000E-01      1.635000000000000E+02
3140000000.000000      3.414612000000000E-01     -1.423516000000000E+02      7.232056000000000E-01      1.506094000000000E+02
3160000000.000000      2.821655000000000E-01     -1.562187000000000E+02      6.828308000000000E-01      1.371406000000000E+02
3180000000.000000      2.027206000000000E-01     -1.686563000000000E+02      6.134644000000000E-01      1.244648000000000E+02
3200000000.000000      1.145935000000000E-01     -1.687187000000000E+02      5.184631000000000E-01      1.116523000000000E+02
3220000000.000000      8.336258000000000E-02     -1.247461000000000E+02      3.849945000000000E-01      1.009180000000000E+02
3240000000.000000      1.536560000000000E-01     -1.057187000000000E+02      2.462540000000000E-01      9.975780000000000E+01
3260000000.000000      2.330704000000000E-01     -1.154805000000000E+02      1.469803000000000E-01      1.257734000000000E+02
3280000000.000000      2.904510000000000E-01     -1.309453000000000E+02      2.039795000000000E-01      1.655703000000000E+02
3300000000.000000      3.241425000000000E-01     -1.471484000000000E+02      3.308258000000000E-01      1.696328000000000E+02
3320000000.000000      3.350830000000000E-01     -1.628672000000000E+02      4.634552000000000E-01      1.627344000000000E+02
3340000000.000000      3.317871000000000E-01     -1.781719000000000E+02      5.751343000000000E-01      1.507266000000000E+02
3360000000.000000      3.196716000000000E-01      1.673125000000000E+02      6.473999000000000E-01      1.383906000000000E+02
3380000000.000000      3.017731000000000E-01      1.530625000000000E+02      7.109985000000000E-01      1.271406000000000E+02
3400000000.000000      2.784576000000000E-01      1.384609000000000E+02      7.589722000000000E-01      1.134219000000000E+02
3420000000.000000      2.428513000000000E-01      1.234648000000000E+02      7.503967000000000E-01      9.840233000000000E+01
3440000000.000000      1.889877000000000E-01      1.089531000000000E+02      7.062988000000000E-01      8.556641000000000E+01
3460000000.000000      1.178780000000000E-01      9.865234000000000E+01      6.471252000000000E-01      7.247656000000000E+01
3480000000.000000      4.761314000000000E-02      1.250352000000000E+02      5.491943000000000E-01      5.908203000000000E+01
3500000000.000000      9.535980000000000E-02     -1.733125000000000E+02      4.250031000000000E-01      4.770508000000000E+01
3520000000.000000      1.866608000000000E-01      1.797188000000000E+02      2.787018000000000E-01      4.067773000000000E+01
3540000000.000000      2.650604000000000E-01      1.634844000000000E+02      1.472778000000000E-01      5.872265000000000E+01
3560000000.000000      3.239288000000000E-01      1.464219000000000E+02      1.680527000000000E-01      1.078555000000000E+02
3580000000.000000      3.600311000000000E-01      1.304062000000000E+02      2.953491000000000E-01      1.175742000000000E+02
3600000000.000000      3.761597000000000E-01      1.156406000000000E+02      4.206696000000000E-01      1.106680000000000E+02
3620000000.000000      3.774414000000000E-01      1.028789000000000E+02      5.210571000000000E-01      1.011172000000000E+02
3640000000.000000      3.676605000000000E-01      9.164063000000000E+01      6.228333000000000E-01      9.001171000000000E+01
3660000000.000000      3.506622000000000E-01      8.143358000000000E+01      6.930847000000000E-01      7.583202000000000E+01
3680000000.000000      3.274689000000000E-01      7.216406000000000E+01      7.113037000000000E-01      6.271093000000000E+01
3700000000.000000      2.966309000000000E-01      6.377539000000000E+01      7.221069000000000E-01      5.104882000000000E+01
3720000000.000000      2.518463000000000E-01      5.760351000000000E+01      7.235413000000000E-01      3.689844000000000E+01
3740000000.000000      2.019196000000000E-01      5.852148000000000E+01      6.636963000000000E-01      2.133496000000000E+01
3760000000.000000      1.755829000000000E-01      7.274609000000000E+01      5.653381000000000E-01      7.168457000000000E+00
3780000000.000000      2.098083000000000E-01      8.782812000000000E+01      4.360962000000000E-01     -6.107178000000000E+00
3800000000.000000      2.809296000000000E-01      8.932421000000000E+01      2.814636000000000E-01     -1.324414000000000E+01
3820000000.000000      3.484497000000000E-01      8.275391000000000E+01      1.534119000000000E-01     -9.750366000000000E-02
3840000000.000000      3.989410000000000E-01      7.398828000000000E+01      1.438370000000000E-01      4.795117000000000E+01
3860000000.000000      4.332886000000000E-01      6.528515000000000E+01      2.468109000000000E-01      6.539844000000000E+01
3880000000.000000      4.588776000000000E-01      5.774023000000000E+01      3.769989000000000E-01      6.114452000000000E+01
3900000000.000000      4.876709000000000E-01      5.061913000000000E+01      4.797058000000000E-01      4.770117000000000E+01
3920000000.000000      5.182495000000000E-01      4.287499000000000E+01      5.094910000000000E-01      3.600195000000000E+01
3940000000.000000      5.484009000000000E-01      3.400586000000000E+01      5.411987000000000E-01      2.946777000000000E+01
3960000000.000000      5.580444000000000E-01      2.380371000000000E+01      5.953979000000000E-01      2.020606000000000E+01
3980000000.000000      5.525818000000000E-01      1.310498000000000E+01      5.983887000000000E-01      8.196777000000000E+00
4000000000.000000      5.258484000000000E-01      2.837158000000000E+00      5.806274000000000E-01      1.204346000000000E+00
4020000000.000000      4.830933000000000E-01     -7.175537000000000E+00      5.976868000000000E-01     -6.637207000000000E+00
4040000000.000000      4.240265000000000E-01     -1.606348000000000E+01      5.852051000000000E-01     -1.872851000000000E+01
4060000000.000000      3.481445000000000E-01     -2.221875000000000E+01      5.274048000000000E-01     -2.891406000000000E+01
4080000000.000000      2.732849000000000E-01     -2.235058000000000E+01      4.679718000000000E-01     -3.820117000000000E+01
4100000000.000000      2.285004000000000E-01     -1.184473000000000E+01      3.667297000000000E-01     -4.748242000000000E+01
4120000000.000000      2.417679000000000E-01      1.246948000000000E+00      2.490234000000000E-01     -4.402929000000000E+01
4140000000.000000      2.896118000000000E-01      4.729492000000000E+00      2.033768000000000E-01     -1.978711000000000E+01
4160000000.000000      3.333282000000000E-01      4.985046000000000E-01      2.639923000000000E-01     -2.609253000000000E-02
4180000000.000000      3.612061000000000E-01     -6.428467000000000E+00      3.584747000000000E-01      3.919312000000000E+00
4200000000.000000      3.710480000000000E-01     -1.413135000000000E+01      4.875336000000000E-01      1.388367000000000E+00
4220000000.000000      3.667297000000000E-01     -2.130859000000000E+01      6.426697000000000E-01     -1.108936000000000E+01
4240000000.000000      3.476257000000000E-01     -2.886719000000000E+01      7.210693000000000E-01     -2.773438000000000E+01
4260000000.000000      3.091736000000000E-01     -3.460742000000000E+01      7.433777000000000E-01     -4.175781000000000E+01
4280000000.000000      2.599030000000000E-01     -3.583789000000000E+01      7.508850000000000E-01     -5.557617000000000E+01
4300000000.000000      2.227173000000000E-01     -2.760254000000000E+01      7.126770000000000E-01     -7.073828000000000E+01
4320000000.000000      2.365417000000000E-01     -1.504346000000000E+01      6.322021000000000E-01     -8.502733000000000E+01
4340000000.000000      2.944641000000000E-01     -1.096338000000000E+01      5.137024000000000E-01     -9.788671000000000E+01
4360000000.000000      3.592682000000000E-01     -1.604590000000000E+01      3.794556000000000E-01     -1.068672000000000E+02
4380000000.000000      4.053802000000000E-01     -2.498047000000000E+01      2.490387000000000E-01     -1.078594000000000E+02
4400000000.000000      4.257050000000000E-01     -3.490820000000000E+01      1.535187000000000E-01     -8.474218000000000E+01
4420000000.000000      4.256592000000000E-01     -4.416406000000000E+01      1.885071000000000E-01     -4.533789000000000E+01
4440000000.000000      4.092865000000000E-01     -5.234570000000000E+01      3.109894000000000E-01     -3.602734000000000E+01
4460000000.000000      3.876648000000000E-01     -5.894531000000000E+01      4.532318000000000E-01     -4.326562000000000E+01
4480000000.000000      3.680573000000000E-01     -6.525391000000000E+01      5.616150000000000E-01     -5.545507000000000E+01
4500000000.000000      3.486023000000000E-01     -7.174999000000000E+01      6.415405000000000E-01     -6.678515000000000E+01
4520000000.000000      3.146820000000000E-01     -7.930078000000000E+01      7.151489000000000E-01     -7.969921000000000E+01
4540000000.000000      2.634583000000000E-01     -8.527735000000000E+01      7.398071000000000E-01     -9.430859000000000E+01
4560000000.000000      2.034149000000000E-01     -8.347265000000000E+01      7.290039000000000E-01     -1.076601000000000E+02
4580000000.000000      1.770782000000000E-01     -6.784374000000000E+01      6.907654000000000E-01     -1.213008000000000E+02
4600000000.000000      2.144699000000000E-01     -5.427734000000000E+01      6.054382000000000E-01     -1.346562000000000E+02
4620000000.000000      2.794342000000000E-01     -5.575195000000000E+01      4.966431000000000E-01     -1.449063000000000E+02
4640000000.000000      3.334198000000000E-01     -6.547265000000000E+01      3.786316000000000E-01     -1.533750000000000E+02
4660000000.000000      3.572998000000000E-01     -7.853125000000000E+01      2.454071000000000E-01     -1.515859000000000E+02
4680000000.000000      3.488617000000000E-01     -9.233984000000000E+01      1.791992000000000E-01     -1.231133000000000E+02
4700000000.000000      3.113861000000000E-01     -1.053594000000000E+02      2.482300000000000E-01     -9.645311000000000E+01
4720000000.000000      2.547455000000000E-01     -1.158516000000000E+02      3.676453000000000E-01     -9.526562000000000E+01
4740000000.000000      1.930542000000000E-01     -1.208594000000000E+02      4.737244000000000E-01     -1.015742000000000E+02
4760000000.000000      1.410599000000000E-01     -1.168672000000000E+02      5.798035000000000E-01     -1.104375000000000E+02
4780000000.000000      1.155167000000000E-01     -1.010039000000000E+02      6.672668000000000E-01     -1.227031000000000E+02
4800000000.000000      1.215477000000000E-01     -8.357422000000000E+01      7.147827000000000E-01     -1.357266000000000E+02
4820000000.000000      1.512833000000000E-01     -7.451953000000000E+01      7.345581000000000E-01     -1.488281000000000E+02
4840000000.000000      1.913147000000000E-01     -7.419140000000000E+01      7.170410000000000E-01     -1.617266000000000E+02
4860000000.000000      2.348404000000000E-01     -8.068359000000000E+01      6.828308000000000E-01     -1.741406000000000E+02
4880000000.000000      2.712555000000000E-01     -9.089453000000000E+01      6.171265000000000E-01      1.720703000000000E+02
4900000000.000000      2.966461000000000E-01     -1.041992000000000E+02      4.955292000000000E-01      1.599219000000000E+02
4920000000.000000      3.018341000000000E-01     -1.191328000000000E+02      3.656769000000000E-01      1.536484000000000E+02
4940000000.000000      2.871552000000000E-01     -1.347109000000000E+02      2.511597000000000E-01      1.562109000000000E+02
4960000000.000000      2.557373000000000E-01     -1.496406000000000E+02      1.775131000000000E-01      1.778047000000000E+02
4980000000.000000      2.131805000000000E-01     -1.635859000000000E+02      2.152100000000000E-01     -1.509297000000000E+02
5000000000.000000      1.683884000000000E-01     -1.748906000000000E+02      3.313446000000000E-01     -1.435234000000000E+02
5020000000.000000      1.298370000000000E-01      1.755000000000000E+02      4.615784000000000E-01     -1.496484000000000E+02
5040000000.000000      9.941101000000000E-02      1.657734000000000E+02      5.695801000000000E-01     -1.603594000000000E+02
5060000000.000000      7.060623000000000E-02      1.515938000000000E+02      6.504517000000000E-01     -1.717266000000000E+02
5080000000.000000      3.966713000000000E-02      1.266562000000000E+02      7.185364000000000E-01      1.760703000000000E+02
5100000000.000000      1.387262000000000E-02      3.870312000000000E+01      7.553711000000000E-01      1.622890000000000E+02
5120000000.000000      4.158020000000000E-02     -5.448632000000000E+01      7.518616000000000E-01      1.480234000000000E+02
5140000000.000000      7.374191000000000E-02     -8.846483000000000E+01      7.047119000000000E-01      1.344297000000000E+02
5160000000.000000      9.767151000000000E-02     -1.186094000000000E+02      6.291809000000000E-01      1.220976000000000E+02
5180000000.000000      1.100655000000000E-01     -1.486797000000000E+02      5.334167000000000E-01      1.108242000000000E+02
5200000000.000000      1.120720000000000E-01      1.788828000000000E+02      4.152222000000000E-01      1.011523000000000E+02
5220000000.000000      1.080894000000000E-01      1.427187000000000E+02      2.827301000000000E-01      9.860155000000000E+01
5240000000.000000      1.067162000000000E-01      1.060352000000000E+02      1.841583000000000E-01      1.156328000000000E+02
5260000000.000000      1.109238000000000E-01      7.216015000000000E+01      1.973038000000000E-01      1.496328000000000E+02
5280000000.000000      1.183777000000000E-01      4.531640000000000E+01      2.970886000000000E-01      1.606328000000000E+02
5300000000.000000      1.253738000000000E-01      2.433594000000000E+01      4.105530000000000E-01      1.581563000000000E+02
5320000000.000000      1.315918000000000E-01      7.709473000000000E+00      5.283203000000000E-01      1.505391000000000E+02
5340000000.000000      1.383743000000000E-01     -6.491699000000000E+00      6.387329000000000E-01      1.385781000000000E+02
5360000000.000000      1.431427000000000E-01     -2.185351000000000E+01      7.059631000000000E-01      1.241211000000000E+02
5380000000.000000      1.391830000000000E-01     -3.927148000000000E+01      7.182007000000000E-01      1.106992000000000E+02
5400000000.000000      1.211967000000000E-01     -5.720312000000000E+01      7.179565000000000E-01      9.914063000000000E+01
5420000000.000000      8.581543000000000E-02     -7.330859000000000E+01      7.047119000000000E-01      8.605860000000000E+01
5440000000.000000      3.211975000000000E-02     -7.805469000000000E+01      6.468201000000000E-01      7.170703000000000E+01
5460000000.000000      4.230118000000000E-02      3.573437000000000E+01      5.387268000000000E-01      5.873047000000000E+01
5480000000.000000      1.114311000000000E-01      2.992773000000000E+01      4.120636000000000E-01      4.940430000000000E+01
5500000000.000000      1.743774000000000E-01      1.481885000000000E+01      2.923584000000000E-01      4.747851000000000E+01
5520000000.000000      2.202148000000000E-01     -1.428223000000000E-01      1.949615000000000E-01      5.941992000000000E+01
5540000000.000000      2.514954000000000E-01     -1.381152000000000E+01      1.813431000000000E-01      9.107422000000000E+01
5560000000.000000      2.709351000000000E-01     -2.561914000000000E+01      2.635651000000000E-01      1.087891000000000E+02
5580000000.000000      2.837524000000000E-01     -3.531836000000000E+01      3.852692000000000E-01      1.085039000000000E+02
5600000000.000000      2.953186000000000E-01     -4.407617000000000E+01      5.070801000000000E-01      9.964062000000000E+01
5620000000.000000      3.057404000000000E-01     -5.310937000000000E+01      5.966187000000000E-01      8.714844000000000E+01
5640000000.000000      3.095856000000000E-01     -6.287499000000000E+01      6.466675000000000E-01      7.522265000000000E+01
5660000000.000000      3.005981000000000E-01     -7.355078000000000E+01      6.846619000000000E-01      6.389453000000000E+01
5680000000.000000      2.721710000000000E-01     -8.378906000000000E+01      6.973877000000000E-01      5.116601000000000E+01
5700000000.000000      2.249908000000000E-01     -9.118750000000000E+01      6.815796000000000E-01      3.886523000000000E+01
5720000000.000000      1.744537000000000E-01     -8.998047000000000E+01      6.413269000000000E-01      2.611133000000000E+01
5740000000.000000      1.532822000000000E-01     -7.589453000000000E+01      5.646667000000000E-01      1.280273000000000E+01
5760000000.000000      1.813660000000000E-01     -6.424609000000000E+01      4.496918000000000E-01      1.440552000000000E+00
5780000000.000000      2.273712000000000E-01     -6.560547000000000E+01      3.154449000000000E-01     -3.585693000000000E+00
5800000000.000000      2.596741000000000E-01     -7.324219000000000E+01      2.079773000000000E-01      7.311279000000000E+00
5820000000.000000      2.689972000000000E-01     -8.256250000000000E+01      1.899261000000000E-01      3.789063000000000E+01
5840000000.000000      2.590027000000000E-01     -9.106249000000000E+01      2.718964000000000E-01      5.410351000000000E+01
5860000000.000000      2.420502000000000E-01     -9.645702000000000E+01      3.717346000000000E-01      5.420116000000000E+01
5880000000.000000      2.268524000000000E-01     -9.965624000000000E+01      4.775848000000000E-01      4.883007000000000E+01
5900000000.000000      2.204742000000000E-01     -1.020742000000000E+02      5.946350000000000E-01      3.866601000000000E+01
5920000000.000000      2.131577000000000E-01     -1.049141000000000E+02      6.732483000000000E-01      2.470800000000000E+01
5940000000.000000      1.986389000000000E-01     -1.070703000000000E+02      7.010803000000000E-01      1.139404000000000E+01
5960000000.000000      1.807938000000000E-01     -1.051914000000000E+02      7.113647000000000E-01     -1.267578000000000E+00
5980000000.000000      1.678162000000000E-01     -9.765625000000000E+01      6.904297000000000E-01     -1.524658000000000E+01
6000000000.000000      1.836090000000000E-01     -8.858593000000000E+01      6.269531000000000E-01     -2.896973000000000E+01
6020000000.000000      2.180328000000000E-01     -8.671093000000000E+01      5.284119000000000E-01     -4.163086000000000E+01
6040000000.000000      2.539978000000000E-01     -9.194921000000000E+01      3.990326000000000E-01     -4.963672000000000E+01
6060000000.000000      2.783813000000000E-01     -1.007265000000000E+02      2.847290000000000E-01     -4.932617000000000E+01
6080000000.000000      2.882233000000000E-01     -1.108047000000000E+02      2.054596000000000E-01     -3.544531000000000E+01
