! Network Analyzer HP8722D
! Hewlett-Packard
! Data name: Linha & Wilkinson+CNT
! Saver's name: Rodrigo Anjos
! Comments: Teste da utilização de aquisição
continua pelo VNA HP8722D
! Time and date: 29/9/2025 14:05
!              Frequency                     S11                                                   S21                                                   S12                                                   S22
# HZ  S  MA R 50
3000000000.000000      4.250031000000000E-01     -5.588672000000000E+01      2.078323000000000E-01     -1.315859000000000E+02
3020000000.000000      4.475250000000000E-01     -6.992578000000000E+01      3.506165000000000E-01     -1.349531000000000E+02
3040000000.000000      4.529114000000000E-01     -8.306641000000000E+01      4.695282000000000E-01     -1.449922000000000E+02
3060000000.000000      4.448090000000000E-01     -9.501953000000000E+01      5.735474000000000E-01     -1.551797000000000E+02
3080000000.000000      4.289703000000000E-01     -1.062500000000000E+02      6.746826000000000E-01     -1.684687000000000E+02
3100000000.000000      4.087372000000000E-01     -1.174961000000000E+02      7.250977000000000E-01      1.767656000000000E+02
3120000000.000000      3.794556000000000E-01     -1.295469000000000E+02      7.318726000000000E-01      1.633359000000000E+02
3140000000.000000      3.377075000000000E-01     -1.425547000000000E+02      7.238464000000000E-01      1.505391000000000E+02
3160000000.000000      2.789154000000000E-01     -1.564375000000000E+02      6.821899000000000E-01      1.368672000000000E+02
3180000000.000000      1.993103000000000E-01     -1.691172000000000E+02      6.128845000000000E-01      1.242851000000000E+02
3200000000.000000      1.110764000000000E-01     -1.695859000000000E+02      5.185547000000000E-01      1.113945000000000E+02
3220000000.000000      7.954788000000000E-02     -1.241016000000000E+02      3.853912000000000E-01      1.008047000000000E+02
3240000000.000000      1.507339000000000E-01     -1.049453000000000E+02      2.461243000000000E-01      9.954296000000000E+01
3260000000.000000      2.302322000000000E-01     -1.151563000000000E+02      1.471481000000000E-01      1.255234000000000E+02
3280000000.000000      2.876740000000000E-01     -1.309687000000000E+02      2.039642000000000E-01      1.653906000000000E+02
3300000000.000000      3.204803000000000E-01     -1.473125000000000E+02      3.306580000000000E-01      1.695313000000000E+02
3320000000.000000      3.323059000000000E-01     -1.632187000000000E+02      4.632111000000000E-01      1.626641000000000E+02
3340000000.000000      3.284302000000000E-01     -1.785625000000000E+02      5.737000000000000E-01      1.505000000000000E+02
3360000000.000000      3.166199000000000E-01      1.666406000000000E+02      6.478577000000000E-01      1.382813000000000E+02
3380000000.000000      3.007202000000000E-01      1.524141000000000E+02      7.084045000000000E-01      1.269648000000000E+02
3400000000.000000      2.777863000000000E-01      1.376875000000000E+02      7.581177000000000E-01      1.131484000000000E+02
3420000000.000000      2.431335000000000E-01      1.226328000000000E+02      7.495117000000000E-01      9.834373000000000E+01
3440000000.000000      1.899109000000000E-01      1.080469000000000E+02      7.047119000000000E-01      8.541407000000000E+01
3460000000.000000      1.198006000000000E-01      9.719921000000000E+01      6.457520000000000E-01      7.243359000000000E+01
3480000000.000000      4.773903000000000E-02      1.216250000000000E+02      5.485535000000000E-01      5.901562000000000E+01
3500000000.000000      9.263611000000000E-02     -1.740937000000000E+02      4.236298000000000E-01      4.744531000000000E+01
3520000000.000000      1.841202000000000E-01      1.789609000000000E+02      2.781830000000000E-01      4.038867000000000E+01
3540000000.000000      2.636108000000000E-01      1.627344000000000E+02      1.471176000000000E-01      5.827929000000000E+01
3560000000.000000      3.227539000000000E-01      1.458125000000000E+02      1.671677000000000E-01      1.078477000000000E+02
3580000000.000000      3.597107000000000E-01      1.297266000000000E+02      2.948303000000000E-01      1.174844000000000E+02
3600000000.000000      3.759918000000000E-01      1.150781000000000E+02      4.202271000000000E-01      1.105703000000000E+02
3620000000.000000      3.780823000000000E-01      1.025391000000000E+02      5.214844000000000E-01      1.010820000000000E+02
3640000000.000000      3.686676000000000E-01      9.114452000000000E+01      6.226196000000000E-01      8.998438000000000E+01
3660000000.000000      3.523102000000000E-01      8.111719000000000E+01      6.929626000000000E-01      7.569921000000000E+01
3680000000.000000      3.291931000000000E-01      7.186328000000000E+01      7.106323000000000E-01      6.256054000000000E+01
3700000000.000000      2.983246000000000E-01      6.361718000000000E+01      7.208252000000000E-01      5.100195000000000E+01
3720000000.000000      2.545776000000000E-01      5.756249000000000E+01      7.244568000000000E-01      3.671289000000000E+01
3740000000.000000      2.041245000000000E-01      5.845508000000000E+01      6.641235000000000E-01      2.139258000000000E+01
3760000000.000000      1.777344000000000E-01      7.245312000000000E+01      5.658569000000000E-01      7.062744000000000E+00
3780000000.000000      2.119293000000000E-01      8.736719000000000E+01      4.343414000000000E-01     -6.225342000000000E+00
3800000000.000000      2.828064000000000E-01      8.900391000000000E+01      2.809906000000000E-01     -1.348340000000000E+01
3820000000.000000      3.503265000000000E-01      8.258984000000000E+01      1.532974000000000E-01     -3.158569000000000E-01
3840000000.000000      4.007263000000000E-01      7.387500000000000E+01      1.434174000000000E-01      4.787499000000000E+01
3860000000.000000      4.352722000000000E-01      6.520702000000000E+01      2.464447000000000E-01      6.526953000000000E+01
3880000000.000000      4.604645000000000E-01      5.773438000000000E+01      3.763733000000000E-01      6.119335000000000E+01
3900000000.000000      4.898376000000000E-01      5.078515000000000E+01      4.770813000000000E-01      4.750977000000000E+01
3920000000.000000      5.198669000000000E-01      4.304688000000000E+01      5.101624000000000E-01      3.584375000000000E+01
3940000000.000000      5.485840000000000E-01      3.403906000000000E+01      5.395508000000000E-01      2.955371000000000E+01
3960000000.000000      5.592041000000000E-01      2.397559000000000E+01      5.957031000000000E-01      1.994141000000000E+01
3980000000.000000      5.532532000000000E-01      1.352393000000000E+01      5.977173000000000E-01      8.262695000000000E+00
4000000000.000000      5.273132000000000E-01      3.147583000000000E+00      5.802612000000000E-01      1.213989000000000E+00
4020000000.000000      4.838257000000000E-01     -6.883057000000000E+00      5.971375000000000E-01     -6.675781000000000E+00
4040000000.000000      4.248352000000000E-01     -1.573145000000000E+01      5.853271000000000E-01     -1.884766000000000E+01
4060000000.000000      3.489532000000000E-01     -2.191016000000000E+01      5.277710000000000E-01     -2.918457000000000E+01
4080000000.000000      2.739563000000000E-01     -2.183203000000000E+01      4.679413000000000E-01     -3.811718000000000E+01
4100000000.000000      2.280807000000000E-01     -1.125293000000000E+01      3.659058000000000E-01     -4.749413000000000E+01
4120000000.000000      2.419662000000000E-01      1.814087000000000E+00      2.490463000000000E-01     -4.405469000000000E+01
4140000000.000000      2.897797000000000E-01      5.137451000000000E+00      2.030640000000000E-01     -1.987500000000000E+01
4160000000.000000      3.338928000000000E-01      9.681702000000000E-01      2.639618000000000E-01     -1.290894000000000E-01
4180000000.000000      3.612976000000000E-01     -5.928711000000000E+00      3.584290000000000E-01      3.733887000000000E+00
4200000000.000000      3.711853000000000E-01     -1.374951000000000E+01      4.878540000000000E-01      1.347168000000000E+00
4220000000.000000      3.672943000000000E-01     -2.096484000000000E+01      6.426086000000000E-01     -1.116943000000000E+01
4240000000.000000      3.482971000000000E-01     -2.834765000000000E+01      7.215271000000000E-01     -2.788965000000000E+01
4260000000.000000      3.094025000000000E-01     -3.416016000000000E+01      7.429199000000000E-01     -4.197851000000000E+01
4280000000.000000      2.595062000000000E-01     -3.541211000000000E+01      7.520142000000000E-01     -5.583984000000000E+01
4300000000.000000      2.219009000000000E-01     -2.726465000000000E+01      7.129211000000000E-01     -7.081640000000000E+01
4320000000.000000      2.356186000000000E-01     -1.456934000000000E+01      6.311340000000000E-01     -8.521484000000000E+01
4340000000.000000      2.937012000000000E-01     -1.063379000000000E+01      5.161743000000000E-01     -9.787889000000000E+01
4360000000.000000      3.591461000000000E-01     -1.565186000000000E+01      3.804474000000000E-01     -1.068476000000000E+02
4380000000.000000      4.055023000000000E-01     -2.459473000000000E+01      2.493896000000000E-01     -1.080859000000000E+02
4400000000.000000      4.262390000000000E-01     -3.454883000000000E+01      1.530304000000000E-01     -8.511719000000000E+01
4420000000.000000      4.242554000000000E-01     -4.402929000000000E+01      1.876984000000000E-01     -4.551367000000000E+01
4440000000.000000      4.080811000000000E-01     -5.210546000000000E+01      3.106689000000000E-01     -3.616796000000000E+01
4460000000.000000      3.867493000000000E-01     -5.841797000000000E+01      4.536591000000000E-01     -4.343359000000000E+01
4480000000.000000      3.683167000000000E-01     -6.510547000000000E+01      5.619202000000000E-01     -5.548828000000000E+01
4500000000.000000      3.470764000000000E-01     -7.171875000000000E+01      6.435242000000000E-01     -6.676952000000000E+01
4520000000.000000      3.132172000000000E-01     -7.935156000000000E+01      7.151794000000000E-01     -7.991796000000000E+01
4540000000.000000      2.617798000000000E-01     -8.551561000000000E+01      7.423401000000000E-01     -9.452343000000000E+01
4560000000.000000      2.012634000000000E-01     -8.388281000000000E+01      7.289734000000000E-01     -1.078984000000000E+02
4580000000.000000      1.743774000000000E-01     -6.785937000000000E+01      6.913452000000000E-01     -1.215937000000000E+02
4600000000.000000      2.121582000000000E-01     -5.399414000000000E+01      6.047058000000000E-01     -1.347500000000000E+02
4620000000.000000      2.769928000000000E-01     -5.530859000000000E+01      4.982147000000000E-01     -1.452500000000000E+02
4640000000.000000      3.306885000000000E-01     -6.524609000000000E+01      3.796082000000000E-01     -1.535547000000000E+02
4660000000.000000      3.543396000000000E-01     -7.851563000000000E+01      2.458878000000000E-01     -1.517344000000000E+02
4680000000.000000      3.462677000000000E-01     -9.244532000000000E+01      1.791611000000000E-01     -1.233672000000000E+02
4700000000.000000      3.092651000000000E-01     -1.056562000000000E+02      2.486038000000000E-01     -9.664843000000000E+01
4720000000.000000      2.528076000000000E-01     -1.161445000000000E+02      3.670197000000000E-01     -9.553514000000000E+01
4740000000.000000      1.907959000000000E-01     -1.216133000000000E+02      4.752350000000000E-01     -1.018516000000000E+02
4760000000.000000      1.384964000000000E-01     -1.175352000000000E+02      5.787354000000000E-01     -1.106172000000000E+02
4780000000.000000      1.127892000000000E-01     -1.016328000000000E+02      6.671143000000000E-01     -1.230664000000000E+02
4800000000.000000      1.181755000000000E-01     -8.371094000000000E+01      7.185364000000000E-01     -1.358281000000000E+02
4820000000.000000      1.470032000000000E-01     -7.404297000000000E+01      7.348022000000000E-01     -1.491875000000000E+02
4840000000.000000      1.878281000000000E-01     -7.401562000000000E+01      7.182007000000000E-01     -1.618672000000000E+02
4860000000.000000      2.315369000000000E-01     -8.049999000000000E+01      6.844482000000000E-01     -1.744062000000000E+02
4880000000.000000      2.685089000000000E-01     -9.088671000000000E+01      6.170654000000000E-01      1.718359000000000E+02
4900000000.000000      2.939301000000000E-01     -1.042812000000000E+02      4.956970000000000E-01      1.594844000000000E+02
4920000000.000000      2.999878000000000E-01     -1.193476000000000E+02      3.648682000000000E-01      1.533828000000000E+02
4940000000.000000      2.852783000000000E-01     -1.352187000000000E+02      2.515564000000000E-01      1.559766000000000E+02
4960000000.000000      2.545471000000000E-01     -1.503203000000000E+02      1.771164000000000E-01      1.774609000000000E+02
4980000000.000000      2.122192000000000E-01     -1.644375000000000E+02      2.150803000000000E-01     -1.512578000000000E+02
5000000000.000000      1.683273000000000E-01     -1.762734000000000E+02      3.307190000000000E-01     -1.436563000000000E+02
5020000000.000000      1.301651000000000E-01      1.738203000000000E+02      4.608002000000000E-01     -1.497266000000000E+02
5040000000.000000      9.989166000000000E-02      1.634922000000000E+02      5.704956000000000E-01     -1.604609000000000E+02
5060000000.000000      7.172775000000000E-02      1.481797000000000E+02      6.502075000000000E-01     -1.720625000000000E+02
5080000000.000000      4.153442000000000E-02      1.226523000000000E+02      7.181702000000000E-01      1.758203000000000E+02
5100000000.000000      1.657486000000000E-02      4.181250000000000E+01      7.551270000000000E-01      1.620469000000000E+02
5120000000.000000      4.098511000000000E-02     -5.080078000000000E+01      7.523193000000000E-01      1.479297000000000E+02
5140000000.000000      7.274246000000000E-02     -8.764452000000000E+01      7.017212000000000E-01      1.342734000000000E+02
5160000000.000000      9.598923000000000E-02     -1.191640000000000E+02      6.295776000000000E-01      1.219375000000000E+02
5180000000.000000      1.092529000000000E-01     -1.496094000000000E+02      5.330200000000000E-01      1.105781000000000E+02
5200000000.000000      1.121750000000000E-01      1.777266000000000E+02      4.166107000000000E-01      1.010586000000000E+02
5220000000.000000      1.097946000000000E-01      1.417187000000000E+02      2.823639000000000E-01      9.825390000000000E+01
5240000000.000000      1.088600000000000E-01      1.054375000000000E+02      1.838760000000000E-01      1.155976000000000E+02
5260000000.000000      1.137886000000000E-01      7.214062000000000E+01      1.969528000000000E-01      1.494922000000000E+02
5280000000.000000      1.204720000000000E-01      4.567773000000000E+01      2.968597000000000E-01      1.605781000000000E+02
5300000000.000000      1.274490000000000E-01      2.480762000000000E+01      4.103699000000000E-01      1.580391000000000E+02
5320000000.000000      1.334915000000000E-01      8.464844000000000E+00      5.290527000000000E-01      1.504766000000000E+02
5340000000.000000      1.389618000000000E-01     -5.791260000000000E+00      6.387939000000000E-01      1.384844000000000E+02
5360000000.000000      1.428833000000000E-01     -2.146094000000000E+01      7.045593000000000E-01      1.239375000000000E+02
5380000000.000000      1.381073000000000E-01     -3.887695000000000E+01      7.165833000000000E-01      1.106680000000000E+02
5400000000.000000      1.196976000000000E-01     -5.710938000000000E+01      7.177734000000000E-01      9.891014000000000E+01
5420000000.000000      8.395386000000000E-02     -7.391015000000000E+01      7.050781000000000E-01      8.579687000000000E+01
5440000000.000000      3.011417000000000E-02     -7.742578000000000E+01      6.460266000000000E-01      7.155468000000000E+01
5460000000.000000      4.358292000000000E-02      3.887890000000000E+01      5.382690000000000E-01      5.843163000000000E+01
5480000000.000000      1.133041000000000E-01      3.099902000000000E+01      4.137268000000000E-01      4.918163000000000E+01
5500000000.000000      1.755142000000000E-01      1.554150000000000E+01      2.917175000000000E-01      4.734765000000000E+01
5520000000.000000      2.213211000000000E-01      5.850220000000000E-01      1.948395000000000E-01      5.912890000000000E+01
5540000000.000000      2.520905000000000E-01     -1.326465000000000E+01      1.815414000000000E-01      9.105469000000000E+01
5560000000.000000      2.699738000000000E-01     -2.518945000000000E+01      2.633057000000000E-01      1.088437000000000E+02
5580000000.000000      2.822113000000000E-01     -3.496094000000000E+01      3.845673000000000E-01      1.085898000000000E+02
5600000000.000000      2.939758000000000E-01     -4.398828000000000E+01      5.066223000000000E-01      9.955858000000000E+01
5620000000.000000      3.043060000000000E-01     -5.307422000000000E+01      5.966492000000000E-01      8.708984000000000E+01
5640000000.000000      3.079071000000000E-01     -6.281445000000000E+01      6.477051000000000E-01      7.526172000000000E+01
5660000000.000000      2.976685000000000E-01     -7.347265000000000E+01      6.852722000000000E-01      6.363867000000000E+01
5680000000.000000      2.687378000000000E-01     -8.380468000000000E+01      6.971130000000000E-01      5.096484000000000E+01
5700000000.000000      2.213287000000000E-01     -9.130077000000000E+01      6.837463000000000E-01      3.871484000000000E+01
5720000000.000000      1.706467000000000E-01     -8.966406000000000E+01      6.422424000000000E-01      2.593262000000000E+01
5740000000.000000      1.498413000000000E-01     -7.517578000000000E+01      5.657349000000000E-01      1.253809000000000E+01
5760000000.000000      1.790543000000000E-01     -6.365429000000000E+01      4.506226000000000E-01      1.141174000000000E+00
5780000000.000000      2.251358000000000E-01     -6.537890000000000E+01      3.154144000000000E-01     -3.966064000000000E+00
5800000000.000000      2.568817000000000E-01     -7.304688000000000E+01      2.076492000000000E-01      7.104004000000000E+00
5820000000.000000      2.668762000000000E-01     -8.260937000000000E+01      1.894989000000000E-01      3.759570000000000E+01
5840000000.000000      2.572937000000000E-01     -9.094530000000000E+01      2.719727000000000E-01      5.404491000000000E+01
5860000000.000000      2.387543000000000E-01     -9.668358000000000E+01      3.724976000000000E-01      5.396289000000000E+01
5880000000.000000      2.232513000000000E-01     -9.995312000000000E+01      4.794769000000000E-01      4.866796000000000E+01
5900000000.000000      2.170486000000000E-01     -1.021367000000000E+02      5.950317000000000E-01      3.825976000000000E+01
5920000000.000000      2.088165000000000E-01     -1.050977000000000E+02      6.714783000000000E-01      2.452832000000000E+01
5940000000.000000      1.949463000000000E-01     -1.070273000000000E+02      7.010193000000000E-01      1.117969000000000E+01
5960000000.000000      1.773071000000000E-01     -1.052226000000000E+02      7.150879000000000E-01     -1.554565000000000E+00
5980000000.000000      1.654663000000000E-01     -9.760937000000000E+01      6.905518000000000E-01     -1.561035000000000E+01
6000000000.000000      1.813354000000000E-01     -8.829687000000000E+01      6.276245000000000E-01     -2.916211000000000E+01
6020000000.000000      2.161789000000000E-01     -8.654297000000000E+01      5.286865000000000E-01     -4.163671000000000E+01
6040000000.000000      2.518158000000000E-01     -9.187500000000000E+01      3.996887000000000E-01     -4.995898000000000E+01
6060000000.000000      2.754974000000000E-01     -1.009180000000000E+02      2.851105000000000E-01     -4.962695000000000E+01
6080000000.000000      2.852936000000000E-01     -1.110742000000000E+02      2.051239000000000E-01     -3.581836000000000E+01
