! Network Analyzer HP8722D
! Hewlett-Packard
! Data name: Linha & Wilkinson+CNT
! Saver's name: Rodrigo Anjos
! Comments: Teste da utilização de aquisição
continua pelo VNA HP8722D
! Time and date: 29/9/2025 14:30
!              Frequency                     S11                                                   S21                                                   S12                                                   S22
# HZ  S  MA R 50
3000000000.000000      4.250488000000000E-01     -5.550195000000000E+01      2.063828000000000E-01     -1.316562000000000E+02
3020000000.000000      4.474030000000000E-01     -6.975390000000000E+01      3.489685000000000E-01     -1.348984000000000E+02
3040000000.000000      4.517212000000000E-01     -8.283983000000000E+01      4.666748000000000E-01     -1.448203000000000E+02
3060000000.000000      4.448547000000000E-01     -9.489061000000000E+01      5.708008000000000E-01     -1.550313000000000E+02
3080000000.000000      4.299927000000000E-01     -1.061133000000000E+02      6.737671000000000E-01     -1.681953000000000E+02
3100000000.000000      4.089966000000000E-01     -1.173633000000000E+02      7.247925000000000E-01      1.768906000000000E+02
3120000000.000000      3.801117000000000E-01     -1.293359000000000E+02      7.315063000000000E-01      1.635625000000000E+02
3140000000.000000      3.388367000000000E-01     -1.423984000000000E+02      7.239685000000000E-01      1.505938000000000E+02
3160000000.000000      2.797852000000000E-01     -1.563047000000000E+02      6.852722000000000E-01      1.369844000000000E+02
3180000000.000000      1.999741000000000E-01     -1.691094000000000E+02      6.147156000000000E-01      1.246445000000000E+02
3200000000.000000      1.119461000000000E-01     -1.700781000000000E+02      5.209351000000000E-01      1.117617000000000E+02
3220000000.000000      7.911682000000000E-02     -1.246172000000000E+02      3.869781000000000E-01      1.008437000000000E+02
3240000000.000000      1.497726000000000E-01     -1.047734000000000E+02      2.480240000000000E-01      9.941795000000000E+01
3260000000.000000      2.293777000000000E-01     -1.149805000000000E+02      1.473236000000000E-01      1.246406000000000E+02
3280000000.000000      2.874451000000000E-01     -1.307266000000000E+02      2.020416000000000E-01      1.651406000000000E+02
3300000000.000000      3.203278000000000E-01     -1.470000000000000E+02      3.289337000000000E-01      1.697266000000000E+02
3320000000.000000      3.323517000000000E-01     -1.629766000000000E+02      4.617615000000000E-01      1.627500000000000E+02
3340000000.000000      3.288269000000000E-01     -1.783906000000000E+02      5.744019000000000E-01      1.505469000000000E+02
3360000000.000000      3.173065000000000E-01      1.668906000000000E+02      6.461487000000000E-01      1.385234000000000E+02
3380000000.000000      3.002625000000000E-01      1.525391000000000E+02      7.101440000000000E-01      1.271758000000000E+02
3400000000.000000      2.787933000000000E-01      1.378672000000000E+02      7.577820000000000E-01      1.132227000000000E+02
3420000000.000000      2.438278000000000E-01      1.228437000000000E+02      7.491150000000000E-01      9.848436000000000E+01
3440000000.000000      1.907730000000000E-01      1.080469000000000E+02      7.046509000000000E-01      8.566797000000000E+01
3460000000.000000      1.208305000000000E-01      9.727343000000000E+01      6.482849000000000E-01      7.246484000000000E+01
3480000000.000000      4.835892000000000E-02      1.201133000000000E+02      5.500488000000000E-01      5.917187000000000E+01
3500000000.000000      9.126282000000000E-02     -1.743281000000000E+02      4.264069000000000E-01      4.771484000000000E+01
3520000000.000000      1.827698000000000E-01      1.792734000000000E+02      2.803802000000000E-01      4.034961000000000E+01
3540000000.000000      2.623901000000000E-01      1.629844000000000E+02      1.480255000000000E-01      5.775000000000000E+01
3560000000.000000      3.223114000000000E-01      1.460312000000000E+02      1.659088000000000E-01      1.073438000000000E+02
3580000000.000000      3.599396000000000E-01      1.300625000000000E+02      2.927551000000000E-01      1.176484000000000E+02
3600000000.000000      3.766632000000000E-01      1.154297000000000E+02      4.183350000000000E-01      1.107500000000000E+02
3620000000.000000      3.777161000000000E-01      1.026992000000000E+02      5.198059000000000E-01      1.013008000000000E+02
3640000000.000000      3.694916000000000E-01      9.131250000000000E+01      6.217957000000000E-01      9.012890000000000E+01
3660000000.000000      3.526001000000000E-01      8.108984000000000E+01      6.933899000000000E-01      7.595703000000000E+01
3680000000.000000      3.292999000000000E-01      7.193749000000000E+01      7.102356000000000E-01      6.276172000000000E+01
3700000000.000000      2.995911000000000E-01      6.371875000000000E+01      7.210388000000000E-01      5.115624000000000E+01
3720000000.000000      2.558441000000000E-01      5.762109000000000E+01      7.236328000000000E-01      3.693554000000000E+01
3740000000.000000      2.050705000000000E-01      5.836523000000000E+01      6.650696000000000E-01      2.137988000000000E+01
3760000000.000000      1.777725000000000E-01      7.217187000000000E+01      5.677795000000000E-01      7.246826000000000E+00
3780000000.000000      2.109528000000000E-01      8.738281000000000E+01      4.371185000000000E-01     -6.074219000000000E+00
3800000000.000000      2.815399000000000E-01      8.916016000000000E+01      2.837219000000000E-01     -1.351465000000000E+01
3820000000.000000      3.496094000000000E-01      8.269140000000000E+01      1.546478000000000E-01     -8.253479000000000E-01
3840000000.000000      3.999939000000000E-01      7.400781000000000E+01      1.422806000000000E-01      4.743164000000000E+01
3860000000.000000      4.353485000000000E-01      6.537890000000000E+01      2.446060000000000E-01      6.532421000000000E+01
3880000000.000000      4.602356000000000E-01      5.784374000000000E+01      3.744507000000000E-01      6.118554000000000E+01
3900000000.000000      4.888000000000000E-01      5.080859000000000E+01      4.765320000000000E-01      4.794922000000000E+01
3920000000.000000      5.189209000000000E-01      4.300390000000000E+01      5.082092000000000E-01      3.614843000000000E+01
3940000000.000000      5.487366000000000E-01      3.420507000000000E+01      5.390625000000000E-01      2.948925000000000E+01
3960000000.000000      5.593262000000000E-01      2.422070000000000E+01      5.959473000000000E-01      2.016602000000000E+01
3980000000.000000      5.538330000000000E-01      1.370117000000000E+01      5.979614000000000E-01      8.280762000000000E+00
4000000000.000000      5.277405000000000E-01      3.321899000000000E+00      5.801392000000000E-01      1.430969000000000E+00
4020000000.000000      4.852295000000000E-01     -6.785645000000000E+00      5.989685000000000E-01     -6.381836000000000E+00
4040000000.000000      4.266052000000000E-01     -1.561182000000000E+01      5.863647000000000E-01     -1.874219000000000E+01
4060000000.000000      3.505096000000000E-01     -2.195410000000000E+01      5.282593000000000E-01     -2.895996000000000E+01
4080000000.000000      2.749481000000000E-01     -2.194043000000000E+01      4.693604000000000E-01     -3.813281000000000E+01
4100000000.000000      2.286911000000000E-01     -1.162939000000000E+01      3.688812000000000E-01     -4.751953000000000E+01
4120000000.000000      2.409668000000000E-01      1.712463000000000E+00      2.509155000000000E-01     -4.448632000000000E+01
4140000000.000000      2.892151000000000E-01      5.163574000000000E+00      2.029800000000000E-01     -2.058984000000000E+01
4160000000.000000      3.335266000000000E-01      9.956360000000000E-01      2.620850000000000E-01     -2.197266000000000E-01
4180000000.000000      3.616486000000000E-01     -5.840820000000000E+00      3.563385000000000E-01      3.883667000000000E+00
4200000000.000000      3.712311000000000E-01     -1.356836000000000E+01      4.868469000000000E-01      1.518860000000000E+00
4220000000.000000      3.673096000000000E-01     -2.077148000000000E+01      6.408081000000000E-01     -1.082568000000000E+01
4240000000.000000      3.485718000000000E-01     -2.827343000000000E+01      7.204895000000000E-01     -2.759961000000000E+01
4260000000.000000      3.105011000000000E-01     -3.410742000000000E+01      7.435303000000000E-01     -4.160546000000000E+01
4280000000.000000      2.605286000000000E-01     -3.547266000000000E+01      7.512817000000000E-01     -5.562304000000000E+01
4300000000.000000      2.226105000000000E-01     -2.746582000000000E+01      7.151184000000000E-01     -7.060547000000000E+01
4320000000.000000      2.351532000000000E-01     -1.470947000000000E+01      6.338806000000000E-01     -8.497656000000000E+01
4340000000.000000      2.929840000000000E-01     -1.055420000000000E+01      5.189209000000000E-01     -9.785156000000000E+01
4360000000.000000      3.582458000000000E-01     -1.556250000000000E+01      3.827515000000000E-01     -1.070937000000000E+02
4380000000.000000      4.046478000000000E-01     -2.450976000000000E+01      2.518311000000000E-01     -1.082383000000000E+02
4400000000.000000      4.264832000000000E-01     -3.447266000000000E+01      1.536560000000000E-01     -8.575390000000000E+01
4420000000.000000      4.242554000000000E-01     -4.380273000000000E+01      1.860504000000000E-01     -4.579687000000000E+01
4440000000.000000      4.080811000000000E-01     -5.203711000000000E+01      3.085022000000000E-01     -3.608203000000000E+01
4460000000.000000      3.872986000000000E-01     -5.843359000000000E+01      4.509125000000000E-01     -4.312109000000000E+01
4480000000.000000      3.675690000000000E-01     -6.486328000000000E+01      5.612488000000000E-01     -5.542382000000000E+01
4500000000.000000      3.469391000000000E-01     -7.160937000000000E+01      6.421814000000000E-01     -6.678124000000000E+01
4520000000.000000      3.138733000000000E-01     -7.928515000000000E+01      7.149963000000000E-01     -7.959765000000000E+01
4540000000.000000      2.631989000000000E-01     -8.558594000000000E+01      7.418213000000000E-01     -9.430079000000000E+01
4560000000.000000      2.017593000000000E-01     -8.394531000000000E+01      7.304993000000000E-01     -1.074414000000000E+02
4580000000.000000      1.740494000000000E-01     -6.812500000000000E+01      6.933899000000000E-01     -1.213750000000000E+02
4600000000.000000      2.109680000000000E-01     -5.395508000000000E+01      6.081238000000000E-01     -1.346172000000000E+02
4620000000.000000      2.761688000000000E-01     -5.513476000000000E+01      5.007019000000000E-01     -1.450078000000000E+02
4640000000.000000      3.301544000000000E-01     -6.495703000000000E+01      3.822632000000000E-01     -1.533984000000000E+02
4660000000.000000      3.546448000000000E-01     -7.826953000000000E+01      2.475739000000000E-01     -1.521719000000000E+02
4680000000.000000      3.470459000000000E-01     -9.222265000000000E+01      1.785202000000000E-01     -1.240937000000000E+02
4700000000.000000      3.102570000000000E-01     -1.054297000000000E+02      2.464066000000000E-01     -9.677343000000000E+01
4720000000.000000      2.537537000000000E-01     -1.160976000000000E+02      3.648682000000000E-01     -9.528906000000000E+01
4740000000.000000      1.920471000000000E-01     -1.216640000000000E+02      4.727631000000000E-01     -1.015547000000000E+02
4760000000.000000      1.394730000000000E-01     -1.178125000000000E+02      5.777283000000000E-01     -1.103633000000000E+02
4780000000.000000      1.123810000000000E-01     -1.021406000000000E+02      6.681213000000000E-01     -1.226328000000000E+02
4800000000.000000      1.173172000000000E-01     -8.395311000000000E+01      7.169800000000000E-01     -1.355313000000000E+02
4820000000.000000      1.454926000000000E-01     -7.395702000000000E+01      7.369385000000000E-01     -1.488594000000000E+02
4840000000.000000      1.863632000000000E-01     -7.363281000000000E+01      7.183838000000000E-01     -1.616641000000000E+02
4860000000.000000      2.300262000000000E-01     -8.016016000000000E+01      6.850586000000000E-01     -1.740313000000000E+02
4880000000.000000      2.677307000000000E-01     -9.053514000000000E+01      6.186523000000000E-01      1.720000000000000E+02
4900000000.000000      2.935944000000000E-01     -1.041289000000000E+02      4.971313000000000E-01      1.599297000000000E+02
4920000000.000000      2.996674000000000E-01     -1.192070000000000E+02      3.673248000000000E-01      1.537188000000000E+02
4940000000.000000      2.859344000000000E-01     -1.347109000000000E+02      2.526703000000000E-01      1.557812000000000E+02
4960000000.000000      2.550354000000000E-01     -1.499922000000000E+02      1.775513000000000E-01      1.766250000000000E+02
4980000000.000000      2.131042000000000E-01     -1.642344000000000E+02      2.126007000000000E-01     -1.514531000000000E+02
5000000000.000000      1.687088000000000E-01     -1.759453000000000E+02      3.280334000000000E-01     -1.436719000000000E+02
5020000000.000000      1.309433000000000E-01      1.739063000000000E+02      4.595642000000000E-01     -1.495156000000000E+02
5040000000.000000      1.006470000000000E-01      1.636406000000000E+02      5.678101000000000E-01     -1.602890000000000E+02
5060000000.000000      7.220459000000000E-02      1.490000000000000E+02      6.504822000000000E-01     -1.717969000000000E+02
5080000000.000000      4.236412000000000E-02      1.234727000000000E+02      7.175293000000000E-01      1.760469000000000E+02
5100000000.000000      1.684380000000000E-02      4.495703000000000E+01      7.564697000000000E-01      1.623594000000000E+02
5120000000.000000      4.071999000000000E-02     -5.057031000000000E+01      7.550049000000000E-01      1.481875000000000E+02
5140000000.000000      7.229614000000000E-02     -8.721483000000000E+01      7.051697000000000E-01      1.344766000000000E+02
5160000000.000000      9.615326000000000E-02     -1.184648000000000E+02      6.298828000000000E-01      1.220976000000000E+02
5180000000.000000      1.093063000000000E-01     -1.490859000000000E+02      5.350952000000000E-01      1.108242000000000E+02
5200000000.000000      1.127777000000000E-01      1.784453000000000E+02      4.179993000000000E-01      1.011875000000000E+02
5220000000.000000      1.096382000000000E-01      1.421719000000000E+02      2.852325000000000E-01      9.812109000000000E+01
5240000000.000000      1.091042000000000E-01      1.061250000000000E+02      1.844177000000000E-01      1.147031000000000E+02
5260000000.000000      1.136894000000000E-01      7.283203000000000E+01      1.950455000000000E-01      1.488828000000000E+02
5280000000.000000      1.204185000000000E-01      4.618750000000000E+01      2.948608000000000E-01      1.606875000000000E+02
5300000000.000000      1.274109000000000E-01      2.547266000000000E+01      4.082947000000000E-01      1.582344000000000E+02
5320000000.000000      1.331940000000000E-01      8.764160000000000E+00      5.266724000000000E-01      1.507031000000000E+02
5340000000.000000      1.388168000000000E-01     -5.512451000000000E+00      6.360474000000000E-01      1.387578000000000E+02
5360000000.000000      1.435699000000000E-01     -2.107226000000000E+01      7.049866000000000E-01      1.240742000000000E+02
5380000000.000000      1.387482000000000E-01     -3.837891000000000E+01      7.157288000000000E-01      1.107891000000000E+02
5400000000.000000      1.202240000000000E-01     -5.664648000000000E+01      7.184753000000000E-01      9.930077000000000E+01
5420000000.000000      8.517075000000000E-02     -7.362890000000000E+01      7.075500000000000E-01      8.614843000000000E+01
5440000000.000000      3.144073000000000E-02     -7.908593000000000E+01      6.491089000000000E-01      7.174218000000000E+01
5460000000.000000      4.232788000000000E-02      3.920507000000000E+01      5.418701000000000E-01      5.857422000000000E+01
5480000000.000000      1.118202000000000E-01      3.134375000000000E+01      4.153137000000000E-01      4.917969000000000E+01
5500000000.000000      1.747742000000000E-01      1.589990000000000E+01      2.947845000000000E-01      4.716797000000000E+01
5520000000.000000      2.204208000000000E-01      9.242249000000000E-01      1.960907000000000E-01      5.858593000000000E+01
5540000000.000000      2.520599000000000E-01     -1.291748000000000E+01      1.800232000000000E-01      9.026171000000000E+01
5560000000.000000      2.706146000000000E-01     -2.495019000000000E+01      2.611237000000000E-01      1.086797000000000E+02
5580000000.000000      2.822418000000000E-01     -3.480078000000000E+01      3.825531000000000E-01      1.088242000000000E+02
5600000000.000000      2.940063000000000E-01     -4.370313000000000E+01      5.050354000000000E-01      9.979687000000000E+01
5620000000.000000      3.046875000000000E-01     -5.279882000000000E+01      5.958252000000000E-01      8.728125000000000E+01
5640000000.000000      3.083344000000000E-01     -6.263281000000000E+01      6.459961000000000E-01      7.536718000000000E+01
5660000000.000000      2.986603000000000E-01     -7.327734000000000E+01      6.855469000000000E-01      6.405078000000000E+01
5680000000.000000      2.693787000000000E-01     -8.365234000000000E+01      6.990967000000000E-01      5.125977000000000E+01
5700000000.000000      2.224808000000000E-01     -9.109766000000000E+01      6.835632000000000E-01      3.898438000000000E+01
5720000000.000000      1.716003000000000E-01     -9.010937000000000E+01      6.442871000000000E-01      2.613281000000000E+01
5740000000.000000      1.495819000000000E-01     -7.572266000000000E+01      5.660400000000000E-01      1.297168000000000E+01
5760000000.000000      1.776123000000000E-01     -6.377734000000000E+01      4.537506000000000E-01      1.242798000000000E+00
5780000000.000000      2.241821000000000E-01     -6.501171000000000E+01      3.186340000000000E-01     -3.997681000000000E+00
5800000000.000000      2.565765000000000E-01     -7.291797000000000E+01      2.092285000000000E-01      6.495605000000000E+00
5820000000.000000      2.667084000000000E-01     -8.230469000000000E+01      1.888885000000000E-01      3.698047000000000E+01
5840000000.000000      2.569885000000000E-01     -9.085938000000000E+01      2.699280000000000E-01      5.386132000000000E+01
5860000000.000000      2.391586000000000E-01     -9.654297000000000E+01      3.698273000000000E-01      5.420703000000000E+01
5880000000.000000      2.243652000000000E-01     -9.962500000000000E+01      4.762421000000000E-01      4.878124000000000E+01
5900000000.000000      2.162323000000000E-01     -1.022187000000000E+02      5.937500000000000E-01      3.849609000000000E+01
5920000000.000000      2.093201000000000E-01     -1.050586000000000E+02      6.708679000000000E-01      2.465429000000000E+01
5940000000.000000      1.949463000000000E-01     -1.070547000000000E+02      7.024841000000000E-01      1.156445000000000E+01
5960000000.000000      1.780548000000000E-01     -1.054805000000000E+02      7.153625000000000E-01     -1.297791000000000E+00
5980000000.000000      1.658554000000000E-01     -9.771484000000000E+01      6.923218000000000E-01     -1.522314000000000E+01
6000000000.000000      1.807480000000000E-01     -8.843359000000000E+01      6.289673000000000E-01     -2.881250000000000E+01
6020000000.000000      2.156982000000000E-01     -8.639063000000000E+01      5.327759000000000E-01     -4.154492000000000E+01
6040000000.000000      2.511902000000000E-01     -9.165625000000000E+01      4.027557000000000E-01     -4.989648000000000E+01
6060000000.000000      2.753754000000000E-01     -1.007265000000000E+02      2.876129000000000E-01     -4.981640000000000E+01
6080000000.000000      2.857666000000000E-01     -1.109727000000000E+02      2.063446000000000E-01     -3.641992000000000E+01
