! Network Analyzer HP8722D
! Hewlett-Packard
! Data name: Linha & Wilkinson+CNT
! Saver's name: Rodrigo Anjos
! Comments: Teste da utilização de aquisição
continua pelo VNA HP8722D
! Time and date: 29/9/2025 14:46
!              Frequency                     S11                                                   S21                                                   S12                                                   S22
# HZ  S  MA R 50
3000000000.000000      4.244843000000000E-01     -5.588476000000000E+01      2.084198000000000E-01     -1.315547000000000E+02
3020000000.000000      4.490051000000000E-01     -6.997265000000000E+01      3.513489000000000E-01     -1.350703000000000E+02
3040000000.000000      4.528503000000000E-01     -8.289063000000000E+01      4.686279000000000E-01     -1.450469000000000E+02
3060000000.000000      4.446106000000000E-01     -9.499609000000000E+01      5.730896000000000E-01     -1.553672000000000E+02
3080000000.000000      4.289703000000000E-01     -1.062695000000000E+02      6.729126000000000E-01     -1.684297000000000E+02
3100000000.000000      4.084778000000000E-01     -1.174141000000000E+02      7.248230000000000E-01      1.767891000000000E+02
3120000000.000000      3.796539000000000E-01     -1.295312000000000E+02      7.315369000000000E-01      1.633750000000000E+02
3140000000.000000      3.381958000000000E-01     -1.424531000000000E+02      7.241821000000000E-01      1.503125000000000E+02
3160000000.000000      2.781219000000000E-01     -1.564687000000000E+02      6.836853000000000E-01      1.369766000000000E+02
3180000000.000000      1.988449000000000E-01     -1.691484000000000E+02      6.134338000000000E-01      1.243711000000000E+02
3200000000.000000      1.107483000000000E-01     -1.696172000000000E+02      5.172424000000000E-01      1.115273000000000E+02
3220000000.000000      7.983398000000000E-02     -1.238437000000000E+02      3.845367000000000E-01      1.008281000000000E+02
3240000000.000000      1.509705000000000E-01     -1.049531000000000E+02      2.457504000000000E-01      9.956249000000000E+01
3260000000.000000      2.304077000000000E-01     -1.151953000000000E+02      1.470642000000000E-01      1.257031000000000E+02
3280000000.000000      2.881012000000000E-01     -1.309219000000000E+02      2.041092000000000E-01      1.653984000000000E+02
3300000000.000000      3.202667000000000E-01     -1.472656000000000E+02      3.313751000000000E-01      1.695781000000000E+02
3320000000.000000      3.319550000000000E-01     -1.632187000000000E+02      4.637146000000000E-01      1.624375000000000E+02
3340000000.000000      3.280334000000000E-01     -1.785781000000000E+02      5.755005000000000E-01      1.505312000000000E+02
3360000000.000000      3.166046000000000E-01      1.667266000000000E+02      6.472168000000000E-01      1.382422000000000E+02
3380000000.000000      3.003235000000000E-01      1.524375000000000E+02      7.087097000000000E-01      1.269414000000000E+02
3400000000.000000      2.781067000000000E-01      1.376562000000000E+02      7.570190000000000E-01      1.131016000000000E+02
3420000000.000000      2.428131000000000E-01      1.227031000000000E+02      7.492676000000000E-01      9.843750000000000E+01
3440000000.000000      1.898651000000000E-01      1.080117000000000E+02      7.064209000000000E-01      8.548046000000000E+01
3460000000.000000      1.193810000000000E-01      9.726171000000000E+01      6.457214000000000E-01      7.234765000000000E+01
3480000000.000000      4.763222000000000E-02      1.217695000000000E+02      5.491333000000000E-01      5.895898000000000E+01
3500000000.000000      9.319687000000000E-02     -1.741172000000000E+02      4.237213000000000E-01      4.771484000000000E+01
3520000000.000000      1.843338000000000E-01      1.789609000000000E+02      2.770233000000000E-01      4.050781000000000E+01
3540000000.000000      2.631989000000000E-01      1.627344000000000E+02      1.468582000000000E-01      5.873437000000000E+01
3560000000.000000      3.234253000000000E-01      1.457266000000000E+02      1.676102000000000E-01      1.080078000000000E+02
3580000000.000000      3.601074000000000E-01      1.296719000000000E+02      2.952271000000000E-01      1.174883000000000E+02
3600000000.000000      3.762817000000000E-01      1.151289000000000E+02      4.203644000000000E-01      1.104805000000000E+02
3620000000.000000      3.784943000000000E-01      1.025391000000000E+02      5.212097000000000E-01      1.011836000000000E+02
3640000000.000000      3.687439000000000E-01      9.121094000000000E+01      6.218567000000000E-01      8.996094000000000E+01
3660000000.000000      3.521423000000000E-01      8.110937000000000E+01      6.913757000000000E-01      7.572656000000000E+01
3680000000.000000      3.296204000000000E-01      7.180469000000000E+01      7.108459000000000E-01      6.255664000000000E+01
3700000000.000000      2.987823000000000E-01      6.362695000000000E+01      7.203369000000000E-01      5.097851000000000E+01
3720000000.000000      2.546692000000000E-01      5.757617000000000E+01      7.232361000000000E-01      3.664063000000000E+01
3740000000.000000      2.042389000000000E-01      5.853320000000000E+01      6.621704000000000E-01      2.122265000000000E+01
3760000000.000000      1.777725000000000E-01      7.259766000000000E+01      5.658875000000000E-01      7.080566000000000E+00
3780000000.000000      2.120056000000000E-01      8.753515000000000E+01      4.344788000000000E-01     -6.300781000000000E+00
3800000000.000000      2.822876000000000E-01      8.901171000000000E+01      2.809753000000000E-01     -1.344629000000000E+01
3820000000.000000      3.502197000000000E-01      8.260157000000000E+01      1.530151000000000E-01     -1.002502000000000E-01
3840000000.000000      4.006805000000000E-01      7.382030000000000E+01      1.433411000000000E-01      4.804688000000000E+01
3860000000.000000      4.355316000000000E-01      6.528125000000000E+01      2.471542000000000E-01      6.534374000000000E+01
3880000000.000000      4.608307000000000E-01      5.776172000000000E+01      3.769073000000000E-01      6.112109000000000E+01
3900000000.000000      4.898987000000000E-01      5.068554000000000E+01      4.772949000000000E-01      4.765038000000000E+01
3920000000.000000      5.214539000000000E-01      4.299609000000000E+01      5.094299000000000E-01      3.581250000000000E+01
3940000000.000000      5.493164000000000E-01      3.413086000000000E+01      5.401611000000000E-01      2.953906000000000E+01
3960000000.000000      5.603027000000000E-01      2.402929000000000E+01      5.943909000000000E-01      2.001269000000000E+01
3980000000.000000      5.535278000000000E-01      1.347852000000000E+01      5.965271000000000E-01      8.205078000000000E+00
4000000000.000000      5.278625000000000E-01      3.041748000000000E+00      5.791321000000000E-01      1.318359000000000E+00
4020000000.000000      4.837341000000000E-01     -6.832275000000000E+00      5.974426000000000E-01     -6.580811000000000E+00
4040000000.000000      4.251556000000000E-01     -1.569434000000000E+01      5.847473000000000E-01     -1.879395000000000E+01
4060000000.000000      3.488007000000000E-01     -2.183398000000000E+01      5.278931000000000E-01     -2.894433000000000E+01
4080000000.000000      2.740021000000000E-01     -2.184570000000000E+01      4.687195000000000E-01     -3.824609000000000E+01
4100000000.000000      2.279587000000000E-01     -1.118018000000000E+01      3.655701000000000E-01     -4.732812000000000E+01
4120000000.000000      2.425308000000000E-01      1.925354000000000E+00      2.490692000000000E-01     -4.399219000000000E+01
4140000000.000000      2.899628000000000E-01      5.137451000000000E+00      2.029190000000000E-01     -1.969922000000000E+01
4160000000.000000      3.342896000000000E-01      9.915161000000000E-01      2.644196000000000E-01     -2.059937000000000E-02
4180000000.000000      3.614655000000000E-01     -5.943604000000000E+00      3.582916000000000E-01      3.970093000000000E+00
4200000000.000000      3.713074000000000E-01     -1.366699000000000E+01      4.885559000000000E-01      1.330688000000000E+00
4220000000.000000      3.670044000000000E-01     -2.089062000000000E+01      6.431274000000000E-01     -1.119531000000000E+01
4240000000.000000      3.481445000000000E-01     -2.833984000000000E+01      7.216187000000000E-01     -2.785058000000000E+01
4260000000.000000      3.096924000000000E-01     -3.409375000000000E+01      7.436218000000000E-01     -4.205664000000000E+01
4280000000.000000      2.593384000000000E-01     -3.539844000000000E+01      7.521057000000000E-01     -5.586914000000000E+01
4300000000.000000      2.222443000000000E-01     -2.716113000000000E+01      7.144470000000000E-01     -7.083593000000000E+01
4320000000.000000      2.358704000000000E-01     -1.443604000000000E+01      6.311340000000000E-01     -8.519922000000000E+01
4340000000.000000      2.943268000000000E-01     -1.052393000000000E+01      5.154724000000000E-01     -9.799217000000000E+01
4360000000.000000      3.593445000000000E-01     -1.567627000000000E+01      3.804474000000000E-01     -1.069687000000000E+02
4380000000.000000      4.057007000000000E-01     -2.463183000000000E+01      2.489166000000000E-01     -1.079766000000000E+02
4400000000.000000      4.264679000000000E-01     -3.452734000000000E+01      1.532135000000000E-01     -8.468750000000000E+01
4420000000.000000      4.248810000000000E-01     -4.393359000000000E+01      1.886978000000000E-01     -4.546288000000000E+01
4440000000.000000      4.076233000000000E-01     -5.201757000000000E+01      3.117065000000000E-01     -3.611133000000000E+01
4460000000.000000      3.886414000000000E-01     -5.864258000000000E+01      4.533234000000000E-01     -4.338281000000000E+01
4480000000.000000      3.673859000000000E-01     -6.476563000000000E+01      5.612183000000000E-01     -5.536133000000000E+01
4500000000.000000      3.460999000000000E-01     -7.173828000000000E+01      6.429443000000000E-01     -6.698437000000000E+01
4520000000.000000      3.132324000000000E-01     -7.933594000000000E+01      7.163086000000000E-01     -7.998047000000000E+01
4540000000.000000      2.614441000000000E-01     -8.552343000000000E+01      7.422180000000000E-01     -9.456640000000000E+01
4560000000.000000      2.010040000000000E-01     -8.379297000000000E+01      7.288513000000000E-01     -1.076836000000000E+02
4580000000.000000      1.742172000000000E-01     -6.767187000000000E+01      6.902771000000000E-01     -1.215312000000000E+02
4600000000.000000      2.124939000000000E-01     -5.368359000000000E+01      6.045532000000000E-01     -1.346406000000000E+02
4620000000.000000      2.774658000000000E-01     -5.527734000000000E+01      4.971313000000000E-01     -1.451172000000000E+02
4640000000.000000      3.307648000000000E-01     -6.523046000000000E+01      3.784180000000000E-01     -1.535391000000000E+02
4660000000.000000      3.540649000000000E-01     -7.847656000000000E+01      2.454071000000000E-01     -1.516484000000000E+02
4680000000.000000      3.459625000000000E-01     -9.246874000000000E+01      1.791840000000000E-01     -1.232109000000000E+02
4700000000.000000      3.084717000000000E-01     -1.056758000000000E+02      2.487869000000000E-01     -9.656250000000000E+01
4720000000.000000      2.527618000000000E-01     -1.161797000000000E+02      3.674164000000000E-01     -9.549608000000000E+01
4740000000.000000      1.906128000000000E-01     -1.214101000000000E+02      4.750366000000000E-01     -1.017383000000000E+02
4760000000.000000      1.387405000000000E-01     -1.175195000000000E+02      5.813904000000000E-01     -1.107070000000000E+02
4780000000.000000      1.123924000000000E-01     -1.015820000000000E+02      6.672363000000000E-01     -1.230664000000000E+02
4800000000.000000      1.176682000000000E-01     -8.342577000000000E+01      7.182312000000000E-01     -1.356953000000000E+02
4820000000.000000      1.471786000000000E-01     -7.400391000000000E+01      7.359924000000000E-01     -1.490313000000000E+02
4840000000.000000      1.878357000000000E-01     -7.373437000000000E+01      7.185364000000000E-01     -1.618359000000000E+02
4860000000.000000      2.314301000000000E-01     -8.033983000000000E+01      6.830750000000000E-01     -1.744297000000000E+02
4880000000.000000      2.684784000000000E-01     -9.078516000000000E+01      6.150818000000000E-01      1.717578000000000E+02
4900000000.000000      2.938690000000000E-01     -1.043164000000000E+02      4.946442000000000E-01      1.597344000000000E+02
4920000000.000000      2.999268000000000E-01     -1.194297000000000E+02      3.655853000000000E-01      1.535000000000000E+02
4940000000.000000      2.845001000000000E-01     -1.351484000000000E+02      2.508240000000000E-01      1.559844000000000E+02
4960000000.000000      2.539063000000000E-01     -1.503203000000000E+02      1.768036000000000E-01      1.777578000000000E+02
4980000000.000000      2.119293000000000E-01     -1.643281000000000E+02      2.151413000000000E-01     -1.509922000000000E+02
5000000000.000000      1.676025000000000E-01     -1.760781000000000E+02      3.310852000000000E-01     -1.436484000000000E+02
5020000000.000000      1.300812000000000E-01      1.738437000000000E+02      4.622803000000000E-01     -1.496953000000000E+02
5040000000.000000      9.934235000000000E-02      1.636328000000000E+02      5.693665000000000E-01     -1.604922000000000E+02
5060000000.000000      7.154465000000000E-02      1.487969000000000E+02      6.504211000000000E-01     -1.718828000000000E+02
5080000000.000000      4.112434000000000E-02      1.225664000000000E+02      7.184143000000000E-01      1.758281000000000E+02
5100000000.000000      1.657772000000000E-02      4.091601000000000E+01      7.563171000000000E-01      1.621484000000000E+02
5120000000.000000      4.111099000000000E-02     -5.168554000000000E+01      7.535706000000000E-01      1.478437000000000E+02
5140000000.000000      7.260895000000000E-02     -8.806250000000000E+01      7.043457000000000E-01      1.342266000000000E+02
5160000000.000000      9.616089000000000E-02     -1.190703000000000E+02      6.286926000000000E-01      1.219297000000000E+02
5180000000.000000      1.100769000000000E-01     -1.497969000000000E+02      5.328979000000000E-01      1.107461000000000E+02
5200000000.000000      1.125717000000000E-01      1.774688000000000E+02      4.141998000000000E-01      1.009219000000000E+02
5220000000.000000      1.094246000000000E-01      1.418125000000000E+02      2.817078000000000E-01      9.826952000000000E+01
5240000000.000000      1.091003000000000E-01      1.053594000000000E+02      1.832962000000000E-01      1.155703000000000E+02
5260000000.000000      1.133270000000000E-01      7.225780000000000E+01      1.973267000000000E-01      1.496406000000000E+02
5280000000.000000      1.205406000000000E-01      4.557813000000000E+01      2.976532000000000E-01      1.607109000000000E+02
5300000000.000000      1.276398000000000E-01      2.482324000000000E+01      4.109497000000000E-01      1.580391000000000E+02
5320000000.000000      1.337051000000000E-01      8.563477000000000E+00      5.293884000000000E-01      1.504453000000000E+02
5340000000.000000      1.393585000000000E-01     -5.837891000000000E+00      6.395874000000000E-01      1.383437000000000E+02
5360000000.000000      1.433334000000000E-01     -2.151953000000000E+01      7.062683000000000E-01      1.239375000000000E+02
5380000000.000000      1.384430000000000E-01     -3.895117000000000E+01      7.160950000000000E-01      1.106172000000000E+02
5400000000.000000      1.196060000000000E-01     -5.708789000000000E+01      7.184448000000000E-01      9.901953000000000E+01
5420000000.000000      8.425140000000000E-02     -7.398046000000000E+01      7.057800000000000E-01      8.572657000000000E+01
5440000000.000000      2.964115000000000E-02     -7.778515000000000E+01      6.465454000000000E-01      7.140234000000000E+01
5460000000.000000      4.393959000000000E-02      3.874609000000000E+01      5.395508000000000E-01      5.849609000000000E+01
5480000000.000000      1.138191000000000E-01      3.073633000000000E+01      4.107513000000000E-01      4.933398000000000E+01
5500000000.000000      1.757355000000000E-01      1.548486000000000E+01      2.910614000000000E-01      4.730273000000000E+01
5520000000.000000      2.210999000000000E-01      4.545593000000000E-01      1.949234000000000E-01      5.934960000000000E+01
5540000000.000000      2.520752000000000E-01     -1.326465000000000E+01      1.815567000000000E-01      9.110546000000000E+01
5560000000.000000      2.705078000000000E-01     -2.523633000000000E+01      2.641144000000000E-01      1.087773000000000E+02
5580000000.000000      2.826080000000000E-01     -3.501367000000000E+01      3.859406000000000E-01      1.085039000000000E+02
5600000000.000000      2.939453000000000E-01     -4.397265000000000E+01      5.078735000000000E-01      9.955078000000000E+01
5620000000.000000      3.041534000000000E-01     -5.307812000000000E+01      5.965271000000000E-01      8.675390000000000E+01
5640000000.000000      3.075562000000000E-01     -6.277538000000000E+01      6.459351000000000E-01      7.517187000000000E+01
5660000000.000000      2.974854000000000E-01     -7.359765000000000E+01      6.846619000000000E-01      6.357812000000000E+01
5680000000.000000      2.679901000000000E-01     -8.384375000000000E+01      6.987610000000000E-01      5.107812000000000E+01
5700000000.000000      2.208099000000000E-01     -9.105469000000000E+01      6.826782000000000E-01      3.866601000000000E+01
5720000000.000000      1.702652000000000E-01     -8.953516000000000E+01      6.423950000000000E-01      2.588769000000000E+01
5740000000.000000      1.497421000000000E-01     -7.512890000000000E+01      5.665588000000000E-01      1.267529000000000E+01
5760000000.000000      1.789551000000000E-01     -6.355078000000000E+01      4.483490000000000E-01      1.256531000000000E+00
5780000000.000000      2.250443000000000E-01     -6.528515000000000E+01      3.151093000000000E-01     -3.834229000000000E+00
5800000000.000000      2.570190000000000E-01     -7.299999000000000E+01      2.073822000000000E-01      7.250977000000000E+00
5820000000.000000      2.671356000000000E-01     -8.267578000000000E+01      1.899109000000000E-01      3.787109000000000E+01
5840000000.000000      2.569122000000000E-01     -9.096094000000000E+01      2.720337000000000E-01      5.405468000000000E+01
5860000000.000000      2.384109000000000E-01     -9.669922000000000E+01      3.731689000000000E-01      5.396874000000000E+01
5880000000.000000      2.236252000000000E-01     -9.978905000000000E+01      4.798279000000000E-01      4.857616000000000E+01
5900000000.000000      2.158585000000000E-01     -1.022852000000000E+02      5.962524000000000E-01      3.837109000000000E+01
5920000000.000000      2.085953000000000E-01     -1.051563000000000E+02      6.721191000000000E-01      2.432324000000000E+01
5940000000.000000      1.948853000000000E-01     -1.071250000000000E+02      7.030334000000000E-01      1.112207000000000E+01
5960000000.000000      1.772003000000000E-01     -1.051289000000000E+02      7.135620000000000E-01     -1.521606000000000E+00
5980000000.000000      1.659698000000000E-01     -9.754686000000000E+01      6.894226000000000E-01     -1.561035000000000E+01
6000000000.000000      1.820908000000000E-01     -8.821484000000000E+01      6.265259000000000E-01     -2.920605000000000E+01
6020000000.000000      2.163086000000000E-01     -8.644140000000000E+01      5.273438000000000E-01     -4.171288000000000E+01
6040000000.000000      2.516785000000000E-01     -9.182421000000000E+01      3.986511000000000E-01     -4.991796000000000E+01
6060000000.000000      2.750244000000000E-01     -1.009180000000000E+02      2.843933000000000E-01     -4.962695000000000E+01
6080000000.000000      2.849579000000000E-01     -1.111250000000000E+02      2.052383000000000E-01     -3.559570000000000E+01
