! Network Analyzer HP8722D
! Hewlett-Packard
! Data name: Linha & Wilkinson+CNT
! Saver's name: Rodrigo Anjos
! Comments: Teste da utilização de aquisição
continua pelo VNA HP8722D
! Time and date: 29/9/2025 17:37
!              Frequency                     S11                                                   S21                                                   S12                                                   S22
# HZ  S  MA R 50
3000000000.000000      4.245453000000000E-01     -5.601953000000000E+01      2.112732000000000E-01     -1.312578000000000E+02
3020000000.000000      4.476013000000000E-01     -7.017578000000000E+01      3.549194000000000E-01     -1.352422000000000E+02
3040000000.000000      4.521179000000000E-01     -8.296093000000000E+01      4.711609000000000E-01     -1.453125000000000E+02
3060000000.000000      4.443512000000000E-01     -9.505859000000000E+01      5.741272000000000E-01     -1.555781000000000E+02
3080000000.000000      4.284210000000000E-01     -1.063047000000000E+02      6.743164000000000E-01     -1.686328000000000E+02
3100000000.000000      4.082642000000000E-01     -1.175000000000000E+02      7.254944000000000E-01      1.763906000000000E+02
3120000000.000000      3.786926000000000E-01     -1.294766000000000E+02      7.334290000000000E-01      1.631719000000000E+02
3140000000.000000      3.368835000000000E-01     -1.424531000000000E+02      7.232056000000000E-01      1.501484000000000E+02
3160000000.000000      2.765198000000000E-01     -1.565625000000000E+02      6.825867000000000E-01      1.366953000000000E+02
3180000000.000000      1.959000000000000E-01     -1.689844000000000E+02      6.113586000000000E-01      1.241875000000000E+02
3200000000.000000      1.089783000000000E-01     -1.687578000000000E+02      5.160828000000000E-01      1.114609000000000E+02
3220000000.000000      8.100128000000000E-02     -1.225312000000000E+02      3.810577000000000E-01      1.009883000000000E+02
3240000000.000000      1.532898000000000E-01     -1.050391000000000E+02      2.435226000000000E-01      9.991014000000000E+01
3260000000.000000      2.315140000000000E-01     -1.156016000000000E+02      1.470108000000000E-01      1.273047000000000E+02
3280000000.000000      2.886047000000000E-01     -1.312500000000000E+02      2.080154000000000E-01      1.656797000000000E+02
3300000000.000000      3.207855000000000E-01     -1.475312000000000E+02      3.342896000000000E-01      1.693828000000000E+02
3320000000.000000      3.314667000000000E-01     -1.633125000000000E+02      4.670410000000000E-01      1.621172000000000E+02
3340000000.000000      3.276672000000000E-01     -1.787891000000000E+02      5.773926000000000E-01      1.499766000000000E+02
3360000000.000000      3.159027000000000E-01      1.665234000000000E+02      6.482544000000000E-01      1.379297000000000E+02
3380000000.000000      2.996216000000000E-01      1.522500000000000E+02      7.114868000000000E-01      1.265273000000000E+02
3400000000.000000      2.772980000000000E-01      1.375234000000000E+02      7.583008000000000E-01      1.127891000000000E+02
3420000000.000000      2.420731000000000E-01      1.226875000000000E+02      7.476807000000000E-01      9.792578000000000E+01
3440000000.000000      1.880569000000000E-01      1.078945000000000E+02      7.019958000000000E-01      8.505468000000000E+01
3460000000.000000      1.174774000000000E-01      9.791016000000000E+01      6.430664000000000E-01      7.205468000000000E+01
3480000000.000000      4.777908000000000E-02      1.246055000000000E+02      5.459900000000000E-01      5.870117000000000E+01
3500000000.000000      9.538269000000000E-02     -1.743906000000000E+02      4.195557000000000E-01      4.758985000000000E+01
3520000000.000000      1.868439000000000E-01      1.782969000000000E+02      2.745209000000000E-01      4.082421000000000E+01
3540000000.000000      2.648926000000000E-01      1.621953000000000E+02      1.459198000000000E-01      5.986328000000000E+01
3560000000.000000      3.243256000000000E-01      1.453516000000000E+02      1.710052000000000E-01      1.084492000000000E+02
3580000000.000000      3.607178000000000E-01      1.292891000000000E+02      2.987823000000000E-01      1.173086000000000E+02
3600000000.000000      3.766174000000000E-01      1.148438000000000E+02      4.229584000000000E-01      1.103398000000000E+02
3620000000.000000      3.780060000000000E-01      1.023320000000000E+02      5.251770000000000E-01      1.006328000000000E+02
3640000000.000000      3.680115000000000E-01      9.108593000000000E+01      6.245117000000000E-01      8.956249000000000E+01
3660000000.000000      3.513336000000000E-01      8.096483000000000E+01      6.941833000000000E-01      7.540625000000000E+01
3680000000.000000      3.290405000000000E-01      7.185937000000000E+01      7.102661000000000E-01      6.225780000000000E+01
3700000000.000000      2.980042000000000E-01      6.357616000000000E+01      7.197266000000000E-01      5.065234000000000E+01
3720000000.000000      2.537842000000000E-01      5.765625000000000E+01      7.226563000000000E-01      3.636719000000000E+01
3740000000.000000      2.039185000000000E-01      5.884960000000000E+01      6.600647000000000E-01      2.106348000000000E+01
3760000000.000000      1.788635000000000E-01      7.321484000000000E+01      5.626526000000000E-01      6.705566000000000E+00
3780000000.000000      2.146072000000000E-01      8.779688000000000E+01      4.296265000000000E-01     -6.361084000000000E+00
3800000000.000000      2.851257000000000E-01      8.898438000000000E+01      2.770233000000000E-01     -1.306299000000000E+01
3820000000.000000      3.518829000000000E-01      8.240234000000000E+01      1.512527000000000E-01      1.384277000000000E+00
3840000000.000000      4.014587000000000E-01      7.367188000000000E+01      1.463623000000000E-01      4.891992000000000E+01
3860000000.000000      4.362488000000000E-01      6.517187000000000E+01      2.504883000000000E-01      6.537109000000000E+01
3880000000.000000      4.613037000000000E-01      5.774804000000000E+01      3.798218000000000E-01      6.068945000000000E+01
3900000000.000000      4.909515000000000E-01      5.064648000000000E+01      4.805603000000000E-01      4.732031000000000E+01
3920000000.000000      5.215149000000000E-01      4.300977000000000E+01      5.096130000000000E-01      3.552929000000000E+01
3940000000.000000      5.494995000000000E-01      3.386719000000000E+01      5.390930000000000E-01      2.929980000000000E+01
3960000000.000000      5.598450000000000E-01      2.384082000000000E+01      5.957336000000000E-01      1.986035000000000E+01
3980000000.000000      5.531006000000000E-01      1.336621000000000E+01      5.962830000000000E-01      8.014160000000000E+00
4000000000.000000      5.254211000000000E-01      2.942871000000000E+00      5.796814000000000E-01      1.104126000000000E+00
4020000000.000000      4.824677000000000E-01     -7.005371000000000E+00      5.967407000000000E-01     -6.815674000000000E+00
4040000000.000000      4.234161000000000E-01     -1.580957000000000E+01      5.837402000000000E-01     -1.910547000000000E+01
4060000000.000000      3.468323000000000E-01     -2.166016000000000E+01      5.267639000000000E-01     -2.925976000000000E+01
4080000000.000000      2.731323000000000E-01     -2.136719000000000E+01      4.652252000000000E-01     -3.836719000000000E+01
4100000000.000000      2.284698000000000E-01     -1.053223000000000E+01      3.618317000000000E-01     -4.731641000000000E+01
4120000000.000000      2.434616000000000E-01      2.279663000000000E+00      2.468719000000000E-01     -4.354688000000000E+01
4140000000.000000      2.917786000000000E-01      5.239014000000000E+00      2.044067000000000E-01     -1.882813000000000E+01
4160000000.000000      3.350372000000000E-01      9.585571000000000E-01      2.684479000000000E-01      1.702881000000000E-01
4180000000.000000      3.624878000000000E-01     -6.001465000000000E+00      3.613892000000000E-01      3.655640000000000E+00
4200000000.000000      3.716583000000000E-01     -1.371680000000000E+01      4.926758000000000E-01      9.750366000000000E-01
4220000000.000000      3.672028000000000E-01     -2.084570000000000E+01      6.457214000000000E-01     -1.162256000000000E+01
4240000000.000000      3.474426000000000E-01     -2.837305000000000E+01      7.229614000000000E-01     -2.825976000000000E+01
4260000000.000000      3.091125000000000E-01     -3.397070000000000E+01      7.433777000000000E-01     -4.232617000000000E+01
4280000000.000000      2.583466000000000E-01     -3.492578000000000E+01      7.497253000000000E-01     -5.620898000000000E+01
4300000000.000000      2.219925000000000E-01     -2.652832000000000E+01      7.107239000000000E-01     -7.120703000000000E+01
4320000000.000000      2.376175000000000E-01     -1.411377000000000E+01      6.274719000000000E-01     -8.554688000000000E+01
4340000000.000000      2.960663000000000E-01     -1.049072000000000E+01      5.111084000000000E-01     -9.812889000000000E+01
4360000000.000000      3.607483000000000E-01     -1.579590000000000E+01      3.758392000000000E-01     -1.069297000000000E+02
4380000000.000000      4.065247000000000E-01     -2.485742000000000E+01      2.454224000000000E-01     -1.074961000000000E+02
4400000000.000000      4.266510000000000E-01     -3.480078000000000E+01      1.532059000000000E-01     -8.319530000000000E+01
4420000000.000000      4.240265000000000E-01     -4.407031000000000E+01      1.921692000000000E-01     -4.491796000000000E+01
4440000000.000000      4.074402000000000E-01     -5.216991000000000E+01      3.153534000000000E-01     -3.637304000000000E+01
4460000000.000000      3.863525000000000E-01     -5.872460000000000E+01      4.575806000000000E-01     -4.375390000000000E+01
4480000000.000000      3.674927000000000E-01     -6.510937000000000E+01      5.652466000000000E-01     -5.584570000000000E+01
4500000000.000000      3.452759000000000E-01     -7.175781000000000E+01      6.444397000000000E-01     -6.725390000000000E+01
4520000000.000000      3.117065000000000E-01     -7.956640000000000E+01      7.165222000000000E-01     -8.033203000000000E+01
4540000000.000000      2.596130000000000E-01     -8.566797000000000E+01      7.427979000000000E-01     -9.483984000000000E+01
4560000000.000000      1.991501000000000E-01     -8.337109000000000E+01      7.266235000000000E-01     -1.081680000000000E+02
4580000000.000000      1.740723000000000E-01     -6.699219000000000E+01      6.875305000000000E-01     -1.218359000000000E+02
4600000000.000000      2.136993000000000E-01     -5.345312000000000E+01      6.016235000000000E-01     -1.350156000000000E+02
4620000000.000000      2.782440000000000E-01     -5.535351000000000E+01      4.938049000000000E-01     -1.453594000000000E+02
4640000000.000000      3.309479000000000E-01     -6.533203000000000E+01      3.740692000000000E-01     -1.534375000000000E+02
4660000000.000000      3.532104000000000E-01     -7.862890000000000E+01      2.425919000000000E-01     -1.509922000000000E+02
4680000000.000000      3.438416000000000E-01     -9.265625000000000E+01      1.805954000000000E-01     -1.218711000000000E+02
4700000000.000000      3.056793000000000E-01     -1.056914000000000E+02      2.533417000000000E-01     -9.630468000000000E+01
4720000000.000000      2.496796000000000E-01     -1.160898000000000E+02      3.723602000000000E-01     -9.578125000000000E+01
4740000000.000000      1.878204000000000E-01     -1.208672000000000E+02      4.777222000000000E-01     -1.021680000000000E+02
4760000000.000000      1.368256000000000E-01     -1.163437000000000E+02      5.829163000000000E-01     -1.110273000000000E+02
4780000000.000000      1.120491000000000E-01     -1.001523000000000E+02      6.693420000000000E-01     -1.233437000000000E+02
4800000000.000000      1.195679000000000E-01     -8.262890000000000E+01      7.170105000000000E-01     -1.363359000000000E+02
4820000000.000000      1.488190000000000E-01     -7.370703000000000E+01      7.359314000000000E-01     -1.495937000000000E+02
4840000000.000000      1.895065000000000E-01     -7.366796000000000E+01      7.168884000000000E-01     -1.622656000000000E+02
4860000000.000000      2.335358000000000E-01     -8.040234000000000E+01      6.801147000000000E-01     -1.747187000000000E+02
4880000000.000000      2.696991000000000E-01     -9.106640000000000E+01      6.109009000000000E-01      1.714609000000000E+02
4900000000.000000      2.948456000000000E-01     -1.045781000000000E+02      4.919739000000000E-01      1.593047000000000E+02
4920000000.000000      2.998352000000000E-01     -1.198125000000000E+02      3.599548000000000E-01      1.534844000000000E+02
4940000000.000000      2.846375000000000E-01     -1.354141000000000E+02      2.477570000000000E-01      1.566015000000000E+02
4960000000.000000      2.525482000000000E-01     -1.504922000000000E+02      1.771774000000000E-01      1.789453000000000E+02
4980000000.000000      2.101440000000000E-01     -1.645313000000000E+02      2.190857000000000E-01     -1.506016000000000E+02
5000000000.000000      1.665268000000000E-01     -1.762422000000000E+02      3.360138000000000E-01     -1.437656000000000E+02
5020000000.000000      1.290359000000000E-01      1.739063000000000E+02      4.650269000000000E-01     -1.501172000000000E+02
5040000000.000000      9.859848000000000E-02      1.632422000000000E+02      5.722351000000000E-01     -1.610156000000000E+02
5060000000.000000      7.031631000000000E-02      1.486016000000000E+02      6.541138000000000E-01     -1.723047000000000E+02
5080000000.000000      3.950310000000000E-02      1.223516000000000E+02      7.193909000000000E-01      1.753515000000000E+02
5100000000.000000      1.615143000000000E-02      3.395508000000000E+01      7.547913000000000E-01      1.616562000000000E+02
5120000000.000000      4.227257000000000E-02     -5.349414000000000E+01      7.505493000000000E-01      1.475078000000000E+02
5140000000.000000      7.407761000000000E-02     -8.932421000000000E+01      7.006531000000000E-01      1.337969000000000E+02
5160000000.000000      9.739685000000000E-02     -1.201367000000000E+02      6.236877000000000E-01      1.215156000000000E+02
5180000000.000000      1.099091000000000E-01     -1.508125000000000E+02      5.265503000000000E-01      1.105039000000000E+02
5200000000.000000      1.123047000000000E-01      1.764297000000000E+02      4.110565000000000E-01      1.010547000000000E+02
5220000000.000000      1.099548000000000E-01      1.408203000000000E+02      2.777863000000000E-01      9.876953000000000E+01
5240000000.000000      1.086044000000000E-01      1.045430000000000E+02      1.822510000000000E-01      1.170117000000000E+02
5260000000.000000      1.131401000000000E-01      7.133203000000000E+01      2.009735000000000E-01      1.504219000000000E+02
5280000000.000000      1.204300000000000E-01      4.495313000000000E+01      3.023071000000000E-01      1.605703000000000E+02
5300000000.000000      1.275177000000000E-01      2.417187000000000E+01      4.151306000000000E-01      1.576094000000000E+02
5320000000.000000      1.337051000000000E-01      8.012695000000000E+00      5.318909000000000E-01      1.499219000000000E+02
5340000000.000000      1.395721000000000E-01     -6.344727000000000E+00      6.422119000000000E-01      1.380469000000000E+02
5360000000.000000      1.433640000000000E-01     -2.212695000000000E+01      7.086792000000000E-01      1.234023000000000E+02
5380000000.000000      1.384125000000000E-01     -3.961719000000000E+01      7.159119000000000E-01      1.101563000000000E+02
5400000000.000000      1.186371000000000E-01     -5.792382000000000E+01      7.174377000000000E-01      9.853905000000000E+01
5420000000.000000      8.241272000000000E-02     -7.471093000000000E+01      7.019348000000000E-01      8.553905000000000E+01
5440000000.000000      2.821350000000000E-02     -7.714062000000000E+01      6.431274000000000E-01      7.112890000000000E+01
5460000000.000000      4.503441000000000E-02      3.838476000000000E+01      5.337830000000000E-01      5.816601000000000E+01
5480000000.000000      1.154900000000000E-01      3.017871000000000E+01      4.058228000000000E-01      4.916797000000000E+01
5500000000.000000      1.770630000000000E-01      1.492041000000000E+01      2.876282000000000E-01      4.770898000000000E+01
5520000000.000000      2.218170000000000E-01      8.239746000000000E-03      1.930466000000000E-01      6.059179000000000E+01
5540000000.000000      2.512970000000000E-01     -1.368896000000000E+01      1.846924000000000E-01      9.212109000000000E+01
5560000000.000000      2.703247000000000E-01     -2.545019000000000E+01      2.684937000000000E-01      1.088477000000000E+02
5580000000.000000      2.822876000000000E-01     -3.539453000000000E+01      3.901978000000000E-01      1.081875000000000E+02
5600000000.000000      2.940369000000000E-01     -4.429492000000000E+01      5.116882000000000E-01      9.918749000000000E+01
5620000000.000000      3.044128000000000E-01     -5.341015000000000E+01      5.986633000000000E-01      8.667969000000000E+01
5640000000.000000      3.071289000000000E-01     -6.315820000000000E+01      6.491089000000000E-01      7.468359000000000E+01
5660000000.000000      2.968903000000000E-01     -7.386719000000000E+01      6.858521000000000E-01      6.342382000000000E+01
5680000000.000000      2.657776000000000E-01     -8.403124000000000E+01      6.990967000000000E-01      5.057812000000000E+01
5700000000.000000      2.183914000000000E-01     -9.096874000000000E+01      6.814270000000000E-01      3.828711000000000E+01
5720000000.000000      1.680298000000000E-01     -8.905468000000000E+01      6.390381000000000E-01      2.555273000000000E+01
5740000000.000000      1.502914000000000E-01     -7.430859000000000E+01      5.602112000000000E-01      1.241846000000000E+01
5760000000.000000      1.803970000000000E-01     -6.351953000000000E+01      4.428864000000000E-01      8.267212000000000E-01
5780000000.000000      2.267685000000000E-01     -6.545703000000000E+01      3.108063000000000E-01     -3.624146000000000E+00
5800000000.000000      2.578278000000000E-01     -7.359375000000000E+01      2.056503000000000E-01      8.419434000000000E+00
5820000000.000000      2.671204000000000E-01     -8.290625000000000E+01      1.929245000000000E-01      3.907422000000000E+01
5840000000.000000      2.565155000000000E-01     -9.116405000000000E+01      2.772980000000000E-01      5.412109000000000E+01
5860000000.000000      2.380219000000000E-01     -9.648046000000000E+01      3.778687000000000E-01      5.369726000000000E+01
5880000000.000000      2.230759000000000E-01     -9.998047000000000E+01      4.830322000000000E-01      4.808398000000000E+01
5900000000.000000      2.153168000000000E-01     -1.021992000000000E+02      5.982971000000000E-01      3.776758000000000E+01
5920000000.000000      2.072601000000000E-01     -1.051133000000000E+02      6.725159000000000E-01      2.385937000000000E+01
5940000000.000000      1.928940000000000E-01     -1.069102000000000E+02      7.015381000000000E-01      1.063037000000000E+01
5960000000.000000      1.758499000000000E-01     -1.046562000000000E+02      7.142029000000000E-01     -2.057251000000000E+00
5980000000.000000      1.658478000000000E-01     -9.660936000000000E+01      6.880493000000000E-01     -1.602930000000000E+01
6000000000.000000      1.831284000000000E-01     -8.771875000000000E+01      6.227722000000000E-01     -2.946484000000000E+01
6020000000.000000      2.182846000000000E-01     -8.645311000000000E+01      5.223389000000000E-01     -4.193359000000000E+01
6040000000.000000      2.530365000000000E-01     -9.180468000000000E+01      3.933258000000000E-01     -4.996484000000000E+01
6060000000.000000      2.759247000000000E-01     -1.010117000000000E+02      2.803497000000000E-01     -4.923437000000000E+01
6080000000.000000      2.849426000000000E-01     -1.113867000000000E+02      2.038193000000000E-01     -3.442773000000000E+01
