! Network Analyzer HP8722D
! Hewlett-Packard
! Data name: Linha & Wilkinson+CNT
! Saver's name: Rodrigo Anjos
! Comments: Teste da utilização de aquisição
continua pelo VNA HP8722D
! Time and date: 29/9/2025 14:25
!              Frequency                     S11                                                   S21                                                   S12                                                   S22
# HZ  S  MA R 50
3000000000.000000      4.241638000000000E-01     -5.567187000000000E+01      2.063904000000000E-01     -1.316250000000000E+02
3020000000.000000      4.484100000000000E-01     -6.995312000000000E+01      3.489685000000000E-01     -1.347969000000000E+02
3040000000.000000      4.536896000000000E-01     -8.283594000000000E+01      4.687195000000000E-01     -1.448828000000000E+02
3060000000.000000      4.448700000000000E-01     -9.487108000000000E+01      5.710754000000000E-01     -1.551641000000000E+02
3080000000.000000      4.294739000000000E-01     -1.061797000000000E+02      6.730652000000000E-01     -1.683516000000000E+02
3100000000.000000      4.089813000000000E-01     -1.173867000000000E+02      7.238770000000000E-01      1.769063000000000E+02
3120000000.000000      3.798218000000000E-01     -1.294062000000000E+02      7.327271000000000E-01      1.634844000000000E+02
3140000000.000000      3.388977000000000E-01     -1.422500000000000E+02      7.242737000000000E-01      1.507500000000000E+02
3160000000.000000      2.790833000000000E-01     -1.563750000000000E+02      6.848755000000000E-01      1.370078000000000E+02
3180000000.000000      1.996689000000000E-01     -1.690938000000000E+02      6.145325000000000E-01      1.244219000000000E+02
3200000000.000000      1.116409000000000E-01     -1.699297000000000E+02      5.211792000000000E-01      1.116016000000000E+02
3220000000.000000      7.886505000000000E-02     -1.244375000000000E+02      3.869476000000000E-01      1.008633000000000E+02
3240000000.000000      1.501083000000000E-01     -1.049414000000000E+02      2.479858000000000E-01      9.942577000000000E+01
3260000000.000000      2.293015000000000E-01     -1.150508000000000E+02      1.472778000000000E-01      1.249687000000000E+02
3280000000.000000      2.867126000000000E-01     -1.307422000000000E+02      2.020111000000000E-01      1.652344000000000E+02
3300000000.000000      3.202209000000000E-01     -1.470703000000000E+02      3.291626000000000E-01      1.697422000000000E+02
3320000000.000000      3.322754000000000E-01     -1.629766000000000E+02      4.621429000000000E-01      1.626719000000000E+02
3340000000.000000      3.289795000000000E-01     -1.784375000000000E+02      5.736694000000000E-01      1.506094000000000E+02
3360000000.000000      3.167877000000000E-01      1.667969000000000E+02      6.471252000000000E-01      1.384844000000000E+02
3380000000.000000      3.004456000000000E-01      1.525391000000000E+02      7.095947000000000E-01      1.271680000000000E+02
3400000000.000000      2.787170000000000E-01      1.378594000000000E+02      7.569580000000000E-01      1.133594000000000E+02
3420000000.000000      2.438736000000000E-01      1.228008000000000E+02      7.489319000000000E-01      9.841797000000000E+01
3440000000.000000      1.902924000000000E-01      1.081406000000000E+02      7.053223000000000E-01      8.569921000000000E+01
3460000000.000000      1.206856000000000E-01      9.708593000000000E+01      6.477356000000000E-01      7.248437000000000E+01
3480000000.000000      4.809380000000000E-02      1.202812000000000E+02      5.502014000000000E-01      5.905859000000000E+01
3500000000.000000      9.130096000000000E-02     -1.742500000000000E+02      4.261017000000000E-01      4.767187000000000E+01
3520000000.000000      1.831055000000000E-01      1.792109000000000E+02      2.805023000000000E-01      4.038671000000000E+01
3540000000.000000      2.624664000000000E-01      1.630156000000000E+02      1.478195000000000E-01      5.785351000000000E+01
3560000000.000000      3.223419000000000E-01      1.459922000000000E+02      1.656189000000000E-01      1.073555000000000E+02
3580000000.000000      3.596191000000000E-01      1.299219000000000E+02      2.929077000000000E-01      1.175078000000000E+02
3600000000.000000      3.758240000000000E-01      1.153203000000000E+02      4.187469000000000E-01      1.106758000000000E+02
3620000000.000000      3.781586000000000E-01      1.026367000000000E+02      5.202637000000000E-01      1.012422000000000E+02
3640000000.000000      3.691406000000000E-01      9.134766000000000E+01      6.212769000000000E-01      9.006639000000000E+01
3660000000.000000      3.524475000000000E-01      8.116014000000000E+01      6.924438000000000E-01      7.599999000000000E+01
3680000000.000000      3.295288000000000E-01      7.200781000000000E+01      7.108154000000000E-01      6.282421000000000E+01
3700000000.000000      2.990875000000000E-01      6.369141000000000E+01      7.211609000000000E-01      5.115429000000000E+01
3720000000.000000      2.552490000000000E-01      5.764257000000000E+01      7.258301000000000E-01      3.688477000000000E+01
3740000000.000000      2.053528000000000E-01      5.831055000000000E+01      6.648254000000000E-01      2.153515000000000E+01
3760000000.000000      1.777649000000000E-01      7.226563000000000E+01      5.684204000000000E-01      7.207031000000000E+00
3780000000.000000      2.111130000000000E-01      8.740625000000000E+01      4.371490000000000E-01     -5.943604000000000E+00
3800000000.000000      2.815094000000000E-01      8.913280000000000E+01      2.834778000000000E-01     -1.349561000000000E+01
3820000000.000000      3.495178000000000E-01      8.268358000000000E+01      1.544876000000000E-01     -8.377075000000000E-01
3840000000.000000      4.002991000000000E-01      7.394531000000000E+01      1.422195000000000E-01      4.743164000000000E+01
3860000000.000000      4.350433000000000E-01      6.535937000000000E+01      2.447662000000000E-01      6.539063000000000E+01
3880000000.000000      4.603882000000000E-01      5.781445000000000E+01      3.750305000000000E-01      6.121679000000000E+01
3900000000.000000      4.895325000000000E-01      5.086719000000000E+01      4.763184000000000E-01      4.784961000000000E+01
3920000000.000000      5.207214000000000E-01      4.302930000000000E+01      5.078125000000000E-01      3.612305000000000E+01
3940000000.000000      5.501709000000000E-01      3.417773000000000E+01      5.390015000000000E-01      2.961328000000000E+01
3960000000.000000      5.596619000000000E-01      2.407910000000000E+01      5.949097000000000E-01      2.014941000000000E+01
3980000000.000000      5.544128000000000E-01      1.365186000000000E+01      5.988464000000000E-01      8.209473000000000E+00
4000000000.000000      5.283508000000000E-01      3.151611000000000E+00      5.804443000000000E-01      1.259277000000000E+00
4020000000.000000      4.848328000000000E-01     -6.784180000000000E+00      5.980225000000000E-01     -6.509521000000000E+00
4040000000.000000      4.258575000000000E-01     -1.559668000000000E+01      5.863647000000000E-01     -1.868262000000000E+01
4060000000.000000      3.498840000000000E-01     -2.184375000000000E+01      5.275269000000000E-01     -2.902539000000000E+01
4080000000.000000      2.749939000000000E-01     -2.188769000000000E+01      4.701843000000000E-01     -3.814062000000000E+01
4100000000.000000      2.285385000000000E-01     -1.135742000000000E+01      3.678284000000000E-01     -4.745507000000000E+01
4120000000.000000      2.412491000000000E-01      1.790771000000000E+00      2.505646000000000E-01     -4.424805000000000E+01
4140000000.000000      2.896881000000000E-01      5.145508000000000E+00      2.030487000000000E-01     -2.043750000000000E+01
4160000000.000000      3.331909000000000E-01      1.010742000000000E+00      2.622223000000000E-01     -2.595520000000000E-01
4180000000.000000      3.617554000000000E-01     -5.868164000000000E+00      3.561096000000000E-01      3.955078000000000E+00
4200000000.000000      3.715210000000000E-01     -1.362061000000000E+01      4.862518000000000E-01      1.406250000000000E+00
4220000000.000000      3.678284000000000E-01     -2.079492000000000E+01      6.413269000000000E-01     -1.099756000000000E+01
4240000000.000000      3.482819000000000E-01     -2.833008000000000E+01      7.220154000000000E-01     -2.761914000000000E+01
4260000000.000000      3.100891000000000E-01     -3.422266000000000E+01      7.430115000000000E-01     -4.163867000000000E+01
4280000000.000000      2.602081000000000E-01     -3.554101000000000E+01      7.514648000000000E-01     -5.552539000000000E+01
4300000000.000000      2.224960000000000E-01     -2.733984000000000E+01      7.169189000000000E-01     -7.052343000000000E+01
4320000000.000000      2.351151000000000E-01     -1.474805000000000E+01      6.341248000000000E-01     -8.515625000000000E+01
4340000000.000000      2.924957000000000E-01     -1.053223000000000E+01      5.170288000000000E-01     -9.783203000000000E+01
4360000000.000000      3.581390000000000E-01     -1.550488000000000E+01      3.834381000000000E-01     -1.068281000000000E+02
4380000000.000000      4.053497000000000E-01     -2.450976000000000E+01      2.513428000000000E-01     -1.082617000000000E+02
4400000000.000000      4.264984000000000E-01     -3.449023000000000E+01      1.537933000000000E-01     -8.570704000000000E+01
4420000000.000000      4.249878000000000E-01     -4.381640000000000E+01      1.862564000000000E-01     -4.584374000000000E+01
4440000000.000000      4.079742000000000E-01     -5.186132000000000E+01      3.090210000000000E-01     -3.622070000000000E+01
4460000000.000000      3.876343000000000E-01     -5.851953000000000E+01      4.502411000000000E-01     -4.327148000000000E+01
4480000000.000000      3.693695000000000E-01     -6.500000000000000E+01      5.599670000000000E-01     -5.534961000000000E+01
4500000000.000000      3.470917000000000E-01     -7.159374000000000E+01      6.425476000000000E-01     -6.674218000000000E+01
4520000000.000000      3.139496000000000E-01     -7.927343000000000E+01      7.150879000000000E-01     -7.960155000000000E+01
4540000000.000000      2.630615000000000E-01     -8.555468000000000E+01      7.421570000000000E-01     -9.434374000000000E+01
4560000000.000000      2.022324000000000E-01     -8.400000000000000E+01      7.298279000000000E-01     -1.075469000000000E+02
4580000000.000000      1.741104000000000E-01     -6.807422000000000E+01      6.925659000000000E-01     -1.213281000000000E+02
4600000000.000000      2.108917000000000E-01     -5.390234000000000E+01      6.073608000000000E-01     -1.346875000000000E+02
4620000000.000000      2.761688000000000E-01     -5.512695000000000E+01      4.997559000000000E-01     -1.450625000000000E+02
4640000000.000000      3.303375000000000E-01     -6.495312000000000E+01      3.803253000000000E-01     -1.534531000000000E+02
4660000000.000000      3.545074000000000E-01     -7.823047000000000E+01      2.472610000000000E-01     -1.520234000000000E+02
4680000000.000000      3.467712000000000E-01     -9.225389000000000E+01      1.788864000000000E-01     -1.240117000000000E+02
4700000000.000000      3.097382000000000E-01     -1.054531000000000E+02      2.464905000000000E-01     -9.684374000000000E+01
4720000000.000000      2.535553000000000E-01     -1.160859000000000E+02      3.650665000000000E-01     -9.532030000000000E+01
4740000000.000000      1.917648000000000E-01     -1.214648000000000E+02      4.728546000000000E-01     -1.016094000000000E+02
4760000000.000000      1.392517000000000E-01     -1.177695000000000E+02      5.788879000000000E-01     -1.105039000000000E+02
4780000000.000000      1.122780000000000E-01     -1.022344000000000E+02      6.671753000000000E-01     -1.227812000000000E+02
4800000000.000000      1.170921000000000E-01     -8.406250000000000E+01      7.168274000000000E-01     -1.354609000000000E+02
4820000000.000000      1.461182000000000E-01     -7.398828000000000E+01      7.363586000000000E-01     -1.488281000000000E+02
4840000000.000000      1.870346000000000E-01     -7.375781000000000E+01      7.190552000000000E-01     -1.616172000000000E+02
4860000000.000000      2.307129000000000E-01     -8.019922000000000E+01      6.848450000000000E-01     -1.741562000000000E+02
4880000000.000000      2.680054000000000E-01     -9.057032000000000E+01      6.184082000000000E-01      1.720078000000000E+02
4900000000.000000      2.934265000000000E-01     -1.041016000000000E+02      4.956207000000000E-01      1.598828000000000E+02
4920000000.000000      3.000031000000000E-01     -1.191797000000000E+02      3.675995000000000E-01      1.537344000000000E+02
4940000000.000000      2.856293000000000E-01     -1.348125000000000E+02      2.535553000000000E-01      1.557344000000000E+02
4960000000.000000      2.552643000000000E-01     -1.500937000000000E+02      1.771240000000000E-01      1.767734000000000E+02
4980000000.000000      2.132111000000000E-01     -1.641562000000000E+02      2.130051000000000E-01     -1.512969000000000E+02
5000000000.000000      1.683578000000000E-01     -1.760703000000000E+02      3.283081000000000E-01     -1.434687000000000E+02
5020000000.000000      1.310043000000000E-01      1.738984000000000E+02      4.593964000000000E-01     -1.495000000000000E+02
5040000000.000000      1.003342000000000E-01      1.637812000000000E+02      5.689697000000000E-01     -1.603437000000000E+02
5060000000.000000      7.227707000000000E-02      1.487500000000000E+02      6.486816000000000E-01     -1.716875000000000E+02
5080000000.000000      4.199791000000000E-02      1.227148000000000E+02      7.178955000000000E-01      1.761953000000000E+02
5100000000.000000      1.714325000000000E-02      4.385742000000000E+01      7.565308000000000E-01      1.623828000000000E+02
5120000000.000000      4.028511000000000E-02     -5.020312000000000E+01      7.541809000000000E-01      1.480391000000000E+02
5140000000.000000      7.217789000000000E-02     -8.705858000000000E+01      7.059021000000000E-01      1.345078000000000E+02
5160000000.000000      9.616852000000000E-02     -1.183164000000000E+02      6.307373000000000E-01      1.221562000000000E+02
5180000000.000000      1.096992000000000E-01     -1.489766000000000E+02      5.360107000000000E-01      1.109062000000000E+02
5200000000.000000      1.125793000000000E-01      1.783125000000000E+02      4.180908000000000E-01      1.009141000000000E+02
5220000000.000000      1.096878000000000E-01      1.422734000000000E+02      2.849121000000000E-01      9.809765000000000E+01
5240000000.000000      1.091881000000000E-01      1.062109000000000E+02      1.843567000000000E-01      1.148398000000000E+02
5260000000.000000      1.135674000000000E-01      7.256249000000000E+01      1.951904000000000E-01      1.491250000000000E+02
5280000000.000000      1.207619000000000E-01      4.599218000000000E+01      2.948608000000000E-01      1.605781000000000E+02
5300000000.000000      1.272430000000000E-01      2.527734000000000E+01      4.084015000000000E-01      1.582187000000000E+02
5320000000.000000      1.330414000000000E-01      8.777832000000000E+00      5.260315000000000E-01      1.506328000000000E+02
5340000000.000000      1.391449000000000E-01     -5.454834000000000E+00      6.360474000000000E-01      1.387187000000000E+02
5360000000.000000      1.428986000000000E-01     -2.104297000000000E+01      7.042542000000000E-01      1.241719000000000E+02
5380000000.000000      1.386871000000000E-01     -3.858007000000000E+01      7.178650000000000E-01      1.108242000000000E+02
5400000000.000000      1.199570000000000E-01     -5.668554000000000E+01      7.189331000000000E-01      9.919531000000000E+01
5420000000.000000      8.510208000000000E-02     -7.384375000000000E+01      7.072144000000000E-01      8.611328000000000E+01
5440000000.000000      3.114986000000000E-02     -7.816015000000000E+01      6.482544000000000E-01      7.184765000000000E+01
5460000000.000000      4.246902000000000E-02      3.895117000000000E+01      5.407104000000000E-01      5.866796000000000E+01
5480000000.000000      1.120872000000000E-01      3.108496000000000E+01      4.144287000000000E-01      4.937500000000000E+01
5500000000.000000      1.746750000000000E-01      1.595459000000000E+01      2.944336000000000E-01      4.717969000000000E+01
5520000000.000000      2.203140000000000E-01      8.583069000000000E-01      1.955109000000000E-01      5.857616000000000E+01
5540000000.000000      2.517090000000000E-01     -1.297510000000000E+01      1.799622000000000E-01      9.040234000000000E+01
5560000000.000000      2.696075000000000E-01     -2.480078000000000E+01      2.606812000000000E-01      1.086641000000000E+02
5580000000.000000      2.826843000000000E-01     -3.482031000000000E+01      3.833771000000000E-01      1.087617000000000E+02
5600000000.000000      2.938995000000000E-01     -4.380859000000000E+01      5.051270000000000E-01      9.978516000000000E+01
5620000000.000000      3.042908000000000E-01     -5.287499000000000E+01      5.959473000000000E-01      8.726563000000000E+01
5640000000.000000      3.079376000000000E-01     -6.257617000000000E+01      6.467590000000000E-01      7.537109000000000E+01
5660000000.000000      2.981262000000000E-01     -7.331640000000000E+01      6.857605000000000E-01      6.396484000000000E+01
5680000000.000000      2.700653000000000E-01     -8.370312000000000E+01      6.991882000000000E-01      5.122851000000000E+01
5700000000.000000      2.218781000000000E-01     -9.113672000000000E+01      6.834717000000000E-01      3.884375000000000E+01
5720000000.000000      1.714706000000000E-01     -8.985546000000000E+01      6.458435000000000E-01      2.601269000000000E+01
5740000000.000000      1.495972000000000E-01     -7.553905000000000E+01      5.673523000000000E-01      1.299121000000000E+01
5760000000.000000      1.778259000000000E-01     -6.373632000000000E+01      4.534302000000000E-01      1.196106000000000E+00
5780000000.000000      2.242355000000000E-01     -6.516796000000000E+01      3.185730000000000E-01     -4.004639000000000E+00
5800000000.000000      2.567902000000000E-01     -7.287499000000000E+01      2.089996000000000E-01      6.593018000000000E+00
5820000000.000000      2.666016000000000E-01     -8.243359000000000E+01      1.883698000000000E-01      3.717968000000000E+01
5840000000.000000      2.571869000000000E-01     -9.088671000000000E+01      2.696686000000000E-01      5.374218000000000E+01
5860000000.000000      2.398682000000000E-01     -9.654297000000000E+01      3.700867000000000E-01      5.413280000000000E+01
5880000000.000000      2.237625000000000E-01     -9.982031000000000E+01      4.771729000000000E-01      4.869531000000000E+01
5900000000.000000      2.166824000000000E-01     -1.022539000000000E+02      5.925903000000000E-01      3.861133000000000E+01
5920000000.000000      2.087708000000000E-01     -1.050469000000000E+02      6.718445000000000E-01      2.473926000000000E+01
5940000000.000000      1.951828000000000E-01     -1.069883000000000E+02      7.033691000000000E-01      1.150244000000000E+01
5960000000.000000      1.782608000000000E-01     -1.053984000000000E+02      7.140503000000000E-01     -1.237366000000000E+00
5980000000.000000      1.652603000000000E-01     -9.774218000000000E+01      6.938171000000000E-01     -1.536475000000000E+01
6000000000.000000      1.804352000000000E-01     -8.847265000000000E+01      6.289368000000000E-01     -2.885742000000000E+01
6020000000.000000      2.153778000000000E-01     -8.644922000000000E+01      5.324707000000000E-01     -4.164258000000000E+01
6040000000.000000      2.507172000000000E-01     -9.162109000000000E+01      4.032288000000000E-01     -4.963085000000000E+01
6060000000.000000      2.750244000000000E-01     -1.005351000000000E+02      2.869415000000000E-01     -4.987109000000000E+01
6080000000.000000      2.855835000000000E-01     -1.109844000000000E+02      2.062302000000000E-01     -3.636523000000000E+01
