! Network Analyzer HP8722D
! Hewlett-Packard
! Data name: Linha & Wilkinson+CNT
! Saver's name: Rodrigo Anjos
! Comments: Teste da utilização de aquisição
continua pelo VNA HP8722D
! Time and date: 29/9/2025 15:34
!              Frequency                     S11                                                   S21                                                   S12                                                   S22
# HZ  S  MA R 50
3000000000.000000      4.251709000000000E-01     -5.567773000000000E+01      2.089615000000000E-01     -1.314453000000000E+02
3020000000.000000      4.483490000000000E-01     -7.003906000000000E+01      3.516083000000000E-01     -1.350469000000000E+02
3040000000.000000      4.519501000000000E-01     -8.303125000000000E+01      4.689636000000000E-01     -1.451016000000000E+02
3060000000.000000      4.444733000000000E-01     -9.496485000000000E+01      5.733948000000000E-01     -1.554141000000000E+02
3080000000.000000      4.285889000000000E-01     -1.062226000000000E+02      6.732178000000000E-01     -1.684531000000000E+02
3100000000.000000      4.086151000000000E-01     -1.174726000000000E+02      7.248230000000000E-01      1.766328000000000E+02
3120000000.000000      3.791046000000000E-01     -1.293828000000000E+02      7.321777000000000E-01      1.633359000000000E+02
3140000000.000000      3.379059000000000E-01     -1.425000000000000E+02      7.223206000000000E-01      1.505000000000000E+02
3160000000.000000      2.776337000000000E-01     -1.564297000000000E+02      6.835938000000000E-01      1.369453000000000E+02
3180000000.000000      1.976318000000000E-01     -1.691250000000000E+02      6.118774000000000E-01      1.242656000000000E+02
3200000000.000000      1.103020000000000E-01     -1.695313000000000E+02      5.169373000000000E-01      1.115039000000000E+02
3220000000.000000      7.978439000000000E-02     -1.234219000000000E+02      3.838501000000000E-01      1.008008000000000E+02
3240000000.000000      1.514587000000000E-01     -1.049609000000000E+02      2.451401000000000E-01      9.970312000000000E+01
3260000000.000000      2.306824000000000E-01     -1.152500000000000E+02      1.468277000000000E-01      1.260859000000000E+02
3280000000.000000      2.876740000000000E-01     -1.310000000000000E+02      2.049713000000000E-01      1.655313000000000E+02
3300000000.000000      3.204193000000000E-01     -1.473359000000000E+02      3.317719000000000E-01      1.695313000000000E+02
3320000000.000000      3.320770000000000E-01     -1.632031000000000E+02      4.642487000000000E-01      1.625234000000000E+02
3340000000.000000      3.284454000000000E-01     -1.785938000000000E+02      5.766907000000000E-01      1.503984000000000E+02
3360000000.000000      3.164978000000000E-01      1.666484000000000E+02      6.475830000000000E-01      1.382969000000000E+02
3380000000.000000      3.000183000000000E-01      1.523906000000000E+02      7.091980000000000E-01      1.267656000000000E+02
3400000000.000000      2.778625000000000E-01      1.376641000000000E+02      7.583313000000000E-01      1.131328000000000E+02
3420000000.000000      2.423172000000000E-01      1.227187000000000E+02      7.484436000000000E-01      9.825781000000000E+01
3440000000.000000      1.893005000000000E-01      1.080078000000000E+02      7.032471000000000E-01      8.527344000000000E+01
3460000000.000000      1.187592000000000E-01      9.749218000000000E+01      6.451111000000000E-01      7.224999000000000E+01
3480000000.000000      4.771805000000000E-02      1.225039000000000E+02      5.478210000000000E-01      5.900976000000000E+01
3500000000.000000      9.333038000000000E-02     -1.742422000000000E+02      4.228973000000000E-01      4.754883000000000E+01
3520000000.000000      1.848145000000000E-01      1.788359000000000E+02      2.768555000000000E-01      4.057422000000000E+01
3540000000.000000      2.636414000000000E-01      1.625547000000000E+02      1.467056000000000E-01      5.904101000000000E+01
3560000000.000000      3.231964000000000E-01      1.457187000000000E+02      1.686249000000000E-01      1.080117000000000E+02
3580000000.000000      3.599091000000000E-01      1.296328000000000E+02      2.962952000000000E-01      1.174453000000000E+02
3600000000.000000      3.761139000000000E-01      1.150469000000000E+02      4.208221000000000E-01      1.105273000000000E+02
3620000000.000000      3.783722000000000E-01      1.023945000000000E+02      5.229187000000000E-01      1.009414000000000E+02
3640000000.000000      3.681030000000000E-01      9.129297000000000E+01      6.217041000000000E-01      8.984375000000000E+01
3660000000.000000      3.522797000000000E-01      8.100000000000000E+01      6.930847000000000E-01      7.567577000000000E+01
3680000000.000000      3.292236000000000E-01      7.180469000000000E+01      7.112732000000000E-01      6.257421000000000E+01
3700000000.000000      2.984924000000000E-01      6.361718000000000E+01      7.206421000000000E-01      5.088281000000000E+01
3720000000.000000      2.542267000000000E-01      5.762695000000000E+01      7.227173000000000E-01      3.658398000000000E+01
3740000000.000000      2.043686000000000E-01      5.863671000000000E+01      6.616516000000000E-01      2.122265000000000E+01
3760000000.000000      1.784821000000000E-01      7.265234000000000E+01      5.653076000000000E-01      6.826416000000000E+00
3780000000.000000      2.126923000000000E-01      8.767578000000000E+01      4.340820000000000E-01     -6.255371000000000E+00
3800000000.000000      2.832794000000000E-01      8.910156000000000E+01      2.799835000000000E-01     -1.340332000000000E+01
3820000000.000000      3.506012000000000E-01      8.256250000000000E+01      1.527405000000000E-01     -8.239746000000000E-03
3840000000.000000      4.006042000000000E-01      7.386328000000000E+01      1.441879000000000E-01      4.832421000000000E+01
3860000000.000000      4.358673000000000E-01      6.525000000000000E+01      2.473984000000000E-01      6.535937000000000E+01
3880000000.000000      4.609070000000000E-01      5.776172000000000E+01      3.779602000000000E-01      6.094921000000000E+01
3900000000.000000      4.895935000000000E-01      5.074804000000000E+01      4.786224000000000E-01      4.753320000000000E+01
3920000000.000000      5.198364000000000E-01      4.313086000000000E+01      5.088806000000000E-01      3.582226000000000E+01
3940000000.000000      5.476685000000000E-01      3.410937000000000E+01      5.393982000000000E-01      2.932617000000000E+01
3960000000.000000      5.580444000000000E-01      2.405371000000000E+01      5.954285000000000E-01      2.000195000000000E+01
3980000000.000000      5.527649000000000E-01      1.343213000000000E+01      5.973816000000000E-01      8.086914000000000E+00
4000000000.000000      5.270996000000000E-01      2.963501000000000E+00      5.802002000000000E-01      1.117859000000000E+00
4020000000.000000      4.836426000000000E-01     -6.921387000000000E+00      5.974121000000000E-01     -6.720947000000000E+00
4040000000.000000      4.246368000000000E-01     -1.580811000000000E+01      5.852051000000000E-01     -1.891113000000000E+01
4060000000.000000      3.484039000000000E-01     -2.187109000000000E+01      5.275879000000000E-01     -2.899707000000000E+01
4080000000.000000      2.739563000000000E-01     -2.167969000000000E+01      4.669495000000000E-01     -3.842773000000000E+01
4100000000.000000      2.282028000000000E-01     -1.104297000000000E+01      3.659210000000000E-01     -4.746289000000000E+01
4120000000.000000      2.421341000000000E-01      1.945923000000000E+00      2.482529000000000E-01     -4.380664000000000E+01
4140000000.000000      2.904358000000000E-01      5.274658000000000E+00      2.036209000000000E-01     -1.955859000000000E+01
4160000000.000000      3.343048000000000E-01      9.571838000000000E-01      2.656097000000000E-01      0.000000000000000E+00
4180000000.000000      3.618927000000000E-01     -5.865479000000000E+00      3.587341000000000E-01      3.843750000000000E+00
4200000000.000000      3.716431000000000E-01     -1.371826000000000E+01      4.904480000000000E-01      1.141174000000000E+00
4220000000.000000      3.672638000000000E-01     -2.090918000000000E+01      6.424561000000000E-01     -1.116113000000000E+01
4240000000.000000      3.478851000000000E-01     -2.838476000000000E+01      7.220154000000000E-01     -2.801465000000000E+01
4260000000.000000      3.092804000000000E-01     -3.408789000000000E+01      7.454224000000000E-01     -4.207227000000000E+01
4280000000.000000      2.588959000000000E-01     -3.526367000000000E+01      7.501831000000000E-01     -5.577929000000000E+01
4300000000.000000      2.223740000000000E-01     -2.700195000000000E+01      7.119141000000000E-01     -7.090234000000000E+01
4320000000.000000      2.364960000000000E-01     -1.440332000000000E+01      6.314697000000000E-01     -8.525391000000000E+01
4340000000.000000      2.942657000000000E-01     -1.051953000000000E+01      5.138855000000000E-01     -9.807030000000000E+01
4360000000.000000      3.598022000000000E-01     -1.568311000000000E+01      3.784943000000000E-01     -1.067812000000000E+02
4380000000.000000      4.053802000000000E-01     -2.471191000000000E+01      2.479553000000000E-01     -1.078945000000000E+02
4400000000.000000      4.268646000000000E-01     -3.465625000000000E+01      1.534882000000000E-01     -8.431641000000000E+01
4420000000.000000      4.243317000000000E-01     -4.386328000000000E+01      1.895981000000000E-01     -4.517187000000000E+01
4440000000.000000      4.082489000000000E-01     -5.203711000000000E+01      3.124542000000000E-01     -3.612695000000000E+01
4460000000.000000      3.880768000000000E-01     -5.882617000000000E+01      4.536591000000000E-01     -4.358007000000000E+01
4480000000.000000      3.675842000000000E-01     -6.474999000000000E+01      5.636597000000000E-01     -5.557617000000000E+01
4500000000.000000      3.459778000000000E-01     -7.166016000000000E+01      6.434326000000000E-01     -6.709374000000000E+01
4520000000.000000      3.125458000000000E-01     -7.946484000000000E+01      7.157898000000000E-01     -7.991405000000000E+01
4540000000.000000      2.611084000000000E-01     -8.558594000000000E+01      7.419739000000000E-01     -9.459764000000000E+01
4560000000.000000      2.007294000000000E-01     -8.373438000000000E+01      7.288208000000000E-01     -1.078047000000000E+02
4580000000.000000      1.743164000000000E-01     -6.748047000000000E+01      6.909180000000000E-01     -1.216640000000000E+02
4600000000.000000      2.130356000000000E-01     -5.368359000000000E+01      6.040955000000000E-01     -1.348594000000000E+02
4620000000.000000      2.780762000000000E-01     -5.522851000000000E+01      4.971008000000000E-01     -1.450859000000000E+02
4640000000.000000      3.309174000000000E-01     -6.525391000000000E+01      3.769073000000000E-01     -1.534453000000000E+02
4660000000.000000      3.541718000000000E-01     -7.849999000000000E+01      2.444000000000000E-01     -1.515547000000000E+02
4680000000.000000      3.457184000000000E-01     -9.251562000000000E+01      1.792221000000000E-01     -1.229180000000000E+02
4700000000.000000      3.080902000000000E-01     -1.057227000000000E+02      2.501984000000000E-01     -9.647655000000000E+01
4720000000.000000      2.519073000000000E-01     -1.162305000000000E+02      3.682861000000000E-01     -9.541407000000000E+01
4740000000.000000      1.902466000000000E-01     -1.213594000000000E+02      4.759216000000000E-01     -1.018476000000000E+02
4760000000.000000      1.385498000000000E-01     -1.173555000000000E+02      5.823364000000000E-01     -1.107265000000000E+02
4780000000.000000      1.118965000000000E-01     -1.011797000000000E+02      6.687317000000000E-01     -1.231484000000000E+02
4800000000.000000      1.182671000000000E-01     -8.323828000000000E+01      7.203369000000000E-01     -1.358125000000000E+02
4820000000.000000      1.466751000000000E-01     -7.399219000000000E+01      7.362976000000000E-01     -1.490859000000000E+02
4840000000.000000      1.876907000000000E-01     -7.380077000000000E+01      7.180786000000000E-01     -1.619453000000000E+02
4860000000.000000      2.314072000000000E-01     -8.030468000000000E+01      6.822510000000000E-01     -1.744844000000000E+02
4880000000.000000      2.686615000000000E-01     -9.089453000000000E+01      6.160889000000000E-01      1.717734000000000E+02
4900000000.000000      2.938385000000000E-01     -1.044258000000000E+02      4.928894000000000E-01      1.596172000000000E+02
4920000000.000000      2.994843000000000E-01     -1.194297000000000E+02      3.632355000000000E-01      1.535625000000000E+02
4940000000.000000      2.846680000000000E-01     -1.351719000000000E+02      2.494659000000000E-01      1.562656000000000E+02
4960000000.000000      2.533112000000000E-01     -1.502812000000000E+02      1.766586000000000E-01      1.778672000000000E+02
4980000000.000000      2.115402000000000E-01     -1.645234000000000E+02      2.163162000000000E-01     -1.508203000000000E+02
5000000000.000000      1.673203000000000E-01     -1.761562000000000E+02      3.322601000000000E-01     -1.436797000000000E+02
5020000000.000000      1.298904000000000E-01      1.738516000000000E+02      4.623718000000000E-01     -1.497656000000000E+02
5040000000.000000      9.968185000000000E-02      1.633594000000000E+02      5.710754000000000E-01     -1.607031000000000E+02
5060000000.000000      7.128906000000000E-02      1.484375000000000E+02      6.520081000000000E-01     -1.722265000000000E+02
5080000000.000000      4.097366000000000E-02      1.220078000000000E+02      7.182617000000000E-01      1.756641000000000E+02
5100000000.000000      1.685238000000000E-02      3.862109000000000E+01      7.578735000000000E-01      1.619453000000000E+02
5120000000.000000      4.096985000000000E-02     -5.176562000000000E+01      7.543945000000000E-01      1.477578000000000E+02
5140000000.000000      7.313156000000000E-02     -8.835155000000000E+01      7.033081000000000E-01      1.342578000000000E+02
5160000000.000000      9.659195000000000E-02     -1.195508000000000E+02      6.276855000000000E-01      1.218555000000000E+02
5180000000.000000      1.095734000000000E-01     -1.498984000000000E+02      5.318909000000000E-01      1.108242000000000E+02
5200000000.000000      1.126442000000000E-01      1.772891000000000E+02      4.133759000000000E-01      1.011953000000000E+02
5220000000.000000      1.095467000000000E-01      1.414844000000000E+02      2.810364000000000E-01      9.851952000000000E+01
5240000000.000000      1.089478000000000E-01      1.051914000000000E+02      1.831818000000000E-01      1.160039000000000E+02
5260000000.000000      1.132050000000000E-01      7.182422000000000E+01      1.978912000000000E-01      1.499297000000000E+02
5280000000.000000      1.206131000000000E-01      4.536133000000000E+01      2.986145000000000E-01      1.605391000000000E+02
5300000000.000000      1.273270000000000E-01      2.468262000000000E+01      4.121246000000000E-01      1.579062000000000E+02
5320000000.000000      1.334381000000000E-01      8.323242000000000E+00      5.299072000000000E-01      1.503281000000000E+02
5340000000.000000      1.391830000000000E-01     -6.000000000000000E+00      6.406555000000000E-01      1.383203000000000E+02
5360000000.000000      1.431351000000000E-01     -2.158496000000000E+01      7.070007000000000E-01      1.238672000000000E+02
5380000000.000000      1.382751000000000E-01     -3.917773000000000E+01      7.168579000000000E-01      1.105430000000000E+02
5400000000.000000      1.191826000000000E-01     -5.725976000000000E+01      7.183838000000000E-01      9.869530000000000E+01
5420000000.000000      8.376694000000000E-02     -7.425390000000000E+01      7.029419000000000E-01      8.573046000000000E+01
5440000000.000000      2.933121000000000E-02     -7.785546000000000E+01      6.457214000000000E-01      7.136328000000000E+01
5460000000.000000      4.422760000000000E-02      3.899023000000000E+01      5.362854000000000E-01      5.839257000000000E+01
5480000000.000000      1.139069000000000E-01      3.062500000000000E+01      4.088593000000000E-01      4.941601000000000E+01
5500000000.000000      1.759644000000000E-01      1.539697000000000E+01      2.904205000000000E-01      4.751953000000000E+01
5520000000.000000      2.210693000000000E-01      3.323364000000000E-01      1.947021000000000E-01      5.956445000000000E+01
5540000000.000000      2.519836000000000E-01     -1.342139000000000E+01      1.821136000000000E-01      9.137110000000000E+01
5560000000.000000      2.704773000000000E-01     -2.510058000000000E+01      2.650604000000000E-01      1.088008000000000E+02
5580000000.000000      2.826080000000000E-01     -3.518555000000000E+01      3.864899000000000E-01      1.084180000000000E+02
5600000000.000000      2.938995000000000E-01     -4.408203000000000E+01      5.083008000000000E-01      9.942186000000000E+01
5620000000.000000      3.046875000000000E-01     -5.313281000000000E+01      5.984192000000000E-01      8.695313000000000E+01
5640000000.000000      3.077087000000000E-01     -6.291210000000000E+01      6.478271000000000E-01      7.494922000000000E+01
5660000000.000000      2.973785000000000E-01     -7.352344000000000E+01      6.844177000000000E-01      6.363281000000000E+01
5680000000.000000      2.674408000000000E-01     -8.385937000000000E+01      6.983032000000000E-01      5.082812000000000E+01
5700000000.000000      2.197571000000000E-01     -9.111328000000000E+01      6.813049000000000E-01      3.853125000000000E+01
5720000000.000000      1.696014000000000E-01     -8.957031000000000E+01      6.433411000000000E-01      2.591211000000000E+01
5740000000.000000      1.500549000000000E-01     -7.477344000000000E+01      5.636902000000000E-01      1.255029000000000E+01
5760000000.000000      1.792603000000000E-01     -6.358203000000000E+01      4.474335000000000E-01      9.873962000000000E-01
5780000000.000000      2.257843000000000E-01     -6.530859000000000E+01      3.137970000000000E-01     -3.775269000000000E+00
5800000000.000000      2.573547000000000E-01     -7.322266000000000E+01      2.067871000000000E-01      7.552979000000000E+00
5820000000.000000      2.669525000000000E-01     -8.254686000000000E+01      1.908264000000000E-01      3.800781000000000E+01
5840000000.000000      2.562408000000000E-01     -9.093359000000000E+01      2.735443000000000E-01      5.416406000000000E+01
5860000000.000000      2.389374000000000E-01     -9.668749000000000E+01      3.744965000000000E-01      5.393749000000000E+01
5880000000.000000      2.233734000000000E-01     -9.981640000000000E+01      4.806213000000000E-01      4.846874000000000E+01
5900000000.000000      2.159729000000000E-01     -1.022461000000000E+02      5.964355000000000E-01      3.816406000000000E+01
5920000000.000000      2.081833000000000E-01     -1.050977000000000E+02      6.726074000000000E-01      2.435644000000000E+01
5940000000.000000      1.943970000000000E-01     -1.068711000000000E+02      7.023621000000000E-01      1.098486000000000E+01
5960000000.000000      1.771317000000000E-01     -1.050664000000000E+02      7.130432000000000E-01     -1.697388000000000E+00
5980000000.000000      1.658707000000000E-01     -9.713671000000000E+01      6.886292000000000E-01     -1.561035000000000E+01
6000000000.000000      1.821518000000000E-01     -8.821484000000000E+01      6.248779000000000E-01     -2.926074000000000E+01
6020000000.000000      2.171555000000000E-01     -8.646484000000000E+01      5.261841000000000E-01     -4.180273000000000E+01
6040000000.000000      2.522736000000000E-01     -9.181641000000000E+01      3.976593000000000E-01     -4.966210000000000E+01
6060000000.000000      2.752228000000000E-01     -1.009297000000000E+02      2.837067000000000E-01     -4.949413000000000E+01
6080000000.000000      2.850342000000000E-01     -1.110976000000000E+02      2.047501000000000E-01     -3.531054000000000E+01
