! Network Analyzer HP8722D
! Hewlett-Packard
! Data name: Linha & Wilkinson+CNT
! Saver's name: Rodrigo Anjos
! Comments: Teste da utilização de aquisição
continua pelo VNA HP8722D
! Time and date: 29/9/2025 16:21
!              Frequency                     S11                                                   S21                                                   S12                                                   S22
# HZ  S  MA R 50
3000000000.000000      4.253693000000000E-01     -5.552734000000000E+01      2.064285000000000E-01     -1.315547000000000E+02
3020000000.000000      4.479980000000000E-01     -6.975390000000000E+01      3.493805000000000E-01     -1.348828000000000E+02
3040000000.000000      4.537659000000000E-01     -8.273829000000000E+01      4.684906000000000E-01     -1.447813000000000E+02
3060000000.000000      4.449310000000000E-01     -9.476954000000000E+01      5.723267000000000E-01     -1.551641000000000E+02
3080000000.000000      4.299622000000000E-01     -1.060781000000000E+02      6.720886000000000E-01     -1.682656000000000E+02
3100000000.000000      4.092712000000000E-01     -1.172344000000000E+02      7.230530000000000E-01      1.769609000000000E+02
3120000000.000000      3.799896000000000E-01     -1.292187000000000E+02      7.329407000000000E-01      1.635781000000000E+02
3140000000.000000      3.389740000000000E-01     -1.421641000000000E+02      7.249451000000000E-01      1.506484000000000E+02
3160000000.000000      2.793732000000000E-01     -1.562656000000000E+02      6.858826000000000E-01      1.371094000000000E+02
3180000000.000000      1.995621000000000E-01     -1.690625000000000E+02      6.140137000000000E-01      1.244297000000000E+02
3200000000.000000      1.116524000000000E-01     -1.698750000000000E+02      5.199585000000000E-01      1.116289000000000E+02
3220000000.000000      7.876587000000000E-02     -1.245781000000000E+02      3.868408000000000E-01      1.006836000000000E+02
3240000000.000000      1.501541000000000E-01     -1.046523000000000E+02      2.478638000000000E-01      9.946875000000000E+01
3260000000.000000      2.298355000000000E-01     -1.148711000000000E+02      1.472702000000000E-01      1.249336000000000E+02
3280000000.000000      2.873840000000000E-01     -1.307422000000000E+02      2.021103000000000E-01      1.651406000000000E+02
3300000000.000000      3.200226000000000E-01     -1.470078000000000E+02      3.294373000000000E-01      1.695937000000000E+02
3320000000.000000      3.320923000000000E-01     -1.629219000000000E+02      4.621887000000000E-01      1.626797000000000E+02
3340000000.000000      3.282166000000000E-01     -1.782969000000000E+02      5.752869000000000E-01      1.506172000000000E+02
3360000000.000000      3.169403000000000E-01      1.669453000000000E+02      6.458740000000000E-01      1.384375000000000E+02
3380000000.000000      3.003693000000000E-01      1.525938000000000E+02      7.093201000000000E-01      1.271328000000000E+02
3400000000.000000      2.782745000000000E-01      1.379688000000000E+02      7.581177000000000E-01      1.133906000000000E+02
3420000000.000000      2.438126000000000E-01      1.229531000000000E+02      7.482910000000000E-01      9.855078000000000E+01
3440000000.000000      1.906509000000000E-01      1.082265000000000E+02      7.066345000000000E-01      8.550390000000000E+01
3460000000.000000      1.203918000000000E-01      9.741014000000000E+01      6.483459000000000E-01      7.260156000000000E+01
3480000000.000000      4.802322000000000E-02      1.209531000000000E+02      5.502625000000000E-01      5.909180000000000E+01
3500000000.000000      9.143066000000000E-02     -1.744766000000000E+02      4.266205000000000E-01      4.782812000000000E+01
3520000000.000000      1.829071000000000E-01      1.791484000000000E+02      2.798615000000000E-01      4.040820000000000E+01
3540000000.000000      2.626343000000000E-01      1.630000000000000E+02      1.478348000000000E-01      5.786718000000000E+01
3560000000.000000      3.226929000000000E-01      1.459375000000000E+02      1.660004000000000E-01      1.075469000000000E+02
3580000000.000000      3.594818000000000E-01      1.299922000000000E+02      2.932434000000000E-01      1.175625000000000E+02
3600000000.000000      3.766785000000000E-01      1.153516000000000E+02      4.183044000000000E-01      1.107656000000000E+02
3620000000.000000      3.785095000000000E-01      1.027539000000000E+02      5.206909000000000E-01      1.012539000000000E+02
3640000000.000000      3.689575000000000E-01      9.149218000000000E+01      6.210632000000000E-01      9.010157000000000E+01
3660000000.000000      3.525391000000000E-01      8.130468000000000E+01      6.922607000000000E-01      7.593359000000000E+01
3680000000.000000      3.298798000000000E-01      7.205468000000000E+01      7.100830000000000E-01      6.286718000000000E+01
3700000000.000000      2.998657000000000E-01      6.372460000000000E+01      7.208252000000000E-01      5.128320000000000E+01
3720000000.000000      2.557526000000000E-01      5.776562000000000E+01      7.250671000000000E-01      3.687695000000000E+01
3740000000.000000      2.054672000000000E-01      5.835938000000000E+01      6.644897000000000E-01      2.141894000000000E+01
3760000000.000000      1.781540000000000E-01      7.225780000000000E+01      5.676575000000000E-01      7.132813000000000E+00
3780000000.000000      2.115402000000000E-01      8.741796000000000E+01      4.366913000000000E-01     -6.068604000000000E+00
3800000000.000000      2.819366000000000E-01      8.921093000000000E+01      2.834625000000000E-01     -1.340771000000000E+01
3820000000.000000      3.495178000000000E-01      8.274609000000000E+01      1.543198000000000E-01     -7.113647000000000E-01
3840000000.000000      4.005432000000000E-01      7.405468000000000E+01      1.424026000000000E-01      4.750196000000000E+01
3860000000.000000      4.349060000000000E-01      6.547656000000000E+01      2.452774000000000E-01      6.531640000000000E+01
3880000000.000000      4.602814000000000E-01      5.784180000000000E+01      3.753204000000000E-01      6.126367000000000E+01
3900000000.000000      4.893341000000000E-01      5.092968000000000E+01      4.769897000000000E-01      4.796484000000000E+01
3920000000.000000      5.203857000000000E-01      4.336914000000000E+01      5.089722000000000E-01      3.602148000000000E+01
3940000000.000000      5.476379000000000E-01      3.414258000000000E+01      5.392456000000000E-01      2.971777000000000E+01
3960000000.000000      5.599976000000000E-01      2.403613000000000E+01      5.959473000000000E-01      2.031738000000000E+01
3980000000.000000      5.545044000000000E-01      1.375342000000000E+01      5.973511000000000E-01      8.323242000000000E+00
4000000000.000000      5.271606000000000E-01      3.221680000000000E+00      5.806580000000000E-01      1.436462000000000E+00
4020000000.000000      4.852600000000000E-01     -6.756592000000000E+00      5.977478000000000E-01     -6.416016000000000E+00
4040000000.000000      4.264984000000000E-01     -1.560352000000000E+01      5.859070000000000E-01     -1.867285000000000E+01
4060000000.000000      3.506622000000000E-01     -2.174414000000000E+01      5.284424000000000E-01     -2.870117000000000E+01
4080000000.000000      2.752228000000000E-01     -2.175293000000000E+01      4.693604000000000E-01     -3.813281000000000E+01
4100000000.000000      2.286758000000000E-01     -1.126123000000000E+01      3.679657000000000E-01     -4.748437000000000E+01
4120000000.000000      2.414780000000000E-01      1.893738000000000E+00      2.505646000000000E-01     -4.426953000000000E+01
4140000000.000000      2.896118000000000E-01      5.262451000000000E+00      2.028885000000000E-01     -2.028711000000000E+01
4160000000.000000      3.340302000000000E-01      1.123352000000000E+00      2.625122000000000E-01     -8.239746000000000E-02
4180000000.000000      3.613892000000000E-01     -5.747314000000000E+00      3.564758000000000E-01      3.912476000000000E+00
4200000000.000000      3.718109000000000E-01     -1.349854000000000E+01      4.860077000000000E-01      1.424072000000000E+00
4220000000.000000      3.679810000000000E-01     -2.068750000000000E+01      6.405640000000000E-01     -1.090820000000000E+01
4240000000.000000      3.489685000000000E-01     -2.824121000000000E+01      7.209473000000000E-01     -2.747363000000000E+01
4260000000.000000      3.105927000000000E-01     -3.402929000000000E+01      7.427979000000000E-01     -4.171288000000000E+01
4280000000.000000      2.605743000000000E-01     -3.532031000000000E+01      7.517090000000000E-01     -5.548437000000000E+01
4300000000.000000      2.220764000000000E-01     -2.736035000000000E+01      7.166138000000000E-01     -7.058203000000000E+01
4320000000.000000      2.351303000000000E-01     -1.449121000000000E+01      6.332092000000000E-01     -8.511328000000000E+01
4340000000.000000      2.929382000000000E-01     -1.041504000000000E+01      5.168457000000000E-01     -9.771873000000000E+01
4360000000.000000      3.581238000000000E-01     -1.548389000000000E+01      3.831177000000000E-01     -1.070117000000000E+02
4380000000.000000      4.051361000000000E-01     -2.442968000000000E+01      2.512665000000000E-01     -1.081992000000000E+02
4400000000.000000      4.266052000000000E-01     -3.438867000000000E+01      1.538620000000000E-01     -8.550781000000000E+01
4420000000.000000      4.250031000000000E-01     -4.382421000000000E+01      1.864929000000000E-01     -4.574414000000000E+01
4440000000.000000      4.086609000000000E-01     -5.189843000000000E+01      3.090973000000000E-01     -3.606250000000000E+01
4460000000.000000      3.876953000000000E-01     -5.849999000000000E+01      4.520721000000000E-01     -4.308203000000000E+01
4480000000.000000      3.668365000000000E-01     -6.473046000000000E+01      5.612183000000000E-01     -5.528320000000000E+01
4500000000.000000      3.473358000000000E-01     -7.156640000000000E+01      6.407166000000000E-01     -6.690624000000000E+01
4520000000.000000      3.140869000000000E-01     -7.930469000000000E+01      7.167053000000000E-01     -7.968750000000000E+01
4540000000.000000      2.630463000000000E-01     -8.556641000000000E+01      7.422180000000000E-01     -9.428125000000000E+01
4560000000.000000      2.016830000000000E-01     -8.402735000000000E+01      7.302856000000000E-01     -1.076289000000000E+02
4580000000.000000      1.737747000000000E-01     -6.806250000000000E+01      6.924744000000000E-01     -1.214414000000000E+02
4600000000.000000      2.109909000000000E-01     -5.385547000000000E+01      6.063232000000000E-01     -1.345312000000000E+02
4620000000.000000      2.760162000000000E-01     -5.505077000000000E+01      5.000610000000000E-01     -1.450469000000000E+02
4640000000.000000      3.298645000000000E-01     -6.489062000000000E+01      3.807831000000000E-01     -1.534531000000000E+02
4660000000.000000      3.541412000000000E-01     -7.822266000000000E+01      2.476273000000000E-01     -1.519531000000000E+02
4680000000.000000      3.462830000000000E-01     -9.221874000000000E+01      1.788712000000000E-01     -1.238398000000000E+02
4700000000.000000      3.099976000000000E-01     -1.054648000000000E+02      2.473755000000000E-01     -9.667578000000000E+01
4720000000.000000      2.538910000000000E-01     -1.161445000000000E+02      3.653564000000000E-01     -9.521875000000000E+01
4740000000.000000      1.917572000000000E-01     -1.215039000000000E+02      4.730682000000000E-01     -1.015937000000000E+02
4760000000.000000      1.388626000000000E-01     -1.177109000000000E+02      5.778503000000000E-01     -1.105039000000000E+02
4780000000.000000      1.120720000000000E-01     -1.017148000000000E+02      6.670532000000000E-01     -1.228633000000000E+02
4800000000.000000      1.174622000000000E-01     -8.387110000000000E+01      7.161865000000000E-01     -1.355078000000000E+02
4820000000.000000      1.458740000000000E-01     -7.384766000000000E+01      7.352600000000000E-01     -1.487266000000000E+02
4840000000.000000      1.862183000000000E-01     -7.350780000000000E+01      7.195129000000000E-01     -1.616719000000000E+02
4860000000.000000      2.303925000000000E-01     -8.008204000000000E+01      6.859436000000000E-01     -1.741562000000000E+02
4880000000.000000      2.683258000000000E-01     -9.046093000000000E+01      6.186523000000000E-01      1.718984000000000E+02
4900000000.000000      2.937164000000000E-01     -1.038906000000000E+02      4.972839000000000E-01      1.596562000000000E+02
4920000000.000000      3.002625000000000E-01     -1.190508000000000E+02      3.677826000000000E-01      1.535078000000000E+02
4940000000.000000      2.857361000000000E-01     -1.348594000000000E+02      2.527313000000000E-01      1.558203000000000E+02
4960000000.000000      2.555542000000000E-01     -1.498828000000000E+02      1.773758000000000E-01      1.769219000000000E+02
4980000000.000000      2.127609000000000E-01     -1.643203000000000E+02      2.136917000000000E-01     -1.513828000000000E+02
5000000000.000000      1.686554000000000E-01     -1.759766000000000E+02      3.285370000000000E-01     -1.436172000000000E+02
5020000000.000000      1.309586000000000E-01      1.738672000000000E+02      4.591370000000000E-01     -1.495625000000000E+02
5040000000.000000      1.005554000000000E-01      1.638438000000000E+02      5.678711000000000E-01     -1.603672000000000E+02
5060000000.000000      7.225800000000000E-02      1.489609000000000E+02      6.488953000000000E-01     -1.716953000000000E+02
5080000000.000000      4.172516000000000E-02      1.234258000000000E+02      7.183533000000000E-01      1.761641000000000E+02
5100000000.000000      1.694584000000000E-02      4.335742000000000E+01      7.579651000000000E-01      1.623750000000000E+02
5120000000.000000      4.102516000000000E-02     -5.034765000000000E+01      7.537842000000000E-01      1.479922000000000E+02
5140000000.000000      7.217407000000000E-02     -8.711329000000000E+01      7.053528000000000E-01      1.343516000000000E+02
5160000000.000000      9.630966000000000E-02     -1.185117000000000E+02      6.282654000000000E-01      1.221445000000000E+02
5180000000.000000      1.099396000000000E-01     -1.491172000000000E+02      5.350037000000000E-01      1.107461000000000E+02
5200000000.000000      1.128082000000000E-01      1.783281000000000E+02      4.195709000000000E-01      1.011680000000000E+02
5220000000.000000      1.100159000000000E-01      1.423594000000000E+02      2.848053000000000E-01      9.809374000000000E+01
5240000000.000000      1.089363000000000E-01      1.061484000000000E+02      1.843948000000000E-01      1.148672000000000E+02
5260000000.000000      1.136169000000000E-01      7.276562000000000E+01      1.955109000000000E-01      1.490781000000000E+02
5280000000.000000      1.204453000000000E-01      4.611328000000000E+01      2.950439000000000E-01      1.606172000000000E+02
5300000000.000000      1.277008000000000E-01      2.519238000000000E+01      4.086914000000000E-01      1.582813000000000E+02
5320000000.000000      1.334763000000000E-01      8.868652000000000E+00      5.270996000000000E-01      1.507266000000000E+02
5340000000.000000      1.392593000000000E-01     -5.469971000000000E+00      6.389465000000000E-01      1.386250000000000E+02
5360000000.000000      1.432877000000000E-01     -2.114062000000000E+01      7.073975000000000E-01      1.241797000000000E+02
5380000000.000000      1.388702000000000E-01     -3.886133000000000E+01      7.158203000000000E-01      1.109062000000000E+02
5400000000.000000      1.204529000000000E-01     -5.684960000000000E+01      7.181396000000000E-01      9.908203000000000E+01
5420000000.000000      8.482361000000000E-02     -7.386719000000000E+01      7.068176000000000E-01      8.615625000000000E+01
5440000000.000000      3.092289000000000E-02     -7.914063000000000E+01      6.488647000000000E-01      7.172265000000000E+01
5460000000.000000      4.232407000000000E-02      3.897265000000000E+01      5.391846000000000E-01      5.853125000000000E+01
5480000000.000000      1.123199000000000E-01      3.124316000000000E+01      4.134979000000000E-01      4.938671000000000E+01
5500000000.000000      1.750641000000000E-01      1.599170000000000E+01      2.937775000000000E-01      4.722265000000000E+01
5520000000.000000      2.204208000000000E-01      9.036255000000000E-01      1.959610000000000E-01      5.863476000000000E+01
5540000000.000000      2.515106000000000E-01     -1.286914000000000E+01      1.800385000000000E-01      9.043360000000000E+01
5560000000.000000      2.699432000000000E-01     -2.473730000000000E+01      2.615509000000000E-01      1.087773000000000E+02
5580000000.000000      2.829132000000000E-01     -3.489648000000000E+01      3.832703000000000E-01      1.086172000000000E+02
5600000000.000000      2.940063000000000E-01     -4.384375000000000E+01      5.061340000000000E-01      9.991796000000000E+01
5620000000.000000      3.049164000000000E-01     -5.296484000000000E+01      5.957031000000000E-01      8.726171000000000E+01
5640000000.000000      3.085785000000000E-01     -6.270702000000000E+01      6.475220000000000E-01      7.528125000000000E+01
5660000000.000000      2.985992000000000E-01     -7.321484000000000E+01      6.850281000000000E-01      6.398438000000000E+01
5680000000.000000      2.691040000000000E-01     -8.351954000000000E+01      6.977844000000000E-01      5.121875000000000E+01
5700000000.000000      2.217484000000000E-01     -9.096874000000000E+01      6.845093000000000E-01      3.889843000000000E+01
5720000000.000000      1.709213000000000E-01     -8.991796000000000E+01      6.450500000000000E-01      2.606348000000000E+01
5740000000.000000      1.492386000000000E-01     -7.558594000000000E+01      5.679016000000000E-01      1.282080000000000E+01
5760000000.000000      1.781235000000000E-01     -6.363867000000000E+01      4.523621000000000E-01      1.246948000000000E+00
5780000000.000000      2.243347000000000E-01     -6.510937000000000E+01      3.184357000000000E-01     -3.997681000000000E+00
5800000000.000000      2.572632000000000E-01     -7.299609000000000E+01      2.086563000000000E-01      6.712646000000000E+00
5820000000.000000      2.675781000000000E-01     -8.226563000000000E+01      1.884460000000000E-01      3.728516000000000E+01
5840000000.000000      2.571259000000000E-01     -9.084375000000000E+01      2.701263000000000E-01      5.396874000000000E+01
5860000000.000000      2.397614000000000E-01     -9.647655000000000E+01      3.705292000000000E-01      5.412499000000000E+01
5880000000.000000      2.239914000000000E-01     -9.973827000000000E+01      4.780121000000000E-01      4.893945000000000E+01
5900000000.000000      2.162323000000000E-01     -1.022422000000000E+02      5.940552000000000E-01      3.860547000000000E+01
5920000000.000000      2.084656000000000E-01     -1.051094000000000E+02      6.719666000000000E-01      2.481738000000000E+01
5940000000.000000      1.948700000000000E-01     -1.070195000000000E+02      7.031250000000000E-01      1.152832000000000E+01
5960000000.000000      1.773911000000000E-01     -1.052734000000000E+02      7.134399000000000E-01     -1.230469000000000E+00
5980000000.000000      1.658478000000000E-01     -9.757030000000000E+01      6.925354000000000E-01     -1.519824000000000E+01
6000000000.000000      1.814117000000000E-01     -8.817968000000000E+01      6.282654000000000E-01     -2.887207000000000E+01
6020000000.000000      2.158508000000000E-01     -8.632813000000000E+01      5.310669000000000E-01     -4.162890000000000E+01
6040000000.000000      2.513123000000000E-01     -9.160547000000000E+01      4.024353000000000E-01     -4.982031000000000E+01
6060000000.000000      2.754517000000000E-01     -1.005586000000000E+02      2.868805000000000E-01     -4.978516000000000E+01
6080000000.000000      2.849884000000000E-01     -1.108750000000000E+02      2.062073000000000E-01     -3.621094000000000E+01
