! Network Analyzer HP8722D
! Hewlett-Packard
! Data name: Linha & Wilkinson+CNT
! Saver's name: Rodrigo Anjos
! Comments: Teste da utilização de aquisição
continua pelo VNA HP8722D
! Time and date: 29/9/2025 14:20
!              Frequency                     S11                                                   S21                                                   S12                                                   S22
# HZ  S  MA R 50
3000000000.000000      4.252777000000000E-01     -5.559960000000000E+01      2.061768000000000E-01     -1.316328000000000E+02
3020000000.000000      4.477234000000000E-01     -6.972265000000000E+01      3.498077000000000E-01     -1.349297000000000E+02
3040000000.000000      4.524078000000000E-01     -8.280468000000000E+01      4.663086000000000E-01     -1.449219000000000E+02
3060000000.000000      4.450226000000000E-01     -9.491014000000000E+01      5.731812000000000E-01     -1.551250000000000E+02
3080000000.000000      4.295807000000000E-01     -1.061953000000000E+02      6.727295000000000E-01     -1.681875000000000E+02
3100000000.000000      4.090576000000000E-01     -1.174180000000000E+02      7.252808000000000E-01      1.769609000000000E+02
3120000000.000000      3.795471000000000E-01     -1.293359000000000E+02      7.320251000000000E-01      1.635391000000000E+02
3140000000.000000      3.386841000000000E-01     -1.422969000000000E+02      7.231140000000000E-01      1.506250000000000E+02
3160000000.000000      2.791748000000000E-01     -1.564375000000000E+02      6.840820000000000E-01      1.370000000000000E+02
3180000000.000000      1.998978000000000E-01     -1.690547000000000E+02      6.144714000000000E-01      1.245234000000000E+02
3200000000.000000      1.117630000000000E-01     -1.699141000000000E+02      5.210876000000000E-01      1.115547000000000E+02
3220000000.000000      7.927322000000000E-02     -1.244609000000000E+02      3.870239000000000E-01      1.007305000000000E+02
3240000000.000000      1.503754000000000E-01     -1.048516000000000E+02      2.476883000000000E-01      9.952343000000000E+01
3260000000.000000      2.297668000000000E-01     -1.150977000000000E+02      1.473846000000000E-01      1.249648000000000E+02
3280000000.000000      2.874298000000000E-01     -1.307344000000000E+02      2.024765000000000E-01      1.651250000000000E+02
3300000000.000000      3.202515000000000E-01     -1.471016000000000E+02      3.293915000000000E-01      1.696719000000000E+02
3320000000.000000      3.325958000000000E-01     -1.629922000000000E+02      4.620056000000000E-01      1.626562000000000E+02
3340000000.000000      3.287964000000000E-01     -1.784922000000000E+02      5.743408000000000E-01      1.505312000000000E+02
3360000000.000000      3.170776000000000E-01      1.668437000000000E+02      6.458740000000000E-01      1.384063000000000E+02
3380000000.000000      3.005524000000000E-01      1.524375000000000E+02      7.099915000000000E-01      1.271445000000000E+02
3400000000.000000      2.785339000000000E-01      1.377031000000000E+02      7.580261000000000E-01      1.133672000000000E+02
3420000000.000000      2.437439000000000E-01      1.228320000000000E+02      7.482605000000000E-01      9.851563000000000E+01
3440000000.000000      1.904373000000000E-01      1.081016000000000E+02      7.062073000000000E-01      8.559765000000000E+01
3460000000.000000      1.201439000000000E-01      9.725389000000000E+01      6.478271000000000E-01      7.242969000000000E+01
3480000000.000000      4.802513000000000E-02      1.207265000000000E+02      5.504761000000000E-01      5.905273000000000E+01
3500000000.000000      9.160995000000000E-02     -1.744219000000000E+02      4.257507000000000E-01      4.758398000000000E+01
3520000000.000000      1.833344000000000E-01      1.791875000000000E+02      2.797394000000000E-01      4.045507000000000E+01
3540000000.000000      2.626343000000000E-01      1.629453000000000E+02      1.479187000000000E-01      5.784961000000000E+01
3560000000.000000      3.225555000000000E-01      1.459922000000000E+02      1.660385000000000E-01      1.075508000000000E+02
3580000000.000000      3.596649000000000E-01      1.299375000000000E+02      2.936096000000000E-01      1.176094000000000E+02
3600000000.000000      3.759308000000000E-01      1.153125000000000E+02      4.185638000000000E-01      1.106836000000000E+02
3620000000.000000      3.786011000000000E-01      1.026211000000000E+02      5.191345000000000E-01      1.013633000000000E+02
3640000000.000000      3.687592000000000E-01      9.136719000000000E+01      6.208496000000000E-01      9.014843000000000E+01
3660000000.000000      3.528595000000000E-01      8.119141000000000E+01      6.912537000000000E-01      7.586328000000000E+01
3680000000.000000      3.298645000000000E-01      7.194140000000000E+01      7.106628000000000E-01      6.268359000000000E+01
3700000000.000000      2.994385000000000E-01      6.367773000000000E+01      7.208557000000000E-01      5.113867000000000E+01
3720000000.000000      2.551117000000000E-01      5.756249000000000E+01      7.243652000000000E-01      3.687500000000000E+01
3740000000.000000      2.047729000000000E-01      5.827929000000000E+01      6.649780000000000E-01      2.145410000000000E+01
3760000000.000000      1.776810000000000E-01      7.228125000000000E+01      5.678101000000000E-01      7.083252000000000E+00
3780000000.000000      2.113953000000000E-01      8.723047000000000E+01      4.362793000000000E-01     -5.982178000000000E+00
3800000000.000000      2.818909000000000E-01      8.905077000000000E+01      2.835999000000000E-01     -1.352148000000000E+01
3820000000.000000      3.495178000000000E-01      8.263672000000000E+01      1.539917000000000E-01     -7.841492000000000E-01
3840000000.000000      4.003143000000000E-01      7.390234000000000E+01      1.423798000000000E-01      4.750196000000000E+01
3860000000.000000      4.356232000000000E-01      6.526562000000000E+01      2.452927000000000E-01      6.533593000000000E+01
3880000000.000000      4.600677000000000E-01      5.778515000000000E+01      3.751221000000000E-01      6.124023000000000E+01
3900000000.000000      4.888306000000000E-01      5.075781000000000E+01      4.754791000000000E-01      4.777929000000000E+01
3920000000.000000      5.197144000000000E-01      4.321289000000000E+01      5.075073000000000E-01      3.602930000000000E+01
3940000000.000000      5.480957000000000E-01      3.426953000000000E+01      5.392151000000000E-01      2.961426000000000E+01
3960000000.000000      5.586243000000000E-01      2.393066000000000E+01      5.957947000000000E-01      2.001953000000000E+01
3980000000.000000      5.530396000000000E-01      1.358691000000000E+01      5.972290000000000E-01      8.261719000000000E+00
4000000000.000000      5.278625000000000E-01      3.102173000000000E+00      5.802002000000000E-01      1.316956000000000E+00
4020000000.000000      4.842377000000000E-01     -6.817139000000000E+00      5.993958000000000E-01     -6.616699000000000E+00
4040000000.000000      4.259033000000000E-01     -1.569971000000000E+01      5.852661000000000E-01     -1.875977000000000E+01
4060000000.000000      3.498383000000000E-01     -2.181347000000000E+01      5.284119000000000E-01     -2.892578000000000E+01
4080000000.000000      2.742767000000000E-01     -2.183887000000000E+01      4.694977000000000E-01     -3.823242000000000E+01
4100000000.000000      2.285080000000000E-01     -1.132715000000000E+01      3.683319000000000E-01     -4.748828000000000E+01
4120000000.000000      2.416916000000000E-01      1.800354000000000E+00      2.499771000000000E-01     -4.429688000000000E+01
4140000000.000000      2.894440000000000E-01      5.076904000000000E+00      2.027893000000000E-01     -2.029199000000000E+01
4160000000.000000      3.339691000000000E-01      1.051941000000000E+00      2.623749000000000E-01     -1.071167000000000E-01
4180000000.000000      3.617401000000000E-01     -5.887451000000000E+00      3.562317000000000E-01      3.919312000000000E+00
4200000000.000000      3.717346000000000E-01     -1.362744000000000E+01      4.866486000000000E-01      1.415833000000000E+00
4220000000.000000      3.671265000000000E-01     -2.084668000000000E+01      6.396484000000000E-01     -1.105957000000000E+01
4240000000.000000      3.484497000000000E-01     -2.834082000000000E+01      7.219238000000000E-01     -2.776562000000000E+01
4260000000.000000      3.107147000000000E-01     -3.407617000000000E+01      7.424622000000000E-01     -4.168945000000000E+01
4280000000.000000      2.597656000000000E-01     -3.538086000000000E+01      7.521667000000000E-01     -5.564453000000000E+01
4300000000.000000      2.223053000000000E-01     -2.735254000000000E+01      7.169495000000000E-01     -7.063671000000000E+01
4320000000.000000      2.350845000000000E-01     -1.465723000000000E+01      6.348572000000000E-01     -8.517187000000000E+01
4340000000.000000      2.931976000000000E-01     -1.047021000000000E+01      5.175476000000000E-01     -9.792187000000000E+01
4360000000.000000      3.584595000000000E-01     -1.557324000000000E+01      3.827362000000000E-01     -1.070117000000000E+02
4380000000.000000      4.046936000000000E-01     -2.453125000000000E+01      2.509766000000000E-01     -1.081094000000000E+02
4400000000.000000      4.262238000000000E-01     -3.450976000000000E+01      1.534348000000000E-01     -8.558985000000000E+01
4420000000.000000      4.248505000000000E-01     -4.387695000000000E+01      1.865997000000000E-01     -4.580274000000000E+01
4440000000.000000      4.076080000000000E-01     -5.206836000000000E+01      3.090820000000000E-01     -3.624218000000000E+01
4460000000.000000      3.876495000000000E-01     -5.845117000000000E+01      4.513702000000000E-01     -4.326172000000000E+01
4480000000.000000      3.684387000000000E-01     -6.485937000000000E+01      5.594482000000000E-01     -5.538867000000000E+01
4500000000.000000      3.470306000000000E-01     -7.158203000000000E+01      6.422729000000000E-01     -6.679688000000000E+01
4520000000.000000      3.136444000000000E-01     -7.927734000000000E+01      7.161865000000000E-01     -7.963281000000000E+01
4540000000.000000      2.626038000000000E-01     -8.560156000000000E+01      7.410889000000000E-01     -9.443359000000000E+01
4560000000.000000      2.018204000000000E-01     -8.386719000000000E+01      7.297058000000000E-01     -1.074805000000000E+02
4580000000.000000      1.739883000000000E-01     -6.808594000000000E+01      6.915894000000000E-01     -1.213945000000000E+02
4600000000.000000      2.111740000000000E-01     -5.390234000000000E+01      6.071777000000000E-01     -1.346719000000000E+02
4620000000.000000      2.763367000000000E-01     -5.519531000000000E+01      5.000000000000000E-01     -1.450312000000000E+02
4640000000.000000      3.304749000000000E-01     -6.503906000000000E+01      3.813629000000000E-01     -1.535547000000000E+02
4660000000.000000      3.544312000000000E-01     -7.828125000000000E+01      2.469940000000000E-01     -1.520078000000000E+02
4680000000.000000      3.462372000000000E-01     -9.223436000000000E+01      1.787796000000000E-01     -1.239023000000000E+02
4700000000.000000      3.093872000000000E-01     -1.054766000000000E+02      2.466507000000000E-01     -9.674217000000000E+01
4720000000.000000      2.538147000000000E-01     -1.161328000000000E+02      3.656921000000000E-01     -9.545313000000000E+01
4740000000.000000      1.916504000000000E-01     -1.215937000000000E+02      4.728699000000000E-01     -1.016523000000000E+02
4760000000.000000      1.391220000000000E-01     -1.176289000000000E+02      5.785217000000000E-01     -1.104453000000000E+02
4780000000.000000      1.123543000000000E-01     -1.017930000000000E+02      6.670227000000000E-01     -1.229375000000000E+02
4800000000.000000      1.175385000000000E-01     -8.388672000000000E+01      7.167969000000000E-01     -1.354766000000000E+02
4820000000.000000      1.456070000000000E-01     -7.400781000000000E+01      7.367249000000000E-01     -1.488203000000000E+02
4840000000.000000      1.873322000000000E-01     -7.369922000000000E+01      7.178040000000000E-01     -1.615937000000000E+02
4860000000.000000      2.307739000000000E-01     -8.032030000000000E+01      6.853333000000000E-01     -1.742344000000000E+02
4880000000.000000      2.681580000000000E-01     -9.062500000000000E+01      6.179199000000000E-01      1.719687000000000E+02
4900000000.000000      2.935486000000000E-01     -1.041367000000000E+02      4.971771000000000E-01      1.597734000000000E+02
4920000000.000000      2.998199000000000E-01     -1.191836000000000E+02      3.660278000000000E-01      1.535859000000000E+02
4940000000.000000      2.856445000000000E-01     -1.349609000000000E+02      2.526550000000000E-01      1.559922000000000E+02
4960000000.000000      2.546234000000000E-01     -1.501328000000000E+02      1.770401000000000E-01      1.768203000000000E+02
4980000000.000000      2.127838000000000E-01     -1.642266000000000E+02      2.135162000000000E-01     -1.512500000000000E+02
5000000000.000000      1.686783000000000E-01     -1.760078000000000E+02      3.285522000000000E-01     -1.435469000000000E+02
5020000000.000000      1.307983000000000E-01      1.737890000000000E+02      4.594269000000000E-01     -1.495391000000000E+02
5040000000.000000      1.002197000000000E-01      1.637812000000000E+02      5.684204000000000E-01     -1.604766000000000E+02
5060000000.000000      7.192230000000000E-02      1.484922000000000E+02      6.498718000000000E-01     -1.718359000000000E+02
5080000000.000000      4.216957000000000E-02      1.228281000000000E+02      7.183838000000000E-01      1.760625000000000E+02
5100000000.000000      1.674938000000000E-02      4.319531000000000E+01      7.564087000000000E-01      1.622422000000000E+02
5120000000.000000      4.088020000000000E-02     -5.060937000000000E+01      7.537842000000000E-01      1.481172000000000E+02
5140000000.000000      7.239532000000000E-02     -8.708984000000000E+01      7.051086000000000E-01      1.343125000000000E+02
5160000000.000000      9.565353000000000E-02     -1.185938000000000E+02      6.307373000000000E-01      1.221250000000000E+02
5180000000.000000      1.092377000000000E-01     -1.492422000000000E+02      5.358582000000000E-01      1.108008000000000E+02
5200000000.000000      1.124458000000000E-01      1.781641000000000E+02      4.182587000000000E-01      1.010430000000000E+02
5220000000.000000      1.097221000000000E-01      1.421016000000000E+02      2.840729000000000E-01      9.804296000000000E+01
5240000000.000000      1.091728000000000E-01      1.058789000000000E+02      1.843567000000000E-01      1.149531000000000E+02
5260000000.000000      1.137352000000000E-01      7.259766000000000E+01      1.956482000000000E-01      1.491562000000000E+02
5280000000.000000      1.206055000000000E-01      4.577929000000000E+01      2.948761000000000E-01      1.605000000000000E+02
5300000000.000000      1.268463000000000E-01      2.523633000000000E+01      4.089508000000000E-01      1.581094000000000E+02
5320000000.000000      1.330643000000000E-01      8.761230000000000E+00      5.269470000000000E-01      1.506250000000000E+02
5340000000.000000      1.390610000000000E-01     -5.760986000000000E+00      6.385803000000000E-01      1.386797000000000E+02
5360000000.000000      1.434097000000000E-01     -2.108984000000000E+01      7.057800000000000E-01      1.241172000000000E+02
5380000000.000000      1.383133000000000E-01     -3.855664000000000E+01      7.176208000000000E-01      1.108437000000000E+02
5400000000.000000      1.201096000000000E-01     -5.653125000000000E+01      7.189941000000000E-01      9.899609000000000E+01
5420000000.000000      8.483505000000000E-02     -7.354687000000000E+01      7.052612000000000E-01      8.604687000000000E+01
5440000000.000000      3.066826000000000E-02     -7.778515000000000E+01      6.483459000000000E-01      7.162109000000000E+01
5460000000.000000      4.296112000000000E-02      3.891602000000000E+01      5.415039000000000E-01      5.869141000000000E+01
5480000000.000000      1.127853000000000E-01      3.115429000000000E+01      4.142914000000000E-01      4.933007000000000E+01
5500000000.000000      1.752625000000000E-01      1.582275000000000E+01      2.934570000000000E-01      4.721875000000000E+01
5520000000.000000      2.206345000000000E-01      6.701660000000000E-01      1.959381000000000E-01      5.869531000000000E+01
5540000000.000000      2.517853000000000E-01     -1.305469000000000E+01      1.798248000000000E-01      9.055859000000000E+01
5560000000.000000      2.706146000000000E-01     -2.488965000000000E+01      2.617645000000000E-01      1.087422000000000E+02
5580000000.000000      2.829742000000000E-01     -3.497656000000000E+01      3.826447000000000E-01      1.087383000000000E+02
5600000000.000000      2.937775000000000E-01     -4.379296000000000E+01      5.059509000000000E-01      9.966406000000000E+01
5620000000.000000      3.045654000000000E-01     -5.290039000000000E+01      5.954285000000000E-01      8.719530000000000E+01
5640000000.000000      3.084717000000000E-01     -6.268359000000000E+01      6.448975000000000E-01      7.537499000000000E+01
5660000000.000000      2.980042000000000E-01     -7.342578000000000E+01      6.869202000000000E-01      6.405468000000000E+01
5680000000.000000      2.691040000000000E-01     -8.375000000000000E+01      6.988525000000000E-01      5.134179000000000E+01
5700000000.000000      2.214737000000000E-01     -9.118750000000000E+01      6.827087000000000E-01      3.880078000000000E+01
5720000000.000000      1.712494000000000E-01     -8.986328000000000E+01      6.451111000000000E-01      2.605957000000000E+01
5740000000.000000      1.494370000000000E-01     -7.548437000000000E+01      5.671997000000000E-01      1.276465000000000E+01
5760000000.000000      1.778717000000000E-01     -6.366211000000000E+01      4.519958000000000E-01      1.187866000000000E+00
5780000000.000000      2.243118000000000E-01     -6.509375000000000E+01      3.182220000000000E-01     -4.044434000000000E+00
5800000000.000000      2.568665000000000E-01     -7.304296000000000E+01      2.087708000000000E-01      6.643799000000000E+00
5820000000.000000      2.669067000000000E-01     -8.249609000000000E+01      1.882324000000000E-01      3.718359000000000E+01
5840000000.000000      2.568054000000000E-01     -9.092577000000000E+01      2.694855000000000E-01      5.395508000000000E+01
5860000000.000000      2.389069000000000E-01     -9.661718000000000E+01      3.714142000000000E-01      5.419531000000000E+01
5880000000.000000      2.246704000000000E-01     -9.975389000000000E+01      4.780426000000000E-01      4.876171000000000E+01
5900000000.000000      2.163391000000000E-01     -1.023945000000000E+02      5.952454000000000E-01      3.857226000000000E+01
5920000000.000000      2.085114000000000E-01     -1.050195000000000E+02      6.715088000000000E-01      2.458984000000000E+01
5940000000.000000      1.952438000000000E-01     -1.070625000000000E+02      7.028503000000000E-01      1.136768000000000E+01
5960000000.000000      1.777267000000000E-01     -1.052891000000000E+02      7.143555000000000E-01     -1.279907000000000E+00
5980000000.000000      1.655426000000000E-01     -9.779686000000000E+01      6.933594000000000E-01     -1.544580000000000E+01
6000000000.000000      1.809082000000000E-01     -8.825781000000000E+01      6.284790000000000E-01     -2.889062000000000E+01
6020000000.000000      2.150803000000000E-01     -8.642969000000000E+01      5.305176000000000E-01     -4.170703000000000E+01
6040000000.000000      2.508698000000000E-01     -9.181641000000000E+01      4.013062000000000E-01     -4.999218000000000E+01
6060000000.000000      2.755737000000000E-01     -1.008047000000000E+02      2.863312000000000E-01     -4.988671000000000E+01
6080000000.000000      2.854462000000000E-01     -1.109101000000000E+02      2.060928000000000E-01     -3.625195000000000E+01
