! Network Analyzer HP8722D
! Hewlett-Packard
! Data name: Linha & Wilkinson+CNT
! Saver's name: Rodrigo Anjos
! Comments: Teste da utilização de aquisição
continua pelo VNA HP8722D
! Time and date: 29/9/2025 12:40
!              Frequency                     S11                                                   S21                                                   S12                                                   S22
# HZ  S  MA R 50
3000000000.000000      4.255829000000000E-01     -5.614258000000000E+01      2.072144000000000E-01     -1.313516000000000E+02
3020000000.000000      4.486542000000000E-01     -7.014843000000000E+01      3.493805000000000E-01     -1.348516000000000E+02
3040000000.000000      4.532623000000000E-01     -8.312109000000000E+01      4.690704000000000E-01     -1.447891000000000E+02
3060000000.000000      4.467468000000000E-01     -9.512110000000000E+01      5.715942000000000E-01     -1.550625000000000E+02
3080000000.000000      4.318695000000000E-01     -1.063281000000000E+02      6.723328000000000E-01     -1.681719000000000E+02
3100000000.000000      4.121704000000000E-01     -1.174844000000000E+02      7.239685000000000E-01      1.770469000000000E+02
3120000000.000000      3.827515000000000E-01     -1.293594000000000E+02      7.322693000000000E-01      1.634687000000000E+02
3140000000.000000      3.425293000000000E-01     -1.422500000000000E+02      7.239075000000000E-01      1.506406000000000E+02
3160000000.000000      2.820282000000000E-01     -1.562187000000000E+02      6.840820000000000E-01      1.371328000000000E+02
3180000000.000000      2.029266000000000E-01     -1.684297000000000E+02      6.150818000000000E-01      1.245078000000000E+02
3200000000.000000      1.148491000000000E-01     -1.687578000000000E+02      5.198975000000000E-01      1.117773000000000E+02
3220000000.000000      8.310699000000000E-02     -1.248359000000000E+02      3.862610000000000E-01      1.010156000000000E+02
3240000000.000000      1.531525000000000E-01     -1.054414000000000E+02      2.471466000000000E-01      9.973045000000000E+01
3260000000.000000      2.328033000000000E-01     -1.153320000000000E+02      1.472397000000000E-01      1.254883000000000E+02
3280000000.000000      2.908020000000000E-01     -1.308672000000000E+02      2.024841000000000E-01      1.654844000000000E+02
3300000000.000000      3.239594000000000E-01     -1.469844000000000E+02      3.302307000000000E-01      1.697344000000000E+02
3320000000.000000      3.354340000000000E-01     -1.626875000000000E+02      4.637451000000000E-01      1.628047000000000E+02
3340000000.000000      3.317719000000000E-01     -1.780156000000000E+02      5.748901000000000E-01      1.507266000000000E+02
3360000000.000000      3.202362000000000E-01      1.674297000000000E+02      6.483154000000000E-01      1.385781000000000E+02
3380000000.000000      3.023987000000000E-01      1.532344000000000E+02      7.109375000000000E-01      1.271914000000000E+02
3400000000.000000      2.790222000000000E-01      1.385781000000000E+02      7.588196000000000E-01      1.135000000000000E+02
3420000000.000000      2.432709000000000E-01      1.237070000000000E+02      7.500916000000000E-01      9.869141000000000E+01
3440000000.000000      1.894989000000000E-01      1.090273000000000E+02      7.048950000000000E-01      8.559765000000000E+01
3460000000.000000      1.187325000000000E-01      9.842968000000000E+01      6.470947000000000E-01      7.253515000000000E+01
3480000000.000000      4.755020000000000E-02      1.247422000000000E+02      5.502625000000000E-01      5.933203000000000E+01
3500000000.000000      9.499359000000000E-02     -1.729063000000000E+02      4.258118000000000E-01      4.786328000000000E+01
3520000000.000000      1.861115000000000E-01      1.798359000000000E+02      2.792053000000000E-01      4.059766000000000E+01
3540000000.000000      2.649231000000000E-01      1.635703000000000E+02      1.477890000000000E-01      5.844921000000000E+01
3560000000.000000      3.235626000000000E-01      1.465859000000000E+02      1.672516000000000E-01      1.078750000000000E+02
3580000000.000000      3.598785000000000E-01      1.304375000000000E+02      2.946472000000000E-01      1.176836000000000E+02
3600000000.000000      3.759766000000000E-01      1.158008000000000E+02      4.198151000000000E-01      1.108086000000000E+02
3620000000.000000      3.769379000000000E-01      1.028984000000000E+02      5.212097000000000E-01      1.013867000000000E+02
3640000000.000000      3.680725000000000E-01      9.173828000000000E+01      6.229553000000000E-01      9.020311000000000E+01
3660000000.000000      3.514099000000000E-01      8.139452000000000E+01      6.952820000000000E-01      7.594921000000000E+01
3680000000.000000      3.278503000000000E-01      7.216406000000000E+01      7.127686000000000E-01      6.285546000000000E+01
3700000000.000000      2.969513000000000E-01      6.387109000000000E+01      7.218933000000000E-01      5.114648000000000E+01
3720000000.000000      2.527008000000000E-01      5.763281000000000E+01      7.250061000000000E-01      3.707031000000000E+01
3740000000.000000      2.022095000000000E-01      5.847851000000000E+01      6.652832000000000E-01      2.147949000000000E+01
3760000000.000000      1.754150000000000E-01      7.259766000000000E+01      5.678406000000000E-01      7.220703000000000E+00
3780000000.000000      2.098694000000000E-01      8.775782000000000E+01      4.370270000000000E-01     -6.156494000000000E+00
3800000000.000000      2.807159000000000E-01      8.938671000000000E+01      2.827148000000000E-01     -1.330322000000000E+01
3820000000.000000      3.483276000000000E-01      8.283203000000000E+01      1.542664000000000E-01     -2.444458000000000E-01
3840000000.000000      3.991241000000000E-01      7.405859000000000E+01      1.434021000000000E-01      4.775195000000000E+01
3860000000.000000      4.338226000000000E-01      6.541797000000000E+01      2.456284000000000E-01      6.539453000000000E+01
3880000000.000000      4.590149000000000E-01      5.780078000000000E+01      3.763733000000000E-01      6.120312000000000E+01
3900000000.000000      4.875946000000000E-01      5.068164000000000E+01      4.777832000000000E-01      4.780273000000000E+01
3920000000.000000      5.190430000000000E-01      4.294922000000000E+01      5.101318000000000E-01      3.604687000000000E+01
3940000000.000000      5.472412000000000E-01      3.409180000000000E+01      5.399170000000000E-01      2.962793000000000E+01
3960000000.000000      5.595703000000000E-01      2.392676000000000E+01      5.959473000000000E-01      2.020020000000000E+01
3980000000.000000      5.538635000000000E-01      1.335352000000000E+01      5.983887000000000E-01      8.327637000000000E+00
4000000000.000000      5.274658000000000E-01      2.857788000000000E+00      5.802917000000000E-01      1.271667000000000E+00
4020000000.000000      4.835358000000000E-01     -7.054688000000000E+00      5.981140000000000E-01     -6.465576000000000E+00
4040000000.000000      4.254150000000000E-01     -1.604883000000000E+01      5.856628000000000E-01     -1.870019000000000E+01
4060000000.000000      3.494873000000000E-01     -2.218359000000000E+01      5.283203000000000E-01     -2.873535000000000E+01
4080000000.000000      2.751465000000000E-01     -2.232226000000000E+01      4.687042000000000E-01     -3.816797000000000E+01
4100000000.000000      2.282791000000000E-01     -1.194092000000000E+01      3.671875000000000E-01     -4.755859000000000E+01
4120000000.000000      2.411041000000000E-01      1.348572000000000E+00      2.497482000000000E-01     -4.397851000000000E+01
4140000000.000000      2.889099000000000E-01      4.728027000000000E+00      2.032852000000000E-01     -1.989844000000000E+01
4160000000.000000      3.334656000000000E-01      6.742859000000000E-01      2.632599000000000E-01      6.866455000000000E-03
4180000000.000000      3.616791000000000E-01     -6.114014000000000E+00      3.574677000000000E-01      3.964600000000000E+00
4200000000.000000      3.711853000000000E-01     -1.401172000000000E+01      4.872284000000000E-01      1.546326000000000E+00
4220000000.000000      3.670044000000000E-01     -2.122559000000000E+01      6.409607000000000E-01     -1.084521000000000E+01
4240000000.000000      3.484802000000000E-01     -2.874804000000000E+01      7.218628000000000E-01     -2.764062000000000E+01
4260000000.000000      3.099060000000000E-01     -3.461133000000000E+01      7.425537000000000E-01     -4.167188000000000E+01
4280000000.000000      2.601013000000000E-01     -3.584375000000000E+01      7.514648000000000E-01     -5.545312000000000E+01
4300000000.000000      2.230148000000000E-01     -2.761425000000000E+01      7.158203000000000E-01     -7.060156000000000E+01
4320000000.000000      2.357559000000000E-01     -1.496338000000000E+01      6.325989000000000E-01     -8.516796000000000E+01
4340000000.000000      2.936554000000000E-01     -1.099365000000000E+01      5.170593000000000E-01     -9.766405000000000E+01
4360000000.000000      3.590393000000000E-01     -1.586865000000000E+01      3.798218000000000E-01     -1.068476000000000E+02
4380000000.000000      4.053345000000000E-01     -2.487597000000000E+01      2.501526000000000E-01     -1.079375000000000E+02
4400000000.000000      4.273071000000000E-01     -3.473437000000000E+01      1.533813000000000E-01     -8.518749000000000E+01
4420000000.000000      4.255829000000000E-01     -4.410352000000000E+01      1.874466000000000E-01     -4.561523000000000E+01
4440000000.000000      4.093475000000000E-01     -5.225586000000000E+01      3.100128000000000E-01     -3.598437000000000E+01
4460000000.000000      3.886719000000000E-01     -5.885937000000000E+01      4.507294000000000E-01     -4.317773000000000E+01
4480000000.000000      3.695374000000000E-01     -6.509375000000000E+01      5.606995000000000E-01     -5.528320000000000E+01
4500000000.000000      3.482056000000000E-01     -7.177343000000000E+01      6.425781000000000E-01     -6.665625000000000E+01
4520000000.000000      3.152161000000000E-01     -7.924218000000000E+01      7.159729000000000E-01     -7.960546000000000E+01
4540000000.000000      2.639465000000000E-01     -8.529297000000000E+01      7.420654000000000E-01     -9.432421000000000E+01
4560000000.000000      2.040634000000000E-01     -8.368359000000000E+01      7.293701000000000E-01     -1.074141000000000E+02
4580000000.000000      1.771545000000000E-01     -6.808203000000000E+01      6.924133000000000E-01     -1.212226000000000E+02
4600000000.000000      2.140274000000000E-01     -5.434960000000000E+01      6.062927000000000E-01     -1.345234000000000E+02
4620000000.000000      2.791595000000000E-01     -5.564062000000000E+01      4.983521000000000E-01     -1.448828000000000E+02
4640000000.000000      3.332520000000000E-01     -6.531250000000000E+01      3.798218000000000E-01     -1.533437000000000E+02
4660000000.000000      3.572083000000000E-01     -7.843359000000000E+01      2.469788000000000E-01     -1.516250000000000E+02
4680000000.000000      3.491669000000000E-01     -9.217577000000000E+01      1.789322000000000E-01     -1.234805000000000E+02
4700000000.000000      3.121796000000000E-01     -1.052617000000000E+02      2.475281000000000E-01     -9.647264000000000E+01
4720000000.000000      2.557526000000000E-01     -1.158320000000000E+02      3.666229000000000E-01     -9.512890000000000E+01
4740000000.000000      1.934052000000000E-01     -1.209727000000000E+02      4.742279000000000E-01     -1.014883000000000E+02
4760000000.000000      1.413574000000000E-01     -1.169375000000000E+02      5.808716000000000E-01     -1.103203000000000E+02
4780000000.000000      1.152916000000000E-01     -1.010117000000000E+02      6.670837000000000E-01     -1.225391000000000E+02
4800000000.000000      1.214523000000000E-01     -8.407812000000000E+01      7.178040000000000E-01     -1.355781000000000E+02
4820000000.000000      1.498184000000000E-01     -7.462891000000000E+01      7.364807000000000E-01     -1.487656000000000E+02
4840000000.000000      1.909332000000000E-01     -7.439453000000000E+01      7.185974000000000E-01     -1.617031000000000E+02
4860000000.000000      2.340393000000000E-01     -8.048046000000000E+01      6.835022000000000E-01     -1.740078000000000E+02
4880000000.000000      2.708893000000000E-01     -9.081249000000000E+01      6.168213000000000E-01      1.720469000000000E+02
4900000000.000000      2.965240000000000E-01     -1.040312000000000E+02      4.949493000000000E-01      1.600312000000000E+02
4920000000.000000      3.017731000000000E-01     -1.189492000000000E+02      3.651886000000000E-01      1.537109000000000E+02
4940000000.000000      2.873077000000000E-01     -1.344375000000000E+02      2.523804000000000E-01      1.561250000000000E+02
4960000000.000000      2.565918000000000E-01     -1.495703000000000E+02      1.772003000000000E-01      1.774141000000000E+02
4980000000.000000      2.139053000000000E-01     -1.634375000000000E+02      2.146149000000000E-01     -1.511094000000000E+02
5000000000.000000      1.692123000000000E-01     -1.749219000000000E+02      3.300934000000000E-01     -1.433516000000000E+02
5020000000.000000      1.306381000000000E-01      1.756406000000000E+02      4.607391000000000E-01     -1.495000000000000E+02
5040000000.000000      9.967422000000000E-02      1.656953000000000E+02      5.696716000000000E-01     -1.601875000000000E+02
5060000000.000000      7.155991000000000E-02      1.514531000000000E+02      6.514587000000000E-01     -1.716250000000000E+02
5080000000.000000      4.002380000000000E-02      1.263203000000000E+02      7.189026000000000E-01      1.760469000000000E+02
5100000000.000000      1.403379000000000E-02      4.025781000000000E+01      7.567444000000000E-01      1.623906000000000E+02
5120000000.000000      4.154778000000000E-02     -5.425976000000000E+01      7.524109000000000E-01      1.482812000000000E+02
5140000000.000000      7.395554000000000E-02     -8.818750000000000E+01      7.029724000000000E-01      1.346562000000000E+02
5160000000.000000      9.771729000000000E-02     -1.184648000000000E+02      6.281433000000000E-01      1.222695000000000E+02
5180000000.000000      1.103592000000000E-01     -1.484375000000000E+02      5.337524000000000E-01      1.109844000000000E+02
5200000000.000000      1.125412000000000E-01      1.792344000000000E+02      4.165497000000000E-01      1.013398000000000E+02
5220000000.000000      1.086693000000000E-01      1.431719000000000E+02      2.839661000000000E-01      9.849998000000000E+01
5240000000.000000      1.068230000000000E-01      1.065742000000000E+02      1.841049000000000E-01      1.154726000000000E+02
5260000000.000000      1.110840000000000E-01      7.265625000000000E+01      1.966476000000000E-01      1.495781000000000E+02
5280000000.000000      1.186867000000000E-01      4.553515000000000E+01      2.963867000000000E-01      1.607656000000000E+02
5300000000.000000      1.255798000000000E-01      2.470605000000000E+01      4.100189000000000E-01      1.583281000000000E+02
5320000000.000000      1.316986000000000E-01      8.001953000000000E+00      5.279541000000000E-01      1.507656000000000E+02
5340000000.000000      1.383972000000000E-01     -6.293945000000000E+00      6.373291000000000E-01      1.385937000000000E+02
5360000000.000000      1.431580000000000E-01     -2.173828000000000E+01      7.068481000000000E-01      1.241523000000000E+02
5380000000.000000      1.389236000000000E-01     -3.902344000000000E+01      7.176819000000000E-01      1.110039000000000E+02
5400000000.000000      1.215668000000000E-01     -5.707031000000000E+01      7.174683000000000E-01      9.914063000000000E+01
5420000000.000000      8.669662000000000E-02     -7.360937000000000E+01      7.060852000000000E-01      8.630077000000000E+01
5440000000.000000      3.314590000000000E-02     -7.858593000000000E+01      6.492310000000000E-01      7.182422000000000E+01
5460000000.000000      4.120064000000000E-02      3.672656000000000E+01      5.408936000000000E-01      5.877343000000000E+01
5480000000.000000      1.110344000000000E-01      3.029590000000000E+01      4.144287000000000E-01      4.934179000000000E+01
5500000000.000000      1.734543000000000E-01      1.507031000000000E+01      2.935638000000000E-01      4.746094000000000E+01
5520000000.000000      2.198792000000000E-01      1.826477000000000E-01      1.956253000000000E-01      5.926562000000000E+01
5540000000.000000      2.521667000000000E-01     -1.355029000000000E+01      1.807098000000000E-01      9.076563000000000E+01
5560000000.000000      2.703705000000000E-01     -2.522754000000000E+01      2.631531000000000E-01      1.088906000000000E+02
5580000000.000000      2.835236000000000E-01     -3.520312000000000E+01      3.845215000000000E-01      1.087852000000000E+02
5600000000.000000      2.948151000000000E-01     -4.393164000000000E+01      5.061035000000000E-01      9.991014000000000E+01
5620000000.000000      3.059235000000000E-01     -5.304492000000000E+01      5.950317000000000E-01      8.728125000000000E+01
5640000000.000000      3.101654000000000E-01     -6.271874000000000E+01      6.477356000000000E-01      7.531640000000000E+01
5660000000.000000      3.013458000000000E-01     -7.338281000000000E+01      6.827087000000000E-01      6.400391000000000E+01
5680000000.000000      2.727661000000000E-01     -8.360937000000000E+01      6.985168000000000E-01      5.139257000000000E+01
5700000000.000000      2.254105000000000E-01     -9.103907000000000E+01      6.839905000000000E-01      3.908398000000000E+01
5720000000.000000      1.747437000000000E-01     -8.997265000000000E+01      6.438293000000000E-01      2.625293000000000E+01
5740000000.000000      1.528168000000000E-01     -7.607812000000000E+01      5.653381000000000E-01      1.309961000000000E+01
5760000000.000000      1.806870000000000E-01     -6.423437000000000E+01      4.515839000000000E-01      1.558655000000000E+00
5780000000.000000      2.267838000000000E-01     -6.548437000000000E+01      3.165436000000000E-01     -3.791748000000000E+00
5800000000.000000      2.588501000000000E-01     -7.319921000000000E+01      2.085495000000000E-01      7.120361000000000E+00
5820000000.000000      2.689362000000000E-01     -8.269922000000000E+01      1.894760000000000E-01      3.761133000000000E+01
5840000000.000000      2.598114000000000E-01     -9.094921000000000E+01      2.703705000000000E-01      5.417969000000000E+01
5860000000.000000      2.420807000000000E-01     -9.648438000000000E+01      3.708191000000000E-01      5.432031000000000E+01
5880000000.000000      2.276382000000000E-01     -9.958202000000000E+01      4.777069000000000E-01      4.900000000000000E+01
5900000000.000000      2.206573000000000E-01     -1.020078000000000E+02      5.943298000000000E-01      3.872461000000000E+01
5920000000.000000      2.125778000000000E-01     -1.048633000000000E+02      6.724854000000000E-01      2.478320000000000E+01
5940000000.000000      1.986008000000000E-01     -1.070313000000000E+02      7.022705000000000E-01      1.167529000000000E+01
5960000000.000000      1.809082000000000E-01     -1.053789000000000E+02      7.130432000000000E-01     -1.042358000000000E+00
5980000000.000000      1.679153000000000E-01     -9.778124000000000E+01      6.917725000000000E-01     -1.504590000000000E+01
6000000000.000000      1.830521000000000E-01     -8.862108000000000E+01      6.285706000000000E-01     -2.866699000000000E+01
6020000000.000000      2.176743000000000E-01     -8.687500000000000E+01      5.292358000000000E-01     -4.126758000000000E+01
6040000000.000000      2.537842000000000E-01     -9.189062000000000E+01      3.998718000000000E-01     -4.944530000000000E+01
6060000000.000000      2.779541000000000E-01     -1.006172000000000E+02      2.857819000000000E-01     -4.930664000000000E+01
6080000000.000000      2.884674000000000E-01     -1.108242000000000E+02      2.057877000000000E-01     -3.567383000000000E+01
