! Network Analyzer HP8722D
! Hewlett-Packard
! Data name: Linha & Wilkinson+CNT
! Saver's name: Rodrigo Anjos
! Comments: Teste da utilização de aquisição
continua pelo VNA HP8722D
! Time and date: 29/9/2025 12:17
!              Frequency                     S11                                                   S21                                                   S12                                                   S22
# HZ  S  MA R 50
3000000000.000000      4.228821000000000E-01     -5.623632000000000E+01      2.080231000000000E-01     -1.313906000000000E+02
3020000000.000000      4.494476000000000E-01     -7.028125000000000E+01      3.504028000000000E-01     -1.349219000000000E+02
3040000000.000000      4.537964000000000E-01     -8.325781000000000E+01      4.684143000000000E-01     -1.448281000000000E+02
3060000000.000000      4.463196000000000E-01     -9.521875000000000E+01      5.720215000000000E-01     -1.552031000000000E+02
3080000000.000000      4.318695000000000E-01     -1.064687000000000E+02      6.723328000000000E-01     -1.681641000000000E+02
3100000000.000000      4.108429000000000E-01     -1.175352000000000E+02      7.242737000000000E-01      1.768750000000000E+02
3120000000.000000      3.826904000000000E-01     -1.293828000000000E+02      7.313232000000000E-01      1.634922000000000E+02
3140000000.000000      3.420715000000000E-01     -1.424141000000000E+02      7.239075000000000E-01      1.506562000000000E+02
3160000000.000000      2.817230000000000E-01     -1.561172000000000E+02      6.842041000000000E-01      1.371719000000000E+02
3180000000.000000      2.023926000000000E-01     -1.685469000000000E+02      6.132202000000000E-01      1.245000000000000E+02
3200000000.000000      1.145592000000000E-01     -1.688906000000000E+02      5.181885000000000E-01      1.117266000000000E+02
3220000000.000000      8.314133000000000E-02     -1.245586000000000E+02      3.852386000000000E-01      1.009531000000000E+02
3240000000.000000      1.539154000000000E-01     -1.056445000000000E+02      2.463913000000000E-01      9.979296000000000E+01
3260000000.000000      2.325974000000000E-01     -1.155664000000000E+02      1.472626000000000E-01      1.257734000000000E+02
3280000000.000000      2.907867000000000E-01     -1.309844000000000E+02      2.037354000000000E-01      1.655234000000000E+02
3300000000.000000      3.239594000000000E-01     -1.470937000000000E+02      3.305817000000000E-01      1.697187000000000E+02
3320000000.000000      3.354187000000000E-01     -1.628984000000000E+02      4.638672000000000E-01      1.626875000000000E+02
3340000000.000000      3.316193000000000E-01     -1.781406000000000E+02      5.752563000000000E-01      1.504844000000000E+02
3360000000.000000      3.195190000000000E-01      1.672734000000000E+02      6.475525000000000E-01      1.384766000000000E+02
3380000000.000000      3.024750000000000E-01      1.530859000000000E+02      7.099304000000000E-01      1.270469000000000E+02
3400000000.000000      2.790680000000000E-01      1.385234000000000E+02      7.585144000000000E-01      1.134219000000000E+02
3420000000.000000      2.426834000000000E-01      1.235195000000000E+02      7.494507000000000E-01      9.850389000000000E+01
3440000000.000000      1.891098000000000E-01      1.089375000000000E+02      7.054138000000000E-01      8.552734000000000E+01
3460000000.000000      1.179886000000000E-01      9.869530000000000E+01      6.474915000000000E-01      7.241796000000000E+01
3480000000.000000      4.782486000000000E-02      1.256289000000000E+02      5.502930000000000E-01      5.896093000000000E+01
3500000000.000000      9.560776000000000E-02     -1.730781000000000E+02      4.246521000000000E-01      4.765038000000000E+01
3520000000.000000      1.868591000000000E-01      1.796094000000000E+02      2.786102000000000E-01      4.069531000000000E+01
3540000000.000000      2.651062000000000E-01      1.634766000000000E+02      1.473389000000000E-01      5.865624000000000E+01
3560000000.000000      3.241730000000000E-01      1.464141000000000E+02      1.680908000000000E-01      1.078945000000000E+02
3580000000.000000      3.599854000000000E-01      1.303594000000000E+02      2.949371000000000E-01      1.175781000000000E+02
3600000000.000000      3.757935000000000E-01      1.156680000000000E+02      4.208527000000000E-01      1.106758000000000E+02
3620000000.000000      3.772125000000000E-01      1.028984000000000E+02      5.218811000000000E-01      1.011797000000000E+02
3640000000.000000      3.672028000000000E-01      9.173437000000000E+01      6.231079000000000E-01      8.985937000000000E+01
3660000000.000000      3.506165000000000E-01      8.132421000000000E+01      6.946106000000000E-01      7.579687000000000E+01
3680000000.000000      3.279419000000000E-01      7.208984000000000E+01      7.117920000000000E-01      6.267968000000000E+01
3700000000.000000      2.966919000000000E-01      6.378711000000000E+01      7.219849000000000E-01      5.101367000000000E+01
3720000000.000000      2.522888000000000E-01      5.764648000000000E+01      7.245483000000000E-01      3.681445000000000E+01
3740000000.000000      2.018356000000000E-01      5.847656000000000E+01      6.635132000000000E-01      2.136817000000000E+01
3760000000.000000      1.755676000000000E-01      7.274609000000000E+01      5.670776000000000E-01      7.180908000000000E+00
3780000000.000000      2.101898000000000E-01      8.785936000000000E+01      4.355469000000000E-01     -6.123535000000000E+00
3800000000.000000      2.808685000000000E-01      8.932032000000000E+01      2.816620000000000E-01     -1.328564000000000E+01
3820000000.000000      3.484955000000000E-01      8.273046000000000E+01      1.536255000000000E-01     -8.239746000000000E-02
3840000000.000000      3.991699000000000E-01      7.403125000000000E+01      1.439133000000000E-01      4.794726000000000E+01
3860000000.000000      4.340820000000000E-01      6.531640000000000E+01      2.467651000000000E-01      6.541406000000000E+01
3880000000.000000      4.591827000000000E-01      5.773828000000000E+01      3.767548000000000E-01      6.121288000000000E+01
3900000000.000000      4.876099000000000E-01      5.062890000000000E+01      4.784393000000000E-01      4.777539000000000E+01
3920000000.000000      5.177002000000000E-01      4.288476000000000E+01      5.090332000000000E-01      3.602930000000000E+01
3940000000.000000      5.477905000000000E-01      3.391797000000000E+01      5.396118000000000E-01      2.953222000000000E+01
3960000000.000000      5.600281000000000E-01      2.381836000000000E+01      5.962524000000000E-01      2.019141000000000E+01
3980000000.000000      5.526123000000000E-01      1.320557000000000E+01      5.979309000000000E-01      8.416504000000000E+00
4000000000.000000      5.266113000000000E-01      2.585815000000000E+00      5.801086000000000E-01      1.452942000000000E+00
4020000000.000000      4.827576000000000E-01     -7.182373000000000E+00      5.982056000000000E-01     -6.644043000000000E+00
4040000000.000000      4.242249000000000E-01     -1.610352000000000E+01      5.849304000000000E-01     -1.881640000000000E+01
4060000000.000000      3.487701000000000E-01     -2.224804000000000E+01      5.269165000000000E-01     -2.886719000000000E+01
4080000000.000000      2.740173000000000E-01     -2.220508000000000E+01      4.678955000000000E-01     -3.820313000000000E+01
4100000000.000000      2.278595000000000E-01     -1.173779000000000E+01      3.665161000000000E-01     -4.742969000000000E+01
4120000000.000000      2.412720000000000E-01      1.366394000000000E+00      2.490692000000000E-01     -4.391602000000000E+01
4140000000.000000      2.895050000000000E-01      4.643066000000000E+00      2.035217000000000E-01     -1.967871000000000E+01
4160000000.000000      3.338318000000000E-01      5.493164000000000E-01      2.641907000000000E-01      0.000000000000000E+00
4180000000.000000      3.617249000000000E-01     -6.271973000000000E+00      3.581085000000000E-01      3.964600000000000E+00
4200000000.000000      3.707581000000000E-01     -1.411084000000000E+01      4.882660000000000E-01      1.378784000000000E+00
4220000000.000000      3.667450000000000E-01     -2.130566000000000E+01      6.417236000000000E-01     -1.101563000000000E+01
4240000000.000000      3.476410000000000E-01     -2.880273000000000E+01      7.214661000000000E-01     -2.769726000000000E+01
4260000000.000000      3.092041000000000E-01     -3.458789000000000E+01      7.439575000000000E-01     -4.190234000000000E+01
4280000000.000000      2.598267000000000E-01     -3.579297000000000E+01      7.505188000000000E-01     -5.564453000000000E+01
4300000000.000000      2.228775000000000E-01     -2.764746000000000E+01      7.139282000000000E-01     -7.070703000000000E+01
4320000000.000000      2.364960000000000E-01     -1.505420000000000E+01      6.308594000000000E-01     -8.503515000000000E+01
4340000000.000000      2.936401000000000E-01     -1.101660000000000E+01      5.157471000000000E-01     -9.781639000000000E+01
4360000000.000000      3.594666000000000E-01     -1.605957000000000E+01      3.803253000000000E-01     -1.067500000000000E+02
4380000000.000000      4.052429000000000E-01     -2.495898000000000E+01      2.493057000000000E-01     -1.078203000000000E+02
4400000000.000000      4.272156000000000E-01     -3.487500000000000E+01      1.531754000000000E-01     -8.475780000000000E+01
4420000000.000000      4.244080000000000E-01     -4.412109000000000E+01      1.881561000000000E-01     -4.521289000000000E+01
4440000000.000000      4.101105000000000E-01     -5.236523000000000E+01      3.109741000000000E-01     -3.606836000000000E+01
4460000000.000000      3.880005000000000E-01     -5.888085000000000E+01      4.527893000000000E-01     -4.329492000000000E+01
4480000000.000000      3.683014000000000E-01     -6.517187000000000E+01      5.617065000000000E-01     -5.531640000000000E+01
4500000000.000000      3.479462000000000E-01     -7.173046000000000E+01      6.426697000000000E-01     -6.697656000000000E+01
4520000000.000000      3.143463000000000E-01     -7.933203000000000E+01      7.145996000000000E-01     -7.969921000000000E+01
4540000000.000000      2.634430000000000E-01     -8.533203000000000E+01      7.427063000000000E-01     -9.433985000000000E+01
4560000000.000000      2.036438000000000E-01     -8.357031000000000E+01      7.293396000000000E-01     -1.075664000000000E+02
4580000000.000000      1.772919000000000E-01     -6.787890000000000E+01      6.899414000000000E-01     -1.214141000000000E+02
4600000000.000000      2.146759000000000E-01     -5.437695000000000E+01      6.044617000000000E-01     -1.346094000000000E+02
4620000000.000000      2.793884000000000E-01     -5.568749000000000E+01      4.971313000000000E-01     -1.450312000000000E+02
4640000000.000000      3.332977000000000E-01     -6.547265000000000E+01      3.791046000000000E-01     -1.533281000000000E+02
4660000000.000000      3.572083000000000E-01     -7.848437000000000E+01      2.463684000000000E-01     -1.514844000000000E+02
4680000000.000000      3.485870000000000E-01     -9.237108000000000E+01      1.792679000000000E-01     -1.230664000000000E+02
4700000000.000000      3.115540000000000E-01     -1.053555000000000E+02      2.485657000000000E-01     -9.641796000000000E+01
4720000000.000000      2.545776000000000E-01     -1.158203000000000E+02      3.686981000000000E-01     -9.531250000000000E+01
4740000000.000000      1.925049000000000E-01     -1.209844000000000E+02      4.745941000000000E-01     -1.015508000000000E+02
4760000000.000000      1.411591000000000E-01     -1.167851000000000E+02      5.801697000000000E-01     -1.105703000000000E+02
4780000000.000000      1.151047000000000E-01     -1.009531000000000E+02      6.685181000000000E-01     -1.228516000000000E+02
4800000000.000000      1.215553000000000E-01     -8.380859000000000E+01      7.166443000000000E-01     -1.356016000000000E+02
4820000000.000000      1.507492000000000E-01     -7.450781000000000E+01      7.358704000000000E-01     -1.488281000000000E+02
4840000000.000000      1.915741000000000E-01     -7.430859000000000E+01      7.169189000000000E-01     -1.616797000000000E+02
4860000000.000000      2.342682000000000E-01     -8.068750000000000E+01      6.822815000000000E-01     -1.741484000000000E+02
4880000000.000000      2.717743000000000E-01     -9.084375000000000E+01      6.147461000000000E-01      1.721406000000000E+02
4900000000.000000      2.961884000000000E-01     -1.041953000000000E+02      4.954834000000000E-01      1.599766000000000E+02
4920000000.000000      3.015137000000000E-01     -1.191172000000000E+02      3.641205000000000E-01      1.537188000000000E+02
4940000000.000000      2.870483000000000E-01     -1.346016000000000E+02      2.512360000000000E-01      1.562969000000000E+02
4960000000.000000      2.558289000000000E-01     -1.496641000000000E+02      1.769257000000000E-01      1.776016000000000E+02
4980000000.000000      2.128448000000000E-01     -1.635469000000000E+02      2.147980000000000E-01     -1.508594000000000E+02
5000000000.000000      1.683197000000000E-01     -1.749063000000000E+02      3.311157000000000E-01     -1.435859000000000E+02
5020000000.000000      1.302338000000000E-01      1.754062000000000E+02      4.626312000000000E-01     -1.495937000000000E+02
5040000000.000000      9.969711000000000E-02      1.659297000000000E+02      5.703735000000000E-01     -1.602422000000000E+02
5060000000.000000      7.084656000000000E-02      1.515234000000000E+02      6.516113000000000E-01     -1.718359000000000E+02
5080000000.000000      3.945160000000000E-02      1.270469000000000E+02      7.184448000000000E-01      1.759844000000000E+02
5100000000.000000      1.394320000000000E-02      3.900195000000000E+01      7.556458000000000E-01      1.622422000000000E+02
5120000000.000000      4.148865000000000E-02     -5.413671000000000E+01      7.532349000000000E-01      1.480391000000000E+02
5140000000.000000      7.410431000000000E-02     -8.835155000000000E+01      7.019958000000000E-01      1.344609000000000E+02
5160000000.000000      9.774017000000000E-02     -1.185156000000000E+02      6.271057000000000E-01      1.221133000000000E+02
5180000000.000000      1.101799000000000E-01     -1.487890000000000E+02      5.328674000000000E-01      1.109297000000000E+02
5200000000.000000      1.116600000000000E-01      1.788594000000000E+02      4.147644000000000E-01      1.013359000000000E+02
5220000000.000000      1.080589000000000E-01      1.426719000000000E+02      2.828064000000000E-01      9.851952000000000E+01
5240000000.000000      1.066017000000000E-01      1.062148000000000E+02      1.840820000000000E-01      1.156523000000000E+02
5260000000.000000      1.108894000000000E-01      7.208593000000000E+01      1.970673000000000E-01      1.496953000000000E+02
5280000000.000000      1.184731000000000E-01      4.537305000000000E+01      2.970123000000000E-01      1.606484000000000E+02
5300000000.000000      1.247711000000000E-01      2.441113000000000E+01      4.105377000000000E-01      1.581250000000000E+02
5320000000.000000      1.318359000000000E-01      7.976074000000000E+00      5.283203000000000E-01      1.506328000000000E+02
5340000000.000000      1.379471000000000E-01     -6.502686000000000E+00      6.396790000000000E-01      1.384687000000000E+02
5360000000.000000      1.429901000000000E-01     -2.163965000000000E+01      7.057800000000000E-01      1.241719000000000E+02
5380000000.000000      1.394043000000000E-01     -3.927343000000000E+01      7.163696000000000E-01      1.108555000000000E+02
5400000000.000000      1.208611000000000E-01     -5.705859000000000E+01      7.181091000000000E-01      9.914843000000000E+01
5420000000.000000      8.609009000000000E-02     -7.376562000000000E+01      7.044678000000000E-01      8.592188000000000E+01
5440000000.000000      3.258705000000000E-02     -7.721484000000000E+01      6.471252000000000E-01      7.178905000000000E+01
5460000000.000000      4.181290000000000E-02      3.552539000000000E+01      5.385132000000000E-01      5.854297000000000E+01
5480000000.000000      1.114159000000000E-01      2.984570000000000E+01      4.114075000000000E-01      4.941796000000000E+01
5500000000.000000      1.741638000000000E-01      1.490967000000000E+01      2.922974000000000E-01      4.741992000000000E+01
5520000000.000000      2.197723000000000E-01     -1.235962000000000E-01      1.947708000000000E-01      5.938867000000000E+01
5540000000.000000      2.516022000000000E-01     -1.380176000000000E+01      1.817017000000000E-01      9.115625000000000E+01
5560000000.000000      2.707825000000000E-01     -2.546777000000000E+01      2.632751000000000E-01      1.088906000000000E+02
5580000000.000000      2.831879000000000E-01     -3.539844000000000E+01      3.851471000000000E-01      1.086172000000000E+02
5600000000.000000      2.950745000000000E-01     -4.409961000000000E+01      5.068054000000000E-01      9.960155000000000E+01
5620000000.000000      3.059692000000000E-01     -5.315430000000000E+01      5.963135000000000E-01      8.714844000000000E+01
5640000000.000000      3.095245000000000E-01     -6.283593000000000E+01      6.476746000000000E-01      7.512500000000000E+01
5660000000.000000      3.004150000000000E-01     -7.348827000000000E+01      6.844177000000000E-01      6.401953000000000E+01
5680000000.000000      2.722321000000000E-01     -8.378124000000000E+01      6.973877000000000E-01      5.119335000000000E+01
5700000000.000000      2.249374000000000E-01     -9.114452000000000E+01      6.826477000000000E-01      3.893555000000000E+01
5720000000.000000      1.748962000000000E-01     -8.993359000000000E+01      6.424866000000000E-01      2.622559000000000E+01
5740000000.000000      1.527023000000000E-01     -7.576953000000000E+01      5.642090000000000E-01      1.303369000000000E+01
5760000000.000000      1.809998000000000E-01     -6.422656000000000E+01      4.498291000000000E-01      1.391113000000000E+00
5780000000.000000      2.271347000000000E-01     -6.569921000000000E+01      3.152618000000000E-01     -3.624146000000000E+00
5800000000.000000      2.589569000000000E-01     -7.331640000000000E+01      2.076569000000000E-01      7.401855000000000E+00
5820000000.000000      2.685699000000000E-01     -8.271093000000000E+01      1.901016000000000E-01      3.783789000000000E+01
5840000000.000000      2.599640000000000E-01     -9.096874000000000E+01      2.720184000000000E-01      5.413280000000000E+01
5860000000.000000      2.419739000000000E-01     -9.658592000000000E+01      3.722076000000000E-01      5.419726000000000E+01
5880000000.000000      2.277908000000000E-01     -9.966406000000000E+01      4.780121000000000E-01      4.869531000000000E+01
5900000000.000000      2.205963000000000E-01     -1.022227000000000E+02      5.933838000000000E-01      3.862890000000000E+01
5920000000.000000      2.129211000000000E-01     -1.048711000000000E+02      6.709900000000000E-01      2.462988000000000E+01
5940000000.000000      1.989975000000000E-01     -1.068437000000000E+02      7.014771000000000E-01      1.144189000000000E+01
5960000000.000000      1.803589000000000E-01     -1.053164000000000E+02      7.121887000000000E-01     -1.246948000000000E+00
5980000000.000000      1.684265000000000E-01     -9.762108000000000E+01      6.922607000000000E-01     -1.530273000000000E+01
6000000000.000000      1.836319000000000E-01     -8.858202000000000E+01      6.269531000000000E-01     -2.891211000000000E+01
6020000000.000000      2.180481000000000E-01     -8.668749000000000E+01      5.278625000000000E-01     -4.140821000000000E+01
6040000000.000000      2.537537000000000E-01     -9.191015000000000E+01      3.982391000000000E-01     -4.954296000000000E+01
6060000000.000000      2.785645000000000E-01     -1.008125000000000E+02      2.848511000000000E-01     -4.932226000000000E+01
6080000000.000000      2.884216000000000E-01     -1.108359000000000E+02      2.053375000000000E-01     -3.542969000000000E+01
