! Network Analyzer HP8722D
! Hewlett-Packard
! Data name: Linha & Wilkinson+CNT
! Saver's name: Rodrigo Anjos
! Comments: Teste da utilização de aquisição
continua pelo VNA HP8722D
! Time and date: 29/9/2025 14:24
!              Frequency                     S11                                                   S21                                                   S12                                                   S22
# HZ  S  MA R 50
3000000000.000000      4.241791000000000E-01     -5.552734000000000E+01      2.063446000000000E-01     -1.315547000000000E+02
3020000000.000000      4.481506000000000E-01     -6.976563000000000E+01      3.486328000000000E-01     -1.348906000000000E+02
3040000000.000000      4.518127000000000E-01     -8.291407000000000E+01      4.673157000000000E-01     -1.448672000000000E+02
3060000000.000000      4.447937000000000E-01     -9.485546000000000E+01      5.705261000000000E-01     -1.551484000000000E+02
3080000000.000000      4.294739000000000E-01     -1.061445000000000E+02      6.726990000000000E-01     -1.682656000000000E+02
3100000000.000000      4.093781000000000E-01     -1.173438000000000E+02      7.244263000000000E-01      1.769140000000000E+02
3120000000.000000      3.802490000000000E-01     -1.293594000000000E+02      7.318420000000000E-01      1.636172000000000E+02
3140000000.000000      3.393402000000000E-01     -1.423437000000000E+02      7.239990000000000E-01      1.506328000000000E+02
3160000000.000000      2.791443000000000E-01     -1.563984000000000E+02      6.847229000000000E-01      1.369531000000000E+02
3180000000.000000      1.997070000000000E-01     -1.690625000000000E+02      6.147766000000000E-01      1.242851000000000E+02
3200000000.000000      1.120453000000000E-01     -1.699531000000000E+02      5.207214000000000E-01      1.117226000000000E+02
3220000000.000000      7.916260000000000E-02     -1.244219000000000E+02      3.865204000000000E-01      1.008281000000000E+02
3240000000.000000      1.498260000000000E-01     -1.048398000000000E+02      2.476654000000000E-01      9.942577000000000E+01
3260000000.000000      2.300720000000000E-01     -1.149531000000000E+02      1.471939000000000E-01      1.248594000000000E+02
3280000000.000000      2.872314000000000E-01     -1.307891000000000E+02      2.020035000000000E-01      1.651250000000000E+02
3300000000.000000      3.202362000000000E-01     -1.470781000000000E+02      3.291016000000000E-01      1.696875000000000E+02
3320000000.000000      3.320160000000000E-01     -1.629453000000000E+02      4.620972000000000E-01      1.626172000000000E+02
3340000000.000000      3.285675000000000E-01     -1.783828000000000E+02      5.733337000000000E-01      1.505938000000000E+02
3360000000.000000      3.170624000000000E-01      1.668281000000000E+02      6.468811000000000E-01      1.384922000000000E+02
3380000000.000000      3.007355000000000E-01      1.525625000000000E+02      7.092285000000000E-01      1.271328000000000E+02
3400000000.000000      2.787323000000000E-01      1.378359000000000E+02      7.569580000000000E-01      1.133750000000000E+02
3420000000.000000      2.434692000000000E-01      1.228086000000000E+02      7.492981000000000E-01      9.858984000000000E+01
3440000000.000000      1.907120000000000E-01      1.080273000000000E+02      7.044983000000000E-01      8.565624000000000E+01
3460000000.000000      1.205940000000000E-01      9.730078000000000E+01      6.475220000000000E-01      7.257421000000000E+01
3480000000.000000      4.814911000000000E-02      1.203477000000000E+02      5.500488000000000E-01      5.894921000000000E+01
3500000000.000000      9.161758000000000E-02     -1.743281000000000E+02      4.266663000000000E-01      4.747460000000000E+01
3520000000.000000      1.832428000000000E-01      1.792109000000000E+02      2.803650000000000E-01      4.040235000000000E+01
3540000000.000000      2.622070000000000E-01      1.630078000000000E+02      1.479568000000000E-01      5.778906000000000E+01
3560000000.000000      3.225861000000000E-01      1.459609000000000E+02      1.660233000000000E-01      1.074492000000000E+02
3580000000.000000      3.598785000000000E-01      1.299609000000000E+02      2.931061000000000E-01      1.175781000000000E+02
3600000000.000000      3.760986000000000E-01      1.153633000000000E+02      4.183044000000000E-01      1.106914000000000E+02
3620000000.000000      3.782806000000000E-01      1.026172000000000E+02      5.211487000000000E-01      1.013086000000000E+02
3640000000.000000      3.684235000000000E-01      9.134766000000000E+01      6.209412000000000E-01      9.005859000000000E+01
3660000000.000000      3.522644000000000E-01      8.119921000000000E+01      6.923828000000000E-01      7.596093000000000E+01
3680000000.000000      3.298187000000000E-01      7.193359000000000E+01      7.107239000000000E-01      6.274609000000000E+01
3700000000.000000      2.995300000000000E-01      6.373437000000000E+01      7.202148000000000E-01      5.102734000000000E+01
3720000000.000000      2.553406000000000E-01      5.766406000000000E+01      7.255554000000000E-01      3.693554000000000E+01
3740000000.000000      2.051239000000000E-01      5.828515000000000E+01      6.651306000000000E-01      2.145215000000000E+01
3760000000.000000      1.778412000000000E-01      7.222265000000000E+01      5.668030000000000E-01      7.168457000000000E+00
3780000000.000000      2.109222000000000E-01      8.737890000000000E+01      4.370880000000000E-01     -6.043945000000000E+00
3800000000.000000      2.819214000000000E-01      8.900391000000000E+01      2.835236000000000E-01     -1.342969000000000E+01
3820000000.000000      3.492432000000000E-01      8.259766000000000E+01      1.546097000000000E-01     -8.363342000000000E-01
3840000000.000000      4.004974000000000E-01      7.400781000000000E+01      1.419601000000000E-01      4.735352000000000E+01
3860000000.000000      4.351654000000000E-01      6.530468000000000E+01      2.451019000000000E-01      6.529687000000000E+01
3880000000.000000      4.608002000000000E-01      5.783203000000000E+01      3.742828000000000E-01      6.122265000000000E+01
3900000000.000000      4.891052000000000E-01      5.081055000000000E+01      4.766083000000000E-01      4.790429000000000E+01
3920000000.000000      5.188599000000000E-01      4.329492000000000E+01      5.083313000000000E-01      3.599804000000000E+01
3940000000.000000      5.481873000000000E-01      3.416016000000000E+01      5.395813000000000E-01      2.964062000000000E+01
3960000000.000000      5.594482000000000E-01      2.406250000000000E+01      5.950317000000000E-01      2.012402000000000E+01
3980000000.000000      5.543213000000000E-01      1.375732000000000E+01      5.965881000000000E-01      8.341309000000000E+00
4000000000.000000      5.282593000000000E-01      3.062378000000000E+00      5.792236000000000E-01      1.322449000000000E+00
4020000000.000000      4.849091000000000E-01     -6.747070000000000E+00      5.981750000000000E-01     -6.423096000000000E+00
4040000000.000000      4.257965000000000E-01     -1.567627000000000E+01      5.873718000000000E-01     -1.867480000000000E+01
4060000000.000000      3.502045000000000E-01     -2.188086000000000E+01      5.272522000000000E-01     -2.893847000000000E+01
4080000000.000000      2.751465000000000E-01     -2.187109000000000E+01      4.696503000000000E-01     -3.813672000000000E+01
4100000000.000000      2.286758000000000E-01     -1.146436000000000E+01      3.679047000000000E-01     -4.743945000000000E+01
4120000000.000000      2.412109000000000E-01      1.735840000000000E+00      2.505798000000000E-01     -4.440820000000000E+01
4140000000.000000      2.894592000000000E-01      5.134521000000000E+00      2.027817000000000E-01     -2.033886000000000E+01
4160000000.000000      3.335876000000000E-01      9.846497000000000E-01      2.622223000000000E-01     -9.063721000000000E-02
4180000000.000000      3.612976000000000E-01     -5.831055000000000E+00      3.559113000000000E-01      3.964600000000000E+00
4200000000.000000      3.713074000000000E-01     -1.360693000000000E+01      4.860382000000000E-01      1.443298000000000E+00
4220000000.000000      3.673553000000000E-01     -2.082520000000000E+01      6.413879000000000E-01     -1.097412000000000E+01
4240000000.000000      3.483276000000000E-01     -2.832324000000000E+01      7.209778000000000E-01     -2.766699000000000E+01
4260000000.000000      3.102722000000000E-01     -3.398242000000000E+01      7.431030000000000E-01     -4.166406000000000E+01
4280000000.000000      2.600861000000000E-01     -3.549414000000000E+01      7.507629000000000E-01     -5.556641000000000E+01
4300000000.000000      2.227859000000000E-01     -2.739941000000000E+01      7.155457000000000E-01     -7.051562000000000E+01
4320000000.000000      2.347946000000000E-01     -1.476563000000000E+01      6.335449000000000E-01     -8.505077000000000E+01
4340000000.000000      2.923126000000000E-01     -1.057861000000000E+01      5.179749000000000E-01     -9.787889000000000E+01
4360000000.000000      3.579407000000000E-01     -1.550195000000000E+01      3.827820000000000E-01     -1.068047000000000E+02
4380000000.000000      4.051361000000000E-01     -2.453711000000000E+01      2.511444000000000E-01     -1.083008000000000E+02
4400000000.000000      4.266052000000000E-01     -3.438867000000000E+01      1.538773000000000E-01     -8.567186000000000E+01
4420000000.000000      4.240417000000000E-01     -4.382617000000000E+01      1.867447000000000E-01     -4.584765000000000E+01
4440000000.000000      4.090576000000000E-01     -5.195313000000000E+01      3.084869000000000E-01     -3.610547000000000E+01
4460000000.000000      3.871155000000000E-01     -5.864258000000000E+01      4.517059000000000E-01     -4.325195000000000E+01
4480000000.000000      3.687744000000000E-01     -6.490234000000000E+01      5.597839000000000E-01     -5.536718000000000E+01
4500000000.000000      3.470612000000000E-01     -7.164844000000000E+01      6.420288000000000E-01     -6.668359000000000E+01
4520000000.000000      3.139496000000000E-01     -7.932031000000000E+01      7.149048000000000E-01     -7.966015000000000E+01
4540000000.000000      2.627716000000000E-01     -8.549219000000000E+01      7.419739000000000E-01     -9.434765000000000E+01
4560000000.000000      2.019348000000000E-01     -8.396875000000000E+01      7.291260000000000E-01     -1.074961000000000E+02
4580000000.000000      1.740570000000000E-01     -6.807031000000000E+01      6.919556000000000E-01     -1.213203000000000E+02
4600000000.000000      2.109375000000000E-01     -5.387304000000000E+01      6.069336000000000E-01     -1.346250000000000E+02
4620000000.000000      2.761993000000000E-01     -5.514453000000000E+01      4.997101000000000E-01     -1.451953000000000E+02
4640000000.000000      3.304291000000000E-01     -6.498828000000000E+01      3.800354000000000E-01     -1.535547000000000E+02
4660000000.000000      3.546448000000000E-01     -7.822656000000000E+01      2.475281000000000E-01     -1.519063000000000E+02
4680000000.000000      3.465118000000000E-01     -9.224609000000000E+01      1.789551000000000E-01     -1.240469000000000E+02
4700000000.000000      3.095551000000000E-01     -1.054453000000000E+02      2.463913000000000E-01     -9.683983000000000E+01
4720000000.000000      2.534790000000000E-01     -1.161172000000000E+02      3.656311000000000E-01     -9.541016000000000E+01
4740000000.000000      1.919785000000000E-01     -1.216289000000000E+02      4.721832000000000E-01     -1.017773000000000E+02
4760000000.000000      1.396332000000000E-01     -1.177383000000000E+02      5.777893000000000E-01     -1.104531000000000E+02
4780000000.000000      1.118240000000000E-01     -1.020781000000000E+02      6.671143000000000E-01     -1.226836000000000E+02
4800000000.000000      1.174698000000000E-01     -8.412889000000000E+01      7.157898000000000E-01     -1.355625000000000E+02
4820000000.000000      1.458206000000000E-01     -7.407421000000000E+01      7.361450000000000E-01     -1.487969000000000E+02
4840000000.000000      1.863098000000000E-01     -7.367969000000000E+01      7.192993000000000E-01     -1.616797000000000E+02
4860000000.000000      2.304993000000000E-01     -8.021484000000000E+01      6.871643000000000E-01     -1.741953000000000E+02
4880000000.000000      2.682800000000000E-01     -9.064844000000000E+01      6.185608000000000E-01      1.719531000000000E+02
4900000000.000000      2.937469000000000E-01     -1.041055000000000E+02      4.967499000000000E-01      1.597891000000000E+02
4920000000.000000      2.996063000000000E-01     -1.191367000000000E+02      3.666687000000000E-01      1.532109000000000E+02
4940000000.000000      2.856140000000000E-01     -1.348359000000000E+02      2.530975000000000E-01      1.557891000000000E+02
4960000000.000000      2.551575000000000E-01     -1.502266000000000E+02      1.774368000000000E-01      1.767109000000000E+02
4980000000.000000      2.131653000000000E-01     -1.643516000000000E+02      2.127838000000000E-01     -1.513672000000000E+02
5000000000.000000      1.689453000000000E-01     -1.760000000000000E+02      3.291168000000000E-01     -1.436016000000000E+02
5020000000.000000      1.305466000000000E-01      1.739453000000000E+02      4.591522000000000E-01     -1.494844000000000E+02
5040000000.000000      1.006622000000000E-01      1.637891000000000E+02      5.686340000000000E-01     -1.603828000000000E+02
5060000000.000000      7.221603000000000E-02      1.488437000000000E+02      6.489868000000000E-01     -1.718984000000000E+02
5080000000.000000      4.194641000000000E-02      1.230820000000000E+02      7.177734000000000E-01      1.760078000000000E+02
5100000000.000000      1.726246000000000E-02      4.436719000000000E+01      7.567139000000000E-01      1.622890000000000E+02
5120000000.000000      4.051399000000000E-02     -5.050586000000000E+01      7.535400000000000E-01      1.479453000000000E+02
5140000000.000000      7.263947000000000E-02     -8.720312000000000E+01      7.053223000000000E-01      1.343359000000000E+02
5160000000.000000      9.602737000000000E-02     -1.182773000000000E+02      6.308899000000000E-01      1.219609000000000E+02
5180000000.000000      1.094322000000000E-01     -1.491484000000000E+02      5.341187000000000E-01      1.107422000000000E+02
5200000000.000000      1.120529000000000E-01      1.784062000000000E+02      4.180145000000000E-01      1.010820000000000E+02
5220000000.000000      1.097221000000000E-01      1.421719000000000E+02      2.847595000000000E-01      9.815624000000000E+01
5240000000.000000      1.088715000000000E-01      1.061133000000000E+02      1.844482000000000E-01      1.147969000000000E+02
5260000000.000000      1.133728000000000E-01      7.266796000000000E+01      1.952896000000000E-01      1.491484000000000E+02
5280000000.000000      1.206474000000000E-01      4.611133000000000E+01      2.948608000000000E-01      1.606719000000000E+02
5300000000.000000      1.272812000000000E-01      2.525391000000000E+01      4.084778000000000E-01      1.581640000000000E+02
5320000000.000000      1.336594000000000E-01      8.852051000000000E+00      5.261536000000000E-01      1.505859000000000E+02
5340000000.000000      1.389465000000000E-01     -5.795410000000000E+00      6.381531000000000E-01      1.386953000000000E+02
5360000000.000000      1.434555000000000E-01     -2.119336000000000E+01      7.069397000000000E-01      1.241172000000000E+02
5380000000.000000      1.386871000000000E-01     -3.861719000000000E+01      7.163391000000000E-01      1.107813000000000E+02
5400000000.000000      1.203003000000000E-01     -5.672656000000000E+01      7.194214000000000E-01      9.916016000000000E+01
5420000000.000000      8.517075000000000E-02     -7.360937000000000E+01      7.059326000000000E-01      8.612499000000000E+01
5440000000.000000      3.074741000000000E-02     -7.866015000000000E+01      6.488647000000000E-01      7.169922000000000E+01
5460000000.000000      4.229546000000000E-02      3.872851000000000E+01      5.416565000000000E-01      5.860156000000000E+01
5480000000.000000      1.119614000000000E-01      3.128027000000000E+01      4.147034000000000E-01      4.930078000000000E+01
5500000000.000000      1.748886000000000E-01      1.586816000000000E+01      2.942200000000000E-01      4.719727000000000E+01
5520000000.000000      2.206573000000000E-01      7.525635000000000E-01      1.956329000000000E-01      5.856835000000000E+01
5540000000.000000      2.515411000000000E-01     -1.290381000000000E+01      1.803818000000000E-01      9.028906000000000E+01
5560000000.000000      2.701874000000000E-01     -2.484472000000000E+01      2.614136000000000E-01      1.086875000000000E+02
5580000000.000000      2.827606000000000E-01     -3.483593000000000E+01      3.833771000000000E-01      1.086758000000000E+02
5600000000.000000      2.937622000000000E-01     -4.377734000000000E+01      5.060425000000000E-01      9.972656000000000E+01
5620000000.000000      3.044891000000000E-01     -5.287890000000000E+01      5.960388000000000E-01      8.720312000000000E+01
5640000000.000000      3.086700000000000E-01     -6.260156000000000E+01      6.463623000000000E-01      7.535546000000000E+01
5660000000.000000      2.980499000000000E-01     -7.331249000000000E+01      6.850586000000000E-01      6.382617000000000E+01
5680000000.000000      2.693329000000000E-01     -8.360546000000000E+01      6.994324000000000E-01      5.121484000000000E+01
5700000000.000000      2.221069000000000E-01     -9.131639000000000E+01      6.849670000000000E-01      3.890234000000000E+01
5720000000.000000      1.710358000000000E-01     -8.992188000000000E+01      6.450195000000000E-01      2.613183000000000E+01
5740000000.000000      1.496582000000000E-01     -7.563281000000000E+01      5.677490000000000E-01      1.294434000000000E+01
5760000000.000000      1.777115000000000E-01     -6.384375000000000E+01      4.535370000000000E-01      1.304626000000000E+00
5780000000.000000      2.241745000000000E-01     -6.511328000000000E+01      3.181000000000000E-01     -4.152832000000000E+00
5800000000.000000      2.568207000000000E-01     -7.299218000000000E+01      2.090073000000000E-01      6.674072000000000E+00
5820000000.000000      2.667542000000000E-01     -8.233984000000000E+01      1.885452000000000E-01      3.697851000000000E+01
5840000000.000000      2.572784000000000E-01     -9.097656000000000E+01      2.694855000000000E-01      5.381640000000000E+01
5860000000.000000      2.385254000000000E-01     -9.668358000000000E+01      3.695831000000000E-01      5.411914000000000E+01
5880000000.000000      2.241745000000000E-01     -9.994921000000000E+01      4.773560000000000E-01      4.880077000000000E+01
5900000000.000000      2.168961000000000E-01     -1.021328000000000E+02      5.931091000000000E-01      3.850390000000000E+01
5920000000.000000      2.089081000000000E-01     -1.050742000000000E+02      6.706543000000000E-01      2.467773000000000E+01
5940000000.000000      1.952515000000000E-01     -1.070781000000000E+02      7.017212000000000E-01      1.133887000000000E+01
5960000000.000000      1.780548000000000E-01     -1.054844000000000E+02      7.138977000000000E-01     -1.200256000000000E+00
5980000000.000000      1.654129000000000E-01     -9.785156000000000E+01      6.927795000000000E-01     -1.522998000000000E+01
6000000000.000000      1.808548000000000E-01     -8.836718000000000E+01      6.296692000000000E-01     -2.885839000000000E+01
6020000000.000000      2.154160000000000E-01     -8.647655000000000E+01      5.304565000000000E-01     -4.166211000000000E+01
6040000000.000000      2.508698000000000E-01     -9.176952000000000E+01      4.023285000000000E-01     -4.991405000000000E+01
6060000000.000000      2.753296000000000E-01     -1.007773000000000E+02      2.871094000000000E-01     -4.976757000000000E+01
6080000000.000000      2.855377000000000E-01     -1.109180000000000E+02      2.065964000000000E-01     -3.655078000000000E+01
