! Network Analyzer HP8722D
! Hewlett-Packard
! Data name: Linha & Wilkinson+CNT
! Saver's name: Rodrigo Anjos
! Comments: Teste da utilização de aquisição
continua pelo VNA HP8722D
! Time and date: 29/9/2025 13:35
!              Frequency                     S11                                                   S21                                                   S12                                                   S22
# HZ  S  MA R 50
3000000000.000000      4.237671000000000E-01     -5.565430000000000E+01      2.073822000000000E-01     -1.315469000000000E+02
3020000000.000000      4.462738000000000E-01     -7.000390000000000E+01      3.500519000000000E-01     -1.349297000000000E+02
3040000000.000000      4.530182000000000E-01     -8.291016000000000E+01      4.667206000000000E-01     -1.450234000000000E+02
3060000000.000000      4.449463000000000E-01     -9.503515000000000E+01      5.724792000000000E-01     -1.553828000000000E+02
3080000000.000000      4.290009000000000E-01     -1.063359000000000E+02      6.730957000000000E-01     -1.683828000000000E+02
3100000000.000000      4.088440000000000E-01     -1.175156000000000E+02      7.241516000000000E-01      1.767656000000000E+02
3120000000.000000      3.795471000000000E-01     -1.295703000000000E+02      7.319336000000000E-01      1.634297000000000E+02
3140000000.000000      3.390656000000000E-01     -1.425469000000000E+02      7.235107000000000E-01      1.505078000000000E+02
3160000000.000000      2.793121000000000E-01     -1.564766000000000E+02      6.827698000000000E-01      1.367969000000000E+02
3180000000.000000      1.995468000000000E-01     -1.691094000000000E+02      6.135864000000000E-01      1.243789000000000E+02
3200000000.000000      1.117973000000000E-01     -1.699062000000000E+02      5.187988000000000E-01      1.115820000000000E+02
3220000000.000000      7.965469000000000E-02     -1.241914000000000E+02      3.857727000000000E-01      1.009180000000000E+02
3240000000.000000      1.507263000000000E-01     -1.051015000000000E+02      2.463608000000000E-01      9.942577000000000E+01
3260000000.000000      2.300110000000000E-01     -1.152773000000000E+02      1.472855000000000E-01      1.253359000000000E+02
3280000000.000000      2.875061000000000E-01     -1.310078000000000E+02      2.030258000000000E-01      1.653516000000000E+02
3300000000.000000      3.204346000000000E-01     -1.473125000000000E+02      3.299713000000000E-01      1.695625000000000E+02
3320000000.000000      3.323364000000000E-01     -1.632344000000000E+02      4.627533000000000E-01      1.625625000000000E+02
3340000000.000000      3.288422000000000E-01     -1.786016000000000E+02      5.747986000000000E-01      1.503828000000000E+02
3360000000.000000      3.174591000000000E-01      1.666953000000000E+02      6.470032000000000E-01      1.383047000000000E+02
3380000000.000000      3.010406000000000E-01      1.523281000000000E+02      7.098999000000000E-01      1.269219000000000E+02
3400000000.000000      2.780304000000000E-01      1.376641000000000E+02      7.577515000000000E-01      1.132148000000000E+02
3420000000.000000      2.429352000000000E-01      1.228281000000000E+02      7.492371000000000E-01      9.832031000000000E+01
3440000000.000000      1.898270000000000E-01      1.079726000000000E+02      7.061768000000000E-01      8.538671000000000E+01
3460000000.000000      1.197510000000000E-01      9.737108000000000E+01      6.473083000000000E-01      7.242969000000000E+01
3480000000.000000      4.795265000000000E-02      1.215117000000000E+02      5.493774000000000E-01      5.915234000000000E+01
3500000000.000000      9.241104000000000E-02     -1.743125000000000E+02      4.244690000000000E-01      4.764062000000000E+01
3520000000.000000      1.845474000000000E-01      1.790078000000000E+02      2.786255000000000E-01      4.046679000000000E+01
3540000000.000000      2.635040000000000E-01      1.628125000000000E+02      1.472244000000000E-01      5.834374000000000E+01
3560000000.000000      3.227081000000000E-01      1.458281000000000E+02      1.670609000000000E-01      1.077734000000000E+02
3580000000.000000      3.597717000000000E-01      1.297344000000000E+02      2.945099000000000E-01      1.174609000000000E+02
3600000000.000000      3.760223000000000E-01      1.151680000000000E+02      4.194946000000000E-01      1.105937000000000E+02
3620000000.000000      3.773499000000000E-01      1.024961000000000E+02      5.211792000000000E-01      1.011875000000000E+02
3640000000.000000      3.683624000000000E-01      9.121874000000000E+01      6.217651000000000E-01      8.992579000000000E+01
3660000000.000000      3.522339000000000E-01      8.108593000000000E+01      6.919250000000000E-01      7.572266000000000E+01
3680000000.000000      3.294525000000000E-01      7.186328000000000E+01      7.106628000000000E-01      6.255859000000000E+01
3700000000.000000      2.985840000000000E-01      6.361133000000000E+01      7.202148000000000E-01      5.108007000000000E+01
3720000000.000000      2.545166000000000E-01      5.756249000000000E+01      7.243958000000000E-01      3.661718000000000E+01
3740000000.000000      2.039642000000000E-01      5.830859000000000E+01      6.637268000000000E-01      2.130078000000000E+01
3760000000.000000      1.779404000000000E-01      7.233984000000000E+01      5.659485000000000E-01      7.108154000000000E+00
3780000000.000000      2.116089000000000E-01      8.737890000000000E+01      4.358215000000000E-01     -5.969727000000000E+00
3800000000.000000      2.823486000000000E-01      8.900000000000000E+01      2.821045000000000E-01     -1.349854000000000E+01
3820000000.000000      3.500671000000000E-01      8.261719000000000E+01      1.535110000000000E-01     -5.438232000000000E-01
3840000000.000000      4.001160000000000E-01      7.385156000000000E+01      1.429138000000000E-01      4.775781000000000E+01
3860000000.000000      4.348755000000000E-01      6.527344000000000E+01      2.462463000000000E-01      6.517187000000000E+01
3880000000.000000      4.601593000000000E-01      5.772461000000000E+01      3.758698000000000E-01      6.110156000000000E+01
3900000000.000000      4.892273000000000E-01      5.064062000000000E+01      4.780273000000000E-01      4.759766000000000E+01
3920000000.000000      5.194702000000000E-01      4.305469000000000E+01      5.079651000000000E-01      3.597656000000000E+01
3940000000.000000      5.470276000000000E-01      3.401367000000000E+01      5.383301000000000E-01      2.935937000000000E+01
3960000000.000000      5.600281000000000E-01      2.383594000000000E+01      5.949402000000000E-01      2.002051000000000E+01
3980000000.000000      5.531006000000000E-01      1.362402000000000E+01      5.970764000000000E-01      8.118652000000000E+00
4000000000.000000      5.279846000000000E-01      3.216187000000000E+00      5.806580000000000E-01      1.159058000000000E+00
4020000000.000000      4.837341000000000E-01     -6.920166000000000E+00      5.978699000000000E-01     -6.687988000000000E+00
4040000000.000000      4.247131000000000E-01     -1.577246000000000E+01      5.844727000000000E-01     -1.885840000000000E+01
4060000000.000000      3.485107000000000E-01     -2.184863000000000E+01      5.267639000000000E-01     -2.893945000000000E+01
4080000000.000000      2.744141000000000E-01     -2.193359000000000E+01      4.681549000000000E-01     -3.822851000000000E+01
4100000000.000000      2.280884000000000E-01     -1.124316000000000E+01      3.669434000000000E-01     -4.724414000000000E+01
4120000000.000000      2.418442000000000E-01      1.822327000000000E+00      2.494431000000000E-01     -4.413671000000000E+01
4140000000.000000      2.900696000000000E-01      5.024658000000000E+00      2.029419000000000E-01     -1.991992000000000E+01
4160000000.000000      3.338623000000000E-01      9.352112000000000E-01      2.634125000000000E-01     -1.702881000000000E-01
4180000000.000000      3.612976000000000E-01     -5.910645000000000E+00      3.577423000000000E-01      3.798462000000000E+00
4200000000.000000      3.710785000000000E-01     -1.381836000000000E+01      4.871826000000000E-01      1.321106000000000E+00
4220000000.000000      3.671570000000000E-01     -2.088183000000000E+01      6.422729000000000E-01     -1.111963000000000E+01
4240000000.000000      3.477631000000000E-01     -2.840137000000000E+01      7.218323000000000E-01     -2.781933000000000E+01
4260000000.000000      3.093109000000000E-01     -3.424023000000000E+01      7.439575000000000E-01     -4.183203000000000E+01
4280000000.000000      2.597656000000000E-01     -3.550000000000000E+01      7.508545000000000E-01     -5.566406000000000E+01
4300000000.000000      2.227859000000000E-01     -2.726171000000000E+01      7.145691000000000E-01     -7.070703000000000E+01
4320000000.000000      2.356644000000000E-01     -1.463672000000000E+01      6.321411000000000E-01     -8.526171000000000E+01
4340000000.000000      2.934113000000000E-01     -1.070801000000000E+01      5.164795000000000E-01     -9.788280000000000E+01
4360000000.000000      3.586273000000000E-01     -1.568994000000000E+01      3.820343000000000E-01     -1.069805000000000E+02
4380000000.000000      4.048920000000000E-01     -2.463867000000000E+01      2.496414000000000E-01     -1.081289000000000E+02
4400000000.000000      4.261627000000000E-01     -3.458593000000000E+01      1.535416000000000E-01     -8.523829000000000E+01
4420000000.000000      4.239960000000000E-01     -4.396093000000000E+01      1.877975000000000E-01     -4.542578000000000E+01
4440000000.000000      4.085693000000000E-01     -5.204883000000000E+01      3.101654000000000E-01     -3.612305000000000E+01
4460000000.000000      3.876343000000000E-01     -5.853710000000000E+01      4.512787000000000E-01     -4.344140000000000E+01
4480000000.000000      3.665009000000000E-01     -6.495703000000000E+01      5.615234000000000E-01     -5.537890000000000E+01
4500000000.000000      3.464661000000000E-01     -7.167578000000000E+01      6.443787000000000E-01     -6.696094000000000E+01
4520000000.000000      3.131104000000000E-01     -7.937500000000000E+01      7.167358000000000E-01     -7.995312000000000E+01
4540000000.000000      2.621918000000000E-01     -8.555079000000000E+01      7.419434000000000E-01     -9.453905000000000E+01
4560000000.000000      2.012329000000000E-01     -8.390234000000000E+01      7.279053000000000E-01     -1.076250000000000E+02
4580000000.000000      1.743469000000000E-01     -6.792578000000000E+01      6.921692000000000E-01     -1.215234000000000E+02
4600000000.000000      2.119217000000000E-01     -5.396484000000000E+01      6.058960000000000E-01     -1.348359000000000E+02
4620000000.000000      2.771149000000000E-01     -5.536523000000000E+01      4.979248000000000E-01     -1.451719000000000E+02
4640000000.000000      3.306732000000000E-01     -6.517187000000000E+01      3.791656000000000E-01     -1.533437000000000E+02
4660000000.000000      3.544159000000000E-01     -7.841406000000000E+01      2.460709000000000E-01     -1.518281000000000E+02
4680000000.000000      3.466034000000000E-01     -9.248438000000000E+01      1.791611000000000E-01     -1.236875000000000E+02
4700000000.000000      3.088531000000000E-01     -1.056367000000000E+02      2.479858000000000E-01     -9.668358000000000E+01
4720000000.000000      2.530365000000000E-01     -1.162383000000000E+02      3.665314000000000E-01     -9.553125000000000E+01
4740000000.000000      1.907425000000000E-01     -1.215351000000000E+02      4.736786000000000E-01     -1.017812000000000E+02
4760000000.000000      1.387253000000000E-01     -1.175625000000000E+02      5.790100000000000E-01     -1.104140000000000E+02
4780000000.000000      1.124344000000000E-01     -1.016680000000000E+02      6.683960000000000E-01     -1.229805000000000E+02
4800000000.000000      1.187019000000000E-01     -8.397655000000000E+01      7.163086000000000E-01     -1.357188000000000E+02
4820000000.000000      1.469421000000000E-01     -7.401562000000000E+01      7.361755000000000E-01     -1.490234000000000E+02
4840000000.000000      1.876373000000000E-01     -7.403515000000000E+01      7.184753000000000E-01     -1.617891000000000E+02
4860000000.000000      2.306137000000000E-01     -8.033983000000000E+01      6.827698000000000E-01     -1.742812000000000E+02
4880000000.000000      2.680054000000000E-01     -9.085155000000000E+01      6.167297000000000E-01      1.719375000000000E+02
4900000000.000000      2.938690000000000E-01     -1.043281000000000E+02      4.967651000000000E-01      1.597500000000000E+02
4920000000.000000      3.000793000000000E-01     -1.193984000000000E+02      3.643341000000000E-01      1.534765000000000E+02
4940000000.000000      2.855988000000000E-01     -1.350859000000000E+02      2.516022000000000E-01      1.559219000000000E+02
4960000000.000000      2.547455000000000E-01     -1.502344000000000E+02      1.768265000000000E-01      1.773516000000000E+02
4980000000.000000      2.119370000000000E-01     -1.643359000000000E+02      2.145767000000000E-01     -1.512656000000000E+02
5000000000.000000      1.680908000000000E-01     -1.761562000000000E+02      3.298645000000000E-01     -1.436797000000000E+02
5020000000.000000      1.302643000000000E-01      1.739609000000000E+02      4.609375000000000E-01     -1.495937000000000E+02
5040000000.000000      1.000328000000000E-01      1.637891000000000E+02      5.709229000000000E-01     -1.605625000000000E+02
5060000000.000000      7.183838000000000E-02      1.488125000000000E+02      6.503601000000000E-01     -1.720781000000000E+02
5080000000.000000      4.133034000000000E-02      1.227226000000000E+02      7.186584000000000E-01      1.758359000000000E+02
5100000000.000000      1.672077000000000E-02      4.320508000000000E+01      7.562866000000000E-01      1.622187000000000E+02
5120000000.000000      4.087448000000000E-02     -5.122265000000000E+01      7.536926000000000E-01      1.478437000000000E+02
5140000000.000000      7.238388000000000E-02     -8.762890000000000E+01      7.034607000000000E-01      1.341797000000000E+02
5160000000.000000      9.577179000000000E-02     -1.188828000000000E+02      6.287231000000000E-01      1.220313000000000E+02
5180000000.000000      1.093254000000000E-01     -1.494688000000000E+02      5.326233000000000E-01      1.107070000000000E+02
5200000000.000000      1.114655000000000E-01      1.777500000000000E+02      4.158173000000000E-01      1.011601000000000E+02
5220000000.000000      1.095238000000000E-01      1.417187000000000E+02      2.832336000000000E-01      9.817186000000000E+01
5240000000.000000      1.088829000000000E-01      1.056016000000000E+02      1.836395000000000E-01      1.153437000000000E+02
5260000000.000000      1.128731000000000E-01      7.234765000000000E+01      1.962051000000000E-01      1.494219000000000E+02
5280000000.000000      1.205292000000000E-01      4.572851000000000E+01      2.966003000000000E-01      1.605000000000000E+02
5300000000.000000      1.273727000000000E-01      2.504980000000000E+01      4.104004000000000E-01      1.580234000000000E+02
5320000000.000000      1.332855000000000E-01      8.485352000000000E+00      5.289917000000000E-01      1.503594000000000E+02
5340000000.000000      1.388016000000000E-01     -5.813232000000000E+00      6.392212000000000E-01      1.384531000000000E+02
5360000000.000000      1.432495000000000E-01     -2.135058000000000E+01      7.049255000000000E-01      1.239180000000000E+02
5380000000.000000      1.386871000000000E-01     -3.878515000000000E+01      7.173157000000000E-01      1.106797000000000E+02
5400000000.000000      1.202660000000000E-01     -5.694530000000000E+01      7.176819000000000E-01      9.893749000000000E+01
5420000000.000000      8.448410000000000E-02     -7.345703000000000E+01      7.047729000000000E-01      8.579296000000000E+01
5440000000.000000      3.007889000000000E-02     -7.657421000000000E+01      6.476440000000000E-01      7.150000000000000E+01
5460000000.000000      4.384232000000000E-02      3.851953000000000E+01      5.392151000000000E-01      5.847461000000000E+01
5480000000.000000      1.130524000000000E-01      3.080957000000000E+01      4.122162000000000E-01      4.936718000000000E+01
5500000000.000000      1.754837000000000E-01      1.556055000000000E+01      2.926331000000000E-01      4.722656000000000E+01
5520000000.000000      2.211380000000000E-01      4.985046000000000E-01      1.955185000000000E-01      5.893555000000000E+01
5540000000.000000      2.523804000000000E-01     -1.324561000000000E+01      1.808624000000000E-01      9.074610000000000E+01
5560000000.000000      2.704010000000000E-01     -2.514941000000000E+01      2.623901000000000E-01      1.087148000000000E+02
5580000000.000000      2.830505000000000E-01     -3.507031000000000E+01      3.844757000000000E-01      1.084648000000000E+02
5600000000.000000      2.940063000000000E-01     -4.388281000000000E+01      5.069885000000000E-01      9.952343000000000E+01
5620000000.000000      3.043213000000000E-01     -5.297070000000000E+01      5.947571000000000E-01      8.696484000000000E+01
5640000000.000000      3.075562000000000E-01     -6.270312000000000E+01      6.468506000000000E-01      7.516015000000000E+01
5660000000.000000      2.980347000000000E-01     -7.346874000000000E+01      6.847534000000000E-01      6.362499000000000E+01
5680000000.000000      2.690735000000000E-01     -8.381250000000000E+01      6.998291000000000E-01      5.102734000000000E+01
5700000000.000000      2.213745000000000E-01     -9.114452000000000E+01      6.834412000000000E-01      3.857617000000000E+01
5720000000.000000      1.709518000000000E-01     -8.976563000000000E+01      6.444092000000000E-01      2.595703000000000E+01
5740000000.000000      1.502304000000000E-01     -7.532421000000000E+01      5.659485000000000E-01      1.294580000000000E+01
5760000000.000000      1.786728000000000E-01     -6.370703000000000E+01      4.503479000000000E-01      1.095886000000000E+00
5780000000.000000      2.248688000000000E-01     -6.527344000000000E+01      3.164520000000000E-01     -4.003174000000000E+00
5800000000.000000      2.569427000000000E-01     -7.314062000000000E+01      2.082977000000000E-01      6.838867000000000E+00
5820000000.000000      2.666321000000000E-01     -8.258204000000000E+01      1.894989000000000E-01      3.749218000000000E+01
5840000000.000000      2.568512000000000E-01     -9.115234000000000E+01      2.710876000000000E-01      5.398046000000000E+01
5860000000.000000      2.388840000000000E-01     -9.676561000000000E+01      3.718109000000000E-01      5.392187000000000E+01
5880000000.000000      2.242279000000000E-01     -9.970703000000000E+01      4.777527000000000E-01      4.865820000000000E+01
5900000000.000000      2.163162000000000E-01     -1.022227000000000E+02      5.938110000000000E-01      3.850195000000000E+01
5920000000.000000      2.090912000000000E-01     -1.050977000000000E+02      6.708069000000000E-01      2.453613000000000E+01
5940000000.000000      1.949234000000000E-01     -1.069844000000000E+02      7.016296000000000E-01      1.120703000000000E+01
5960000000.000000      1.775513000000000E-01     -1.054805000000000E+02      7.135925000000000E-01     -1.546326000000000E+00
5980000000.000000      1.652527000000000E-01     -9.752733000000000E+01      6.917419000000000E-01     -1.555273000000000E+01
6000000000.000000      1.816711000000000E-01     -8.841797000000000E+01      6.276245000000000E-01     -2.906347000000000E+01
6020000000.000000      2.156525000000000E-01     -8.648438000000000E+01      5.295410000000000E-01     -4.183203000000000E+01
6040000000.000000      2.510376000000000E-01     -9.176952000000000E+01      4.004974000000000E-01     -5.003124000000000E+01
6060000000.000000      2.750244000000000E-01     -1.009219000000000E+02      2.859344000000000E-01     -4.971093000000000E+01
6080000000.000000      2.852936000000000E-01     -1.111797000000000E+02      2.053299000000000E-01     -3.603125000000000E+01
