! Network Analyzer HP8722D
! Hewlett-Packard
! Data name: Linha & Wilkinson+CNT
! Saver's name: Rodrigo Anjos
! Comments: Teste da utilização de aquisição
continua pelo VNA HP8722D
! Time and date: 29/9/2025 12:57
!              Frequency                     S11                                                   S21                                                   S12                                                   S22
# HZ  S  MA R 50
3000000000.000000      4.238434000000000E-01     -5.599999000000000E+01      2.064972000000000E-01     -1.313594000000000E+02
3020000000.000000      4.499817000000000E-01     -7.022265000000000E+01      3.497314000000000E-01     -1.346875000000000E+02
3040000000.000000      4.548798000000000E-01     -8.314062000000000E+01      4.669189000000000E-01     -1.445937000000000E+02
3060000000.000000      4.468842000000000E-01     -9.506250000000000E+01      5.709534000000000E-01     -1.550390000000000E+02
3080000000.000000      4.318237000000000E-01     -1.063086000000000E+02      6.726379000000000E-01     -1.680625000000000E+02
3100000000.000000      4.116516000000000E-01     -1.174297000000000E+02      7.235718000000000E-01      1.770156000000000E+02
3120000000.000000      3.827820000000000E-01     -1.293437000000000E+02      7.321777000000000E-01      1.635625000000000E+02
3140000000.000000      3.421173000000000E-01     -1.422109000000000E+02      7.246704000000000E-01      1.508203000000000E+02
3160000000.000000      2.827606000000000E-01     -1.559766000000000E+02      6.840515000000000E-01      1.372891000000000E+02
3180000000.000000      2.031860000000000E-01     -1.684687000000000E+02      6.132507000000000E-01      1.248086000000000E+02
3200000000.000000      1.150818000000000E-01     -1.689141000000000E+02      5.208130000000000E-01      1.119375000000000E+02
3220000000.000000      8.275986000000000E-02     -1.249336000000000E+02      3.876801000000000E-01      1.010078000000000E+02
3240000000.000000      1.530914000000000E-01     -1.055195000000000E+02      2.473984000000000E-01      9.970312000000000E+01
3260000000.000000      2.326736000000000E-01     -1.152422000000000E+02      1.474838000000000E-01      1.254023000000000E+02
3280000000.000000      2.908478000000000E-01     -1.307109000000000E+02      2.026901000000000E-01      1.654687000000000E+02
3300000000.000000      3.235779000000000E-01     -1.468281000000000E+02      3.295288000000000E-01      1.698672000000000E+02
3320000000.000000      3.355713000000000E-01     -1.626328000000000E+02      4.632721000000000E-01      1.628359000000000E+02
3340000000.000000      3.318787000000000E-01     -1.779063000000000E+02      5.747986000000000E-01      1.507500000000000E+02
3360000000.000000      3.198395000000000E-01      1.674766000000000E+02      6.465149000000000E-01      1.386250000000000E+02
3380000000.000000      3.027649000000000E-01      1.532891000000000E+02      7.110291000000000E-01      1.273789000000000E+02
3400000000.000000      2.793274000000000E-01      1.386719000000000E+02      7.583008000000000E-01      1.135547000000000E+02
3420000000.000000      2.435608000000000E-01      1.237266000000000E+02      7.506409000000000E-01      9.871874000000000E+01
3440000000.000000      1.902008000000000E-01      1.089766000000000E+02      7.060547000000000E-01      8.576172000000000E+01
3460000000.000000      1.188354000000000E-01      9.873827000000000E+01      6.473694000000000E-01      7.275000000000000E+01
3480000000.000000      4.808235000000000E-02      1.242070000000000E+02      5.513000000000000E-01      5.916210000000000E+01
3500000000.000000      9.439468000000000E-02     -1.730391000000000E+02      4.262238000000000E-01      4.780663000000000E+01
3520000000.000000      1.857529000000000E-01     -1.799844000000000E+02      2.801514000000000E-01      4.063086000000000E+01
3540000000.000000      2.645111000000000E-01      1.637109000000000E+02      1.483383000000000E-01      5.820117000000000E+01
3560000000.000000      3.236084000000000E-01      1.466094000000000E+02      1.667786000000000E-01      1.077500000000000E+02
3580000000.000000      3.596649000000000E-01      1.305391000000000E+02      2.940979000000000E-01      1.176641000000000E+02
3600000000.000000      3.759003000000000E-01      1.158789000000000E+02      4.197845000000000E-01      1.108242000000000E+02
3620000000.000000      3.772583000000000E-01      1.030937000000000E+02      5.221252000000000E-01      1.013477000000000E+02
3640000000.000000      3.677521000000000E-01      9.172655000000000E+01      6.223450000000000E-01      9.026562000000000E+01
3660000000.000000      3.512421000000000E-01      8.148829000000000E+01      6.928101000000000E-01      7.605078000000000E+01
3680000000.000000      3.278961000000000E-01      7.222265000000000E+01      7.112732000000000E-01      6.278515000000000E+01
3700000000.000000      2.974396000000000E-01      6.385742000000000E+01      7.218018000000000E-01      5.124609000000000E+01
3720000000.000000      2.528381000000000E-01      5.764648000000000E+01      7.246399000000000E-01      3.687109000000000E+01
3740000000.000000      2.026596000000000E-01      5.838672000000000E+01      6.658936000000000E-01      2.155176000000000E+01
3760000000.000000      1.755829000000000E-01      7.260156000000000E+01      5.672302000000000E-01      7.256348000000000E+00
3780000000.000000      2.090378000000000E-01      8.779297000000000E+01      4.359894000000000E-01     -5.910645000000000E+00
3800000000.000000      2.804413000000000E-01      8.936327000000000E+01      2.837830000000000E-01     -1.324170000000000E+01
3820000000.000000      3.483887000000000E-01      8.293360000000000E+01      1.542664000000000E-01     -5.438232000000000E-01
3840000000.000000      3.981171000000000E-01      7.413671000000000E+01      1.428909000000000E-01      4.773046000000000E+01
3860000000.000000      4.332581000000000E-01      6.548046000000000E+01      2.459717000000000E-01      6.545312000000000E+01
3880000000.000000      4.587097000000000E-01      5.786718000000000E+01      3.759613000000000E-01      6.132617000000000E+01
3900000000.000000      4.875031000000000E-01      5.075195000000000E+01      4.777832000000000E-01      4.802539000000000E+01
3920000000.000000      5.187378000000000E-01      4.289453000000000E+01      5.093689000000000E-01      3.608398000000000E+01
3940000000.000000      5.476379000000000E-01      3.420703000000000E+01      5.403442000000000E-01      2.966309000000000E+01
3960000000.000000      5.588074000000000E-01      2.380957000000000E+01      5.960693000000000E-01      2.024707000000000E+01
3980000000.000000      5.531921000000000E-01      1.336035000000000E+01      5.981750000000000E-01      8.309570000000000E+00
4000000000.000000      5.263977000000000E-01      3.010254000000000E+00      5.802002000000000E-01      1.349915000000000E+00
4020000000.000000      4.837036000000000E-01     -7.062988000000000E+00      5.979614000000000E-01     -6.387207000000000E+00
4040000000.000000      4.253998000000000E-01     -1.593457000000000E+01      5.870056000000000E-01     -1.859863000000000E+01
4060000000.000000      3.493805000000000E-01     -2.210938000000000E+01      5.284119000000000E-01     -2.883105000000000E+01
4080000000.000000      2.750397000000000E-01     -2.235449000000000E+01      4.697571000000000E-01     -3.815430000000000E+01
4100000000.000000      2.280731000000000E-01     -1.195898000000000E+01      3.682709000000000E-01     -4.730273000000000E+01
4120000000.000000      2.409134000000000E-01      1.229065000000000E+00      2.499237000000000E-01     -4.414258000000000E+01
4140000000.000000      2.888947000000000E-01      4.755615000000000E+00      2.027817000000000E-01     -1.997949000000000E+01
4160000000.000000      3.329315000000000E-01      6.193542000000000E-01      2.630463000000000E-01     -2.609253000000000E-02
4180000000.000000      3.618164000000000E-01     -6.149658000000000E+00      3.568420000000000E-01      4.026367000000000E+00
4200000000.000000      3.715363000000000E-01     -1.391846000000000E+01      4.872589000000000E-01      1.557312000000000E+00
4220000000.000000      3.673248000000000E-01     -2.117383000000000E+01      6.414795000000000E-01     -1.067480000000000E+01
4240000000.000000      3.482513000000000E-01     -2.872461000000000E+01      7.219238000000000E-01     -2.756152000000000E+01
4260000000.000000      3.101501000000000E-01     -3.448633000000000E+01      7.434998000000000E-01     -4.149414000000000E+01
4280000000.000000      2.603912000000000E-01     -3.584179000000000E+01      7.527466000000000E-01     -5.544335000000000E+01
4300000000.000000      2.228928000000000E-01     -2.781347000000000E+01      7.159119000000000E-01     -7.053515000000000E+01
4320000000.000000      2.355194000000000E-01     -1.500195000000000E+01      6.324463000000000E-01     -8.491796000000000E+01
4340000000.000000      2.934265000000000E-01     -1.085889000000000E+01      5.169983000000000E-01     -9.764452000000000E+01
4360000000.000000      3.588257000000000E-01     -1.580811000000000E+01      3.821869000000000E-01     -1.067695000000000E+02
4380000000.000000      4.057465000000000E-01     -2.479980000000000E+01      2.504883000000000E-01     -1.080430000000000E+02
4400000000.000000      4.268188000000000E-01     -3.475390000000000E+01      1.539688000000000E-01     -8.528515000000000E+01
4420000000.000000      4.255829000000000E-01     -4.406250000000000E+01      1.869202000000000E-01     -4.559960000000000E+01
4440000000.000000      4.096527000000000E-01     -5.227929000000000E+01      3.094177000000000E-01     -3.585156000000000E+01
4460000000.000000      3.894196000000000E-01     -5.891992000000000E+01      4.529419000000000E-01     -4.312500000000000E+01
4480000000.000000      3.691711000000000E-01     -6.502734000000000E+01      5.608215000000000E-01     -5.521874000000000E+01
4500000000.000000      3.480530000000000E-01     -7.168750000000000E+01      6.417542000000000E-01     -6.656250000000000E+01
4520000000.000000      3.153534000000000E-01     -7.919922000000000E+01      7.142334000000000E-01     -7.955859000000000E+01
4540000000.000000      2.643280000000000E-01     -8.535156000000000E+01      7.427063000000000E-01     -9.406250000000000E+01
4560000000.000000      2.040939000000000E-01     -8.373827000000000E+01      7.299805000000000E-01     -1.074375000000000E+02
4580000000.000000      1.768494000000000E-01     -6.815234000000000E+01      6.921997000000000E-01     -1.212695000000000E+02
4600000000.000000      2.135086000000000E-01     -5.424414000000000E+01      6.065369000000000E-01     -1.343906000000000E+02
4620000000.000000      2.786560000000000E-01     -5.546093000000000E+01      4.994049000000000E-01     -1.448281000000000E+02
4640000000.000000      3.326263000000000E-01     -6.519531000000000E+01      3.802948000000000E-01     -1.533125000000000E+02
4660000000.000000      3.573608000000000E-01     -7.832812000000000E+01      2.471237000000000E-01     -1.516875000000000E+02
4680000000.000000      3.491974000000000E-01     -9.219141000000000E+01      1.787262000000000E-01     -1.235742000000000E+02
4700000000.000000      3.125610000000000E-01     -1.052500000000000E+02      2.471924000000000E-01     -9.646093000000000E+01
4720000000.000000      2.560425000000000E-01     -1.157031000000000E+02      3.659668000000000E-01     -9.521875000000000E+01
4740000000.000000      1.938171000000000E-01     -1.208945000000000E+02      4.738617000000000E-01     -1.013750000000000E+02
4760000000.000000      1.412582000000000E-01     -1.170430000000000E+02      5.790100000000000E-01     -1.102930000000000E+02
4780000000.000000      1.151237000000000E-01     -1.013515000000000E+02      6.669617000000000E-01     -1.227461000000000E+02
4800000000.000000      1.211700000000000E-01     -8.391405000000000E+01      7.163086000000000E-01     -1.353906000000000E+02
4820000000.000000      1.494904000000000E-01     -7.445703000000000E+01      7.358398000000000E-01     -1.487031000000000E+02
4840000000.000000      1.905060000000000E-01     -7.419140000000000E+01      7.193298000000000E-01     -1.614766000000000E+02
4860000000.000000      2.337418000000000E-01     -8.051561000000000E+01      6.843567000000000E-01     -1.739141000000000E+02
4880000000.000000      2.709961000000000E-01     -9.078905000000000E+01      6.184387000000000E-01      1.722265000000000E+02
4900000000.000000      2.961884000000000E-01     -1.040820000000000E+02      4.964294000000000E-01      1.599766000000000E+02
4920000000.000000      3.021393000000000E-01     -1.189219000000000E+02      3.660126000000000E-01      1.537188000000000E+02
4940000000.000000      2.877655000000000E-01     -1.344531000000000E+02      2.525330000000000E-01      1.561328000000000E+02
4960000000.000000      2.572479000000000E-01     -1.495156000000000E+02      1.775055000000000E-01      1.773047000000000E+02
4980000000.000000      2.140656000000000E-01     -1.634219000000000E+02      2.142029000000000E-01     -1.510469000000000E+02
5000000000.000000      1.695709000000000E-01     -1.749375000000000E+02      3.295135000000000E-01     -1.432578000000000E+02
5020000000.000000      1.310349000000000E-01      1.755781000000000E+02      4.599915000000000E-01     -1.493125000000000E+02
5040000000.000000      1.002235000000000E-01      1.658437000000000E+02      5.693054000000000E-01     -1.599609000000000E+02
5060000000.000000      7.145309000000000E-02      1.515781000000000E+02      6.512756000000000E-01     -1.714766000000000E+02
5080000000.000000      4.058838000000000E-02      1.280625000000000E+02      7.191467000000000E-01      1.761172000000000E+02
5100000000.000000      1.408672000000000E-02      4.308398000000000E+01      7.572021000000000E-01      1.625547000000000E+02
5120000000.000000      4.133034000000000E-02     -5.361328000000000E+01      7.544861000000000E-01      1.482344000000000E+02
5140000000.000000      7.362747000000000E-02     -8.821484000000000E+01      7.048340000000000E-01      1.345234000000000E+02
5160000000.000000      9.766769000000000E-02     -1.181836000000000E+02      6.293030000000000E-01      1.223945000000000E+02
5180000000.000000      1.106033000000000E-01     -1.483906000000000E+02      5.340881000000000E-01      1.110352000000000E+02
5200000000.000000      1.125069000000000E-01      1.794219000000000E+02      4.161682000000000E-01      1.014648000000000E+02
5220000000.000000      1.086159000000000E-01      1.435703000000000E+02      2.844696000000000E-01      9.846092000000000E+01
5240000000.000000      1.072464000000000E-01      1.067891000000000E+02      1.845703000000000E-01      1.152539000000000E+02
5260000000.000000      1.109238000000000E-01      7.281250000000000E+01      1.960602000000000E-01      1.494844000000000E+02
5280000000.000000      1.182785000000000E-01      4.599805000000000E+01      2.958069000000000E-01      1.607734000000000E+02
5300000000.000000      1.255112000000000E-01      2.458984000000000E+01      4.092712000000000E-01      1.582813000000000E+02
5320000000.000000      1.316223000000000E-01      8.080078000000000E+00      5.283203000000000E-01      1.508359000000000E+02
5340000000.000000      1.377945000000000E-01     -6.248535000000000E+00      6.413574000000000E-01      1.388047000000000E+02
5360000000.000000      1.431580000000000E-01     -2.183887000000000E+01      7.056885000000000E-01      1.242851000000000E+02
5380000000.000000      1.392059000000000E-01     -3.890039000000000E+01      7.172852000000000E-01      1.109687000000000E+02
5400000000.000000      1.213264000000000E-01     -5.697266000000000E+01      7.179871000000000E-01      9.942186000000000E+01
5420000000.000000      8.644485000000000E-02     -7.364062000000000E+01      7.058105000000000E-01      8.628124000000000E+01
5440000000.000000      3.307152000000000E-02     -7.930859000000000E+01      6.479797000000000E-01      7.189062000000000E+01
5460000000.000000      4.093552000000000E-02      3.670117000000000E+01      5.407104000000000E-01      5.890038000000000E+01
5480000000.000000      1.102676000000000E-01      3.030664000000000E+01      4.138489000000000E-01      4.959765000000000E+01
5500000000.000000      1.736374000000000E-01      1.521191000000000E+01      2.938385000000000E-01      4.744531000000000E+01
5520000000.000000      2.198029000000000E-01      3.694153000000000E-01      1.957474000000000E-01      5.920507000000000E+01
5540000000.000000      2.522278000000000E-01     -1.347363000000000E+01      1.806107000000000E-01      9.079296000000000E+01
5560000000.000000      2.709351000000000E-01     -2.530468000000000E+01      2.620544000000000E-01      1.089648000000000E+02
5580000000.000000      2.831879000000000E-01     -3.519922000000000E+01      3.841248000000000E-01      1.087812000000000E+02
5600000000.000000      2.948456000000000E-01     -4.394727000000000E+01      5.060120000000000E-01      9.999609000000000E+01
5620000000.000000      3.059387000000000E-01     -5.295312000000000E+01      5.955505000000000E-01      8.730860000000000E+01
5640000000.000000      3.097382000000000E-01     -6.269531000000000E+01      6.448975000000000E-01      7.550781000000000E+01
5660000000.000000      3.006134000000000E-01     -7.325781000000000E+01      6.835327000000000E-01      6.416016000000000E+01
5680000000.000000      2.723999000000000E-01     -8.366796000000000E+01      6.992188000000000E-01      5.153320000000000E+01
5700000000.000000      2.253113000000000E-01     -9.111719000000000E+01      6.824951000000000E-01      3.909570000000000E+01
5720000000.000000      1.746902000000000E-01     -9.015234000000000E+01      6.442261000000000E-01      2.646289000000000E+01
5740000000.000000      1.524124000000000E-01     -7.598046000000000E+01      5.672302000000000E-01      1.306543000000000E+01
5760000000.000000      1.800995000000000E-01     -6.425390000000000E+01      4.533386000000000E-01      1.602600000000000E+00
5780000000.000000      2.264175000000000E-01     -6.547656000000000E+01      3.175812000000000E-01     -3.765625000000000E+00
5800000000.000000      2.587128000000000E-01     -7.321484000000000E+01      2.083588000000000E-01      6.973389000000000E+00
5820000000.000000      2.691345000000000E-01     -8.258984000000000E+01      1.890564000000000E-01      3.748828000000000E+01
5840000000.000000      2.599030000000000E-01     -9.093359000000000E+01      2.701569000000000E-01      5.421093000000000E+01
5860000000.000000      2.420425000000000E-01     -9.640625000000000E+01      3.704376000000000E-01      5.427148000000000E+01
5880000000.000000      2.269592000000000E-01     -9.958202000000000E+01      4.772339000000000E-01      4.900781000000000E+01
5900000000.000000      2.198639000000000E-01     -1.021250000000000E+02      5.946045000000000E-01      3.883984000000000E+01
5920000000.000000      2.128525000000000E-01     -1.049805000000000E+02      6.707458000000000E-01      2.486816000000000E+01
5940000000.000000      1.987610000000000E-01     -1.070430000000000E+02      7.011719000000000E-01      1.166748000000000E+01
5960000000.000000      1.803665000000000E-01     -1.054648000000000E+02      7.155151000000000E-01     -1.053345000000000E+00
5980000000.000000      1.682816000000000E-01     -9.798046000000000E+01      6.926575000000000E-01     -1.490723000000000E+01
6000000000.000000      1.825867000000000E-01     -8.856249000000000E+01      6.286926000000000E-01     -2.853320000000000E+01
6020000000.000000      2.176895000000000E-01     -8.662889000000000E+01      5.303955000000000E-01     -4.132813000000000E+01
6040000000.000000      2.536621000000000E-01     -9.179688000000000E+01      4.016266000000000E-01     -4.943359000000000E+01
6060000000.000000      2.779999000000000E-01     -1.007461000000000E+02      2.865601000000000E-01     -4.949023000000000E+01
6080000000.000000      2.883148000000000E-01     -1.106992000000000E+02      2.057190000000000E-01     -3.594531000000000E+01
