! Network Analyzer HP8722D
! Hewlett-Packard
! Data name: Linha & Wilkinson+CNT
! Saver's name: Rodrigo Anjos
! Comments: Teste da utilização de aquisição
continua pelo VNA HP8722D
! Time and date: 29/9/2025 16:03
!              Frequency                     S11                                                   S21                                                   S12                                                   S22
# HZ  S  MA R 50
3000000000.000000      4.268646000000000E-01     -5.571484000000000E+01      2.093811000000000E-01     -1.314219000000000E+02
3020000000.000000      4.490051000000000E-01     -7.009375000000000E+01      3.522339000000000E-01     -1.350000000000000E+02
3040000000.000000      4.514160000000000E-01     -8.288671000000000E+01      4.692841000000000E-01     -1.448672000000000E+02
3060000000.000000      4.447021000000000E-01     -9.490234000000000E+01      5.730591000000000E-01     -1.553281000000000E+02
3080000000.000000      4.291382000000000E-01     -1.062266000000000E+02      6.725464000000000E-01     -1.683984000000000E+02
3100000000.000000      4.090424000000000E-01     -1.174453000000000E+02      7.245483000000000E-01      1.767891000000000E+02
3120000000.000000      3.795929000000000E-01     -1.292969000000000E+02      7.313232000000000E-01      1.632813000000000E+02
3140000000.000000      3.382568000000000E-01     -1.423281000000000E+02      7.226257000000000E-01      1.505234000000000E+02
3160000000.000000      2.772369000000000E-01     -1.563828000000000E+02      6.824951000000000E-01      1.368828000000000E+02
3180000000.000000      1.980362000000000E-01     -1.691484000000000E+02      6.131592000000000E-01      1.243320000000000E+02
3200000000.000000      1.102333000000000E-01     -1.694062000000000E+02      5.176086000000000E-01      1.114101000000000E+02
3220000000.000000      7.997894000000000E-02     -1.234336000000000E+02      3.840637000000000E-01      1.008750000000000E+02
3240000000.000000      1.516953000000000E-01     -1.048164000000000E+02      2.451324000000000E-01      9.972656000000000E+01
3260000000.000000      2.308044000000000E-01     -1.152461000000000E+02      1.471024000000000E-01      1.260859000000000E+02
3280000000.000000      2.882080000000000E-01     -1.309531000000000E+02      2.054291000000000E-01      1.654766000000000E+02
3300000000.000000      3.203583000000000E-01     -1.472031000000000E+02      3.317719000000000E-01      1.695703000000000E+02
3320000000.000000      3.318329000000000E-01     -1.631797000000000E+02      4.645844000000000E-01      1.624297000000000E+02
3340000000.000000      3.283844000000000E-01     -1.786250000000000E+02      5.751953000000000E-01      1.503984000000000E+02
3360000000.000000      3.162231000000000E-01      1.666875000000000E+02      6.473389000000000E-01      1.382656000000000E+02
3380000000.000000      3.001099000000000E-01      1.524141000000000E+02      7.104797000000000E-01      1.268555000000000E+02
3400000000.000000      2.777863000000000E-01      1.377109000000000E+02      7.576599000000000E-01      1.130937000000000E+02
3420000000.000000      2.427444000000000E-01      1.227422000000000E+02      7.485962000000000E-01      9.828905000000000E+01
3440000000.000000      1.893845000000000E-01      1.080351000000000E+02      7.034607000000000E-01      8.545313000000000E+01
3460000000.000000      1.187477000000000E-01      9.744921000000000E+01      6.458130000000000E-01      7.233593000000000E+01
3480000000.000000      4.767036000000000E-02      1.228047000000000E+02      5.482483000000000E-01      5.883398000000000E+01
3500000000.000000      9.351349000000000E-02     -1.741094000000000E+02      4.238586000000000E-01      4.755273000000000E+01
3520000000.000000      1.847763000000000E-01      1.789922000000000E+02      2.770538000000000E-01      4.058203000000000E+01
3540000000.000000      2.642365000000000E-01      1.625937000000000E+02      1.467361000000000E-01      5.900585000000000E+01
3560000000.000000      3.236847000000000E-01      1.456406000000000E+02      1.688080000000000E-01      1.081055000000000E+02
3580000000.000000      3.600922000000000E-01      1.296719000000000E+02      2.965088000000000E-01      1.175430000000000E+02
3600000000.000000      3.764648000000000E-01      1.151367000000000E+02      4.211426000000000E-01      1.105117000000000E+02
3620000000.000000      3.782501000000000E-01      1.023594000000000E+02      5.227051000000000E-01      1.009727000000000E+02
3640000000.000000      3.683167000000000E-01      9.125780000000000E+01      6.229553000000000E-01      8.985937000000000E+01
3660000000.000000      3.518829000000000E-01      8.103907000000000E+01      6.944580000000000E-01      7.571484000000000E+01
3680000000.000000      3.294373000000000E-01      7.187890000000000E+01      7.108765000000000E-01      6.255077000000000E+01
3700000000.000000      2.985687000000000E-01      6.362695000000000E+01      7.200317000000000E-01      5.102734000000000E+01
3720000000.000000      2.548828000000000E-01      5.761913000000000E+01      7.238464000000000E-01      3.662695000000000E+01
3740000000.000000      2.042236000000000E-01      5.864452000000000E+01      6.628418000000000E-01      2.112597000000000E+01
3760000000.000000      1.777878000000000E-01      7.278515000000000E+01      5.653992000000000E-01      6.818359000000000E+00
3780000000.000000      2.123566000000000E-01      8.760546000000000E+01      4.330444000000000E-01     -6.134521000000000E+00
3800000000.000000      2.832489000000000E-01      8.911327000000000E+01      2.798767000000000E-01     -1.335840000000000E+01
3820000000.000000      3.506165000000000E-01      8.259375000000000E+01      1.526871000000000E-01      3.007507000000000E-01
3840000000.000000      4.010773000000000E-01      7.384766000000000E+01      1.444702000000000E-01      4.828125000000000E+01
3860000000.000000      4.362640000000000E-01      6.532031000000000E+01      2.476730000000000E-01      6.537890000000000E+01
3880000000.000000      4.610138000000000E-01      5.779101000000000E+01      3.781891000000000E-01      6.106445000000000E+01
3900000000.000000      4.903717000000000E-01      5.067577000000000E+01      4.784088000000000E-01      4.757031000000000E+01
3920000000.000000      5.220642000000000E-01      4.297265000000000E+01      5.095825000000000E-01      3.593750000000000E+01
3940000000.000000      5.492554000000000E-01      3.401367000000000E+01      5.396729000000000E-01      2.929492000000000E+01
3960000000.000000      5.606995000000000E-01      2.411621000000000E+01      5.955811000000000E-01      1.992969000000000E+01
3980000000.000000      5.526428000000000E-01      1.351318000000000E+01      5.983276000000000E-01      8.080078000000000E+00
4000000000.000000      5.258789000000000E-01      3.073364000000000E+00      5.788574000000000E-01      1.296387000000000E+00
4020000000.000000      4.841003000000000E-01     -6.863770000000000E+00      5.991516000000000E-01     -6.470947000000000E+00
4040000000.000000      4.249115000000000E-01     -1.568457000000000E+01      5.845337000000000E-01     -1.896289000000000E+01
4060000000.000000      3.487091000000000E-01     -2.185059000000000E+01      5.266724000000000E-01     -2.896191000000000E+01
4080000000.000000      2.735138000000000E-01     -2.168652000000000E+01      4.681091000000000E-01     -3.822461000000000E+01
4100000000.000000      2.285614000000000E-01     -1.078857000000000E+01      3.660736000000000E-01     -4.748242000000000E+01
4120000000.000000      2.425156000000000E-01      2.010498000000000E+00      2.482910000000000E-01     -4.379687000000000E+01
4140000000.000000      2.905731000000000E-01      5.218506000000000E+00      2.036285000000000E-01     -1.947754000000000E+01
4160000000.000000      3.338623000000000E-01      9.530640000000000E-01      2.653809000000000E-01      9.613037000000000E-03
4180000000.000000      3.621674000000000E-01     -5.917725000000000E+00      3.593597000000000E-01      3.880859000000000E+00
4200000000.000000      3.711853000000000E-01     -1.364795000000000E+01      4.894409000000000E-01      1.121948000000000E+00
4220000000.000000      3.673859000000000E-01     -2.089062000000000E+01      6.444092000000000E-01     -1.128711000000000E+01
4240000000.000000      3.479614000000000E-01     -2.837695000000000E+01      7.222595000000000E-01     -2.793457000000000E+01
4260000000.000000      3.093109000000000E-01     -3.404101000000000E+01      7.425537000000000E-01     -4.200195000000000E+01
4280000000.000000      2.588196000000000E-01     -3.527344000000000E+01      7.516479000000000E-01     -5.589257000000000E+01
4300000000.000000      2.219925000000000E-01     -2.689355000000000E+01      7.138977000000000E-01     -7.077343000000000E+01
4320000000.000000      2.362976000000000E-01     -1.426465000000000E+01      6.295471000000000E-01     -8.535156000000000E+01
4340000000.000000      2.945251000000000E-01     -1.050195000000000E+01      5.136414000000000E-01     -9.799608000000000E+01
4360000000.000000      3.593750000000000E-01     -1.568164000000000E+01      3.784485000000000E-01     -1.069922000000000E+02
4380000000.000000      4.059143000000000E-01     -2.464453000000000E+01      2.481689000000000E-01     -1.077969000000000E+02
4400000000.000000      4.267731000000000E-01     -3.458008000000000E+01      1.532288000000000E-01     -8.442577000000000E+01
4420000000.000000      4.244232000000000E-01     -4.399219000000000E+01      1.892548000000000E-01     -4.527148000000000E+01
4440000000.000000      4.081879000000000E-01     -5.198437000000000E+01      3.122864000000000E-01     -3.612500000000000E+01
4460000000.000000      3.878174000000000E-01     -5.833593000000000E+01      4.550629000000000E-01     -4.348828000000000E+01
4480000000.000000      3.667145000000000E-01     -6.486718000000000E+01      5.629578000000000E-01     -5.560156000000000E+01
4500000000.000000      3.459473000000000E-01     -7.161327000000000E+01      6.432495000000000E-01     -6.715625000000000E+01
4520000000.000000      3.128357000000000E-01     -7.940234000000000E+01      7.178040000000000E-01     -7.987890000000000E+01
4540000000.000000      2.613678000000000E-01     -8.554688000000000E+01      7.424622000000000E-01     -9.458202000000000E+01
4560000000.000000      2.005386000000000E-01     -8.364452000000000E+01      7.276917000000000E-01     -1.079258000000000E+02
4580000000.000000      1.740952000000000E-01     -6.745312000000000E+01      6.900635000000000E-01     -1.216016000000000E+02
4600000000.000000      2.125320000000000E-01     -5.371094000000000E+01      6.038818000000000E-01     -1.348750000000000E+02
4620000000.000000      2.775269000000000E-01     -5.518555000000000E+01      4.971924000000000E-01     -1.452500000000000E+02
4640000000.000000      3.307648000000000E-01     -6.522655000000000E+01      3.774719000000000E-01     -1.534765000000000E+02
4660000000.000000      3.546295000000000E-01     -7.851953000000000E+01      2.451706000000000E-01     -1.515156000000000E+02
4680000000.000000      3.454895000000000E-01     -9.247265000000000E+01      1.791992000000000E-01     -1.230312000000000E+02
4700000000.000000      3.082581000000000E-01     -1.057656000000000E+02      2.497559000000000E-01     -9.641014000000000E+01
4720000000.000000      2.518158000000000E-01     -1.162266000000000E+02      3.691254000000000E-01     -9.548828000000000E+01
4740000000.000000      1.898804000000000E-01     -1.214219000000000E+02      4.755554000000000E-01     -1.017891000000000E+02
4760000000.000000      1.385574000000000E-01     -1.172266000000000E+02      5.809937000000000E-01     -1.106641000000000E+02
4780000000.000000      1.120682000000000E-01     -1.015508000000000E+02      6.677246000000000E-01     -1.231719000000000E+02
4800000000.000000      1.182632000000000E-01     -8.328905000000000E+01      7.178955000000000E-01     -1.358672000000000E+02
4820000000.000000      1.468658000000000E-01     -7.375000000000000E+01      7.358704000000000E-01     -1.491562000000000E+02
4840000000.000000      1.881256000000000E-01     -7.368359000000000E+01      7.176514000000000E-01     -1.619609000000000E+02
4860000000.000000      2.308044000000000E-01     -8.025000000000000E+01      6.826172000000000E-01     -1.744453000000000E+02
4880000000.000000      2.687073000000000E-01     -9.078516000000000E+01      6.147461000000000E-01      1.718828000000000E+02
4900000000.000000      2.938843000000000E-01     -1.043984000000000E+02      4.945526000000000E-01      1.596250000000000E+02
4920000000.000000      2.994690000000000E-01     -1.194961000000000E+02      3.633118000000000E-01      1.535391000000000E+02
4940000000.000000      2.848053000000000E-01     -1.352031000000000E+02      2.498093000000000E-01      1.561406000000000E+02
4960000000.000000      2.544098000000000E-01     -1.504297000000000E+02      1.770325000000000E-01      1.780000000000000E+02
4980000000.000000      2.113037000000000E-01     -1.644922000000000E+02      2.163925000000000E-01     -1.510234000000000E+02
5000000000.000000      1.677017000000000E-01     -1.761094000000000E+02      3.332977000000000E-01     -1.435469000000000E+02
5020000000.000000      1.299057000000000E-01      1.737344000000000E+02      4.622803000000000E-01     -1.498281000000000E+02
5040000000.000000      9.966660000000000E-02      1.634219000000000E+02      5.710449000000000E-01     -1.606016000000000E+02
5060000000.000000      7.136917000000000E-02      1.484219000000000E+02      6.522217000000000E-01     -1.719922000000000E+02
5080000000.000000      4.092407000000000E-02      1.221719000000000E+02      7.187805000000000E-01      1.756719000000000E+02
5100000000.000000      1.666355000000000E-02      3.959765000000000E+01      7.569275000000000E-01      1.619375000000000E+02
5120000000.000000      4.176521000000000E-02     -5.191992000000000E+01      7.520752000000000E-01      1.478203000000000E+02
5140000000.000000      7.336426000000000E-02     -8.829687000000000E+01      7.007141000000000E-01      1.342578000000000E+02
5160000000.000000      9.659195000000000E-02     -1.196055000000000E+02      6.284180000000000E-01      1.217422000000000E+02
5180000000.000000      1.096306000000000E-01     -1.500937000000000E+02      5.310669000000000E-01      1.105508000000000E+02
5200000000.000000      1.128120000000000E-01      1.773750000000000E+02      4.148254000000000E-01      1.010039000000000E+02
5220000000.000000      1.098671000000000E-01      1.414766000000000E+02      2.812347000000000E-01      9.850389000000000E+01
5240000000.000000      1.091652000000000E-01      1.051133000000000E+02      1.830750000000000E-01      1.159023000000000E+02
5260000000.000000      1.130791000000000E-01      7.199219000000000E+01      1.979752000000000E-01      1.498828000000000E+02
5280000000.000000      1.203003000000000E-01      4.553711000000000E+01      2.987823000000000E-01      1.606250000000000E+02
5300000000.000000      1.279449000000000E-01      2.476660000000000E+01      4.119873000000000E-01      1.579297000000000E+02
5320000000.000000      1.335526000000000E-01      8.504395000000000E+00      5.299072000000000E-01      1.503828000000000E+02
5340000000.000000      1.396179000000000E-01     -6.135986000000000E+00      6.416016000000000E-01      1.382969000000000E+02
5360000000.000000      1.436920000000000E-01     -2.154883000000000E+01      7.059937000000000E-01      1.239180000000000E+02
5380000000.000000      1.385345000000000E-01     -3.924609000000000E+01      7.176514000000000E-01      1.106172000000000E+02
5400000000.000000      1.194839000000000E-01     -5.738476000000000E+01      7.186584000000000E-01      9.875000000000000E+01
5420000000.000000      8.362961000000000E-02     -7.424218000000000E+01      7.035217000000000E-01      8.588282000000000E+01
5440000000.000000      2.966309000000000E-02     -7.817187000000000E+01      6.471863000000000E-01      7.151953000000000E+01
5460000000.000000      4.452515000000000E-02      3.904492000000000E+01      5.380249000000000E-01      5.849414000000000E+01
5480000000.000000      1.138535000000000E-01      3.064550000000000E+01      4.110718000000000E-01      4.934765000000000E+01
5500000000.000000      1.760178000000000E-01      1.532959000000000E+01      2.903900000000000E-01      4.750781000000000E+01
5520000000.000000      2.216110000000000E-01      5.053711000000000E-01      1.943588000000000E-01      5.977344000000000E+01
5540000000.000000      2.521820000000000E-01     -1.327734000000000E+01      1.822891000000000E-01      9.148829000000000E+01
5560000000.000000      2.702179000000000E-01     -2.519629000000000E+01      2.650909000000000E-01      1.087812000000000E+02
5580000000.000000      2.829895000000000E-01     -3.503125000000000E+01      3.866119000000000E-01      1.084687000000000E+02
5600000000.000000      2.935486000000000E-01     -4.401367000000000E+01      5.086365000000000E-01      9.942968000000000E+01
5620000000.000000      3.046112000000000E-01     -5.311913000000000E+01      5.981140000000000E-01      8.689453000000000E+01
5640000000.000000      3.079071000000000E-01     -6.291210000000000E+01      6.480408000000000E-01      7.493359000000000E+01
5660000000.000000      2.975464000000000E-01     -7.355469000000000E+01      6.856995000000000E-01      6.360546000000000E+01
5680000000.000000      2.678528000000000E-01     -8.392578000000000E+01      6.986694000000000E-01      5.084570000000000E+01
5700000000.000000      2.197876000000000E-01     -9.105469000000000E+01      6.835327000000000E-01      3.852148000000000E+01
5720000000.000000      1.694870000000000E-01     -8.951172000000000E+01      6.417236000000000E-01      2.579102000000000E+01
5740000000.000000      1.495056000000000E-01     -7.490624000000000E+01      5.639954000000000E-01      1.261914000000000E+01
5760000000.000000      1.794281000000000E-01     -6.355469000000000E+01      4.480743000000000E-01      1.244202000000000E+00
5780000000.000000      2.257996000000000E-01     -6.530859000000000E+01      3.145447000000000E-01     -3.710693000000000E+00
5800000000.000000      2.572021000000000E-01     -7.314453000000000E+01      2.065353000000000E-01      7.606445000000000E+00
5820000000.000000      2.667847000000000E-01     -8.270311000000000E+01      1.904373000000000E-01      3.815625000000000E+01
5840000000.000000      2.568665000000000E-01     -9.112890000000000E+01      2.734222000000000E-01      5.416210000000000E+01
5860000000.000000      2.388840000000000E-01     -9.664452000000000E+01      3.741760000000000E-01      5.388476000000000E+01
5880000000.000000      2.243271000000000E-01     -9.968359000000000E+01      4.811249000000000E-01      4.836132000000000E+01
5900000000.000000      2.160416000000000E-01     -1.023281000000000E+02      5.953979000000000E-01      3.821289000000000E+01
5920000000.000000      2.083282000000000E-01     -1.051719000000000E+02      6.729126000000000E-01      2.449121000000000E+01
5940000000.000000      1.938629000000000E-01     -1.070391000000000E+02      7.028809000000000E-01      1.111377000000000E+01
5960000000.000000      1.771164000000000E-01     -1.049687000000000E+02      7.119751000000000E-01     -1.726257000000000E+00
5980000000.000000      1.655807000000000E-01     -9.723827000000000E+01      6.893005000000000E-01     -1.561035000000000E+01
6000000000.000000      1.825180000000000E-01     -8.808594000000000E+01      6.261292000000000E-01     -2.904101000000000E+01
6020000000.000000      2.165680000000000E-01     -8.639063000000000E+01      5.280457000000000E-01     -4.184375000000000E+01
6040000000.000000      2.525330000000000E-01     -9.181641000000000E+01      3.968353000000000E-01     -4.995312000000000E+01
6060000000.000000      2.756042000000000E-01     -1.008906000000000E+02      2.838135000000000E-01     -4.944336000000000E+01
6080000000.000000      2.856598000000000E-01     -1.112031000000000E+02      2.049408000000000E-01     -3.531054000000000E+01
