! Network Analyzer HP8722D
! Hewlett-Packard
! Data name: Linha & Wilkinson+CNT
! Saver's name: Rodrigo Anjos
! Comments: Teste da utilização de aquisição
continua pelo VNA HP8722D
! Time and date: 29/9/2025 11:50
!              Frequency                     S11                                                   S21                                                   S12                                                   S22
# HZ  S  MA R 50
3000000000.000000      4.220428000000000E-01     -5.669922000000000E+01      2.101517000000000E-01     -1.315391000000000E+02
3020000000.000000      4.448853000000000E-01     -7.095312000000000E+01      3.524017000000000E-01     -1.351875000000000E+02
3040000000.000000      4.508514000000000E-01     -8.369141000000000E+01      4.693146000000000E-01     -1.451016000000000E+02
3060000000.000000      4.434814000000000E-01     -9.579687000000000E+01      5.732422000000000E-01     -1.555547000000000E+02
3080000000.000000      4.287415000000000E-01     -1.070703000000000E+02      6.741943000000000E-01     -1.685547000000000E+02
3100000000.000000      4.091949000000000E-01     -1.182773000000000E+02      7.241516000000000E-01      1.765469000000000E+02
3120000000.000000      3.805084000000000E-01     -1.302578000000000E+02      7.325745000000000E-01      1.633672000000000E+02
3140000000.000000      3.403015000000000E-01     -1.432344000000000E+02      7.239990000000000E-01      1.502969000000000E+02
3160000000.000000      2.802734000000000E-01     -1.570078000000000E+02      6.824341000000000E-01      1.367891000000000E+02
3180000000.000000      2.017517000000000E-01     -1.696172000000000E+02      6.125488000000000E-01      1.242344000000000E+02
3200000000.000000      1.144066000000000E-01     -1.698047000000000E+02      5.177307000000000E-01      1.114375000000000E+02
3220000000.000000      8.309174000000000E-02     -1.255000000000000E+02      3.832397000000000E-01      1.008359000000000E+02
3240000000.000000      1.539764000000000E-01     -1.065195000000000E+02      2.447968000000000E-01      9.987108000000000E+01
3260000000.000000      2.333374000000000E-01     -1.165625000000000E+02      1.477051000000000E-01      1.264961000000000E+02
3280000000.000000      2.918091000000000E-01     -1.318672000000000E+02      2.058029000000000E-01      1.653984000000000E+02
3300000000.000000      3.251038000000000E-01     -1.480469000000000E+02      3.331299000000000E-01      1.694375000000000E+02
3320000000.000000      3.374176000000000E-01     -1.637187000000000E+02      4.658508000000000E-01      1.621875000000000E+02
3340000000.000000      3.336334000000000E-01     -1.789141000000000E+02      5.768433000000000E-01      1.502109000000000E+02
3360000000.000000      3.220673000000000E-01      1.665781000000000E+02      6.479187000000000E-01      1.380156000000000E+02
3380000000.000000      3.045807000000000E-01      1.526016000000000E+02      7.103271000000000E-01      1.266836000000000E+02
3400000000.000000      2.818146000000000E-01      1.381406000000000E+02      7.583923000000000E-01      1.128477000000000E+02
3420000000.000000      2.458725000000000E-01      1.235390000000000E+02      7.477417000000000E-01      9.807421000000000E+01
3440000000.000000      1.914368000000000E-01      1.090820000000000E+02      7.043457000000000E-01      8.521875000000000E+01
3460000000.000000      1.202393000000000E-01      9.961327000000000E+01      6.444092000000000E-01      7.200781000000000E+01
3480000000.000000      5.168343000000000E-02      1.268594000000000E+02      5.462341000000000E-01      5.873241000000000E+01
3500000000.000000      9.887314000000000E-02     -1.756406000000000E+02      4.212494000000000E-01      4.741406000000000E+01
3520000000.000000      1.900177000000000E-01      1.780625000000000E+02      2.760010000000000E-01      4.070898000000000E+01
3540000000.000000      2.687683000000000E-01      1.623828000000000E+02      1.473618000000000E-01      5.916992000000000E+01
3560000000.000000      3.273163000000000E-01      1.456094000000000E+02      1.695099000000000E-01      1.078203000000000E+02
3580000000.000000      3.633423000000000E-01      1.297500000000000E+02      2.966766000000000E-01      1.173438000000000E+02
3600000000.000000      3.786469000000000E-01      1.151680000000000E+02      4.213867000000000E-01      1.103164000000000E+02
3620000000.000000      3.797150000000000E-01      1.024766000000000E+02      5.228577000000000E-01      1.008164000000000E+02
3640000000.000000      3.696899000000000E-01      9.155077000000000E+01      6.224670000000000E-01      8.961718000000000E+01
3660000000.000000      3.527527000000000E-01      8.129686000000000E+01      6.928101000000000E-01      7.537109000000000E+01
3680000000.000000      3.290253000000000E-01      7.210155000000000E+01      7.119141000000000E-01      6.229101000000000E+01
3700000000.000000      2.973328000000000E-01      6.390038000000000E+01      7.210388000000000E-01      5.068164000000000E+01
3720000000.000000      2.528076000000000E-01      5.795703000000000E+01      7.220459000000000E-01      3.638281000000000E+01
3740000000.000000      2.025452000000000E-01      5.906445000000000E+01      6.608887000000000E-01      2.099609000000000E+01
3760000000.000000      1.779175000000000E-01      7.343750000000000E+01      5.642090000000000E-01      6.730469000000000E+00
3780000000.000000      2.134857000000000E-01      8.794922000000000E+01      4.324341000000000E-01     -6.104492000000000E+00
3800000000.000000      2.845001000000000E-01      8.917969000000000E+01      2.787323000000000E-01     -1.315088000000000E+01
3820000000.000000      3.513489000000000E-01      8.255468000000000E+01      1.519775000000000E-01      7.402039000000000E-01
3840000000.000000      4.013367000000000E-01      7.380077000000000E+01      1.456451000000000E-01      4.857616000000000E+01
3860000000.000000      4.348755000000000E-01      6.521874000000000E+01      2.490845000000000E-01      6.525391000000000E+01
3880000000.000000      4.592896000000000E-01      5.758398000000000E+01      3.783722000000000E-01      6.075000000000000E+01
3900000000.000000      4.881744000000000E-01      5.056445000000000E+01      4.787292000000000E-01      4.731641000000000E+01
3920000000.000000      5.198669000000000E-01      4.266211000000000E+01      5.092163000000000E-01      3.562695000000000E+01
3940000000.000000      5.475464000000000E-01      3.351563000000000E+01      5.402527000000000E-01      2.917773000000000E+01
3960000000.000000      5.583496000000000E-01      2.357031000000000E+01      5.948792000000000E-01      1.964160000000000E+01
3980000000.000000      5.507507000000000E-01      1.309424000000000E+01      5.963440000000000E-01      7.844238000000000E+00
4000000000.000000      5.242310000000000E-01      2.719116000000000E+00      5.795288000000000E-01      9.379578000000000E-01
4020000000.000000      4.799500000000000E-01     -7.381592000000000E+00      5.961914000000000E-01     -6.922852000000000E+00
4040000000.000000      4.201355000000000E-01     -1.628222000000000E+01      5.843201000000000E-01     -1.901660000000000E+01
4060000000.000000      3.442688000000000E-01     -2.230664000000000E+01      5.264893000000000E-01     -2.926660000000000E+01
4080000000.000000      2.699890000000000E-01     -2.216406000000000E+01      4.659729000000000E-01     -3.857812000000000E+01
4100000000.000000      2.262268000000000E-01     -1.114600000000000E+01      3.634796000000000E-01     -4.755273000000000E+01
4120000000.000000      2.405777000000000E-01      1.790771000000000E+00      2.473221000000000E-01     -4.372266000000000E+01
4140000000.000000      2.894287000000000E-01      4.938232000000000E+00      2.042084000000000E-01     -1.929785000000000E+01
4160000000.000000      3.331146000000000E-01      6.111145000000000E-01      2.666473000000000E-01     -1.345825000000000E-01
4180000000.000000      3.606262000000000E-01     -6.284180000000000E+00      3.601379000000000E-01      3.599365000000000E+00
4200000000.000000      3.698730000000000E-01     -1.406982000000000E+01      4.897766000000000E-01      9.324646000000000E-01
4220000000.000000      3.647461000000000E-01     -2.126563000000000E+01      6.433411000000000E-01     -1.143994000000000E+01
4240000000.000000      3.453217000000000E-01     -2.882617000000000E+01      7.220459000000000E-01     -2.817773000000000E+01
4260000000.000000      3.069611000000000E-01     -3.455273000000000E+01      7.427063000000000E-01     -4.231445000000000E+01
4280000000.000000      2.572174000000000E-01     -3.564258000000000E+01      7.493591000000000E-01     -5.605663000000000E+01
4300000000.000000      2.220001000000000E-01     -2.705273000000000E+01      7.110291000000000E-01     -7.112109000000000E+01
4320000000.000000      2.371063000000000E-01     -1.453223000000000E+01      6.287231000000000E-01     -8.558594000000000E+01
4340000000.000000      2.953491000000000E-01     -1.089990000000000E+01      5.115967000000000E-01     -9.816015000000000E+01
4360000000.000000      3.603668000000000E-01     -1.614355000000000E+01      3.763123000000000E-01     -1.068164000000000E+02
4380000000.000000      4.054260000000000E-01     -2.513965000000000E+01      2.462311000000000E-01     -1.075859000000000E+02
4400000000.000000      4.255524000000000E-01     -3.515820000000000E+01      1.532059000000000E-01     -8.373047000000000E+01
4420000000.000000      4.235077000000000E-01     -4.444140000000000E+01      1.906815000000000E-01     -4.511719000000000E+01
4440000000.000000      4.072113000000000E-01     -5.254492000000000E+01      3.136444000000000E-01     -3.627539000000000E+01
4460000000.000000      3.863831000000000E-01     -5.908984000000000E+01      4.546967000000000E-01     -4.368360000000000E+01
4480000000.000000      3.669586000000000E-01     -6.557812000000000E+01      5.632629000000000E-01     -5.566601000000000E+01
4500000000.000000      3.455048000000000E-01     -7.235546000000000E+01      6.447449000000000E-01     -6.725390000000000E+01
4520000000.000000      3.111267000000000E-01     -7.996875000000000E+01      7.171631000000000E-01     -8.025391000000000E+01
4540000000.000000      2.589722000000000E-01     -8.592188000000000E+01      7.411804000000000E-01     -9.488672000000000E+01
4560000000.000000      1.983795000000000E-01     -8.371094000000000E+01      7.273865000000000E-01     -1.080937000000000E+02
4580000000.000000      1.736908000000000E-01     -6.729687000000000E+01      6.882629000000000E-01     -1.218398000000000E+02
4600000000.000000      2.134171000000000E-01     -5.382617000000000E+01      6.017761000000000E-01     -1.350000000000000E+02
4620000000.000000      2.781067000000000E-01     -5.557031000000000E+01      4.950256000000000E-01     -1.452266000000000E+02
4640000000.000000      3.300781000000000E-01     -6.549609000000000E+01      3.755188000000000E-01     -1.532344000000000E+02
4660000000.000000      3.526611000000000E-01     -7.869141000000000E+01      2.443619000000000E-01     -1.508047000000000E+02
4680000000.000000      3.423767000000000E-01     -9.243359000000000E+01      1.825485000000000E-01     -1.222070000000000E+02
4700000000.000000      3.045654000000000E-01     -1.052773000000000E+02      2.537994000000000E-01     -9.683203000000000E+01
4720000000.000000      2.484589000000000E-01     -1.153594000000000E+02      3.717804000000000E-01     -9.607811000000000E+01
4740000000.000000      1.869659000000000E-01     -1.197344000000000E+02      4.775543000000000E-01     -1.024883000000000E+02
4760000000.000000      1.375351000000000E-01     -1.145820000000000E+02      5.805359000000000E-01     -1.110859000000000E+02
4780000000.000000      1.158104000000000E-01     -9.810547000000000E+01      6.663818000000000E-01     -1.234687000000000E+02
4800000000.000000      1.248665000000000E-01     -8.195313000000000E+01      7.161865000000000E-01     -1.363437000000000E+02
4820000000.000000      1.549149000000000E-01     -7.362890000000000E+01      7.333984000000000E-01     -1.495234000000000E+02
4840000000.000000      1.959000000000000E-01     -7.420703000000000E+01      7.160645000000000E-01     -1.622656000000000E+02
4860000000.000000      2.384720000000000E-01     -8.091406000000000E+01      6.821594000000000E-01     -1.747344000000000E+02
4880000000.000000      2.747345000000000E-01     -9.138672000000000E+01      6.134338000000000E-01      1.714922000000000E+02
4900000000.000000      2.988586000000000E-01     -1.046445000000000E+02      4.907684000000000E-01      1.595937000000000E+02
4920000000.000000      3.029175000000000E-01     -1.196758000000000E+02      3.632813000000000E-01      1.533437000000000E+02
4940000000.000000      2.862854000000000E-01     -1.351875000000000E+02      2.492371000000000E-01      1.561563000000000E+02
4960000000.000000      2.550354000000000E-01     -1.500859000000000E+02      1.769180000000000E-01      1.779063000000000E+02
4980000000.000000      2.119751000000000E-01     -1.639688000000000E+02      2.164612000000000E-01     -1.509922000000000E+02
5000000000.000000      1.674576000000000E-01     -1.751406000000000E+02      3.327179000000000E-01     -1.439141000000000E+02
5020000000.000000      1.295166000000000E-01      1.753125000000000E+02      4.618683000000000E-01     -1.500547000000000E+02
5040000000.000000      9.902191000000000E-02      1.656406000000000E+02      5.687866000000000E-01     -1.608984000000000E+02
5060000000.000000      7.099152000000000E-02      1.513203000000000E+02      6.490173000000000E-01     -1.724062000000000E+02
5080000000.000000      3.942871000000000E-02      1.272930000000000E+02      7.179871000000000E-01      1.754609000000000E+02
5100000000.000000      1.323175000000000E-02      4.036328000000000E+01      7.550659000000000E-01      1.616875000000000E+02
5120000000.000000      4.101372000000000E-02     -5.560937000000000E+01      7.516174000000000E-01      1.476406000000000E+02
5140000000.000000      7.319641000000000E-02     -8.976171000000000E+01      7.000427000000000E-01      1.339766000000000E+02
5160000000.000000      9.685135000000000E-02     -1.199844000000000E+02      6.255188000000000E-01      1.215195000000000E+02
5180000000.000000      1.096344000000000E-01     -1.501172000000000E+02      5.278015000000000E-01      1.104922000000000E+02
5200000000.000000      1.112595000000000E-01      1.771484000000000E+02      4.115143000000000E-01      1.009492000000000E+02
5220000000.000000      1.080971000000000E-01      1.413984000000000E+02      2.794952000000000E-01      9.842186000000000E+01
5240000000.000000      1.073074000000000E-01      1.044727000000000E+02      1.827545000000000E-01      1.163711000000000E+02
5260000000.000000      1.119499000000000E-01      7.125781000000000E+01      1.988983000000000E-01      1.499609000000000E+02
5280000000.000000      1.191750000000000E-01      4.465820000000000E+01      2.995911000000000E-01      1.605078000000000E+02
5300000000.000000      1.260147000000000E-01      2.415332000000000E+01      4.127502000000000E-01      1.577422000000000E+02
5320000000.000000      1.317749000000000E-01      7.531006000000000E+00      5.299683000000000E-01      1.500156000000000E+02
5340000000.000000      1.387100000000000E-01     -6.704590000000000E+00      6.385498000000000E-01      1.379297000000000E+02
5360000000.000000      1.423874000000000E-01     -2.210742000000000E+01      7.050476000000000E-01      1.235586000000000E+02
5380000000.000000      1.386490000000000E-01     -3.936718000000000E+01      7.155151000000000E-01      1.101953000000000E+02
5400000000.000000      1.198158000000000E-01     -5.722265000000000E+01      7.161865000000000E-01      9.864061000000000E+01
5420000000.000000      8.376312000000000E-02     -7.329687000000000E+01      7.009277000000000E-01      8.562891000000000E+01
5440000000.000000      3.060055000000000E-02     -7.505468000000000E+01      6.435242000000000E-01      7.121094000000000E+01
5460000000.000000      4.422188000000000E-02      3.666406000000000E+01      5.352478000000000E-01      5.827734000000000E+01
5480000000.000000      1.142044000000000E-01      2.945508000000000E+01      4.088287000000000E-01      4.919726000000000E+01
5500000000.000000      1.757431000000000E-01      1.437256000000000E+01      2.884979000000000E-01      4.740039000000000E+01
5520000000.000000      2.209702000000000E-01     -5.026245000000000E-01      1.935806000000000E-01      6.006054000000000E+01
5540000000.000000      2.517700000000000E-01     -1.414502000000000E+01      1.829910000000000E-01      9.171484000000000E+01
5560000000.000000      2.709503000000000E-01     -2.569433000000000E+01      2.658844000000000E-01      1.086992000000000E+02
5580000000.000000      2.833557000000000E-01     -3.555664000000000E+01      3.877258000000000E-01      1.082187000000000E+02
5600000000.000000      2.947693000000000E-01     -4.434766000000000E+01      5.082397000000000E-01      9.923828000000000E+01
5620000000.000000      3.048859000000000E-01     -5.339648000000000E+01      5.950012000000000E-01      8.654688000000000E+01
5640000000.000000      3.089294000000000E-01     -6.307812000000000E+01      6.467896000000000E-01      7.460546000000000E+01
5660000000.000000      2.987518000000000E-01     -7.385937000000000E+01      6.842346000000000E-01      6.342578000000000E+01
5680000000.000000      2.690582000000000E-01     -8.414454000000000E+01      6.972351000000000E-01      5.066211000000000E+01
5700000000.000000      2.221756000000000E-01     -9.140625000000000E+01      6.799316000000000E-01      3.832031000000000E+01
5720000000.000000      1.724625000000000E-01     -8.977343000000000E+01      6.403503000000000E-01      2.545117000000000E+01
5740000000.000000      1.521988000000000E-01     -7.531640000000000E+01      5.616455000000000E-01      1.254883000000000E+01
5760000000.000000      1.810455000000000E-01     -6.413671000000000E+01      4.444885000000000E-01      9.283447000000000E-01
5780000000.000000      2.263641000000000E-01     -6.568749000000000E+01      3.119812000000000E-01     -3.880981000000000E+00
5800000000.000000      2.575989000000000E-01     -7.366015000000000E+01      2.056732000000000E-01      7.888184000000000E+00
5820000000.000000      2.667084000000000E-01     -8.307032000000000E+01      1.909943000000000E-01      3.834570000000000E+01
5840000000.000000      2.570190000000000E-01     -9.139843000000000E+01      2.742767000000000E-01      5.407421000000000E+01
5860000000.000000      2.396164000000000E-01     -9.687500000000000E+01      3.746185000000000E-01      5.367188000000000E+01
5880000000.000000      2.256012000000000E-01     -9.980858000000000E+01      4.808807000000000E-01      4.826366000000000E+01
5900000000.000000      2.185898000000000E-01     -1.022227000000000E+02      5.964966000000000E-01      3.794531000000000E+01
5920000000.000000      2.113266000000000E-01     -1.051563000000000E+02      6.708069000000000E-01      2.401269000000000E+01
5940000000.000000      1.962585000000000E-01     -1.071172000000000E+02      7.000732000000000E-01      1.085547000000000E+01
5960000000.000000      1.782455000000000E-01     -1.053672000000000E+02      7.100525000000000E-01     -1.886902000000000E+00
5980000000.000000      1.660614000000000E-01     -9.748436000000000E+01      6.872864000000000E-01     -1.587158000000000E+01
6000000000.000000      1.823349000000000E-01     -8.832031000000000E+01      6.219177000000000E-01     -2.918457000000000E+01
6020000000.000000      2.172775000000000E-01     -8.686327000000000E+01      5.250549000000000E-01     -4.191992000000000E+01
6040000000.000000      2.526398000000000E-01     -9.221874000000000E+01      3.943481000000000E-01     -4.976563000000000E+01
6060000000.000000      2.759705000000000E-01     -1.013906000000000E+02      2.819214000000000E-01     -4.925195000000000E+01
6080000000.000000      2.862396000000000E-01     -1.113711000000000E+02      2.046051000000000E-01     -3.479687000000000E+01
