! Network Analyzer HP8722D
! Hewlett-Packard
! Data name: Linha & Wilkinson+CNT
! Saver's name: Rodrigo Anjos
! Comments: Teste da utilização de aquisição
continua pelo VNA HP8722D
! Time and date: 29/9/2025 14:00
!              Frequency                     S11                                                   S21                                                   S12                                                   S22
# HZ  S  MA R 50
3000000000.000000      4.246521000000000E-01     -5.559570000000000E+01      2.079391000000000E-01     -1.314922000000000E+02
3020000000.000000      4.491272000000000E-01     -7.006249000000000E+01      3.503265000000000E-01     -1.349844000000000E+02
3040000000.000000      4.538269000000000E-01     -8.297266000000000E+01      4.687805000000000E-01     -1.449922000000000E+02
3060000000.000000      4.445648000000000E-01     -9.500000000000000E+01      5.702209000000000E-01     -1.552813000000000E+02
3080000000.000000      4.291229000000000E-01     -1.062891000000000E+02      6.731873000000000E-01     -1.683750000000000E+02
3100000000.000000      4.088440000000000E-01     -1.175039000000000E+02      7.239990000000000E-01      1.767109000000000E+02
3120000000.000000      3.795624000000000E-01     -1.294922000000000E+02      7.323914000000000E-01      1.633437000000000E+02
3140000000.000000      3.391876000000000E-01     -1.424766000000000E+02      7.246094000000000E-01      1.505234000000000E+02
3160000000.000000      2.788544000000000E-01     -1.564609000000000E+02      6.832886000000000E-01      1.368984000000000E+02
3180000000.000000      1.992645000000000E-01     -1.690781000000000E+02      6.142883000000000E-01      1.244414000000000E+02
3200000000.000000      1.114540000000000E-01     -1.698516000000000E+02      5.191345000000000E-01      1.115625000000000E+02
3220000000.000000      8.003616000000000E-02     -1.240937000000000E+02      3.855896000000000E-01      1.010273000000000E+02
3240000000.000000      1.507492000000000E-01     -1.050156000000000E+02      2.461014000000000E-01      9.957031000000000E+01
3260000000.000000      2.301483000000000E-01     -1.151563000000000E+02      1.470261000000000E-01      1.253281000000000E+02
3280000000.000000      2.874756000000000E-01     -1.309766000000000E+02      2.035599000000000E-01      1.653281000000000E+02
3300000000.000000      3.205566000000000E-01     -1.472578000000000E+02      3.302155000000000E-01      1.695937000000000E+02
3320000000.000000      3.322449000000000E-01     -1.631484000000000E+02      4.628601000000000E-01      1.625156000000000E+02
3340000000.000000      3.287201000000000E-01     -1.785469000000000E+02      5.744629000000000E-01      1.505781000000000E+02
3360000000.000000      3.174896000000000E-01      1.667031000000000E+02      6.465759000000000E-01      1.383047000000000E+02
3380000000.000000      3.008575000000000E-01      1.524062000000000E+02      7.097473000000000E-01      1.269219000000000E+02
3400000000.000000      2.782593000000000E-01      1.377344000000000E+02      7.578430000000000E-01      1.130312000000000E+02
3420000000.000000      2.431641000000000E-01      1.226836000000000E+02      7.496948000000000E-01      9.839453000000000E+01
3440000000.000000      1.900253000000000E-01      1.080156000000000E+02      7.038879000000000E-01      8.542969000000000E+01
3460000000.000000      1.196671000000000E-01      9.717968000000000E+01      6.463623000000000E-01      7.246094000000000E+01
3480000000.000000      4.782486000000000E-02      1.217773000000000E+02      5.498047000000000E-01      5.887890000000000E+01
3500000000.000000      9.212112000000000E-02     -1.741562000000000E+02      4.253387000000000E-01      4.746289000000000E+01
3520000000.000000      1.843719000000000E-01      1.790859000000000E+02      2.786102000000000E-01      4.040625000000000E+01
3540000000.000000      2.637939000000000E-01      1.627812000000000E+02      1.472015000000000E-01      5.844140000000000E+01
3560000000.000000      3.230591000000000E-01      1.457891000000000E+02      1.669922000000000E-01      1.077422000000000E+02
3580000000.000000      3.596497000000000E-01      1.297891000000000E+02      2.943878000000000E-01      1.175391000000000E+02
3600000000.000000      3.762665000000000E-01      1.152422000000000E+02      4.195557000000000E-01      1.105820000000000E+02
3620000000.000000      3.790283000000000E-01      1.024570000000000E+02      5.219421000000000E-01      1.011601000000000E+02
3640000000.000000      3.683777000000000E-01      9.130077000000000E+01      6.213989000000000E-01      8.983593000000000E+01
3660000000.000000      3.520966000000000E-01      8.111719000000000E+01      6.927795000000000E-01      7.566015000000000E+01
3680000000.000000      3.294830000000000E-01      7.185156000000000E+01      7.116394000000000E-01      6.270702000000000E+01
3700000000.000000      2.988892000000000E-01      6.364062000000000E+01      7.207336000000000E-01      5.098437000000000E+01
3720000000.000000      2.546387000000000E-01      5.754687000000000E+01      7.225647000000000E-01      3.675586000000000E+01
3740000000.000000      2.045898000000000E-01      5.835742000000000E+01      6.623535000000000E-01      2.136914000000000E+01
3760000000.000000      1.775894000000000E-01      7.230469000000000E+01      5.660400000000000E-01      6.988525000000000E+00
3780000000.000000      2.117004000000000E-01      8.744532000000000E+01      4.362183000000000E-01     -6.126465000000000E+00
3800000000.000000      2.825623000000000E-01      8.901953000000000E+01      2.818146000000000E-01     -1.340479000000000E+01
3820000000.000000      3.500671000000000E-01      8.262110000000000E+01      1.532669000000000E-01     -4.133606000000000E-01
3840000000.000000      4.006195000000000E-01      7.387500000000000E+01      1.435165000000000E-01      4.775586000000000E+01
3860000000.000000      4.352570000000000E-01      6.535546000000000E+01      2.460403000000000E-01      6.526953000000000E+01
3880000000.000000      4.606323000000000E-01      5.780273000000000E+01      3.760986000000000E-01      6.115234000000000E+01
3900000000.000000      4.894409000000000E-01      5.074023000000000E+01      4.769135000000000E-01      4.767774000000000E+01
3920000000.000000      5.179443000000000E-01      4.289063000000000E+01      5.091553000000000E-01      3.587695000000000E+01
3940000000.000000      5.469971000000000E-01      3.394726000000000E+01      5.394287000000000E-01      2.952637000000000E+01
3960000000.000000      5.592957000000000E-01      2.393457000000000E+01      5.958557000000000E-01      2.003027000000000E+01
3980000000.000000      5.527649000000000E-01      1.346777000000000E+01      5.980835000000000E-01      8.290527000000000E+00
4000000000.000000      5.273743000000000E-01      3.047241000000000E+00      5.798035000000000E-01      1.127441000000000E+00
4020000000.000000      4.835510000000000E-01     -6.922852000000000E+00      5.970154000000000E-01     -6.503906000000000E+00
4040000000.000000      4.249115000000000E-01     -1.577783000000000E+01      5.855103000000000E-01     -1.885254000000000E+01
4060000000.000000      3.488922000000000E-01     -2.174805000000000E+01      5.275879000000000E-01     -2.892480000000000E+01
4080000000.000000      2.747345000000000E-01     -2.182031000000000E+01      4.693451000000000E-01     -3.831640000000000E+01
4100000000.000000      2.281876000000000E-01     -1.132178000000000E+01      3.671570000000000E-01     -4.758008000000000E+01
4120000000.000000      2.422409000000000E-01      1.807251000000000E+00      2.491302000000000E-01     -4.413671000000000E+01
4140000000.000000      2.893219000000000E-01      5.061768000000000E+00      2.030869000000000E-01     -2.002051000000000E+01
4160000000.000000      3.339844000000000E-01      9.063721000000000E-01      2.637024000000000E-01     -1.167297000000000E-01
4180000000.000000      3.618927000000000E-01     -5.979492000000000E+00      3.577576000000000E-01      3.846558000000000E+00
4200000000.000000      3.715515000000000E-01     -1.373584000000000E+01      4.875031000000000E-01      1.373291000000000E+00
4220000000.000000      3.670502000000000E-01     -2.089746000000000E+01      6.425476000000000E-01     -1.116504000000000E+01
4240000000.000000      3.474426000000000E-01     -2.839844000000000E+01      7.223511000000000E-01     -2.782519000000000E+01
4260000000.000000      3.090973000000000E-01     -3.420898000000000E+01      7.420044000000000E-01     -4.185937000000000E+01
4280000000.000000      2.595673000000000E-01     -3.546093000000000E+01      7.503052000000000E-01     -5.572266000000000E+01
4300000000.000000      2.223511000000000E-01     -2.721386000000000E+01      7.148132000000000E-01     -7.078515000000000E+01
4320000000.000000      2.358093000000000E-01     -1.457764000000000E+01      6.312866000000000E-01     -8.518358000000000E+01
4340000000.000000      2.936401000000000E-01     -1.061865000000000E+01      5.159607000000000E-01     -9.801170000000000E+01
4360000000.000000      3.587189000000000E-01     -1.567383000000000E+01      3.813019000000000E-01     -1.069102000000000E+02
4380000000.000000      4.054565000000000E-01     -2.467578000000000E+01      2.495346000000000E-01     -1.080156000000000E+02
4400000000.000000      4.262848000000000E-01     -3.467968000000000E+01      1.535568000000000E-01     -8.490625000000000E+01
4420000000.000000      4.251099000000000E-01     -4.399610000000000E+01      1.881409000000000E-01     -4.548828000000000E+01
4440000000.000000      4.087982000000000E-01     -5.208202000000000E+01      3.109741000000000E-01     -3.616211000000000E+01
4460000000.000000      3.862305000000000E-01     -5.868359000000000E+01      4.521942000000000E-01     -4.330664000000000E+01
4480000000.000000      3.670197000000000E-01     -6.467968000000000E+01      5.621338000000000E-01     -5.547852000000000E+01
4500000000.000000      3.463440000000000E-01     -7.171875000000000E+01      6.434937000000000E-01     -6.711328000000000E+01
4520000000.000000      3.131256000000000E-01     -7.940234000000000E+01      7.162170000000000E-01     -7.997265000000000E+01
4540000000.000000      2.620544000000000E-01     -8.560547000000000E+01      7.412720000000000E-01     -9.448437000000000E+01
4560000000.000000      2.013702000000000E-01     -8.380859000000000E+01      7.294312000000000E-01     -1.077969000000000E+02
4580000000.000000      1.743011000000000E-01     -6.782421000000000E+01      6.912537000000000E-01     -1.215039000000000E+02
4600000000.000000      2.121658000000000E-01     -5.394336000000000E+01      6.048279000000000E-01     -1.347109000000000E+02
4620000000.000000      2.772522000000000E-01     -5.530273000000000E+01      4.981842000000000E-01     -1.453125000000000E+02
4640000000.000000      3.308411000000000E-01     -6.521093000000000E+01      3.789215000000000E-01     -1.534531000000000E+02
4660000000.000000      3.546448000000000E-01     -7.838672000000000E+01      2.461166000000000E-01     -1.518125000000000E+02
4680000000.000000      3.461304000000000E-01     -9.245703000000000E+01      1.790543000000000E-01     -1.234844000000000E+02
4700000000.000000      3.088531000000000E-01     -1.056328000000000E+02      2.480621000000000E-01     -9.658592000000000E+01
4720000000.000000      2.533875000000000E-01     -1.162773000000000E+02      3.672943000000000E-01     -9.548828000000000E+01
4740000000.000000      1.908188000000000E-01     -1.215430000000000E+02      4.739838000000000E-01     -1.018633000000000E+02
4760000000.000000      1.386871000000000E-01     -1.175430000000000E+02      5.786133000000000E-01     -1.106562000000000E+02
4780000000.000000      1.121025000000000E-01     -1.015547000000000E+02      6.683960000000000E-01     -1.229258000000000E+02
4800000000.000000      1.181870000000000E-01     -8.376171000000000E+01      7.174988000000000E-01     -1.358281000000000E+02
4820000000.000000      1.470718000000000E-01     -7.410156000000000E+01      7.354126000000000E-01     -1.490469000000000E+02
4840000000.000000      1.882172000000000E-01     -7.399609000000000E+01      7.192078000000000E-01     -1.618515000000000E+02
4860000000.000000      2.313461000000000E-01     -8.048437000000000E+01      6.830750000000000E-01     -1.743203000000000E+02
4880000000.000000      2.682800000000000E-01     -9.084764000000000E+01      6.151123000000000E-01      1.719063000000000E+02
4900000000.000000      2.939453000000000E-01     -1.043633000000000E+02      4.940033000000000E-01      1.597422000000000E+02
4920000000.000000      2.996826000000000E-01     -1.193672000000000E+02      3.645935000000000E-01      1.533984000000000E+02
4940000000.000000      2.851868000000000E-01     -1.350469000000000E+02      2.514954000000000E-01      1.560156000000000E+02
4960000000.000000      2.545929000000000E-01     -1.503594000000000E+02      1.769180000000000E-01      1.773281000000000E+02
4980000000.000000      2.121048000000000E-01     -1.644375000000000E+02      2.148056000000000E-01     -1.510078000000000E+02
5000000000.000000      1.681671000000000E-01     -1.761016000000000E+02      3.303833000000000E-01     -1.436563000000000E+02
5020000000.000000      1.303940000000000E-01      1.738750000000000E+02      4.614258000000000E-01     -1.496562000000000E+02
5040000000.000000      9.987259000000000E-02      1.636719000000000E+02      5.677185000000000E-01     -1.604219000000000E+02
5060000000.000000      7.186890000000000E-02      1.487422000000000E+02      6.505432000000000E-01     -1.718516000000000E+02
5080000000.000000      4.146194000000000E-02      1.228477000000000E+02      7.183533000000000E-01      1.759453000000000E+02
5100000000.000000      1.674843000000000E-02      4.086914000000000E+01      7.577209000000000E-01      1.621328000000000E+02
5120000000.000000      4.118538000000000E-02     -5.097265000000000E+01      7.519226000000000E-01      1.477656000000000E+02
5140000000.000000      7.256317000000000E-02     -8.809765000000000E+01      7.034607000000000E-01      1.341953000000000E+02
5160000000.000000      9.621811000000000E-02     -1.188281000000000E+02      6.293030000000000E-01      1.221836000000000E+02
5180000000.000000      1.092072000000000E-01     -1.495156000000000E+02      5.327148000000000E-01      1.105742000000000E+02
5200000000.000000      1.117973000000000E-01      1.775859000000000E+02      4.157715000000000E-01      1.010625000000000E+02
5220000000.000000      1.096878000000000E-01      1.416641000000000E+02      2.826843000000000E-01      9.823046000000000E+01
5240000000.000000      1.088715000000000E-01      1.055039000000000E+02      1.837540000000000E-01      1.154492000000000E+02
5260000000.000000      1.137581000000000E-01      7.228906000000000E+01      1.967545000000000E-01      1.495469000000000E+02
5280000000.000000      1.209564000000000E-01      4.590625000000000E+01      2.965240000000000E-01      1.605859000000000E+02
5300000000.000000      1.275482000000000E-01      2.506250000000000E+01      4.104767000000000E-01      1.580391000000000E+02
5320000000.000000      1.332245000000000E-01      8.518066000000000E+00      5.275879000000000E-01      1.504375000000000E+02
5340000000.000000      1.391296000000000E-01     -5.850342000000000E+00      6.385803000000000E-01      1.384297000000000E+02
5360000000.000000      1.432800000000000E-01     -2.136523000000000E+01      7.055359000000000E-01      1.239297000000000E+02
5380000000.000000      1.387329000000000E-01     -3.880078000000000E+01      7.181091000000000E-01      1.105898000000000E+02
5400000000.000000      1.195717000000000E-01     -5.684960000000000E+01      7.186890000000000E-01      9.892578000000000E+01
5420000000.000000      8.430862000000000E-02     -7.349218000000000E+01      7.052612000000000E-01      8.584375000000000E+01
5440000000.000000      3.016281000000000E-02     -7.676562000000000E+01      6.477356000000000E-01      7.159765000000000E+01
5460000000.000000      4.358864000000000E-02      3.884570000000000E+01      5.395203000000000E-01      5.844727000000000E+01
5480000000.000000      1.134033000000000E-01      3.096484000000000E+01      4.132080000000000E-01      4.926367000000000E+01
5500000000.000000      1.758652000000000E-01      1.548926000000000E+01      2.923737000000000E-01      4.725390000000000E+01
5520000000.000000      2.216873000000000E-01      5.355835000000000E-01      1.949463000000000E-01      5.919922000000000E+01
5540000000.000000      2.519531000000000E-01     -1.318506000000000E+01      1.810532000000000E-01      9.107031000000000E+01
5560000000.000000      2.704010000000000E-01     -2.511133000000000E+01      2.629089000000000E-01      1.087187000000000E+02
5580000000.000000      2.830353000000000E-01     -3.498632000000000E+01      3.847656000000000E-01      1.084492000000000E+02
5600000000.000000      2.937469000000000E-01     -4.388672000000000E+01      5.070190000000000E-01      9.961327000000000E+01
5620000000.000000      3.041687000000000E-01     -5.303711000000000E+01      5.949402000000000E-01      8.687109000000000E+01
5640000000.000000      3.081970000000000E-01     -6.275976000000000E+01      6.467590000000000E-01      7.530468000000000E+01
5660000000.000000      2.979279000000000E-01     -7.349218000000000E+01      6.866760000000000E-01      6.369726000000000E+01
5680000000.000000      2.685394000000000E-01     -8.364843000000000E+01      6.993103000000000E-01      5.107226000000000E+01
5700000000.000000      2.209930000000000E-01     -9.121485000000000E+01      6.846924000000000E-01      3.864258000000000E+01
5720000000.000000      1.710510000000000E-01     -8.980469000000000E+01      6.430969000000000E-01      2.597656000000000E+01
5740000000.000000      1.500626000000000E-01     -7.535156000000000E+01      5.655823000000000E-01      1.270947000000000E+01
5760000000.000000      1.786423000000000E-01     -6.371288000000000E+01      4.512939000000000E-01      1.061523000000000E+00
5780000000.000000      2.251129000000000E-01     -6.522265000000000E+01      3.160400000000000E-01     -3.894653000000000E+00
5800000000.000000      2.569580000000000E-01     -7.314062000000000E+01      2.078094000000000E-01      7.163086000000000E+00
5820000000.000000      2.663574000000000E-01     -8.252344000000000E+01      1.897736000000000E-01      3.755273000000000E+01
5840000000.000000      2.569122000000000E-01     -9.097656000000000E+01      2.712860000000000E-01      5.394921000000000E+01
5860000000.000000      2.388535000000000E-01     -9.657030000000000E+01      3.722534000000000E-01      5.409180000000000E+01
5880000000.000000      2.244949000000000E-01     -9.981249000000000E+01      4.788666000000000E-01      4.863476000000000E+01
5900000000.000000      2.171707000000000E-01     -1.021953000000000E+02      5.962524000000000E-01      3.837305000000000E+01
5920000000.000000      2.084961000000000E-01     -1.050273000000000E+02      6.717834000000000E-01      2.440820000000000E+01
5940000000.000000      1.948166000000000E-01     -1.070586000000000E+02      7.031860000000000E-01      1.116455000000000E+01
5960000000.000000      1.773224000000000E-01     -1.051914000000000E+02      7.129517000000000E-01     -1.472168000000000E+00
5980000000.000000      1.651688000000000E-01     -9.756248000000000E+01      6.920471000000000E-01     -1.553906000000000E+01
6000000000.000000      1.813431000000000E-01     -8.838282000000000E+01      6.277466000000000E-01     -2.906445000000000E+01
6020000000.000000      2.159958000000000E-01     -8.648046000000000E+01      5.281372000000000E-01     -4.169922000000000E+01
6040000000.000000      2.517700000000000E-01     -9.185547000000000E+01      3.988953000000000E-01     -4.987305000000000E+01
6060000000.000000      2.757568000000000E-01     -1.009883000000000E+02      2.854462000000000E-01     -4.958984000000000E+01
6080000000.000000      2.850647000000000E-01     -1.111328000000000E+02      2.051926000000000E-01     -3.580469000000000E+01
