! Network Analyzer HP8722D
! Hewlett-Packard
! Data name: Linha & Wilkinson+CNT
! Saver's name: Rodrigo Anjos
! Comments: Teste da utilização de aquisição
continua pelo VNA HP8722D
! Time and date: 29/9/2025 15:30
!              Frequency                     S11                                                   S21                                                   S12                                                   S22
# HZ  S  MA R 50
3000000000.000000      4.261475000000000E-01     -5.567383000000000E+01      2.092209000000000E-01     -1.316484000000000E+02
3020000000.000000      4.494171000000000E-01     -7.008594000000000E+01      3.515625000000000E-01     -1.350703000000000E+02
3040000000.000000      4.527130000000000E-01     -8.273438000000000E+01      4.688721000000000E-01     -1.449609000000000E+02
3060000000.000000      4.443970000000000E-01     -9.503906000000000E+01      5.739136000000000E-01     -1.553203000000000E+02
3080000000.000000      4.292297000000000E-01     -1.062383000000000E+02      6.738281000000000E-01     -1.685000000000000E+02
3100000000.000000      4.091339000000000E-01     -1.173867000000000E+02      7.254639000000000E-01      1.767187000000000E+02
3120000000.000000      3.797150000000000E-01     -1.294688000000000E+02      7.330017000000000E-01      1.633047000000000E+02
3140000000.000000      3.379059000000000E-01     -1.425000000000000E+02      7.240295000000000E-01      1.504062000000000E+02
3160000000.000000      2.775879000000000E-01     -1.564531000000000E+02      6.824646000000000E-01      1.367578000000000E+02
3180000000.000000      1.985703000000000E-01     -1.691250000000000E+02      6.125183000000000E-01      1.243594000000000E+02
3200000000.000000      1.105881000000000E-01     -1.695078000000000E+02      5.181274000000000E-01      1.113633000000000E+02
3220000000.000000      8.006668000000000E-02     -1.235976000000000E+02      3.846741000000000E-01      1.009648000000000E+02
3240000000.000000      1.513748000000000E-01     -1.048203000000000E+02      2.455673000000000E-01      9.974609000000000E+01
3260000000.000000      2.308960000000000E-01     -1.152851000000000E+02      1.466827000000000E-01      1.261172000000000E+02
3280000000.000000      2.879944000000000E-01     -1.310313000000000E+02      2.048264000000000E-01      1.655937000000000E+02
3300000000.000000      3.204956000000000E-01     -1.473672000000000E+02      3.314514000000000E-01      1.695156000000000E+02
3320000000.000000      3.318481000000000E-01     -1.631328000000000E+02      4.643250000000000E-01      1.625078000000000E+02
3340000000.000000      3.282318000000000E-01     -1.786016000000000E+02      5.747986000000000E-01      1.504688000000000E+02
3360000000.000000      3.164368000000000E-01      1.666953000000000E+02      6.478882000000000E-01      1.382266000000000E+02
3380000000.000000      2.999725000000000E-01      1.523047000000000E+02      7.101440000000000E-01      1.269687000000000E+02
3400000000.000000      2.777863000000000E-01      1.376641000000000E+02      7.567749000000000E-01      1.131055000000000E+02
3420000000.000000      2.428741000000000E-01      1.226641000000000E+02      7.493286000000000E-01      9.822655000000000E+01
3440000000.000000      1.894073000000000E-01      1.079648000000000E+02      7.050781000000000E-01      8.554296000000000E+01
3460000000.000000      1.187706000000000E-01      9.743750000000000E+01      6.443481000000000E-01      7.230469000000000E+01
3480000000.000000      4.699326000000000E-02      1.222969000000000E+02      5.474854000000000E-01      5.883594000000000E+01
3500000000.000000      9.365845000000000E-02     -1.741172000000000E+02      4.238281000000000E-01      4.758203000000000E+01
3520000000.000000      1.848221000000000E-01      1.787734000000000E+02      2.766571000000000E-01      4.056641000000000E+01
3540000000.000000      2.640839000000000E-01      1.626719000000000E+02      1.468048000000000E-01      5.889062000000000E+01
3560000000.000000      3.235474000000000E-01      1.456016000000000E+02      1.683502000000000E-01      1.081758000000000E+02
3580000000.000000      3.600311000000000E-01      1.296406000000000E+02      2.959442000000000E-01      1.175352000000000E+02
3600000000.000000      3.758240000000000E-01      1.151406000000000E+02      4.208679000000000E-01      1.105586000000000E+02
3620000000.000000      3.776093000000000E-01      1.024297000000000E+02      5.212402000000000E-01      1.009727000000000E+02
3640000000.000000      3.683319000000000E-01      9.133984000000000E+01      6.227112000000000E-01      8.990234000000000E+01
3660000000.000000      3.522644000000000E-01      8.100780000000000E+01      6.924744000000000E-01      7.564453000000000E+01
3680000000.000000      3.294678000000000E-01      7.188671000000000E+01      7.122803000000000E-01      6.248437000000000E+01
3700000000.000000      2.985382000000000E-01      6.363281000000000E+01      7.215881000000000E-01      5.091601000000000E+01
3720000000.000000      2.546539000000000E-01      5.757813000000000E+01      7.232971000000000E-01      3.662304000000000E+01
3740000000.000000      2.042007000000000E-01      5.858203000000000E+01      6.625366000000000E-01      2.127832000000000E+01
3760000000.000000      1.780853000000000E-01      7.265625000000000E+01      5.655212000000000E-01      6.998291000000000E+00
3780000000.000000      2.124863000000000E-01      8.759375000000000E+01      4.325714000000000E-01     -6.175781000000000E+00
3800000000.000000      2.834167000000000E-01      8.905468000000000E+01      2.800598000000000E-01     -1.349707000000000E+01
3820000000.000000      3.506012000000000E-01      8.260937000000000E+01      1.524506000000000E-01      1.922607000000000E-01
3840000000.000000      4.008331000000000E-01      7.387500000000000E+01      1.444778000000000E-01      4.831055000000000E+01
3860000000.000000      4.358826000000000E-01      6.525781000000000E+01      2.478256000000000E-01      6.524219000000000E+01
3880000000.000000      4.609680000000000E-01      5.769921000000000E+01      3.775482000000000E-01      6.096680000000000E+01
3900000000.000000      4.900055000000000E-01      5.073242000000000E+01      4.786377000000000E-01      4.750586000000000E+01
3920000000.000000      5.210876000000000E-01      4.294531000000000E+01      5.095825000000000E-01      3.572656000000000E+01
3940000000.000000      5.488586000000000E-01      3.395312000000000E+01      5.395508000000000E-01      2.941113000000000E+01
3960000000.000000      5.586853000000000E-01      2.400097000000000E+01      5.954590000000000E-01      1.988770000000000E+01
3980000000.000000      5.535278000000000E-01      1.345508000000000E+01      5.971985000000000E-01      8.000488000000000E+00
4000000000.000000      5.265198000000000E-01      3.155762000000000E+00      5.800171000000000E-01      1.109619000000000E+00
4020000000.000000      4.831543000000000E-01     -6.895508000000000E+00      5.977783000000000E-01     -6.653809000000000E+00
4040000000.000000      4.242859000000000E-01     -1.572705000000000E+01      5.847778000000000E-01     -1.892285000000000E+01
4060000000.000000      3.487091000000000E-01     -2.174219000000000E+01      5.268555000000000E-01     -2.909180000000000E+01
4080000000.000000      2.737427000000000E-01     -2.164649000000000E+01      4.682159000000000E-01     -3.836719000000000E+01
4100000000.000000      2.282257000000000E-01     -1.108545000000000E+01      3.664093000000000E-01     -4.754492000000000E+01
4120000000.000000      2.425842000000000E-01      2.096924000000000E+00      2.484283000000000E-01     -4.386328000000000E+01
4140000000.000000      2.911682000000000E-01      5.243164000000000E+00      2.037811000000000E-01     -1.947266000000000E+01
4160000000.000000      3.337708000000000E-01      9.118652000000000E-01      2.652588000000000E-01     -1.455688000000000E-01
4180000000.000000      3.619690000000000E-01     -5.958740000000000E+00      3.589935000000000E-01      3.803955000000000E+00
4200000000.000000      3.715210000000000E-01     -1.366699000000000E+01      4.897766000000000E-01      1.332092000000000E+00
4220000000.000000      3.674774000000000E-01     -2.091797000000000E+01      6.423035000000000E-01     -1.122949000000000E+01
4240000000.000000      3.476868000000000E-01     -2.836816000000000E+01      7.219543000000000E-01     -2.794726000000000E+01
4260000000.000000      3.092041000000000E-01     -3.402344000000000E+01      7.412720000000000E-01     -4.204492000000000E+01
4280000000.000000      2.591248000000000E-01     -3.527734000000000E+01      7.525024000000000E-01     -5.599609000000000E+01
4300000000.000000      2.220993000000000E-01     -2.709570000000000E+01      7.131348000000000E-01     -7.092968000000000E+01
4320000000.000000      2.361679000000000E-01     -1.430420000000000E+01      6.301575000000000E-01     -8.536718000000000E+01
4340000000.000000      2.945862000000000E-01     -1.046875000000000E+01      5.141907000000000E-01     -9.802734000000000E+01
4360000000.000000      3.592682000000000E-01     -1.570508000000000E+01      3.790588000000000E-01     -1.068633000000000E+02
4380000000.000000      4.057007000000000E-01     -2.464550000000000E+01      2.483826000000000E-01     -1.079023000000000E+02
4400000000.000000      4.266205000000000E-01     -3.463867000000000E+01      1.532288000000000E-01     -8.448437000000000E+01
4420000000.000000      4.247284000000000E-01     -4.405469000000000E+01      1.892319000000000E-01     -4.525976000000000E+01
4440000000.000000      4.081116000000000E-01     -5.191211000000000E+01      3.126221000000000E-01     -3.624218000000000E+01
4460000000.000000      3.850861000000000E-01     -5.841015000000000E+01      4.539795000000000E-01     -4.331836000000000E+01
4480000000.000000      3.673248000000000E-01     -6.489062000000000E+01      5.628052000000000E-01     -5.558007000000000E+01
4500000000.000000      3.459778000000000E-01     -7.158593000000000E+01      6.431885000000000E-01     -6.694530000000000E+01
4520000000.000000      3.129730000000000E-01     -7.944530000000000E+01      7.164917000000000E-01     -8.005077000000000E+01
4540000000.000000      2.613220000000000E-01     -8.551952000000000E+01      7.425537000000000E-01     -9.460938000000000E+01
4560000000.000000      2.003250000000000E-01     -8.378515000000000E+01      7.276611000000000E-01     -1.079180000000000E+02
4580000000.000000      1.743164000000000E-01     -6.751562000000000E+01      6.903381000000000E-01     -1.215547000000000E+02
4600000000.000000      2.124176000000000E-01     -5.373437000000000E+01      6.049194000000000E-01     -1.348516000000000E+02
4620000000.000000      2.776184000000000E-01     -5.532031000000000E+01      4.967499000000000E-01     -1.451562000000000E+02
4640000000.000000      3.311462000000000E-01     -6.525391000000000E+01      3.770752000000000E-01     -1.535312000000000E+02
4660000000.000000      3.542786000000000E-01     -7.848437000000000E+01      2.451706000000000E-01     -1.514922000000000E+02
4680000000.000000      3.456879000000000E-01     -9.248827000000000E+01      1.793747000000000E-01     -1.229688000000000E+02
4700000000.000000      3.081055000000000E-01     -1.057265000000000E+02      2.498627000000000E-01     -9.644140000000000E+01
4720000000.000000      2.523193000000000E-01     -1.162617000000000E+02      3.690033000000000E-01     -9.549608000000000E+01
4740000000.000000      1.900558000000000E-01     -1.213711000000000E+02      4.755402000000000E-01     -1.019765000000000E+02
4760000000.000000      1.381454000000000E-01     -1.173750000000000E+02      5.798950000000000E-01     -1.107148000000000E+02
4780000000.000000      1.117630000000000E-01     -1.015273000000000E+02      6.674194000000000E-01     -1.230820000000000E+02
4800000000.000000      1.177902000000000E-01     -8.371874000000000E+01      7.156067000000000E-01     -1.359141000000000E+02
4820000000.000000      1.470413000000000E-01     -7.407421000000000E+01      7.356567000000000E-01     -1.490937000000000E+02
4840000000.000000      1.872940000000000E-01     -7.356640000000000E+01      7.172241000000000E-01     -1.619531000000000E+02
4860000000.000000      2.319260000000000E-01     -8.036718000000000E+01      6.821289000000000E-01     -1.743672000000000E+02
4880000000.000000      2.687836000000000E-01     -9.082422000000000E+01      6.148071000000000E-01      1.717266000000000E+02
4900000000.000000      2.941895000000000E-01     -1.043555000000000E+02      4.950256000000000E-01      1.596797000000000E+02
4920000000.000000      2.993011000000000E-01     -1.194648000000000E+02      3.637238000000000E-01      1.534688000000000E+02
4940000000.000000      2.842407000000000E-01     -1.351250000000000E+02      2.500916000000000E-01      1.561250000000000E+02
4960000000.000000      2.538147000000000E-01     -1.502656000000000E+02      1.766586000000000E-01      1.780234000000000E+02
4980000000.000000      2.117310000000000E-01     -1.644609000000000E+02      2.161560000000000E-01     -1.510234000000000E+02
5000000000.000000      1.674042000000000E-01     -1.762812000000000E+02      3.318176000000000E-01     -1.436641000000000E+02
5020000000.000000      1.301193000000000E-01      1.738750000000000E+02      4.629822000000000E-01     -1.498047000000000E+02
5040000000.000000      9.972763000000000E-02      1.633906000000000E+02      5.713806000000000E-01     -1.607031000000000E+02
5060000000.000000      7.121658000000000E-02      1.485469000000000E+02      6.525574000000000E-01     -1.720937000000000E+02
5080000000.000000      4.097557000000000E-02      1.220937000000000E+02      7.178040000000000E-01      1.758203000000000E+02
5100000000.000000      1.664639000000000E-02      3.984375000000000E+01      7.572021000000000E-01      1.619375000000000E+02
5120000000.000000      4.159737000000000E-02     -5.177148000000000E+01      7.525330000000000E-01      1.476406000000000E+02
5140000000.000000      7.338333000000000E-02     -8.821484000000000E+01      7.030029000000000E-01      1.340547000000000E+02
5160000000.000000      9.617996000000000E-02     -1.192109000000000E+02      6.262512000000000E-01      1.218359000000000E+02
5180000000.000000      1.097641000000000E-01     -1.501172000000000E+02      5.305176000000000E-01      1.106367000000000E+02
5200000000.000000      1.125832000000000E-01      1.772891000000000E+02      4.136963000000000E-01      1.010195000000000E+02
5220000000.000000      1.096916000000000E-01      1.413672000000000E+02      2.811890000000000E-01      9.849998000000000E+01
5240000000.000000      1.086273000000000E-01      1.053945000000000E+02      1.831436000000000E-01      1.158789000000000E+02
5260000000.000000      1.133347000000000E-01      7.177343000000000E+01      1.981506000000000E-01      1.498750000000000E+02
5280000000.000000      1.205978000000000E-01      4.556836000000000E+01      2.986298000000000E-01      1.606016000000000E+02
5300000000.000000      1.278152000000000E-01      2.478222000000000E+01      4.118195000000000E-01      1.579687000000000E+02
5320000000.000000      1.332169000000000E-01      8.395996000000000E+00      5.287170000000000E-01      1.503984000000000E+02
5340000000.000000      1.394196000000000E-01     -6.008301000000000E+00      6.387024000000000E-01      1.382500000000000E+02
5360000000.000000      1.431351000000000E-01     -2.163086000000000E+01      7.057495000000000E-01      1.240391000000000E+02
5380000000.000000      1.384583000000000E-01     -3.924609000000000E+01      7.179565000000000E-01      1.104726000000000E+02
5400000000.000000      1.193848000000000E-01     -5.748632000000000E+01      7.169495000000000E-01      9.882421000000000E+01
5420000000.000000      8.390808000000000E-02     -7.409374000000000E+01      7.040100000000000E-01      8.582031000000000E+01
5440000000.000000      2.945232000000000E-02     -7.760937000000000E+01      6.460876000000000E-01      7.141796000000000E+01
5460000000.000000      4.403305000000000E-02      3.929688000000000E+01      5.379028000000000E-01      5.828515000000000E+01
5480000000.000000      1.138344000000000E-01      3.057617000000000E+01      4.104156000000000E-01      4.942187000000000E+01
5500000000.000000      1.764221000000000E-01      1.549463000000000E+01      2.906952000000000E-01      4.746289000000000E+01
5520000000.000000      2.216034000000000E-01      3.556824000000000E-01      1.941528000000000E-01      5.962500000000000E+01
5540000000.000000      2.521057000000000E-01     -1.327734000000000E+01      1.820297000000000E-01      9.123438000000000E+01
5560000000.000000      2.710724000000000E-01     -2.515234000000000E+01      2.646332000000000E-01      1.087891000000000E+02
5580000000.000000      2.825928000000000E-01     -3.517578000000000E+01      3.867645000000000E-01      1.084375000000000E+02
5600000000.000000      2.937469000000000E-01     -4.401172000000000E+01      5.083313000000000E-01      9.952734000000000E+01
5620000000.000000      3.048401000000000E-01     -5.315039000000000E+01      5.954895000000000E-01      8.683203000000000E+01
5640000000.000000      3.074646000000000E-01     -6.287499000000000E+01      6.476135000000000E-01      7.501171000000000E+01
5660000000.000000      2.978516000000000E-01     -7.356640000000000E+01      6.864319000000000E-01      6.370507000000000E+01
5680000000.000000      2.676544000000000E-01     -8.385546000000000E+01      6.976929000000000E-01      5.086328000000000E+01
5700000000.000000      2.201004000000000E-01     -9.108202000000000E+01      6.835022000000000E-01      3.859766000000000E+01
5720000000.000000      1.697617000000000E-01     -8.958593000000000E+01      6.413574000000000E-01      2.577441000000000E+01
5740000000.000000      1.499786000000000E-01     -7.513281000000000E+01      5.635071000000000E-01      1.263672000000000E+01
5760000000.000000      1.790619000000000E-01     -6.362499000000000E+01      4.489441000000000E-01      1.069763000000000E+00
5780000000.000000      2.252655000000000E-01     -6.531250000000000E+01      3.142700000000000E-01     -3.883667000000000E+00
5800000000.000000      2.571259000000000E-01     -7.327734000000000E+01      2.070389000000000E-01      7.460938000000000E+00
5820000000.000000      2.669983000000000E-01     -8.271093000000000E+01      1.905823000000000E-01      3.801172000000000E+01
5840000000.000000      2.570038000000000E-01     -9.111328000000000E+01      2.731171000000000E-01      5.413476000000000E+01
5860000000.000000      2.389450000000000E-01     -9.666405000000000E+01      3.743286000000000E-01      5.398828000000000E+01
5880000000.000000      2.245255000000000E-01     -9.983984000000000E+01      4.807434000000000E-01      4.850195000000000E+01
5900000000.000000      2.154465000000000E-01     -1.022148000000000E+02      5.970764000000000E-01      3.823047000000000E+01
5920000000.000000      2.077637000000000E-01     -1.049766000000000E+02      6.727295000000000E-01      2.432031000000000E+01
5940000000.000000      1.942215000000000E-01     -1.069492000000000E+02      7.020874000000000E-01      1.097119000000000E+01
5960000000.000000      1.770554000000000E-01     -1.050664000000000E+02      7.122803000000000E-01     -1.831970000000000E+00
5980000000.000000      1.658325000000000E-01     -9.732811000000000E+01      6.919250000000000E-01     -1.558838000000000E+01
6000000000.000000      1.818085000000000E-01     -8.810156000000000E+01      6.266479000000000E-01     -2.930957000000000E+01
6020000000.000000      2.167969000000000E-01     -8.664843000000000E+01      5.269775000000000E-01     -4.173242000000000E+01
6040000000.000000      2.518616000000000E-01     -9.183203000000000E+01      3.970795000000000E-01     -4.978710000000000E+01
6060000000.000000      2.756653000000000E-01     -1.008398000000000E+02      2.836761000000000E-01     -4.954883000000000E+01
6080000000.000000      2.852020000000000E-01     -1.110039000000000E+02      2.053070000000000E-01     -3.534765000000000E+01
