! Network Analyzer HP8722D
! Hewlett-Packard
! Data name: Linha & Wilkinson+CNT
! Saver's name: Rodrigo Anjos
! Comments: Teste da utilização de aquisição
continua pelo VNA HP8722D
! Time and date: 29/9/2025 14:44
!              Frequency                     S11                                                   S21                                                   S12                                                   S22
# HZ  S  MA R 50
3000000000.000000      4.249115000000000E-01     -5.569921000000000E+01      2.081604000000000E-01     -1.315625000000000E+02
3020000000.000000      4.481201000000000E-01     -7.012890000000000E+01      3.514709000000000E-01     -1.350703000000000E+02
3040000000.000000      4.536743000000000E-01     -8.273829000000000E+01      4.689789000000000E-01     -1.450000000000000E+02
3060000000.000000      4.445038000000000E-01     -9.500780000000000E+01      5.724182000000000E-01     -1.552891000000000E+02
3080000000.000000      4.291382000000000E-01     -1.062969000000000E+02      6.739807000000000E-01     -1.683750000000000E+02
3100000000.000000      4.087982000000000E-01     -1.174258000000000E+02      7.237244000000000E-01      1.767422000000000E+02
3120000000.000000      3.791962000000000E-01     -1.294297000000000E+02      7.314453000000000E-01      1.632500000000000E+02
3140000000.000000      3.381500000000000E-01     -1.424922000000000E+02      7.233582000000000E-01      1.504375000000000E+02
3160000000.000000      2.779083000000000E-01     -1.564375000000000E+02      6.830444000000000E-01      1.370312000000000E+02
3180000000.000000      1.986694000000000E-01     -1.691406000000000E+02      6.127014000000000E-01      1.243711000000000E+02
3200000000.000000      1.110115000000000E-01     -1.693828000000000E+02      5.193787000000000E-01      1.114844000000000E+02
3220000000.000000      7.961655000000000E-02     -1.239336000000000E+02      3.849030000000000E-01      1.008437000000000E+02
3240000000.000000      1.507721000000000E-01     -1.047734000000000E+02      2.459641000000000E-01      9.958984000000000E+01
3260000000.000000      2.303238000000000E-01     -1.152305000000000E+02      1.469269000000000E-01      1.258164000000000E+02
3280000000.000000      2.878723000000000E-01     -1.309375000000000E+02      2.042542000000000E-01      1.653516000000000E+02
3300000000.000000      3.203430000000000E-01     -1.472812000000000E+02      3.308563000000000E-01      1.695234000000000E+02
3320000000.000000      3.320465000000000E-01     -1.631328000000000E+02      4.639435000000000E-01      1.625703000000000E+02
3340000000.000000      3.282928000000000E-01     -1.785391000000000E+02      5.752869000000000E-01      1.504141000000000E+02
3360000000.000000      3.166046000000000E-01      1.666719000000000E+02      6.470337000000000E-01      1.382969000000000E+02
3380000000.000000      2.999878000000000E-01      1.523281000000000E+02      7.092285000000000E-01      1.269883000000000E+02
3400000000.000000      2.780304000000000E-01      1.377500000000000E+02      7.568054000000000E-01      1.131953000000000E+02
3420000000.000000      2.428207000000000E-01      1.226523000000000E+02      7.487488000000000E-01      9.835546000000000E+01
3440000000.000000      1.897125000000000E-01      1.079531000000000E+02      7.045593000000000E-01      8.559765000000000E+01
3460000000.000000      1.192474000000000E-01      9.727734000000000E+01      6.454468000000000E-01      7.238281000000000E+01
3480000000.000000      4.799652000000000E-02      1.222031000000000E+02      5.490417000000000E-01      5.883984000000000E+01
3500000000.000000      9.262085000000000E-02     -1.741641000000000E+02      4.233704000000000E-01      4.743554000000000E+01
3520000000.000000      1.846848000000000E-01      1.789766000000000E+02      2.777252000000000E-01      4.045312000000000E+01
3540000000.000000      2.635345000000000E-01      1.627031000000000E+02      1.470490000000000E-01      5.856835000000000E+01
3560000000.000000      3.229828000000000E-01      1.457344000000000E+02      1.674652000000000E-01      1.077734000000000E+02
3580000000.000000      3.594971000000000E-01      1.297031000000000E+02      2.952728000000000E-01      1.175312000000000E+02
3600000000.000000      3.759308000000000E-01      1.151641000000000E+02      4.202271000000000E-01      1.105703000000000E+02
3620000000.000000      3.775940000000000E-01      1.025312000000000E+02      5.216370000000000E-01      1.010820000000000E+02
3640000000.000000      3.692474000000000E-01      9.134375000000000E+01      6.224976000000000E-01      8.994921000000000E+01
3660000000.000000      3.519287000000000E-01      8.103907000000000E+01      6.933899000000000E-01      7.561718000000000E+01
3680000000.000000      3.295593000000000E-01      7.187500000000000E+01      7.112427000000000E-01      6.266602000000000E+01
3700000000.000000      2.987366000000000E-01      6.361914000000000E+01      7.210083000000000E-01      5.090234000000000E+01
3720000000.000000      2.546387000000000E-01      5.757813000000000E+01      7.240295000000000E-01      3.662109000000000E+01
3740000000.000000      2.038193000000000E-01      5.848046000000000E+01      6.634216000000000E-01      2.129883000000000E+01
3760000000.000000      1.775970000000000E-01      7.244531000000000E+01      5.651855000000000E-01      7.036621000000000E+00
3780000000.000000      2.120285000000000E-01      8.749218000000000E+01      4.340820000000000E-01     -6.337891000000000E+00
3800000000.000000      2.828522000000000E-01      8.910936000000000E+01      2.807770000000000E-01     -1.345557000000000E+01
3820000000.000000      3.502197000000000E-01      8.259375000000000E+01      1.532516000000000E-01     -1.263428000000000E-01
3840000000.000000      4.005432000000000E-01      7.383594000000000E+01      1.435776000000000E-01      4.818945000000000E+01
3860000000.000000      4.353790000000000E-01      6.526172000000000E+01      2.467117000000000E-01      6.554296000000000E+01
3880000000.000000      4.615479000000000E-01      5.771289000000000E+01      3.766174000000000E-01      6.107616000000000E+01
3900000000.000000      4.900970000000000E-01      5.073632000000000E+01      4.772186000000000E-01      4.768164000000000E+01
3920000000.000000      5.199585000000000E-01      4.323242000000000E+01      5.093079000000000E-01      3.585351000000000E+01
3940000000.000000      5.480042000000000E-01      3.418359000000000E+01      5.393066000000000E-01      2.944043000000000E+01
3960000000.000000      5.585632000000000E-01      2.395117000000000E+01      5.956116000000000E-01      2.008789000000000E+01
3980000000.000000      5.524597000000000E-01      1.338818000000000E+01      5.970764000000000E-01      8.114746000000000E+00
4000000000.000000      5.261230000000000E-01      3.034912000000000E+00      5.797424000000000E-01      1.127441000000000E+00
4020000000.000000      4.837036000000000E-01     -6.884521000000000E+00      5.976868000000000E-01     -6.637207000000000E+00
4040000000.000000      4.246216000000000E-01     -1.577783000000000E+01      5.851746000000000E-01     -1.885840000000000E+01
4060000000.000000      3.488159000000000E-01     -2.173047000000000E+01      5.270996000000000E-01     -2.886035000000000E+01
4080000000.000000      2.745514000000000E-01     -2.172363000000000E+01      4.688721000000000E-01     -3.830469000000000E+01
4100000000.000000      2.284470000000000E-01     -1.111719000000000E+01      3.667755000000000E-01     -4.753125000000000E+01
4120000000.000000      2.422485000000000E-01      1.877258000000000E+00      2.489243000000000E-01     -4.406446000000000E+01
4140000000.000000      2.903137000000000E-01      5.225342000000000E+00      2.029877000000000E-01     -1.981445000000000E+01
4160000000.000000      3.343506000000000E-01      9.077454000000000E-01      2.640686000000000E-01     -5.630493000000000E-02
4180000000.000000      3.617096000000000E-01     -5.962891000000000E+00      3.580322000000000E-01      3.834229000000000E+00
4200000000.000000      3.711700000000000E-01     -1.369336000000000E+01      4.894257000000000E-01      1.229065000000000E+00
4220000000.000000      3.669281000000000E-01     -2.085644000000000E+01      6.427002000000000E-01     -1.118311000000000E+01
4240000000.000000      3.479309000000000E-01     -2.833593000000000E+01      7.218628000000000E-01     -2.786133000000000E+01
4260000000.000000      3.089752000000000E-01     -3.404882000000000E+01      7.410889000000000E-01     -4.189649000000000E+01
4280000000.000000      2.590179000000000E-01     -3.532812000000000E+01      7.496948000000000E-01     -5.576172000000000E+01
4300000000.000000      2.225800000000000E-01     -2.714746000000000E+01      7.140808000000000E-01     -7.084765000000000E+01
4320000000.000000      2.360229000000000E-01     -1.449268000000000E+01      6.322021000000000E-01     -8.515234000000000E+01
4340000000.000000      2.938843000000000E-01     -1.050049000000000E+01      5.150452000000000E-01     -9.795311000000000E+01
4360000000.000000      3.589935000000000E-01     -1.564600000000000E+01      3.798828000000000E-01     -1.067226000000000E+02
4380000000.000000      4.053650000000000E-01     -2.461523000000000E+01      2.489548000000000E-01     -1.080820000000000E+02
4400000000.000000      4.261322000000000E-01     -3.463867000000000E+01      1.533508000000000E-01     -8.484766000000000E+01
4420000000.000000      4.245300000000000E-01     -4.397070000000000E+01      1.884766000000000E-01     -4.538671000000000E+01
4440000000.000000      4.084930000000000E-01     -5.199609000000000E+01      3.112640000000000E-01     -3.615039000000000E+01
4460000000.000000      3.875275000000000E-01     -5.851367000000000E+01      4.535217000000000E-01     -4.342773000000000E+01
4480000000.000000      3.676453000000000E-01     -6.500000000000000E+01      5.627136000000000E-01     -5.557617000000000E+01
4500000000.000000      3.463287000000000E-01     -7.167969000000000E+01      6.429443000000000E-01     -6.692968000000000E+01
4520000000.000000      3.135529000000000E-01     -7.933594000000000E+01      7.149658000000000E-01     -7.983593000000000E+01
4540000000.000000      2.614288000000000E-01     -8.558203000000000E+01      7.417908000000000E-01     -9.446484000000000E+01
4560000000.000000      2.011337000000000E-01     -8.376171000000000E+01      7.279053000000000E-01     -1.078008000000000E+02
4580000000.000000      1.742249000000000E-01     -6.772265000000000E+01      6.910706000000000E-01     -1.215820000000000E+02
4600000000.000000      2.123108000000000E-01     -5.379492000000000E+01      6.050110000000000E-01     -1.347578000000000E+02
4620000000.000000      2.775269000000000E-01     -5.520508000000000E+01      4.966125000000000E-01     -1.450859000000000E+02
4640000000.000000      3.309784000000000E-01     -6.516015000000000E+01      3.785400000000000E-01     -1.534688000000000E+02
4660000000.000000      3.546600000000000E-01     -7.845703000000000E+01      2.457199000000000E-01     -1.517500000000000E+02
4680000000.000000      3.457947000000000E-01     -9.242579000000000E+01      1.795044000000000E-01     -1.233086000000000E+02
4700000000.000000      3.086548000000000E-01     -1.056875000000000E+02      2.489014000000000E-01     -9.664063000000000E+01
4720000000.000000      2.526550000000000E-01     -1.163437000000000E+02      3.682251000000000E-01     -9.549219000000000E+01
4740000000.000000      1.905365000000000E-01     -1.214648000000000E+02      4.749756000000000E-01     -1.018633000000000E+02
4760000000.000000      1.385269000000000E-01     -1.174844000000000E+02      5.807495000000000E-01     -1.105859000000000E+02
4780000000.000000      1.123161000000000E-01     -1.013750000000000E+02      6.659241000000000E-01     -1.230742000000000E+02
4800000000.000000      1.177483000000000E-01     -8.373047000000000E+01      7.168884000000000E-01     -1.358438000000000E+02
4820000000.000000      1.467514000000000E-01     -7.407812000000000E+01      7.351990000000000E-01     -1.489922000000000E+02
4840000000.000000      1.873779000000000E-01     -7.373047000000000E+01      7.173157000000000E-01     -1.618672000000000E+02
4860000000.000000      2.311707000000000E-01     -8.036718000000000E+01      6.836243000000000E-01     -1.742891000000000E+02
4880000000.000000      2.681427000000000E-01     -9.082811000000000E+01      6.146851000000000E-01      1.718437000000000E+02
4900000000.000000      2.937775000000000E-01     -1.043398000000000E+02      4.947052000000000E-01      1.596016000000000E+02
4920000000.000000      2.996826000000000E-01     -1.194023000000000E+02      3.649750000000000E-01      1.534765000000000E+02
4940000000.000000      2.846985000000000E-01     -1.351172000000000E+02      2.508545000000000E-01      1.559062000000000E+02
4960000000.000000      2.542877000000000E-01     -1.501641000000000E+02      1.769333000000000E-01      1.776484000000000E+02
4980000000.000000      2.119446000000000E-01     -1.644531000000000E+02      2.152863000000000E-01     -1.510391000000000E+02
5000000000.000000      1.677856000000000E-01     -1.760859000000000E+02      3.311768000000000E-01     -1.436016000000000E+02
5020000000.000000      1.299744000000000E-01      1.738203000000000E+02      4.622650000000000E-01     -1.496719000000000E+02
5040000000.000000      9.993744000000000E-02      1.637344000000000E+02      5.711060000000000E-01     -1.605156000000000E+02
5060000000.000000      7.163620000000000E-02      1.485469000000000E+02      6.505737000000000E-01     -1.720234000000000E+02
5080000000.000000      4.151154000000000E-02      1.230000000000000E+02      7.198486000000000E-01      1.757500000000000E+02
5100000000.000000      1.667213000000000E-02      4.080859000000000E+01      7.566223000000000E-01      1.621328000000000E+02
5120000000.000000      4.124832000000000E-02     -5.115039000000000E+01      7.534485000000000E-01      1.478984000000000E+02
5140000000.000000      7.276917000000000E-02     -8.788280000000000E+01      7.039185000000000E-01      1.343594000000000E+02
5160000000.000000      9.604645000000000E-02     -1.190469000000000E+02      6.276550000000000E-01      1.220078000000000E+02
5180000000.000000      1.092720000000000E-01     -1.495625000000000E+02      5.326538000000000E-01      1.107070000000000E+02
5200000000.000000      1.124420000000000E-01      1.775781000000000E+02      4.155884000000000E-01      1.012617000000000E+02
5220000000.000000      1.095619000000000E-01      1.417187000000000E+02      2.819061000000000E-01      9.830467000000000E+01
5240000000.000000      1.091232000000000E-01      1.054140000000000E+02      1.835098000000000E-01      1.157148000000000E+02
5260000000.000000      1.134796000000000E-01      7.219531000000000E+01      1.968994000000000E-01      1.496484000000000E+02
5280000000.000000      1.207504000000000E-01      4.579102000000000E+01      2.976990000000000E-01      1.606797000000000E+02
5300000000.000000      1.274719000000000E-01      2.487988000000000E+01      4.108734000000000E-01      1.579844000000000E+02
5320000000.000000      1.333618000000000E-01      8.702148000000000E+00      5.276794000000000E-01      1.506016000000000E+02
5340000000.000000      1.388931000000000E-01     -5.708984000000000E+00      6.392517000000000E-01      1.384453000000000E+02
5360000000.000000      1.432343000000000E-01     -2.145117000000000E+01      7.048035000000000E-01      1.239453000000000E+02
5380000000.000000      1.383438000000000E-01     -3.897265000000000E+01      7.178955000000000E-01      1.105976000000000E+02
5400000000.000000      1.195908000000000E-01     -5.706445000000000E+01      7.185059000000000E-01      9.898438000000000E+01
5420000000.000000      8.390808000000000E-02     -7.407421000000000E+01      7.028503000000000E-01      8.573437000000000E+01
5440000000.000000      2.990913000000000E-02     -7.779297000000000E+01      6.469116000000000E-01      7.153906000000000E+01
5460000000.000000      4.396057000000000E-02      3.917969000000000E+01      5.383606000000000E-01      5.846289000000000E+01
5480000000.000000      1.137733000000000E-01      3.075000000000000E+01      4.117432000000000E-01      4.900976000000000E+01
5500000000.000000      1.758881000000000E-01      1.564697000000000E+01      2.912598000000000E-01      4.741992000000000E+01
5520000000.000000      2.211838000000000E-01      5.932617000000000E-01      1.945724000000000E-01      5.941601000000000E+01
5540000000.000000      2.524109000000000E-01     -1.323486000000000E+01      1.819077000000000E-01      9.108984000000000E+01
5560000000.000000      2.702332000000000E-01     -2.514941000000000E+01      2.640686000000000E-01      1.087500000000000E+02
5580000000.000000      2.822723000000000E-01     -3.505664000000000E+01      3.856354000000000E-01      1.084961000000000E+02
5600000000.000000      2.936249000000000E-01     -4.391015000000000E+01      5.083618000000000E-01      9.949219000000000E+01
5620000000.000000      3.045654000000000E-01     -5.308594000000000E+01      5.949707000000000E-01      8.692186000000000E+01
5640000000.000000      3.078003000000000E-01     -6.282421000000000E+01      6.465149000000000E-01      7.506249000000000E+01
5660000000.000000      2.976379000000000E-01     -7.345703000000000E+01      6.847839000000000E-01      6.365234000000000E+01
5680000000.000000      2.683258000000000E-01     -8.378515000000000E+01      6.997070000000000E-01      5.098046000000000E+01
5700000000.000000      2.198563000000000E-01     -9.107422000000000E+01      6.828918000000000E-01      3.866601000000000E+01
5720000000.000000      1.705704000000000E-01     -8.969921000000000E+01      6.432495000000000E-01      2.591601000000000E+01
5740000000.000000      1.495972000000000E-01     -7.504687000000000E+01      5.633545000000000E-01      1.272314000000000E+01
5760000000.000000      1.789169000000000E-01     -6.363086000000000E+01      4.488220000000000E-01      1.172791000000000E+00
5780000000.000000      2.252045000000000E-01     -6.514843000000000E+01      3.154602000000000E-01     -3.843872000000000E+00
5800000000.000000      2.573242000000000E-01     -7.314453000000000E+01      2.076569000000000E-01      7.300293000000000E+00
5820000000.000000      2.667999000000000E-01     -8.248438000000000E+01      1.897888000000000E-01      3.770117000000000E+01
5840000000.000000      2.566528000000000E-01     -9.096483000000000E+01      2.722321000000000E-01      5.400976000000000E+01
5860000000.000000      2.391434000000000E-01     -9.666796000000000E+01      3.735809000000000E-01      5.407227000000000E+01
5880000000.000000      2.235718000000000E-01     -9.989061000000000E+01      4.799805000000000E-01      4.857812000000000E+01
5900000000.000000      2.159576000000000E-01     -1.022109000000000E+02      5.952759000000000E-01      3.832617000000000E+01
5920000000.000000      2.085876000000000E-01     -1.051015000000000E+02      6.720886000000000E-01      2.429883000000000E+01
5940000000.000000      1.942978000000000E-01     -1.069609000000000E+02      7.022705000000000E-01      1.106592000000000E+01
5960000000.000000      1.770172000000000E-01     -1.051367000000000E+02      7.130432000000000E-01     -1.614990000000000E+00
5980000000.000000      1.654358000000000E-01     -9.737108000000000E+01      6.914063000000000E-01     -1.561328000000000E+01
6000000000.000000      1.817245000000000E-01     -8.823046000000000E+01      6.279907000000000E-01     -2.911523000000000E+01
6020000000.000000      2.166443000000000E-01     -8.648046000000000E+01      5.294189000000000E-01     -4.177930000000000E+01
6040000000.000000      2.515259000000000E-01     -9.190624000000000E+01      3.980103000000000E-01     -4.980273000000000E+01
6060000000.000000      2.752686000000000E-01     -1.008594000000000E+02      2.847900000000000E-01     -4.956640000000000E+01
6080000000.000000      2.855682000000000E-01     -1.111094000000000E+02      2.051392000000000E-01     -3.566992000000000E+01
