! Network Analyzer HP8722D
! Hewlett-Packard
! Data name: Linha & Wilkinson+CNT
! Saver's name: Rodrigo Anjos
! Comments: Teste da utilização de aquisição
continua pelo VNA HP8722D
! Time and date: 29/9/2025 17:02
!              Frequency                     S11                                                   S21                                                   S12                                                   S22
# HZ  S  MA R 50
3000000000.000000      4.237061000000000E-01     -5.568749000000000E+01      2.062607000000000E-01     -1.316484000000000E+02
3020000000.000000      4.463196000000000E-01     -6.969140000000000E+01      3.492889000000000E-01     -1.348438000000000E+02
3040000000.000000      4.529572000000000E-01     -8.290234000000000E+01      4.666901000000000E-01     -1.447031000000000E+02
3060000000.000000      4.444580000000000E-01     -9.474218000000000E+01      5.723267000000000E-01     -1.552422000000000E+02
3080000000.000000      4.298859000000000E-01     -1.060430000000000E+02      6.746826000000000E-01     -1.682891000000000E+02
3100000000.000000      4.089966000000000E-01     -1.172500000000000E+02      7.243042000000000E-01      1.768672000000000E+02
3120000000.000000      3.796997000000000E-01     -1.291406000000000E+02      7.328186000000000E-01      1.635781000000000E+02
3140000000.000000      3.394318000000000E-01     -1.421406000000000E+02      7.245483000000000E-01      1.506875000000000E+02
3160000000.000000      2.788391000000000E-01     -1.560390000000000E+02      6.859131000000000E-01      1.371016000000000E+02
3180000000.000000      1.998062000000000E-01     -1.688516000000000E+02      6.144104000000000E-01      1.245547000000000E+02
3200000000.000000      1.117477000000000E-01     -1.696172000000000E+02      5.211182000000000E-01      1.117773000000000E+02
3220000000.000000      7.934952000000000E-02     -1.240937000000000E+02      3.872986000000000E-01      1.008008000000000E+02
3240000000.000000      1.506577000000000E-01     -1.047617000000000E+02      2.479477000000000E-01      9.939842000000000E+01
3260000000.000000      2.303085000000000E-01     -1.149531000000000E+02      1.474915000000000E-01      1.248750000000000E+02
3280000000.000000      2.878113000000000E-01     -1.307031000000000E+02      2.023010000000000E-01      1.650781000000000E+02
3300000000.000000      3.206635000000000E-01     -1.469687000000000E+02      3.290405000000000E-01      1.696172000000000E+02
3320000000.000000      3.325653000000000E-01     -1.629219000000000E+02      4.624634000000000E-01      1.625859000000000E+02
3340000000.000000      3.289642000000000E-01     -1.783047000000000E+02      5.733032000000000E-01      1.505625000000000E+02
3360000000.000000      3.176422000000000E-01      1.669453000000000E+02      6.459045000000000E-01      1.385000000000000E+02
3380000000.000000      3.011932000000000E-01      1.526250000000000E+02      7.090149000000000E-01      1.270898000000000E+02
3400000000.000000      2.791138000000000E-01      1.378828000000000E+02      7.577515000000000E-01      1.133711000000000E+02
3420000000.000000      2.441788000000000E-01      1.230430000000000E+02      7.493896000000000E-01      9.856249000000000E+01
3440000000.000000      1.911240000000000E-01      1.083164000000000E+02      7.063293000000000E-01      8.551172000000000E+01
3460000000.000000      1.208305000000000E-01      9.749609000000000E+01      6.479187000000000E-01      7.248437000000000E+01
3480000000.000000      4.901505000000000E-02      1.206055000000000E+02      5.502930000000000E-01      5.916797000000000E+01
3500000000.000000      9.131241000000000E-02     -1.747031000000000E+02      4.254456000000000E-01      4.763672000000000E+01
3520000000.000000      1.828690000000000E-01      1.788359000000000E+02      2.804871000000000E-01      4.040625000000000E+01
3540000000.000000      2.628326000000000E-01      1.628515000000000E+02      1.481094000000000E-01      5.786327000000000E+01
3560000000.000000      3.227844000000000E-01      1.459453000000000E+02      1.659775000000000E-01      1.075273000000000E+02
3580000000.000000      3.600159000000000E-01      1.299453000000000E+02      2.930908000000000E-01      1.175039000000000E+02
3600000000.000000      3.769531000000000E-01      1.153789000000000E+02      4.179688000000000E-01      1.107773000000000E+02
3620000000.000000      3.784332000000000E-01      1.027031000000000E+02      5.198059000000000E-01      1.012812000000000E+02
3640000000.000000      3.688202000000000E-01      9.142578000000000E+01      6.211243000000000E-01      9.020702000000000E+01
3660000000.000000      3.527985000000000E-01      8.125000000000000E+01      6.921082000000000E-01      7.581249000000000E+01
3680000000.000000      3.303223000000000E-01      7.209765000000000E+01      7.099304000000000E-01      6.274414000000000E+01
3700000000.000000      2.994232000000000E-01      6.379883000000000E+01      7.212219000000000E-01      5.120312000000000E+01
3720000000.000000      2.557373000000000E-01      5.767383000000000E+01      7.243042000000000E-01      3.684375000000000E+01
3740000000.000000      2.050629000000000E-01      5.835938000000000E+01      6.638184000000000E-01      2.149024000000000E+01
3760000000.000000      1.783905000000000E-01      7.232031000000000E+01      5.683289000000000E-01      7.171143000000000E+00
3780000000.000000      2.115784000000000E-01      8.757813000000000E+01      4.356537000000000E-01     -6.060547000000000E+00
3800000000.000000      2.819672000000000E-01      8.921484000000000E+01      2.833252000000000E-01     -1.339551000000000E+01
3820000000.000000      3.496704000000000E-01      8.278906000000000E+01      1.544113000000000E-01     -6.564331000000000E-01
3840000000.000000      3.999939000000000E-01      7.403515000000000E+01      1.420670000000000E-01      4.757813000000000E+01
3860000000.000000      4.355469000000000E-01      6.539063000000000E+01      2.451630000000000E-01      6.530078000000000E+01
3880000000.000000      4.613190000000000E-01      5.790820000000000E+01      3.750000000000000E-01      6.125390000000000E+01
3900000000.000000      4.899902000000000E-01      5.085351000000000E+01      4.769592000000000E-01      4.796679000000000E+01
3920000000.000000      5.197144000000000E-01      4.335938000000000E+01      5.093689000000000E-01      3.613086000000000E+01
3940000000.000000      5.491943000000000E-01      3.421875000000000E+01      5.401001000000000E-01      2.961035000000000E+01
3960000000.000000      5.610352000000000E-01      2.423535000000000E+01      5.957642000000000E-01      2.027930000000000E+01
3980000000.000000      5.541687000000000E-01      1.359814000000000E+01      5.974731000000000E-01      8.267090000000000E+00
4000000000.000000      5.289917000000000E-01      3.286255000000000E+00      5.807190000000000E-01      1.399353000000000E+00
4020000000.000000      4.845123000000000E-01     -6.745605000000000E+00      5.975647000000000E-01     -6.633057000000000E+00
4040000000.000000      4.260559000000000E-01     -1.566406000000000E+01      5.857849000000000E-01     -1.857519000000000E+01
4060000000.000000      3.506165000000000E-01     -2.169824000000000E+01      5.283203000000000E-01     -2.879883000000000E+01
4080000000.000000      2.753601000000000E-01     -2.176562000000000E+01      4.699554000000000E-01     -3.824609000000000E+01
4100000000.000000      2.284775000000000E-01     -1.107178000000000E+01      3.680878000000000E-01     -4.736524000000000E+01
4120000000.000000      2.412949000000000E-01      1.923950000000000E+00      2.509918000000000E-01     -4.425977000000000E+01
4140000000.000000      2.895203000000000E-01      5.358398000000000E+00      2.029495000000000E-01     -2.031836000000000E+01
4160000000.000000      3.335571000000000E-01      1.226318000000000E+00      2.623444000000000E-01     -2.128601000000000E-01
4180000000.000000      3.616028000000000E-01     -5.726807000000000E+00      3.560638000000000E-01      4.029053000000000E+00
4200000000.000000      3.718414000000000E-01     -1.340479000000000E+01      4.876556000000000E-01      1.551819000000000E+00
4220000000.000000      3.683777000000000E-01     -2.062500000000000E+01      6.421204000000000E-01     -1.089990000000000E+01
4240000000.000000      3.491364000000000E-01     -2.819433000000000E+01      7.215576000000000E-01     -2.760058000000000E+01
4260000000.000000      3.108215000000000E-01     -3.392969000000000E+01      7.430420000000000E-01     -4.166016000000000E+01
4280000000.000000      2.601929000000000E-01     -3.531054000000000E+01      7.516174000000000E-01     -5.554688000000000E+01
4300000000.000000      2.226715000000000E-01     -2.740039000000000E+01      7.154236000000000E-01     -7.046484000000000E+01
4320000000.000000      2.349701000000000E-01     -1.452002000000000E+01      6.335754000000000E-01     -8.504686000000000E+01
4340000000.000000      2.922974000000000E-01     -1.046875000000000E+01      5.166321000000000E-01     -9.791016000000000E+01
4360000000.000000      3.585663000000000E-01     -1.546484000000000E+01      3.825531000000000E-01     -1.069141000000000E+02
4380000000.000000      4.054108000000000E-01     -2.443945000000000E+01      2.511292000000000E-01     -1.083164000000000E+02
4400000000.000000      4.268036000000000E-01     -3.437695000000000E+01      1.539612000000000E-01     -8.562500000000000E+01
4420000000.000000      4.257355000000000E-01     -4.374804000000000E+01      1.868744000000000E-01     -4.573242000000000E+01
4440000000.000000      4.087830000000000E-01     -5.180469000000000E+01      3.088837000000000E-01     -3.604492000000000E+01
4460000000.000000      3.878784000000000E-01     -5.821289000000000E+01      4.509277000000000E-01     -4.321679000000000E+01
4480000000.000000      3.678589000000000E-01     -6.492188000000000E+01      5.615234000000000E-01     -5.515820000000000E+01
4500000000.000000      3.471832000000000E-01     -7.153125000000000E+01      6.428223000000000E-01     -6.656250000000000E+01
4520000000.000000      3.137360000000000E-01     -7.933594000000000E+01      7.158508000000000E-01     -7.962891000000000E+01
4540000000.000000      2.623444000000000E-01     -8.567968000000000E+01      7.423401000000000E-01     -9.428905000000000E+01
4560000000.000000      2.007751000000000E-01     -8.407030000000000E+01      7.303162000000000E-01     -1.075078000000000E+02
4580000000.000000      1.730499000000000E-01     -6.789844000000000E+01      6.930237000000000E-01     -1.213906000000000E+02
4600000000.000000      2.104034000000000E-01     -5.358593000000000E+01      6.082458000000000E-01     -1.344609000000000E+02
4620000000.000000      2.753601000000000E-01     -5.487305000000000E+01      5.004883000000000E-01     -1.450156000000000E+02
4640000000.000000      3.294220000000000E-01     -6.468750000000000E+01      3.807831000000000E-01     -1.532500000000000E+02
4660000000.000000      3.536987000000000E-01     -7.798828000000000E+01      2.476959000000000E-01     -1.518516000000000E+02
4680000000.000000      3.452301000000000E-01     -9.207422000000000E+01      1.799240000000000E-01     -1.237617000000000E+02
4700000000.000000      3.083954000000000E-01     -1.052891000000000E+02      2.475281000000000E-01     -9.683983000000000E+01
4720000000.000000      2.526398000000000E-01     -1.158047000000000E+02      3.664246000000000E-01     -9.542187000000000E+01
4740000000.000000      1.907578000000000E-01     -1.209922000000000E+02      4.725952000000000E-01     -1.016953000000000E+02
4760000000.000000      1.384201000000000E-01     -1.168750000000000E+02      5.804749000000000E-01     -1.105078000000000E+02
4780000000.000000      1.123543000000000E-01     -1.010430000000000E+02      6.676941000000000E-01     -1.227695000000000E+02
4800000000.000000      1.183357000000000E-01     -8.305468000000000E+01      7.178345000000000E-01     -1.355781000000000E+02
4820000000.000000      1.475449000000000E-01     -7.346093000000000E+01      7.361450000000000E-01     -1.488437000000000E+02
4840000000.000000      1.881866000000000E-01     -7.323437000000000E+01      7.190247000000000E-01     -1.616484000000000E+02
4860000000.000000      2.319717000000000E-01     -8.003906000000000E+01      6.858215000000000E-01     -1.742578000000000E+02
4880000000.000000      2.691193000000000E-01     -9.049999000000000E+01      6.191406000000000E-01      1.719453000000000E+02
4900000000.000000      2.952423000000000E-01     -1.039453000000000E+02      4.967499000000000E-01      1.596562000000000E+02
4920000000.000000      3.014832000000000E-01     -1.190703000000000E+02      3.674927000000000E-01      1.535938000000000E+02
4940000000.000000      2.866974000000000E-01     -1.347812000000000E+02      2.528229000000000E-01      1.556562000000000E+02
4960000000.000000      2.556763000000000E-01     -1.499453000000000E+02      1.769409000000000E-01      1.766641000000000E+02
4980000000.000000      2.132645000000000E-01     -1.641641000000000E+02      2.132492000000000E-01     -1.516094000000000E+02
5000000000.000000      1.692810000000000E-01     -1.757813000000000E+02      3.284607000000000E-01     -1.436641000000000E+02
5020000000.000000      1.314621000000000E-01      1.741562000000000E+02      4.590149000000000E-01     -1.495547000000000E+02
5040000000.000000      1.010132000000000E-01      1.641172000000000E+02      5.691223000000000E-01     -1.602969000000000E+02
5060000000.000000      7.332993000000000E-02      1.491875000000000E+02      6.488342000000000E-01     -1.716797000000000E+02
5080000000.000000      4.200745000000000E-02      1.233516000000000E+02      7.172241000000000E-01      1.760469000000000E+02
5100000000.000000      1.637554000000000E-02      4.417188000000000E+01      7.565002000000000E-01      1.623281000000000E+02
5120000000.000000      4.068565000000000E-02     -5.046093000000000E+01      7.532654000000000E-01      1.480859000000000E+02
5140000000.000000      7.227707000000000E-02     -8.736328000000000E+01      7.038574000000000E-01      1.344687000000000E+02
5160000000.000000      9.660339000000000E-02     -1.186055000000000E+02      6.308594000000000E-01      1.220469000000000E+02
5180000000.000000      1.104774000000000E-01     -1.491406000000000E+02      5.341492000000000E-01      1.108086000000000E+02
5200000000.000000      1.135712000000000E-01      1.783125000000000E+02      4.181671000000000E-01      1.012344000000000E+02
5220000000.000000      1.102753000000000E-01      1.424922000000000E+02      2.841492000000000E-01      9.807030000000000E+01
5240000000.000000      1.092529000000000E-01      1.062344000000000E+02      1.839447000000000E-01      1.148672000000000E+02
5260000000.000000      1.134415000000000E-01      7.279297000000000E+01      1.951141000000000E-01      1.492500000000000E+02
5280000000.000000      1.207924000000000E-01      4.608594000000000E+01      2.946930000000000E-01      1.606328000000000E+02
5300000000.000000      1.276398000000000E-01      2.532129000000000E+01      4.088440000000000E-01      1.582500000000000E+02
5320000000.000000      1.337509000000000E-01      8.942871000000000E+00      5.273438000000000E-01      1.506875000000000E+02
5340000000.000000      1.387863000000000E-01     -5.659424000000000E+00      6.377563000000000E-01      1.385937000000000E+02
5360000000.000000      1.429596000000000E-01     -2.115332000000000E+01      7.060852000000000E-01      1.240781000000000E+02
5380000000.000000      1.389618000000000E-01     -3.869726000000000E+01      7.190247000000000E-01      1.108086000000000E+02
5400000000.000000      1.202698000000000E-01     -5.711328000000000E+01      7.173462000000000E-01      9.924217000000000E+01
5420000000.000000      8.522797000000000E-02     -7.436718000000000E+01      7.066650000000000E-01      8.611328000000000E+01
5440000000.000000      3.127480000000000E-02     -8.029297000000000E+01      6.487122000000000E-01      7.169531000000000E+01
5460000000.000000      4.200935000000000E-02      3.971875000000000E+01      5.422668000000000E-01      5.854297000000000E+01
5480000000.000000      1.118851000000000E-01      3.123926000000000E+01      4.152679000000000E-01      4.945898000000000E+01
5500000000.000000      1.744232000000000E-01      1.596826000000000E+01      2.942047000000000E-01      4.721093000000000E+01
5520000000.000000      2.202682000000000E-01      8.898926000000000E-01      1.958694000000000E-01      5.871484000000000E+01
5540000000.000000      2.512054000000000E-01     -1.291064000000000E+01      1.801834000000000E-01      9.071093000000000E+01
5560000000.000000      2.703094000000000E-01     -2.481445000000000E+01      2.617188000000000E-01      1.087383000000000E+02
5580000000.000000      2.824554000000000E-01     -3.483398000000000E+01      3.834991000000000E-01      1.086719000000000E+02
5600000000.000000      2.939911000000000E-01     -4.379296000000000E+01      5.062866000000000E-01      9.977343000000000E+01
5620000000.000000      3.045349000000000E-01     -5.290625000000000E+01      5.955811000000000E-01      8.712109000000000E+01
5640000000.000000      3.081512000000000E-01     -6.266015000000000E+01      6.461182000000000E-01      7.517578000000000E+01
5660000000.000000      2.983093000000000E-01     -7.331249000000000E+01      6.855469000000000E-01      6.402734000000000E+01
5680000000.000000      2.688751000000000E-01     -8.374218000000000E+01      6.974182000000000E-01      5.131249000000000E+01
5700000000.000000      2.216263000000000E-01     -9.105469000000000E+01      6.849670000000000E-01      3.882813000000000E+01
5720000000.000000      1.705627000000000E-01     -9.001953000000000E+01      6.448975000000000E-01      2.621582000000000E+01
5740000000.000000      1.492081000000000E-01     -7.553515000000000E+01      5.661011000000000E-01      1.273828000000000E+01
5760000000.000000      1.775436000000000E-01     -6.362499000000000E+01      4.527283000000000E-01      1.336182000000000E+00
5780000000.000000      2.238770000000000E-01     -6.513281000000000E+01      3.180084000000000E-01     -3.942749000000000E+00
5800000000.000000      2.569427000000000E-01     -7.290234000000000E+01      2.089233000000000E-01      6.789551000000000E+00
5820000000.000000      2.669678000000000E-01     -8.240625000000000E+01      1.888504000000000E-01      3.721680000000000E+01
5840000000.000000      2.572937000000000E-01     -9.085938000000000E+01      2.698212000000000E-01      5.398242000000000E+01
5860000000.000000      2.392883000000000E-01     -9.639061000000000E+01      3.706207000000000E-01      5.408398000000000E+01
5880000000.000000      2.241440000000000E-01     -9.986328000000000E+01      4.773254000000000E-01      4.887695000000000E+01
5900000000.000000      2.159348000000000E-01     -1.022031000000000E+02      5.951843000000000E-01      3.845898000000000E+01
5920000000.000000      2.085495000000000E-01     -1.051172000000000E+02      6.706848000000000E-01      2.467578000000000E+01
5940000000.000000      1.945877000000000E-01     -1.070000000000000E+02      7.019653000000000E-01      1.148438000000000E+01
5960000000.000000      1.769714000000000E-01     -1.053359000000000E+02      7.141418000000000E-01     -1.270325000000000E+00
5980000000.000000      1.659393000000000E-01     -9.734375000000000E+01      6.931152000000000E-01     -1.529590000000000E+01
6000000000.000000      1.812668000000000E-01     -8.816015000000000E+01      6.296082000000000E-01     -2.886133000000000E+01
6020000000.000000      2.158127000000000E-01     -8.623827000000000E+01      5.317078000000000E-01     -4.167773000000000E+01
6040000000.000000      2.509155000000000E-01     -9.155077000000000E+01      4.019470000000000E-01     -4.968554000000000E+01
6060000000.000000      2.745056000000000E-01     -1.006133000000000E+02      2.869873000000000E-01     -4.983007000000000E+01
6080000000.000000      2.854767000000000E-01     -1.106719000000000E+02      2.059708000000000E-01     -3.625781000000000E+01
