! Network Analyzer HP8722D
! Hewlett-Packard
! Data name: Linha & Wilkinson+CNT
! Saver's name: Rodrigo Anjos
! Comments: Teste da utilização de aquisição
continua pelo VNA HP8722D
! Time and date: 29/9/2025 12:00
!              Frequency                     S11                                                   S21                                                   S12                                                   S22
# HZ  S  MA R 50
3000000000.000000      4.231873000000000E-01     -5.622851000000000E+01      2.087097000000000E-01     -1.313437000000000E+02
3020000000.000000      4.479065000000000E-01     -7.068359000000000E+01      3.513031000000000E-01     -1.350078000000000E+02
3040000000.000000      4.543304000000000E-01     -8.347265000000000E+01      4.685822000000000E-01     -1.448906000000000E+02
3060000000.000000      4.459991000000000E-01     -9.539063000000000E+01      5.727539000000000E-01     -1.551484000000000E+02
3080000000.000000      4.305420000000000E-01     -1.065898000000000E+02      6.740723000000000E-01     -1.684922000000000E+02
3100000000.000000      4.109192000000000E-01     -1.177031000000000E+02      7.235718000000000E-01      1.768750000000000E+02
3120000000.000000      3.818970000000000E-01     -1.296328000000000E+02      7.312927000000000E-01      1.634063000000000E+02
3140000000.000000      3.414917000000000E-01     -1.425390000000000E+02      7.236328000000000E-01      1.505547000000000E+02
3160000000.000000      2.809906000000000E-01     -1.563203000000000E+02      6.813049000000000E-01      1.370859000000000E+02
3180000000.000000      2.015991000000000E-01     -1.686016000000000E+02      6.123047000000000E-01      1.245078000000000E+02
3200000000.000000      1.145020000000000E-01     -1.685625000000000E+02      5.180664000000000E-01      1.116836000000000E+02
3220000000.000000      8.400345000000000E-02     -1.245469000000000E+02      3.842010000000000E-01      1.008672000000000E+02
3240000000.000000      1.540833000000000E-01     -1.057930000000000E+02      2.454453000000000E-01      9.983202000000000E+01
3260000000.000000      2.333832000000000E-01     -1.156562000000000E+02      1.473160000000000E-01      1.260976000000000E+02
3280000000.000000      2.910004000000000E-01     -1.311484000000000E+02      2.047882000000000E-01      1.654844000000000E+02
3300000000.000000      3.240204000000000E-01     -1.472969000000000E+02      3.313293000000000E-01      1.696094000000000E+02
3320000000.000000      3.354340000000000E-01     -1.630078000000000E+02      4.638519000000000E-01      1.625547000000000E+02
3340000000.000000      3.322906000000000E-01     -1.782344000000000E+02      5.766602000000000E-01      1.504922000000000E+02
3360000000.000000      3.192902000000000E-01      1.671719000000000E+02      6.480103000000000E-01      1.384063000000000E+02
3380000000.000000      3.019867000000000E-01      1.528984000000000E+02      7.092285000000000E-01      1.270898000000000E+02
3400000000.000000      2.786560000000000E-01      1.384140000000000E+02      7.579346000000000E-01      1.131445000000000E+02
3420000000.000000      2.428131000000000E-01      1.234531000000000E+02      7.497253000000000E-01      9.841406000000000E+01
3440000000.000000      1.888275000000000E-01      1.088711000000000E+02      7.048340000000000E-01      8.548046000000000E+01
3460000000.000000      1.174393000000000E-01      9.859764000000000E+01      6.463623000000000E-01      7.238281000000000E+01
3480000000.000000      4.733658000000000E-02      1.260898000000000E+02      5.479736000000000E-01      5.907227000000000E+01
3500000000.000000      9.634781000000000E-02     -1.732188000000000E+02      4.236145000000000E-01      4.760742000000000E+01
3520000000.000000      1.877899000000000E-01      1.795000000000000E+02      2.777405000000000E-01      4.071679000000000E+01
3540000000.000000      2.656250000000000E-01      1.632187000000000E+02      1.473618000000000E-01      5.906054000000000E+01
3560000000.000000      3.242340000000000E-01      1.462812000000000E+02      1.687698000000000E-01      1.080703000000000E+02
3580000000.000000      3.600311000000000E-01      1.301484000000000E+02      2.962952000000000E-01      1.175117000000000E+02
3600000000.000000      3.751373000000000E-01      1.154961000000000E+02      4.210968000000000E-01      1.105976000000000E+02
3620000000.000000      3.775940000000000E-01      1.027148000000000E+02      5.229492000000000E-01      1.009609000000000E+02
3640000000.000000      3.670044000000000E-01      9.151953000000000E+01      6.237488000000000E-01      8.985937000000000E+01
3660000000.000000      3.500824000000000E-01      8.131639000000000E+01      6.924438000000000E-01      7.568749000000000E+01
3680000000.000000      3.271637000000000E-01      7.201953000000000E+01      7.113342000000000E-01      6.257813000000000E+01
3700000000.000000      2.964935000000000E-01      6.367773000000000E+01      7.205811000000000E-01      5.097461000000000E+01
3720000000.000000      2.515106000000000E-01      5.764648000000000E+01      7.237854000000000E-01      3.665039000000000E+01
3740000000.000000      2.011871000000000E-01      5.861328000000000E+01      6.629944000000000E-01      2.127344000000000E+01
3760000000.000000      1.755447000000000E-01      7.289844000000000E+01      5.645447000000000E-01      6.979004000000000E+00
3780000000.000000      2.108078000000000E-01      8.790625000000000E+01      4.349670000000000E-01     -6.186768000000000E+00
3800000000.000000      2.812805000000000E-01      8.914063000000000E+01      2.804565000000000E-01     -1.306836000000000E+01
3820000000.000000      3.489075000000000E-01      8.267578000000000E+01      1.530838000000000E-01      1.538086000000000E-01
3840000000.000000      3.993530000000000E-01      7.385937000000000E+01      1.447678000000000E-01      4.817383000000000E+01
3860000000.000000      4.340210000000000E-01      6.526953000000000E+01      2.477036000000000E-01      6.531250000000000E+01
3880000000.000000      4.585266000000000E-01      5.766796000000000E+01      3.778839000000000E-01      6.107422000000000E+01
3900000000.000000      4.869080000000000E-01      5.055859000000000E+01      4.784088000000000E-01      4.758008000000000E+01
3920000000.000000      5.167847000000000E-01      4.284375000000000E+01      5.095520000000000E-01      3.605859000000000E+01
3940000000.000000      5.465088000000000E-01      3.372656000000000E+01      5.403442000000000E-01      2.938379000000000E+01
3960000000.000000      5.567322000000000E-01      2.382910000000000E+01      5.954590000000000E-01      1.991797000000000E+01
3980000000.000000      5.515442000000000E-01      1.306787000000000E+01      5.986328000000000E-01      8.099609000000000E+00
4000000000.000000      5.248108000000000E-01      2.702637000000000E+00      5.796814000000000E-01      1.131592000000000E+00
4020000000.000000      4.817047000000000E-01     -7.271729000000000E+00      5.966492000000000E-01     -6.634521000000000E+00
4040000000.000000      4.232941000000000E-01     -1.608008000000000E+01      5.838318000000000E-01     -1.881738000000000E+01
4060000000.000000      3.472748000000000E-01     -2.222851000000000E+01      5.263367000000000E-01     -2.912207000000000E+01
4080000000.000000      2.730865000000000E-01     -2.229883000000000E+01      4.667969000000000E-01     -3.826562000000000E+01
4100000000.000000      2.273102000000000E-01     -1.173486000000000E+01      3.652344000000000E-01     -4.737500000000000E+01
4120000000.000000      2.416916000000000E-01      1.305969000000000E+00      2.483444000000000E-01     -4.373242000000000E+01
4140000000.000000      2.895660000000000E-01      4.621094000000000E+00      2.037277000000000E-01     -1.949609000000000E+01
4160000000.000000      3.337097000000000E-01      3.652954000000000E-01      2.652283000000000E-01      2.609253000000000E-02
4180000000.000000      3.617249000000000E-01     -6.502686000000000E+00      3.588104000000000E-01      3.735352000000000E+00
4200000000.000000      3.710785000000000E-01     -1.418750000000000E+01      4.884796000000000E-01      1.241455000000000E+00
4220000000.000000      3.668060000000000E-01     -2.144531000000000E+01      6.431274000000000E-01     -1.107422000000000E+01
4240000000.000000      3.470917000000000E-01     -2.890137000000000E+01      7.226868000000000E-01     -2.789453000000000E+01
4260000000.000000      3.089142000000000E-01     -3.466601000000000E+01      7.419128000000000E-01     -4.202148000000000E+01
4280000000.000000      2.589722000000000E-01     -3.579492000000000E+01      7.503967000000000E-01     -5.579883000000000E+01
4300000000.000000      2.231445000000000E-01     -2.764160000000000E+01      7.135620000000000E-01     -7.071875000000000E+01
4320000000.000000      2.370682000000000E-01     -1.496631000000000E+01      6.299438000000000E-01     -8.512110000000000E+01
4340000000.000000      2.953644000000000E-01     -1.108545000000000E+01      5.138245000000000E-01     -9.796875000000000E+01
4360000000.000000      3.597107000000000E-01     -1.613379000000000E+01      3.780670000000000E-01     -1.066680000000000E+02
4380000000.000000      4.058228000000000E-01     -2.510937000000000E+01      2.478256000000000E-01     -1.077109000000000E+02
4400000000.000000      4.270325000000000E-01     -3.491992000000000E+01      1.535568000000000E-01     -8.427734000000000E+01
4420000000.000000      4.251556000000000E-01     -4.432226000000000E+01      1.890564000000000E-01     -4.521874000000000E+01
4440000000.000000      4.091187000000000E-01     -5.246484000000000E+01      3.118134000000000E-01     -3.613281000000000E+01
4460000000.000000      3.885956000000000E-01     -5.891015000000000E+01      4.527130000000000E-01     -4.318164000000000E+01
4480000000.000000      3.695221000000000E-01     -6.507813000000000E+01      5.621033000000000E-01     -5.553515000000000E+01
4500000000.000000      3.474579000000000E-01     -7.189062000000000E+01      6.428223000000000E-01     -6.703515000000000E+01
4520000000.000000      3.139801000000000E-01     -7.939843000000000E+01      7.164307000000000E-01     -7.992969000000000E+01
4540000000.000000      2.630463000000000E-01     -8.525000000000000E+01      7.415161000000000E-01     -9.456640000000000E+01
4560000000.000000      2.034073000000000E-01     -8.339453000000000E+01      7.266541000000000E-01     -1.077187000000000E+02
4580000000.000000      1.774139000000000E-01     -6.771484000000000E+01      6.897583000000000E-01     -1.215508000000000E+02
4600000000.000000      2.154160000000000E-01     -5.436718000000000E+01      6.039124000000000E-01     -1.347578000000000E+02
4620000000.000000      2.803802000000000E-01     -5.586719000000000E+01      4.961395000000000E-01     -1.449766000000000E+02
4640000000.000000      3.336792000000000E-01     -6.562890000000000E+01      3.773193000000000E-01     -1.532422000000000E+02
4660000000.000000      3.569489000000000E-01     -7.869922000000000E+01      2.447281000000000E-01     -1.512891000000000E+02
4680000000.000000      3.483124000000000E-01     -9.249218000000000E+01      1.798325000000000E-01     -1.227891000000000E+02
4700000000.000000      3.106384000000000E-01     -1.054844000000000E+02      2.498627000000000E-01     -9.638281000000000E+01
4720000000.000000      2.540588000000000E-01     -1.158711000000000E+02      3.676300000000000E-01     -9.539063000000000E+01
4740000000.000000      1.915131000000000E-01     -1.209141000000000E+02      4.761963000000000E-01     -1.018164000000000E+02
4760000000.000000      1.396179000000000E-01     -1.165859000000000E+02      5.805054000000000E-01     -1.105898000000000E+02
4780000000.000000      1.148033000000000E-01     -1.007070000000000E+02      6.686707000000000E-01     -1.229961000000000E+02
4800000000.000000      1.218681000000000E-01     -8.327343000000000E+01      7.155762000000000E-01     -1.356953000000000E+02
4820000000.000000      1.513672000000000E-01     -7.454687000000000E+01      7.351685000000000E-01     -1.490547000000000E+02
4840000000.000000      1.923218000000000E-01     -7.434765000000000E+01      7.164001000000000E-01     -1.618359000000000E+02
4860000000.000000      2.350006000000000E-01     -8.083202000000000E+01      6.837769000000000E-01     -1.745000000000000E+02
4880000000.000000      2.720642000000000E-01     -9.099609000000000E+01      6.141663000000000E-01      1.719453000000000E+02
4900000000.000000      2.963104000000000E-01     -1.043398000000000E+02      4.950409000000000E-01      1.598906000000000E+02
4920000000.000000      3.015900000000000E-01     -1.192578000000000E+02      3.635406000000000E-01      1.536484000000000E+02
4940000000.000000      2.867584000000000E-01     -1.347500000000000E+02      2.501068000000000E-01      1.562344000000000E+02
4960000000.000000      2.552338000000000E-01     -1.497266000000000E+02      1.774139000000000E-01      1.780781000000000E+02
4980000000.000000      2.125092000000000E-01     -1.636719000000000E+02      2.165527000000000E-01     -1.509375000000000E+02
5000000000.000000      1.677628000000000E-01     -1.750156000000000E+02      3.321838000000000E-01     -1.436016000000000E+02
5020000000.000000      1.290665000000000E-01      1.754297000000000E+02      4.625702000000000E-01     -1.497969000000000E+02
5040000000.000000      9.876251000000000E-02      1.658125000000000E+02      5.723877000000000E-01     -1.604844000000000E+02
5060000000.000000      7.007980000000000E-02      1.513515000000000E+02      6.513367000000000E-01     -1.720781000000000E+02
5080000000.000000      3.881454000000000E-02      1.262383000000000E+02      7.180481000000000E-01      1.758594000000000E+02
5100000000.000000      1.379347000000000E-02      3.569726000000000E+01      7.557983000000000E-01      1.620234000000000E+02
5120000000.000000      4.206848000000000E-02     -5.474999000000000E+01      7.517700000000000E-01      1.477969000000000E+02
5140000000.000000      7.438660000000000E-02     -8.880859000000000E+01      7.022705000000000E-01      1.343203000000000E+02
5160000000.000000      9.780502000000000E-02     -1.188477000000000E+02      6.275635000000000E-01      1.220273000000000E+02
5180000000.000000      1.097603000000000E-01     -1.489766000000000E+02      5.318604000000000E-01      1.106953000000000E+02
5200000000.000000      1.118851000000000E-01      1.786250000000000E+02      4.147339000000000E-01      1.012461000000000E+02
5220000000.000000      1.074486000000000E-01      1.426094000000000E+02      2.819366000000000E-01      9.862890000000000E+01
5240000000.000000      1.061630000000000E-01      1.055547000000000E+02      1.837616000000000E-01      1.160117000000000E+02
5260000000.000000      1.108513000000000E-01      7.169140000000000E+01      1.982346000000000E-01      1.499141000000000E+02
5280000000.000000      1.182251000000000E-01      4.502149000000000E+01      2.990875000000000E-01      1.606094000000000E+02
5300000000.000000      1.254501000000000E-01      2.405859000000000E+01      4.117279000000000E-01      1.579922000000000E+02
5320000000.000000      1.320572000000000E-01      7.572266000000000E+00      5.296631000000000E-01      1.503672000000000E+02
5340000000.000000      1.384201000000000E-01     -6.626221000000000E+00      6.383667000000000E-01      1.383906000000000E+02
5360000000.000000      1.430740000000000E-01     -2.212988000000000E+01      7.056580000000000E-01      1.239883000000000E+02
5380000000.000000      1.386032000000000E-01     -3.940430000000000E+01      7.188416000000000E-01      1.106016000000000E+02
5400000000.000000      1.210136000000000E-01     -5.709765000000000E+01      7.167664000000000E-01      9.884375000000000E+01
5420000000.000000      8.561707000000000E-02     -7.344921000000000E+01      7.032471000000000E-01      8.585938000000000E+01
5440000000.000000      3.205490000000000E-02     -7.646093000000000E+01      6.458435000000000E-01      7.153515000000000E+01
5460000000.000000      4.295158000000000E-02      3.581250000000000E+01      5.373840000000000E-01      5.859765000000000E+01
5480000000.000000      1.121864000000000E-01      2.941504000000000E+01      4.100647000000000E-01      4.924023000000000E+01
5500000000.000000      1.749039000000000E-01      1.447852000000000E+01      2.911987000000000E-01      4.750586000000000E+01
5520000000.000000      2.211914000000000E-01     -3.913879000000000E-01      1.947327000000000E-01      5.964062000000000E+01
5540000000.000000      2.526093000000000E-01     -1.388965000000000E+01      1.822052000000000E-01      9.142578000000000E+01
5560000000.000000      2.710419000000000E-01     -2.565234000000000E+01      2.648621000000000E-01      1.087852000000000E+02
5580000000.000000      2.837524000000000E-01     -3.551562000000000E+01      3.860016000000000E-01      1.085312000000000E+02
5600000000.000000      2.954559000000000E-01     -4.422265000000000E+01      5.076599000000000E-01      9.952734000000000E+01
5620000000.000000      3.058624000000000E-01     -5.327148000000000E+01      5.959167000000000E-01      8.695704000000000E+01
5640000000.000000      3.099213000000000E-01     -6.298046000000000E+01      6.467896000000000E-01      7.512109000000000E+01
5660000000.000000      3.004303000000000E-01     -7.357031000000000E+01      6.831970000000000E-01      6.378711000000000E+01
5680000000.000000      2.714233000000000E-01     -8.393358000000000E+01      6.958008000000000E-01      5.110156000000000E+01
5700000000.000000      2.247620000000000E-01     -9.117188000000000E+01      6.802673000000000E-01      3.866601000000000E+01
5720000000.000000      1.746368000000000E-01     -8.983593000000000E+01      6.415710000000000E-01      2.578711000000000E+01
5740000000.000000      1.536560000000000E-01     -7.563281000000000E+01      5.624695000000000E-01      1.273682000000000E+01
5760000000.000000      1.819382000000000E-01     -6.423046000000000E+01      4.482269000000000E-01      1.294983000000000E+00
5780000000.000000      2.276764000000000E-01     -6.577343000000000E+01      3.138123000000000E-01     -3.626953000000000E+00
5800000000.000000      2.591095000000000E-01     -7.342187000000000E+01      2.068863000000000E-01      7.824951000000000E+00
5820000000.000000      2.690430000000000E-01     -8.284374000000000E+01      1.908188000000000E-01      3.816601000000000E+01
5840000000.000000      2.591553000000000E-01     -9.118359000000000E+01      2.732239000000000E-01      5.405468000000000E+01
5860000000.000000      2.413712000000000E-01     -9.660156000000000E+01      3.737793000000000E-01      5.406445000000000E+01
5880000000.000000      2.279205000000000E-01     -9.951172000000000E+01      4.789276000000000E-01      4.866992000000000E+01
5900000000.000000      2.202454000000000E-01     -1.019765000000000E+02      5.953979000000000E-01      3.831445000000000E+01
5920000000.000000      2.127533000000000E-01     -1.049609000000000E+02      6.715088000000000E-01      2.452637000000000E+01
5940000000.000000      1.987228000000000E-01     -1.068750000000000E+02      7.012329000000000E-01      1.130859000000000E+01
5960000000.000000      1.807175000000000E-01     -1.052656000000000E+02      7.116699000000000E-01     -1.376038000000000E+00
5980000000.000000      1.683426000000000E-01     -9.746094000000000E+01      6.888123000000000E-01     -1.554443000000000E+01
6000000000.000000      1.837463000000000E-01     -8.851171000000000E+01      6.255798000000000E-01     -2.907715000000000E+01
6020000000.000000      2.186661000000000E-01     -8.672266000000000E+01      5.276489000000000E-01     -4.144336000000000E+01
6040000000.000000      2.546692000000000E-01     -9.201563000000000E+01      3.956757000000000E-01     -4.951953000000000E+01
6060000000.000000      2.783203000000000E-01     -1.010117000000000E+02      2.836151000000000E-01     -4.913867000000000E+01
6080000000.000000      2.888947000000000E-01     -1.108984000000000E+02      2.046738000000000E-01     -3.497461000000000E+01
