! Network Analyzer HP8722D
! Hewlett-Packard
! Data name: Linha & Wilkinson+CNT
! Saver's name: Rodrigo Anjos
! Comments: Teste da utilização de aquisição
continua pelo VNA HP8722D
! Time and date: 29/9/2025 13:26
!              Frequency                     S11                                                   S21                                                   S12                                                   S22
# HZ  S  MA R 50
3000000000.000000      4.238281000000000E-01     -5.589844000000000E+01      2.077026000000000E-01     -1.315703000000000E+02
3020000000.000000      4.482422000000000E-01     -7.003124000000000E+01      3.496552000000000E-01     -1.351016000000000E+02
3040000000.000000      4.535675000000000E-01     -8.309374000000000E+01      4.675903000000000E-01     -1.449844000000000E+02
3060000000.000000      4.450989000000000E-01     -9.506639000000000E+01      5.708618000000000E-01     -1.552813000000000E+02
3080000000.000000      4.294128000000000E-01     -1.063203000000000E+02      6.735840000000000E-01     -1.683750000000000E+02
3100000000.000000      4.090118000000000E-01     -1.175156000000000E+02      7.241516000000000E-01      1.768828000000000E+02
3120000000.000000      3.798218000000000E-01     -1.295859000000000E+02      7.317810000000000E-01      1.633437000000000E+02
3140000000.000000      3.391113000000000E-01     -1.425234000000000E+02      7.239075000000000E-01      1.504375000000000E+02
3160000000.000000      2.790985000000000E-01     -1.565781000000000E+02      6.836243000000000E-01      1.369922000000000E+02
3180000000.000000      1.994095000000000E-01     -1.691641000000000E+02      6.143188000000000E-01      1.243516000000000E+02
3200000000.000000      1.117783000000000E-01     -1.696484000000000E+02      5.184937000000000E-01      1.115391000000000E+02
3220000000.000000      7.966995000000000E-02     -1.241602000000000E+02      3.853760000000000E-01      1.007500000000000E+02
3240000000.000000      1.505890000000000E-01     -1.051055000000000E+02      2.466354000000000E-01      9.949999000000000E+01
3260000000.000000      2.301025000000000E-01     -1.152930000000000E+02      1.469193000000000E-01      1.253750000000000E+02
3280000000.000000      2.877960000000000E-01     -1.309922000000000E+02      2.031174000000000E-01      1.652891000000000E+02
3300000000.000000      3.206482000000000E-01     -1.473359000000000E+02      3.296204000000000E-01      1.695937000000000E+02
3320000000.000000      3.325348000000000E-01     -1.632266000000000E+02      4.627380000000000E-01      1.626016000000000E+02
3340000000.000000      3.291931000000000E-01     -1.785938000000000E+02      5.740356000000000E-01      1.504688000000000E+02
3360000000.000000      3.171082000000000E-01      1.666797000000000E+02      6.465149000000000E-01      1.383125000000000E+02
3380000000.000000      3.009186000000000E-01      1.524141000000000E+02      7.081299000000000E-01      1.270000000000000E+02
3400000000.000000      2.778473000000000E-01      1.376953000000000E+02      7.571411000000000E-01      1.131680000000000E+02
3420000000.000000      2.424469000000000E-01      1.228047000000000E+02      7.485352000000000E-01      9.832811000000000E+01
3440000000.000000      1.901169000000000E-01      1.079961000000000E+02      7.054443000000000E-01      8.542187000000000E+01
3460000000.000000      1.194878000000000E-01      9.739843000000000E+01      6.474915000000000E-01      7.244922000000000E+01
3480000000.000000      4.789543000000000E-02      1.218750000000000E+02      5.500793000000000E-01      5.893945000000000E+01
3500000000.000000      9.293747000000000E-02     -1.739766000000000E+02      4.240723000000000E-01      4.763672000000000E+01
3520000000.000000      1.845398000000000E-01      1.788984000000000E+02      2.786865000000000E-01      4.045117000000000E+01
3540000000.000000      2.631531000000000E-01      1.627656000000000E+02      1.472855000000000E-01      5.822460000000000E+01
3560000000.000000      3.227692000000000E-01      1.458750000000000E+02      1.669464000000000E-01      1.077070000000000E+02
3580000000.000000      3.599396000000000E-01      1.297969000000000E+02      2.940521000000000E-01      1.174805000000000E+02
3600000000.000000      3.764038000000000E-01      1.151445000000000E+02      4.189453000000000E-01      1.105273000000000E+02
3620000000.000000      3.780518000000000E-01      1.024844000000000E+02      5.219727000000000E-01      1.010703000000000E+02
3640000000.000000      3.683624000000000E-01      9.122265000000000E+01      6.219482000000000E-01      9.000780000000000E+01
3660000000.000000      3.523102000000000E-01      8.104687000000000E+01      6.926880000000000E-01      7.573437000000000E+01
3680000000.000000      3.290253000000000E-01      7.186328000000000E+01      7.117004000000000E-01      6.263476000000000E+01
3700000000.000000      2.984619000000000E-01      6.356835000000000E+01      7.210083000000000E-01      5.103710000000000E+01
3720000000.000000      2.545471000000000E-01      5.753906000000000E+01      7.238159000000000E-01      3.675195000000000E+01
3740000000.000000      2.038574000000000E-01      5.833202000000000E+01      6.641235000000000E-01      2.133496000000000E+01
3760000000.000000      1.775208000000000E-01      7.228516000000000E+01      5.655212000000000E-01      7.147949000000000E+00
3780000000.000000      2.116928000000000E-01      8.736328000000000E+01      4.360504000000000E-01     -6.097412000000000E+00
3800000000.000000      2.820435000000000E-01      8.899609000000000E+01      2.822723000000000E-01     -1.348438000000000E+01
3820000000.000000      3.496246000000000E-01      8.257030000000000E+01      1.535797000000000E-01     -3.131104000000000E-01
3840000000.000000      4.007721000000000E-01      7.381249000000000E+01      1.430054000000000E-01      4.790429000000000E+01
3860000000.000000      4.352875000000000E-01      6.529297000000000E+01      2.457047000000000E-01      6.535546000000000E+01
3880000000.000000      4.600525000000000E-01      5.781445000000000E+01      3.759155000000000E-01      6.119141000000000E+01
3900000000.000000      4.896393000000000E-01      5.063281000000000E+01      4.770050000000000E-01      4.785156000000000E+01
3920000000.000000      5.202637000000000E-01      4.307031000000000E+01      5.082092000000000E-01      3.605664000000000E+01
3940000000.000000      5.480957000000000E-01      3.411133000000000E+01      5.383606000000000E-01      2.936426000000000E+01
3960000000.000000      5.595398000000000E-01      2.378125000000000E+01      5.952454000000000E-01      2.000391000000000E+01
3980000000.000000      5.542908000000000E-01      1.351172000000000E+01      5.980530000000000E-01      8.148926000000000E+00
4000000000.000000      5.269775000000000E-01      3.056885000000000E+00      5.794067000000000E-01      1.240051000000000E+00
4020000000.000000      4.838257000000000E-01     -6.852783000000000E+00      5.969849000000000E-01     -6.622070000000000E+00
4040000000.000000      4.241180000000000E-01     -1.575879000000000E+01      5.849915000000000E-01     -1.883203000000000E+01
4060000000.000000      3.488312000000000E-01     -2.192481000000000E+01      5.278015000000000E-01     -2.903320000000000E+01
4080000000.000000      2.752838000000000E-01     -2.192383000000000E+01      4.678345000000000E-01     -3.815430000000000E+01
4100000000.000000      2.287521000000000E-01     -1.140527000000000E+01      3.671112000000000E-01     -4.747266000000000E+01
4120000000.000000      2.424011000000000E-01      1.778381000000000E+00      2.495193000000000E-01     -4.425000000000000E+01
4140000000.000000      2.901917000000000E-01      5.045410000000000E+00      2.031097000000000E-01     -2.005566000000000E+01
4160000000.000000      3.341980000000000E-01      9.049988000000000E-01      2.632599000000000E-01     -2.059937000000000E-01
4180000000.000000      3.617706000000000E-01     -5.884766000000000E+00      3.574677000000000E-01      3.900146000000000E+00
4200000000.000000      3.713074000000000E-01     -1.374268000000000E+01      4.876556000000000E-01      1.273010000000000E+00
4220000000.000000      3.670959000000000E-01     -2.094824000000000E+01      6.415405000000000E-01     -1.105664000000000E+01
4240000000.000000      3.478546000000000E-01     -2.846875000000000E+01      7.207031000000000E-01     -2.781738000000000E+01
4260000000.000000      3.091736000000000E-01     -3.420117000000000E+01      7.443237000000000E-01     -4.192968000000000E+01
4280000000.000000      2.595367000000000E-01     -3.547070000000000E+01      7.512207000000000E-01     -5.583008000000000E+01
4300000000.000000      2.224121000000000E-01     -2.732519000000000E+01      7.138977000000000E-01     -7.087500000000000E+01
4320000000.000000      2.361069000000000E-01     -1.469727000000000E+01      6.326904000000000E-01     -8.514843000000000E+01
4340000000.000000      2.935638000000000E-01     -1.061865000000000E+01      5.150452000000000E-01     -9.805859000000000E+01
4360000000.000000      3.588409000000000E-01     -1.565869000000000E+01      3.806152000000000E-01     -1.068203000000000E+02
4380000000.000000      4.050751000000000E-01     -2.466211000000000E+01      2.497330000000000E-01     -1.080898000000000E+02
4400000000.000000      4.261780000000000E-01     -3.460938000000000E+01      1.537399000000000E-01     -8.523829000000000E+01
4420000000.000000      4.247437000000000E-01     -4.401563000000000E+01      1.878662000000000E-01     -4.558789000000000E+01
4440000000.000000      4.079437000000000E-01     -5.204102000000000E+01      3.105316000000000E-01     -3.614258000000000E+01
4460000000.000000      3.876190000000000E-01     -5.891015000000000E+01      4.526825000000000E-01     -4.341797000000000E+01
4480000000.000000      3.677368000000000E-01     -6.505077000000000E+01      5.611267000000000E-01     -5.547852000000000E+01
4500000000.000000      3.466797000000000E-01     -7.158984000000000E+01      6.432190000000000E-01     -6.689453000000000E+01
4520000000.000000      3.128967000000000E-01     -7.939062000000000E+01      7.156372000000000E-01     -7.981640000000000E+01
4540000000.000000      2.620544000000000E-01     -8.551561000000000E+01      7.412109000000000E-01     -9.443750000000000E+01
4560000000.000000      2.013321000000000E-01     -8.385546000000000E+01      7.286682000000000E-01     -1.077812000000000E+02
4580000000.000000      1.746140000000000E-01     -6.805078000000000E+01      6.909485000000000E-01     -1.214844000000000E+02
4600000000.000000      2.122498000000000E-01     -5.404491000000000E+01      6.059570000000000E-01     -1.348359000000000E+02
4620000000.000000      2.770996000000000E-01     -5.540820000000000E+01      4.988251000000000E-01     -1.451875000000000E+02
4640000000.000000      3.306274000000000E-01     -6.525391000000000E+01      3.785706000000000E-01     -1.534531000000000E+02
4660000000.000000      3.548431000000000E-01     -7.850780000000000E+01      2.469177000000000E-01     -1.518594000000000E+02
4680000000.000000      3.466034000000000E-01     -9.244532000000000E+01      1.788788000000000E-01     -1.235859000000000E+02
4700000000.000000      3.092651000000000E-01     -1.056016000000000E+02      2.480698000000000E-01     -9.662889000000000E+01
4720000000.000000      2.532349000000000E-01     -1.161601000000000E+02      3.665009000000000E-01     -9.531641000000000E+01
4740000000.000000      1.905212000000000E-01     -1.215781000000000E+02      4.731598000000000E-01     -1.018008000000000E+02
4760000000.000000      1.388474000000000E-01     -1.177383000000000E+02      5.798645000000000E-01     -1.107265000000000E+02
4780000000.000000      1.126671000000000E-01     -1.016758000000000E+02      6.664734000000000E-01     -1.228516000000000E+02
4800000000.000000      1.185646000000000E-01     -8.387499000000000E+01      7.166138000000000E-01     -1.357422000000000E+02
4820000000.000000      1.469803000000000E-01     -7.397655000000000E+01      7.350769000000000E-01     -1.489844000000000E+02
4840000000.000000      1.881485000000000E-01     -7.421093000000000E+01      7.187500000000000E-01     -1.618047000000000E+02
4860000000.000000      2.308044000000000E-01     -8.048046000000000E+01      6.843567000000000E-01     -1.743125000000000E+02
4880000000.000000      2.686310000000000E-01     -9.075781000000000E+01      6.174927000000000E-01      1.716797000000000E+02
4900000000.000000      2.936707000000000E-01     -1.043164000000000E+02      4.948273000000000E-01      1.595781000000000E+02
4920000000.000000      2.994537000000000E-01     -1.193828000000000E+02      3.666077000000000E-01      1.534765000000000E+02
4940000000.000000      2.851868000000000E-01     -1.349844000000000E+02      2.516632000000000E-01      1.560469000000000E+02
4960000000.000000      2.540588000000000E-01     -1.503359000000000E+02      1.768875000000000E-01      1.772734000000000E+02
4980000000.000000      2.125320000000000E-01     -1.643437000000000E+02      2.144699000000000E-01     -1.512109000000000E+02
5000000000.000000      1.681137000000000E-01     -1.761250000000000E+02      3.297119000000000E-01     -1.435937000000000E+02
5020000000.000000      1.303711000000000E-01      1.739063000000000E+02      4.603729000000000E-01     -1.497266000000000E+02
5040000000.000000      1.000977000000000E-01      1.635547000000000E+02      5.696106000000000E-01     -1.605312000000000E+02
5060000000.000000      7.192612000000000E-02      1.485859000000000E+02      6.502380000000000E-01     -1.719453000000000E+02
5080000000.000000      4.145813000000000E-02      1.230547000000000E+02      7.181702000000000E-01      1.758125000000000E+02
5100000000.000000      1.656246000000000E-02      4.238477000000000E+01      7.559204000000000E-01      1.620391000000000E+02
5120000000.000000      4.077911000000000E-02     -5.159570000000000E+01      7.542419000000000E-01      1.478203000000000E+02
5140000000.000000      7.213974000000000E-02     -8.739843000000000E+01      7.026062000000000E-01      1.343828000000000E+02
5160000000.000000      9.612274000000000E-02     -1.189648000000000E+02      6.274109000000000E-01      1.219219000000000E+02
5180000000.000000      1.095161000000000E-01     -1.495859000000000E+02      5.324402000000000E-01      1.106367000000000E+02
5200000000.000000      1.121063000000000E-01      1.775547000000000E+02      4.149323000000000E-01      1.008203000000000E+02
5220000000.000000      1.098442000000000E-01      1.418672000000000E+02      2.830048000000000E-01      9.820313000000000E+01
5240000000.000000      1.086578000000000E-01      1.054102000000000E+02      1.836700000000000E-01      1.152344000000000E+02
5260000000.000000      1.130905000000000E-01      7.205078000000000E+01      1.964798000000000E-01      1.494609000000000E+02
5280000000.000000      1.208878000000000E-01      4.574804000000000E+01      2.962189000000000E-01      1.605547000000000E+02
5300000000.000000      1.273041000000000E-01      2.488183000000000E+01      4.096527000000000E-01      1.580625000000000E+02
5320000000.000000      1.330490000000000E-01      8.280762000000000E+00      5.282593000000000E-01      1.503515000000000E+02
5340000000.000000      1.388397000000000E-01     -5.840820000000000E+00      6.384583000000000E-01      1.385078000000000E+02
5360000000.000000      1.433334000000000E-01     -2.141699000000000E+01      7.047119000000000E-01      1.238203000000000E+02
5380000000.000000      1.388397000000000E-01     -3.883398000000000E+01      7.164917000000000E-01      1.104492000000000E+02
5400000000.000000      1.196861000000000E-01     -5.689062000000000E+01      7.195435000000000E-01      9.889452000000000E+01
5420000000.000000      8.431244000000000E-02     -7.355859000000000E+01      7.041016000000000E-01      8.584375000000000E+01
5440000000.000000      2.994919000000000E-02     -7.751953000000000E+01      6.490479000000000E-01      7.153515000000000E+01
5460000000.000000      4.378510000000000E-02      3.899219000000000E+01      5.400085000000000E-01      5.841210000000000E+01
5480000000.000000      1.133118000000000E-01      3.085742000000000E+01      4.125824000000000E-01      4.935156000000000E+01
5500000000.000000      1.754837000000000E-01      1.563184000000000E+01      2.923737000000000E-01      4.726953000000000E+01
5520000000.000000      2.213364000000000E-01      6.248474000000000E-01      1.950684000000000E-01      5.908398000000000E+01
5540000000.000000      2.517853000000000E-01     -1.319189000000000E+01      1.813126000000000E-01      9.064844000000000E+01
5560000000.000000      2.705231000000000E-01     -2.512890000000000E+01      2.629852000000000E-01      1.086719000000000E+02
5580000000.000000      2.831421000000000E-01     -3.495117000000000E+01      3.841095000000000E-01      1.084648000000000E+02
5600000000.000000      2.940521000000000E-01     -4.384375000000000E+01      5.063782000000000E-01      9.958984000000000E+01
5620000000.000000      3.044739000000000E-01     -5.305859000000000E+01      5.960083000000000E-01      8.702343000000000E+01
5640000000.000000      3.077240000000000E-01     -6.276562000000000E+01      6.460266000000000E-01      7.522655000000000E+01
5660000000.000000      2.983704000000000E-01     -7.350390000000000E+01      6.830139000000000E-01      6.371484000000000E+01
5680000000.000000      2.688293000000000E-01     -8.392969000000000E+01      6.970825000000000E-01      5.123437000000000E+01
5700000000.000000      2.214813000000000E-01     -9.132421000000000E+01      6.835938000000000E-01      3.868359000000000E+01
5720000000.000000      1.709976000000000E-01     -8.994532000000000E+01      6.436768000000000E-01      2.596680000000000E+01
5740000000.000000      1.502228000000000E-01     -7.548046000000000E+01      5.650940000000000E-01      1.255029000000000E+01
5760000000.000000      1.787186000000000E-01     -6.367969000000000E+01      4.496918000000000E-01      1.187866000000000E+00
5780000000.000000      2.248535000000000E-01     -6.530859000000000E+01      3.160553000000000E-01     -3.971558000000000E+00
5800000000.000000      2.576141000000000E-01     -7.307031000000000E+01      2.084427000000000E-01      6.805908000000000E+00
5820000000.000000      2.666931000000000E-01     -8.255468000000000E+01      1.896439000000000E-01      3.745703000000000E+01
5840000000.000000      2.572479000000000E-01     -9.107031000000000E+01      2.706909000000000E-01      5.397851000000000E+01
5860000000.000000      2.387085000000000E-01     -9.665625000000000E+01      3.721313000000000E-01      5.399804000000000E+01
5880000000.000000      2.244415000000000E-01     -9.994141000000000E+01      4.783783000000000E-01      4.865624000000000E+01
5900000000.000000      2.166595000000000E-01     -1.021836000000000E+02      5.954285000000000E-01      3.837109000000000E+01
5920000000.000000      2.092285000000000E-01     -1.050508000000000E+02      6.736450000000000E-01      2.445605000000000E+01
5940000000.000000      1.951904000000000E-01     -1.070391000000000E+02      7.023926000000000E-01      1.125781000000000E+01
5960000000.000000      1.777344000000000E-01     -1.052773000000000E+02      7.127991000000000E-01     -1.587524000000000E+00
5980000000.000000      1.653214000000000E-01     -9.767187000000000E+01      6.911926000000000E-01     -1.551709000000000E+01
6000000000.000000      1.811447000000000E-01     -8.856640000000000E+01      6.286011000000000E-01     -2.925976000000000E+01
6020000000.000000      2.153473000000000E-01     -8.660156000000000E+01      5.284119000000000E-01     -4.172071000000000E+01
6040000000.000000      2.515411000000000E-01     -9.183594000000000E+01      4.009094000000000E-01     -4.981640000000000E+01
6060000000.000000      2.747498000000000E-01     -1.009219000000000E+02      2.853546000000000E-01     -4.976953000000000E+01
6080000000.000000      2.851715000000000E-01     -1.111367000000000E+02      2.055130000000000E-01     -3.591601000000000E+01
