! Network Analyzer HP8722D
! Hewlett-Packard
! Data name: Linha & Wilkinson+CNT
! Saver's name: Rodrigo Anjos
! Comments: Teste da utilização de aquisição
continua pelo VNA HP8722D
! Time and date: 29/9/2025 11:54
!              Frequency                     S11                                                   S21                                                   S12                                                   S22
# HZ  S  MA R 50
3000000000.000000      4.238434000000000E-01     -5.674999000000000E+01      2.090836000000000E-01     -1.314687000000000E+02
3020000000.000000      4.483185000000000E-01     -7.072656000000000E+01      3.516541000000000E-01     -1.351484000000000E+02
3040000000.000000      4.534302000000000E-01     -8.344141000000000E+01      4.680481000000000E-01     -1.450547000000000E+02
3060000000.000000      4.456482000000000E-01     -9.550390000000000E+01      5.724792000000000E-01     -1.554062000000000E+02
3080000000.000000      4.309387000000000E-01     -1.067070000000000E+02      6.734924000000000E-01     -1.683984000000000E+02
3100000000.000000      4.103699000000000E-01     -1.177773000000000E+02      7.239685000000000E-01      1.767422000000000E+02
3120000000.000000      3.811188000000000E-01     -1.296641000000000E+02      7.313538000000000E-01      1.633359000000000E+02
3140000000.000000      3.410950000000000E-01     -1.425781000000000E+02      7.234497000000000E-01      1.504531000000000E+02
3160000000.000000      2.804871000000000E-01     -1.562656000000000E+02      6.843567000000000E-01      1.368984000000000E+02
3180000000.000000      2.014771000000000E-01     -1.684609000000000E+02      6.126404000000000E-01      1.244687000000000E+02
3200000000.000000      1.136818000000000E-01     -1.680859000000000E+02      5.179749000000000E-01      1.115469000000000E+02
3220000000.000000      8.457947000000000E-02     -1.238125000000000E+02      3.833771000000000E-01      1.008789000000000E+02
3240000000.000000      1.554718000000000E-01     -1.058594000000000E+02      2.452393000000000E-01      9.984375000000000E+01
3260000000.000000      2.352905000000000E-01     -1.159219000000000E+02      1.474457000000000E-01      1.261953000000000E+02
3280000000.000000      2.927094000000000E-01     -1.312344000000000E+02      2.052002000000000E-01      1.654453000000000E+02
3300000000.000000      3.247681000000000E-01     -1.473125000000000E+02      3.321686000000000E-01      1.694375000000000E+02
3320000000.000000      3.363190000000000E-01     -1.630078000000000E+02      4.644470000000000E-01      1.623750000000000E+02
3340000000.000000      3.325500000000000E-01     -1.782578000000000E+02      5.761414000000000E-01      1.502891000000000E+02
3360000000.000000      3.195496000000000E-01      1.671719000000000E+02      6.475830000000000E-01      1.381406000000000E+02
3380000000.000000      3.025208000000000E-01      1.531328000000000E+02      7.095947000000000E-01      1.269609000000000E+02
3400000000.000000      2.792664000000000E-01      1.385469000000000E+02      7.579041000000000E-01      1.130898000000000E+02
3420000000.000000      2.427597000000000E-01      1.236016000000000E+02      7.478638000000000E-01      9.840233000000000E+01
3440000000.000000      1.889038000000000E-01      1.091484000000000E+02      7.045288000000000E-01      8.545313000000000E+01
3460000000.000000      1.175537000000000E-01      9.931250000000000E+01      6.452637000000000E-01      7.234375000000000E+01
3480000000.000000      4.906464000000000E-02      1.277266000000000E+02      5.474243000000000E-01      5.890820000000000E+01
3500000000.000000      9.770966000000000E-02     -1.737969000000000E+02      4.229736000000000E-01      4.757813000000000E+01
3520000000.000000      1.887360000000000E-01      1.791563000000000E+02      2.770081000000000E-01      4.068749000000000E+01
3540000000.000000      2.667542000000000E-01      1.629844000000000E+02      1.470871000000000E-01      5.916406000000000E+01
3560000000.000000      3.251190000000000E-01      1.461953000000000E+02      1.689072000000000E-01      1.078203000000000E+02
3580000000.000000      3.607330000000000E-01      1.300859000000000E+02      2.959137000000000E-01      1.174180000000000E+02
3600000000.000000      3.759308000000000E-01      1.155000000000000E+02      4.207611000000000E-01      1.104570000000000E+02
3620000000.000000      3.771515000000000E-01      1.026953000000000E+02      5.219421000000000E-01      1.010859000000000E+02
3640000000.000000      3.675232000000000E-01      9.144922000000000E+01      6.244812000000000E-01      8.982422000000000E+01
3660000000.000000      3.498993000000000E-01      8.118750000000000E+01      6.937561000000000E-01      7.555469000000000E+01
3680000000.000000      3.267975000000000E-01      7.197266000000000E+01      7.114868000000000E-01      6.257617000000000E+01
3700000000.000000      2.957611000000000E-01      6.371484000000000E+01      7.212219000000000E-01      5.075585000000000E+01
3720000000.000000      2.510834000000000E-01      5.765429000000000E+01      7.222900000000000E-01      3.660351000000000E+01
3740000000.000000      2.011948000000000E-01      5.866796000000000E+01      6.613159000000000E-01      2.121680000000000E+01
3760000000.000000      1.752548000000000E-01      7.300781000000000E+01      5.645142000000000E-01      6.944580000000000E+00
3780000000.000000      2.110443000000000E-01      8.791016000000000E+01      4.329987000000000E-01     -6.027588000000000E+00
3800000000.000000      2.819366000000000E-01      8.923046000000000E+01      2.796173000000000E-01     -1.326904000000000E+01
3820000000.000000      3.490143000000000E-01      8.263672000000000E+01      1.524124000000000E-01      5.328369000000000E-01
3840000000.000000      3.991852000000000E-01      7.382813000000000E+01      1.453629000000000E-01      4.842187000000000E+01
3860000000.000000      4.340973000000000E-01      6.520702000000000E+01      2.487106000000000E-01      6.532421000000000E+01
3880000000.000000      4.588013000000000E-01      5.763672000000000E+01      3.781128000000000E-01      6.099999000000000E+01
3900000000.000000      4.882507000000000E-01      5.042382000000000E+01      4.795837000000000E-01      4.753320000000000E+01
3920000000.000000      5.185852000000000E-01      4.260351000000000E+01      5.102234000000000E-01      3.581250000000000E+01
3940000000.000000      5.448608000000000E-01      3.363867000000000E+01      5.404968000000000E-01      2.939746000000000E+01
3960000000.000000      5.587463000000000E-01      2.365332000000000E+01      5.961304000000000E-01      1.981152000000000E+01
3980000000.000000      5.532837000000000E-01      1.316406000000000E+01      5.981445000000000E-01      8.041992000000000E+00
4000000000.000000      5.241089000000000E-01      2.518555000000000E+00      5.806274000000000E-01      1.075256000000000E+00
4020000000.000000      4.814453000000000E-01     -7.424072000000000E+00      5.975037000000000E-01     -6.889893000000000E+00
4040000000.000000      4.215546000000000E-01     -1.624902000000000E+01      5.847168000000000E-01     -1.899023000000000E+01
4060000000.000000      3.456421000000000E-01     -2.230567000000000E+01      5.259705000000000E-01     -2.908789000000000E+01
4080000000.000000      2.716827000000000E-01     -2.233984000000000E+01      4.652252000000000E-01     -3.832031000000000E+01
4100000000.000000      2.264328000000000E-01     -1.150146000000000E+01      3.636475000000000E-01     -4.724218000000000E+01
4120000000.000000      2.412720000000000E-01      1.601257000000000E+00      2.481766000000000E-01     -4.373632000000000E+01
4140000000.000000      2.897949000000000E-01      4.708984000000000E+00      2.041245000000000E-01     -1.933887000000000E+01
4160000000.000000      3.336029000000000E-01      5.479431000000000E-01      2.660980000000000E-01     -7.278442000000000E-02
4180000000.000000      3.611298000000000E-01     -6.421631000000000E+00      3.593292000000000E-01      3.714722000000000E+00
4200000000.000000      3.704224000000000E-01     -1.417383000000000E+01      4.892883000000000E-01      1.139832000000000E+00
4220000000.000000      3.660278000000000E-01     -2.132910000000000E+01      6.426697000000000E-01     -1.146973000000000E+01
4240000000.000000      3.468628000000000E-01     -2.880664000000000E+01      7.215881000000000E-01     -2.800195000000000E+01
4260000000.000000      3.079834000000000E-01     -3.450976000000000E+01      7.412109000000000E-01     -4.196485000000000E+01
4280000000.000000      2.583618000000000E-01     -3.566992000000000E+01      7.509155000000000E-01     -5.586328000000000E+01
4300000000.000000      2.227554000000000E-01     -2.725586000000000E+01      7.114868000000000E-01     -7.094140000000000E+01
4320000000.000000      2.373428000000000E-01     -1.482080000000000E+01      6.292419000000000E-01     -8.529688000000000E+01
4340000000.000000      2.957306000000000E-01     -1.101123000000000E+01      5.132751000000000E-01     -9.796484000000000E+01
4360000000.000000      3.608246000000000E-01     -1.614648000000000E+01      3.775940000000000E-01     -1.066953000000000E+02
4380000000.000000      4.059448000000000E-01     -2.512500000000000E+01      2.472458000000000E-01     -1.076250000000000E+02
4400000000.000000      4.270325000000000E-01     -3.508398000000000E+01      1.534958000000000E-01     -8.394922000000000E+01
4420000000.000000      4.251404000000000E-01     -4.436328000000000E+01      1.900940000000000E-01     -4.515429000000000E+01
4440000000.000000      4.088135000000000E-01     -5.234765000000000E+01      3.127747000000000E-01     -3.616601000000000E+01
4460000000.000000      3.886261000000000E-01     -5.901367000000000E+01      4.541321000000000E-01     -4.338086000000000E+01
4480000000.000000      3.684692000000000E-01     -6.515625000000000E+01      5.628357000000000E-01     -5.551758000000000E+01
4500000000.000000      3.468018000000000E-01     -7.212109000000000E+01      6.436157000000000E-01     -6.700781000000000E+01
4520000000.000000      3.130951000000000E-01     -7.970312000000000E+01      7.158813000000000E-01     -8.002733000000000E+01
4540000000.000000      2.608948000000000E-01     -8.561327000000000E+01      7.426147000000000E-01     -9.450390000000000E+01
4560000000.000000      2.005081000000000E-01     -8.352734000000000E+01      7.284851000000000E-01     -1.079492000000000E+02
4580000000.000000      1.751709000000000E-01     -6.733593000000000E+01      6.885681000000000E-01     -1.216406000000000E+02
4600000000.000000      2.140350000000000E-01     -5.383203000000000E+01      6.024170000000000E-01     -1.347969000000000E+02
4620000000.000000      2.792053000000000E-01     -5.549999000000000E+01      4.953766000000000E-01     -1.450000000000000E+02
4640000000.000000      3.318939000000000E-01     -6.535546000000000E+01      3.763733000000000E-01     -1.529844000000000E+02
4660000000.000000      3.539886000000000E-01     -7.848046000000000E+01      2.450485000000000E-01     -1.508594000000000E+02
4680000000.000000      3.445587000000000E-01     -9.216406000000000E+01      1.817245000000000E-01     -1.224258000000000E+02
4700000000.000000      3.062592000000000E-01     -1.048906000000000E+02      2.527466000000000E-01     -9.672264000000000E+01
4720000000.000000      2.502594000000000E-01     -1.151250000000000E+02      3.710938000000000E-01     -9.582422000000000E+01
4740000000.000000      1.888428000000000E-01     -1.194531000000000E+02      4.765167000000000E-01     -1.021484000000000E+02
4760000000.000000      1.389618000000000E-01     -1.144609000000000E+02      5.809326000000000E-01     -1.110195000000000E+02
4780000000.000000      1.169662000000000E-01     -9.828514000000000E+01      6.675110000000000E-01     -1.233125000000000E+02
4800000000.000000      1.257172000000000E-01     -8.202343000000000E+01      7.171631000000000E-01     -1.359219000000000E+02
4820000000.000000      1.559448000000000E-01     -7.370312000000000E+01      7.336121000000000E-01     -1.493906000000000E+02
4840000000.000000      1.967316000000000E-01     -7.407421000000000E+01      7.156067000000000E-01     -1.621406000000000E+02
4860000000.000000      2.393112000000000E-01     -8.073828000000000E+01      6.810913000000000E-01     -1.745234000000000E+02
4880000000.000000      2.754974000000000E-01     -9.101954000000000E+01      6.148376000000000E-01      1.718047000000000E+02
4900000000.000000      2.991791000000000E-01     -1.044375000000000E+02      4.936676000000000E-01      1.597109000000000E+02
4920000000.000000      3.036041000000000E-01     -1.192188000000000E+02      3.634644000000000E-01      1.535312000000000E+02
4940000000.000000      2.879944000000000E-01     -1.346641000000000E+02      2.502441000000000E-01      1.560937000000000E+02
4960000000.000000      2.559509000000000E-01     -1.496484000000000E+02      1.769333000000000E-01      1.779063000000000E+02
4980000000.000000      2.130127000000000E-01     -1.633516000000000E+02      2.156830000000000E-01     -1.509844000000000E+02
5000000000.000000      1.682205000000000E-01     -1.745078000000000E+02      3.311462000000000E-01     -1.437109000000000E+02
5020000000.000000      1.298294000000000E-01      1.761172000000000E+02      4.621887000000000E-01     -1.498047000000000E+02
5040000000.000000      9.930420000000000E-02      1.667891000000000E+02      5.705566000000000E-01     -1.608125000000000E+02
5060000000.000000      7.029343000000000E-02      1.527031000000000E+02      6.512146000000000E-01     -1.720703000000000E+02
5080000000.000000      3.886795000000000E-02      1.285781000000000E+02      7.178040000000000E-01      1.757578000000000E+02
5100000000.000000      1.263046000000000E-02      3.648828000000000E+01      7.531738000000000E-01      1.619766000000000E+02
5120000000.000000      4.181480000000000E-02     -5.665429000000000E+01      7.510376000000000E-01      1.477578000000000E+02
5140000000.000000      7.442093000000000E-02     -8.942186000000000E+01      7.008667000000000E-01      1.341484000000000E+02
5160000000.000000      9.829330000000000E-02     -1.194336000000000E+02      6.255188000000000E-01      1.219297000000000E+02
5180000000.000000      1.105461000000000E-01     -1.493047000000000E+02      5.298157000000000E-01      1.105273000000000E+02
5200000000.000000      1.115685000000000E-01      1.783672000000000E+02      4.127045000000000E-01      1.010742000000000E+02
5220000000.000000      1.077957000000000E-01      1.423437000000000E+02      2.802582000000000E-01      9.848827000000000E+01
5240000000.000000      1.063309000000000E-01      1.055312000000000E+02      1.826859000000000E-01      1.160938000000000E+02
5260000000.000000      1.104202000000000E-01      7.168359000000000E+01      1.981277000000000E-01      1.499844000000000E+02
5280000000.000000      1.180458000000000E-01      4.489258000000000E+01      2.989807000000000E-01      1.607656000000000E+02
5300000000.000000      1.248245000000000E-01      2.368457000000000E+01      4.124451000000000E-01      1.579844000000000E+02
5320000000.000000      1.311188000000000E-01      7.196045000000000E+00      5.290222000000000E-01      1.502266000000000E+02
5340000000.000000      1.380005000000000E-01     -7.001221000000000E+00      6.398010000000000E-01      1.382891000000000E+02
5360000000.000000      1.436462000000000E-01     -2.222070000000000E+01      7.037659000000000E-01      1.238594000000000E+02
5380000000.000000      1.390915000000000E-01     -3.973242000000000E+01      7.159729000000000E-01      1.103984000000000E+02
5400000000.000000      1.209259000000000E-01     -5.735156000000000E+01      7.149048000000000E-01      9.872656000000000E+01
5420000000.000000      8.559799000000000E-02     -7.401953000000000E+01      7.023926000000000E-01      8.570313000000000E+01
5440000000.000000      3.198051000000000E-02     -7.725780000000000E+01      6.447144000000000E-01      7.150781000000000E+01
5460000000.000000      4.281807000000000E-02      3.553515000000000E+01      5.359802000000000E-01      5.837500000000000E+01
5480000000.000000      1.120567000000000E-01      2.916113000000000E+01      4.087372000000000E-01      4.942187000000000E+01
5500000000.000000      1.745605000000000E-01      1.427490000000000E+01      2.898254000000000E-01      4.756055000000000E+01
5520000000.000000      2.207870000000000E-01     -5.191040000000000E-01      1.939545000000000E-01      6.019531000000000E+01
5540000000.000000      2.524872000000000E-01     -1.415332000000000E+01      1.826782000000000E-01      9.150391000000000E+01
5560000000.000000      2.708282000000000E-01     -2.583301000000000E+01      2.653198000000000E-01      1.087812000000000E+02
5580000000.000000      2.840576000000000E-01     -3.557226000000000E+01      3.864899000000000E-01      1.084883000000000E+02
5600000000.000000      2.951355000000000E-01     -4.425390000000000E+01      5.079651000000000E-01      9.940233000000000E+01
5620000000.000000      3.060303000000000E-01     -5.336914000000000E+01      5.966797000000000E-01      8.690233000000000E+01
5640000000.000000      3.095245000000000E-01     -6.310937000000000E+01      6.463928000000000E-01      7.493750000000000E+01
5660000000.000000      3.003235000000000E-01     -7.374218000000000E+01      6.837158000000000E-01      6.374609000000000E+01
5680000000.000000      2.714081000000000E-01     -8.401562000000000E+01      6.969910000000000E-01      5.101757000000000E+01
5700000000.000000      2.248917000000000E-01     -9.128906000000000E+01      6.818237000000000E-01      3.855469000000000E+01
5720000000.000000      1.742020000000000E-01     -8.985937000000000E+01      6.403809000000000E-01      2.606152000000000E+01
5740000000.000000      1.537323000000000E-01     -7.585546000000000E+01      5.619812000000000E-01      1.271924000000000E+01
5760000000.000000      1.818314000000000E-01     -6.432812000000000E+01      4.469299000000000E-01      1.363647000000000E+00
5780000000.000000      2.275848000000000E-01     -6.580078000000000E+01      3.134155000000000E-01     -3.731323000000000E+00
5800000000.000000      2.596130000000000E-01     -7.345703000000000E+01      2.062531000000000E-01      7.984131000000000E+00
5820000000.000000      2.683868000000000E-01     -8.288671000000000E+01      1.906815000000000E-01      3.829102000000000E+01
5840000000.000000      2.579956000000000E-01     -9.117579000000000E+01      2.734528000000000E-01      5.417773000000000E+01
5860000000.000000      2.414093000000000E-01     -9.667187000000000E+01      3.746338000000000E-01      5.405663000000000E+01
5880000000.000000      2.275238000000000E-01     -9.979296000000000E+01      4.781342000000000E-01      4.855663000000000E+01
5900000000.000000      2.206116000000000E-01     -1.022187000000000E+02      5.946350000000000E-01      3.827734000000000E+01
5920000000.000000      2.126617000000000E-01     -1.049101000000000E+02      6.713867000000000E-01      2.431347000000000E+01
5940000000.000000      1.986465000000000E-01     -1.068672000000000E+02      7.010193000000000E-01      1.114404000000000E+01
5960000000.000000      1.796951000000000E-01     -1.054140000000000E+02      7.118835000000000E-01     -1.660339000000000E+00
5980000000.000000      1.678772000000000E-01     -9.755077000000000E+01      6.885376000000000E-01     -1.549805000000000E+01
6000000000.000000      1.839600000000000E-01     -8.863281000000000E+01      6.237488000000000E-01     -2.912695000000000E+01
6020000000.000000      2.182617000000000E-01     -8.678905000000000E+01      5.261230000000000E-01     -4.174218000000000E+01
6040000000.000000      2.541809000000000E-01     -9.222265000000000E+01      3.962555000000000E-01     -4.962304000000000E+01
6060000000.000000      2.777710000000000E-01     -1.011719000000000E+02      2.826538000000000E-01     -4.916406000000000E+01
6080000000.000000      2.886505000000000E-01     -1.110820000000000E+02      2.045593000000000E-01     -3.499609000000000E+01
