! Network Analyzer HP8722D
! Hewlett-Packard
! Data name: Linha & Wilkinson+CNT
! Saver's name: Rodrigo Anjos
! Comments: Teste da utilização de aquisição
continua pelo VNA HP8722D
! Time and date: 29/9/2025 11:57
!              Frequency                     S11                                                   S21                                                   S12                                                   S22
# HZ  S  MA R 50
3000000000.000000      4.217682000000000E-01     -5.644336000000000E+01      2.089539000000000E-01     -1.314766000000000E+02
3020000000.000000      4.463348000000000E-01     -7.069140000000000E+01      3.513336000000000E-01     -1.350547000000000E+02
3040000000.000000      4.516296000000000E-01     -8.352734000000000E+01      4.683838000000000E-01     -1.449844000000000E+02
3060000000.000000      4.454803000000000E-01     -9.544922000000000E+01      5.721436000000000E-01     -1.554141000000000E+02
3080000000.000000      4.309387000000000E-01     -1.065703000000000E+02      6.730042000000000E-01     -1.684141000000000E+02
3100000000.000000      4.111176000000000E-01     -1.177734000000000E+02      7.238770000000000E-01      1.768281000000000E+02
3120000000.000000      3.821106000000000E-01     -1.296641000000000E+02      7.314453000000000E-01      1.634063000000000E+02
3140000000.000000      3.409882000000000E-01     -1.426484000000000E+02      7.224121000000000E-01      1.505781000000000E+02
3160000000.000000      2.810364000000000E-01     -1.563125000000000E+02      6.828003000000000E-01      1.369531000000000E+02
3180000000.000000      2.013168000000000E-01     -1.685469000000000E+02      6.130066000000000E-01      1.243828000000000E+02
3200000000.000000      1.143150000000000E-01     -1.684453000000000E+02      5.177612000000000E-01      1.115586000000000E+02
3220000000.000000      8.412933000000000E-02     -1.243164000000000E+02      3.835907000000000E-01      1.008594000000000E+02
3240000000.000000      1.548462000000000E-01     -1.060273000000000E+02      2.452087000000000E-01      9.984375000000000E+01
3260000000.000000      2.338562000000000E-01     -1.157773000000000E+02      1.472015000000000E-01      1.263047000000000E+02
3280000000.000000      2.913361000000000E-01     -1.311719000000000E+02      2.052383000000000E-01      1.655156000000000E+02
3300000000.000000      3.244019000000000E-01     -1.473516000000000E+02      3.313599000000000E-01      1.695937000000000E+02
3320000000.000000      3.358917000000000E-01     -1.630938000000000E+02      4.641113000000000E-01      1.626016000000000E+02
3340000000.000000      3.319397000000000E-01     -1.783594000000000E+02      5.763855000000000E-01      1.504297000000000E+02
3360000000.000000      3.191223000000000E-01      1.671328000000000E+02      6.470032000000000E-01      1.383281000000000E+02
3380000000.000000      3.020782000000000E-01      1.529922000000000E+02      7.098999000000000E-01      1.270313000000000E+02
3400000000.000000      2.784729000000000E-01      1.383594000000000E+02      7.579651000000000E-01      1.132813000000000E+02
3420000000.000000      2.423706000000000E-01      1.235234000000000E+02      7.485657000000000E-01      9.852343000000000E+01
3440000000.000000      1.885147000000000E-01      1.090039000000000E+02      7.040100000000000E-01      8.546875000000000E+01
3460000000.000000      1.175766000000000E-01      9.887108000000000E+01      6.447144000000000E-01      7.242578000000000E+01
3480000000.000000      4.784393000000000E-02      1.268398000000000E+02      5.486755000000000E-01      5.908203000000000E+01
3500000000.000000      9.676361000000000E-02     -1.735937000000000E+02      4.225311000000000E-01      4.757813000000000E+01
3520000000.000000      1.881180000000000E-01      1.793203000000000E+02      2.768402000000000E-01      4.078515000000000E+01
3540000000.000000      2.660980000000000E-01      1.632344000000000E+02      1.468582000000000E-01      5.899804000000000E+01
3560000000.000000      3.246613000000000E-01      1.462734000000000E+02      1.684647000000000E-01      1.079883000000000E+02
3580000000.000000      3.599548000000000E-01      1.301406000000000E+02      2.963104000000000E-01      1.174922000000000E+02
3600000000.000000      3.755951000000000E-01      1.154922000000000E+02      4.213409000000000E-01      1.105000000000000E+02
3620000000.000000      3.773499000000000E-01      1.027695000000000E+02      5.227661000000000E-01      1.009687000000000E+02
3640000000.000000      3.667450000000000E-01      9.142187000000000E+01      6.243896000000000E-01      8.982422000000000E+01
3660000000.000000      3.500824000000000E-01      8.134766000000000E+01      6.933899000000000E-01      7.579296000000000E+01
3680000000.000000      3.271790000000000E-01      7.205078000000000E+01      7.104187000000000E-01      6.247656000000000E+01
3700000000.000000      2.961121000000000E-01      6.372460000000000E+01      7.196350000000000E-01      5.089062000000000E+01
3720000000.000000      2.517395000000000E-01      5.762109000000000E+01      7.234497000000000E-01      3.668164000000000E+01
3740000000.000000      2.007141000000000E-01      5.865820000000000E+01      6.618958000000000E-01      2.127441000000000E+01
3760000000.000000      1.757126000000000E-01      7.299218000000000E+01      5.639648000000000E-01      7.093018000000000E+00
3780000000.000000      2.108383000000000E-01      8.791796000000000E+01      4.332275000000000E-01     -6.067383000000000E+00
3800000000.000000      2.818146000000000E-01      8.921093000000000E+01      2.799377000000000E-01     -1.325244000000000E+01
3820000000.000000      3.491516000000000E-01      8.264452000000000E+01      1.528168000000000E-01      2.925110000000000E-01
3840000000.000000      3.995209000000000E-01      7.380468000000000E+01      1.446915000000000E-01      4.835742000000000E+01
3860000000.000000      4.340515000000000E-01      6.525000000000000E+01      2.480316000000000E-01      6.526562000000000E+01
3880000000.000000      4.582520000000000E-01      5.763281000000000E+01      3.777924000000000E-01      6.104101000000000E+01
3900000000.000000      4.875946000000000E-01      5.052343000000000E+01      4.787140000000000E-01      4.754296000000000E+01
3920000000.000000      5.172729000000000E-01      4.271093000000000E+01      5.090637000000000E-01      3.582031000000000E+01
3940000000.000000      5.470581000000000E-01      3.366992000000000E+01      5.407104000000000E-01      2.927929000000000E+01
3960000000.000000      5.575867000000000E-01      2.357031000000000E+01      5.964050000000000E-01      1.989551000000000E+01
3980000000.000000      5.518188000000000E-01      1.311475000000000E+01      5.978394000000000E-01      8.148926000000000E+00
4000000000.000000      5.243225000000000E-01      2.714966000000000E+00      5.798340000000000E-01      9.983826000000000E-01
4020000000.000000      4.817200000000000E-01     -7.340332000000000E+00      5.970459000000000E-01     -6.674316000000000E+00
4040000000.000000      4.228973000000000E-01     -1.609668000000000E+01      5.842590000000000E-01     -1.890234000000000E+01
4060000000.000000      3.471680000000000E-01     -2.231738000000000E+01      5.259399000000000E-01     -2.900195000000000E+01
4080000000.000000      2.732544000000000E-01     -2.223535000000000E+01      4.683228000000000E-01     -3.827539000000000E+01
4100000000.000000      2.271805000000000E-01     -1.171289000000000E+01      3.646088000000000E-01     -4.751562000000000E+01
4120000000.000000      2.419662000000000E-01      1.404846000000000E+00      2.482224000000000E-01     -4.375977000000000E+01
4140000000.000000      2.900696000000000E-01      4.582520000000000E+00      2.037277000000000E-01     -1.940527000000000E+01
4160000000.000000      3.338013000000000E-01      4.614258000000000E-01      2.654724000000000E-01     -4.669189000000000E-02
4180000000.000000      3.615723000000000E-01     -6.379150000000000E+00      3.593140000000000E-01      3.783325000000000E+00
4200000000.000000      3.712769000000000E-01     -1.421631000000000E+01      4.895020000000000E-01      1.289490000000000E+00
4220000000.000000      3.662109000000000E-01     -2.138672000000000E+01      6.418152000000000E-01     -1.118018000000000E+01
4240000000.000000      3.468323000000000E-01     -2.896191000000000E+01      7.218933000000000E-01     -2.783594000000000E+01
4260000000.000000      3.086700000000000E-01     -3.472461000000000E+01      7.419434000000000E-01     -4.202148000000000E+01
4280000000.000000      2.590942000000000E-01     -3.574804000000000E+01      7.498779000000000E-01     -5.584570000000000E+01
4300000000.000000      2.228622000000000E-01     -2.764941000000000E+01      7.128296000000000E-01     -7.091015000000000E+01
4320000000.000000      2.372589000000000E-01     -1.498682000000000E+01      6.304932000000000E-01     -8.519922000000000E+01
4340000000.000000      2.950897000000000E-01     -1.112256000000000E+01      5.124512000000000E-01     -9.805468000000000E+01
4360000000.000000      3.599091000000000E-01     -1.615820000000000E+01      3.785553000000000E-01     -1.068320000000000E+02
4380000000.000000      4.055634000000000E-01     -2.507421000000000E+01      2.479858000000000E-01     -1.077617000000000E+02
4400000000.000000      4.265900000000000E-01     -3.502148000000000E+01      1.534042000000000E-01     -8.416407000000000E+01
4420000000.000000      4.248352000000000E-01     -4.440039000000000E+01      1.895142000000000E-01     -4.525391000000000E+01
4440000000.000000      4.084930000000000E-01     -5.243554000000000E+01      3.119965000000000E-01     -3.611523000000000E+01
4460000000.000000      3.883209000000000E-01     -5.889062000000000E+01      4.542694000000000E-01     -4.341016000000000E+01
4480000000.000000      3.699799000000000E-01     -6.508203000000000E+01      5.627136000000000E-01     -5.551171000000000E+01
4500000000.000000      3.474121000000000E-01     -7.192577000000000E+01      6.427307000000000E-01     -6.693749000000000E+01
4520000000.000000      3.141327000000000E-01     -7.941015000000000E+01      7.149048000000000E-01     -7.996875000000000E+01
4540000000.000000      2.628632000000000E-01     -8.533983000000000E+01      7.408752000000000E-01     -9.452734000000000E+01
4560000000.000000      2.028427000000000E-01     -8.331640000000000E+01      7.271118000000000E-01     -1.078945000000000E+02
4580000000.000000      1.772995000000000E-01     -6.757421000000000E+01      6.889343000000000E-01     -1.216523000000000E+02
4600000000.000000      2.154541000000000E-01     -5.426952000000000E+01      6.033936000000000E-01     -1.347500000000000E+02
4620000000.000000      2.796478000000000E-01     -5.581640000000000E+01      4.952698000000000E-01     -1.449297000000000E+02
4640000000.000000      3.333282000000000E-01     -6.561328000000000E+01      3.772583000000000E-01     -1.533203000000000E+02
4660000000.000000      3.567505000000000E-01     -7.873437000000000E+01      2.443466000000000E-01     -1.511953000000000E+02
4680000000.000000      3.475342000000000E-01     -9.250780000000000E+01      1.798477000000000E-01     -1.226445000000000E+02
4700000000.000000      3.098755000000000E-01     -1.055195000000000E+02      2.504883000000000E-01     -9.635937000000000E+01
4720000000.000000      2.528992000000000E-01     -1.157773000000000E+02      3.696289000000000E-01     -9.547266000000000E+01
4740000000.000000      1.909485000000000E-01     -1.206523000000000E+02      4.752197000000000E-01     -1.019727000000000E+02
4760000000.000000      1.395874000000000E-01     -1.161523000000000E+02      5.808411000000000E-01     -1.106250000000000E+02
4780000000.000000      1.151848000000000E-01     -1.000352000000000E+02      6.687622000000000E-01     -1.232109000000000E+02
4800000000.000000      1.228104000000000E-01     -8.296093000000000E+01      7.164612000000000E-01     -1.358359000000000E+02
4820000000.000000      1.521454000000000E-01     -7.416016000000000E+01      7.333679000000000E-01     -1.490937000000000E+02
4840000000.000000      1.928711000000000E-01     -7.409765000000000E+01      7.160034000000000E-01     -1.618125000000000E+02
4860000000.000000      2.361603000000000E-01     -8.086718000000000E+01      6.822205000000000E-01     -1.743438000000000E+02
4880000000.000000      2.723389000000000E-01     -9.100389000000000E+01      6.146851000000000E-01      1.717422000000000E+02
4900000000.000000      2.967682000000000E-01     -1.043828000000000E+02      4.941864000000000E-01      1.598750000000000E+02
4920000000.000000      3.022614000000000E-01     -1.192578000000000E+02      3.637085000000000E-01      1.536250000000000E+02
4940000000.000000      2.865906000000000E-01     -1.346328000000000E+02      2.501984000000000E-01      1.561641000000000E+02
4960000000.000000      2.548828000000000E-01     -1.496250000000000E+02      1.769867000000000E-01      1.780391000000000E+02
4980000000.000000      2.123642000000000E-01     -1.635781000000000E+02      2.164230000000000E-01     -1.507422000000000E+02
5000000000.000000      1.674957000000000E-01     -1.748750000000000E+02      3.329010000000000E-01     -1.434766000000000E+02
5020000000.000000      1.292191000000000E-01      1.756094000000000E+02      4.626160000000000E-01     -1.497734000000000E+02
5040000000.000000      9.839630000000000E-02      1.660078000000000E+02      5.711670000000000E-01     -1.605859000000000E+02
5060000000.000000      6.990814000000000E-02      1.517266000000000E+02      6.523438000000000E-01     -1.720156000000000E+02
5080000000.000000      3.905678000000000E-02      1.265820000000000E+02      7.177429000000000E-01      1.756719000000000E+02
5100000000.000000      1.355362000000000E-02      3.561328000000000E+01      7.550049000000000E-01      1.621328000000000E+02
5120000000.000000      4.191017000000000E-02     -5.514843000000000E+01      7.498474000000000E-01      1.477500000000000E+02
5140000000.000000      7.431412000000000E-02     -8.889452000000000E+01      7.010193000000000E-01      1.342500000000000E+02
5160000000.000000      9.772873000000000E-02     -1.188125000000000E+02      6.265869000000000E-01      1.220976000000000E+02
5180000000.000000      1.102600000000000E-01     -1.489531000000000E+02      5.303650000000000E-01      1.106211000000000E+02
5200000000.000000      1.117706000000000E-01      1.784609000000000E+02      4.138336000000000E-01      1.011250000000000E+02
5220000000.000000      1.077042000000000E-01      1.423984000000000E+02      2.812500000000000E-01      9.861717000000000E+01
5240000000.000000      1.061516000000000E-01      1.055273000000000E+02      1.829529000000000E-01      1.160508000000000E+02
5260000000.000000      1.105537000000000E-01      7.144921000000000E+01      1.987610000000000E-01      1.498047000000000E+02
5280000000.000000      1.184540000000000E-01      4.462891000000000E+01      2.988129000000000E-01      1.607578000000000E+02
5300000000.000000      1.252899000000000E-01      2.391504000000000E+01      4.121094000000000E-01      1.580469000000000E+02
5320000000.000000      1.321030000000000E-01      7.429443000000000E+00      5.281982000000000E-01      1.504375000000000E+02
5340000000.000000      1.381149000000000E-01     -6.720947000000000E+00      6.396790000000000E-01      1.384844000000000E+02
5360000000.000000      1.427689000000000E-01     -2.221777000000000E+01      7.051392000000000E-01      1.239180000000000E+02
5380000000.000000      1.389313000000000E-01     -3.948633000000000E+01      7.164917000000000E-01      1.105234000000000E+02
5400000000.000000      1.206131000000000E-01     -5.723633000000000E+01      7.179260000000000E-01      9.894140000000000E+01
5420000000.000000      8.582687000000000E-02     -7.363671000000000E+01      7.029724000000000E-01      8.588671000000000E+01
5440000000.000000      3.190804000000000E-02     -7.655468000000000E+01      6.455078000000000E-01      7.157421000000000E+01
5460000000.000000      4.301071000000000E-02      3.537695000000000E+01      5.361633000000000E-01      5.852929000000000E+01
5480000000.000000      1.122169000000000E-01      2.940625000000000E+01      4.094849000000000E-01      4.945117000000000E+01
5500000000.000000      1.750107000000000E-01      1.446875000000000E+01      2.905731000000000E-01      4.755664000000000E+01
5520000000.000000      2.211914000000000E-01     -4.655457000000000E-01      1.941528000000000E-01      5.974999000000000E+01
5540000000.000000      2.520142000000000E-01     -1.403369000000000E+01      1.825943000000000E-01      9.148829000000000E+01
5560000000.000000      2.718201000000000E-01     -2.573144000000000E+01      2.651978000000000E-01      1.087617000000000E+02
5580000000.000000      2.838287000000000E-01     -3.543945000000000E+01      3.869324000000000E-01      1.084531000000000E+02
5600000000.000000      2.950897000000000E-01     -4.425390000000000E+01      5.078735000000000E-01      9.933203000000000E+01
5620000000.000000      3.059692000000000E-01     -5.332031000000000E+01      5.965576000000000E-01      8.680859000000000E+01
5640000000.000000      3.095551000000000E-01     -6.303711000000000E+01      6.450500000000000E-01      7.504687000000000E+01
5660000000.000000      3.002625000000000E-01     -7.365234000000000E+01      6.829224000000000E-01      6.367773000000000E+01
5680000000.000000      2.713470000000000E-01     -8.387890000000000E+01      6.965332000000000E-01      5.098437000000000E+01
5700000000.000000      2.244568000000000E-01     -9.127733000000000E+01      6.804199000000000E-01      3.868555000000000E+01
5720000000.000000      1.744537000000000E-01     -8.979296000000000E+01      6.415710000000000E-01      2.598633000000000E+01
5740000000.000000      1.535797000000000E-01     -7.555859000000000E+01      5.627747000000000E-01      1.280029000000000E+01
5760000000.000000      1.821136000000000E-01     -6.418750000000000E+01      4.477234000000000E-01      1.259277000000000E+00
5780000000.000000      2.279892000000000E-01     -6.567577000000000E+01      3.135223000000000E-01     -3.610474000000000E+00
5800000000.000000      2.590027000000000E-01     -7.344921000000000E+01      2.066574000000000E-01      7.786377000000000E+00
5820000000.000000      2.684021000000000E-01     -8.282421000000000E+01      1.906738000000000E-01      3.835546000000000E+01
5840000000.000000      2.583923000000000E-01     -9.125391000000000E+01      2.735443000000000E-01      5.410546000000000E+01
5860000000.000000      2.407455000000000E-01     -9.663280000000000E+01      3.731232000000000E-01      5.404297000000000E+01
5880000000.000000      2.279129000000000E-01     -9.973045000000000E+01      4.787445000000000E-01      4.860742000000000E+01
5900000000.000000      2.207870000000000E-01     -1.021445000000000E+02      5.948181000000000E-01      3.857617000000000E+01
5920000000.000000      2.130661000000000E-01     -1.048594000000000E+02      6.721191000000000E-01      2.436426000000000E+01
5940000000.000000      1.984787000000000E-01     -1.067812000000000E+02      6.998901000000000E-01      1.123877000000000E+01
5960000000.000000      1.806412000000000E-01     -1.052578000000000E+02      7.120361000000000E-01     -1.437866000000000E+00
5980000000.000000      1.682739000000000E-01     -9.749218000000000E+01      6.886292000000000E-01     -1.547998000000000E+01
6000000000.000000      1.841736000000000E-01     -8.860937000000000E+01      6.253967000000000E-01     -2.916113000000000E+01
6020000000.000000      2.185898000000000E-01     -8.681641000000000E+01      5.269775000000000E-01     -4.158008000000000E+01
6040000000.000000      2.538757000000000E-01     -9.195313000000000E+01      3.967896000000000E-01     -4.963085000000000E+01
6060000000.000000      2.790985000000000E-01     -1.009609000000000E+02      2.828674000000000E-01     -4.924805000000000E+01
6080000000.000000      2.882843000000000E-01     -1.109609000000000E+02      2.052383000000000E-01     -3.495898000000000E+01
