! Network Analyzer HP8722D
! Hewlett-Packard
! Data name: Linha & Wilkinson+CNT
! Saver's name: Rodrigo Anjos
! Comments: Teste da utilização de aquisição
continua pelo VNA HP8722D
! Time and date: 29/9/2025 11:50
!              Frequency                     S11                                                   S21                                                   S12                                                   S22
# HZ  S  MA R 50
3000000000.000000      4.215393000000000E-01     -5.651953000000000E+01      2.098312000000000E-01     -1.317266000000000E+02
3020000000.000000      4.463959000000000E-01     -7.076172000000000E+01      3.528748000000000E-01     -1.355625000000000E+02
3040000000.000000      4.508514000000000E-01     -8.367579000000000E+01      4.700470000000000E-01     -1.453984000000000E+02
3060000000.000000      4.430542000000000E-01     -9.567577000000000E+01      5.746460000000000E-01     -1.556406000000000E+02
3080000000.000000      4.284210000000000E-01     -1.069765000000000E+02      6.744690000000000E-01     -1.688359000000000E+02
3100000000.000000      4.086914000000000E-01     -1.182070000000000E+02      7.231445000000000E-01      1.762344000000000E+02
3120000000.000000      3.801117000000000E-01     -1.301484000000000E+02      7.319641000000000E-01      1.628281000000000E+02
3140000000.000000      3.401947000000000E-01     -1.432344000000000E+02      7.222290000000000E-01      1.499063000000000E+02
3160000000.000000      2.801666000000000E-01     -1.568906000000000E+02      6.823730000000000E-01      1.364063000000000E+02
3180000000.000000      2.009888000000000E-01     -1.694219000000000E+02      6.100464000000000E-01      1.239492000000000E+02
3200000000.000000      1.135101000000000E-01     -1.696250000000000E+02      5.171204000000000E-01      1.111055000000000E+02
3220000000.000000      8.249664000000000E-02     -1.254453000000000E+02      3.822021000000000E-01      1.004492000000000E+02
3240000000.000000      1.536407000000000E-01     -1.063320000000000E+02      2.441483000000000E-01      9.950390000000000E+01
3260000000.000000      2.332382000000000E-01     -1.163594000000000E+02      1.467896000000000E-01      1.261484000000000E+02
3280000000.000000      2.908630000000000E-01     -1.318828000000000E+02      2.054901000000000E-01      1.651172000000000E+02
3300000000.000000      3.242035000000000E-01     -1.479453000000000E+02      3.323669000000000E-01      1.691406000000000E+02
3320000000.000000      3.362732000000000E-01     -1.637109000000000E+02      4.648895000000000E-01      1.620781000000000E+02
3340000000.000000      3.327484000000000E-01     -1.789297000000000E+02      5.754395000000000E-01      1.497969000000000E+02
3360000000.000000      3.211060000000000E-01      1.665000000000000E+02      6.460571000000000E-01      1.377031000000000E+02
3380000000.000000      3.040009000000000E-01      1.524922000000000E+02      7.072449000000000E-01      1.263515000000000E+02
3400000000.000000      2.813263000000000E-01      1.380156000000000E+02      7.552490000000000E-01      1.125000000000000E+02
3420000000.000000      2.449799000000000E-01      1.233125000000000E+02      7.478333000000000E-01      9.783203000000000E+01
3440000000.000000      1.911087000000000E-01      1.089961000000000E+02      7.029419000000000E-01      8.485546000000000E+01
3460000000.000000      1.206017000000000E-01      9.941795000000000E+01      6.435242000000000E-01      7.190234000000000E+01
3480000000.000000      5.116653000000000E-02      1.261016000000000E+02      5.456848000000000E-01      5.831249000000000E+01
3500000000.000000      9.786987000000000E-02     -1.756172000000000E+02      4.214020000000000E-01      4.707812000000000E+01
3520000000.000000      1.893845000000000E-01      1.781016000000000E+02      2.752686000000000E-01      4.020703000000000E+01
3540000000.000000      2.679291000000000E-01      1.622969000000000E+02      1.464615000000000E-01      5.884375000000000E+01
3560000000.000000      3.266449000000000E-01      1.456094000000000E+02      1.690216000000000E-01      1.076953000000000E+02
3580000000.000000      3.628845000000000E-01      1.296562000000000E+02      2.960358000000000E-01      1.169570000000000E+02
3600000000.000000      3.782043000000000E-01      1.151172000000000E+02      4.208679000000000E-01      1.099844000000000E+02
3620000000.000000      3.796844000000000E-01      1.025352000000000E+02      5.212402000000000E-01      1.005156000000000E+02
3640000000.000000      3.699799000000000E-01      9.127344000000000E+01      6.205444000000000E-01      8.920702000000000E+01
3660000000.000000      3.527374000000000E-01      8.115234000000000E+01      6.918640000000000E-01      7.526953000000000E+01
3680000000.000000      3.292236000000000E-01      7.201172000000000E+01      7.095337000000000E-01      6.203125000000000E+01
3700000000.000000      2.977295000000000E-01      6.381249000000000E+01      7.184143000000000E-01      5.037304000000000E+01
3720000000.000000      2.530518000000000E-01      5.776953000000000E+01      7.214966000000000E-01      3.606640000000000E+01
3740000000.000000      2.028656000000000E-01      5.902344000000000E+01      6.596985000000000E-01      2.066113000000000E+01
3760000000.000000      1.775131000000000E-01      7.332031000000000E+01      5.610046000000000E-01      6.474854000000000E+00
3780000000.000000      2.137070000000000E-01      8.789063000000000E+01      4.306335000000000E-01     -6.657715000000000E+00
3800000000.000000      2.840424000000000E-01      8.911718000000000E+01      2.777557000000000E-01     -1.347656000000000E+01
3820000000.000000      3.514862000000000E-01      8.251171000000000E+01      1.515808000000000E-01      4.133606000000000E-01
3840000000.000000      4.015045000000000E-01      7.374218000000000E+01      1.453552000000000E-01      4.823242000000000E+01
3860000000.000000      4.352417000000000E-01      6.522655000000000E+01      2.489243000000000E-01      6.512500000000000E+01
3880000000.000000      4.604645000000000E-01      5.762304000000000E+01      3.778076000000000E-01      6.070313000000000E+01
3900000000.000000      4.888763000000000E-01      5.047656000000000E+01      4.777527000000000E-01      4.732422000000000E+01
3920000000.000000      5.194397000000000E-01      4.291211000000000E+01      5.090637000000000E-01      3.554296000000000E+01
3940000000.000000      5.468140000000000E-01      3.360156000000000E+01      5.396423000000000E-01      2.901953000000000E+01
3960000000.000000      5.579224000000000E-01      2.361426000000000E+01      5.946960000000000E-01      1.961523000000000E+01
3980000000.000000      5.530090000000000E-01      1.287695000000000E+01      5.968628000000000E-01      7.822266000000000E+00
4000000000.000000      5.244141000000000E-01      2.591309000000000E+00      5.799866000000000E-01      8.294678000000000E-01
4020000000.000000      4.807587000000000E-01     -7.337646000000000E+00      5.970764000000000E-01     -7.028564000000000E+00
4040000000.000000      4.205322000000000E-01     -1.627637000000000E+01      5.817871000000000E-01     -1.924414000000000E+01
4060000000.000000      3.442383000000000E-01     -2.229297000000000E+01      5.239258000000000E-01     -2.937012000000000E+01
4080000000.000000      2.694702000000000E-01     -2.191406000000000E+01      4.651642000000000E-01     -3.865625000000000E+01
4100000000.000000      2.262192000000000E-01     -1.115430000000000E+01      3.630066000000000E-01     -4.763476000000000E+01
4120000000.000000      2.412949000000000E-01      1.901978000000000E+00      2.475967000000000E-01     -4.376953000000000E+01
4140000000.000000      2.897491000000000E-01      4.975342000000000E+00      2.036743000000000E-01     -1.939648000000000E+01
4160000000.000000      3.336639000000000E-01      6.344604000000000E-01      2.663269000000000E-01     -1.744080000000000E-01
4180000000.000000      3.607178000000000E-01     -6.196289000000000E+00      3.602448000000000E-01      3.562256000000000E+00
4200000000.000000      3.705139000000000E-01     -1.406982000000000E+01      4.900970000000000E-01      7.951355000000000E-01
4220000000.000000      3.652496000000000E-01     -2.125879000000000E+01      6.427307000000000E-01     -1.157568000000000E+01
4240000000.000000      3.455658000000000E-01     -2.885839000000000E+01      7.211914000000000E-01     -2.823144000000000E+01
4260000000.000000      3.068237000000000E-01     -3.453906000000000E+01      7.410889000000000E-01     -4.244531000000000E+01
4280000000.000000      2.572937000000000E-01     -3.553125000000000E+01      7.486572000000000E-01     -5.624804000000000E+01
4300000000.000000      2.221603000000000E-01     -2.715039000000000E+01      7.109070000000000E-01     -7.116796000000000E+01
4320000000.000000      2.369919000000000E-01     -1.451465000000000E+01      6.279297000000000E-01     -8.567968000000000E+01
4340000000.000000      2.953796000000000E-01     -1.094385000000000E+01      5.111694000000000E-01     -9.823828000000000E+01
4360000000.000000      3.605499000000000E-01     -1.612012000000000E+01      3.762054000000000E-01     -1.071172000000000E+02
4380000000.000000      4.055481000000000E-01     -2.510839000000000E+01      2.461090000000000E-01     -1.078711000000000E+02
4400000000.000000      4.256897000000000E-01     -3.505468000000000E+01      1.528473000000000E-01     -8.401953000000000E+01
4420000000.000000      4.244232000000000E-01     -4.451562000000000E+01      1.904831000000000E-01     -4.535352000000000E+01
4440000000.000000      4.062500000000000E-01     -5.253320000000000E+01      3.133087000000000E-01     -3.644336000000000E+01
4460000000.000000      3.869019000000000E-01     -5.927929000000000E+01      4.541931000000000E-01     -4.383008000000000E+01
4480000000.000000      3.668976000000000E-01     -6.546093000000000E+01      5.632629000000000E-01     -5.607422000000000E+01
4500000000.000000      3.454742000000000E-01     -7.229297000000000E+01      6.429749000000000E-01     -6.744531000000000E+01
4520000000.000000      3.110352000000000E-01     -7.992969000000000E+01      7.160950000000000E-01     -8.045313000000000E+01
4540000000.000000      2.588806000000000E-01     -8.593359000000000E+01      7.393188000000000E-01     -9.495703000000000E+01
4560000000.000000      1.983643000000000E-01     -8.368750000000000E+01      7.258301000000000E-01     -1.081758000000000E+02
4580000000.000000      1.733780000000000E-01     -6.725780000000000E+01      6.866455000000000E-01     -1.219336000000000E+02
4600000000.000000      2.126846000000000E-01     -5.374413000000000E+01      6.005859000000000E-01     -1.351172000000000E+02
4620000000.000000      2.776794000000000E-01     -5.551952000000000E+01      4.943237000000000E-01     -1.453672000000000E+02
4640000000.000000      3.300323000000000E-01     -6.543359000000000E+01      3.751984000000000E-01     -1.534609000000000E+02
4660000000.000000      3.525391000000000E-01     -7.855469000000000E+01      2.435150000000000E-01     -1.514141000000000E+02
4680000000.000000      3.425751000000000E-01     -9.240625000000000E+01      1.796875000000000E-01     -1.227891000000000E+02
4700000000.000000      3.045654000000000E-01     -1.052148000000000E+02      2.509308000000000E-01     -9.661327000000000E+01
4720000000.000000      2.483749000000000E-01     -1.153359000000000E+02      3.686371000000000E-01     -9.571093000000000E+01
4740000000.000000      1.872940000000000E-01     -1.197617000000000E+02      4.750061000000000E-01     -1.021875000000000E+02
4760000000.000000      1.372223000000000E-01     -1.146445000000000E+02      5.803223000000000E-01     -1.108633000000000E+02
4780000000.000000      1.155891000000000E-01     -9.814453000000000E+01      6.676941000000000E-01     -1.234687000000000E+02
4800000000.000000      1.243896000000000E-01     -8.218750000000000E+01      7.161865000000000E-01     -1.362344000000000E+02
4820000000.000000      1.554718000000000E-01     -7.359375000000000E+01      7.330627000000000E-01     -1.494297000000000E+02
4840000000.000000      1.956558000000000E-01     -7.430859000000000E+01      7.156067000000000E-01     -1.622422000000000E+02
4860000000.000000      2.380829000000000E-01     -8.092968000000000E+01      6.808167000000000E-01     -1.746484000000000E+02
4880000000.000000      2.742920000000000E-01     -9.138281000000000E+01      6.112976000000000E-01      1.715937000000000E+02
4900000000.000000      2.984314000000000E-01     -1.047969000000000E+02      4.909058000000000E-01      1.594609000000000E+02
4920000000.000000      3.029480000000000E-01     -1.196719000000000E+02      3.604126000000000E-01      1.533984000000000E+02
4940000000.000000      2.867279000000000E-01     -1.351406000000000E+02      2.488022000000000E-01      1.562187000000000E+02
4960000000.000000      2.547150000000000E-01     -1.500078000000000E+02      1.765823000000000E-01      1.782891000000000E+02
4980000000.000000      2.120361000000000E-01     -1.638594000000000E+02      2.168121000000000E-01     -1.509453000000000E+02
5000000000.000000      1.675644000000000E-01     -1.752578000000000E+02      3.335114000000000E-01     -1.439297000000000E+02
5020000000.000000      1.298676000000000E-01      1.753438000000000E+02      4.634247000000000E-01     -1.499609000000000E+02
5040000000.000000      9.939957000000000E-02      1.655313000000000E+02      5.715942000000000E-01     -1.608594000000000E+02
5060000000.000000      7.078934000000000E-02      1.511875000000000E+02      6.512146000000000E-01     -1.724219000000000E+02
5080000000.000000      3.949165000000000E-02      1.263515000000000E+02      7.171326000000000E-01      1.754453000000000E+02
5100000000.000000      1.336050000000000E-02      3.933203000000000E+01      7.554016000000000E-01      1.616875000000000E+02
5120000000.000000      4.096794000000000E-02     -5.617188000000000E+01      7.508850000000000E-01      1.474688000000000E+02
5140000000.000000      7.277298000000000E-02     -8.973827000000000E+01      7.004089000000000E-01      1.339141000000000E+02
5160000000.000000      9.719467000000000E-02     -1.201172000000000E+02      6.227112000000000E-01      1.215820000000000E+02
5180000000.000000      1.095047000000000E-01     -1.502031000000000E+02      5.292664000000000E-01      1.104492000000000E+02
5200000000.000000      1.115303000000000E-01      1.772422000000000E+02      4.113617000000000E-01      1.010000000000000E+02
5220000000.000000      1.081314000000000E-01      1.414375000000000E+02      2.791443000000000E-01      9.859375000000000E+01
5240000000.000000      1.071548000000000E-01      1.047969000000000E+02      1.830368000000000E-01      1.164766000000000E+02
5260000000.000000      1.115875000000000E-01      7.146874000000000E+01      1.998291000000000E-01      1.499844000000000E+02
5280000000.000000      1.191483000000000E-01      4.481641000000000E+01      3.002930000000000E-01      1.604453000000000E+02
5300000000.000000      1.257324000000000E-01      2.411133000000000E+01      4.130707000000000E-01      1.576094000000000E+02
5320000000.000000      1.315384000000000E-01      7.500732000000000E+00      5.300598000000000E-01      1.499063000000000E+02
5340000000.000000      1.381149000000000E-01     -6.612549000000000E+00      6.386719000000000E-01      1.379766000000000E+02
5360000000.000000      1.427994000000000E-01     -2.215332000000000E+01      7.048035000000000E-01      1.236875000000000E+02
5380000000.000000      1.386261000000000E-01     -3.944336000000000E+01      7.174072000000000E-01      1.101563000000000E+02
5400000000.000000      1.192780000000000E-01     -5.711523000000000E+01      7.181702000000000E-01      9.854687000000000E+01
5420000000.000000      8.403397000000000E-02     -7.337500000000000E+01      7.012939000000000E-01      8.544922000000000E+01
5440000000.000000      3.019333000000000E-02     -7.507421000000000E+01      6.444092000000000E-01      7.114452000000000E+01
5460000000.000000      4.452324000000000E-02      3.651367000000000E+01      5.348816000000000E-01      5.821289000000000E+01
5480000000.000000      1.136818000000000E-01      2.954004000000000E+01      4.082489000000000E-01      4.900391000000000E+01
5500000000.000000      1.758347000000000E-01      1.450879000000000E+01      2.886047000000000E-01      4.746094000000000E+01
5520000000.000000      2.205200000000000E-01     -4.559326000000000E-01      1.937103000000000E-01      6.010156000000000E+01
5540000000.000000      2.522583000000000E-01     -1.405029000000000E+01      1.834793000000000E-01      9.150000000000000E+01
5560000000.000000      2.704010000000000E-01     -2.573047000000000E+01      2.659149000000000E-01      1.085976000000000E+02
5580000000.000000      2.831573000000000E-01     -3.549414000000000E+01      3.873749000000000E-01      1.080937000000000E+02
5600000000.000000      2.943878000000000E-01     -4.424805000000000E+01      5.086670000000000E-01      9.910545000000000E+01
5620000000.000000      3.050232000000000E-01     -5.342382000000000E+01      5.942688000000000E-01      8.654688000000000E+01
5640000000.000000      3.081818000000000E-01     -6.313477000000000E+01      6.452637000000000E-01      7.466406000000000E+01
5660000000.000000      2.985535000000000E-01     -7.385156000000000E+01      6.820984000000000E-01      6.344140000000000E+01
5680000000.000000      2.697601000000000E-01     -8.407812000000000E+01      6.968689000000000E-01      5.064648000000000E+01
5700000000.000000      2.227249000000000E-01     -9.140625000000000E+01      6.789856000000000E-01      3.811914000000000E+01
5720000000.000000      1.724930000000000E-01     -8.994141000000000E+01      6.397095000000000E-01      2.547266000000000E+01
5740000000.000000      1.521912000000000E-01     -7.550390000000000E+01      5.604248000000000E-01      1.233350000000000E+01
5760000000.000000      1.809616000000000E-01     -6.407421000000000E+01      4.453888000000000E-01      1.161804000000000E+00
5780000000.000000      2.264709000000000E-01     -6.579296000000000E+01      3.111572000000000E-01     -3.716187000000000E+00
5800000000.000000      2.577362000000000E-01     -7.363281000000000E+01      2.063904000000000E-01      7.790527000000000E+00
5820000000.000000      2.670288000000000E-01     -8.283203000000000E+01      1.915436000000000E-01      3.832422000000000E+01
5840000000.000000      2.572784000000000E-01     -9.130468000000000E+01      2.745819000000000E-01      5.400000000000000E+01
5860000000.000000      2.393799000000000E-01     -9.686718000000000E+01      3.748932000000000E-01      5.365820000000000E+01
5880000000.000000      2.254181000000000E-01     -9.991014000000000E+01      4.803467000000000E-01      4.816211000000000E+01
5900000000.000000      2.185974000000000E-01     -1.021992000000000E+02      5.957642000000000E-01      3.788281000000000E+01
5920000000.000000      2.102432000000000E-01     -1.050547000000000E+02      6.723328000000000E-01      2.394433000000000E+01
5940000000.000000      1.964798000000000E-01     -1.071211000000000E+02      7.008667000000000E-01      1.078271000000000E+01
5960000000.000000      1.783524000000000E-01     -1.053437000000000E+02      7.128296000000000E-01     -2.072388000000000E+00
5980000000.000000      1.663208000000000E-01     -9.732422000000000E+01      6.859131000000000E-01     -1.606836000000000E+01
6000000000.000000      1.824112000000000E-01     -8.855860000000000E+01      6.229858000000000E-01     -2.950195000000000E+01
6020000000.000000      2.172699000000000E-01     -8.682421000000000E+01      5.236816000000000E-01     -4.190430000000000E+01
6040000000.000000      2.524719000000000E-01     -9.238672000000000E+01      3.969116000000000E-01     -4.980663000000000E+01
6060000000.000000      2.767944000000000E-01     -1.011680000000000E+02      2.817993000000000E-01     -4.934375000000000E+01
6080000000.000000      2.863922000000000E-01     -1.113594000000000E+02      2.039261000000000E-01     -3.501367000000000E+01
