! Network Analyzer HP8722D
! Hewlett-Packard
! Data name: Linha & Wilkinson+CNT
! Saver's name: Rodrigo Anjos
! Comments: Teste da utilização de aquisição
continua pelo VNA HP8722D
! Time and date: 29/9/2025 13:57
!              Frequency                     S11                                                   S21                                                   S12                                                   S22
# HZ  S  MA R 50
3000000000.000000      4.248962000000000E-01     -5.551758000000000E+01      2.070999000000000E-01     -1.314453000000000E+02
3020000000.000000      4.483185000000000E-01     -7.033593000000000E+01      3.502197000000000E-01     -1.350000000000000E+02
3040000000.000000      4.529419000000000E-01     -8.287500000000000E+01      4.677277000000000E-01     -1.448828000000000E+02
3060000000.000000      4.447174000000000E-01     -9.496485000000000E+01      5.719604000000000E-01     -1.551328000000000E+02
3080000000.000000      4.291992000000000E-01     -1.062969000000000E+02      6.731567000000000E-01     -1.684141000000000E+02
3100000000.000000      4.086914000000000E-01     -1.174570000000000E+02      7.224731000000000E-01      1.768125000000000E+02
3120000000.000000      3.799896000000000E-01     -1.294922000000000E+02      7.324829000000000E-01      1.634063000000000E+02
3140000000.000000      3.387451000000000E-01     -1.424609000000000E+02      7.231445000000000E-01      1.505703000000000E+02
3160000000.000000      2.791290000000000E-01     -1.563750000000000E+02      6.834412000000000E-01      1.369766000000000E+02
3180000000.000000      1.996155000000000E-01     -1.691250000000000E+02      6.125183000000000E-01      1.243555000000000E+02
3200000000.000000      1.115913000000000E-01     -1.699219000000000E+02      5.195923000000000E-01      1.115977000000000E+02
3220000000.000000      7.970428000000000E-02     -1.241133000000000E+02      3.866119000000000E-01      1.008281000000000E+02
3240000000.000000      1.506500000000000E-01     -1.048320000000000E+02      2.469406000000000E-01      9.956249000000000E+01
3260000000.000000      2.300720000000000E-01     -1.151719000000000E+02      1.471710000000000E-01      1.254140000000000E+02
3280000000.000000      2.878265000000000E-01     -1.308906000000000E+02      2.032318000000000E-01      1.652344000000000E+02
3300000000.000000      3.203430000000000E-01     -1.472812000000000E+02      3.302307000000000E-01      1.696328000000000E+02
3320000000.000000      3.321228000000000E-01     -1.630859000000000E+02      4.626160000000000E-01      1.625703000000000E+02
3340000000.000000      3.288574000000000E-01     -1.786172000000000E+02      5.749512000000000E-01      1.504062000000000E+02
3360000000.000000      3.170929000000000E-01      1.667266000000000E+02      6.461182000000000E-01      1.383750000000000E+02
3380000000.000000      3.005066000000000E-01      1.523750000000000E+02      7.084045000000000E-01      1.269922000000000E+02
3400000000.000000      2.777405000000000E-01      1.377109000000000E+02      7.572021000000000E-01      1.132851000000000E+02
3420000000.000000      2.430496000000000E-01      1.226328000000000E+02      7.495117000000000E-01      9.841406000000000E+01
3440000000.000000      1.902313000000000E-01      1.080547000000000E+02      7.046204000000000E-01      8.555859000000000E+01
3460000000.000000      1.201553000000000E-01      9.719139000000000E+01      6.464844000000000E-01      7.234765000000000E+01
3480000000.000000      4.818726000000000E-02      1.213984000000000E+02      5.500793000000000E-01      5.880664000000000E+01
3500000000.000000      9.220886000000000E-02     -1.742969000000000E+02      4.241638000000000E-01      4.749609000000000E+01
3520000000.000000      1.842346000000000E-01      1.791016000000000E+02      2.790680000000000E-01      4.051562000000000E+01
3540000000.000000      2.632751000000000E-01      1.627891000000000E+02      1.473541000000000E-01      5.825195000000000E+01
3560000000.000000      3.225555000000000E-01      1.459063000000000E+02      1.669235000000000E-01      1.076367000000000E+02
3580000000.000000      3.594971000000000E-01      1.298203000000000E+02      2.938995000000000E-01      1.175117000000000E+02
3600000000.000000      3.758850000000000E-01      1.151601000000000E+02      4.193878000000000E-01      1.106289000000000E+02
3620000000.000000      3.780670000000000E-01      1.025977000000000E+02      5.202942000000000E-01      1.012734000000000E+02
3640000000.000000      3.682404000000000E-01      9.130859000000000E+01      6.211853000000000E-01      8.994532000000000E+01
3660000000.000000      3.518219000000000E-01      8.106249000000000E+01      6.919556000000000E-01      7.573047000000000E+01
3680000000.000000      3.297424000000000E-01      7.185547000000000E+01      7.098389000000000E-01      6.268359000000000E+01
3700000000.000000      2.989960000000000E-01      6.372070000000000E+01      7.199402000000000E-01      5.100586000000000E+01
3720000000.000000      2.544250000000000E-01      5.758594000000000E+01      7.247314000000000E-01      3.681641000000000E+01
3740000000.000000      2.042465000000000E-01      5.839062000000000E+01      6.638489000000000E-01      2.132813000000000E+01
3760000000.000000      1.776352000000000E-01      7.223437000000000E+01      5.664673000000000E-01      7.150635000000000E+00
3780000000.000000      2.116699000000000E-01      8.736719000000000E+01      4.343719000000000E-01     -6.093506000000000E+00
3800000000.000000      2.820129000000000E-01      8.906641000000000E+01      2.823639000000000E-01     -1.339648000000000E+01
3820000000.000000      3.497772000000000E-01      8.260937000000000E+01      1.537323000000000E-01     -4.806519000000000E-01
3840000000.000000      4.002686000000000E-01      7.385547000000000E+01      1.427536000000000E-01      4.780663000000000E+01
3860000000.000000      4.351807000000000E-01      6.534765000000000E+01      2.459183000000000E-01      6.527344000000000E+01
3880000000.000000      4.608154000000000E-01      5.776562000000000E+01      3.758545000000000E-01      6.113476000000000E+01
3900000000.000000      4.894714000000000E-01      5.072266000000000E+01      4.778748000000000E-01      4.774804000000000E+01
3920000000.000000      5.205383000000000E-01      4.293554000000000E+01      5.070496000000000E-01      3.600000000000000E+01
3940000000.000000      5.475769000000000E-01      3.405468000000000E+01      5.384521000000000E-01      2.954297000000000E+01
3960000000.000000      5.612183000000000E-01      2.406250000000000E+01      5.955200000000000E-01      2.006348000000000E+01
3980000000.000000      5.545654000000000E-01      1.359521000000000E+01      5.978394000000000E-01      8.187500000000000E+00
4000000000.000000      5.261536000000000E-01      2.878418000000000E+00      5.807495000000000E-01      1.244202000000000E+00
4020000000.000000      4.841766000000000E-01     -6.840576000000000E+00      5.980225000000000E-01     -6.536865000000000E+00
4040000000.000000      4.249268000000000E-01     -1.574512000000000E+01      5.851746000000000E-01     -1.879785000000000E+01
4060000000.000000      3.494873000000000E-01     -2.188672000000000E+01      5.278931000000000E-01     -2.884375000000000E+01
4080000000.000000      2.743988000000000E-01     -2.195703000000000E+01      4.677734000000000E-01     -3.833593000000000E+01
4100000000.000000      2.287292000000000E-01     -1.134619000000000E+01      3.682556000000000E-01     -4.773046000000000E+01
4120000000.000000      2.416916000000000E-01      1.713867000000000E+00      2.497025000000000E-01     -4.416406000000000E+01
4140000000.000000      2.896423000000000E-01      5.092041000000000E+00      2.029724000000000E-01     -2.008789000000000E+01
4160000000.000000      3.340302000000000E-01      9.764099000000000E-01      2.635040000000000E-01     -7.965088000000000E-02
4180000000.000000      3.617401000000000E-01     -5.883301000000000E+00      3.570709000000000E-01      3.937134000000000E+00
4200000000.000000      3.712616000000000E-01     -1.375098000000000E+01      4.874115000000000E-01      1.377380000000000E+00
4220000000.000000      3.674927000000000E-01     -2.089942000000000E+01      6.427307000000000E-01     -1.106494000000000E+01
4240000000.000000      3.480988000000000E-01     -2.838867000000000E+01      7.232971000000000E-01     -2.775293000000000E+01
4260000000.000000      3.100281000000000E-01     -3.418554000000000E+01      7.428589000000000E-01     -4.169726000000000E+01
4280000000.000000      2.598877000000000E-01     -3.545312000000000E+01      7.518005000000000E-01     -5.580078000000000E+01
4300000000.000000      2.224503000000000E-01     -2.741699000000000E+01      7.155762000000000E-01     -7.073828000000000E+01
4320000000.000000      2.356339000000000E-01     -1.462012000000000E+01      6.318359000000000E-01     -8.516405000000000E+01
4340000000.000000      2.932281000000000E-01     -1.065967000000000E+01      5.161133000000000E-01     -9.777344000000000E+01
4360000000.000000      3.586121000000000E-01     -1.564893000000000E+01      3.805695000000000E-01     -1.069219000000000E+02
4380000000.000000      4.052277000000000E-01     -2.457715000000000E+01      2.501221000000000E-01     -1.081406000000000E+02
4400000000.000000      4.265137000000000E-01     -3.452929000000000E+01      1.535645000000000E-01     -8.525391000000000E+01
4420000000.000000      4.243927000000000E-01     -4.397070000000000E+01      1.875381000000000E-01     -4.574414000000000E+01
4440000000.000000      4.080963000000000E-01     -5.209374000000000E+01      3.099518000000000E-01     -3.619141000000000E+01
4460000000.000000      3.882141000000000E-01     -5.868945000000000E+01      4.515076000000000E-01     -4.345117000000000E+01
4480000000.000000      3.679352000000000E-01     -6.492969000000000E+01      5.595703000000000E-01     -5.541406000000000E+01
4500000000.000000      3.467712000000000E-01     -7.164063000000000E+01      6.419678000000000E-01     -6.682812000000000E+01
4520000000.000000      3.133392000000000E-01     -7.926952000000000E+01      7.164307000000000E-01     -7.982031000000000E+01
4540000000.000000      2.622223000000000E-01     -8.548828000000000E+01      7.415466000000000E-01     -9.445313000000000E+01
4560000000.000000      2.015228000000000E-01     -8.385546000000000E+01      7.279053000000000E-01     -1.077344000000000E+02
4580000000.000000      1.742706000000000E-01     -6.796484000000000E+01      6.913147000000000E-01     -1.213828000000000E+02
4600000000.000000      2.117767000000000E-01     -5.394726000000000E+01      6.062927000000000E-01     -1.347578000000000E+02
4620000000.000000      2.768860000000000E-01     -5.516602000000000E+01      4.988556000000000E-01     -1.451953000000000E+02
4640000000.000000      3.305511000000000E-01     -6.517968000000000E+01      3.792725000000000E-01     -1.534453000000000E+02
4660000000.000000      3.550262000000000E-01     -7.841406000000000E+01      2.465744000000000E-01     -1.518984000000000E+02
4680000000.000000      3.463593000000000E-01     -9.236328000000000E+01      1.787720000000000E-01     -1.236875000000000E+02
4700000000.000000      3.095856000000000E-01     -1.055625000000000E+02      2.478409000000000E-01     -9.664063000000000E+01
4720000000.000000      2.536926000000000E-01     -1.162266000000000E+02      3.669128000000000E-01     -9.543360000000000E+01
4740000000.000000      1.911621000000000E-01     -1.214570000000000E+02      4.737244000000000E-01     -1.018398000000000E+02
4760000000.000000      1.388016000000000E-01     -1.176914000000000E+02      5.804138000000000E-01     -1.105000000000000E+02
4780000000.000000      1.124306000000000E-01     -1.017266000000000E+02      6.669922000000000E-01     -1.227070000000000E+02
4800000000.000000      1.181755000000000E-01     -8.410936000000000E+01      7.160034000000000E-01     -1.357031000000000E+02
4820000000.000000      1.462097000000000E-01     -7.432812000000000E+01      7.349243000000000E-01     -1.490937000000000E+02
4840000000.000000      1.873856000000000E-01     -7.404687000000000E+01      7.195129000000000E-01     -1.618594000000000E+02
4860000000.000000      2.311630000000000E-01     -8.028906000000000E+01      6.846924000000000E-01     -1.742422000000000E+02
4880000000.000000      2.680969000000000E-01     -9.074999000000000E+01      6.162720000000000E-01      1.718828000000000E+02
4900000000.000000      2.940826000000000E-01     -1.042383000000000E+02      4.959259000000000E-01      1.597344000000000E+02
4920000000.000000      2.994843000000000E-01     -1.193125000000000E+02      3.657532000000000E-01      1.532734000000000E+02
4940000000.000000      2.854309000000000E-01     -1.349766000000000E+02      2.520294000000000E-01      1.557734000000000E+02
4960000000.000000      2.547760000000000E-01     -1.501953000000000E+02      1.771774000000000E-01      1.772109000000000E+02
4980000000.000000      2.126541000000000E-01     -1.643047000000000E+02      2.140274000000000E-01     -1.511406000000000E+02
5000000000.000000      1.684570000000000E-01     -1.761328000000000E+02      3.301849000000000E-01     -1.435313000000000E+02
5020000000.000000      1.302872000000000E-01      1.739375000000000E+02      4.604492000000000E-01     -1.497266000000000E+02
5040000000.000000      9.971619000000000E-02      1.635234000000000E+02      5.698547000000000E-01     -1.603750000000000E+02
5060000000.000000      7.189178000000000E-02      1.485312000000000E+02      6.506348000000000E-01     -1.718984000000000E+02
5080000000.000000      4.163170000000000E-02      1.232422000000000E+02      7.181091000000000E-01      1.759297000000000E+02
5100000000.000000      1.688194000000000E-02      4.225586000000000E+01      7.566223000000000E-01      1.621484000000000E+02
5120000000.000000      4.099274000000000E-02     -5.082226000000000E+01      7.557373000000000E-01      1.479687000000000E+02
5140000000.000000      7.229996000000000E-02     -8.763672000000000E+01      7.038574000000000E-01      1.341875000000000E+02
5160000000.000000      9.607697000000000E-02     -1.188984000000000E+02      6.286621000000000E-01      1.219062000000000E+02
5180000000.000000      1.092644000000000E-01     -1.494141000000000E+02      5.344849000000000E-01      1.106758000000000E+02
5200000000.000000      1.124344000000000E-01      1.779453000000000E+02      4.156494000000000E-01      1.010234000000000E+02
5220000000.000000      1.098976000000000E-01      1.417656000000000E+02      2.833405000000000E-01      9.823046000000000E+01
5240000000.000000      1.089783000000000E-01      1.058086000000000E+02      1.839981000000000E-01      1.151445000000000E+02
5260000000.000000      1.133919000000000E-01      7.242969000000000E+01      1.965561000000000E-01      1.493984000000000E+02
5280000000.000000      1.207581000000000E-01      4.587891000000000E+01      2.960815000000000E-01      1.605703000000000E+02
5300000000.000000      1.276932000000000E-01      2.505664000000000E+01      4.096680000000000E-01      1.581719000000000E+02
5320000000.000000      1.335068000000000E-01      8.371582000000000E+00      5.279846000000000E-01      1.504688000000000E+02
5340000000.000000      1.388397000000000E-01     -5.821533000000000E+00      6.386719000000000E-01      1.384687000000000E+02
5360000000.000000      1.434097000000000E-01     -2.119433000000000E+01      7.059937000000000E-01      1.240312000000000E+02
5380000000.000000      1.383133000000000E-01     -3.875195000000000E+01      7.167664000000000E-01      1.107070000000000E+02
5400000000.000000      1.199951000000000E-01     -5.688086000000000E+01      7.185974000000000E-01      9.901171000000000E+01
5420000000.000000      8.460617000000000E-02     -7.374218000000000E+01      7.051086000000000E-01      8.603516000000000E+01
5440000000.000000      3.013992000000000E-02     -7.721484000000000E+01      6.482849000000000E-01      7.162109000000000E+01
5460000000.000000      4.335785000000000E-02      3.925390000000000E+01      5.393677000000000E-01      5.840820000000000E+01
5480000000.000000      1.128960000000000E-01      3.088867000000000E+01      4.128113000000000E-01      4.936132000000000E+01
5500000000.000000      1.753159000000000E-01      1.566357000000000E+01      2.930603000000000E-01      4.727735000000000E+01
5520000000.000000      2.209702000000000E-01      5.809021000000000E-01      1.949997000000000E-01      5.894726000000000E+01
5540000000.000000      2.520447000000000E-01     -1.318359000000000E+01      1.810532000000000E-01      9.077734000000000E+01
5560000000.000000      2.707367000000000E-01     -2.497363000000000E+01      2.624969000000000E-01      1.087969000000000E+02
5580000000.000000      2.823792000000000E-01     -3.494141000000000E+01      3.841705000000000E-01      1.085312000000000E+02
5600000000.000000      2.938843000000000E-01     -4.381249000000000E+01      5.058289000000000E-01      9.967968000000000E+01
5620000000.000000      3.043823000000000E-01     -5.298437000000000E+01      5.957642000000000E-01      8.703125000000000E+01
5640000000.000000      3.074799000000000E-01     -6.267773000000000E+01      6.466980000000000E-01      7.526562000000000E+01
5660000000.000000      2.976990000000000E-01     -7.345703000000000E+01      6.841736000000000E-01      6.386132000000000E+01
5680000000.000000      2.689514000000000E-01     -8.371094000000000E+01      6.994324000000000E-01      5.105469000000000E+01
5700000000.000000      2.211456000000000E-01     -9.112499000000000E+01      6.826172000000000E-01      3.872461000000000E+01
5720000000.000000      1.708832000000000E-01     -8.975780000000000E+01      6.444397000000000E-01      2.606348000000000E+01
5740000000.000000      1.496353000000000E-01     -7.532421000000000E+01      5.656738000000000E-01      1.283057000000000E+01
5760000000.000000      1.785202000000000E-01     -6.371679000000000E+01      4.512177000000000E-01      1.193359000000000E+00
5780000000.000000      2.248993000000000E-01     -6.516406000000000E+01      3.170166000000000E-01     -4.067871000000000E+00
5800000000.000000      2.567139000000000E-01     -7.303515000000000E+01      2.084808000000000E-01      6.921387000000000E+00
5820000000.000000      2.666779000000000E-01     -8.258204000000000E+01      1.888504000000000E-01      3.743750000000000E+01
5840000000.000000      2.568207000000000E-01     -9.107813000000000E+01      2.711029000000000E-01      5.397851000000000E+01
5860000000.000000      2.396088000000000E-01     -9.670702000000000E+01      3.715515000000000E-01      5.417578000000000E+01
5880000000.000000      2.241135000000000E-01     -9.987890000000000E+01      4.778748000000000E-01      4.875781000000000E+01
5900000000.000000      2.163620000000000E-01     -1.022109000000000E+02      5.940247000000000E-01      3.848047000000000E+01
5920000000.000000      2.090988000000000E-01     -1.050586000000000E+02      6.709290000000000E-01      2.468847000000000E+01
5940000000.000000      1.949310000000000E-01     -1.070742000000000E+02      7.016907000000000E-01      1.133057000000000E+01
5960000000.000000      1.776505000000000E-01     -1.052812000000000E+02      7.138672000000000E-01     -1.359558000000000E+00
5980000000.000000      1.655502000000000E-01     -9.762108000000000E+01      6.916504000000000E-01     -1.546094000000000E+01
6000000000.000000      1.807327000000000E-01     -8.838671000000000E+01      6.278687000000000E-01     -2.893945000000000E+01
6020000000.000000      2.155533000000000E-01     -8.650391000000000E+01      5.308838000000000E-01     -4.171484000000000E+01
6040000000.000000      2.514191000000000E-01     -9.183985000000000E+01      4.000549000000000E-01     -4.962304000000000E+01
6060000000.000000      2.755585000000000E-01     -1.009023000000000E+02      2.857819000000000E-01     -4.972461000000000E+01
6080000000.000000      2.857208000000000E-01     -1.110625000000000E+02      2.054520000000000E-01     -3.602344000000000E+01
