! Network Analyzer HP8722D
! Hewlett-Packard
! Data name: Linha & Wilkinson+CNT
! Saver's name: Rodrigo Anjos
! Comments: Teste da utilização de aquisição
continua pelo VNA HP8722D
! Time and date: 29/9/2025 13:18
!              Frequency                     S11                                                   S21                                                   S12                                                   S22
# HZ  S  MA R 50
3000000000.000000      4.243164000000000E-01     -5.587500000000000E+01      2.072372000000000E-01     -1.315312000000000E+02
3020000000.000000      4.491272000000000E-01     -6.996875000000000E+01      3.504639000000000E-01     -1.350000000000000E+02
3040000000.000000      4.530182000000000E-01     -8.300390000000000E+01      4.675598000000000E-01     -1.448672000000000E+02
3060000000.000000      4.446259000000000E-01     -9.506639000000000E+01      5.713196000000000E-01     -1.551406000000000E+02
3080000000.000000      4.293518000000000E-01     -1.063711000000000E+02      6.732788000000000E-01     -1.684219000000000E+02
3100000000.000000      4.090881000000000E-01     -1.175625000000000E+02      7.226257000000000E-01      1.767266000000000E+02
3120000000.000000      3.797607000000000E-01     -1.295781000000000E+02      7.317810000000000E-01      1.633828000000000E+02
3140000000.000000      3.392029000000000E-01     -1.425234000000000E+02      7.240906000000000E-01      1.504297000000000E+02
3160000000.000000      2.795105000000000E-01     -1.565234000000000E+02      6.825867000000000E-01      1.369688000000000E+02
3180000000.000000      1.998367000000000E-01     -1.692109000000000E+02      6.144409000000000E-01      1.242695000000000E+02
3200000000.000000      1.119499000000000E-01     -1.698984000000000E+02      5.193176000000000E-01      1.115547000000000E+02
3220000000.000000      7.986069000000000E-02     -1.245000000000000E+02      3.857880000000000E-01      1.008867000000000E+02
3240000000.000000      1.504822000000000E-01     -1.050469000000000E+02      2.468033000000000E-01      9.948437000000000E+01
3260000000.000000      2.299118000000000E-01     -1.153711000000000E+02      1.471329000000000E-01      1.252695000000000E+02
3280000000.000000      2.877350000000000E-01     -1.310078000000000E+02      2.029190000000000E-01      1.652891000000000E+02
3300000000.000000      3.207855000000000E-01     -1.472265000000000E+02      3.300018000000000E-01      1.695859000000000E+02
3320000000.000000      3.327179000000000E-01     -1.631484000000000E+02      4.627228000000000E-01      1.625313000000000E+02
3340000000.000000      3.288879000000000E-01     -1.785469000000000E+02      5.743103000000000E-01      1.505625000000000E+02
3360000000.000000      3.174744000000000E-01      1.667422000000000E+02      6.466064000000000E-01      1.384297000000000E+02
3380000000.000000      3.007965000000000E-01      1.524141000000000E+02      7.088318000000000E-01      1.271055000000000E+02
3400000000.000000      2.785797000000000E-01      1.377031000000000E+02      7.568359000000000E-01      1.132227000000000E+02
3420000000.000000      2.433014000000000E-01      1.227617000000000E+02      7.473450000000000E-01      9.832811000000000E+01
3440000000.000000      1.899338000000000E-01      1.080469000000000E+02      7.053223000000000E-01      8.543360000000000E+01
3460000000.000000      1.199989000000000E-01      9.744921000000000E+01      6.467896000000000E-01      7.236718000000000E+01
3480000000.000000      4.804420000000000E-02      1.214687000000000E+02      5.500488000000000E-01      5.910156000000000E+01
3500000000.000000      9.239960000000000E-02     -1.740937000000000E+02      4.245911000000000E-01      4.760938000000000E+01
3520000000.000000      1.838760000000000E-01      1.791016000000000E+02      2.791748000000000E-01      4.042382000000000E+01
3540000000.000000      2.630310000000000E-01      1.628281000000000E+02      1.477661000000000E-01      5.805078000000000E+01
3560000000.000000      3.231812000000000E-01      1.458828000000000E+02      1.665726000000000E-01      1.075703000000000E+02
3580000000.000000      3.601532000000000E-01      1.298672000000000E+02      2.942810000000000E-01      1.174961000000000E+02
3600000000.000000      3.757629000000000E-01      1.152578000000000E+02      4.191132000000000E-01      1.105625000000000E+02
3620000000.000000      3.774261000000000E-01      1.024570000000000E+02      5.207825000000000E-01      1.010586000000000E+02
3640000000.000000      3.688049000000000E-01      9.140625000000000E+01      6.219788000000000E-01      8.991405000000000E+01
3660000000.000000      3.523712000000000E-01      8.107422000000000E+01      6.926270000000000E-01      7.582812000000000E+01
3680000000.000000      3.292542000000000E-01      7.193359000000000E+01      7.109985000000000E-01      6.253515000000000E+01
3700000000.000000      2.986755000000000E-01      6.370898000000000E+01      7.206421000000000E-01      5.107422000000000E+01
3720000000.000000      2.543793000000000E-01      5.759179000000000E+01      7.238770000000000E-01      3.680078000000000E+01
3740000000.000000      2.041092000000000E-01      5.833008000000000E+01      6.635742000000000E-01      2.137109000000000E+01
3760000000.000000      1.774139000000000E-01      7.233593000000000E+01      5.658264000000000E-01      7.082031000000000E+00
3780000000.000000      2.113571000000000E-01      8.737499000000000E+01      4.370422000000000E-01     -6.035645000000000E+00
3800000000.000000      2.820740000000000E-01      8.901171000000000E+01      2.819977000000000E-01     -1.345996000000000E+01
3820000000.000000      3.495636000000000E-01      8.258593000000000E+01      1.539307000000000E-01     -5.603027000000000E-01
3840000000.000000      4.000854000000000E-01      7.390234000000000E+01      1.429825000000000E-01      4.766406000000000E+01
3860000000.000000      4.358063000000000E-01      6.530468000000000E+01      2.457886000000000E-01      6.529687000000000E+01
3880000000.000000      4.598083000000000E-01      5.776367000000000E+01      3.755188000000000E-01      6.108984000000000E+01
3900000000.000000      4.889374000000000E-01      5.066601000000000E+01      4.760437000000000E-01      4.770117000000000E+01
3920000000.000000      5.191956000000000E-01      4.314649000000000E+01      5.086060000000000E-01      3.593164000000000E+01
3940000000.000000      5.478210000000000E-01      3.400000000000000E+01      5.402832000000000E-01      2.938086000000000E+01
3960000000.000000      5.590515000000000E-01      2.387793000000000E+01      5.953674000000000E-01      1.994141000000000E+01
3980000000.000000      5.535583000000000E-01      1.351709000000000E+01      5.981445000000000E-01      8.159668000000000E+00
4000000000.000000      5.261230000000000E-01      3.135132000000000E+00      5.803223000000000E-01      1.196106000000000E+00
4020000000.000000      4.839783000000000E-01     -6.917480000000000E+00      5.971375000000000E-01     -6.698975000000000E+00
4040000000.000000      4.247284000000000E-01     -1.574072000000000E+01      5.850830000000000E-01     -1.875293000000000E+01
4060000000.000000      3.490295000000000E-01     -2.197070000000000E+01      5.271301000000000E-01     -2.894140000000000E+01
4080000000.000000      2.747040000000000E-01     -2.198242000000000E+01      4.689789000000000E-01     -3.826172000000000E+01
4100000000.000000      2.279739000000000E-01     -1.140283000000000E+01      3.672333000000000E-01     -4.754102000000000E+01
4120000000.000000      2.413177000000000E-01      1.612244000000000E+00      2.497406000000000E-01     -4.416211000000000E+01
4140000000.000000      2.893372000000000E-01      5.009766000000000E+00      2.028046000000000E-01     -2.018359000000000E+01
4160000000.000000      3.335419000000000E-01      7.841492000000000E-01      2.630310000000000E-01     -1.991272000000000E-01
4180000000.000000      3.616791000000000E-01     -6.019287000000000E+00      3.569336000000000E-01      3.813599000000000E+00
4200000000.000000      3.710785000000000E-01     -1.377002000000000E+01      4.880066000000000E-01      1.447449000000000E+00
4220000000.000000      3.669281000000000E-01     -2.092090000000000E+01      6.416321000000000E-01     -1.104980000000000E+01
4240000000.000000      3.479156000000000E-01     -2.845800000000000E+01      7.219849000000000E-01     -2.772754000000000E+01
4260000000.000000      3.097229000000000E-01     -3.415430000000000E+01      7.438354000000000E-01     -4.182422000000000E+01
4280000000.000000      2.594757000000000E-01     -3.551367000000000E+01      7.517090000000000E-01     -5.570507000000000E+01
4300000000.000000      2.224274000000000E-01     -2.745117000000000E+01      7.138062000000000E-01     -7.080859000000000E+01
4320000000.000000      2.355804000000000E-01     -1.464209000000000E+01      6.333313000000000E-01     -8.512110000000000E+01
4340000000.000000      2.935028000000000E-01     -1.068994000000000E+01      5.164490000000000E-01     -9.814453000000000E+01
4360000000.000000      3.585663000000000E-01     -1.570654000000000E+01      3.813477000000000E-01     -1.068750000000000E+02
4380000000.000000      4.053345000000000E-01     -2.459179000000000E+01      2.502441000000000E-01     -1.081523000000000E+02
4400000000.000000      4.263153000000000E-01     -3.466601000000000E+01      1.533966000000000E-01     -8.532812000000000E+01
4420000000.000000      4.239044000000000E-01     -4.393945000000000E+01      1.875458000000000E-01     -4.561523000000000E+01
4440000000.000000      4.074554000000000E-01     -5.206445000000000E+01      3.101044000000000E-01     -3.611133000000000E+01
4460000000.000000      3.880463000000000E-01     -5.855078000000000E+01      4.512787000000000E-01     -4.328515000000000E+01
4480000000.000000      3.672180000000000E-01     -6.516406000000000E+01      5.614624000000000E-01     -5.556250000000000E+01
4500000000.000000      3.461609000000000E-01     -7.163280000000000E+01      6.426086000000000E-01     -6.692577000000000E+01
4520000000.000000      3.134003000000000E-01     -7.930859000000000E+01      7.161560000000000E-01     -7.982031000000000E+01
4540000000.000000      2.624817000000000E-01     -8.552734000000000E+01      7.418518000000000E-01     -9.441015000000000E+01
4560000000.000000      2.019272000000000E-01     -8.383204000000000E+01      7.267456000000000E-01     -1.078398000000000E+02
4580000000.000000      1.744385000000000E-01     -6.789844000000000E+01      6.916809000000000E-01     -1.215547000000000E+02
4600000000.000000      2.118759000000000E-01     -5.402148000000000E+01      6.059570000000000E-01     -1.346875000000000E+02
4620000000.000000      2.767792000000000E-01     -5.527929000000000E+01      4.981995000000000E-01     -1.451719000000000E+02
4640000000.000000      3.307495000000000E-01     -6.516406000000000E+01      3.799286000000000E-01     -1.536406000000000E+02
4660000000.000000      3.544312000000000E-01     -7.846093000000000E+01      2.468262000000000E-01     -1.519219000000000E+02
4680000000.000000      3.466492000000000E-01     -9.241405000000000E+01      1.791840000000000E-01     -1.236914000000000E+02
4700000000.000000      3.097076000000000E-01     -1.055820000000000E+02      2.475739000000000E-01     -9.677734000000000E+01
4720000000.000000      2.532959000000000E-01     -1.161953000000000E+02      3.664703000000000E-01     -9.555468000000000E+01
4740000000.000000      1.912994000000000E-01     -1.215703000000000E+02      4.732971000000000E-01     -1.017812000000000E+02
4760000000.000000      1.387024000000000E-01     -1.175625000000000E+02      5.793457000000000E-01     -1.107109000000000E+02
4780000000.000000      1.123199000000000E-01     -1.017891000000000E+02      6.666260000000000E-01     -1.229453000000000E+02
4800000000.000000      1.185341000000000E-01     -8.386328000000000E+01      7.173767000000000E-01     -1.357422000000000E+02
4820000000.000000      1.467361000000000E-01     -7.437500000000000E+01      7.348022000000000E-01     -1.490000000000000E+02
4840000000.000000      1.881180000000000E-01     -7.390625000000000E+01      7.182922000000000E-01     -1.617891000000000E+02
4860000000.000000      2.308655000000000E-01     -8.046484000000000E+01      6.848145000000000E-01     -1.743359000000000E+02
4880000000.000000      2.682800000000000E-01     -9.073437000000000E+01      6.174927000000000E-01      1.717969000000000E+02
4900000000.000000      2.941742000000000E-01     -1.043516000000000E+02      4.956970000000000E-01      1.598281000000000E+02
4920000000.000000      2.997131000000000E-01     -1.192851000000000E+02      3.664551000000000E-01      1.534297000000000E+02
4940000000.000000      2.848816000000000E-01     -1.351172000000000E+02      2.517242000000000E-01      1.559375000000000E+02
4960000000.000000      2.545624000000000E-01     -1.501797000000000E+02      1.771545000000000E-01      1.772031000000000E+02
4980000000.000000      2.126846000000000E-01     -1.643516000000000E+02      2.145386000000000E-01     -1.512812000000000E+02
5000000000.000000      1.682053000000000E-01     -1.761953000000000E+02      3.293457000000000E-01     -1.436875000000000E+02
5020000000.000000      1.303864000000000E-01      1.738516000000000E+02      4.593353000000000E-01     -1.496641000000000E+02
5040000000.000000      1.002159000000000E-01      1.639844000000000E+02      5.699463000000000E-01     -1.604375000000000E+02
5060000000.000000      7.213211000000000E-02      1.486172000000000E+02      6.494446000000000E-01     -1.719219000000000E+02
5080000000.000000      4.156685000000000E-02      1.218437000000000E+02      7.174988000000000E-01      1.759687000000000E+02
5100000000.000000      1.682949000000000E-02      4.204883000000000E+01      7.564087000000000E-01      1.622266000000000E+02
5120000000.000000      4.090500000000000E-02     -5.144921000000000E+01      7.531433000000000E-01      1.479219000000000E+02
5140000000.000000      7.246780000000000E-02     -8.762499000000000E+01      7.048950000000000E-01      1.342813000000000E+02
5160000000.000000      9.586716000000000E-02     -1.186836000000000E+02      6.297913000000000E-01      1.219609000000000E+02
5180000000.000000      1.088943000000000E-01     -1.495078000000000E+02      5.326538000000000E-01      1.107969000000000E+02
5200000000.000000      1.120491000000000E-01      1.777734000000000E+02      4.156952000000000E-01      1.011133000000000E+02
5220000000.000000      1.096306000000000E-01      1.419688000000000E+02      2.832642000000000E-01      9.814062000000000E+01
5240000000.000000      1.089439000000000E-01      1.056992000000000E+02      1.836700000000000E-01      1.151484000000000E+02
5260000000.000000      1.134338000000000E-01      7.236328000000000E+01      1.962814000000000E-01      1.493125000000000E+02
5280000000.000000      1.205978000000000E-01      4.553320000000000E+01      2.965088000000000E-01      1.604453000000000E+02
5300000000.000000      1.273499000000000E-01      2.489062000000000E+01      4.098511000000000E-01      1.580781000000000E+02
5320000000.000000      1.337204000000000E-01      8.802734000000000E+00      5.275879000000000E-01      1.504688000000000E+02
5340000000.000000      1.386032000000000E-01     -5.751465000000000E+00      6.383972000000000E-01      1.384844000000000E+02
5360000000.000000      1.428909000000000E-01     -2.121680000000000E+01      7.060242000000000E-01      1.239375000000000E+02
5380000000.000000      1.388092000000000E-01     -3.865429000000000E+01      7.185669000000000E-01      1.107500000000000E+02
5400000000.000000      1.203194000000000E-01     -5.676952000000000E+01      7.176208000000000E-01      9.908592000000000E+01
5420000000.000000      8.461380000000000E-02     -7.346484000000000E+01      7.053528000000000E-01      8.589062000000000E+01
5440000000.000000      3.044796000000000E-02     -7.729687000000000E+01      6.488647000000000E-01      7.167187000000000E+01
5460000000.000000      4.353142000000000E-02      3.875586000000000E+01      5.394897000000000E-01      5.837304000000000E+01
5480000000.000000      1.129456000000000E-01      3.094531000000000E+01      4.128113000000000E-01      4.924999000000000E+01
5500000000.000000      1.751404000000000E-01      1.564844000000000E+01      2.926178000000000E-01      4.728125000000000E+01
5520000000.000000      2.216263000000000E-01      5.712891000000000E-01      1.951904000000000E-01      5.885351000000000E+01
5540000000.000000      2.516174000000000E-01     -1.317432000000000E+01      1.808624000000000E-01      9.079687000000000E+01
5560000000.000000      2.700348000000000E-01     -2.520215000000000E+01      2.626038000000000E-01      1.086680000000000E+02
5580000000.000000      2.827759000000000E-01     -3.501758000000000E+01      3.843079000000000E-01      1.084922000000000E+02
5600000000.000000      2.938232000000000E-01     -4.388085000000000E+01      5.066528000000000E-01      9.950390000000000E+01
5620000000.000000      3.041382000000000E-01     -5.301952000000000E+01      5.963135000000000E-01      8.702343000000000E+01
5640000000.000000      3.077087000000000E-01     -6.283398000000000E+01      6.466675000000000E-01      7.507813000000000E+01
5660000000.000000      2.978973000000000E-01     -7.343359000000000E+01      6.838379000000000E-01      6.392187000000000E+01
5680000000.000000      2.687683000000000E-01     -8.377733000000000E+01      6.990967000000000E-01      5.107422000000000E+01
5700000000.000000      2.214737000000000E-01     -9.119532000000000E+01      6.847229000000000E-01      3.875195000000000E+01
5720000000.000000      1.717224000000000E-01     -8.989061000000000E+01      6.442871000000000E-01      2.610058000000000E+01
5740000000.000000      1.501312000000000E-01     -7.544531000000000E+01      5.662537000000000E-01      1.271631000000000E+01
5760000000.000000      1.783905000000000E-01     -6.379101000000000E+01      4.524841000000000E-01      1.181030000000000E+00
5780000000.000000      2.248840000000000E-01     -6.532812000000000E+01      3.164978000000000E-01     -4.150146000000000E+00
5800000000.000000      2.566376000000000E-01     -7.299609000000000E+01      2.080841000000000E-01      6.896484000000000E+00
5820000000.000000      2.662354000000000E-01     -8.259766000000000E+01      1.892090000000000E-01      3.725586000000000E+01
5840000000.000000      2.567749000000000E-01     -9.106249000000000E+01      2.710114000000000E-01      5.382813000000000E+01
5860000000.000000      2.389679000000000E-01     -9.665234000000000E+01      3.714447000000000E-01      5.397265000000000E+01
5880000000.000000      2.244110000000000E-01     -9.971874000000000E+01      4.791412000000000E-01      4.863476000000000E+01
5900000000.000000      2.169342000000000E-01     -1.023203000000000E+02      5.935974000000000E-01      3.852344000000000E+01
5920000000.000000      2.093048000000000E-01     -1.050430000000000E+02      6.713867000000000E-01      2.441113000000000E+01
5940000000.000000      1.953125000000000E-01     -1.070351000000000E+02      7.019043000000000E-01      1.120313000000000E+01
5960000000.000000      1.776581000000000E-01     -1.053906000000000E+02      7.147217000000000E-01     -1.359558000000000E+00
5980000000.000000      1.650085000000000E-01     -9.756248000000000E+01      6.925049000000000E-01     -1.546777000000000E+01
6000000000.000000      1.807632000000000E-01     -8.836329000000000E+01      6.282043000000000E-01     -2.902539000000000E+01
6020000000.000000      2.155380000000000E-01     -8.663671000000000E+01      5.304260000000000E-01     -4.172071000000000E+01
6040000000.000000      2.513123000000000E-01     -9.191406000000000E+01      4.001160000000000E-01     -4.980273000000000E+01
6060000000.000000      2.746277000000000E-01     -1.009727000000000E+02      2.858887000000000E-01     -4.969531000000000E+01
6080000000.000000      2.859955000000000E-01     -1.110820000000000E+02      2.058487000000000E-01     -3.603711000000000E+01
