! Network Analyzer HP8722D
! Hewlett-Packard
! Data name: Linha & Wilkinson+CNT
! Saver's name: Rodrigo Anjos
! Comments: Teste da utilização de aquisição
continua pelo VNA HP8722D
! Time and date: 29/9/2025 12:26
!              Frequency                     S11                                                   S21                                                   S12                                                   S22
# HZ  S  MA R 50
3000000000.000000      4.235687000000000E-01     -5.598046000000000E+01      2.074203000000000E-01     -1.314687000000000E+02
3020000000.000000      4.479370000000000E-01     -7.060156000000000E+01      3.497162000000000E-01     -1.348750000000000E+02
3040000000.000000      4.542999000000000E-01     -8.324219000000000E+01      4.682465000000000E-01     -1.449453000000000E+02
3060000000.000000      4.464111000000000E-01     -9.521875000000000E+01      5.724182000000000E-01     -1.551797000000000E+02
3080000000.000000      4.313507000000000E-01     -1.063672000000000E+02      6.727905000000000E-01     -1.682109000000000E+02
3100000000.000000      4.112854000000000E-01     -1.175234000000000E+02      7.250061000000000E-01      1.769219000000000E+02
3120000000.000000      3.824005000000000E-01     -1.294297000000000E+02      7.303467000000000E-01      1.635547000000000E+02
3140000000.000000      3.417358000000000E-01     -1.422812000000000E+02      7.231750000000000E-01      1.506172000000000E+02
3160000000.000000      2.816620000000000E-01     -1.561484000000000E+02      6.834717000000000E-01      1.371094000000000E+02
3180000000.000000      2.025604000000000E-01     -1.685234000000000E+02      6.145630000000000E-01      1.247266000000000E+02
3200000000.000000      1.148834000000000E-01     -1.687109000000000E+02      5.205688000000000E-01      1.118398000000000E+02
3220000000.000000      8.307266000000000E-02     -1.248594000000000E+02      3.856812000000000E-01      1.009570000000000E+02
3240000000.000000      1.535873000000000E-01     -1.055508000000000E+02      2.466125000000000E-01      9.966015000000000E+01
3260000000.000000      2.327881000000000E-01     -1.154375000000000E+02      1.472778000000000E-01      1.256406000000000E+02
3280000000.000000      2.908325000000000E-01     -1.308516000000000E+02      2.038803000000000E-01      1.656172000000000E+02
3300000000.000000      3.238068000000000E-01     -1.470391000000000E+02      3.304291000000000E-01      1.698672000000000E+02
3320000000.000000      3.356018000000000E-01     -1.627578000000000E+02      4.629211000000000E-01      1.627344000000000E+02
3340000000.000000      3.317566000000000E-01     -1.780391000000000E+02      5.748901000000000E-01      1.505938000000000E+02
3360000000.000000      3.194885000000000E-01      1.673672000000000E+02      6.469116000000000E-01      1.385313000000000E+02
3380000000.000000      3.025665000000000E-01      1.530781000000000E+02      7.100830000000000E-01      1.271797000000000E+02
3400000000.000000      2.787628000000000E-01      1.385391000000000E+02      7.586365000000000E-01      1.133828000000000E+02
3420000000.000000      2.430344000000000E-01      1.236016000000000E+02      7.501221000000000E-01      9.855078000000000E+01
3440000000.000000      1.889267000000000E-01      1.088125000000000E+02      7.056580000000000E-01      8.567186000000000E+01
3460000000.000000      1.184502000000000E-01      9.862499000000000E+01      6.471252000000000E-01      7.253515000000000E+01
3480000000.000000      4.744148000000000E-02      1.249180000000000E+02      5.504456000000000E-01      5.913867000000000E+01
3500000000.000000      9.534073000000000E-02     -1.730781000000000E+02      4.250336000000000E-01      4.778710000000000E+01
3520000000.000000      1.862946000000000E-01      1.797891000000000E+02      2.787781000000000E-01      4.063086000000000E+01
3540000000.000000      2.649384000000000E-01      1.635391000000000E+02      1.477814000000000E-01      5.858203000000000E+01
3560000000.000000      3.236847000000000E-01      1.465156000000000E+02      1.675491000000000E-01      1.078984000000000E+02
3580000000.000000      3.599854000000000E-01      1.304297000000000E+02      2.948608000000000E-01      1.176914000000000E+02
3600000000.000000      3.756866000000000E-01      1.157539000000000E+02      4.201660000000000E-01      1.107148000000000E+02
3620000000.000000      3.772125000000000E-01      1.029688000000000E+02      5.233154000000000E-01      1.013437000000000E+02
3640000000.000000      3.672638000000000E-01      9.174219000000000E+01      6.246948000000000E-01      9.000780000000000E+01
3660000000.000000      3.511047000000000E-01      8.136328000000000E+01      6.936646000000000E-01      7.598437000000000E+01
3680000000.000000      3.280182000000000E-01      7.211328000000000E+01      7.108154000000000E-01      6.270702000000000E+01
3700000000.000000      2.967834000000000E-01      6.379296000000000E+01      7.216187000000000E-01      5.114258000000000E+01
3720000000.000000      2.524414000000000E-01      5.762695000000000E+01      7.243042000000000E-01      3.685937000000000E+01
3740000000.000000      2.019730000000000E-01      5.852929000000000E+01      6.643372000000000E-01      2.143261000000000E+01
3760000000.000000      1.753845000000000E-01      7.273438000000000E+01      5.668335000000000E-01      7.235840000000000E+00
3780000000.000000      2.098083000000000E-01      8.784765000000000E+01      4.360352000000000E-01     -5.997314000000000E+00
3800000000.000000      2.806244000000000E-01      8.930079000000000E+01      2.826996000000000E-01     -1.320996000000000E+01
3820000000.000000      3.482361000000000E-01      8.277735000000000E+01      1.535568000000000E-01     -3.021240000000000E-01
3840000000.000000      3.990479000000000E-01      7.399609000000000E+01      1.436996000000000E-01      4.782031000000000E+01
3860000000.000000      4.335785000000000E-01      6.540625000000000E+01      2.469177000000000E-01      6.531250000000000E+01
3880000000.000000      4.583588000000000E-01      5.780273000000000E+01      3.763885000000000E-01      6.124609000000000E+01
3900000000.000000      4.876404000000000E-01      5.069140000000000E+01      4.788818000000000E-01      4.788086000000000E+01
3920000000.000000      5.190735000000000E-01      4.285352000000000E+01      5.095215000000000E-01      3.613086000000000E+01
3940000000.000000      5.452271000000000E-01      3.390820000000000E+01      5.390930000000000E-01      2.962305000000000E+01
3960000000.000000      5.584717000000000E-01      2.382226000000000E+01      5.960693000000000E-01      2.010352000000000E+01
3980000000.000000      5.531311000000000E-01      1.340723000000000E+01      5.979004000000000E-01      8.192871000000000E+00
4000000000.000000      5.266418000000000E-01      2.839966000000000E+00      5.804443000000000E-01      1.325195000000000E+00
4020000000.000000      4.827728000000000E-01     -7.094482000000000E+00      5.973816000000000E-01     -6.534180000000000E+00
4040000000.000000      4.238739000000000E-01     -1.604199000000000E+01      5.862732000000000E-01     -1.870703000000000E+01
4060000000.000000      3.486786000000000E-01     -2.222168000000000E+01      5.278931000000000E-01     -2.893750000000000E+01
4080000000.000000      2.738190000000000E-01     -2.230859000000000E+01      4.683990000000000E-01     -3.814844000000000E+01
4100000000.000000      2.278442000000000E-01     -1.177637000000000E+01      3.670959000000000E-01     -4.754883000000000E+01
4120000000.000000      2.411499000000000E-01      1.330688000000000E+00      2.492218000000000E-01     -4.396289000000000E+01
4140000000.000000      2.890930000000000E-01      4.616943000000000E+00      2.032700000000000E-01     -1.977539000000000E+01
4160000000.000000      3.335114000000000E-01      5.108643000000000E-01      2.638702000000000E-01      1.373291000000000E-02
4180000000.000000      3.617706000000000E-01     -6.304932000000000E+00      3.570709000000000E-01      3.905640000000000E+00
4200000000.000000      3.708649000000000E-01     -1.405859000000000E+01      4.884796000000000E-01      1.370544000000000E+00
4220000000.000000      3.674316000000000E-01     -2.126172000000000E+01      6.414185000000000E-01     -1.092627000000000E+01
4240000000.000000      3.478241000000000E-01     -2.877734000000000E+01      7.207336000000000E-01     -2.768164000000000E+01
4260000000.000000      3.094788000000000E-01     -3.454687000000000E+01      7.436523000000000E-01     -4.171288000000000E+01
4280000000.000000      2.596436000000000E-01     -3.583789000000000E+01      7.517090000000000E-01     -5.557617000000000E+01
4300000000.000000      2.229691000000000E-01     -2.770117000000000E+01      7.145081000000000E-01     -7.057422000000000E+01
4320000000.000000      2.358627000000000E-01     -1.507910000000000E+01      6.306763000000000E-01     -8.509766000000000E+01
4340000000.000000      2.940979000000000E-01     -1.100049000000000E+01      5.162048000000000E-01     -9.774218000000000E+01
4360000000.000000      3.594360000000000E-01     -1.596338000000000E+01      3.806915000000000E-01     -1.065859000000000E+02
4380000000.000000      4.055328000000000E-01     -2.492285000000000E+01      2.497482000000000E-01     -1.078516000000000E+02
4400000000.000000      4.267426000000000E-01     -3.486133000000000E+01      1.534500000000000E-01     -8.495312000000000E+01
4420000000.000000      4.251709000000000E-01     -4.415625000000000E+01      1.880569000000000E-01     -4.543164000000000E+01
4440000000.000000      4.094543000000000E-01     -5.220703000000000E+01      3.102112000000000E-01     -3.616015000000000E+01
4460000000.000000      3.892822000000000E-01     -5.887890000000000E+01      4.520874000000000E-01     -4.324219000000000E+01
4480000000.000000      3.693237000000000E-01     -6.500000000000000E+01      5.625305000000000E-01     -5.533789000000000E+01
4500000000.000000      3.476563000000000E-01     -7.167578000000000E+01      6.416931000000000E-01     -6.678515000000000E+01
4520000000.000000      3.148041000000000E-01     -7.922656000000000E+01      7.151489000000000E-01     -7.976171000000000E+01
4540000000.000000      2.639160000000000E-01     -8.530077000000000E+01      7.423706000000000E-01     -9.432032000000000E+01
4560000000.000000      2.037811000000000E-01     -8.355469000000000E+01      7.273254000000000E-01     -1.075312000000000E+02
4580000000.000000      1.771317000000000E-01     -6.800390000000000E+01      6.906433000000000E-01     -1.213750000000000E+02
4600000000.000000      2.142639000000000E-01     -5.430664000000000E+01      6.058350000000000E-01     -1.346484000000000E+02
4620000000.000000      2.793274000000000E-01     -5.563086000000000E+01      4.971619000000000E-01     -1.448437000000000E+02
4640000000.000000      3.332977000000000E-01     -6.542187000000000E+01      3.784332000000000E-01     -1.531328000000000E+02
4660000000.000000      3.571930000000000E-01     -7.846093000000000E+01      2.463913000000000E-01     -1.516875000000000E+02
4680000000.000000      3.484955000000000E-01     -9.234766000000000E+01      1.789398000000000E-01     -1.233867000000000E+02
4700000000.000000      3.115387000000000E-01     -1.053281000000000E+02      2.483063000000000E-01     -9.649218000000000E+01
4720000000.000000      2.556610000000000E-01     -1.158476000000000E+02      3.673401000000000E-01     -9.525782000000000E+01
4740000000.000000      1.930084000000000E-01     -1.208906000000000E+02      4.741058000000000E-01     -1.016875000000000E+02
4760000000.000000      1.411819000000000E-01     -1.168828000000000E+02      5.791321000000000E-01     -1.103984000000000E+02
4780000000.000000      1.150055000000000E-01     -1.012148000000000E+02      6.679077000000000E-01     -1.227773000000000E+02
4800000000.000000      1.218910000000000E-01     -8.377733000000000E+01      7.185974000000000E-01     -1.354531000000000E+02
4820000000.000000      1.505737000000000E-01     -7.474218000000000E+01      7.355042000000000E-01     -1.488828000000000E+02
4840000000.000000      1.911469000000000E-01     -7.436718000000000E+01      7.185669000000000E-01     -1.615937000000000E+02
4860000000.000000      2.342453000000000E-01     -8.066015000000000E+01      6.833496000000000E-01     -1.740625000000000E+02
4880000000.000000      2.713165000000000E-01     -9.087109000000000E+01      6.166382000000000E-01      1.721562000000000E+02
4900000000.000000      2.961578000000000E-01     -1.041445000000000E+02      4.948883000000000E-01      1.599141000000000E+02
4920000000.000000      3.016968000000000E-01     -1.190469000000000E+02      3.650360000000000E-01      1.538359000000000E+02
4940000000.000000      2.874451000000000E-01     -1.344922000000000E+02      2.522430000000000E-01      1.561875000000000E+02
4960000000.000000      2.565155000000000E-01     -1.496406000000000E+02      1.773911000000000E-01      1.774688000000000E+02
4980000000.000000      2.134018000000000E-01     -1.635391000000000E+02      2.147675000000000E-01     -1.509766000000000E+02
5000000000.000000      1.687317000000000E-01     -1.748125000000000E+02      3.305969000000000E-01     -1.434766000000000E+02
5020000000.000000      1.305847000000000E-01      1.755312000000000E+02      4.613037000000000E-01     -1.495781000000000E+02
5040000000.000000      9.932709000000000E-02      1.657187000000000E+02      5.706177000000000E-01     -1.604609000000000E+02
5060000000.000000      7.127762000000000E-02      1.514922000000000E+02      6.510925000000000E-01     -1.717187000000000E+02
5080000000.000000      3.978920000000000E-02      1.266289000000000E+02      7.198486000000000E-01      1.760078000000000E+02
5100000000.000000      1.390457000000000E-02      3.960156000000000E+01      7.558594000000000E-01      1.621406000000000E+02
5120000000.000000      4.157066000000000E-02     -5.370507000000000E+01      7.527466000000000E-01      1.481406000000000E+02
5140000000.000000      7.399368000000000E-02     -8.839453000000000E+01      7.029724000000000E-01      1.344531000000000E+02
5160000000.000000      9.769058000000000E-02     -1.184609000000000E+02      6.276550000000000E-01      1.220742000000000E+02
5180000000.000000      1.104126000000000E-01     -1.486250000000000E+02      5.326233000000000E-01      1.110469000000000E+02
5200000000.000000      1.121712000000000E-01      1.791250000000000E+02      4.155121000000000E-01      1.014453000000000E+02
5220000000.000000      1.083946000000000E-01      1.429766000000000E+02      2.831116000000000E-01      9.853125000000000E+01
5240000000.000000      1.068459000000000E-01      1.063515000000000E+02      1.844482000000000E-01      1.155859000000000E+02
5260000000.000000      1.106644000000000E-01      7.226563000000000E+01      1.967468000000000E-01      1.495234000000000E+02
5280000000.000000      1.182823000000000E-01      4.542578000000000E+01      2.968903000000000E-01      1.607031000000000E+02
5300000000.000000      1.250153000000000E-01      2.440820000000000E+01      4.101868000000000E-01      1.581797000000000E+02
5320000000.000000      1.315536000000000E-01      7.765869000000000E+00      5.293579000000000E-01      1.507266000000000E+02
5340000000.000000      1.380920000000000E-01     -6.495850000000000E+00      6.393433000000000E-01      1.384531000000000E+02
5360000000.000000      1.429214000000000E-01     -2.200098000000000E+01      7.046814000000000E-01      1.242148000000000E+02
5380000000.000000      1.391373000000000E-01     -3.904687000000000E+01      7.174683000000000E-01      1.108359000000000E+02
5400000000.000000      1.210556000000000E-01     -5.696875000000000E+01      7.188721000000000E-01      9.910545000000000E+01
5420000000.000000      8.623886000000000E-02     -7.367578000000000E+01      7.043762000000000E-01      8.611719000000000E+01
5440000000.000000      3.256798000000000E-02     -7.776953000000000E+01      6.483765000000000E-01      7.178124000000000E+01
5460000000.000000      4.163170000000000E-02      3.635351000000000E+01      5.401306000000000E-01      5.867773000000000E+01
5480000000.000000      1.110916000000000E-01      2.991504000000000E+01      4.115448000000000E-01      4.969140000000000E+01
5500000000.000000      1.736069000000000E-01      1.490283000000000E+01      2.928162000000000E-01      4.755078000000000E+01
5520000000.000000      2.203140000000000E-01     -1.263428000000000E-01      1.952591000000000E-01      5.932617000000000E+01
5540000000.000000      2.516174000000000E-01     -1.368359000000000E+01      1.807098000000000E-01      9.100780000000000E+01
5560000000.000000      2.708893000000000E-01     -2.540625000000000E+01      2.629700000000000E-01      1.089180000000000E+02
5580000000.000000      2.831421000000000E-01     -3.530078000000000E+01      3.843536000000000E-01      1.086445000000000E+02
5600000000.000000      2.950134000000000E-01     -4.403906000000000E+01      5.065002000000000E-01      9.981640000000000E+01
5620000000.000000      3.058472000000000E-01     -5.307812000000000E+01      5.940247000000000E-01      8.732031000000000E+01
5640000000.000000      3.095245000000000E-01     -6.281054000000000E+01      6.453552000000000E-01      7.532421000000000E+01
5660000000.000000      3.007660000000000E-01     -7.345312000000000E+01      6.838074000000000E-01      6.405078000000000E+01
5680000000.000000      2.721100000000000E-01     -8.380077000000000E+01      6.967773000000000E-01      5.127930000000000E+01
5700000000.000000      2.251434000000000E-01     -9.113281000000000E+01      6.827698000000000E-01      3.896289000000000E+01
5720000000.000000      1.749039000000000E-01     -9.004686000000000E+01      6.420593000000000E-01      2.627344000000000E+01
5740000000.000000      1.529465000000000E-01     -7.578515000000000E+01      5.643311000000000E-01      1.306250000000000E+01
5760000000.000000      1.807785000000000E-01     -6.429688000000000E+01      4.506226000000000E-01      1.376038000000000E+00
5780000000.000000      2.267075000000000E-01     -6.555078000000000E+01      3.162079000000000E-01     -3.707886000000000E+00
5800000000.000000      2.590332000000000E-01     -7.332031000000000E+01      2.077560000000000E-01      7.330566000000000E+00
5820000000.000000      2.691650000000000E-01     -8.272264000000000E+01      1.896286000000000E-01      3.779687000000000E+01
5840000000.000000      2.592163000000000E-01     -9.101563000000000E+01      2.709656000000000E-01      5.415820000000000E+01
5860000000.000000      2.418289000000000E-01     -9.657030000000000E+01      3.704681000000000E-01      5.433594000000000E+01
5880000000.000000      2.273102000000000E-01     -9.978125000000000E+01      4.780579000000000E-01      4.897655000000000E+01
5900000000.000000      2.208252000000000E-01     -1.019258000000000E+02      5.934753000000000E-01      3.881836000000000E+01
5920000000.000000      2.125931000000000E-01     -1.049726000000000E+02      6.698608000000000E-01      2.472558000000000E+01
5940000000.000000      1.984329000000000E-01     -1.068672000000000E+02      7.014771000000000E-01      1.143652000000000E+01
5960000000.000000      1.807098000000000E-01     -1.054492000000000E+02      7.124329000000000E-01     -1.219482000000000E+00
5980000000.000000      1.681137000000000E-01     -9.781639000000000E+01      6.912537000000000E-01     -1.499268000000000E+01
6000000000.000000      1.830750000000000E-01     -8.855860000000000E+01      6.286316000000000E-01     -2.871191000000000E+01
6020000000.000000      2.179108000000000E-01     -8.671484000000000E+01      5.273438000000000E-01     -4.143359000000000E+01
6040000000.000000      2.543335000000000E-01     -9.196093000000000E+01      4.000244000000000E-01     -4.968163000000000E+01
6060000000.000000      2.789001000000000E-01     -1.009492000000000E+02      2.849731000000000E-01     -4.940430000000000E+01
6080000000.000000      2.888947000000000E-01     -1.109062000000000E+02      2.052536000000000E-01     -3.547852000000000E+01
