! Network Analyzer HP8722D
! Hewlett-Packard
! Data name: Linha & Wilkinson+CNT
! Saver's name: Rodrigo Anjos
! Comments: Teste da utilização de aquisição
continua pelo VNA HP8722D
! Time and date: 29/9/2025 12:44
!              Frequency                     S11                                                   S21                                                   S12                                                   S22
# HZ  S  MA R 50
3000000000.000000      4.253998000000000E-01     -5.599804000000000E+01      2.066574000000000E-01     -1.313203000000000E+02
3020000000.000000      4.492035000000000E-01     -7.023046000000000E+01      3.496094000000000E-01     -1.348438000000000E+02
3040000000.000000      4.544525000000000E-01     -8.308203000000000E+01      4.683228000000000E-01     -1.447109000000000E+02
3060000000.000000      4.465027000000000E-01     -9.512110000000000E+01      5.722351000000000E-01     -1.550000000000000E+02
3080000000.000000      4.316406000000000E-01     -1.062969000000000E+02      6.721191000000000E-01     -1.681094000000000E+02
3100000000.000000      4.116821000000000E-01     -1.174609000000000E+02      7.230530000000000E-01      1.771406000000000E+02
3120000000.000000      3.832550000000000E-01     -1.294688000000000E+02      7.309570000000000E-01      1.635156000000000E+02
3140000000.000000      3.424377000000000E-01     -1.422812000000000E+02      7.240906000000000E-01      1.507734000000000E+02
3160000000.000000      2.826538000000000E-01     -1.560547000000000E+02      6.843872000000000E-01      1.371953000000000E+02
3180000000.000000      2.027740000000000E-01     -1.685234000000000E+02      6.135559000000000E-01      1.248164000000000E+02
3200000000.000000      1.150780000000000E-01     -1.686719000000000E+02      5.212402000000000E-01      1.116875000000000E+02
3220000000.000000      8.281708000000000E-02     -1.250781000000000E+02      3.858948000000000E-01      1.010273000000000E+02
3240000000.000000      1.530838000000000E-01     -1.054180000000000E+02      2.472229000000000E-01      9.980078000000000E+01
3260000000.000000      2.326508000000000E-01     -1.154297000000000E+02      1.471100000000000E-01      1.253594000000000E+02
3280000000.000000      2.907257000000000E-01     -1.307734000000000E+02      2.034988000000000E-01      1.654453000000000E+02
3300000000.000000      3.239746000000000E-01     -1.468984000000000E+02      3.300323000000000E-01      1.697734000000000E+02
3320000000.000000      3.354645000000000E-01     -1.627109000000000E+02      4.630280000000000E-01      1.628828000000000E+02
3340000000.000000      3.316193000000000E-01     -1.779297000000000E+02      5.747375000000000E-01      1.507344000000000E+02
3360000000.000000      3.194275000000000E-01      1.674531000000000E+02      6.467285000000000E-01      1.386797000000000E+02
3380000000.000000      3.024445000000000E-01      1.532266000000000E+02      7.093201000000000E-01      1.272109000000000E+02
3400000000.000000      2.794495000000000E-01      1.385781000000000E+02      7.583008000000000E-01      1.134648000000000E+02
3420000000.000000      2.434006000000000E-01      1.237266000000000E+02      7.493591000000000E-01      9.864843000000000E+01
3440000000.000000      1.894913000000000E-01      1.090234000000000E+02      7.065430000000000E-01      8.574219000000000E+01
3460000000.000000      1.189919000000000E-01      9.853125000000000E+01      6.481934000000000E-01      7.258594000000000E+01
3480000000.000000      4.765320000000000E-02      1.244687000000000E+02      5.510254000000000E-01      5.923633000000000E+01
3500000000.000000      9.466934000000000E-02     -1.730156000000000E+02      4.262390000000000E-01      4.774414000000000E+01
3520000000.000000      1.860046000000000E-01      1.799375000000000E+02      2.795868000000000E-01      4.067968000000000E+01
3540000000.000000      2.651672000000000E-01      1.636875000000000E+02      1.479034000000000E-01      5.836523000000000E+01
3560000000.000000      3.239899000000000E-01      1.466172000000000E+02      1.669998000000000E-01      1.078437000000000E+02
3580000000.000000      3.597870000000000E-01      1.304922000000000E+02      2.942963000000000E-01      1.176289000000000E+02
3600000000.000000      3.760529000000000E-01      1.158047000000000E+02      4.197235000000000E-01      1.106836000000000E+02
3620000000.000000      3.775330000000000E-01      1.030703000000000E+02      5.227966000000000E-01      1.012383000000000E+02
3640000000.000000      3.673706000000000E-01      9.173437000000000E+01      6.236877000000000E-01      9.023046000000000E+01
3660000000.000000      3.513641000000000E-01      8.142578000000000E+01      6.934204000000000E-01      7.600390000000000E+01
3680000000.000000      3.280334000000000E-01      7.217187000000000E+01      7.119141000000000E-01      6.278125000000000E+01
3700000000.000000      2.973022000000000E-01      6.381640000000000E+01      7.211914000000000E-01      5.111523000000000E+01
3720000000.000000      2.522125000000000E-01      5.754101000000000E+01      7.258606000000000E-01      3.699609000000000E+01
3740000000.000000      2.025909000000000E-01      5.843554000000000E+01      6.651001000000000E-01      2.146679000000000E+01
3760000000.000000      1.753845000000000E-01      7.256249000000000E+01      5.677185000000000E-01      7.256348000000000E+00
3780000000.000000      2.096405000000000E-01      8.784765000000000E+01      4.380341000000000E-01     -6.094727000000000E+00
3800000000.000000      2.808075000000000E-01      8.938671000000000E+01      2.827301000000000E-01     -1.325391000000000E+01
3820000000.000000      3.480072000000000E-01      8.291016000000000E+01      1.542206000000000E-01     -3.831482000000000E-01
3840000000.000000      3.988495000000000E-01      7.408984000000000E+01      1.433868000000000E-01      4.786133000000000E+01
3860000000.000000      4.333038000000000E-01      6.546875000000000E+01      2.458267000000000E-01      6.540625000000000E+01
3880000000.000000      4.593048000000000E-01      5.785546000000000E+01      3.763275000000000E-01      6.136913000000000E+01
3900000000.000000      4.877930000000000E-01      5.078906000000000E+01      4.772339000000000E-01      4.778906000000000E+01
3920000000.000000      5.188293000000000E-01      4.295898000000000E+01      5.091248000000000E-01      3.620508000000000E+01
3940000000.000000      5.480957000000000E-01      3.389453000000000E+01      5.383911000000000E-01      2.959082000000000E+01
3960000000.000000      5.597534000000000E-01      2.390625000000000E+01      5.965271000000000E-01      2.024219000000000E+01
3980000000.000000      5.529175000000000E-01      1.334424000000000E+01      5.972595000000000E-01      8.393555000000000E+00
4000000000.000000      5.255737000000000E-01      2.908569000000000E+00      5.806580000000000E-01      1.370544000000000E+00
4020000000.000000      4.841156000000000E-01     -7.133057000000000E+00      5.981750000000000E-01     -6.432617000000000E+00
4040000000.000000      4.249420000000000E-01     -1.594971000000000E+01      5.858459000000000E-01     -1.866797000000000E+01
4060000000.000000      3.491058000000000E-01     -2.219824000000000E+01      5.271606000000000E-01     -2.873535000000000E+01
4080000000.000000      2.743988000000000E-01     -2.233887000000000E+01      4.694977000000000E-01     -3.811523000000000E+01
4100000000.000000      2.285004000000000E-01     -1.182129000000000E+01      3.680267000000000E-01     -4.747460000000000E+01
4120000000.000000      2.414017000000000E-01      1.278503000000000E+00      2.501678000000000E-01     -4.403710000000000E+01
4140000000.000000      2.885132000000000E-01      4.754150000000000E+00      2.032547000000000E-01     -1.990332000000000E+01
4160000000.000000      3.329773000000000E-01      6.193542000000000E-01      2.636566000000000E-01     -2.059937000000000E-02
4180000000.000000      3.616791000000000E-01     -6.210205000000000E+00      3.569794000000000E-01      3.916626000000000E+00
4200000000.000000      3.712311000000000E-01     -1.402979000000000E+01      4.874725000000000E-01      1.571045000000000E+00
4220000000.000000      3.672485000000000E-01     -2.121680000000000E+01      6.415100000000000E-01     -1.082471000000000E+01
4240000000.000000      3.481140000000000E-01     -2.879687000000000E+01      7.211304000000000E-01     -2.759082000000000E+01
4260000000.000000      3.101196000000000E-01     -3.456836000000000E+01      7.427368000000000E-01     -4.159765000000000E+01
4280000000.000000      2.604828000000000E-01     -3.586328000000000E+01      7.518921000000000E-01     -5.534180000000000E+01
4300000000.000000      2.227783000000000E-01     -2.779297000000000E+01      7.158203000000000E-01     -7.053905000000000E+01
4320000000.000000      2.357941000000000E-01     -1.509521000000000E+01      6.330872000000000E-01     -8.494921000000000E+01
4340000000.000000      2.935181000000000E-01     -1.088916000000000E+01      5.169983000000000E-01     -9.784374000000000E+01
4360000000.000000      3.589478000000000E-01     -1.588379000000000E+01      3.804321000000000E-01     -1.066953000000000E+02
4380000000.000000      4.053955000000000E-01     -2.480664000000000E+01      2.502594000000000E-01     -1.079726000000000E+02
4400000000.000000      4.267273000000000E-01     -3.475195000000000E+01      1.537476000000000E-01     -8.526562000000000E+01
4420000000.000000      4.259186000000000E-01     -4.411133000000000E+01      1.873779000000000E-01     -4.550586000000000E+01
4440000000.000000      4.094543000000000E-01     -5.224023000000000E+01      3.099670000000000E-01     -3.592382000000000E+01
4460000000.000000      3.894196000000000E-01     -5.895117000000000E+01      4.510193000000000E-01     -4.313281000000000E+01
4480000000.000000      3.691711000000000E-01     -6.497265000000000E+01      5.607605000000000E-01     -5.517773000000000E+01
4500000000.000000      3.484650000000000E-01     -7.165625000000000E+01      6.427002000000000E-01     -6.677343000000000E+01
4520000000.000000      3.151245000000000E-01     -7.927343000000000E+01      7.148438000000000E-01     -7.955078000000000E+01
4540000000.000000      2.641907000000000E-01     -8.530468000000000E+01      7.420959000000000E-01     -9.421875000000000E+01
4560000000.000000      2.040710000000000E-01     -8.361719000000000E+01      7.286072000000000E-01     -1.074805000000000E+02
4580000000.000000      1.767960000000000E-01     -6.815624000000000E+01      6.911621000000000E-01     -1.212461000000000E+02
4600000000.000000      2.140045000000000E-01     -5.426562000000000E+01      6.069031000000000E-01     -1.344609000000000E+02
4620000000.000000      2.790527000000000E-01     -5.550781000000000E+01      4.996338000000000E-01     -1.449531000000000E+02
4640000000.000000      3.331604000000000E-01     -6.534765000000000E+01      3.798370000000000E-01     -1.531719000000000E+02
4660000000.000000      3.569336000000000E-01     -7.836719000000000E+01      2.466660000000000E-01     -1.517187000000000E+02
4680000000.000000      3.487244000000000E-01     -9.217188000000000E+01      1.790161000000000E-01     -1.235547000000000E+02
4700000000.000000      3.120880000000000E-01     -1.052383000000000E+02      2.472687000000000E-01     -9.653906000000000E+01
4720000000.000000      2.557068000000000E-01     -1.157617000000000E+02      3.668365000000000E-01     -9.533594000000000E+01
4740000000.000000      1.936722000000000E-01     -1.209844000000000E+02      4.735870000000000E-01     -1.014180000000000E+02
4760000000.000000      1.413193000000000E-01     -1.171953000000000E+02      5.802002000000000E-01     -1.103516000000000E+02
4780000000.000000      1.152267000000000E-01     -1.015469000000000E+02      6.673889000000000E-01     -1.225312000000000E+02
4800000000.000000      1.218643000000000E-01     -8.395311000000000E+01      7.178345000000000E-01     -1.354375000000000E+02
4820000000.000000      1.501083000000000E-01     -7.469921000000000E+01      7.352600000000000E-01     -1.486484000000000E+02
4840000000.000000      1.902695000000000E-01     -7.415234000000000E+01      7.179565000000000E-01     -1.615391000000000E+02
4860000000.000000      2.339325000000000E-01     -8.073437000000000E+01      6.838684000000000E-01     -1.739844000000000E+02
4880000000.000000      2.713623000000000E-01     -9.083593000000000E+01      6.154175000000000E-01      1.721953000000000E+02
4900000000.000000      2.961273000000000E-01     -1.040469000000000E+02      4.957123000000000E-01      1.600156000000000E+02
4920000000.000000      3.025360000000000E-01     -1.189141000000000E+02      3.663025000000000E-01      1.538281000000000E+02
4940000000.000000      2.881165000000000E-01     -1.345000000000000E+02      2.527466000000000E-01      1.561016000000000E+02
4960000000.000000      2.567902000000000E-01     -1.494531000000000E+02      1.773376000000000E-01      1.772734000000000E+02
4980000000.000000      2.139893000000000E-01     -1.634063000000000E+02      2.140427000000000E-01     -1.510313000000000E+02
5000000000.000000      1.693192000000000E-01     -1.747031000000000E+02      3.298645000000000E-01     -1.434766000000000E+02
5020000000.000000      1.310501000000000E-01      1.754844000000000E+02      4.611053000000000E-01     -1.494609000000000E+02
5040000000.000000      9.962463000000000E-02      1.658437000000000E+02      5.695496000000000E-01     -1.601094000000000E+02
5060000000.000000      7.107925000000000E-02      1.515781000000000E+02      6.531067000000000E-01     -1.716484000000000E+02
5080000000.000000      4.033852000000000E-02      1.275781000000000E+02      7.199097000000000E-01      1.761172000000000E+02
5100000000.000000      1.397610000000000E-02      4.009961000000000E+01      7.557068000000000E-01      1.623828000000000E+02
5120000000.000000      4.144096000000000E-02     -5.395898000000000E+01      7.544861000000000E-01      1.481328000000000E+02
5140000000.000000      7.366562000000000E-02     -8.803905000000000E+01      7.060547000000000E-01      1.346250000000000E+02
5160000000.000000      9.745026000000000E-02     -1.184922000000000E+02      6.299744000000000E-01      1.223047000000000E+02
5180000000.000000      1.105576000000000E-01     -1.483906000000000E+02      5.337219000000000E-01      1.109609000000000E+02
5200000000.000000      1.125145000000000E-01      1.791484000000000E+02      4.171600000000000E-01      1.014180000000000E+02
5220000000.000000      1.086044000000000E-01      1.433125000000000E+02      2.840424000000000E-01      9.848436000000000E+01
5240000000.000000      1.071701000000000E-01      1.065625000000000E+02      1.845551000000000E-01      1.153789000000000E+02
5260000000.000000      1.112137000000000E-01      7.272655000000000E+01      1.964264000000000E-01      1.494062000000000E+02
5280000000.000000      1.183624000000000E-01      4.546484000000000E+01      2.966461000000000E-01      1.607812000000000E+02
5300000000.000000      1.254349000000000E-01      2.450000000000000E+01      4.101563000000000E-01      1.582969000000000E+02
5320000000.000000      1.317749000000000E-01      8.014160000000000E+00      5.272827000000000E-01      1.506562000000000E+02
5340000000.000000      1.382446000000000E-01     -6.546631000000000E+00      6.391907000000000E-01      1.387500000000000E+02
5360000000.000000      1.436157000000000E-01     -2.168652000000000E+01      7.070923000000000E-01      1.241797000000000E+02
5380000000.000000      1.393814000000000E-01     -3.901953000000000E+01      7.185669000000000E-01      1.109297000000000E+02
5400000000.000000      1.213799000000000E-01     -5.691796000000000E+01      7.182312000000000E-01      9.917578000000000E+01
5420000000.000000      8.642197000000000E-02     -7.365624000000000E+01      7.048035000000000E-01      8.617579000000000E+01
5440000000.000000      3.290176000000000E-02     -7.823437000000000E+01      6.493225000000000E-01      7.182031000000000E+01
5460000000.000000      4.110336000000000E-02      3.665820000000000E+01      5.409241000000000E-01      5.880468000000000E+01
5480000000.000000      1.106453000000000E-01      3.028906000000000E+01      4.128876000000000E-01      4.956445000000000E+01
5500000000.000000      1.737900000000000E-01      1.503027000000000E+01      2.934113000000000E-01      4.751953000000000E+01
5520000000.000000      2.199707000000000E-01      3.982544000000000E-02      1.956482000000000E-01      5.918554000000000E+01
5540000000.000000      2.523956000000000E-01     -1.355029000000000E+01      1.807404000000000E-01      9.089844000000000E+01
5560000000.000000      2.704468000000000E-01     -2.541016000000000E+01      2.623291000000000E-01      1.087852000000000E+02
5580000000.000000      2.836609000000000E-01     -3.522070000000000E+01      3.843689000000000E-01      1.087930000000000E+02
5600000000.000000      2.947845000000000E-01     -4.397461000000000E+01      5.058289000000000E-01      9.974609000000000E+01
5620000000.000000      3.058167000000000E-01     -5.308594000000000E+01      5.950623000000000E-01      8.717188000000000E+01
5640000000.000000      3.101196000000000E-01     -6.266992000000000E+01      6.449280000000000E-01      7.540234000000000E+01
5660000000.000000      3.012238000000000E-01     -7.331249000000000E+01      6.849060000000000E-01      6.410156000000000E+01
5680000000.000000      2.722931000000000E-01     -8.378515000000000E+01      6.972961000000000E-01      5.148242000000000E+01
5700000000.000000      2.255630000000000E-01     -9.114061000000000E+01      6.829529000000000E-01      3.906250000000000E+01
5720000000.000000      1.747818000000000E-01     -9.012499000000000E+01      6.448669000000000E-01      2.624218000000000E+01
5740000000.000000      1.530075000000000E-01     -7.615624000000000E+01      5.670471000000000E-01      1.306934000000000E+01
5760000000.000000      1.807327000000000E-01     -6.421875000000000E+01      4.514771000000000E-01      1.452942000000000E+00
5780000000.000000      2.264099000000000E-01     -6.548828000000000E+01      3.164520000000000E-01     -3.713379000000000E+00
5800000000.000000      2.593842000000000E-01     -7.310547000000000E+01      2.085342000000000E-01      7.062744000000000E+00
5820000000.000000      2.693176000000000E-01     -8.252344000000000E+01      1.893005000000000E-01      3.765234000000000E+01
5840000000.000000      2.594910000000000E-01     -9.103516000000000E+01      2.706299000000000E-01      5.414453000000000E+01
5860000000.000000      2.421799000000000E-01     -9.641014000000000E+01      3.712311000000000E-01      5.432617000000000E+01
5880000000.000000      2.278290000000000E-01     -9.971874000000000E+01      4.780121000000000E-01      4.892383000000000E+01
5900000000.000000      2.207489000000000E-01     -1.020937000000000E+02      5.938416000000000E-01      3.889843000000000E+01
5920000000.000000      2.129288000000000E-01     -1.048906000000000E+02      6.722412000000000E-01      2.493066000000000E+01
5940000000.000000      1.987534000000000E-01     -1.069531000000000E+02      7.009888000000000E-01      1.161523000000000E+01
5960000000.000000      1.809082000000000E-01     -1.055234000000000E+02      7.150574000000000E-01     -1.051941000000000E+00
5980000000.000000      1.678085000000000E-01     -9.780859000000000E+01      6.921692000000000E-01     -1.502686000000000E+01
6000000000.000000      1.826248000000000E-01     -8.868359000000000E+01      6.295471000000000E-01     -2.873828000000000E+01
6020000000.000000      2.174377000000000E-01     -8.656250000000000E+01      5.321350000000000E-01     -4.132031000000000E+01
6040000000.000000      2.538757000000000E-01     -9.169531000000000E+01      4.016113000000000E-01     -4.958984000000000E+01
6060000000.000000      2.782135000000000E-01     -1.007656000000000E+02      2.859192000000000E-01     -4.932226000000000E+01
6080000000.000000      2.885742000000000E-01     -1.107109000000000E+02      2.058716000000000E-01     -3.574609000000000E+01
