! Network Analyzer HP8722D
! Hewlett-Packard
! Data name: Linha & Wilkinson+CNT
! Saver's name: Rodrigo Anjos
! Comments: Teste da utilização de aquisição
continua pelo VNA HP8722D
! Time and date: 29/9/2025 13:47
!              Frequency                     S11                                                   S21                                                   S12                                                   S22
# HZ  S  MA R 50
3000000000.000000      4.246826000000000E-01     -5.569921000000000E+01      2.062073000000000E-01     -1.317031000000000E+02
3020000000.000000      4.471436000000000E-01     -6.998437000000000E+01      3.501129000000000E-01     -1.350156000000000E+02
3040000000.000000      4.527283000000000E-01     -8.280468000000000E+01      4.668427000000000E-01     -1.449922000000000E+02
3060000000.000000      4.448547000000000E-01     -9.498438000000000E+01      5.712585000000000E-01     -1.550781000000000E+02
3080000000.000000      4.296265000000000E-01     -1.062617000000000E+02      6.722717000000000E-01     -1.681797000000000E+02
3100000000.000000      4.090881000000000E-01     -1.174062000000000E+02      7.225952000000000E-01      1.769609000000000E+02
3120000000.000000      3.796997000000000E-01     -1.293672000000000E+02      7.316284000000000E-01      1.634219000000000E+02
3140000000.000000      3.388824000000000E-01     -1.424297000000000E+02      7.241516000000000E-01      1.506172000000000E+02
3160000000.000000      2.796326000000000E-01     -1.564297000000000E+02      6.850586000000000E-01      1.371328000000000E+02
3180000000.000000      2.001495000000000E-01     -1.691719000000000E+02      6.137390000000000E-01      1.245156000000000E+02
3200000000.000000      1.121750000000000E-01     -1.699766000000000E+02      5.201416000000000E-01      1.116211000000000E+02
3220000000.000000      7.938385000000000E-02     -1.245859000000000E+02      3.865662000000000E-01      1.010234000000000E+02
3240000000.000000      1.503525000000000E-01     -1.049258000000000E+02      2.477951000000000E-01      9.937109000000000E+01
3260000000.000000      2.296448000000000E-01     -1.151484000000000E+02      1.471481000000000E-01      1.248438000000000E+02
3280000000.000000      2.872314000000000E-01     -1.308672000000000E+02      2.022476000000000E-01      1.651953000000000E+02
3300000000.000000      3.202515000000000E-01     -1.471875000000000E+02      3.292236000000000E-01      1.696328000000000E+02
3320000000.000000      3.321533000000000E-01     -1.630547000000000E+02      4.623260000000000E-01      1.625859000000000E+02
3340000000.000000      3.289490000000000E-01     -1.785234000000000E+02      5.737000000000000E-01      1.505547000000000E+02
3360000000.000000      3.171387000000000E-01      1.667578000000000E+02      6.464233000000000E-01      1.383984000000000E+02
3380000000.000000      3.010712000000000E-01      1.525469000000000E+02      7.082825000000000E-01      1.270273000000000E+02
3400000000.000000      2.781372000000000E-01      1.377891000000000E+02      7.575073000000000E-01      1.132578000000000E+02
3420000000.000000      2.437439000000000E-01      1.228945000000000E+02      7.501221000000000E-01      9.854296000000000E+01
3440000000.000000      1.903229000000000E-01      1.081055000000000E+02      7.064514000000000E-01      8.560156000000000E+01
3460000000.000000      1.204605000000000E-01      9.725389000000000E+01      6.470337000000000E-01      7.251171000000000E+01
3480000000.000000      4.816628000000000E-02      1.208711000000000E+02      5.502014000000000E-01      5.894140000000000E+01
3500000000.000000      9.199524000000000E-02     -1.741016000000000E+02      4.254913000000000E-01      4.760351000000000E+01
3520000000.000000      1.833878000000000E-01      1.791250000000000E+02      2.801514000000000E-01      4.041601000000000E+01
3540000000.000000      2.628479000000000E-01      1.628906000000000E+02      1.479797000000000E-01      5.791992000000000E+01
3560000000.000000      3.225708000000000E-01      1.459375000000000E+02      1.661072000000000E-01      1.074687000000000E+02
3580000000.000000      3.597260000000000E-01      1.299062000000000E+02      2.932739000000000E-01      1.174492000000000E+02
3600000000.000000      3.757629000000000E-01      1.152539000000000E+02      4.183960000000000E-01      1.106445000000000E+02
3620000000.000000      3.780365000000000E-01      1.026055000000000E+02      5.202637000000000E-01      1.012422000000000E+02
3640000000.000000      3.688354000000000E-01      9.138281000000000E+01      6.215820000000000E-01      9.028515000000000E+01
3660000000.000000      3.521423000000000E-01      8.108202000000000E+01      6.926575000000000E-01      7.585938000000000E+01
3680000000.000000      3.300171000000000E-01      7.188281000000000E+01      7.118835000000000E-01      6.275391000000000E+01
3700000000.000000      2.994232000000000E-01      6.360937000000000E+01      7.198181000000000E-01      5.107422000000000E+01
3720000000.000000      2.548981000000000E-01      5.759570000000000E+01      7.236328000000000E-01      3.678906000000000E+01
3740000000.000000      2.051392000000000E-01      5.828711000000000E+01      6.653748000000000E-01      2.140625000000000E+01
3760000000.000000      1.775665000000000E-01      7.216406000000000E+01      5.677795000000000E-01      7.177979000000000E+00
3780000000.000000      2.110672000000000E-01      8.729296000000000E+01      4.369049000000000E-01     -6.120850000000000E+00
3800000000.000000      2.818298000000000E-01      8.905077000000000E+01      2.830658000000000E-01     -1.340771000000000E+01
3820000000.000000      3.496399000000000E-01      8.264452000000000E+01      1.541595000000000E-01     -7.003784000000000E-01
3840000000.000000      3.999786000000000E-01      7.389843000000000E+01      1.423721000000000E-01      4.743750000000000E+01
3860000000.000000      4.349060000000000E-01      6.541016000000000E+01      2.446442000000000E-01      6.536718000000000E+01
3880000000.000000      4.599915000000000E-01      5.776953000000000E+01      3.746948000000000E-01      6.114648000000000E+01
3900000000.000000      4.892578000000000E-01      5.074804000000000E+01      4.778290000000000E-01      4.792188000000000E+01
3920000000.000000      5.196838000000000E-01      4.310547000000000E+01      5.100098000000000E-01      3.614062000000000E+01
3940000000.000000      5.490417000000000E-01      3.391016000000000E+01      5.385742000000000E-01      2.955371000000000E+01
3960000000.000000      5.595093000000000E-01      2.404687000000000E+01      5.950928000000000E-01      2.022265000000000E+01
3980000000.000000      5.536194000000000E-01      1.362549000000000E+01      5.973511000000000E-01      8.099609000000000E+00
4000000000.000000      5.280151000000000E-01      3.326050000000000E+00      5.804443000000000E-01      1.183777000000000E+00
4020000000.000000      4.849091000000000E-01     -6.840576000000000E+00      5.972900000000000E-01     -6.394043000000000E+00
4040000000.000000      4.255829000000000E-01     -1.574658000000000E+01      5.868225000000000E-01     -1.883398000000000E+01
4060000000.000000      3.498383000000000E-01     -2.189453000000000E+01      5.279236000000000E-01     -2.900000000000000E+01
4080000000.000000      2.747345000000000E-01     -2.191406000000000E+01      4.688721000000000E-01     -3.823828000000000E+01
4100000000.000000      2.283707000000000E-01     -1.142041000000000E+01      3.678131000000000E-01     -4.762304000000000E+01
4120000000.000000      2.417221000000000E-01      1.674011000000000E+00      2.505035000000000E-01     -4.438867000000000E+01
4140000000.000000      2.897034000000000E-01      5.157959000000000E+00      2.027054000000000E-01     -2.035937000000000E+01
4160000000.000000      3.335876000000000E-01      8.857727000000000E-01      2.626343000000000E-01     -1.963806000000000E-01
4180000000.000000      3.613281000000000E-01     -5.976563000000000E+00      3.565979000000000E-01      3.890503000000000E+00
4200000000.000000      3.716736000000000E-01     -1.367139000000000E+01      4.870758000000000E-01      1.396606000000000E+00
4220000000.000000      3.671112000000000E-01     -2.089942000000000E+01      6.425781000000000E-01     -1.078467000000000E+01
4240000000.000000      3.480835000000000E-01     -2.837305000000000E+01      7.204285000000000E-01     -2.765625000000000E+01
4260000000.000000      3.099823000000000E-01     -3.419336000000000E+01      7.422485000000000E-01     -4.170898000000000E+01
4280000000.000000      2.600098000000000E-01     -3.556641000000000E+01      7.511292000000000E-01     -5.564062000000000E+01
4300000000.000000      2.221985000000000E-01     -2.741992000000000E+01      7.137756000000000E-01     -7.049999000000000E+01
4320000000.000000      2.349014000000000E-01     -1.472607000000000E+01      6.334839000000000E-01     -8.517578000000000E+01
4340000000.000000      2.927551000000000E-01     -1.053223000000000E+01      5.177307000000000E-01     -9.782030000000000E+01
4360000000.000000      3.582001000000000E-01     -1.553467000000000E+01      3.832550000000000E-01     -1.068906000000000E+02
4380000000.000000      4.045410000000000E-01     -2.450781000000000E+01      2.510986000000000E-01     -1.081484000000000E+02
4400000000.000000      4.262848000000000E-01     -3.447070000000000E+01      1.536407000000000E-01     -8.561718000000000E+01
4420000000.000000      4.245148000000000E-01     -4.386328000000000E+01      1.864243000000000E-01     -4.577538000000000E+01
4440000000.000000      4.086456000000000E-01     -5.193945000000000E+01      3.092651000000000E-01     -3.618945000000000E+01
4460000000.000000      3.866882000000000E-01     -5.854297000000000E+01      4.507446000000000E-01     -4.329492000000000E+01
4480000000.000000      3.681183000000000E-01     -6.513672000000000E+01      5.598755000000000E-01     -5.534961000000000E+01
4500000000.000000      3.471222000000000E-01     -7.157031000000000E+01      6.423950000000000E-01     -6.679296000000000E+01
4520000000.000000      3.139191000000000E-01     -7.928905000000000E+01      7.155151000000000E-01     -7.974999000000000E+01
4540000000.000000      2.628632000000000E-01     -8.550781000000000E+01      7.429504000000000E-01     -9.433594000000000E+01
4560000000.000000      2.017822000000000E-01     -8.396875000000000E+01      7.291870000000000E-01     -1.076367000000000E+02
4580000000.000000      1.744232000000000E-01     -6.807422000000000E+01      6.925354000000000E-01     -1.213945000000000E+02
4600000000.000000      2.114868000000000E-01     -5.398438000000000E+01      6.073608000000000E-01     -1.345781000000000E+02
4620000000.000000      2.759705000000000E-01     -5.520702000000000E+01      5.002441000000000E-01     -1.451016000000000E+02
4640000000.000000      3.302917000000000E-01     -6.511719000000000E+01      3.802795000000000E-01     -1.534844000000000E+02
4660000000.000000      3.548126000000000E-01     -7.826562000000000E+01      2.472839000000000E-01     -1.520547000000000E+02
4680000000.000000      3.468933000000000E-01     -9.233593000000000E+01      1.786270000000000E-01     -1.240820000000000E+02
4700000000.000000      3.097687000000000E-01     -1.055000000000000E+02      2.468338000000000E-01     -9.674217000000000E+01
4720000000.000000      2.535400000000000E-01     -1.161484000000000E+02      3.651581000000000E-01     -9.539454000000000E+01
4740000000.000000      1.914825000000000E-01     -1.215273000000000E+02      4.734039000000000E-01     -1.018750000000000E+02
4760000000.000000      1.394043000000000E-01     -1.178125000000000E+02      5.776978000000000E-01     -1.104844000000000E+02
4780000000.000000      1.124573000000000E-01     -1.018906000000000E+02      6.653442000000000E-01     -1.226992000000000E+02
4800000000.000000      1.176758000000000E-01     -8.417578000000000E+01      7.167664000000000E-01     -1.357031000000000E+02
4820000000.000000      1.464920000000000E-01     -7.422265000000000E+01      7.366333000000000E-01     -1.488047000000000E+02
4840000000.000000      1.870499000000000E-01     -7.373828000000000E+01      7.184143000000000E-01     -1.618125000000000E+02
4860000000.000000      2.303314000000000E-01     -8.021875000000000E+01      6.835632000000000E-01     -1.742422000000000E+02
4880000000.000000      2.678833000000000E-01     -9.068359000000000E+01      6.163940000000000E-01      1.719687000000000E+02
4900000000.000000      2.938385000000000E-01     -1.041328000000000E+02      4.951782000000000E-01      1.598438000000000E+02
4920000000.000000      2.994232000000000E-01     -1.191875000000000E+02      3.673706000000000E-01      1.531875000000000E+02
4940000000.000000      2.857361000000000E-01     -1.349531000000000E+02      2.527771000000000E-01      1.558281000000000E+02
4960000000.000000      2.546844000000000E-01     -1.501328000000000E+02      1.781540000000000E-01      1.766719000000000E+02
4980000000.000000      2.129440000000000E-01     -1.644140000000000E+02      2.130890000000000E-01     -1.513515000000000E+02
5000000000.000000      1.687393000000000E-01     -1.760391000000000E+02      3.284149000000000E-01     -1.437031000000000E+02
5020000000.000000      1.307678000000000E-01      1.738672000000000E+02      4.598236000000000E-01     -1.495078000000000E+02
5040000000.000000      1.004372000000000E-01      1.637500000000000E+02      5.680237000000000E-01     -1.603203000000000E+02
5060000000.000000      7.266617000000000E-02      1.486641000000000E+02      6.496582000000000E-01     -1.717266000000000E+02
5080000000.000000      4.223633000000000E-02      1.232617000000000E+02      7.182312000000000E-01      1.760078000000000E+02
5100000000.000000      1.683712000000000E-02      4.414063000000000E+01      7.567444000000000E-01      1.622813000000000E+02
5120000000.000000      4.029083000000000E-02     -5.091210000000000E+01      7.539978000000000E-01      1.479844000000000E+02
5140000000.000000      7.236862000000000E-02     -8.702734000000000E+01      7.052002000000000E-01      1.342813000000000E+02
5160000000.000000      9.584045000000000E-02     -1.185312000000000E+02      6.306458000000000E-01      1.220078000000000E+02
5180000000.000000      1.089172000000000E-01     -1.491875000000000E+02      5.352173000000000E-01      1.108281000000000E+02
5200000000.000000      1.122246000000000E-01      1.782422000000000E+02      4.176025000000000E-01      1.011875000000000E+02
5220000000.000000      1.098404000000000E-01      1.425000000000000E+02      2.843628000000000E-01      9.808983000000000E+01
5240000000.000000      1.090126000000000E-01      1.059492000000000E+02      1.844482000000000E-01      1.148125000000000E+02
5260000000.000000      1.135597000000000E-01      7.273046000000000E+01      1.951294000000000E-01      1.489766000000000E+02
5280000000.000000      1.207581000000000E-01      4.590039000000000E+01      2.951355000000000E-01      1.605391000000000E+02
5300000000.000000      1.275864000000000E-01      2.511523000000000E+01      4.089508000000000E-01      1.581875000000000E+02
5320000000.000000      1.334610000000000E-01      8.736816000000000E+00      5.267944000000000E-01      1.505625000000000E+02
5340000000.000000      1.390381000000000E-01     -5.674561000000000E+00      6.377869000000000E-01      1.385469000000000E+02
5360000000.000000      1.432266000000000E-01     -2.122363000000000E+01      7.063599000000000E-01      1.241367000000000E+02
5380000000.000000      1.393356000000000E-01     -3.846680000000000E+01      7.171021000000000E-01      1.107578000000000E+02
5400000000.000000      1.200104000000000E-01     -5.668163000000000E+01      7.185364000000000E-01      9.917969000000000E+01
5420000000.000000      8.504868000000000E-02     -7.356250000000000E+01      7.057190000000000E-01      8.608593000000000E+01
5440000000.000000      3.073025000000000E-02     -7.804296000000000E+01      6.484375000000000E-01      7.164844000000000E+01
5460000000.000000      4.260635000000000E-02      3.855859000000000E+01      5.415955000000000E-01      5.865429000000000E+01
5480000000.000000      1.123962000000000E-01      3.103711000000000E+01      4.136963000000000E-01      4.940624000000000E+01
5500000000.000000      1.750183000000000E-01      1.585596000000000E+01      2.938538000000000E-01      4.717187000000000E+01
5520000000.000000      2.208099000000000E-01      7.044983000000000E-01      1.960068000000000E-01      5.866405000000000E+01
5540000000.000000      2.521820000000000E-01     -1.309717000000000E+01      1.799164000000000E-01      9.043360000000000E+01
5560000000.000000      2.702026000000000E-01     -2.492285000000000E+01      2.612762000000000E-01      1.086445000000000E+02
5580000000.000000      2.830505000000000E-01     -3.493750000000000E+01      3.830109000000000E-01      1.085586000000000E+02
5600000000.000000      2.941132000000000E-01     -4.379883000000000E+01      5.060730000000000E-01      9.971483000000000E+01
5620000000.000000      3.043976000000000E-01     -5.289453000000000E+01      5.951233000000000E-01      8.707811000000000E+01
5640000000.000000      3.074646000000000E-01     -6.257421000000000E+01      6.450500000000000E-01      7.523828000000000E+01
5660000000.000000      2.979279000000000E-01     -7.334374000000000E+01      6.855469000000000E-01      6.402344000000000E+01
5680000000.000000      2.688904000000000E-01     -8.371094000000000E+01      6.981201000000000E-01      5.116211000000000E+01
5700000000.000000      2.223434000000000E-01     -9.114452000000000E+01      6.830139000000000E-01      3.868945000000000E+01
5720000000.000000      1.711655000000000E-01     -9.001171000000000E+01      6.437073000000000E-01      2.606445000000000E+01
5740000000.000000      1.494675000000000E-01     -7.557812000000000E+01      5.666504000000000E-01      1.304346000000000E+01
5760000000.000000      1.781464000000000E-01     -6.366601000000000E+01      4.520264000000000E-01      1.288147000000000E+00
5780000000.000000      2.242203000000000E-01     -6.525781000000000E+01      3.184052000000000E-01     -3.940063000000000E+00
5800000000.000000      2.566071000000000E-01     -7.298437000000000E+01      2.090530000000000E-01      6.604004000000000E+00
5820000000.000000      2.669373000000000E-01     -8.261328000000000E+01      1.887436000000000E-01      3.717578000000000E+01
5840000000.000000      2.568970000000000E-01     -9.085546000000000E+01      2.696381000000000E-01      5.383594000000000E+01
5860000000.000000      2.391663000000000E-01     -9.658592000000000E+01      3.703156000000000E-01      5.410156000000000E+01
5880000000.000000      2.238388000000000E-01     -9.990623000000000E+01      4.767761000000000E-01      4.870312000000000E+01
5900000000.000000      2.162094000000000E-01     -1.022890000000000E+02      5.934143000000000E-01      3.853320000000000E+01
5920000000.000000      2.087708000000000E-01     -1.050664000000000E+02      6.719360000000000E-01      2.458105000000000E+01
5940000000.000000      1.951447000000000E-01     -1.069492000000000E+02      7.022095000000000E-01      1.148047000000000E+01
5960000000.000000      1.777878000000000E-01     -1.055469000000000E+02      7.128601000000000E-01     -1.356812000000000E+00
5980000000.000000      1.654663000000000E-01     -9.782421000000000E+01      6.925049000000000E-01     -1.536475000000000E+01
6000000000.000000      1.807251000000000E-01     -8.863281000000000E+01      6.287231000000000E-01     -2.895605000000000E+01
6020000000.000000      2.152786000000000E-01     -8.655468000000000E+01      5.300903000000000E-01     -4.152734000000000E+01
6040000000.000000      2.514038000000000E-01     -9.187109000000000E+01      4.014893000000000E-01     -4.981640000000000E+01
6060000000.000000      2.753906000000000E-01     -1.008203000000000E+02      2.875824000000000E-01     -4.981640000000000E+01
6080000000.000000      2.854462000000000E-01     -1.110078000000000E+02      2.061005000000000E-01     -3.633594000000000E+01
