! Network Analyzer HP8722D
! Hewlett-Packard
! Data name: Linha & Wilkinson+CNT
! Saver's name: Rodrigo Anjos
! Comments: Teste da utilização de aquisição
continua pelo VNA HP8722D
! Time and date: 29/9/2025 13:38
!              Frequency                     S11                                                   S21                                                   S12                                                   S22
# HZ  S  MA R 50
3000000000.000000      4.253998000000000E-01     -5.557422000000000E+01      2.072983000000000E-01     -1.315625000000000E+02
3020000000.000000      4.470367000000000E-01     -6.985937000000000E+01      3.490295000000000E-01     -1.349219000000000E+02
3040000000.000000      4.534912000000000E-01     -8.298046000000000E+01      4.678955000000000E-01     -1.449063000000000E+02
3060000000.000000      4.449463000000000E-01     -9.499218000000000E+01      5.720215000000000E-01     -1.552734000000000E+02
3080000000.000000      4.293976000000000E-01     -1.063047000000000E+02      6.737366000000000E-01     -1.683672000000000E+02
3100000000.000000      4.095306000000000E-01     -1.175312000000000E+02      7.232361000000000E-01      1.767969000000000E+02
3120000000.000000      3.797760000000000E-01     -1.295625000000000E+02      7.321167000000000E-01      1.632969000000000E+02
3140000000.000000      3.390656000000000E-01     -1.424609000000000E+02      7.228088000000000E-01      1.504844000000000E+02
3160000000.000000      2.793121000000000E-01     -1.564531000000000E+02      6.825867000000000E-01      1.370312000000000E+02
3180000000.000000      1.999054000000000E-01     -1.690469000000000E+02      6.129150000000000E-01      1.244687000000000E+02
3200000000.000000      1.118927000000000E-01     -1.700625000000000E+02      5.198364000000000E-01      1.115469000000000E+02
3220000000.000000      7.947922000000000E-02     -1.244609000000000E+02      3.861847000000000E-01      1.008281000000000E+02
3240000000.000000      1.504669000000000E-01     -1.050742000000000E+02      2.471237000000000E-01      9.948437000000000E+01
3260000000.000000      2.298737000000000E-01     -1.152344000000000E+02      1.469650000000000E-01      1.251914000000000E+02
3280000000.000000      2.876434000000000E-01     -1.308906000000000E+02      2.023163000000000E-01      1.652891000000000E+02
3300000000.000000      3.205414000000000E-01     -1.472344000000000E+02      3.297577000000000E-01      1.695859000000000E+02
3320000000.000000      3.322754000000000E-01     -1.631250000000000E+02      4.621887000000000E-01      1.625625000000000E+02
3340000000.000000      3.291931000000000E-01     -1.784922000000000E+02      5.732727000000000E-01      1.505234000000000E+02
3360000000.000000      3.174591000000000E-01      1.667344000000000E+02      6.468506000000000E-01      1.383984000000000E+02
3380000000.000000      3.007507000000000E-01      1.524375000000000E+02      7.080994000000000E-01      1.270313000000000E+02
3400000000.000000      2.785339000000000E-01      1.377031000000000E+02      7.584229000000000E-01      1.132656000000000E+02
3420000000.000000      2.433548000000000E-01      1.227851000000000E+02      7.486572000000000E-01      9.851563000000000E+01
3440000000.000000      1.902618000000000E-01      1.079922000000000E+02      7.047119000000000E-01      8.554688000000000E+01
3460000000.000000      1.199150000000000E-01      9.734375000000000E+01      6.469421000000000E-01      7.240624000000000E+01
3480000000.000000      4.844475000000000E-02      1.208476000000000E+02      5.498657000000000E-01      5.906054000000000E+01
3500000000.000000      9.200287000000000E-02     -1.743203000000000E+02      4.254913000000000E-01      4.757617000000000E+01
3520000000.000000      1.835480000000000E-01      1.791953000000000E+02      2.790833000000000E-01      4.036328000000000E+01
3540000000.000000      2.631531000000000E-01      1.629297000000000E+02      1.478577000000000E-01      5.809765000000000E+01
3560000000.000000      3.228760000000000E-01      1.458828000000000E+02      1.662521000000000E-01      1.076758000000000E+02
3580000000.000000      3.596497000000000E-01      1.298437000000000E+02      2.935638000000000E-01      1.174648000000000E+02
3600000000.000000      3.759155000000000E-01      1.152539000000000E+02      4.185791000000000E-01      1.106211000000000E+02
3620000000.000000      3.783112000000000E-01      1.026133000000000E+02      5.208130000000000E-01      1.011367000000000E+02
3640000000.000000      3.684540000000000E-01      9.133204000000000E+01      6.203003000000000E-01      8.993750000000000E+01
3660000000.000000      3.517609000000000E-01      8.105078000000000E+01      6.920166000000000E-01      7.578515000000000E+01
3680000000.000000      3.292542000000000E-01      7.194530000000000E+01      7.110291000000000E-01      6.263281000000000E+01
3700000000.000000      2.987671000000000E-01      6.367188000000000E+01      7.200012000000000E-01      5.106054000000000E+01
3720000000.000000      2.548065000000000E-01      5.751171000000000E+01      7.251587000000000E-01      3.682812000000000E+01
3740000000.000000      2.046738000000000E-01      5.832617000000000E+01      6.640015000000000E-01      2.141308000000000E+01
3760000000.000000      1.775284000000000E-01      7.235937000000000E+01      5.671082000000000E-01      7.105225000000000E+00
3780000000.000000      2.113571000000000E-01      8.737499000000000E+01      4.353943000000000E-01     -6.127686000000000E+00
3800000000.000000      2.816772000000000E-01      8.903515000000000E+01      2.828979000000000E-01     -1.345996000000000E+01
3820000000.000000      3.494873000000000E-01      8.260546000000000E+01      1.538696000000000E-01     -5.822754000000000E-01
3840000000.000000      4.001617000000000E-01      7.389843000000000E+01      1.424866000000000E-01      4.770312000000000E+01
3860000000.000000      4.355011000000000E-01      6.537109000000000E+01      2.451706000000000E-01      6.525391000000000E+01
3880000000.000000      4.597473000000000E-01      5.778320000000000E+01      3.756561000000000E-01      6.122656000000000E+01
3900000000.000000      4.894714000000000E-01      5.073632000000000E+01      4.764862000000000E-01      4.765234000000000E+01
3920000000.000000      5.189514000000000E-01      4.299024000000000E+01      5.080261000000000E-01      3.598047000000000E+01
3940000000.000000      5.487061000000000E-01      3.400000000000000E+01      5.400085000000000E-01      2.950098000000000E+01
3960000000.000000      5.598145000000000E-01      2.398438000000000E+01      5.945740000000000E-01      2.010840000000000E+01
3980000000.000000      5.541687000000000E-01      1.345947000000000E+01      5.976868000000000E-01      8.113281000000000E+00
4000000000.000000      5.258179000000000E-01      3.136597000000000E+00      5.801697000000000E-01      1.251038000000000E+00
4020000000.000000      4.841614000000000E-01     -6.914551000000000E+00      5.964355000000000E-01     -6.622070000000000E+00
4040000000.000000      4.250336000000000E-01     -1.584131000000000E+01      5.866394000000000E-01     -1.893945000000000E+01
4060000000.000000      3.492584000000000E-01     -2.191113000000000E+01      5.286560000000000E-01     -2.888769000000000E+01
4080000000.000000      2.745972000000000E-01     -2.192773000000000E+01      4.676056000000000E-01     -3.814062000000000E+01
4100000000.000000      2.283020000000000E-01     -1.137500000000000E+01      3.670502000000000E-01     -4.743554000000000E+01
4120000000.000000      2.414780000000000E-01      1.697388000000000E+00      2.501678000000000E-01     -4.426953000000000E+01
4140000000.000000      2.896118000000000E-01      5.074219000000000E+00      2.026367000000000E-01     -2.023340000000000E+01
4160000000.000000      3.334961000000000E-01      9.310913000000000E-01      2.634125000000000E-01     -2.485657000000000E-01
4180000000.000000      3.607941000000000E-01     -5.936768000000000E+00      3.569031000000000E-01      3.809448000000000E+00
4200000000.000000      3.714447000000000E-01     -1.370850000000000E+01      4.873352000000000E-01      1.363647000000000E+00
4220000000.000000      3.668213000000000E-01     -2.089355000000000E+01      6.407471000000000E-01     -1.114307000000000E+01
4240000000.000000      3.479919000000000E-01     -2.840723000000000E+01      7.214050000000000E-01     -2.778223000000000E+01
4260000000.000000      3.097076000000000E-01     -3.417969000000000E+01      7.437134000000000E-01     -4.180860000000000E+01
4280000000.000000      2.597961000000000E-01     -3.546093000000000E+01      7.515259000000000E-01     -5.559765000000000E+01
4300000000.000000      2.227097000000000E-01     -2.747070000000000E+01      7.156067000000000E-01     -7.070313000000000E+01
4320000000.000000      2.352066000000000E-01     -1.474512000000000E+01      6.333618000000000E-01     -8.529688000000000E+01
4340000000.000000      2.931519000000000E-01     -1.068164000000000E+01      5.175781000000000E-01     -9.793358000000000E+01
4360000000.000000      3.582611000000000E-01     -1.561719000000000E+01      3.824310000000000E-01     -1.070117000000000E+02
4380000000.000000      4.051208000000000E-01     -2.457715000000000E+01      2.506104000000000E-01     -1.082422000000000E+02
4400000000.000000      4.259033000000000E-01     -3.448633000000000E+01      1.535339000000000E-01     -8.545313000000000E+01
4420000000.000000      4.247131000000000E-01     -4.396874000000000E+01      1.871414000000000E-01     -4.570898000000000E+01
4440000000.000000      4.087677000000000E-01     -5.198047000000000E+01      3.096924000000000E-01     -3.618945000000000E+01
4460000000.000000      3.870087000000000E-01     -5.855273000000000E+01      4.507141000000000E-01     -4.323828000000000E+01
4480000000.000000      3.682556000000000E-01     -6.496875000000000E+01      5.603943000000000E-01     -5.549609000000000E+01
4500000000.000000      3.466492000000000E-01     -7.164063000000000E+01      6.416321000000000E-01     -6.676562000000000E+01
4520000000.000000      3.135376000000000E-01     -7.935937000000000E+01      7.160339000000000E-01     -7.966797000000000E+01
4540000000.000000      2.626495000000000E-01     -8.550390000000000E+01      7.417908000000000E-01     -9.447657000000000E+01
4560000000.000000      2.014771000000000E-01     -8.389063000000000E+01      7.288513000000000E-01     -1.076523000000000E+02
4580000000.000000      1.741714000000000E-01     -6.799999000000000E+01      6.912231000000000E-01     -1.213711000000000E+02
4600000000.000000      2.116699000000000E-01     -5.391406000000000E+01      6.067810000000000E-01     -1.347812000000000E+02
4620000000.000000      2.768250000000000E-01     -5.525585000000000E+01      4.992828000000000E-01     -1.450547000000000E+02
4640000000.000000      3.308868000000000E-01     -6.510937000000000E+01      3.801880000000000E-01     -1.533359000000000E+02
4660000000.000000      3.547363000000000E-01     -7.840625000000000E+01      2.467957000000000E-01     -1.519766000000000E+02
4680000000.000000      3.467712000000000E-01     -9.238281000000000E+01      1.790466000000000E-01     -1.238086000000000E+02
4700000000.000000      3.096008000000000E-01     -1.055273000000000E+02      2.469254000000000E-01     -9.679688000000000E+01
4720000000.000000      2.533264000000000E-01     -1.161523000000000E+02      3.657990000000000E-01     -9.550781000000000E+01
4740000000.000000      1.915283000000000E-01     -1.216016000000000E+02      4.725494000000000E-01     -1.018125000000000E+02
4760000000.000000      1.390305000000000E-01     -1.176563000000000E+02      5.796204000000000E-01     -1.104883000000000E+02
4780000000.000000      1.126823000000000E-01     -1.017773000000000E+02      6.665649000000000E-01     -1.227461000000000E+02
4800000000.000000      1.179390000000000E-01     -8.386719000000000E+01      7.158508000000000E-01     -1.356875000000000E+02
4820000000.000000      1.466675000000000E-01     -7.391406000000000E+01      7.358704000000000E-01     -1.489531000000000E+02
4840000000.000000      1.868439000000000E-01     -7.394140000000000E+01      7.179871000000000E-01     -1.617188000000000E+02
4860000000.000000      2.310104000000000E-01     -8.024218000000000E+01      6.845398000000000E-01     -1.743125000000000E+02
4880000000.000000      2.684174000000000E-01     -9.082031000000000E+01      6.176147000000000E-01      1.721094000000000E+02
4900000000.000000      2.937164000000000E-01     -1.041602000000000E+02      4.939728000000000E-01      1.598203000000000E+02
4920000000.000000      2.999115000000000E-01     -1.192851000000000E+02      3.670349000000000E-01      1.533359000000000E+02
4940000000.000000      2.857971000000000E-01     -1.351172000000000E+02      2.523804000000000E-01      1.558203000000000E+02
4960000000.000000      2.546234000000000E-01     -1.501641000000000E+02      1.770935000000000E-01      1.769766000000000E+02
4980000000.000000      2.126846000000000E-01     -1.643359000000000E+02      2.136459000000000E-01     -1.514062000000000E+02
5000000000.000000      1.678543000000000E-01     -1.761875000000000E+02      3.292084000000000E-01     -1.435703000000000E+02
5020000000.000000      1.303940000000000E-01      1.739453000000000E+02      4.600677000000000E-01     -1.496719000000000E+02
5040000000.000000      9.986877000000000E-02      1.635703000000000E+02      5.688782000000000E-01     -1.604219000000000E+02
5060000000.000000      7.174301000000000E-02      1.484922000000000E+02      6.497498000000000E-01     -1.718672000000000E+02
5080000000.000000      4.172134000000000E-02      1.228633000000000E+02      7.170715000000000E-01      1.760156000000000E+02
5100000000.000000      1.695156000000000E-02      4.275586000000000E+01      7.561646000000000E-01      1.622969000000000E+02
5120000000.000000      4.094505000000000E-02     -5.056641000000000E+01      7.545471000000000E-01      1.478984000000000E+02
5140000000.000000      7.198334000000000E-02     -8.737890000000000E+01      7.027283000000000E-01      1.343828000000000E+02
5160000000.000000      9.572220000000000E-02     -1.186250000000000E+02      6.289673000000000E-01      1.219453000000000E+02
5180000000.000000      1.093407000000000E-01     -1.493203000000000E+02      5.324402000000000E-01      1.108242000000000E+02
5200000000.000000      1.124725000000000E-01      1.779531000000000E+02      4.165955000000000E-01      1.010703000000000E+02
5220000000.000000      1.095543000000000E-01      1.419922000000000E+02      2.836304000000000E-01      9.809765000000000E+01
5240000000.000000      1.089478000000000E-01      1.057969000000000E+02      1.841431000000000E-01      1.149648000000000E+02
5260000000.000000      1.137199000000000E-01      7.234765000000000E+01      1.958237000000000E-01      1.491484000000000E+02
5280000000.000000      1.205597000000000E-01      4.586328000000000E+01      2.954254000000000E-01      1.606016000000000E+02
5300000000.000000      1.275864000000000E-01      2.505273000000000E+01      4.095612000000000E-01      1.581094000000000E+02
5320000000.000000      1.332550000000000E-01      8.649902000000000E+00      5.267944000000000E-01      1.505938000000000E+02
5340000000.000000      1.390076000000000E-01     -5.673096000000000E+00      6.376343000000000E-01      1.385391000000000E+02
5360000000.000000      1.432877000000000E-01     -2.113574000000000E+01      7.057495000000000E-01      1.239180000000000E+02
5380000000.000000      1.388397000000000E-01     -3.865820000000000E+01      7.172241000000000E-01      1.107773000000000E+02
5400000000.000000      1.200905000000000E-01     -5.688477000000000E+01      7.188721000000000E-01      9.900780000000000E+01
5420000000.000000      8.454132000000000E-02     -7.345703000000000E+01      7.049866000000000E-01      8.595703000000000E+01
5440000000.000000      3.048706000000000E-02     -7.730469000000000E+01      6.485596000000000E-01      7.159374000000000E+01
5460000000.000000      4.291916000000000E-02      3.844922000000000E+01      5.409546000000000E-01      5.848437000000000E+01
5480000000.000000      1.127434000000000E-01      3.113867000000000E+01      4.149628000000000E-01      4.918359000000000E+01
5500000000.000000      1.753693000000000E-01      1.561133000000000E+01      2.935638000000000E-01      4.711719000000000E+01
5520000000.000000      2.208939000000000E-01      5.616760000000000E-01      1.952972000000000E-01      5.880077000000000E+01
5540000000.000000      2.517395000000000E-01     -1.314795000000000E+01      1.804504000000000E-01      9.051561000000000E+01
5560000000.000000      2.712250000000000E-01     -2.493847000000000E+01      2.623138000000000E-01      1.086094000000000E+02
5580000000.000000      2.830658000000000E-01     -3.490820000000000E+01      3.836823000000000E-01      1.085703000000000E+02
5600000000.000000      2.936096000000000E-01     -4.381836000000000E+01      5.057068000000000E-01      9.969921000000000E+01
5620000000.000000      3.043213000000000E-01     -5.294140000000000E+01      5.952148000000000E-01      8.711718000000000E+01
5640000000.000000      3.079987000000000E-01     -6.264453000000000E+01      6.466675000000000E-01      7.532031000000000E+01
5660000000.000000      2.981720000000000E-01     -7.346093000000000E+01      6.868591000000000E-01      6.381640000000000E+01
5680000000.000000      2.688293000000000E-01     -8.381250000000000E+01      6.991577000000000E-01      5.119726000000000E+01
5700000000.000000      2.221527000000000E-01     -9.126953000000000E+01      6.827087000000000E-01      3.879101000000000E+01
5720000000.000000      1.715088000000000E-01     -8.982813000000000E+01      6.422119000000000E-01      2.609863000000000E+01
5740000000.000000      1.497345000000000E-01     -7.545312000000000E+01      5.650940000000000E-01      1.293604000000000E+01
5760000000.000000      1.780548000000000E-01     -6.367578000000000E+01      4.509583000000000E-01      1.060181000000000E+00
5780000000.000000      2.244186000000000E-01     -6.517968000000000E+01      3.164825000000000E-01     -4.008789000000000E+00
5800000000.000000      2.570190000000000E-01     -7.311328000000000E+01      2.084656000000000E-01      6.800537000000000E+00
5820000000.000000      2.663727000000000E-01     -8.246485000000000E+01      1.887665000000000E-01      3.726953000000000E+01
5840000000.000000      2.566376000000000E-01     -9.110546000000000E+01      2.702789000000000E-01      5.391406000000000E+01
5860000000.000000      2.391052000000000E-01     -9.674608000000000E+01      3.711395000000000E-01      5.412695000000000E+01
5880000000.000000      2.246628000000000E-01     -1.000039000000000E+02      4.781494000000000E-01      4.874413000000000E+01
5900000000.000000      2.169724000000000E-01     -1.023828000000000E+02      5.934753000000000E-01      3.849023000000000E+01
5920000000.000000      2.089920000000000E-01     -1.049726000000000E+02      6.717529000000000E-01      2.447754000000000E+01
5940000000.000000      1.953812000000000E-01     -1.069492000000000E+02      7.022705000000000E-01      1.126074000000000E+01
5960000000.000000      1.779175000000000E-01     -1.053711000000000E+02      7.133484000000000E-01     -1.485901000000000E+00
5980000000.000000      1.658478000000000E-01     -9.786718000000000E+01      6.931458000000000E-01     -1.530811000000000E+01
6000000000.000000      1.809464000000000E-01     -8.843359000000000E+01      6.278687000000000E-01     -2.893750000000000E+01
6020000000.000000      2.148209000000000E-01     -8.670313000000000E+01      5.299072000000000E-01     -4.183007000000000E+01
6040000000.000000      2.512054000000000E-01     -9.181641000000000E+01      4.009552000000000E-01     -4.984375000000000E+01
6060000000.000000      2.747040000000000E-01     -1.007813000000000E+02      2.863770000000000E-01     -4.980078000000000E+01
6080000000.000000      2.857666000000000E-01     -1.111328000000000E+02      2.061615000000000E-01     -3.616992000000000E+01
