! Network Analyzer HP8722D
! Hewlett-Packard
! Data name: Linha & Wilkinson+CNT
! Saver's name: Rodrigo Anjos
! Comments: Teste da utilização de aquisição
continua pelo VNA HP8722D
! Time and date: 29/9/2025 15:20
!              Frequency                     S11                                                   S21                                                   S12                                                   S22
# HZ  S  MA R 50
3000000000.000000      4.256592000000000E-01     -5.572851000000000E+01      2.086487000000000E-01     -1.315078000000000E+02
3020000000.000000      4.470215000000000E-01     -7.021874000000000E+01      3.510742000000000E-01     -1.350234000000000E+02
3040000000.000000      4.524689000000000E-01     -8.278906000000000E+01      4.674835000000000E-01     -1.450547000000000E+02
3060000000.000000      4.445343000000000E-01     -9.491405000000000E+01      5.723572000000000E-01     -1.553047000000000E+02
3080000000.000000      4.292145000000000E-01     -1.061875000000000E+02      6.732178000000000E-01     -1.683672000000000E+02
3100000000.000000      4.084625000000000E-01     -1.174219000000000E+02      7.241211000000000E-01      1.766797000000000E+02
3120000000.000000      3.796539000000000E-01     -1.294297000000000E+02      7.321472000000000E-01      1.633281000000000E+02
3140000000.000000      3.383331000000000E-01     -1.423906000000000E+02      7.245789000000000E-01      1.505156000000000E+02
3160000000.000000      2.781372000000000E-01     -1.563984000000000E+02      6.835938000000000E-01      1.369141000000000E+02
3180000000.000000      1.985779000000000E-01     -1.690703000000000E+02      6.133728000000000E-01      1.243789000000000E+02
3200000000.000000      1.108589000000000E-01     -1.696328000000000E+02      5.184631000000000E-01      1.115351000000000E+02
3220000000.000000      7.959366000000000E-02     -1.239375000000000E+02      3.855896000000000E-01      1.008086000000000E+02
3240000000.000000      1.507111000000000E-01     -1.047578000000000E+02      2.458267000000000E-01      9.964453000000000E+01
3260000000.000000      2.301483000000000E-01     -1.151211000000000E+02      1.466904000000000E-01      1.257695000000000E+02
3280000000.000000      2.877808000000000E-01     -1.309453000000000E+02      2.040024000000000E-01      1.654375000000000E+02
3300000000.000000      3.203278000000000E-01     -1.472265000000000E+02      3.313293000000000E-01      1.695469000000000E+02
3320000000.000000      3.316040000000000E-01     -1.631016000000000E+02      4.637604000000000E-01      1.624687000000000E+02
3340000000.000000      3.286591000000000E-01     -1.785078000000000E+02      5.757751000000000E-01      1.503906000000000E+02
3360000000.000000      3.168030000000000E-01      1.667422000000000E+02      6.478882000000000E-01      1.383281000000000E+02
3380000000.000000      3.003387000000000E-01      1.524062000000000E+02      7.081299000000000E-01      1.268945000000000E+02
3400000000.000000      2.778015000000000E-01      1.377734000000000E+02      7.574768000000000E-01      1.132422000000000E+02
3420000000.000000      2.429886000000000E-01      1.227656000000000E+02      7.481079000000000E-01      9.842186000000000E+01
3440000000.000000      1.895981000000000E-01      1.080937000000000E+02      7.046814000000000E-01      8.544531000000000E+01
3460000000.000000      1.195221000000000E-01      9.736717000000000E+01      6.473389000000000E-01      7.246094000000000E+01
3480000000.000000      4.751587000000000E-02      1.223125000000000E+02      5.484009000000000E-01      5.898828000000000E+01
3500000000.000000      9.265518000000000E-02     -1.742656000000000E+02      4.248047000000000E-01      4.754102000000000E+01
3520000000.000000      1.844788000000000E-01      1.788516000000000E+02      2.776031000000000E-01      4.053124000000000E+01
3540000000.000000      2.633209000000000E-01      1.627344000000000E+02      1.470795000000000E-01      5.863671000000000E+01
3560000000.000000      3.230896000000000E-01      1.457422000000000E+02      1.678925000000000E-01      1.079140000000000E+02
3580000000.000000      3.596954000000000E-01      1.297344000000000E+02      2.952271000000000E-01      1.174609000000000E+02
3600000000.000000      3.758698000000000E-01      1.152461000000000E+02      4.200592000000000E-01      1.105469000000000E+02
3620000000.000000      3.771973000000000E-01      1.025391000000000E+02      5.222778000000000E-01      1.010039000000000E+02
3640000000.000000      3.683167000000000E-01      9.124609000000000E+01      6.230774000000000E-01      8.990234000000000E+01
3660000000.000000      3.521576000000000E-01      8.110546000000000E+01      6.932373000000000E-01      7.564062000000000E+01
3680000000.000000      3.294678000000000E-01      7.188281000000000E+01      7.108459000000000E-01      6.250781000000000E+01
3700000000.000000      2.987823000000000E-01      6.364452000000000E+01      7.207947000000000E-01      5.098242000000000E+01
3720000000.000000      2.549286000000000E-01      5.759375000000000E+01      7.233582000000000E-01      3.670898000000000E+01
3740000000.000000      2.046127000000000E-01      5.847851000000000E+01      6.624756000000000E-01      2.145996000000000E+01
3760000000.000000      1.778793000000000E-01      7.259766000000000E+01      5.644226000000000E-01      7.124512000000000E+00
3780000000.000000      2.120438000000000E-01      8.754297000000000E+01      4.343414000000000E-01     -5.965576000000000E+00
3800000000.000000      2.829742000000000E-01      8.912109000000000E+01      2.811890000000000E-01     -1.333203000000000E+01
3820000000.000000      3.502502000000000E-01      8.260157000000000E+01      1.528015000000000E-01     -7.690430000000000E-02
3840000000.000000      4.008179000000000E-01      7.384766000000000E+01      1.434174000000000E-01      4.812109000000000E+01
3860000000.000000      4.360962000000000E-01      6.532031000000000E+01      2.466965000000000E-01      6.534765000000000E+01
3880000000.000000      4.609528000000000E-01      5.780859000000000E+01      3.771820000000000E-01      6.117969000000000E+01
3900000000.000000      4.900055000000000E-01      5.072266000000000E+01      4.775543000000000E-01      4.749609000000000E+01
3920000000.000000      5.197754000000000E-01      4.314649000000000E+01      5.091248000000000E-01      3.584570000000000E+01
3940000000.000000      5.484619000000000E-01      3.417773000000000E+01      5.392151000000000E-01      2.944824000000000E+01
3960000000.000000      5.598755000000000E-01      2.399414000000000E+01      5.959473000000000E-01      2.000195000000000E+01
3980000000.000000      5.549011000000000E-01      1.341553000000000E+01      5.970154000000000E-01      8.172363000000000E+00
4000000000.000000      5.257568000000000E-01      2.973145000000000E+00      5.809021000000000E-01      1.179626000000000E+00
4020000000.000000      4.837494000000000E-01     -6.814453000000000E+00      5.979309000000000E-01     -6.556152000000000E+00
4040000000.000000      4.250336000000000E-01     -1.566797000000000E+01      5.862732000000000E-01     -1.883105000000000E+01
4060000000.000000      3.486938000000000E-01     -2.174414000000000E+01      5.276184000000000E-01     -2.899902000000000E+01
4080000000.000000      2.740631000000000E-01     -2.173926000000000E+01      4.684296000000000E-01     -3.850976000000000E+01
4100000000.000000      2.286224000000000E-01     -1.109619000000000E+01      3.658600000000000E-01     -4.750000000000000E+01
4120000000.000000      2.423859000000000E-01      1.983032000000000E+00      2.490234000000000E-01     -4.401953000000000E+01
4140000000.000000      2.903900000000000E-01      5.212891000000000E+00      2.032318000000000E-01     -1.972754000000000E+01
4160000000.000000      3.339844000000000E-01      9.530640000000000E-01      2.647095000000000E-01      1.373291000000000E-02
4180000000.000000      3.613434000000000E-01     -5.875000000000000E+00      3.587494000000000E-01      3.831421000000000E+00
4200000000.000000      3.713226000000000E-01     -1.370020000000000E+01      4.895782000000000E-01      1.378784000000000E+00
4220000000.000000      3.672180000000000E-01     -2.085644000000000E+01      6.433716000000000E-01     -1.120068000000000E+01
4240000000.000000      3.478394000000000E-01     -2.831640000000000E+01      7.218933000000000E-01     -2.777832000000000E+01
4260000000.000000      3.100739000000000E-01     -3.405468000000000E+01      7.422791000000000E-01     -4.189649000000000E+01
4280000000.000000      2.594299000000000E-01     -3.529492000000000E+01      7.516785000000000E-01     -5.569726000000000E+01
4300000000.000000      2.222900000000000E-01     -2.702637000000000E+01      7.139587000000000E-01     -7.095312000000000E+01
4320000000.000000      2.362137000000000E-01     -1.443604000000000E+01      6.314392000000000E-01     -8.525391000000000E+01
4340000000.000000      2.939148000000000E-01     -1.047168000000000E+01      5.145874000000000E-01     -9.799999000000000E+01
4360000000.000000      3.591766000000000E-01     -1.558691000000000E+01      3.806305000000000E-01     -1.070078000000000E+02
4380000000.000000      4.054108000000000E-01     -2.464258000000000E+01      2.489166000000000E-01     -1.079258000000000E+02
4400000000.000000      4.265442000000000E-01     -3.457226000000000E+01      1.532593000000000E-01     -8.466797000000000E+01
4420000000.000000      4.245605000000000E-01     -4.389844000000000E+01      1.886520000000000E-01     -4.536133000000000E+01
4440000000.000000      4.081268000000000E-01     -5.198047000000000E+01      3.115234000000000E-01     -3.610742000000000E+01
4460000000.000000      3.872070000000000E-01     -5.869726000000000E+01      4.538116000000000E-01     -4.337695000000000E+01
4480000000.000000      3.689423000000000E-01     -6.492969000000000E+01      5.618286000000000E-01     -5.563281000000000E+01
4500000000.000000      3.462830000000000E-01     -7.163280000000000E+01      6.426697000000000E-01     -6.685547000000000E+01
4520000000.000000      3.127899000000000E-01     -7.934765000000000E+01      7.154541000000000E-01     -7.995312000000000E+01
4540000000.000000      2.617188000000000E-01     -8.562891000000000E+01      7.421875000000000E-01     -9.442186000000000E+01
4560000000.000000      2.010193000000000E-01     -8.374218000000000E+01      7.294312000000000E-01     -1.077734000000000E+02
4580000000.000000      1.740799000000000E-01     -6.767187000000000E+01      6.910706000000000E-01     -1.215430000000000E+02
4600000000.000000      2.121506000000000E-01     -5.377148000000000E+01      6.047974000000000E-01     -1.348359000000000E+02
4620000000.000000      2.773743000000000E-01     -5.513672000000000E+01      4.976654000000000E-01     -1.452656000000000E+02
4640000000.000000      3.307495000000000E-01     -6.520702000000000E+01      3.787384000000000E-01     -1.534844000000000E+02
4660000000.000000      3.542328000000000E-01     -7.851171000000000E+01      2.453003000000000E-01     -1.516094000000000E+02
4680000000.000000      3.457794000000000E-01     -9.248438000000000E+01      1.789017000000000E-01     -1.232969000000000E+02
4700000000.000000      3.087311000000000E-01     -1.056172000000000E+02      2.494888000000000E-01     -9.646093000000000E+01
4720000000.000000      2.526398000000000E-01     -1.162422000000000E+02      3.682861000000000E-01     -9.539454000000000E+01
4740000000.000000      1.905518000000000E-01     -1.213711000000000E+02      4.751129000000000E-01     -1.018164000000000E+02
4760000000.000000      1.389618000000000E-01     -1.172734000000000E+02      5.787659000000000E-01     -1.105742000000000E+02
4780000000.000000      1.119843000000000E-01     -1.015977000000000E+02      6.683960000000000E-01     -1.229961000000000E+02
4800000000.000000      1.177750000000000E-01     -8.365234000000000E+01      7.189026000000000E-01     -1.358125000000000E+02
4820000000.000000      1.466675000000000E-01     -7.410937000000000E+01      7.350159000000000E-01     -1.491172000000000E+02
4840000000.000000      1.868286000000000E-01     -7.390625000000000E+01      7.178955000000000E-01     -1.618125000000000E+02
4860000000.000000      2.314987000000000E-01     -8.030468000000000E+01      6.841125000000000E-01     -1.743750000000000E+02
4880000000.000000      2.685699000000000E-01     -9.077734000000000E+01      6.162109000000000E-01      1.718594000000000E+02
4900000000.000000      2.938080000000000E-01     -1.043398000000000E+02      4.940491000000000E-01      1.596406000000000E+02
4920000000.000000      2.998505000000000E-01     -1.193711000000000E+02      3.647461000000000E-01      1.536406000000000E+02
4940000000.000000      2.851410000000000E-01     -1.350859000000000E+02      2.503204000000000E-01      1.561563000000000E+02
4960000000.000000      2.537994000000000E-01     -1.502500000000000E+02      1.772156000000000E-01      1.777109000000000E+02
4980000000.000000      2.118683000000000E-01     -1.644219000000000E+02      2.155075000000000E-01     -1.508828000000000E+02
5000000000.000000      1.676483000000000E-01     -1.761875000000000E+02      3.313141000000000E-01     -1.434453000000000E+02
5020000000.000000      1.299667000000000E-01      1.737969000000000E+02      4.625702000000000E-01     -1.496094000000000E+02
5040000000.000000      9.984207000000000E-02      1.636094000000000E+02      5.717773000000000E-01     -1.604063000000000E+02
5060000000.000000      7.131577000000000E-02      1.486562000000000E+02      6.517639000000000E-01     -1.719297000000000E+02
5080000000.000000      4.104996000000000E-02      1.225234000000000E+02      7.185059000000000E-01      1.757734000000000E+02
5100000000.000000      1.670361000000000E-02      4.153125000000000E+01      7.562561000000000E-01      1.620625000000000E+02
5120000000.000000      4.148102000000000E-02     -5.134179000000000E+01      7.530518000000000E-01      1.478047000000000E+02
5140000000.000000      7.294083000000000E-02     -8.819139000000000E+01      7.031250000000000E-01      1.343359000000000E+02
5160000000.000000      9.654999000000000E-02     -1.191133000000000E+02      6.277466000000000E-01      1.219531000000000E+02
5180000000.000000      1.095657000000000E-01     -1.497344000000000E+02      5.314331000000000E-01      1.105937000000000E+02
5200000000.000000      1.123886000000000E-01      1.774922000000000E+02      4.157104000000000E-01      1.010000000000000E+02
5220000000.000000      1.098251000000000E-01      1.416875000000000E+02      2.814026000000000E-01      9.828125000000000E+01
5240000000.000000      1.090546000000000E-01      1.054414000000000E+02      1.833572000000000E-01      1.156445000000000E+02
5260000000.000000      1.131439000000000E-01      7.229297000000000E+01      1.973114000000000E-01      1.497266000000000E+02
5280000000.000000      1.207352000000000E-01      4.568359000000000E+01      2.974854000000000E-01      1.606719000000000E+02
5300000000.000000      1.276398000000000E-01      2.501562000000000E+01      4.109039000000000E-01      1.580859000000000E+02
5320000000.000000      1.337662000000000E-01      8.431641000000000E+00      5.296021000000000E-01      1.504922000000000E+02
5340000000.000000      1.388474000000000E-01     -5.802246000000000E+00      6.388855000000000E-01      1.383828000000000E+02
5360000000.000000      1.434860000000000E-01     -2.154199000000000E+01      7.076721000000000E-01      1.238789000000000E+02
5380000000.000000      1.386032000000000E-01     -3.900586000000000E+01      7.171936000000000E-01      1.104609000000000E+02
5400000000.000000      1.193771000000000E-01     -5.707617000000000E+01      7.185364000000000E-01      9.891796000000000E+01
5420000000.000000      8.406830000000000E-02     -7.414844000000000E+01      7.044678000000000E-01      8.587109000000000E+01
5440000000.000000      2.993679000000000E-02     -7.793359000000000E+01      6.484070000000000E-01      7.142968000000000E+01
5460000000.000000      4.361725000000000E-02      3.910742000000000E+01      5.373230000000000E-01      5.838672000000000E+01
5480000000.000000      1.136780000000000E-01      3.081933000000000E+01      4.114838000000000E-01      4.938671000000000E+01
5500000000.000000      1.761246000000000E-01      1.555225000000000E+01      2.914124000000000E-01      4.742383000000000E+01
5520000000.000000      2.207565000000000E-01      5.548096000000000E-01      1.945724000000000E-01      5.941601000000000E+01
5540000000.000000      2.523956000000000E-01     -1.336377000000000E+01      1.818237000000000E-01      9.119532000000000E+01
5560000000.000000      2.695923000000000E-01     -2.510254000000000E+01      2.639618000000000E-01      1.088125000000000E+02
5580000000.000000      2.827148000000000E-01     -3.503515000000000E+01      3.860016000000000E-01      1.084844000000000E+02
5600000000.000000      2.938690000000000E-01     -4.393164000000000E+01      5.086365000000000E-01      9.959764000000000E+01
5620000000.000000      3.043213000000000E-01     -5.308398000000000E+01      5.972900000000000E-01      8.678905000000000E+01
5640000000.000000      3.079529000000000E-01     -6.278125000000000E+01      6.477051000000000E-01      7.502343000000000E+01
5660000000.000000      2.981873000000000E-01     -7.344921000000000E+01      6.849365000000000E-01      6.372265000000000E+01
5680000000.000000      2.679596000000000E-01     -8.389843000000000E+01      6.998596000000000E-01      5.091406000000000E+01
5700000000.000000      2.204285000000000E-01     -9.112890000000000E+01      6.830139000000000E-01      3.854297000000000E+01
5720000000.000000      1.699219000000000E-01     -8.973827000000000E+01      6.434021000000000E-01      2.593164000000000E+01
5740000000.000000      1.495667000000000E-01     -7.500000000000000E+01      5.652466000000000E-01      1.268213000000000E+01
5760000000.000000      1.789017000000000E-01     -6.363867000000000E+01      4.486237000000000E-01      1.297729000000000E+00
5780000000.000000      2.254944000000000E-01     -6.526562000000000E+01      3.149719000000000E-01     -3.941406000000000E+00
5800000000.000000      2.577209000000000E-01     -7.317577000000000E+01      2.073364000000000E-01      7.322266000000000E+00
5820000000.000000      2.669220000000000E-01     -8.248827000000000E+01      1.900253000000000E-01      3.787500000000000E+01
5840000000.000000      2.572937000000000E-01     -9.094141000000000E+01      2.729645000000000E-01      5.412499000000000E+01
5860000000.000000      2.386169000000000E-01     -9.659374000000000E+01      3.734131000000000E-01      5.406054000000000E+01
5880000000.000000      2.238541000000000E-01     -9.975389000000000E+01      4.790955000000000E-01      4.858593000000000E+01
5900000000.000000      2.162933000000000E-01     -1.022695000000000E+02      5.950928000000000E-01      3.835742000000000E+01
5920000000.000000      2.082901000000000E-01     -1.050469000000000E+02      6.728821000000000E-01      2.435254000000000E+01
5940000000.000000      1.945038000000000E-01     -1.069375000000000E+02      7.023621000000000E-01      1.122363000000000E+01
5960000000.000000      1.772842000000000E-01     -1.052383000000000E+02      7.135620000000000E-01     -1.562805000000000E+00
5980000000.000000      1.654510000000000E-01     -9.728905000000000E+01      6.899414000000000E-01     -1.544678000000000E+01
6000000000.000000      1.822357000000000E-01     -8.817577000000000E+01      6.274414000000000E-01     -2.912793000000000E+01
6020000000.000000      2.160721000000000E-01     -8.633204000000000E+01      5.275574000000000E-01     -4.166992000000000E+01
6040000000.000000      2.520294000000000E-01     -9.174999000000000E+01      3.988953000000000E-01     -4.972851000000000E+01
6060000000.000000      2.751160000000000E-01     -1.007773000000000E+02      2.853394000000000E-01     -4.967578000000000E+01
6080000000.000000      2.853088000000000E-01     -1.110430000000000E+02      2.051849000000000E-01     -3.555664000000000E+01
