! Network Analyzer HP8722D
! Hewlett-Packard
! Data name: Linha & Wilkinson+CNT
! Saver's name: Rodrigo Anjos
! Comments: Teste da utilização de aquisição
continua pelo VNA HP8722D
! Time and date: 29/9/2025 16:24
!              Frequency                     S11                                                   S21                                                   S12                                                   S22
# HZ  S  MA R 50
3000000000.000000      4.242859000000000E-01     -5.542773000000000E+01      2.060776000000000E-01     -1.314766000000000E+02
3020000000.000000      4.480133000000000E-01     -6.960155000000000E+01      3.494415000000000E-01     -1.349141000000000E+02
3040000000.000000      4.535980000000000E-01     -8.263672000000000E+01      4.671478000000000E-01     -1.448359000000000E+02
3060000000.000000      4.448547000000000E-01     -9.480469000000000E+01      5.722656000000000E-01     -1.551641000000000E+02
3080000000.000000      4.296875000000000E-01     -1.060742000000000E+02      6.731567000000000E-01     -1.682891000000000E+02
3100000000.000000      4.087982000000000E-01     -1.173008000000000E+02      7.243347000000000E-01      1.770156000000000E+02
3120000000.000000      3.806458000000000E-01     -1.291875000000000E+02      7.332153000000000E-01      1.633984000000000E+02
3140000000.000000      3.393707000000000E-01     -1.421562000000000E+02      7.248840000000000E-01      1.507187000000000E+02
3160000000.000000      2.788544000000000E-01     -1.561172000000000E+02      6.851196000000000E-01      1.370469000000000E+02
3180000000.000000      1.998215000000000E-01     -1.689297000000000E+02      6.150513000000000E-01      1.244922000000000E+02
3200000000.000000      1.123390000000000E-01     -1.699844000000000E+02      5.213928000000000E-01      1.116640000000000E+02
3220000000.000000      7.882309000000000E-02     -1.245586000000000E+02      3.874054000000000E-01      1.009375000000000E+02
3240000000.000000      1.503906000000000E-01     -1.047461000000000E+02      2.480927000000000E-01      9.951561000000000E+01
3260000000.000000      2.291718000000000E-01     -1.149258000000000E+02      1.472397000000000E-01      1.249101000000000E+02
3280000000.000000      2.873535000000000E-01     -1.306094000000000E+02      2.021332000000000E-01      1.652734000000000E+02
3300000000.000000      3.202057000000000E-01     -1.468750000000000E+02      3.290863000000000E-01      1.696094000000000E+02
3320000000.000000      3.323975000000000E-01     -1.628594000000000E+02      4.622192000000000E-01      1.626953000000000E+02
3340000000.000000      3.289032000000000E-01     -1.783516000000000E+02      5.755615000000000E-01      1.504688000000000E+02
3360000000.000000      3.169098000000000E-01      1.668672000000000E+02      6.455078000000000E-01      1.384531000000000E+02
3380000000.000000      3.005066000000000E-01      1.526328000000000E+02      7.091675000000000E-01      1.271797000000000E+02
3400000000.000000      2.786407000000000E-01      1.379922000000000E+02      7.579956000000000E-01      1.133945000000000E+02
3420000000.000000      2.439270000000000E-01      1.230508000000000E+02      7.506104000000000E-01      9.857422000000000E+01
3440000000.000000      1.911392000000000E-01      1.082617000000000E+02      7.050781000000000E-01      8.560156000000000E+01
3460000000.000000      1.209793000000000E-01      9.739452000000000E+01      6.487122000000000E-01      7.258594000000000E+01
3480000000.000000      4.815292000000000E-02      1.201875000000000E+02      5.516357000000000E-01      5.914453000000000E+01
3500000000.000000      9.145355000000000E-02     -1.744141000000000E+02      4.258270000000000E-01      4.774414000000000E+01
3520000000.000000      1.831665000000000E-01      1.792344000000000E+02      2.805176000000000E-01      4.046679000000000E+01
3540000000.000000      2.623749000000000E-01      1.630391000000000E+02      1.480942000000000E-01      5.795898000000000E+01
3560000000.000000      3.225861000000000E-01      1.460312000000000E+02      1.659164000000000E-01      1.075937000000000E+02
3580000000.000000      3.600311000000000E-01      1.300469000000000E+02      2.929993000000000E-01      1.175469000000000E+02
3600000000.000000      3.768311000000000E-01      1.153437000000000E+02      4.180908000000000E-01      1.107265000000000E+02
3620000000.000000      3.782806000000000E-01      1.027266000000000E+02      5.197144000000000E-01      1.013906000000000E+02
3640000000.000000      3.692932000000000E-01      9.152344000000000E+01      6.204529000000000E-01      9.007813000000000E+01
3660000000.000000      3.530731000000000E-01      8.126953000000000E+01      6.928101000000000E-01      7.604297000000000E+01
3680000000.000000      3.297882000000000E-01      7.206640000000000E+01      7.101440000000000E-01      6.286718000000000E+01
3700000000.000000      2.998962000000000E-01      6.380273000000000E+01      7.217102000000000E-01      5.107031000000000E+01
3720000000.000000      2.558289000000000E-01      5.769140000000000E+01      7.246704000000000E-01      3.697851000000000E+01
3740000000.000000      2.055893000000000E-01      5.847070000000000E+01      6.647339000000000E-01      2.158886000000000E+01
3760000000.000000      1.782990000000000E-01      7.226563000000000E+01      5.672607000000000E-01      7.305908000000000E+00
3780000000.000000      2.112579000000000E-01      8.748827000000000E+01      4.371338000000000E-01     -5.978027000000000E+00
3800000000.000000      2.816620000000000E-01      8.929688000000000E+01      2.832794000000000E-01     -1.356299000000000E+01
3820000000.000000      3.494415000000000E-01      8.273438000000000E+01      1.546555000000000E-01     -7.772827000000000E-01
3840000000.000000      4.002533000000000E-01      7.408593000000000E+01      1.421509000000000E-01      4.742969000000000E+01
3860000000.000000      4.356689000000000E-01      6.546875000000000E+01      2.449875000000000E-01      6.537109000000000E+01
3880000000.000000      4.613190000000000E-01      5.794335000000000E+01      3.751221000000000E-01      6.122070000000000E+01
3900000000.000000      4.897308000000000E-01      5.088476000000000E+01      4.776459000000000E-01      4.795117000000000E+01
3920000000.000000      5.203552000000000E-01      4.334374000000000E+01      5.086060000000000E-01      3.619726000000000E+01
3940000000.000000      5.503845000000000E-01      3.446094000000000E+01      5.396423000000000E-01      2.955175000000000E+01
3960000000.000000      5.609131000000000E-01      2.419922000000000E+01      5.946350000000000E-01      2.024414000000000E+01
3980000000.000000      5.537415000000000E-01      1.393457000000000E+01      5.979004000000000E-01      8.375488000000000E+00
4000000000.000000      5.292053000000000E-01      3.218994000000000E+00      5.809631000000000E-01      1.294983000000000E+00
4020000000.000000      4.854279000000000E-01     -6.704590000000000E+00      5.982666000000000E-01     -6.457275000000000E+00
4040000000.000000      4.266205000000000E-01     -1.558301000000000E+01      5.860901000000000E-01     -1.863477000000000E+01
4060000000.000000      3.504791000000000E-01     -2.173926000000000E+01      5.272827000000000E-01     -2.876953000000000E+01
4080000000.000000      2.747192000000000E-01     -2.178223000000000E+01      4.708862000000000E-01     -3.810351000000000E+01
4100000000.000000      2.281723000000000E-01     -1.130908000000000E+01      3.693390000000000E-01     -4.744726000000000E+01
4120000000.000000      2.413177000000000E-01      1.840210000000000E+00      2.509155000000000E-01     -4.429688000000000E+01
4140000000.000000      2.894135000000000E-01      5.239014000000000E+00      2.027893000000000E-01     -2.035937000000000E+01
4160000000.000000      3.334656000000000E-01      1.101379000000000E+00      2.622528000000000E-01     -1.702881000000000E-01
4180000000.000000      3.618164000000000E-01     -5.733643000000000E+00      3.560028000000000E-01      3.959106000000000E+00
4200000000.000000      3.718414000000000E-01     -1.349023000000000E+01      4.849243000000000E-01      1.668518000000000E+00
4220000000.000000      3.679504000000000E-01     -2.067578000000000E+01      6.414795000000000E-01     -1.081494000000000E+01
4240000000.000000      3.488922000000000E-01     -2.816797000000000E+01      7.219849000000000E-01     -2.766797000000000E+01
4260000000.000000      3.105927000000000E-01     -3.405468000000000E+01      7.434387000000000E-01     -4.166601000000000E+01
4280000000.000000      2.606201000000000E-01     -3.539844000000000E+01      7.515869000000000E-01     -5.548633000000000E+01
4300000000.000000      2.223282000000000E-01     -2.740137000000000E+01      7.167358000000000E-01     -7.049609000000000E+01
4320000000.000000      2.350388000000000E-01     -1.462695000000000E+01      6.333618000000000E-01     -8.494921000000000E+01
4340000000.000000      2.922211000000000E-01     -1.041943000000000E+01      5.173950000000000E-01     -9.768358000000000E+01
4360000000.000000      3.583221000000000E-01     -1.542773000000000E+01      3.825836000000000E-01     -1.066992000000000E+02
4380000000.000000      4.049835000000000E-01     -2.442480000000000E+01      2.515869000000000E-01     -1.082734000000000E+02
4400000000.000000      4.264221000000000E-01     -3.438281000000000E+01      1.538925000000000E-01     -8.572266000000000E+01
4420000000.000000      4.248505000000000E-01     -4.374804000000000E+01      1.863708000000000E-01     -4.580078000000000E+01
4440000000.000000      4.077606000000000E-01     -5.180469000000000E+01      3.087769000000000E-01     -3.601367000000000E+01
4460000000.000000      3.863220000000000E-01     -5.866796000000000E+01      4.514465000000000E-01     -4.326562000000000E+01
4480000000.000000      3.681335000000000E-01     -6.469921000000000E+01      5.604858000000000E-01     -5.519140000000000E+01
4500000000.000000      3.467712000000000E-01     -7.148828000000000E+01      6.414490000000000E-01     -6.676171000000000E+01
4520000000.000000      3.140411000000000E-01     -7.921484000000000E+01      7.160339000000000E-01     -7.953515000000000E+01
4540000000.000000      2.631989000000000E-01     -8.558594000000000E+01      7.414551000000000E-01     -9.429688000000000E+01
4560000000.000000      2.016602000000000E-01     -8.421093000000000E+01      7.301331000000000E-01     -1.075977000000000E+02
4580000000.000000      1.739502000000000E-01     -6.812500000000000E+01      6.939392000000000E-01     -1.212344000000000E+02
4600000000.000000      2.110901000000000E-01     -5.377930000000000E+01      6.085510000000000E-01     -1.345859000000000E+02
4620000000.000000      2.760315000000000E-01     -5.500195000000000E+01      4.995270000000000E-01     -1.451094000000000E+02
4640000000.000000      3.301697000000000E-01     -6.487890000000000E+01      3.805237000000000E-01     -1.533516000000000E+02
4660000000.000000      3.544464000000000E-01     -7.814453000000000E+01      2.479782000000000E-01     -1.520937000000000E+02
4680000000.000000      3.463135000000000E-01     -9.212891000000000E+01      1.787949000000000E-01     -1.240937000000000E+02
4700000000.000000      3.098450000000000E-01     -1.053828000000000E+02      2.463226000000000E-01     -9.672264000000000E+01
4720000000.000000      2.541656000000000E-01     -1.160938000000000E+02      3.658447000000000E-01     -9.530468000000000E+01
4740000000.000000      1.917343000000000E-01     -1.216250000000000E+02      4.723816000000000E-01     -1.015742000000000E+02
4760000000.000000      1.392517000000000E-01     -1.178281000000000E+02      5.786743000000000E-01     -1.103945000000000E+02
4780000000.000000      1.116867000000000E-01     -1.022539000000000E+02      6.650085000000000E-01     -1.226601000000000E+02
4800000000.000000      1.172638000000000E-01     -8.368359000000000E+01      7.168274000000000E-01     -1.353984000000000E+02
4820000000.000000      1.453857000000000E-01     -7.388281000000000E+01      7.370300000000000E-01     -1.487500000000000E+02
4840000000.000000      1.867981000000000E-01     -7.346093000000000E+01      7.200928000000000E-01     -1.616719000000000E+02
4860000000.000000      2.301254000000000E-01     -7.992188000000000E+01      6.854553000000000E-01     -1.741328000000000E+02
4880000000.000000      2.679749000000000E-01     -9.041796000000000E+01      6.186218000000000E-01      1.721719000000000E+02
4900000000.000000      2.941742000000000E-01     -1.038828000000000E+02      4.971924000000000E-01      1.598906000000000E+02
4920000000.000000      3.001862000000000E-01     -1.190820000000000E+02      3.675995000000000E-01      1.536016000000000E+02
4940000000.000000      2.855988000000000E-01     -1.347500000000000E+02      2.531128000000000E-01      1.558437000000000E+02
4960000000.000000      2.549744000000000E-01     -1.498281000000000E+02      1.777573000000000E-01      1.767266000000000E+02
4980000000.000000      2.129822000000000E-01     -1.641328000000000E+02      2.133713000000000E-01     -1.514297000000000E+02
5000000000.000000      1.689072000000000E-01     -1.759766000000000E+02      3.278809000000000E-01     -1.435547000000000E+02
5020000000.000000      1.315384000000000E-01      1.740469000000000E+02      4.590302000000000E-01     -1.494844000000000E+02
5040000000.000000      1.005516000000000E-01      1.636406000000000E+02      5.675354000000000E-01     -1.602344000000000E+02
5060000000.000000      7.252502000000000E-02      1.488359000000000E+02      6.482544000000000E-01     -1.717109000000000E+02
5080000000.000000      4.195404000000000E-02      1.232500000000000E+02      7.186890000000000E-01      1.761094000000000E+02
5100000000.000000      1.712990000000000E-02      4.298633000000000E+01      7.579651000000000E-01      1.623437000000000E+02
5120000000.000000      4.113007000000000E-02     -5.010351000000000E+01      7.536316000000000E-01      1.482266000000000E+02
5140000000.000000      7.224655000000000E-02     -8.711718000000000E+01      7.059021000000000E-01      1.344687000000000E+02
5160000000.000000      9.648895000000000E-02     -1.184062000000000E+02      6.300049000000000E-01      1.221133000000000E+02
5180000000.000000      1.096077000000000E-01     -1.490000000000000E+02      5.332947000000000E-01      1.108398000000000E+02
5200000000.000000      1.129074000000000E-01      1.785000000000000E+02      4.186096000000000E-01      1.010859000000000E+02
5220000000.000000      1.103325000000000E-01      1.425234000000000E+02      2.849579000000000E-01      9.814842000000000E+01
5240000000.000000      1.088028000000000E-01      1.065508000000000E+02      1.847839000000000E-01      1.146562000000000E+02
5260000000.000000      1.131516000000000E-01      7.279687000000000E+01      1.950684000000000E-01      1.491484000000000E+02
5280000000.000000      1.207199000000000E-01      4.624804000000000E+01      2.945099000000000E-01      1.606172000000000E+02
5300000000.000000      1.274567000000000E-01      2.531445000000000E+01      4.083862000000000E-01      1.581953000000000E+02
5320000000.000000      1.337814000000000E-01      8.838379000000000E+00      5.269470000000000E-01      1.505391000000000E+02
5340000000.000000      1.393509000000000E-01     -5.560547000000000E+00      6.388855000000000E-01      1.386797000000000E+02
5360000000.000000      1.435394000000000E-01     -2.112891000000000E+01      7.044678000000000E-01      1.243437000000000E+02
5380000000.000000      1.391068000000000E-01     -3.874414000000000E+01      7.178650000000000E-01      1.109492000000000E+02
5400000000.000000      1.207008000000000E-01     -5.691406000000000E+01      7.192993000000000E-01      9.908203000000000E+01
5420000000.000000      8.557510000000000E-02     -7.385156000000000E+01      7.070618000000000E-01      8.610155000000000E+01
5440000000.000000      3.138924000000000E-02     -7.938281000000000E+01      6.498413000000000E-01      7.171875000000000E+01
5460000000.000000      4.216385000000000E-02      3.846484000000000E+01      5.411682000000000E-01      5.852539000000000E+01
5480000000.000000      1.118546000000000E-01      3.137890000000000E+01      4.145355000000000E-01      4.914257000000000E+01
5500000000.000000      1.745834000000000E-01      1.602539000000000E+01      2.941895000000000E-01      4.724023000000000E+01
5520000000.000000      2.207565000000000E-01      9.310913000000000E-01      1.959000000000000E-01      5.856250000000000E+01
5540000000.000000      2.513428000000000E-01     -1.287598000000000E+01      1.800461000000000E-01      9.043360000000000E+01
5560000000.000000      2.696991000000000E-01     -2.485547000000000E+01      2.613525000000000E-01      1.087031000000000E+02
5580000000.000000      2.822266000000000E-01     -3.483203000000000E+01      3.825378000000000E-01      1.086289000000000E+02
5600000000.000000      2.937469000000000E-01     -4.381640000000000E+01      5.050354000000000E-01      9.988670000000000E+01
5620000000.000000      3.045654000000000E-01     -5.282031000000000E+01      5.938721000000000E-01      8.737108000000000E+01
5640000000.000000      3.084259000000000E-01     -6.266015000000000E+01      6.468506000000000E-01      7.539453000000000E+01
5660000000.000000      2.981415000000000E-01     -7.321094000000000E+01      6.856689000000000E-01      6.421484000000000E+01
5680000000.000000      2.694244000000000E-01     -8.364061000000000E+01      6.977539000000000E-01      5.132617000000000E+01
5700000000.000000      2.217484000000000E-01     -9.110155000000000E+01      6.841125000000000E-01      3.898438000000000E+01
5720000000.000000      1.709366000000000E-01     -9.001562000000000E+01      6.452942000000000E-01      2.614746000000000E+01
5740000000.000000      1.490402000000000E-01     -7.569921000000000E+01      5.680847000000000E-01      1.284814000000000E+01
5760000000.000000      1.773682000000000E-01     -6.380468000000000E+01      4.541473000000000E-01      1.164551000000000E+00
5780000000.000000      2.239990000000000E-01     -6.507813000000000E+01      3.186188000000000E-01     -4.130859000000000E+00
5800000000.000000      2.575836000000000E-01     -7.285546000000000E+01      2.094727000000000E-01      6.543701000000000E+00
5820000000.000000      2.672424000000000E-01     -8.228907000000000E+01      1.887894000000000E-01      3.700195000000000E+01
5840000000.000000      2.575836000000000E-01     -9.089453000000000E+01      2.689514000000000E-01      5.387304000000000E+01
5860000000.000000      2.391815000000000E-01     -9.658983000000000E+01      3.696747000000000E-01      5.424023000000000E+01
5880000000.000000      2.245941000000000E-01     -9.987108000000000E+01      4.769135000000000E-01      4.875000000000000E+01
5900000000.000000      2.160339000000000E-01     -1.023438000000000E+02      5.938416000000000E-01      3.869531000000000E+01
5920000000.000000      2.087479000000000E-01     -1.050547000000000E+02      6.735840000000000E-01      2.475683000000000E+01
5940000000.000000      1.949768000000000E-01     -1.069805000000000E+02      7.021790000000000E-01      1.151465000000000E+01
5960000000.000000      1.777496000000000E-01     -1.052851000000000E+02      7.158203000000000E-01     -1.349976000000000E+00
5980000000.000000      1.654739000000000E-01     -9.759766000000000E+01      6.931763000000000E-01     -1.528906000000000E+01
6000000000.000000      1.807785000000000E-01     -8.822266000000000E+01      6.294861000000000E-01     -2.889355000000000E+01
6020000000.000000      2.153702000000000E-01     -8.630859000000000E+01      5.305786000000000E-01     -4.133594000000000E+01
6040000000.000000      2.512360000000000E-01     -9.149218000000000E+01      4.030151000000000E-01     -4.965429000000000E+01
6060000000.000000      2.749176000000000E-01     -1.005859000000000E+02      2.877045000000000E-01     -4.973633000000000E+01
6080000000.000000      2.854462000000000E-01     -1.107617000000000E+02      2.062836000000000E-01     -3.640625000000000E+01
