! Network Analyzer HP8722D
! Hewlett-Packard
! Data name: Linha & Wilkinson+CNT
! Saver's name: Rodrigo Anjos
! Comments: Teste da utilização de aquisição
continua pelo VNA HP8722D
! Time and date: 29/9/2025 11:51
!              Frequency                     S11                                                   S21                                                   S12                                                   S22
# HZ  S  MA R 50
3000000000.000000      4.227753000000000E-01     -5.688086000000000E+01      2.096939000000000E-01     -1.315469000000000E+02
3020000000.000000      4.463654000000000E-01     -7.085938000000000E+01      3.514099000000000E-01     -1.351172000000000E+02
3040000000.000000      4.528351000000000E-01     -8.362499000000000E+01      4.691467000000000E-01     -1.449687000000000E+02
3060000000.000000      4.460754000000000E-01     -9.574999000000000E+01      5.732422000000000E-01     -1.553516000000000E+02
3080000000.000000      4.308777000000000E-01     -1.070430000000000E+02      6.706543000000000E-01     -1.685703000000000E+02
3100000000.000000      4.118500000000000E-01     -1.181562000000000E+02      7.217712000000000E-01      1.765781000000000E+02
3120000000.000000      3.828888000000000E-01     -1.300859000000000E+02      7.293701000000000E-01      1.632734000000000E+02
3140000000.000000      3.419800000000000E-01     -1.431015000000000E+02      7.203979000000000E-01      1.503594000000000E+02
3160000000.000000      2.830200000000000E-01     -1.567656000000000E+02      6.793823000000000E-01      1.367812000000000E+02
3180000000.000000      2.034378000000000E-01     -1.690625000000000E+02      6.110229000000000E-01      1.241680000000000E+02
3200000000.000000      1.161156000000000E-01     -1.689687000000000E+02      5.166931000000000E-01      1.114531000000000E+02
3220000000.000000      8.478928000000000E-02     -1.257461000000000E+02      3.821564000000000E-01      1.008320000000000E+02
3240000000.000000      1.551208000000000E-01     -1.066836000000000E+02      2.437668000000000E-01      9.991014000000000E+01
3260000000.000000      2.344437000000000E-01     -1.163359000000000E+02      1.467285000000000E-01      1.265430000000000E+02
3280000000.000000      2.918701000000000E-01     -1.316875000000000E+02      2.057877000000000E-01      1.655234000000000E+02
3300000000.000000      3.247986000000000E-01     -1.477187000000000E+02      3.318787000000000E-01      1.695000000000000E+02
3320000000.000000      3.368835000000000E-01     -1.634609000000000E+02      4.637909000000000E-01      1.624844000000000E+02
3340000000.000000      3.329163000000000E-01     -1.785625000000000E+02      5.754089000000000E-01      1.503359000000000E+02
3360000000.000000      3.210602000000000E-01      1.668750000000000E+02      6.460571000000000E-01      1.382031000000000E+02
3380000000.000000      3.038025000000000E-01      1.527187000000000E+02      7.089844000000000E-01      1.268476000000000E+02
3400000000.000000      2.796936000000000E-01      1.381641000000000E+02      7.573242000000000E-01      1.129336000000000E+02
3420000000.000000      2.438812000000000E-01      1.234531000000000E+02      7.479858000000000E-01      9.808594000000000E+01
3440000000.000000      1.893539000000000E-01      1.089531000000000E+02      7.026978000000000E-01      8.529297000000000E+01
3460000000.000000      1.178856000000000E-01      9.933983000000000E+01      6.463928000000000E-01      7.211719000000000E+01
3480000000.000000      4.944229000000000E-02      1.283984000000000E+02      5.466919000000000E-01      5.880077000000000E+01
3500000000.000000      9.888840000000000E-02     -1.737578000000000E+02      4.222565000000000E-01      4.742188000000000E+01
3520000000.000000      1.900482000000000E-01      1.789453000000000E+02      2.752991000000000E-01      4.069336000000000E+01
3540000000.000000      2.689972000000000E-01      1.630547000000000E+02      1.462402000000000E-01      5.935741000000000E+01
3560000000.000000      3.267822000000000E-01      1.462109000000000E+02      1.691055000000000E-01      1.080976000000000E+02
3580000000.000000      3.626556000000000E-01      1.302969000000000E+02      2.965240000000000E-01      1.174844000000000E+02
3600000000.000000      3.778076000000000E-01      1.156992000000000E+02      4.215851000000000E-01      1.104023000000000E+02
3620000000.000000      3.792114000000000E-01      1.029102000000000E+02      5.220337000000000E-01      1.008476000000000E+02
3640000000.000000      3.676605000000000E-01      9.168360000000000E+01      6.236267000000000E-01      8.955858000000000E+01
3660000000.000000      3.503876000000000E-01      8.160547000000000E+01      6.947632000000000E-01      7.546093000000000E+01
3680000000.000000      3.263397000000000E-01      7.239843000000000E+01      7.117310000000000E-01      6.230078000000000E+01
3700000000.000000      2.947388000000000E-01      6.411718000000000E+01      7.204590000000000E-01      5.057812000000000E+01
3720000000.000000      2.495956000000000E-01      5.819726000000000E+01      7.225647000000000E-01      3.633398000000000E+01
3740000000.000000      1.996994000000000E-01      5.940624000000000E+01      6.609192000000000E-01      2.104980000000000E+01
3760000000.000000      1.756592000000000E-01      7.399609000000000E+01      5.625610000000000E-01      6.737305000000000E+00
3780000000.000000      2.125702000000000E-01      8.854687000000000E+01      4.313812000000000E-01     -6.459961000000000E+00
3800000000.000000      2.830811000000000E-01      8.949219000000000E+01      2.794800000000000E-01     -1.331982000000000E+01
3820000000.000000      3.500061000000000E-01      8.285156000000000E+01      1.523209000000000E-01      6.001282000000000E-01
3840000000.000000      3.996582000000000E-01      7.402344000000000E+01      1.454544000000000E-01      4.852344000000000E+01
3860000000.000000      4.338379000000000E-01      6.528515000000000E+01      2.494049000000000E-01      6.520702000000000E+01
3880000000.000000      4.586639000000000E-01      5.780468000000000E+01      3.789063000000000E-01      6.080078000000000E+01
3900000000.000000      4.869232000000000E-01      5.065430000000000E+01      4.810638000000000E-01      4.756249000000000E+01
3920000000.000000      5.176392000000000E-01      4.274610000000000E+01      5.097656000000000E-01      3.570117000000000E+01
3940000000.000000      5.465393000000000E-01      3.380078000000000E+01      5.399170000000000E-01      2.923144000000000E+01
3960000000.000000      5.561218000000000E-01      2.355469000000000E+01      5.960083000000000E-01      1.962500000000000E+01
3980000000.000000      5.509338000000000E-01      1.303076000000000E+01      5.987244000000000E-01      7.774170000000000E+00
4000000000.000000      5.238037000000000E-01      2.486938000000000E+00      5.791321000000000E-01      8.363342000000000E-01
4020000000.000000      4.799652000000000E-01     -7.424072000000000E+00      5.972595000000000E-01     -6.822510000000000E+00
4040000000.000000      4.205933000000000E-01     -1.629492000000000E+01      5.830688000000000E-01     -1.904004000000000E+01
4060000000.000000      3.455658000000000E-01     -2.238965000000000E+01      5.256958000000000E-01     -2.933300000000000E+01
4080000000.000000      2.720490000000000E-01     -2.245410000000000E+01      4.667511000000000E-01     -3.838476000000000E+01
4100000000.000000      2.270126000000000E-01     -1.174756000000000E+01      3.630829000000000E-01     -4.754687000000000E+01
4120000000.000000      2.411041000000000E-01      1.323853000000000E+00      2.476273000000000E-01     -4.383985000000000E+01
4140000000.000000      2.894897000000000E-01      4.630615000000000E+00      2.036743000000000E-01     -1.933203000000000E+01
4160000000.000000      3.333130000000000E-01      3.378296000000000E-01      2.661591000000000E-01     -6.866455000000000E-02
4180000000.000000      3.607025000000000E-01     -6.573975000000000E+00      3.601685000000000E-01      3.533447000000000E+00
4200000000.000000      3.706055000000000E-01     -1.425488000000000E+01      4.898987000000000E-01      8.747864000000000E-01
4220000000.000000      3.653259000000000E-01     -2.148242000000000E+01      6.434631000000000E-01     -1.138770000000000E+01
4240000000.000000      3.464203000000000E-01     -2.894140000000000E+01      7.212219000000000E-01     -2.806250000000000E+01
4260000000.000000      3.079987000000000E-01     -3.468554000000000E+01      7.416077000000000E-01     -4.212304000000000E+01
4280000000.000000      2.589722000000000E-01     -3.575390000000000E+01      7.491150000000000E-01     -5.589062000000000E+01
4300000000.000000      2.230911000000000E-01     -2.753320000000000E+01      7.121582000000000E-01     -7.103906000000000E+01
4320000000.000000      2.379913000000000E-01     -1.515332000000000E+01      6.295776000000000E-01     -8.533594000000000E+01
4340000000.000000      2.960968000000000E-01     -1.133105000000000E+01      5.127563000000000E-01     -9.814062000000000E+01
4360000000.000000      3.605499000000000E-01     -1.635742000000000E+01      3.776398000000000E-01     -1.068867000000000E+02
4380000000.000000      4.057617000000000E-01     -2.529394000000000E+01      2.469482000000000E-01     -1.077226000000000E+02
4400000000.000000      4.270020000000000E-01     -3.528125000000000E+01      1.531754000000000E-01     -8.395311000000000E+01
4420000000.000000      4.244995000000000E-01     -4.460742000000000E+01      1.904678000000000E-01     -4.510938000000000E+01
4440000000.000000      4.078674000000000E-01     -5.258203000000000E+01      3.130341000000000E-01     -3.630468000000000E+01
4460000000.000000      3.872528000000000E-01     -5.897070000000000E+01      4.541626000000000E-01     -4.352929000000000E+01
4480000000.000000      3.696289000000000E-01     -6.529297000000000E+01      5.622253000000000E-01     -5.566211000000000E+01
4500000000.000000      3.474579000000000E-01     -7.206640000000000E+01      6.427307000000000E-01     -6.706640000000000E+01
4520000000.000000      3.137512000000000E-01     -7.959374000000000E+01      7.152405000000000E-01     -8.003124000000000E+01
4540000000.000000      2.621002000000000E-01     -8.556250000000000E+01      7.405701000000000E-01     -9.471874000000000E+01
4560000000.000000      2.023468000000000E-01     -8.359375000000000E+01      7.270813000000000E-01     -1.079336000000000E+02
4580000000.000000      1.766815000000000E-01     -6.786327000000000E+01      6.878967000000000E-01     -1.216680000000000E+02
4600000000.000000      2.151031000000000E-01     -5.428711000000000E+01      6.019897000000000E-01     -1.348906000000000E+02
4620000000.000000      2.794189000000000E-01     -5.594727000000000E+01      4.941711000000000E-01     -1.450781000000000E+02
4640000000.000000      3.329315000000000E-01     -6.582031000000000E+01      3.763275000000000E-01     -1.533359000000000E+02
4660000000.000000      3.559418000000000E-01     -7.891796000000000E+01      2.441025000000000E-01     -1.512344000000000E+02
4680000000.000000      3.460388000000000E-01     -9.262499000000000E+01      1.797714000000000E-01     -1.226250000000000E+02
4700000000.000000      3.079224000000000E-01     -1.056602000000000E+02      2.502899000000000E-01     -9.643358000000000E+01
4720000000.000000      2.515106000000000E-01     -1.160000000000000E+02      3.697815000000000E-01     -9.569530000000000E+01
4740000000.000000      1.890106000000000E-01     -1.206836000000000E+02      4.755402000000000E-01     -1.019570000000000E+02
4760000000.000000      1.384659000000000E-01     -1.161836000000000E+02      5.801086000000000E-01     -1.110312000000000E+02
4780000000.000000      1.141548000000000E-01     -1.000508000000000E+02      6.668091000000000E-01     -1.231016000000000E+02
4800000000.000000      1.217804000000000E-01     -8.304296000000000E+01      7.176819000000000E-01     -1.360000000000000E+02
4820000000.000000      1.516342000000000E-01     -7.409765000000000E+01      7.339478000000000E-01     -1.492109000000000E+02
4840000000.000000      1.924133000000000E-01     -7.421484000000000E+01      7.155457000000000E-01     -1.621172000000000E+02
4860000000.000000      2.352219000000000E-01     -8.077343000000000E+01      6.816711000000000E-01     -1.744922000000000E+02
4880000000.000000      2.717285000000000E-01     -9.114452000000000E+01      6.125793000000000E-01      1.717422000000000E+02
4900000000.000000      2.957306000000000E-01     -1.045703000000000E+02      4.905396000000000E-01      1.595859000000000E+02
4920000000.000000      3.007050000000000E-01     -1.196289000000000E+02      3.617096000000000E-01      1.537109000000000E+02
4940000000.000000      2.846985000000000E-01     -1.352656000000000E+02      2.492981000000000E-01      1.564531000000000E+02
4960000000.000000      2.535248000000000E-01     -1.504609000000000E+02      1.769562000000000E-01      1.783906000000000E+02
4980000000.000000      2.102585000000000E-01     -1.643359000000000E+02      2.177963000000000E-01     -1.507969000000000E+02
5000000000.000000      1.660004000000000E-01     -1.757813000000000E+02      3.335571000000000E-01     -1.435937000000000E+02
5020000000.000000      1.280212000000000E-01      1.743203000000000E+02      4.640961000000000E-01     -1.498203000000000E+02
5040000000.000000      9.774780000000000E-02      1.641172000000000E+02      5.717163000000000E-01     -1.607578000000000E+02
5060000000.000000      6.932068000000000E-02      1.491641000000000E+02      6.502686000000000E-01     -1.721094000000000E+02
5080000000.000000      3.903770000000000E-02      1.220703000000000E+02      7.194519000000000E-01      1.755781000000000E+02
5100000000.000000      1.648712000000000E-02      3.511328000000000E+01      7.533875000000000E-01      1.618984000000000E+02
5120000000.000000      4.230118000000000E-02     -5.304492000000000E+01      7.508545000000000E-01      1.478125000000000E+02
5140000000.000000      7.344437000000000E-02     -8.867968000000000E+01      6.999207000000000E-01      1.340781000000000E+02
5160000000.000000      9.669876000000000E-02     -1.195469000000000E+02      6.250610000000000E-01      1.220000000000000E+02
5180000000.000000      1.087379000000000E-01     -1.501719000000000E+02      5.282593000000000E-01      1.107422000000000E+02
5200000000.000000      1.107674000000000E-01      1.769219000000000E+02      4.125061000000000E-01      1.010390000000000E+02
5220000000.000000      1.078415000000000E-01      1.406797000000000E+02      2.797241000000000E-01      9.857422000000000E+01
5240000000.000000      1.076241000000000E-01      1.041797000000000E+02      1.836243000000000E-01      1.164453000000000E+02
5260000000.000000      1.125488000000000E-01      7.089453000000000E+01      1.995850000000000E-01      1.500313000000000E+02
5280000000.000000      1.196785000000000E-01      4.451757000000000E+01      2.999878000000000E-01      1.604531000000000E+02
5300000000.000000      1.273422000000000E-01      2.383691000000000E+01      4.122009000000000E-01      1.577969000000000E+02
5320000000.000000      1.327515000000000E-01      7.282471000000000E+00      5.307617000000000E-01      1.501562000000000E+02
5340000000.000000      1.387558000000000E-01     -6.749756000000000E+00      6.412048000000000E-01      1.381094000000000E+02
5360000000.000000      1.427460000000000E-01     -2.237305000000000E+01      7.070923000000000E-01      1.235781000000000E+02
5380000000.000000      1.378326000000000E-01     -3.940820000000000E+01      7.164612000000000E-01      1.104297000000000E+02
5400000000.000000      1.191521000000000E-01     -5.728320000000000E+01      7.167053000000000E-01      9.859375000000000E+01
5420000000.000000      8.258820000000000E-02     -7.342187000000000E+01      7.036133000000000E-01      8.553125000000000E+01
5440000000.000000      2.890110000000000E-02     -7.469140000000000E+01      6.443787000000000E-01      7.130468000000000E+01
5460000000.000000      4.563332000000000E-02      3.744922000000000E+01      5.350952000000000E-01      5.825781000000000E+01
5480000000.000000      1.145630000000000E-01      2.994141000000000E+01      4.087524000000000E-01      4.925586000000000E+01
5500000000.000000      1.764069000000000E-01      1.472021000000000E+01      2.892303000000000E-01      4.759961000000000E+01
5520000000.000000      2.214508000000000E-01     -2.966309000000000E-01      1.937637000000000E-01      5.993164000000000E+01
5540000000.000000      2.524567000000000E-01     -1.385254000000000E+01      1.831207000000000E-01      9.150000000000000E+01
5560000000.000000      2.702026000000000E-01     -2.549414000000000E+01      2.661591000000000E-01      1.087969000000000E+02
5580000000.000000      2.828217000000000E-01     -3.547656000000000E+01      3.872070000000000E-01      1.083086000000000E+02
5600000000.000000      2.935791000000000E-01     -4.418554000000000E+01      5.090942000000000E-01      9.918749000000000E+01
5620000000.000000      3.033295000000000E-01     -5.331445000000000E+01      5.953369000000000E-01      8.671484000000000E+01
5640000000.000000      3.061676000000000E-01     -6.311132000000000E+01      6.460266000000000E-01      7.489452000000000E+01
5660000000.000000      2.958374000000000E-01     -7.371875000000000E+01      6.829224000000000E-01      6.358398000000000E+01
5680000000.000000      2.672729000000000E-01     -8.395311000000000E+01      6.965942000000000E-01      5.079296000000000E+01
5700000000.000000      2.203369000000000E-01     -9.118750000000000E+01      6.799011000000000E-01      3.847265000000000E+01
5720000000.000000      1.706619000000000E-01     -8.935938000000000E+01      6.404419000000000E-01      2.582422000000000E+01
5740000000.000000      1.516190000000000E-01     -7.495312000000000E+01      5.613098000000000E-01      1.259131000000000E+01
5760000000.000000      1.806488000000000E-01     -6.362695000000000E+01      4.464417000000000E-01      1.161804000000000E+00
5780000000.000000      2.255249000000000E-01     -6.553905000000000E+01      3.121033000000000E-01     -3.702393000000000E+00
5800000000.000000      2.564697000000000E-01     -7.345312000000000E+01      2.067871000000000E-01      7.890869000000000E+00
5820000000.000000      2.652130000000000E-01     -8.294140000000000E+01      1.907425000000000E-01      3.835156000000000E+01
5840000000.000000      2.557831000000000E-01     -9.128124000000000E+01      2.740936000000000E-01      5.413280000000000E+01
5860000000.000000      2.381134000000000E-01     -9.694530000000000E+01      3.739777000000000E-01      5.385742000000000E+01
5880000000.000000      2.236328000000000E-01     -9.973045000000000E+01      4.798889000000000E-01      4.834374000000000E+01
5900000000.000000      2.167587000000000E-01     -1.020937000000000E+02      5.962524000000000E-01      3.814062000000000E+01
5920000000.000000      2.097092000000000E-01     -1.047969000000000E+02      6.718140000000000E-01      2.423828000000000E+01
5940000000.000000      1.961212000000000E-01     -1.067500000000000E+02      7.002869000000000E-01      1.096680000000000E+01
5960000000.000000      1.782074000000000E-01     -1.051211000000000E+02      7.123718000000000E-01     -1.778442000000000E+00
5980000000.000000      1.668854000000000E-01     -9.782421000000000E+01      6.873169000000000E-01     -1.575195000000000E+01
6000000000.000000      1.826782000000000E-01     -8.871094000000000E+01      6.224670000000000E-01     -2.926074000000000E+01
6020000000.000000      2.171860000000000E-01     -8.727343000000000E+01      5.239563000000000E-01     -4.197461000000000E+01
6040000000.000000      2.525635000000000E-01     -9.258593000000000E+01      3.957825000000000E-01     -4.965820000000000E+01
6060000000.000000      2.752686000000000E-01     -1.014687000000000E+02      2.820587000000000E-01     -4.916016000000000E+01
6080000000.000000      2.859039000000000E-01     -1.114844000000000E+02      2.047195000000000E-01     -3.483789000000000E+01
