! Network Analyzer HP8722D
! Hewlett-Packard
! Data name: Linha & Wilkinson+CNT
! Saver's name: Rodrigo Anjos
! Comments: Teste da utilização de aquisição
continua pelo VNA HP8722D
! Time and date: 29/9/2025 14:35
!              Frequency                     S11                                                   S21                                                   S12                                                   S22
# HZ  S  MA R 50
3000000000.000000      4.234314000000000E-01     -5.546288000000000E+01      2.059021000000000E-01     -1.314062000000000E+02
3020000000.000000      4.492950000000000E-01     -6.969140000000000E+01      3.492737000000000E-01     -1.347891000000000E+02
3040000000.000000      4.531097000000000E-01     -8.268749000000000E+01      4.673920000000000E-01     -1.447578000000000E+02
3060000000.000000      4.450226000000000E-01     -9.482422000000000E+01      5.714722000000000E-01     -1.549844000000000E+02
3080000000.000000      4.298401000000000E-01     -1.061562000000000E+02      6.730042000000000E-01     -1.683281000000000E+02
3100000000.000000      4.092102000000000E-01     -1.173555000000000E+02      7.239075000000000E-01      1.769140000000000E+02
3120000000.000000      3.799286000000000E-01     -1.292500000000000E+02      7.320251000000000E-01      1.635547000000000E+02
3140000000.000000      3.398590000000000E-01     -1.423047000000000E+02      7.244873000000000E-01      1.506328000000000E+02
3160000000.000000      2.789917000000000E-01     -1.564453000000000E+02      6.843872000000000E-01      1.370000000000000E+02
3180000000.000000      2.000885000000000E-01     -1.692188000000000E+02      6.143494000000000E-01      1.246016000000000E+02
3200000000.000000      1.121788000000000E-01     -1.701484000000000E+02      5.209961000000000E-01      1.116172000000000E+02
3220000000.000000      7.891464000000000E-02     -1.247187000000000E+02      3.885040000000000E-01      1.007969000000000E+02
3240000000.000000      1.496048000000000E-01     -1.048242000000000E+02      2.480774000000000E-01      9.936718000000000E+01
3260000000.000000      2.293243000000000E-01     -1.150117000000000E+02      1.472092000000000E-01      1.247383000000000E+02
3280000000.000000      2.875977000000000E-01     -1.307422000000000E+02      2.019958000000000E-01      1.651641000000000E+02
3300000000.000000      3.202057000000000E-01     -1.470000000000000E+02      3.284454000000000E-01      1.697422000000000E+02
3320000000.000000      3.319550000000000E-01     -1.628906000000000E+02      4.615936000000000E-01      1.627344000000000E+02
3340000000.000000      3.287659000000000E-01     -1.783516000000000E+02      5.735168000000000E-01      1.506094000000000E+02
3360000000.000000      3.169556000000000E-01      1.668125000000000E+02      6.466370000000000E-01      1.384922000000000E+02
3380000000.000000      3.009644000000000E-01      1.526328000000000E+02      7.094727000000000E-01      1.270820000000000E+02
3400000000.000000      2.785034000000000E-01      1.378750000000000E+02      7.575073000000000E-01      1.134414000000000E+02
3420000000.000000      2.434692000000000E-01      1.229414000000000E+02      7.500305000000000E-01      9.850780000000000E+01
3440000000.000000      1.907349000000000E-01      1.082031000000000E+02      7.057800000000000E-01      8.570704000000000E+01
3460000000.000000      1.206894000000000E-01      9.741796000000000E+01      6.480713000000000E-01      7.260937000000000E+01
3480000000.000000      4.791641000000000E-02      1.201953000000000E+02      5.507202000000000E-01      5.912890000000000E+01
3500000000.000000      9.080505000000000E-02     -1.742969000000000E+02      4.269409000000000E-01      4.754296000000000E+01
3520000000.000000      1.827850000000000E-01      1.792578000000000E+02      2.806549000000000E-01      4.037695000000000E+01
3540000000.000000      2.624207000000000E-01      1.630000000000000E+02      1.482697000000000E-01      5.771093000000000E+01
3560000000.000000      3.220825000000000E-01      1.460859000000000E+02      1.656265000000000E-01      1.073203000000000E+02
3580000000.000000      3.594971000000000E-01      1.300234000000000E+02      2.927399000000000E-01      1.175312000000000E+02
3600000000.000000      3.764343000000000E-01      1.153633000000000E+02      4.182129000000000E-01      1.106836000000000E+02
3620000000.000000      3.780518000000000E-01      1.026953000000000E+02      5.193176000000000E-01      1.012266000000000E+02
3640000000.000000      3.688660000000000E-01      9.148046000000000E+01      6.220398000000000E-01      9.016016000000000E+01
3660000000.000000      3.528442000000000E-01      8.121094000000000E+01      6.922607000000000E-01      7.585546000000000E+01
3680000000.000000      3.299103000000000E-01      7.203125000000000E+01      7.104797000000000E-01      6.285351000000000E+01
3700000000.000000      2.995758000000000E-01      6.379883000000000E+01      7.216797000000000E-01      5.129687000000000E+01
3720000000.000000      2.555237000000000E-01      5.764062000000000E+01      7.245483000000000E-01      3.682031000000000E+01
3740000000.000000      2.051315000000000E-01      5.830664000000000E+01      6.658630000000000E-01      2.156445000000000E+01
3760000000.000000      1.779327000000000E-01      7.217578000000000E+01      5.674438000000000E-01      7.302979000000000E+00
3780000000.000000      2.111130000000000E-01      8.730860000000000E+01      4.382782000000000E-01     -5.894287000000000E+00
3800000000.000000      2.813110000000000E-01      8.907421000000000E+01      2.841492000000000E-01     -1.353271000000000E+01
3820000000.000000      3.492889000000000E-01      8.277344000000000E+01      1.543732000000000E-01     -8.157349000000000E-01
3840000000.000000      3.998413000000000E-01      7.399219000000000E+01      1.418686000000000E-01      4.733984000000000E+01
3860000000.000000      4.350128000000000E-01      6.541797000000000E+01      2.447281000000000E-01      6.528906000000000E+01
3880000000.000000      4.605865000000000E-01      5.783008000000000E+01      3.746033000000000E-01      6.125000000000000E+01
3900000000.000000      4.889984000000000E-01      5.085351000000000E+01      4.772034000000000E-01      4.784765000000000E+01
3920000000.000000      5.188904000000000E-01      4.328711000000000E+01      5.075684000000000E-01      3.622265000000000E+01
3940000000.000000      5.486450000000000E-01      3.411133000000000E+01      5.389709000000000E-01      2.953222000000000E+01
3960000000.000000      5.599670000000000E-01      2.412695000000000E+01      5.953979000000000E-01      2.020215000000000E+01
3980000000.000000      5.530396000000000E-01      1.362012000000000E+01      5.969543000000000E-01      8.232422000000000E+00
4000000000.000000      5.280762000000000E-01      3.321899000000000E+00      5.806885000000000E-01      1.211243000000000E+00
4020000000.000000      4.847565000000000E-01     -6.752686000000000E+00      5.968933000000000E-01     -6.472412000000000E+00
4040000000.000000      4.265137000000000E-01     -1.561328000000000E+01      5.868225000000000E-01     -1.868457000000000E+01
4060000000.000000      3.504791000000000E-01     -2.177832000000000E+01      5.299072000000000E-01     -2.879590000000000E+01
4080000000.000000      2.753448000000000E-01     -2.179004000000000E+01      4.698029000000000E-01     -3.815430000000000E+01
4100000000.000000      2.285995000000000E-01     -1.137402000000000E+01      3.693085000000000E-01     -4.744922000000000E+01
4120000000.000000      2.410507000000000E-01      1.812744000000000E+00      2.505798000000000E-01     -4.450585000000000E+01
4140000000.000000      2.893982000000000E-01      5.215576000000000E+00      2.028809000000000E-01     -2.047656000000000E+01
4160000000.000000      3.336487000000000E-01      1.006592000000000E+00      2.620544000000000E-01     -2.774048000000000E-01
4180000000.000000      3.615723000000000E-01     -5.789795000000000E+00      3.558502000000000E-01      3.880859000000000E+00
4200000000.000000      3.714752000000000E-01     -1.358740000000000E+01      4.869690000000000E-01      1.597107000000000E+00
4220000000.000000      3.677826000000000E-01     -2.074414000000000E+01      6.395264000000000E-01     -1.076416000000000E+01
4240000000.000000      3.488922000000000E-01     -2.830957000000000E+01      7.223816000000000E-01     -2.741406000000000E+01
4260000000.000000      3.102112000000000E-01     -3.412109000000000E+01      7.425842000000000E-01     -4.157812000000000E+01
4280000000.000000      2.602234000000000E-01     -3.543945000000000E+01      7.514343000000000E-01     -5.538867000000000E+01
4300000000.000000      2.224426000000000E-01     -2.738770000000000E+01      7.151489000000000E-01     -7.059375000000000E+01
4320000000.000000      2.350998000000000E-01     -1.462451000000000E+01      6.336060000000000E-01     -8.503906000000000E+01
4340000000.000000      2.924500000000000E-01     -1.053760000000000E+01      5.187378000000000E-01     -9.773438000000000E+01
4360000000.000000      3.578186000000000E-01     -1.547998000000000E+01      3.826752000000000E-01     -1.068281000000000E+02
4380000000.000000      4.048920000000000E-01     -2.441895000000000E+01      2.518158000000000E-01     -1.082500000000000E+02
4400000000.000000      4.262695000000000E-01     -3.438086000000000E+01      1.538467000000000E-01     -8.597656000000000E+01
4420000000.000000      4.247894000000000E-01     -4.386328000000000E+01      1.858902000000000E-01     -4.590820000000000E+01
4440000000.000000      4.089813000000000E-01     -5.193554000000000E+01      3.084106000000000E-01     -3.613281000000000E+01
4460000000.000000      3.876648000000000E-01     -5.841797000000000E+01      4.506226000000000E-01     -4.321679000000000E+01
4480000000.000000      3.675079000000000E-01     -6.466015000000000E+01      5.601196000000000E-01     -5.530273000000000E+01
4500000000.000000      3.469238000000000E-01     -7.157421000000000E+01      6.426697000000000E-01     -6.668750000000000E+01
4520000000.000000      3.139954000000000E-01     -7.923046000000000E+01      7.161560000000000E-01     -7.978906000000000E+01
4540000000.000000      2.629395000000000E-01     -8.554296000000000E+01      7.426147000000000E-01     -9.418360000000000E+01
4560000000.000000      2.019348000000000E-01     -8.403124000000000E+01      7.297363000000000E-01     -1.073438000000000E+02
4580000000.000000      1.740112000000000E-01     -6.819140000000000E+01      6.936035000000000E-01     -1.213008000000000E+02
4600000000.000000      2.105637000000000E-01     -5.390625000000000E+01      6.077271000000000E-01     -1.345625000000000E+02
4620000000.000000      2.755737000000000E-01     -5.508984000000000E+01      5.007629000000000E-01     -1.450312000000000E+02
4640000000.000000      3.300781000000000E-01     -6.494922000000000E+01      3.804932000000000E-01     -1.534688000000000E+02
4660000000.000000      3.549194000000000E-01     -7.818749000000000E+01      2.480927000000000E-01     -1.519687000000000E+02
4680000000.000000      3.470001000000000E-01     -9.212109000000000E+01      1.789093000000000E-01     -1.241094000000000E+02
4700000000.000000      3.099213000000000E-01     -1.054766000000000E+02      2.459869000000000E-01     -9.682421000000000E+01
4720000000.000000      2.541809000000000E-01     -1.161016000000000E+02      3.649902000000000E-01     -9.532812000000000E+01
4740000000.000000      1.920319000000000E-01     -1.215625000000000E+02      4.719086000000000E-01     -1.016367000000000E+02
4760000000.000000      1.391525000000000E-01     -1.178828000000000E+02      5.789185000000000E-01     -1.104609000000000E+02
4780000000.000000      1.122475000000000E-01     -1.018203000000000E+02      6.689758000000000E-01     -1.226953000000000E+02
4800000000.000000      1.174774000000000E-01     -8.416407000000000E+01      7.180481000000000E-01     -1.355625000000000E+02
4820000000.000000      1.463165000000000E-01     -7.402734000000000E+01      7.358398000000000E-01     -1.486797000000000E+02
4840000000.000000      1.864624000000000E-01     -7.370703000000000E+01      7.189331000000000E-01     -1.616172000000000E+02
4860000000.000000      2.301788000000000E-01     -8.016796000000000E+01      6.843567000000000E-01     -1.742188000000000E+02
4880000000.000000      2.679443000000000E-01     -9.051952000000000E+01      6.176147000000000E-01      1.722500000000000E+02
4900000000.000000      2.936401000000000E-01     -1.040078000000000E+02      4.979706000000000E-01      1.598906000000000E+02
4920000000.000000      3.000031000000000E-01     -1.191250000000000E+02      3.668976000000000E-01      1.535312000000000E+02
4940000000.000000      2.860718000000000E-01     -1.348203000000000E+02      2.534332000000000E-01      1.557422000000000E+02
4960000000.000000      2.553406000000000E-01     -1.500391000000000E+02      1.775131000000000E-01      1.767500000000000E+02
4980000000.000000      2.130585000000000E-01     -1.642109000000000E+02      2.128448000000000E-01     -1.515781000000000E+02
5000000000.000000      1.689301000000000E-01     -1.758906000000000E+02      3.278503000000000E-01     -1.435703000000000E+02
5020000000.000000      1.313629000000000E-01      1.738750000000000E+02      4.588928000000000E-01     -1.494062000000000E+02
5040000000.000000      1.004906000000000E-01      1.636953000000000E+02      5.677795000000000E-01     -1.602344000000000E+02
5060000000.000000      7.218170000000000E-02      1.484453000000000E+02      6.495972000000000E-01     -1.716172000000000E+02
5080000000.000000      4.239464000000000E-02      1.228047000000000E+02      7.179565000000000E-01      1.761094000000000E+02
5100000000.000000      1.688576000000000E-02      4.552148000000000E+01      7.574158000000000E-01      1.623984000000000E+02
5120000000.000000      4.048538000000000E-02     -5.022851000000000E+01      7.539063000000000E-01      1.482500000000000E+02
5140000000.000000      7.218552000000000E-02     -8.689453000000000E+01      7.044678000000000E-01      1.346328000000000E+02
5160000000.000000      9.638214000000000E-02     -1.182109000000000E+02      6.301575000000000E-01      1.222344000000000E+02
5180000000.000000      1.095352000000000E-01     -1.490313000000000E+02      5.345459000000000E-01      1.108437000000000E+02
5200000000.000000      1.128960000000000E-01      1.782891000000000E+02      4.183960000000000E-01      1.012422000000000E+02
5220000000.000000      1.099701000000000E-01      1.423984000000000E+02      2.854614000000000E-01      9.818359000000000E+01
5240000000.000000      1.088333000000000E-01      1.063437000000000E+02      1.847000000000000E-01      1.145937000000000E+02
5260000000.000000      1.133919000000000E-01      7.287499000000000E+01      1.950531000000000E-01      1.490078000000000E+02
5280000000.000000      1.212158000000000E-01      4.628906000000000E+01      2.942810000000000E-01      1.606875000000000E+02
5300000000.000000      1.276550000000000E-01      2.526660000000000E+01      4.086304000000000E-01      1.582500000000000E+02
5320000000.000000      1.329422000000000E-01      8.773926000000000E+00      5.263062000000000E-01      1.506484000000000E+02
5340000000.000000      1.390305000000000E-01     -5.555176000000000E+00      6.375427000000000E-01      1.386875000000000E+02
5360000000.000000      1.435471000000000E-01     -2.110156000000000E+01      7.056274000000000E-01      1.242656000000000E+02
5380000000.000000      1.388016000000000E-01     -3.855859000000000E+01      7.167053000000000E-01      1.108867000000000E+02
5400000000.000000      1.204414000000000E-01     -5.670507000000000E+01      7.185059000000000E-01      9.928123000000000E+01
5420000000.000000      8.506393000000000E-02     -7.363671000000000E+01      7.054443000000000E-01      8.607031000000000E+01
5440000000.000000      3.081036000000000E-02     -7.907421000000000E+01      6.501160000000000E-01      7.176171000000000E+01
5460000000.000000      4.244041000000000E-02      3.908789000000000E+01      5.412292000000000E-01      5.856250000000000E+01
5480000000.000000      1.118469000000000E-01      3.133496000000000E+01      4.152222000000000E-01      4.937890000000000E+01
5500000000.000000      1.746902000000000E-01      1.604687000000000E+01      2.947083000000000E-01      4.707227000000000E+01
5520000000.000000      2.206497000000000E-01      9.475708000000000E-01      1.957779000000000E-01      5.841406000000000E+01
5540000000.000000      2.516327000000000E-01     -1.297363000000000E+01      1.799011000000000E-01      9.025000000000000E+01
5560000000.000000      2.697906000000000E-01     -2.471972000000000E+01      2.608643000000000E-01      1.087461000000000E+02
5580000000.000000      2.830200000000000E-01     -3.475195000000000E+01      3.821411000000000E-01      1.087148000000000E+02
5600000000.000000      2.942657000000000E-01     -4.367773000000000E+01      5.050659000000000E-01      9.974609000000000E+01
5620000000.000000      3.042603000000000E-01     -5.287499000000000E+01      5.939026000000000E-01      8.742968000000000E+01
5640000000.000000      3.078918000000000E-01     -6.255859000000000E+01      6.466064000000000E-01      7.522265000000000E+01
5660000000.000000      2.983551000000000E-01     -7.324219000000000E+01      6.862793000000000E-01      6.402734000000000E+01
5680000000.000000      2.694550000000000E-01     -8.366405000000000E+01      6.990662000000000E-01      5.134960000000000E+01
5700000000.000000      2.223358000000000E-01     -9.124218000000000E+01      6.843567000000000E-01      3.882226000000000E+01
5720000000.000000      1.712799000000000E-01     -8.990234000000000E+01      6.458130000000000E-01      2.629687000000000E+01
5740000000.000000      1.495132000000000E-01     -7.562890000000000E+01      5.671387000000000E-01      1.290869000000000E+01
5760000000.000000      1.773682000000000E-01     -6.369141000000000E+01      4.531250000000000E-01      1.308716000000000E+00
5780000000.000000      2.237320000000000E-01     -6.506249000000000E+01      3.194275000000000E-01     -3.971558000000000E+00
5800000000.000000      2.567902000000000E-01     -7.287499000000000E+01      2.098694000000000E-01      6.441895000000000E+00
5820000000.000000      2.666779000000000E-01     -8.234375000000000E+01      1.885681000000000E-01      3.710546000000000E+01
5840000000.000000      2.577362000000000E-01     -9.094530000000000E+01      2.688751000000000E-01      5.385742000000000E+01
5860000000.000000      2.389297000000000E-01     -9.657030000000000E+01      3.696899000000000E-01      5.403710000000000E+01
5880000000.000000      2.245331000000000E-01     -9.978125000000000E+01      4.769745000000000E-01      4.884375000000000E+01
5900000000.000000      2.165833000000000E-01     -1.022422000000000E+02      5.926208000000000E-01      3.866406000000000E+01
5920000000.000000      2.091370000000000E-01     -1.051328000000000E+02      6.708984000000000E-01      2.476269000000000E+01
5940000000.000000      1.950302000000000E-01     -1.070156000000000E+02      7.009277000000000E-01      1.141748000000000E+01
5960000000.000000      1.781235000000000E-01     -1.053320000000000E+02      7.130737000000000E-01     -1.286804000000000E+00
5980000000.000000      1.651382000000000E-01     -9.781639000000000E+01      6.932678000000000E-01     -1.523535000000000E+01
6000000000.000000      1.806793000000000E-01     -8.826952000000000E+01      6.318665000000000E-01     -2.881250000000000E+01
6020000000.000000      2.155457000000000E-01     -8.647264000000000E+01      5.318298000000000E-01     -4.143555000000000E+01
6040000000.000000      2.504730000000000E-01     -9.160156000000000E+01      4.028473000000000E-01     -4.977344000000000E+01
6060000000.000000      2.751160000000000E-01     -1.006797000000000E+02      2.876434000000000E-01     -4.976171000000000E+01
6080000000.000000      2.851257000000000E-01     -1.108906000000000E+02      2.064285000000000E-01     -3.658008000000000E+01
