! Network Analyzer HP8722D
! Hewlett-Packard
! Data name: Linha & Wilkinson+CNT
! Saver's name: Rodrigo Anjos
! Comments: Teste da utilização de aquisição
continua pelo VNA HP8722D
! Time and date: 29/9/2025 13:53
!              Frequency                     S11                                                   S21                                                   S12                                                   S22
# HZ  S  MA R 50
3000000000.000000      4.237518000000000E-01     -5.557617000000000E+01      2.062607000000000E-01     -1.315391000000000E+02
3020000000.000000      4.481049000000000E-01     -7.000000000000000E+01      3.492279000000000E-01     -1.349219000000000E+02
3040000000.000000      4.535065000000000E-01     -8.283594000000000E+01      4.662018000000000E-01     -1.449141000000000E+02
3060000000.000000      4.450073000000000E-01     -9.490625000000000E+01      5.717163000000000E-01     -1.551250000000000E+02
3080000000.000000      4.296417000000000E-01     -1.061953000000000E+02      6.731262000000000E-01     -1.682578000000000E+02
3100000000.000000      4.091644000000000E-01     -1.173984000000000E+02      7.242126000000000E-01      1.769922000000000E+02
3120000000.000000      3.796692000000000E-01     -1.294141000000000E+02      7.323914000000000E-01      1.635313000000000E+02
3140000000.000000      3.384552000000000E-01     -1.424922000000000E+02      7.234192000000000E-01      1.506328000000000E+02
3160000000.000000      2.786560000000000E-01     -1.562734000000000E+02      6.846619000000000E-01      1.371953000000000E+02
3180000000.000000      2.000961000000000E-01     -1.691875000000000E+02      6.148987000000000E-01      1.243633000000000E+02
3200000000.000000      1.122665000000000E-01     -1.698750000000000E+02      5.204468000000000E-01      1.116562000000000E+02
3220000000.000000      7.932663000000000E-02     -1.246641000000000E+02      3.879089000000000E-01      1.007422000000000E+02
3240000000.000000      1.498871000000000E-01     -1.049414000000000E+02      2.478714000000000E-01      9.942968000000000E+01
3260000000.000000      2.294617000000000E-01     -1.151484000000000E+02      1.471024000000000E-01      1.248594000000000E+02
3280000000.000000      2.875519000000000E-01     -1.307812000000000E+02      2.017746000000000E-01      1.652031000000000E+02
3300000000.000000      3.203430000000000E-01     -1.471172000000000E+02      3.292236000000000E-01      1.696250000000000E+02
3320000000.000000      3.321533000000000E-01     -1.630312000000000E+02      4.621277000000000E-01      1.626406000000000E+02
3340000000.000000      3.293152000000000E-01     -1.784219000000000E+02      5.749207000000000E-01      1.506641000000000E+02
3360000000.000000      3.170166000000000E-01      1.667578000000000E+02      6.467590000000000E-01      1.385000000000000E+02
3380000000.000000      3.007813000000000E-01      1.524297000000000E+02      7.096863000000000E-01      1.271211000000000E+02
3400000000.000000      2.787933000000000E-01      1.379141000000000E+02      7.573242000000000E-01      1.132930000000000E+02
3420000000.000000      2.436752000000000E-01      1.228828000000000E+02      7.493286000000000E-01      9.857811000000000E+01
3440000000.000000      1.905670000000000E-01      1.080625000000000E+02      7.062683000000000E-01      8.566797000000000E+01
3460000000.000000      1.202202000000000E-01      9.712891000000000E+01      6.479492000000000E-01      7.251562000000000E+01
3480000000.000000      4.806709000000000E-02      1.205898000000000E+02      5.495300000000000E-01      5.910156000000000E+01
3500000000.000000      9.148026000000000E-02     -1.742969000000000E+02      4.262238000000000E-01      4.777539000000000E+01
3520000000.000000      1.833878000000000E-01      1.791250000000000E+02      2.802734000000000E-01      4.037109000000000E+01
3540000000.000000      2.628479000000000E-01      1.629766000000000E+02      1.477280000000000E-01      5.769921000000000E+01
3560000000.000000      3.225555000000000E-01      1.459453000000000E+02      1.659241000000000E-01      1.074570000000000E+02
3580000000.000000      3.592682000000000E-01      1.299844000000000E+02      2.930908000000000E-01      1.175430000000000E+02
3600000000.000000      3.758850000000000E-01      1.152773000000000E+02      4.183960000000000E-01      1.106172000000000E+02
3620000000.000000      3.775940000000000E-01      1.026680000000000E+02      5.203247000000000E-01      1.013281000000000E+02
3640000000.000000      3.686371000000000E-01      9.139843000000000E+01      6.215820000000000E-01      9.014843000000000E+01
3660000000.000000      3.524628000000000E-01      8.112890000000000E+01      6.938171000000000E-01      7.580078000000000E+01
3680000000.000000      3.296051000000000E-01      7.198437000000000E+01      7.115479000000000E-01      6.268555000000000E+01
3700000000.000000      2.990723000000000E-01      6.370507000000000E+01      7.208557000000000E-01      5.115429000000000E+01
3720000000.000000      2.550201000000000E-01      5.757421000000000E+01      7.243042000000000E-01      3.684375000000000E+01
3740000000.000000      2.048721000000000E-01      5.831249000000000E+01      6.641541000000000E-01      2.146777000000000E+01
3760000000.000000      1.774292000000000E-01      7.213672000000000E+01      5.667419000000000E-01      7.212402000000000E+00
3780000000.000000      2.108231000000000E-01      8.730860000000000E+01      4.358978000000000E-01     -6.026123000000000E+00
3800000000.000000      2.817688000000000E-01      8.905077000000000E+01      2.837982000000000E-01     -1.352441000000000E+01
3820000000.000000      3.492889000000000E-01      8.262890000000000E+01      1.541977000000000E-01     -7.429504000000000E-01
3840000000.000000      3.998413000000000E-01      7.395312000000000E+01      1.422043000000000E-01      4.745703000000000E+01
3860000000.000000      4.349976000000000E-01      6.531640000000000E+01      2.445755000000000E-01      6.542578000000000E+01
3880000000.000000      4.606171000000000E-01      5.779687000000000E+01      3.750458000000000E-01      6.129883000000000E+01
3900000000.000000      4.887848000000000E-01      5.074804000000000E+01      4.766693000000000E-01      4.775976000000000E+01
3920000000.000000      5.198364000000000E-01      4.303320000000000E+01      5.088806000000000E-01      3.616992000000000E+01
3940000000.000000      5.485229000000000E-01      3.415625000000000E+01      5.393982000000000E-01      2.965527000000000E+01
3960000000.000000      5.586853000000000E-01      2.413379000000000E+01      5.953064000000000E-01      2.012402000000000E+01
3980000000.000000      5.548096000000000E-01      1.342090000000000E+01      5.980530000000000E-01      8.243652000000000E+00
4000000000.000000      5.279541000000000E-01      3.140625000000000E+00      5.813599000000000E-01      1.407593000000000E+00
4020000000.000000      4.849701000000000E-01     -6.771729000000000E+00      5.989685000000000E-01     -6.525879000000000E+00
4040000000.000000      4.256134000000000E-01     -1.569287000000000E+01      5.855103000000000E-01     -1.868945000000000E+01
4060000000.000000      3.498383000000000E-01     -2.186914000000000E+01      5.278320000000000E-01     -2.875977000000000E+01
4080000000.000000      2.745667000000000E-01     -2.191797000000000E+01      4.697266000000000E-01     -3.805469000000000E+01
4100000000.000000      2.282104000000000E-01     -1.140527000000000E+01      3.678284000000000E-01     -4.750781000000000E+01
4120000000.000000      2.414322000000000E-01      1.687744000000000E+00      2.506409000000000E-01     -4.433789000000000E+01
4140000000.000000      2.900085000000000E-01      5.094727000000000E+00      2.028961000000000E-01     -2.034277000000000E+01
4160000000.000000      3.339844000000000E-01      9.846497000000000E-01      2.617340000000000E-01     -1.867676000000000E-01
4180000000.000000      3.614807000000000E-01     -5.833740000000000E+00      3.563232000000000E-01      3.911133000000000E+00
4200000000.000000      3.714294000000000E-01     -1.361914000000000E+01      4.866791000000000E-01      1.418579000000000E+00
4220000000.000000      3.676453000000000E-01     -2.078125000000000E+01      6.410828000000000E-01     -1.085205000000000E+01
4240000000.000000      3.483582000000000E-01     -2.832715000000000E+01      7.213440000000000E-01     -2.760254000000000E+01
4260000000.000000      3.102722000000000E-01     -3.416211000000000E+01      7.428284000000000E-01     -4.161328000000000E+01
4280000000.000000      2.597961000000000E-01     -3.550976000000000E+01      7.532959000000000E-01     -5.563086000000000E+01
4300000000.000000      2.227554000000000E-01     -2.750097000000000E+01      7.148132000000000E-01     -7.067968000000000E+01
4320000000.000000      2.350464000000000E-01     -1.471631000000000E+01      6.335144000000000E-01     -8.514843000000000E+01
4340000000.000000      2.927704000000000E-01     -1.062256000000000E+01      5.170593000000000E-01     -9.769920000000000E+01
4360000000.000000      3.580170000000000E-01     -1.553906000000000E+01      3.822937000000000E-01     -1.069375000000000E+02
4380000000.000000      4.047852000000000E-01     -2.451953000000000E+01      2.512512000000000E-01     -1.083125000000000E+02
4400000000.000000      4.262695000000000E-01     -3.447656000000000E+01      1.537781000000000E-01     -8.571093000000000E+01
4420000000.000000      4.252472000000000E-01     -4.399414000000000E+01      1.862869000000000E-01     -4.580078000000000E+01
4440000000.000000      4.080811000000000E-01     -5.202148000000000E+01      3.086243000000000E-01     -3.614258000000000E+01
4460000000.000000      3.864288000000000E-01     -5.857422000000000E+01      4.504395000000000E-01     -4.316796000000000E+01
4480000000.000000      3.683929000000000E-01     -6.478125000000000E+01      5.601196000000000E-01     -5.532617000000000E+01
4500000000.000000      3.467407000000000E-01     -7.160546000000000E+01      6.429749000000000E-01     -6.674999000000000E+01
4520000000.000000      3.137817000000000E-01     -7.928515000000000E+01      7.148438000000000E-01     -7.972265000000000E+01
4540000000.000000      2.628174000000000E-01     -8.553514000000000E+01      7.424011000000000E-01     -9.421875000000000E+01
4560000000.000000      2.021255000000000E-01     -8.408983000000000E+01      7.287292000000000E-01     -1.075742000000000E+02
4580000000.000000      1.743774000000000E-01     -6.812890000000000E+01      6.922913000000000E-01     -1.214336000000000E+02
4600000000.000000      2.111282000000000E-01     -5.400000000000000E+01      6.069336000000000E-01     -1.347109000000000E+02
4620000000.000000      2.761841000000000E-01     -5.521093000000000E+01      5.005798000000000E-01     -1.451250000000000E+02
4640000000.000000      3.302002000000000E-01     -6.503515000000000E+01      3.803406000000000E-01     -1.534219000000000E+02
4660000000.000000      3.545685000000000E-01     -7.826953000000000E+01      2.474365000000000E-01     -1.519219000000000E+02
4680000000.000000      3.464508000000000E-01     -9.230078000000000E+01      1.788864000000000E-01     -1.240117000000000E+02
4700000000.000000      3.099976000000000E-01     -1.054922000000000E+02      2.465820000000000E-01     -9.681250000000000E+01
4720000000.000000      2.537231000000000E-01     -1.162383000000000E+02      3.648834000000000E-01     -9.541407000000000E+01
4740000000.000000      1.914978000000000E-01     -1.215625000000000E+02      4.728699000000000E-01     -1.016562000000000E+02
4760000000.000000      1.394196000000000E-01     -1.178477000000000E+02      5.783997000000000E-01     -1.103594000000000E+02
4780000000.000000      1.121407000000000E-01     -1.019961000000000E+02      6.666565000000000E-01     -1.226563000000000E+02
4800000000.000000      1.179199000000000E-01     -8.409765000000000E+01      7.156067000000000E-01     -1.356719000000000E+02
4820000000.000000      1.461868000000000E-01     -7.419922000000000E+01      7.354736000000000E-01     -1.488047000000000E+02
4840000000.000000      1.871338000000000E-01     -7.397655000000000E+01      7.183533000000000E-01     -1.617812000000000E+02
4860000000.000000      2.303848000000000E-01     -8.027735000000000E+01      6.853027000000000E-01     -1.741328000000000E+02
4880000000.000000      2.682190000000000E-01     -9.053514000000000E+01      6.170654000000000E-01      1.719375000000000E+02
4900000000.000000      2.939606000000000E-01     -1.040625000000000E+02      4.980469000000000E-01      1.599141000000000E+02
4920000000.000000      2.998199000000000E-01     -1.192578000000000E+02      3.672791000000000E-01      1.535156000000000E+02
4940000000.000000      2.860413000000000E-01     -1.348359000000000E+02      2.529297000000000E-01      1.557812000000000E+02
4960000000.000000      2.552185000000000E-01     -1.502109000000000E+02      1.779327000000000E-01      1.767891000000000E+02
4980000000.000000      2.129135000000000E-01     -1.642969000000000E+02      2.128601000000000E-01     -1.515703000000000E+02
5000000000.000000      1.688080000000000E-01     -1.759844000000000E+02      3.280334000000000E-01     -1.436875000000000E+02
5020000000.000000      1.306839000000000E-01      1.740156000000000E+02      4.591675000000000E-01     -1.496641000000000E+02
5040000000.000000      1.005135000000000E-01      1.637578000000000E+02      5.677490000000000E-01     -1.602734000000000E+02
5060000000.000000      7.229233000000000E-02      1.483906000000000E+02      6.484985000000000E-01     -1.717656000000000E+02
5080000000.000000      4.207611000000000E-02      1.232265000000000E+02      7.170105000000000E-01      1.760313000000000E+02
5100000000.000000      1.678467000000000E-02      4.419726000000000E+01      7.579346000000000E-01      1.623203000000000E+02
5120000000.000000      4.013252000000000E-02     -5.014453000000000E+01      7.534485000000000E-01      1.480156000000000E+02
5140000000.000000      7.230759000000000E-02     -8.723047000000000E+01      7.048035000000000E-01      1.344687000000000E+02
5160000000.000000      9.578705000000000E-02     -1.183711000000000E+02      6.302795000000000E-01      1.220508000000000E+02
5180000000.000000      1.088905000000000E-01     -1.491875000000000E+02      5.349121000000000E-01      1.107500000000000E+02
5200000000.000000      1.123962000000000E-01      1.781719000000000E+02      4.171143000000000E-01      1.011250000000000E+02
5220000000.000000      1.098175000000000E-01      1.422891000000000E+02      2.844086000000000E-01      9.813671000000000E+01
5240000000.000000      1.091156000000000E-01      1.060664000000000E+02      1.844864000000000E-01      1.147539000000000E+02
5260000000.000000      1.137543000000000E-01      7.257030000000000E+01      1.954956000000000E-01      1.489609000000000E+02
5280000000.000000      1.206970000000000E-01      4.598242000000000E+01      2.949677000000000E-01      1.605391000000000E+02
5300000000.000000      1.273193000000000E-01      2.524609000000000E+01      4.087677000000000E-01      1.582344000000000E+02
5320000000.000000      1.333618000000000E-01      8.711914000000000E+00      5.249634000000000E-01      1.506797000000000E+02
5340000000.000000      1.391525000000000E-01     -5.678711000000000E+00      6.375427000000000E-01      1.385469000000000E+02
5360000000.000000      1.428452000000000E-01     -2.115625000000000E+01      7.051697000000000E-01      1.241016000000000E+02
5380000000.000000      1.387711000000000E-01     -3.855273000000000E+01      7.170410000000000E-01      1.109453000000000E+02
5400000000.000000      1.202774000000000E-01     -5.650976000000000E+01      7.181702000000000E-01      9.900780000000000E+01
5420000000.000000      8.489609000000000E-02     -7.338672000000000E+01      7.061157000000000E-01      8.599218000000000E+01
5440000000.000000      3.098583000000000E-02     -7.831640000000000E+01      6.476746000000000E-01      7.173046000000000E+01
5460000000.000000      4.245758000000000E-02      3.901758000000000E+01      5.412598000000000E-01      5.872460000000000E+01
5480000000.000000      1.121750000000000E-01      3.116796000000000E+01      4.132538000000000E-01      4.945898000000000E+01
5500000000.000000      1.749268000000000E-01      1.580762000000000E+01      2.939301000000000E-01      4.713672000000000E+01
5520000000.000000      2.205963000000000E-01      8.047485000000000E-01      1.958084000000000E-01      5.872460000000000E+01
5540000000.000000      2.520752000000000E-01     -1.312598000000000E+01      1.799240000000000E-01      9.036327000000000E+01
5560000000.000000      2.700195000000000E-01     -2.502050000000000E+01      2.614899000000000E-01      1.086016000000000E+02
5580000000.000000      2.821503000000000E-01     -3.493945000000000E+01      3.828735000000000E-01      1.085859000000000E+02
5600000000.000000      2.937469000000000E-01     -4.378515000000000E+01      5.049133000000000E-01      9.969921000000000E+01
5620000000.000000      3.042755000000000E-01     -5.288867000000000E+01      5.934448000000000E-01      8.700390000000000E+01
5640000000.000000      3.079529000000000E-01     -6.263476000000000E+01      6.466675000000000E-01      7.529687000000000E+01
5660000000.000000      2.985382000000000E-01     -7.330078000000000E+01      6.842041000000000E-01      6.401172000000000E+01
5680000000.000000      2.689667000000000E-01     -8.374609000000000E+01      6.984558000000000E-01      5.121484000000000E+01
5700000000.000000      2.216873000000000E-01     -9.112890000000000E+01      6.829529000000000E-01      3.889648000000000E+01
5720000000.000000      1.713715000000000E-01     -9.001171000000000E+01      6.443787000000000E-01      2.607031000000000E+01
5740000000.000000      1.497192000000000E-01     -7.569140000000000E+01      5.665283000000000E-01      1.297070000000000E+01
5760000000.000000      1.781158000000000E-01     -6.380077000000000E+01      4.530792000000000E-01      1.240051000000000E+00
5780000000.000000      2.245560000000000E-01     -6.519921000000000E+01      3.181152000000000E-01     -4.018311000000000E+00
5800000000.000000      2.565613000000000E-01     -7.287890000000000E+01      2.092896000000000E-01      6.573730000000000E+00
5820000000.000000      2.666626000000000E-01     -8.241405000000000E+01      1.887665000000000E-01      3.703711000000000E+01
5840000000.000000      2.573700000000000E-01     -9.100389000000000E+01      2.693634000000000E-01      5.390820000000000E+01
5860000000.000000      2.395325000000000E-01     -9.660936000000000E+01      3.702087000000000E-01      5.406836000000000E+01
5880000000.000000      2.244492000000000E-01     -9.981640000000000E+01      4.764557000000000E-01      4.876953000000000E+01
5900000000.000000      2.166519000000000E-01     -1.022305000000000E+02      5.931091000000000E-01      3.868945000000000E+01
5920000000.000000      2.092514000000000E-01     -1.048789000000000E+02      6.720276000000000E-01      2.475586000000000E+01
5940000000.000000      1.951599000000000E-01     -1.069570000000000E+02      7.016296000000000E-01      1.135010000000000E+01
5960000000.000000      1.778870000000000E-01     -1.053398000000000E+02      7.143555000000000E-01     -1.251099000000000E+00
5980000000.000000      1.653137000000000E-01     -9.775000000000000E+01      6.913147000000000E-01     -1.533447000000000E+01
6000000000.000000      1.807022000000000E-01     -8.850000000000000E+01      6.299438000000000E-01     -2.890234000000000E+01
6020000000.000000      2.147675000000000E-01     -8.667578000000000E+01      5.315247000000000E-01     -4.157031000000000E+01
6040000000.000000      2.511139000000000E-01     -9.166407000000000E+01      4.013824000000000E-01     -4.980273000000000E+01
6060000000.000000      2.748718000000000E-01     -1.008437000000000E+02      2.873383000000000E-01     -4.996484000000000E+01
6080000000.000000      2.855377000000000E-01     -1.110508000000000E+02      2.064056000000000E-01     -3.654882000000000E+01
