! Network Analyzer HP8722D
! Hewlett-Packard
! Data name: Linha & Wilkinson+CNT
! Saver's name: Rodrigo Anjos
! Comments: Teste da utilização de aquisição
continua pelo VNA HP8722D
! Time and date: 29/9/2025 16:59
!              Frequency                     S11                                                   S21                                                   S12                                                   S22
# HZ  S  MA R 50
3000000000.000000      4.246521000000000E-01     -5.558007000000000E+01      2.074661000000000E-01     -1.315469000000000E+02
3020000000.000000      4.476318000000000E-01     -7.000390000000000E+01      3.503723000000000E-01     -1.350391000000000E+02
3040000000.000000      4.526978000000000E-01     -8.298437000000000E+01      4.678497000000000E-01     -1.449766000000000E+02
3060000000.000000      4.446869000000000E-01     -9.482422000000000E+01      5.717468000000000E-01     -1.552969000000000E+02
3080000000.000000      4.293518000000000E-01     -1.061055000000000E+02      6.744690000000000E-01     -1.682422000000000E+02
3100000000.000000      4.085846000000000E-01     -1.173438000000000E+02      7.247620000000000E-01      1.768047000000000E+02
3120000000.000000      3.802795000000000E-01     -1.292891000000000E+02      7.330627000000000E-01      1.634219000000000E+02
3140000000.000000      3.390350000000000E-01     -1.423203000000000E+02      7.254028000000000E-01      1.505312000000000E+02
3160000000.000000      2.778625000000000E-01     -1.562344000000000E+02      6.856384000000000E-01      1.369062000000000E+02
3180000000.000000      1.992569000000000E-01     -1.689922000000000E+02      6.137085000000000E-01      1.243086000000000E+02
3200000000.000000      1.113625000000000E-01     -1.696719000000000E+02      5.202637000000000E-01      1.115351000000000E+02
3220000000.000000      7.973099000000000E-02     -1.239258000000000E+02      3.856354000000000E-01      1.008516000000000E+02
3240000000.000000      1.507721000000000E-01     -1.049570000000000E+02      2.476501000000000E-01      9.949219000000000E+01
3260000000.000000      2.301254000000000E-01     -1.151445000000000E+02      1.472778000000000E-01      1.252070000000000E+02
3280000000.000000      2.882080000000000E-01     -1.308750000000000E+02      2.031479000000000E-01      1.652500000000000E+02
3300000000.000000      3.206940000000000E-01     -1.471328000000000E+02      3.303223000000000E-01      1.697031000000000E+02
3320000000.000000      3.325653000000000E-01     -1.629844000000000E+02      4.629364000000000E-01      1.625625000000000E+02
3340000000.000000      3.289795000000000E-01     -1.784375000000000E+02      5.743103000000000E-01      1.505703000000000E+02
3360000000.000000      3.170013000000000E-01      1.668281000000000E+02      6.463928000000000E-01      1.383281000000000E+02
3380000000.000000      3.009949000000000E-01      1.524765000000000E+02      7.090454000000000E-01      1.270430000000000E+02
3400000000.000000      2.786102000000000E-01      1.379922000000000E+02      7.574158000000000E-01      1.133359000000000E+02
3420000000.000000      2.437592000000000E-01      1.228750000000000E+02      7.500000000000000E-01      9.839453000000000E+01
3440000000.000000      1.909180000000000E-01      1.082305000000000E+02      7.061157000000000E-01      8.565233000000000E+01
3460000000.000000      1.203308000000000E-01      9.755468000000000E+01      6.464539000000000E-01      7.251562000000000E+01
3480000000.000000      4.854393000000000E-02      1.207773000000000E+02      5.493469000000000E-01      5.911718000000000E+01
3500000000.000000      9.202194000000000E-02     -1.744844000000000E+02      4.247894000000000E-01      4.767187000000000E+01
3520000000.000000      1.835785000000000E-01      1.788828000000000E+02      2.791901000000000E-01      4.047656000000000E+01
3540000000.000000      2.629852000000000E-01      1.628359000000000E+02      1.477127000000000E-01      5.811328000000000E+01
3560000000.000000      3.229828000000000E-01      1.457500000000000E+02      1.665573000000000E-01      1.075898000000000E+02
3580000000.000000      3.600769000000000E-01      1.298437000000000E+02      2.937469000000000E-01      1.175312000000000E+02
3600000000.000000      3.759003000000000E-01      1.152344000000000E+02      4.189148000000000E-01      1.105859000000000E+02
3620000000.000000      3.785095000000000E-01      1.026719000000000E+02      5.214844000000000E-01      1.011406000000000E+02
3640000000.000000      3.686981000000000E-01      9.136719000000000E+01      6.223755000000000E-01      9.005077000000000E+01
3660000000.000000      3.522797000000000E-01      8.109375000000000E+01      6.934509000000000E-01      7.578515000000000E+01
3680000000.000000      3.300323000000000E-01      7.203515000000000E+01      7.118530000000000E-01      6.267578000000000E+01
3700000000.000000      2.994843000000000E-01      6.370117000000000E+01      7.203674000000000E-01      5.106445000000000E+01
3720000000.000000      2.555084000000000E-01      5.766211000000000E+01      7.243958000000000E-01      3.673242000000000E+01
3740000000.000000      2.053070000000000E-01      5.840625000000000E+01      6.653748000000000E-01      2.150488000000000E+01
3760000000.000000      1.781464000000000E-01      7.244141000000000E+01      5.674133000000000E-01      7.182129000000000E+00
3780000000.000000      2.119675000000000E-01      8.738281000000000E+01      4.360962000000000E-01     -6.140137000000000E+00
3800000000.000000      2.823944000000000E-01      8.912500000000000E+01      2.823181000000000E-01     -1.344482000000000E+01
3820000000.000000      3.499603000000000E-01      8.273829000000000E+01      1.538391000000000E-01     -3.405762000000000E-01
3840000000.000000      4.005737000000000E-01      7.396874000000000E+01      1.430893000000000E-01      4.775195000000000E+01
3860000000.000000      4.354553000000000E-01      6.535156000000000E+01      2.458038000000000E-01      6.539844000000000E+01
3880000000.000000      4.612427000000000E-01      5.785937000000000E+01      3.757324000000000E-01      6.118750000000000E+01
3900000000.000000      4.900818000000000E-01      5.085742000000000E+01      4.767609000000000E-01      4.793945000000000E+01
3920000000.000000      5.199890000000000E-01      4.333593000000000E+01      5.084229000000000E-01      3.601171000000000E+01
3940000000.000000      5.489502000000000E-01      3.429883000000000E+01      5.392151000000000E-01      2.956738000000000E+01
3960000000.000000      5.596008000000000E-01      2.419140000000000E+01      5.957642000000000E-01      2.019238000000000E+01
3980000000.000000      5.527039000000000E-01      1.360645000000000E+01      5.968323000000000E-01      8.257324000000000E+00
4000000000.000000      5.276489000000000E-01      3.305420000000000E+00      5.799561000000000E-01      1.227722000000000E+00
4020000000.000000      4.842529000000000E-01     -6.704590000000000E+00      5.988159000000000E-01     -6.480713000000000E+00
4040000000.000000      4.254913000000000E-01     -1.562842000000000E+01      5.853271000000000E-01     -1.867578000000000E+01
4060000000.000000      3.499603000000000E-01     -2.168750000000000E+01      5.271912000000000E-01     -2.879395000000000E+01
4080000000.000000      2.754974000000000E-01     -2.158691000000000E+01      4.682770000000000E-01     -3.816015000000000E+01
4100000000.000000      2.283554000000000E-01     -1.104004000000000E+01      3.671112000000000E-01     -4.753906000000000E+01
4120000000.000000      2.418976000000000E-01      2.077759000000000E+00      2.499390000000000E-01     -4.412890000000000E+01
4140000000.000000      2.897186000000000E-01      5.259521000000000E+00      2.031784000000000E-01     -2.019726000000000E+01
4160000000.000000      3.341827000000000E-01      1.141174000000000E+00      2.634735000000000E-01     -1.963806000000000E-01
4180000000.000000      3.619385000000000E-01     -5.806396000000000E+00      3.570404000000000E-01      3.864380000000000E+00
4200000000.000000      3.717651000000000E-01     -1.350928000000000E+01      4.870605000000000E-01      1.352661000000000E+00
4220000000.000000      3.680115000000000E-01     -2.069043000000000E+01      6.420898000000000E-01     -1.110352000000000E+01
4240000000.000000      3.486633000000000E-01     -2.821484000000000E+01      7.226563000000000E-01     -2.767773000000000E+01
4260000000.000000      3.101501000000000E-01     -3.401367000000000E+01      7.428284000000000E-01     -4.186328000000000E+01
4280000000.000000      2.598724000000000E-01     -3.531445000000000E+01      7.515259000000000E-01     -5.561913000000000E+01
4300000000.000000      2.221146000000000E-01     -2.711230000000000E+01      7.143860000000000E-01     -7.068749000000000E+01
4320000000.000000      2.353821000000000E-01     -1.443604000000000E+01      6.332703000000000E-01     -8.516016000000000E+01
4340000000.000000      2.934418000000000E-01     -1.047705000000000E+01      5.171204000000000E-01     -9.794922000000000E+01
4360000000.000000      3.586426000000000E-01     -1.547461000000000E+01      3.821869000000000E-01     -1.067656000000000E+02
4380000000.000000      4.050751000000000E-01     -2.452051000000000E+01      2.504272000000000E-01     -1.080937000000000E+02
4400000000.000000      4.268494000000000E-01     -3.445898000000000E+01      1.535492000000000E-01     -8.524609000000000E+01
4420000000.000000      4.244080000000000E-01     -4.383203000000000E+01      1.873398000000000E-01     -4.560156000000000E+01
4440000000.000000      4.086151000000000E-01     -5.184179000000000E+01      3.101196000000000E-01     -3.608203000000000E+01
4460000000.000000      3.875885000000000E-01     -5.832226000000000E+01      4.527283000000000E-01     -4.335938000000000E+01
4480000000.000000      3.679352000000000E-01     -6.474999000000000E+01      5.610657000000000E-01     -5.541797000000000E+01
4500000000.000000      3.471222000000000E-01     -7.164063000000000E+01      6.429138000000000E-01     -6.680469000000000E+01
4520000000.000000      3.130951000000000E-01     -7.946094000000000E+01      7.160339000000000E-01     -7.974999000000000E+01
4540000000.000000      2.620239000000000E-01     -8.560547000000000E+01      7.430115000000000E-01     -9.433203000000000E+01
4560000000.000000      2.006378000000000E-01     -8.400000000000000E+01      7.282715000000000E-01     -1.076641000000000E+02
4580000000.000000      1.733322000000000E-01     -6.787890000000000E+01      6.925049000000000E-01     -1.214766000000000E+02
4600000000.000000      2.109528000000000E-01     -5.354297000000000E+01      6.073914000000000E-01     -1.346797000000000E+02
4620000000.000000      2.763519000000000E-01     -5.495507000000000E+01      4.995880000000000E-01     -1.450938000000000E+02
4640000000.000000      3.299866000000000E-01     -6.486718000000000E+01      3.800659000000000E-01     -1.532969000000000E+02
4660000000.000000      3.533936000000000E-01     -7.811328000000000E+01      2.471695000000000E-01     -1.517031000000000E+02
4680000000.000000      3.448639000000000E-01     -9.216406000000000E+01      1.796722000000000E-01     -1.237383000000000E+02
4700000000.000000      3.079834000000000E-01     -1.054414000000000E+02      2.479324000000000E-01     -9.669531000000000E+01
4720000000.000000      2.525330000000000E-01     -1.159023000000000E+02      3.667755000000000E-01     -9.530468000000000E+01
4740000000.000000      1.900406000000000E-01     -1.211055000000000E+02      4.736938000000000E-01     -1.018789000000000E+02
4760000000.000000      1.382751000000000E-01     -1.170273000000000E+02      5.804443000000000E-01     -1.106914000000000E+02
4780000000.000000      1.123581000000000E-01     -1.009727000000000E+02      6.665344000000000E-01     -1.230312000000000E+02
4800000000.000000      1.185379000000000E-01     -8.316797000000000E+01      7.179260000000000E-01     -1.356797000000000E+02
4820000000.000000      1.469116000000000E-01     -7.351171000000000E+01      7.358398000000000E-01     -1.491094000000000E+02
4840000000.000000      1.882629000000000E-01     -7.344921000000000E+01      7.182312000000000E-01     -1.618438000000000E+02
4860000000.000000      2.320938000000000E-01     -8.009375000000000E+01      6.843567000000000E-01     -1.742578000000000E+02
4880000000.000000      2.694397000000000E-01     -9.053905000000000E+01      6.185303000000000E-01      1.718984000000000E+02
4900000000.000000      2.946625000000000E-01     -1.040391000000000E+02      4.952393000000000E-01      1.598750000000000E+02
4920000000.000000      3.007355000000000E-01     -1.191523000000000E+02      3.655396000000000E-01      1.532969000000000E+02
4940000000.000000      2.859955000000000E-01     -1.347734000000000E+02      2.521210000000000E-01      1.558828000000000E+02
4960000000.000000      2.548981000000000E-01     -1.499453000000000E+02      1.769333000000000E-01      1.770703000000000E+02
4980000000.000000      2.130203000000000E-01     -1.642500000000000E+02      2.136612000000000E-01     -1.513515000000000E+02
5000000000.000000      1.686859000000000E-01     -1.758359000000000E+02      3.296967000000000E-01     -1.436250000000000E+02
5020000000.000000      1.310959000000000E-01      1.742734000000000E+02      4.604340000000000E-01     -1.496016000000000E+02
5040000000.000000      1.008682000000000E-01      1.638828000000000E+02      5.693359000000000E-01     -1.603750000000000E+02
5060000000.000000      7.215881000000000E-02      1.488203000000000E+02      6.499634000000000E-01     -1.719453000000000E+02
5080000000.000000      4.199028000000000E-02      1.233476000000000E+02      7.184143000000000E-01      1.759609000000000E+02
5100000000.000000      1.659012000000000E-02      4.370313000000000E+01      7.562256000000000E-01      1.621797000000000E+02
5120000000.000000      4.080772000000000E-02     -5.049805000000000E+01      7.554932000000000E-01      1.479297000000000E+02
5140000000.000000      7.271576000000000E-02     -8.745312000000000E+01      7.038269000000000E-01      1.343281000000000E+02
5160000000.000000      9.668350000000000E-02     -1.188515000000000E+02      6.293945000000000E-01      1.219844000000000E+02
5180000000.000000      1.101646000000000E-01     -1.494062000000000E+02      5.345154000000000E-01      1.107031000000000E+02
5200000000.000000      1.128006000000000E-01      1.779609000000000E+02      4.166260000000000E-01      1.011289000000000E+02
5220000000.000000      1.100540000000000E-01      1.422422000000000E+02      2.835541000000000E-01      9.821875000000000E+01
5240000000.000000      1.092339000000000E-01      1.061289000000000E+02      1.834106000000000E-01      1.151055000000000E+02
5260000000.000000      1.136818000000000E-01      7.258203000000000E+01      1.956940000000000E-01      1.492891000000000E+02
5280000000.000000      1.207886000000000E-01      4.584374000000000E+01      2.957306000000000E-01      1.606719000000000E+02
5300000000.000000      1.278381000000000E-01      2.512207000000000E+01      4.095154000000000E-01      1.581406000000000E+02
5320000000.000000      1.338425000000000E-01      8.662598000000000E+00      5.264282000000000E-01      1.506172000000000E+02
5340000000.000000      1.388168000000000E-01     -5.655273000000000E+00      6.381226000000000E-01      1.386328000000000E+02
5360000000.000000      1.433945000000000E-01     -2.137988000000000E+01      7.067871000000000E-01      1.239766000000000E+02
5380000000.000000      1.387558000000000E-01     -3.904297000000000E+01      7.187500000000000E-01      1.106953000000000E+02
5400000000.000000      1.203156000000000E-01     -5.738671000000000E+01      7.186279000000000E-01      9.897655000000000E+01
5420000000.000000      8.481979000000000E-02     -7.443749000000000E+01      7.044373000000000E-01      8.603516000000000E+01
5440000000.000000      3.063297000000000E-02     -7.901562000000000E+01      6.477966000000000E-01      7.152734000000000E+01
5460000000.000000      4.280472000000000E-02      3.877344000000000E+01      5.403748000000000E-01      5.851757000000000E+01
5480000000.000000      1.127129000000000E-01      3.114453000000000E+01      4.140167000000000E-01      4.931445000000000E+01
5500000000.000000      1.751480000000000E-01      1.585449000000000E+01      2.936707000000000E-01      4.731445000000000E+01
5520000000.000000      2.210541000000000E-01      6.962585000000000E-01      1.952438000000000E-01      5.905273000000000E+01
5540000000.000000      2.522736000000000E-01     -1.296826000000000E+01      1.807632000000000E-01      9.098436000000000E+01
5560000000.000000      2.699432000000000E-01     -2.494043000000000E+01      2.627563000000000E-01      1.086836000000000E+02
5580000000.000000      2.827759000000000E-01     -3.502539000000000E+01      3.844757000000000E-01      1.086953000000000E+02
5600000000.000000      2.940216000000000E-01     -4.384961000000000E+01      5.065308000000000E-01      9.969530000000000E+01
5620000000.000000      3.045959000000000E-01     -5.302734000000000E+01      5.974121000000000E-01      8.704296000000000E+01
5640000000.000000      3.079529000000000E-01     -6.269726000000000E+01      6.457520000000000E-01      7.532031000000000E+01
5660000000.000000      2.982025000000000E-01     -7.348437000000000E+01      6.856384000000000E-01      6.397265000000000E+01
5680000000.000000      2.690277000000000E-01     -8.378124000000000E+01      6.990967000000000E-01      5.115624000000000E+01
5700000000.000000      2.209702000000000E-01     -9.116014000000000E+01      6.833191000000000E-01      3.880273000000000E+01
5720000000.000000      1.705322000000000E-01     -8.987108000000000E+01      6.435547000000000E-01      2.602051000000000E+01
5740000000.000000      1.493683000000000E-01     -7.528906000000000E+01      5.669556000000000E-01      1.282080000000000E+01
5760000000.000000      1.782990000000000E-01     -6.352539000000000E+01      4.519043000000000E-01      1.234558000000000E+00
5780000000.000000      2.245255000000000E-01     -6.516796000000000E+01      3.168945000000000E-01     -3.978516000000000E+00
5800000000.000000      2.572784000000000E-01     -7.291016000000000E+01      2.082138000000000E-01      6.808594000000000E+00
5820000000.000000      2.665558000000000E-01     -8.242579000000000E+01      1.895981000000000E-01      3.748437000000000E+01
5840000000.000000      2.567902000000000E-01     -9.102343000000000E+01      2.710876000000000E-01      5.403125000000000E+01
5860000000.000000      2.391357000000000E-01     -9.664843000000000E+01      3.714600000000000E-01      5.407421000000000E+01
5880000000.000000      2.236557000000000E-01     -9.971483000000000E+01      4.775085000000000E-01      4.871484000000000E+01
5900000000.000000      2.162018000000000E-01     -1.023164000000000E+02      5.945435000000000E-01      3.839258000000000E+01
5920000000.000000      2.082977000000000E-01     -1.049961000000000E+02      6.712036000000000E-01      2.448925000000000E+01
5940000000.000000      1.947174000000000E-01     -1.070586000000000E+02      7.026367000000000E-01      1.122363000000000E+01
5960000000.000000      1.768799000000000E-01     -1.052851000000000E+02      7.141418000000000E-01     -1.485901000000000E+00
5980000000.000000      1.656570000000000E-01     -9.727343000000000E+01      6.922302000000000E-01     -1.546875000000000E+01
6000000000.000000      1.811676000000000E-01     -8.832031000000000E+01      6.298828000000000E-01     -2.898144000000000E+01
6020000000.000000      2.159424000000000E-01     -8.622265000000000E+01      5.298462000000000E-01     -4.173633000000000E+01
6040000000.000000      2.512054000000000E-01     -9.154297000000000E+01      4.016113000000000E-01     -4.986914000000000E+01
6060000000.000000      2.749634000000000E-01     -1.006680000000000E+02      2.859344000000000E-01     -4.976953000000000E+01
6080000000.000000      2.847748000000000E-01     -1.109492000000000E+02      2.056351000000000E-01     -3.599414000000000E+01
