! Network Analyzer HP8722D
! Hewlett-Packard
! Data name: Linha & Wilkinson+CNT
! Saver's name: Rodrigo Anjos
! Comments: Teste da utilização de aquisição
continua pelo VNA HP8722D
! Time and date: 29/9/2025 14:55
!              Frequency                     S11                                                   S21                                                   S12                                                   S22
# HZ  S  MA R 50
3000000000.000000      4.259644000000000E-01     -5.574609000000000E+01      2.087326000000000E-01     -1.315000000000000E+02
3020000000.000000      4.474487000000000E-01     -6.989843000000000E+01      3.513947000000000E-01     -1.350469000000000E+02
3040000000.000000      4.531708000000000E-01     -8.285156000000000E+01      4.683075000000000E-01     -1.451484000000000E+02
3060000000.000000      4.449158000000000E-01     -9.498827000000000E+01      5.733948000000000E-01     -1.552266000000000E+02
3080000000.000000      4.292755000000000E-01     -1.062344000000000E+02      6.738892000000000E-01     -1.685703000000000E+02
3100000000.000000      4.090576000000000E-01     -1.174609000000000E+02      7.250977000000000E-01      1.766250000000000E+02
3120000000.000000      3.795013000000000E-01     -1.294375000000000E+02      7.317810000000000E-01      1.633594000000000E+02
3140000000.000000      3.383179000000000E-01     -1.425078000000000E+02      7.242432000000000E-01      1.505156000000000E+02
3160000000.000000      2.779236000000000E-01     -1.565312000000000E+02      6.829834000000000E-01      1.370000000000000E+02
3180000000.000000      1.987305000000000E-01     -1.691094000000000E+02      6.130371000000000E-01      1.244765000000000E+02
3200000000.000000      1.106644000000000E-01     -1.695781000000000E+02      5.184326000000000E-01      1.116289000000000E+02
3220000000.000000      7.961273000000000E-02     -1.235117000000000E+02      3.842316000000000E-01      1.009844000000000E+02
3240000000.000000      1.511459000000000E-01     -1.049531000000000E+02      2.459717000000000E-01      9.970703000000000E+01
3260000000.000000      2.303009000000000E-01     -1.152812000000000E+02      1.468430000000000E-01      1.260859000000000E+02
3280000000.000000      2.873993000000000E-01     -1.309687000000000E+02      2.041779000000000E-01      1.654219000000000E+02
3300000000.000000      3.202972000000000E-01     -1.473203000000000E+02      3.310089000000000E-01      1.695625000000000E+02
3320000000.000000      3.319702000000000E-01     -1.631719000000000E+02      4.638367000000000E-01      1.625234000000000E+02
3340000000.000000      3.284912000000000E-01     -1.786016000000000E+02      5.752563000000000E-01      1.504219000000000E+02
3360000000.000000      3.165894000000000E-01      1.667344000000000E+02      6.479187000000000E-01      1.383594000000000E+02
3380000000.000000      2.999420000000000E-01      1.522891000000000E+02      7.090454000000000E-01      1.269687000000000E+02
3400000000.000000      2.778778000000000E-01      1.377187000000000E+02      7.578430000000000E-01      1.131523000000000E+02
3420000000.000000      2.427521000000000E-01      1.227070000000000E+02      7.478333000000000E-01      9.826172000000000E+01
3440000000.000000      1.897888000000000E-01      1.078789000000000E+02      7.062073000000000E-01      8.534374000000000E+01
3460000000.000000      1.189880000000000E-01      9.726952000000000E+01      6.455688000000000E-01      7.237890000000000E+01
3480000000.000000      4.759407000000000E-02      1.218086000000000E+02      5.487366000000000E-01      5.878906000000000E+01
3500000000.000000      9.276199000000000E-02     -1.742812000000000E+02      4.237823000000000E-01      4.750977000000000E+01
3520000000.000000      1.844177000000000E-01      1.788906000000000E+02      2.772522000000000E-01      4.044531000000000E+01
3540000000.000000      2.636871000000000E-01      1.627031000000000E+02      1.469727000000000E-01      5.863671000000000E+01
3560000000.000000      3.233643000000000E-01      1.457031000000000E+02      1.677628000000000E-01      1.079297000000000E+02
3580000000.000000      3.596191000000000E-01      1.297422000000000E+02      2.957001000000000E-01      1.174844000000000E+02
3600000000.000000      3.764801000000000E-01      1.151953000000000E+02      4.203033000000000E-01      1.105430000000000E+02
3620000000.000000      3.780365000000000E-01      1.024297000000000E+02      5.220947000000000E-01      1.009609000000000E+02
3640000000.000000      3.682709000000000E-01      9.131250000000000E+01      6.237488000000000E-01      8.996874000000000E+01
3660000000.000000      3.522491000000000E-01      8.102343000000000E+01      6.941833000000000E-01      7.556250000000000E+01
3680000000.000000      3.293762000000000E-01      7.188281000000000E+01      7.114868000000000E-01      6.258594000000000E+01
3700000000.000000      2.987823000000000E-01      6.361718000000000E+01      7.203674000000000E-01      5.091601000000000E+01
3720000000.000000      2.543640000000000E-01      5.751562000000000E+01      7.235718000000000E-01      3.661328000000000E+01
3740000000.000000      2.044678000000000E-01      5.849218000000000E+01      6.633301000000000E-01      2.128808000000000E+01
3760000000.000000      1.781006000000000E-01      7.252343000000000E+01      5.649719000000000E-01      6.951416000000000E+00
3780000000.000000      2.122040000000000E-01      8.755859000000000E+01      4.339294000000000E-01     -6.131836000000000E+00
3800000000.000000      2.829895000000000E-01      8.898046000000000E+01      2.809296000000000E-01     -1.337744000000000E+01
3820000000.000000      3.503723000000000E-01      8.255859000000000E+01      1.528778000000000E-01     -2.746582000000000E-03
3840000000.000000      4.009399000000000E-01      7.382030000000000E+01      1.436310000000000E-01      4.809179000000000E+01
3860000000.000000      4.357300000000000E-01      6.524219000000000E+01      2.476654000000000E-01      6.531250000000000E+01
3880000000.000000      4.607544000000000E-01      5.772655000000000E+01      3.770752000000000E-01      6.108788000000000E+01
3900000000.000000      4.894867000000000E-01      5.073828000000000E+01      4.796143000000000E-01      4.778906000000000E+01
3920000000.000000      5.221863000000000E-01      4.313477000000000E+01      5.095215000000000E-01      3.593554000000000E+01
3940000000.000000      5.478516000000000E-01      3.398242000000000E+01      5.401001000000000E-01      2.936426000000000E+01
3960000000.000000      5.593872000000000E-01      2.399805000000000E+01      5.957947000000000E-01      1.997559000000000E+01
3980000000.000000      5.531311000000000E-01      1.361475000000000E+01      5.981140000000000E-01      8.154297000000000E+00
4000000000.000000      5.276184000000000E-01      2.963501000000000E+00      5.807495000000000E-01      1.176880000000000E+00
4020000000.000000      4.834137000000000E-01     -6.880371000000000E+00      5.969849000000000E-01     -6.630371000000000E+00
4040000000.000000      4.244080000000000E-01     -1.574072000000000E+01      5.847168000000000E-01     -1.872851000000000E+01
4060000000.000000      3.482819000000000E-01     -2.173828000000000E+01      5.268860000000000E-01     -2.889453000000000E+01
4080000000.000000      2.739563000000000E-01     -2.183203000000000E+01      4.683838000000000E-01     -3.818164000000000E+01
4100000000.000000      2.282562000000000E-01     -1.102246000000000E+01      3.656311000000000E-01     -4.747851000000000E+01
4120000000.000000      2.424240000000000E-01      2.040649000000000E+00      2.485886000000000E-01     -4.390038000000000E+01
4140000000.000000      2.903748000000000E-01      5.206055000000000E+00      2.034683000000000E-01     -1.960547000000000E+01
4160000000.000000      3.342438000000000E-01      9.049988000000000E-01      2.647095000000000E-01      6.866455000000000E-03
4180000000.000000      3.618622000000000E-01     -5.883301000000000E+00      3.585510000000000E-01      3.817749000000000E+00
4200000000.000000      3.712921000000000E-01     -1.367969000000000E+01      4.892731000000000E-01      1.215332000000000E+00
4220000000.000000      3.674469000000000E-01     -2.091113000000000E+01      6.422729000000000E-01     -1.122705000000000E+01
4240000000.000000      3.478241000000000E-01     -2.833984000000000E+01      7.216492000000000E-01     -2.791797000000000E+01
4260000000.000000      3.090363000000000E-01     -3.412500000000000E+01      7.421875000000000E-01     -4.191406000000000E+01
4280000000.000000      2.590942000000000E-01     -3.533789000000000E+01      7.506409000000000E-01     -5.588476000000000E+01
4300000000.000000      2.222824000000000E-01     -2.717773000000000E+01      7.142029000000000E-01     -7.091015000000000E+01
4320000000.000000      2.356720000000000E-01     -1.438525000000000E+01      6.309814000000000E-01     -8.537889000000000E+01
4340000000.000000      2.940521000000000E-01     -1.056104000000000E+01      5.160828000000000E-01     -9.798437000000000E+01
4360000000.000000      3.592987000000000E-01     -1.568066000000000E+01      3.783722000000000E-01     -1.069609000000000E+02
4380000000.000000      4.056549000000000E-01     -2.466992000000000E+01      2.487183000000000E-01     -1.079609000000000E+02
4400000000.000000      4.263153000000000E-01     -3.460156000000000E+01      1.530380000000000E-01     -8.464844000000000E+01
4420000000.000000      4.245453000000000E-01     -4.390234000000000E+01      1.885986000000000E-01     -4.535937000000000E+01
4440000000.000000      4.082184000000000E-01     -5.212695000000000E+01      3.114471000000000E-01     -3.615625000000000E+01
4460000000.000000      3.864441000000000E-01     -5.870312000000000E+01      4.541016000000000E-01     -4.363086000000000E+01
4480000000.000000      3.677673000000000E-01     -6.481640000000000E+01      5.626221000000000E-01     -5.554296000000000E+01
4500000000.000000      3.460846000000000E-01     -7.168359000000000E+01      6.427917000000000E-01     -6.686718000000000E+01
4520000000.000000      3.132782000000000E-01     -7.933984000000000E+01      7.159729000000000E-01     -7.990234000000000E+01
4540000000.000000      2.617035000000000E-01     -8.557421000000000E+01      7.427063000000000E-01     -9.457422000000000E+01
4560000000.000000      2.007904000000000E-01     -8.373047000000000E+01      7.290039000000000E-01     -1.078203000000000E+02
4580000000.000000      1.744308000000000E-01     -6.763281000000000E+01      6.904907000000000E-01     -1.215273000000000E+02
4600000000.000000      2.125397000000000E-01     -5.380859000000000E+01      6.058044000000000E-01     -1.348750000000000E+02
4620000000.000000      2.776489000000000E-01     -5.520117000000000E+01      4.972382000000000E-01     -1.451875000000000E+02
4640000000.000000      3.310242000000000E-01     -6.521484000000000E+01      3.786163000000000E-01     -1.534141000000000E+02
4660000000.000000      3.548126000000000E-01     -7.850780000000000E+01      2.450256000000000E-01     -1.517109000000000E+02
4680000000.000000      3.457031000000000E-01     -9.241014000000000E+01      1.790924000000000E-01     -1.232187000000000E+02
4700000000.000000      3.083954000000000E-01     -1.056367000000000E+02      2.492676000000000E-01     -9.659765000000000E+01
4720000000.000000      2.526093000000000E-01     -1.161992000000000E+02      3.689728000000000E-01     -9.553125000000000E+01
4740000000.000000      1.904984000000000E-01     -1.215234000000000E+02      4.747772000000000E-01     -1.017344000000000E+02
4760000000.000000      1.383057000000000E-01     -1.174180000000000E+02      5.807190000000000E-01     -1.106641000000000E+02
4780000000.000000      1.123734000000000E-01     -1.014336000000000E+02      6.693420000000000E-01     -1.230195000000000E+02
4800000000.000000      1.182747000000000E-01     -8.361328000000000E+01      7.162170000000000E-01     -1.358984000000000E+02
4820000000.000000      1.467209000000000E-01     -7.381249000000000E+01      7.372131000000000E-01     -1.491641000000000E+02
4840000000.000000      1.876755000000000E-01     -7.369922000000000E+01      7.169495000000000E-01     -1.618515000000000E+02
4860000000.000000      2.315369000000000E-01     -8.044531000000000E+01      6.844788000000000E-01     -1.745234000000000E+02
4880000000.000000      2.681732000000000E-01     -9.077734000000000E+01      6.163635000000000E-01      1.718203000000000E+02
4900000000.000000      2.940826000000000E-01     -1.043476000000000E+02      4.932709000000000E-01      1.597188000000000E+02
4920000000.000000      2.994690000000000E-01     -1.194765000000000E+02      3.639984000000000E-01      1.537812000000000E+02
4940000000.000000      2.850342000000000E-01     -1.351641000000000E+02      2.503204000000000E-01      1.560547000000000E+02
4960000000.000000      2.537384000000000E-01     -1.503281000000000E+02      1.768494000000000E-01      1.777656000000000E+02
4980000000.000000      2.114334000000000E-01     -1.644140000000000E+02      2.154388000000000E-01     -1.508828000000000E+02
5000000000.000000      1.677017000000000E-01     -1.761797000000000E+02      3.309174000000000E-01     -1.437969000000000E+02
5020000000.000000      1.301422000000000E-01      1.739766000000000E+02      4.627075000000000E-01     -1.497578000000000E+02
5040000000.000000      9.973145000000000E-02      1.634609000000000E+02      5.708313000000000E-01     -1.606016000000000E+02
5060000000.000000      7.153702000000000E-02      1.482422000000000E+02      6.509399000000000E-01     -1.721328000000000E+02
5080000000.000000      4.121399000000000E-02      1.224180000000000E+02      7.183533000000000E-01      1.757266000000000E+02
5100000000.000000      1.689434000000000E-02      4.013672000000000E+01      7.568054000000000E-01      1.619688000000000E+02
5120000000.000000      4.159546000000000E-02     -5.168945000000000E+01      7.534485000000000E-01      1.477266000000000E+02
5140000000.000000      7.290649000000000E-02     -8.840624000000000E+01      7.027893000000000E-01      1.340156000000000E+02
5160000000.000000      9.645844000000000E-02     -1.191680000000000E+02      6.270142000000000E-01      1.218242000000000E+02
5180000000.000000      1.095963000000000E-01     -1.498516000000000E+02      5.306396000000000E-01      1.106484000000000E+02
5200000000.000000      1.120071000000000E-01      1.774765000000000E+02      4.146576000000000E-01      1.010234000000000E+02
5220000000.000000      1.092110000000000E-01      1.415937000000000E+02      2.819366000000000E-01      9.834764000000000E+01
5240000000.000000      1.091003000000000E-01      1.054258000000000E+02      1.834488000000000E-01      1.157930000000000E+02
5260000000.000000      1.132851000000000E-01      7.192187000000000E+01      1.977539000000000E-01      1.496094000000000E+02
5280000000.000000      1.207695000000000E-01      4.570898000000000E+01      2.978973000000000E-01      1.606406000000000E+02
5300000000.000000      1.276932000000000E-01      2.498242000000000E+01      4.114380000000000E-01      1.580312000000000E+02
5320000000.000000      1.336288000000000E-01      8.245117000000000E+00      5.292969000000000E-01      1.503359000000000E+02
5340000000.000000      1.393433000000000E-01     -5.864014000000000E+00      6.398315000000000E-01      1.383359000000000E+02
5360000000.000000      1.434708000000000E-01     -2.137402000000000E+01      7.076416000000000E-01      1.239023000000000E+02
5380000000.000000      1.384659000000000E-01     -3.902344000000000E+01      7.167358000000000E-01      1.105742000000000E+02
5400000000.000000      1.196175000000000E-01     -5.711914000000000E+01      7.170105000000000E-01      9.890625000000000E+01
5420000000.000000      8.377838000000000E-02     -7.385547000000000E+01      7.040405000000000E-01      8.571093000000000E+01
5440000000.000000      2.945805000000000E-02     -7.767968000000000E+01      6.470032000000000E-01      7.141796000000000E+01
5460000000.000000      4.412460000000000E-02      3.937891000000000E+01      5.385132000000000E-01      5.836719000000000E+01
5480000000.000000      1.134949000000000E-01      3.073535000000000E+01      4.110107000000000E-01      4.935741000000000E+01
5500000000.000000      1.759262000000000E-01      1.532275000000000E+01      2.910919000000000E-01      4.731445000000000E+01
5520000000.000000      2.215424000000000E-01      4.339600000000000E-01      1.946259000000000E-01      5.944530000000000E+01
5540000000.000000      2.523956000000000E-01     -1.336768000000000E+01      1.814880000000000E-01      9.120312000000000E+01
5560000000.000000      2.709656000000000E-01     -2.513476000000000E+01      2.645721000000000E-01      1.087461000000000E+02
5580000000.000000      2.826385000000000E-01     -3.505468000000000E+01      3.856812000000000E-01      1.083750000000000E+02
5600000000.000000      2.937775000000000E-01     -4.399804000000000E+01      5.080566000000000E-01      9.949999000000000E+01
5620000000.000000      3.044586000000000E-01     -5.311913000000000E+01      5.961304000000000E-01      8.705858000000000E+01
5640000000.000000      3.078613000000000E-01     -6.282812000000000E+01      6.472168000000000E-01      7.487890000000000E+01
5660000000.000000      2.978821000000000E-01     -7.348437000000000E+01      6.870728000000000E-01      6.365429000000000E+01
5680000000.000000      2.676544000000000E-01     -8.381250000000000E+01      6.989441000000000E-01      5.087304000000000E+01
5700000000.000000      2.205734000000000E-01     -9.109375000000000E+01      6.826172000000000E-01      3.869531000000000E+01
5720000000.000000      1.701202000000000E-01     -8.960546000000000E+01      6.431580000000000E-01      2.582324000000000E+01
5740000000.000000      1.499939000000000E-01     -7.506249000000000E+01      5.641174000000000E-01      1.249805000000000E+01
5760000000.000000      1.791382000000000E-01     -6.371679000000000E+01      4.482422000000000E-01      9.654236000000000E-01
5780000000.000000      2.253342000000000E-01     -6.537109000000000E+01      3.153381000000000E-01     -3.834229000000000E+00
5800000000.000000      2.575073000000000E-01     -7.321875000000000E+01      2.073822000000000E-01      7.341553000000000E+00
5820000000.000000      2.669678000000000E-01     -8.259766000000000E+01      1.902084000000000E-01      3.781250000000000E+01
5840000000.000000      2.569580000000000E-01     -9.098827000000000E+01      2.730408000000000E-01      5.399023000000000E+01
5860000000.000000      2.389603000000000E-01     -9.661327000000000E+01      3.736877000000000E-01      5.392187000000000E+01
5880000000.000000      2.243805000000000E-01     -9.974218000000000E+01      4.804230000000000E-01      4.849218000000000E+01
5900000000.000000      2.161636000000000E-01     -1.022617000000000E+02      5.969238000000000E-01      3.822266000000000E+01
5920000000.000000      2.087250000000000E-01     -1.050508000000000E+02      6.733093000000000E-01      2.446289000000000E+01
5940000000.000000      1.944504000000000E-01     -1.070508000000000E+02      7.017822000000000E-01      1.114111000000000E+01
5960000000.000000      1.771393000000000E-01     -1.052266000000000E+02      7.144775000000000E-01     -1.724854000000000E+00
5980000000.000000      1.660309000000000E-01     -9.704296000000000E+01      6.904602000000000E-01     -1.570361000000000E+01
6000000000.000000      1.816483000000000E-01     -8.825781000000000E+01      6.271057000000000E-01     -2.923535000000000E+01
6020000000.000000      2.164536000000000E-01     -8.633593000000000E+01      5.280151000000000E-01     -4.191406000000000E+01
6040000000.000000      2.523804000000000E-01     -9.168360000000000E+01      3.983765000000000E-01     -5.001953000000000E+01
6060000000.000000      2.752686000000000E-01     -1.009180000000000E+02      2.846222000000000E-01     -4.967187000000000E+01
6080000000.000000      2.858276000000000E-01     -1.111406000000000E+02      2.051468000000000E-01     -3.545703000000000E+01
