! Network Analyzer HP8722D
! Hewlett-Packard
! Data name: Linha & Wilkinson+CNT
! Saver's name: Rodrigo Anjos
! Comments: Teste da utilização de aquisição
continua pelo VNA HP8722D
! Time and date: 29/9/2025 13:06
!              Frequency                     S11                                                   S21                                                   S12                                                   S22
# HZ  S  MA R 50
3000000000.000000      4.227142000000000E-01     -5.605663000000000E+01      2.061844000000000E-01     -1.315078000000000E+02
3020000000.000000      4.475250000000000E-01     -7.025000000000000E+01      3.496857000000000E-01     -1.347344000000000E+02
3040000000.000000      4.522400000000000E-01     -8.316406000000000E+01      4.673309000000000E-01     -1.447187000000000E+02
3060000000.000000      4.464874000000000E-01     -9.519531000000000E+01      5.718384000000000E-01     -1.550390000000000E+02
3080000000.000000      4.321747000000000E-01     -1.064180000000000E+02      6.735535000000000E-01     -1.680234000000000E+02
3100000000.000000      4.120178000000000E-01     -1.176367000000000E+02      7.236938000000000E-01      1.769766000000000E+02
3120000000.000000      3.836975000000000E-01     -1.295078000000000E+02      7.315979000000000E-01      1.636016000000000E+02
3140000000.000000      3.433685000000000E-01     -1.424141000000000E+02      7.234497000000000E-01      1.507734000000000E+02
3160000000.000000      2.832336000000000E-01     -1.564141000000000E+02      6.843872000000000E-01      1.371406000000000E+02
3180000000.000000      2.035828000000000E-01     -1.687969000000000E+02      6.129761000000000E-01      1.246133000000000E+02
3200000000.000000      1.157494000000000E-01     -1.694922000000000E+02      5.208130000000000E-01      1.119141000000000E+02
3220000000.000000      8.215332000000000E-02     -1.259453000000000E+02      3.871002000000000E-01      1.007773000000000E+02
3240000000.000000      1.520844000000000E-01     -1.058008000000000E+02      2.475281000000000E-01      9.963671000000000E+01
3260000000.000000      2.323151000000000E-01     -1.154375000000000E+02      1.473007000000000E-01      1.252187000000000E+02
3280000000.000000      2.910156000000000E-01     -1.309062000000000E+02      2.029343000000000E-01      1.653125000000000E+02
3300000000.000000      3.241425000000000E-01     -1.470625000000000E+02      3.295288000000000E-01      1.698359000000000E+02
3320000000.000000      3.364410000000000E-01     -1.628672000000000E+02      4.625549000000000E-01      1.627422000000000E+02
3340000000.000000      3.329773000000000E-01     -1.781094000000000E+02      5.758057000000000E-01      1.507031000000000E+02
3360000000.000000      3.208160000000000E-01      1.672578000000000E+02      6.459351000000000E-01      1.385078000000000E+02
3380000000.000000      3.040314000000000E-01      1.530625000000000E+02      7.098694000000000E-01      1.272930000000000E+02
3400000000.000000      2.808838000000000E-01      1.384453000000000E+02      7.586365000000000E-01      1.132851000000000E+02
3420000000.000000      2.448273000000000E-01      1.235156000000000E+02      7.505798000000000E-01      9.857031000000000E+01
3440000000.000000      1.909103000000000E-01      1.090234000000000E+02      7.072449000000000E-01      8.577343000000000E+01
3460000000.000000      1.196098000000000E-01      9.858984000000000E+01      6.481934000000000E-01      7.260547000000000E+01
3480000000.000000      4.838181000000000E-02      1.241289000000000E+02      5.518494000000000E-01      5.901953000000000E+01
3500000000.000000      9.489822000000000E-02     -1.734531000000000E+02      4.269257000000000E-01      4.765038000000000E+01
3520000000.000000      1.863556000000000E-01      1.796719000000000E+02      2.805939000000000E-01      4.049414000000000E+01
3540000000.000000      2.652435000000000E-01      1.634844000000000E+02      1.479492000000000E-01      5.810937000000000E+01
3560000000.000000      3.246002000000000E-01      1.465156000000000E+02      1.667938000000000E-01      1.077226000000000E+02
3580000000.000000      3.616028000000000E-01      1.303828000000000E+02      2.939148000000000E-01      1.176484000000000E+02
3600000000.000000      3.770905000000000E-01      1.157734000000000E+02      4.196930000000000E-01      1.107344000000000E+02
3620000000.000000      3.786469000000000E-01      1.029140000000000E+02      5.221863000000000E-01      1.011758000000000E+02
3640000000.000000      3.682098000000000E-01      9.174219000000000E+01      6.231079000000000E-01      9.017969000000000E+01
3660000000.000000      3.522644000000000E-01      8.151562000000000E+01      6.937866000000000E-01      7.590234000000000E+01
3680000000.000000      3.287201000000000E-01      7.219140000000000E+01      7.123108000000000E-01      6.274414000000000E+01
3700000000.000000      2.978058000000000E-01      6.395312000000000E+01      7.215881000000000E-01      5.115234000000000E+01
3720000000.000000      2.531738000000000E-01      5.781640000000000E+01      7.244873000000000E-01      3.695117000000000E+01
3740000000.000000      2.030869000000000E-01      5.871875000000000E+01      6.648865000000000E-01      2.155859000000000E+01
3760000000.000000      1.766663000000000E-01      7.267578000000000E+01      5.665588000000000E-01      7.069580000000000E+00
3780000000.000000      2.107010000000000E-01      8.792578000000000E+01      4.365082000000000E-01     -5.902588000000000E+00
3800000000.000000      2.812500000000000E-01      8.944530000000000E+01      2.834625000000000E-01     -1.347754000000000E+01
3820000000.000000      3.491058000000000E-01      8.293360000000000E+01      1.543350000000000E-01     -5.383301000000000E-01
3840000000.000000      3.995819000000000E-01      7.414844000000000E+01      1.428986000000000E-01      4.756055000000000E+01
3860000000.000000      4.351654000000000E-01      6.542969000000000E+01      2.461243000000000E-01      6.540625000000000E+01
3880000000.000000      4.593811000000000E-01      5.792773000000000E+01      3.753967000000000E-01      6.117382000000000E+01
3900000000.000000      4.889374000000000E-01      5.078125000000000E+01      4.778900000000000E-01      4.778906000000000E+01
3920000000.000000      5.189819000000000E-01      4.308594000000000E+01      5.093994000000000E-01      3.604687000000000E+01
3940000000.000000      5.468140000000000E-01      3.422461000000000E+01      5.406799000000000E-01      2.956347000000000E+01
3960000000.000000      5.600281000000000E-01      2.396875000000000E+01      5.964966000000000E-01      2.003125000000000E+01
3980000000.000000      5.535583000000000E-01      1.353906000000000E+01      5.982056000000000E-01      8.173828000000000E+00
4000000000.000000      5.271606000000000E-01      3.065186000000000E+00      5.801086000000000E-01      1.124695000000000E+00
4020000000.000000      4.839630000000000E-01     -6.898193000000000E+00      5.983582000000000E-01     -6.424316000000000E+00
4040000000.000000      4.249725000000000E-01     -1.586035000000000E+01      5.852661000000000E-01     -1.875977000000000E+01
4060000000.000000      3.493042000000000E-01     -2.201270000000000E+01      5.281067000000000E-01     -2.886425000000000E+01
4080000000.000000      2.748108000000000E-01     -2.221582000000000E+01      4.704285000000000E-01     -3.813086000000000E+01
4100000000.000000      2.281799000000000E-01     -1.174072000000000E+01      3.672180000000000E-01     -4.747851000000000E+01
4120000000.000000      2.406082000000000E-01      1.388367000000000E+00      2.503052000000000E-01     -4.422461000000000E+01
4140000000.000000      2.888489000000000E-01      4.859863000000000E+00      2.031326000000000E-01     -2.018066000000000E+01
4160000000.000000      3.332214000000000E-01      7.525635000000000E-01      2.627258000000000E-01     -1.332092000000000E-01
4180000000.000000      3.613586000000000E-01     -6.089355000000000E+00      3.565216000000000E-01      3.889160000000000E+00
4200000000.000000      3.708496000000000E-01     -1.381299000000000E+01      4.876556000000000E-01      1.362305000000000E+00
4220000000.000000      3.669891000000000E-01     -2.105175000000000E+01      6.407166000000000E-01     -1.104980000000000E+01
4240000000.000000      3.481903000000000E-01     -2.850488000000000E+01      7.207947000000000E-01     -2.771484000000000E+01
4260000000.000000      3.103485000000000E-01     -3.438867000000000E+01      7.431641000000000E-01     -4.176758000000000E+01
4280000000.000000      2.603149000000000E-01     -3.577148000000000E+01      7.512817000000000E-01     -5.567577000000000E+01
4300000000.000000      2.227859000000000E-01     -2.784668000000000E+01      7.163391000000000E-01     -7.062890000000000E+01
4320000000.000000      2.350693000000000E-01     -1.508447000000000E+01      6.335754000000000E-01     -8.516016000000000E+01
4340000000.000000      2.927246000000000E-01     -1.089063000000000E+01      5.173340000000000E-01     -9.783203000000000E+01
4360000000.000000      3.581543000000000E-01     -1.581250000000000E+01      3.815308000000000E-01     -1.070313000000000E+02
4380000000.000000      4.049988000000000E-01     -2.474902000000000E+01      2.505646000000000E-01     -1.081016000000000E+02
4400000000.000000      4.262848000000000E-01     -3.467968000000000E+01      1.537552000000000E-01     -8.558985000000000E+01
4420000000.000000      4.257202000000000E-01     -4.398828000000000E+01      1.868362000000000E-01     -4.576953000000000E+01
4440000000.000000      4.096527000000000E-01     -5.224414000000000E+01      3.093872000000000E-01     -3.611328000000000E+01
4460000000.000000      3.881836000000000E-01     -5.881640000000000E+01      4.515839000000000E-01     -4.326953000000000E+01
4480000000.000000      3.674469000000000E-01     -6.487499000000000E+01      5.593872000000000E-01     -5.534180000000000E+01
4500000000.000000      3.482819000000000E-01     -7.161327000000000E+01      6.420593000000000E-01     -6.673828000000000E+01
4520000000.000000      3.150330000000000E-01     -7.932422000000000E+01      7.143250000000000E-01     -7.964062000000000E+01
4540000000.000000      2.641907000000000E-01     -8.554296000000000E+01      7.404480000000000E-01     -9.422266000000000E+01
4560000000.000000      2.033157000000000E-01     -8.398046000000000E+01      7.289124000000000E-01     -1.075352000000000E+02
4580000000.000000      1.759338000000000E-01     -6.831249000000000E+01      6.918945000000000E-01     -1.213828000000000E+02
4600000000.000000      2.122040000000000E-01     -5.428905000000000E+01      6.061401000000000E-01     -1.346250000000000E+02
4620000000.000000      2.775726000000000E-01     -5.546093000000000E+01      4.983673000000000E-01     -1.451172000000000E+02
4640000000.000000      3.318176000000000E-01     -6.523828000000000E+01      3.800659000000000E-01     -1.535000000000000E+02
4660000000.000000      3.559723000000000E-01     -7.830468000000000E+01      2.465134000000000E-01     -1.518906000000000E+02
4680000000.000000      3.483887000000000E-01     -9.220312000000000E+01      1.787491000000000E-01     -1.237187000000000E+02
4700000000.000000      3.114166000000000E-01     -1.053398000000000E+02      2.469254000000000E-01     -9.671093000000000E+01
4720000000.000000      2.552185000000000E-01     -1.158320000000000E+02      3.654938000000000E-01     -9.538280000000000E+01
4740000000.000000      1.931534000000000E-01     -1.211836000000000E+02      4.727325000000000E-01     -1.016094000000000E+02
4760000000.000000      1.410675000000000E-01     -1.175078000000000E+02      5.789795000000000E-01     -1.103359000000000E+02
4780000000.000000      1.138802000000000E-01     -1.019570000000000E+02      6.664734000000000E-01     -1.228008000000000E+02
4800000000.000000      1.196747000000000E-01     -8.432032000000000E+01      7.178040000000000E-01     -1.356484000000000E+02
4820000000.000000      1.485443000000000E-01     -7.448828000000000E+01      7.347412000000000E-01     -1.488594000000000E+02
4840000000.000000      1.885300000000000E-01     -7.403906000000000E+01      7.184448000000000E-01     -1.617500000000000E+02
4860000000.000000      2.321396000000000E-01     -8.024609000000000E+01      6.849365000000000E-01     -1.741719000000000E+02
4880000000.000000      2.695007000000000E-01     -9.056250000000000E+01      6.173401000000000E-01      1.719375000000000E+02
4900000000.000000      2.951965000000000E-01     -1.040547000000000E+02      4.975128000000000E-01      1.598906000000000E+02
4920000000.000000      3.012085000000000E-01     -1.189453000000000E+02      3.661499000000000E-01      1.536875000000000E+02
4940000000.000000      2.865295000000000E-01     -1.346719000000000E+02      2.523193000000000E-01      1.559062000000000E+02
4960000000.000000      2.564850000000000E-01     -1.496250000000000E+02      1.770172000000000E-01      1.770937000000000E+02
4980000000.000000      2.136612000000000E-01     -1.637500000000000E+02      2.135925000000000E-01     -1.512891000000000E+02
5000000000.000000      1.697006000000000E-01     -1.752187000000000E+02      3.288422000000000E-01     -1.434609000000000E+02
5020000000.000000      1.315536000000000E-01      1.748516000000000E+02      4.595184000000000E-01     -1.495156000000000E+02
5040000000.000000      1.002769000000000E-01      1.649453000000000E+02      5.679321000000000E-01     -1.602578000000000E+02
5060000000.000000      7.215118000000000E-02      1.508359000000000E+02      6.495667000000000E-01     -1.717500000000000E+02
5080000000.000000      4.116631000000000E-02      1.254258000000000E+02      7.180481000000000E-01      1.760781000000000E+02
5100000000.000000      1.506805000000000E-02      3.993945000000000E+01      7.565918000000000E-01      1.623906000000000E+02
5120000000.000000      4.145813000000000E-02     -5.310937000000000E+01      7.527771000000000E-01      1.481328000000000E+02
5140000000.000000      7.398987000000000E-02     -8.812891000000000E+01      7.042542000000000E-01      1.345625000000000E+02
5160000000.000000      9.815979000000000E-02     -1.184180000000000E+02      6.278076000000000E-01      1.222890000000000E+02
5180000000.000000      1.110687000000000E-01     -1.486562000000000E+02      5.341187000000000E-01      1.109766000000000E+02
5200000000.000000      1.128845000000000E-01      1.789844000000000E+02      4.165192000000000E-01      1.011289000000000E+02
5220000000.000000      1.096268000000000E-01      1.433359000000000E+02      2.843170000000000E-01      9.828514000000000E+01
5240000000.000000      1.078682000000000E-01      1.070859000000000E+02      1.843948000000000E-01      1.151641000000000E+02
5260000000.000000      1.114578000000000E-01      7.322656000000000E+01      1.960144000000000E-01      1.492500000000000E+02
5280000000.000000      1.193161000000000E-01      4.605078000000000E+01      2.951813000000000E-01      1.606484000000000E+02
5300000000.000000      1.252594000000000E-01      2.502344000000000E+01      4.095001000000000E-01      1.581406000000000E+02
5320000000.000000      1.318588000000000E-01      8.437500000000000E+00      5.271912000000000E-01      1.505469000000000E+02
5340000000.000000      1.374435000000000E-01     -6.097412000000000E+00      6.369934000000000E-01      1.386016000000000E+02
5360000000.000000      1.428146000000000E-01     -2.195801000000000E+01      7.057800000000000E-01      1.241914000000000E+02
5380000000.000000      1.378250000000000E-01     -3.925586000000000E+01      7.158813000000000E-01      1.108047000000000E+02
5400000000.000000      1.202469000000000E-01     -5.754687000000000E+01      7.171936000000000E-01      9.924217000000000E+01
5420000000.000000      8.575058000000000E-02     -7.453906000000000E+01      7.037354000000000E-01      8.612499000000000E+01
5440000000.000000      3.162384000000000E-02     -8.057032000000000E+01      6.472778000000000E-01      7.183594000000000E+01
5460000000.000000      4.125786000000000E-02      3.888281000000000E+01      5.412903000000000E-01      5.856054000000000E+01
5480000000.000000      1.110115000000000E-01      3.096972000000000E+01      4.133911000000000E-01      4.935741000000000E+01
5500000000.000000      1.729813000000000E-01      1.566357000000000E+01      2.931976000000000E-01      4.732617000000000E+01
5520000000.000000      2.196198000000000E-01      4.298401000000000E-01      1.960678000000000E-01      5.892773000000000E+01
5540000000.000000      2.513580000000000E-01     -1.329785000000000E+01      1.805420000000000E-01      9.070313000000000E+01
5560000000.000000      2.696686000000000E-01     -2.506543000000000E+01      2.613831000000000E-01      1.087383000000000E+02
5580000000.000000      2.821808000000000E-01     -3.513476000000000E+01      3.831024000000000E-01      1.087383000000000E+02
5600000000.000000      2.935028000000000E-01     -4.393750000000000E+01      5.045471000000000E-01      9.975389000000000E+01
5620000000.000000      3.040466000000000E-01     -5.313281000000000E+01      5.932312000000000E-01      8.729687000000000E+01
5640000000.000000      3.080597000000000E-01     -6.273242000000000E+01      6.458740000000000E-01      7.542969000000000E+01
5660000000.000000      2.987061000000000E-01     -7.345312000000000E+01      6.842957000000000E-01      6.397070000000000E+01
5680000000.000000      2.704773000000000E-01     -8.378906000000000E+01      6.971436000000000E-01      5.136913000000000E+01
5700000000.000000      2.233810000000000E-01     -9.112890000000000E+01      6.817322000000000E-01      3.888867000000000E+01
5720000000.000000      1.733246000000000E-01     -9.005859000000000E+01      6.434326000000000E-01      2.623047000000000E+01
5740000000.000000      1.513977000000000E-01     -7.602344000000000E+01      5.664673000000000E-01      1.303760000000000E+01
5760000000.000000      1.793137000000000E-01     -6.412890000000000E+01      4.524384000000000E-01      1.424072000000000E+00
5780000000.000000      2.251358000000000E-01     -6.539844000000000E+01      3.174896000000000E-01     -3.865845000000000E+00
5800000000.000000      2.578430000000000E-01     -7.313671000000000E+01      2.087631000000000E-01      6.701660000000000E+00
5820000000.000000      2.679291000000000E-01     -8.269140000000000E+01      1.886749000000000E-01      3.740234000000000E+01
5840000000.000000      2.588348000000000E-01     -9.095703000000000E+01      2.697754000000000E-01      5.404491000000000E+01
5860000000.000000      2.412949000000000E-01     -9.673437000000000E+01      3.705902000000000E-01      5.428905000000000E+01
5880000000.000000      2.261887000000000E-01     -9.983202000000000E+01      4.773407000000000E-01      4.876953000000000E+01
5900000000.000000      2.188110000000000E-01     -1.021680000000000E+02      5.933533000000000E-01      3.867969000000000E+01
5920000000.000000      2.110596000000000E-01     -1.049023000000000E+02      6.707458000000000E-01      2.470800000000000E+01
5940000000.000000      1.977539000000000E-01     -1.068203000000000E+02      7.014771000000000E-01      1.164795000000000E+01
5960000000.000000      1.799088000000000E-01     -1.054805000000000E+02      7.140808000000000E-01     -1.138489000000000E+00
5980000000.000000      1.675339000000000E-01     -9.791796000000000E+01      6.910400000000000E-01     -1.508057000000000E+01
6000000000.000000      1.830139000000000E-01     -8.860155000000000E+01      6.289368000000000E-01     -2.879004000000000E+01
6020000000.000000      2.170258000000000E-01     -8.684374000000000E+01      5.310974000000000E-01     -4.143359000000000E+01
6040000000.000000      2.529449000000000E-01     -9.178905000000000E+01      4.013214000000000E-01     -4.957617000000000E+01
6060000000.000000      2.770538000000000E-01     -1.007539000000000E+02      2.859344000000000E-01     -4.957812000000000E+01
6080000000.000000      2.883911000000000E-01     -1.109727000000000E+02      2.057495000000000E-01     -3.594336000000000E+01
