! Network Analyzer HP8722D
! Hewlett-Packard
! Data name: Linha & Wilkinson+CNT
! Saver's name: Rodrigo Anjos
! Comments: Teste da utilização de aquisição
continua pelo VNA HP8722D
! Time and date: 29/9/2025 11:52
!              Frequency                     S11                                                   S21                                                   S12                                                   S22
# HZ  S  MA R 50
3000000000.000000      4.228516000000000E-01     -5.651953000000000E+01      2.096710000000000E-01     -1.314844000000000E+02
3020000000.000000      4.473267000000000E-01     -7.058594000000000E+01      3.521729000000000E-01     -1.351484000000000E+02
3040000000.000000      4.523926000000000E-01     -8.343750000000000E+01      4.698029000000000E-01     -1.450703000000000E+02
3060000000.000000      4.458771000000000E-01     -9.560156000000000E+01      5.722961000000000E-01     -1.555312000000000E+02
3080000000.000000      4.304810000000000E-01     -1.066875000000000E+02      6.736755000000000E-01     -1.685390000000000E+02
3100000000.000000      4.108887000000000E-01     -1.178320000000000E+02      7.242432000000000E-01      1.766172000000000E+02
3120000000.000000      3.819275000000000E-01     -1.296875000000000E+02      7.319031000000000E-01      1.634140000000000E+02
3140000000.000000      3.412170000000000E-01     -1.425937000000000E+02      7.233887000000000E-01      1.504844000000000E+02
3160000000.000000      2.810059000000000E-01     -1.563359000000000E+02      6.831970000000000E-01      1.369844000000000E+02
3180000000.000000      2.016296000000000E-01     -1.685469000000000E+02      6.113281000000000E-01      1.245078000000000E+02
3200000000.000000      1.142883000000000E-01     -1.678828000000000E+02      5.178528000000000E-01      1.114961000000000E+02
3220000000.000000      8.464813000000000E-02     -1.240508000000000E+02      3.838654000000000E-01      1.007813000000000E+02
3240000000.000000      1.564026000000000E-01     -1.058437000000000E+02      2.450256000000000E-01      9.995703000000000E+01
3260000000.000000      2.350464000000000E-01     -1.158242000000000E+02      1.474686000000000E-01      1.262734000000000E+02
3280000000.000000      2.925110000000000E-01     -1.312891000000000E+02      2.059631000000000E-01      1.653672000000000E+02
3300000000.000000      3.251953000000000E-01     -1.474062000000000E+02      3.322906000000000E-01      1.693672000000000E+02
3320000000.000000      3.366394000000000E-01     -1.630625000000000E+02      4.648743000000000E-01      1.623203000000000E+02
3340000000.000000      3.327484000000000E-01     -1.782656000000000E+02      5.759888000000000E-01      1.502109000000000E+02
3360000000.000000      3.200073000000000E-01      1.672031000000000E+02      6.480713000000000E-01      1.381641000000000E+02
3380000000.000000      3.026733000000000E-01      1.530313000000000E+02      7.087402000000000E-01      1.267422000000000E+02
3400000000.000000      2.787781000000000E-01      1.385234000000000E+02      7.570801000000000E-01      1.130391000000000E+02
3420000000.000000      2.425003000000000E-01      1.237422000000000E+02      7.484741000000000E-01      9.825390000000000E+01
3440000000.000000      1.884766000000000E-01      1.093281000000000E+02      7.026062000000000E-01      8.530077000000000E+01
3460000000.000000      1.169662000000000E-01      9.947655000000000E+01      6.440430000000000E-01      7.220703000000000E+01
3480000000.000000      4.876328000000000E-02      1.276601000000000E+02      5.466309000000000E-01      5.881640000000000E+01
3500000000.000000      9.779358000000000E-02     -1.738125000000000E+02      4.223633000000000E-01      4.752539000000000E+01
3520000000.000000      1.892242000000000E-01      1.791797000000000E+02      2.767792000000000E-01      4.066211000000000E+01
3540000000.000000      2.671967000000000E-01      1.629766000000000E+02      1.469955000000000E-01      5.916406000000000E+01
3560000000.000000      3.251190000000000E-01      1.461250000000000E+02      1.688995000000000E-01      1.080078000000000E+02
3580000000.000000      3.607330000000000E-01      1.300859000000000E+02      2.961426000000000E-01      1.173750000000000E+02
3600000000.000000      3.760223000000000E-01      1.154531000000000E+02      4.208221000000000E-01      1.104414000000000E+02
3620000000.000000      3.768158000000000E-01      1.026953000000000E+02      5.225220000000000E-01      1.008867000000000E+02
3640000000.000000      3.672791000000000E-01      9.146484000000000E+01      6.229858000000000E-01      8.987890000000000E+01
3660000000.000000      3.501282000000000E-01      8.131639000000000E+01      6.942444000000000E-01      7.553124000000000E+01
3680000000.000000      3.270416000000000E-01      7.198828000000000E+01      7.115173000000000E-01      6.240039000000000E+01
3700000000.000000      2.957611000000000E-01      6.369141000000000E+01      7.207947000000000E-01      5.083008000000000E+01
3720000000.000000      2.504120000000000E-01      5.767578000000000E+01      7.235718000000000E-01      3.649219000000000E+01
3740000000.000000      2.006912000000000E-01      5.866796000000000E+01      6.622620000000000E-01      2.114258000000000E+01
3760000000.000000      1.754227000000000E-01      7.310156000000000E+01      5.644836000000000E-01      6.948730000000000E+00
3780000000.000000      2.108002000000000E-01      8.789454000000000E+01      4.332123000000000E-01     -6.241699000000000E+00
3800000000.000000      2.823029000000000E-01      8.913671000000000E+01      2.789612000000000E-01     -1.335840000000000E+01
3820000000.000000      3.494720000000000E-01      8.257421000000000E+01      1.525116000000000E-01      6.303406000000000E-01
3840000000.000000      3.987732000000000E-01      7.379296000000000E+01      1.454468000000000E-01      4.846484000000000E+01
3860000000.000000      4.344025000000000E-01      6.516015000000000E+01      2.486572000000000E-01      6.524219000000000E+01
3880000000.000000      4.582825000000000E-01      5.753124000000000E+01      3.781281000000000E-01      6.078906000000000E+01
3900000000.000000      4.884186000000000E-01      5.050195000000000E+01      4.788361000000000E-01      4.750781000000000E+01
3920000000.000000      5.176697000000000E-01      4.279297000000000E+01      5.097046000000000E-01      3.577929000000000E+01
3940000000.000000      5.462952000000000E-01      3.369336000000000E+01      5.411072000000000E-01      2.914258000000000E+01
3960000000.000000      5.580139000000000E-01      2.347363000000000E+01      5.960388000000000E-01      1.985449000000000E+01
3980000000.000000      5.519104000000000E-01      1.289648000000000E+01      5.969238000000000E-01      8.052734000000000E+00
4000000000.000000      5.243835000000000E-01      2.591309000000000E+00      5.797424000000000E-01      1.046448000000000E+00
4020000000.000000      4.813232000000000E-01     -7.450195000000000E+00      5.975952000000000E-01     -6.767578000000000E+00
4040000000.000000      4.219055000000000E-01     -1.630273000000000E+01      5.837708000000000E-01     -1.907031000000000E+01
4060000000.000000      3.457489000000000E-01     -2.235938000000000E+01      5.263977000000000E-01     -2.921484000000000E+01
4080000000.000000      2.715912000000000E-01     -2.210254000000000E+01      4.655304000000000E-01     -3.833008000000000E+01
4100000000.000000      2.266541000000000E-01     -1.142480000000000E+01      3.642731000000000E-01     -4.730859000000000E+01
4120000000.000000      2.415848000000000E-01      1.538086000000000E+00      2.478485000000000E-01     -4.372656000000000E+01
4140000000.000000      2.903442000000000E-01      4.711670000000000E+00      2.042465000000000E-01     -1.931836000000000E+01
4160000000.000000      3.340607000000000E-01      4.188538000000000E-01      2.661743000000000E-01     -1.318359000000000E-01
4180000000.000000      3.614349000000000E-01     -6.375000000000000E+00      3.596649000000000E-01      3.688599000000000E+00
4200000000.000000      3.704834000000000E-01     -1.414795000000000E+01      4.890594000000000E-01      1.007996000000000E+00
4220000000.000000      3.660889000000000E-01     -2.133008000000000E+01      6.427307000000000E-01     -1.138330000000000E+01
4240000000.000000      3.464966000000000E-01     -2.894922000000000E+01      7.218018000000000E-01     -2.814062000000000E+01
4260000000.000000      3.081512000000000E-01     -3.464062000000000E+01      7.435608000000000E-01     -4.204102000000000E+01
4280000000.000000      2.581177000000000E-01     -3.572070000000000E+01      7.497253000000000E-01     -5.597656000000000E+01
4300000000.000000      2.227707000000000E-01     -2.735644000000000E+01      7.110901000000000E-01     -7.099999000000000E+01
4320000000.000000      2.378387000000000E-01     -1.477979000000000E+01      6.286926000000000E-01     -8.536718000000000E+01
4340000000.000000      2.964783000000000E-01     -1.110352000000000E+01      5.118713000000000E-01     -9.808983000000000E+01
4360000000.000000      3.608551000000000E-01     -1.620019000000000E+01      3.767700000000000E-01     -1.066992000000000E+02
4380000000.000000      4.067688000000000E-01     -2.516308000000000E+01      2.468796000000000E-01     -1.076367000000000E+02
4400000000.000000      4.263611000000000E-01     -3.510351000000000E+01      1.535110000000000E-01     -8.396484000000000E+01
4420000000.000000      4.249420000000000E-01     -4.440625000000000E+01      1.899414000000000E-01     -4.526953000000000E+01
4440000000.000000      4.081421000000000E-01     -5.249804000000000E+01      3.132172000000000E-01     -3.614648000000000E+01
4460000000.000000      3.896027000000000E-01     -5.876953000000000E+01      4.547577000000000E-01     -4.357812000000000E+01
4480000000.000000      3.684845000000000E-01     -6.565624000000000E+01      5.628662000000000E-01     -5.571484000000000E+01
4500000000.000000      3.477173000000000E-01     -7.197266000000000E+01      6.446533000000000E-01     -6.712109000000000E+01
4520000000.000000      3.132324000000000E-01     -7.964844000000000E+01      7.160339000000000E-01     -8.011328000000000E+01
4540000000.000000      2.608490000000000E-01     -8.564844000000000E+01      7.416992000000000E-01     -9.466406000000000E+01
4560000000.000000      2.004852000000000E-01     -8.352343000000000E+01      7.272034000000000E-01     -1.079375000000000E+02
4580000000.000000      1.756134000000000E-01     -6.735156000000000E+01      6.885376000000000E-01     -1.216640000000000E+02
4600000000.000000      2.143555000000000E-01     -5.384766000000000E+01      6.012878000000000E-01     -1.347188000000000E+02
4620000000.000000      2.793579000000000E-01     -5.552539000000000E+01      4.942932000000000E-01     -1.451250000000000E+02
4640000000.000000      3.317871000000000E-01     -6.541016000000000E+01      3.770905000000000E-01     -1.530156000000000E+02
4660000000.000000      3.541260000000000E-01     -7.848827000000000E+01      2.446442000000000E-01     -1.509219000000000E+02
4680000000.000000      3.445587000000000E-01     -9.220703000000000E+01      1.817322000000000E-01     -1.223281000000000E+02
4700000000.000000      3.069153000000000E-01     -1.050000000000000E+02      2.532959000000000E-01     -9.674608000000000E+01
4720000000.000000      2.503967000000000E-01     -1.151445000000000E+02      3.714294000000000E-01     -9.598436000000000E+01
4740000000.000000      1.890182000000000E-01     -1.195391000000000E+02      4.763336000000000E-01     -1.022969000000000E+02
4760000000.000000      1.388474000000000E-01     -1.143867000000000E+02      5.821228000000000E-01     -1.110117000000000E+02
4780000000.000000      1.167488000000000E-01     -9.820313000000000E+01      6.672974000000000E-01     -1.233086000000000E+02
4800000000.000000      1.257248000000000E-01     -8.200781000000000E+01      7.160034000000000E-01     -1.361875000000000E+02
4820000000.000000      1.554489000000000E-01     -7.389453000000000E+01      7.344055000000000E-01     -1.492422000000000E+02
4840000000.000000      1.967773000000000E-01     -7.423046000000000E+01      7.176819000000000E-01     -1.620703000000000E+02
4860000000.000000      2.394943000000000E-01     -8.082422000000000E+01      6.824036000000000E-01     -1.744531000000000E+02
4880000000.000000      2.755127000000000E-01     -9.117968000000000E+01      6.145935000000000E-01      1.717031000000000E+02
4900000000.000000      2.995148000000000E-01     -1.043789000000000E+02      4.932098000000000E-01      1.595859000000000E+02
4920000000.000000      3.035126000000000E-01     -1.193476000000000E+02      3.636169000000000E-01      1.533594000000000E+02
4940000000.000000      2.876740000000000E-01     -1.347734000000000E+02      2.494354000000000E-01      1.561875000000000E+02
4960000000.000000      2.559967000000000E-01     -1.495937000000000E+02      1.770020000000000E-01      1.779063000000000E+02
4980000000.000000      2.124481000000000E-01     -1.633125000000000E+02      2.161179000000000E-01     -1.509844000000000E+02
5000000000.000000      1.679077000000000E-01     -1.745234000000000E+02      3.316650000000000E-01     -1.436641000000000E+02
5020000000.000000      1.295624000000000E-01      1.760469000000000E+02      4.617615000000000E-01     -1.499609000000000E+02
5040000000.000000      9.902191000000000E-02      1.666328000000000E+02      5.702820000000000E-01     -1.607265000000000E+02
5060000000.000000      7.023621000000000E-02      1.526562000000000E+02      6.508484000000000E-01     -1.722344000000000E+02
5080000000.000000      3.893280000000000E-02      1.280469000000000E+02      7.174072000000000E-01      1.756250000000000E+02
5100000000.000000      1.290083000000000E-02      3.571094000000000E+01      7.553406000000000E-01      1.618906000000000E+02
5120000000.000000      4.203033000000000E-02     -5.636132000000000E+01      7.514954000000000E-01      1.476094000000000E+02
5140000000.000000      7.449722000000000E-02     -8.940233000000000E+01      7.007751000000000E-01      1.341328000000000E+02
5160000000.000000      9.846115000000000E-02     -1.195078000000000E+02      6.260071000000000E-01      1.218672000000000E+02
5180000000.000000      1.102448000000000E-01     -1.493281000000000E+02      5.306396000000000E-01      1.105508000000000E+02
5200000000.000000      1.119804000000000E-01      1.784844000000000E+02      4.122314000000000E-01      1.010390000000000E+02
5220000000.000000      1.081123000000000E-01      1.423047000000000E+02      2.798615000000000E-01      9.844921000000000E+01
5240000000.000000      1.063652000000000E-01      1.053437000000000E+02      1.824646000000000E-01      1.162109000000000E+02
5260000000.000000      1.109924000000000E-01      7.137500000000000E+01      1.983719000000000E-01      1.500391000000000E+02
5280000000.000000      1.183472000000000E-01      4.457227000000000E+01      2.994080000000000E-01      1.607422000000000E+02
5300000000.000000      1.255722000000000E-01      2.367676000000000E+01      4.123840000000000E-01      1.579297000000000E+02
5320000000.000000      1.317825000000000E-01      7.326416000000000E+00      5.292358000000000E-01      1.501719000000000E+02
5340000000.000000      1.382980000000000E-01     -6.880371000000000E+00      6.400757000000000E-01      1.381797000000000E+02
5360000000.000000      1.431351000000000E-01     -2.241504000000000E+01      7.061462000000000E-01      1.238203000000000E+02
5380000000.000000      1.391525000000000E-01     -3.962891000000000E+01      7.167053000000000E-01      1.104180000000000E+02
5400000000.000000      1.206818000000000E-01     -5.753711000000000E+01      7.161255000000000E-01      9.869530000000000E+01
5420000000.000000      8.550644000000000E-02     -7.375390000000000E+01      7.024231000000000E-01      8.567186000000000E+01
5440000000.000000      3.186226000000000E-02     -7.668359000000000E+01      6.441345000000000E-01      7.135547000000000E+01
5460000000.000000      4.274750000000000E-02      3.566797000000000E+01      5.364380000000000E-01      5.840625000000000E+01
5480000000.000000      1.125221000000000E-01      2.929199000000000E+01      4.080811000000000E-01      4.946289000000000E+01
5500000000.000000      1.745529000000000E-01      1.426416000000000E+01      2.897949000000000E-01      4.763672000000000E+01
5520000000.000000      2.207718000000000E-01     -5.548096000000000E-01      1.937485000000000E-01      5.999218000000000E+01
5540000000.000000      2.524414000000000E-01     -1.426758000000000E+01      1.828156000000000E-01      9.171484000000000E+01
5560000000.000000      2.713165000000000E-01     -2.600879000000000E+01      2.655334000000000E-01      1.087734000000000E+02
5580000000.000000      2.842865000000000E-01     -3.567773000000000E+01      3.873444000000000E-01      1.083672000000000E+02
5600000000.000000      2.953491000000000E-01     -4.428320000000000E+01      5.081787000000000E-01      9.942577000000000E+01
5620000000.000000      3.057404000000000E-01     -5.337304000000000E+01      5.960693000000000E-01      8.668749000000000E+01
5640000000.000000      3.098602000000000E-01     -6.310156000000000E+01      6.466370000000000E-01      7.498828000000000E+01
5660000000.000000      3.005371000000000E-01     -7.370312000000000E+01      6.823730000000000E-01      6.379492000000000E+01
5680000000.000000      2.712097000000000E-01     -8.399609000000000E+01      6.974792000000000E-01      5.087891000000000E+01
5700000000.000000      2.244263000000000E-01     -9.123047000000000E+01      6.797180000000000E-01      3.852930000000000E+01
5720000000.000000      1.740875000000000E-01     -8.968359000000000E+01      6.402588000000000E-01      2.573633000000000E+01
5740000000.000000      1.537247000000000E-01     -7.564453000000000E+01      5.598145000000000E-01      1.250342000000000E+01
5760000000.000000      1.819382000000000E-01     -6.428905000000000E+01      4.457245000000000E-01      1.172791000000000E+00
5780000000.000000      2.280197000000000E-01     -6.575781000000000E+01      3.124084000000000E-01     -3.533569000000000E+00
5800000000.000000      2.589569000000000E-01     -7.348827000000000E+01      2.057266000000000E-01      8.000488000000000E+00
5820000000.000000      2.680817000000000E-01     -8.284374000000000E+01      1.911316000000000E-01      3.835938000000000E+01
5840000000.000000      2.589111000000000E-01     -9.118750000000000E+01      2.737122000000000E-01      5.418163000000000E+01
5860000000.000000      2.414246000000000E-01     -9.651562000000000E+01      3.743744000000000E-01      5.397070000000000E+01
5880000000.000000      2.275772000000000E-01     -9.978125000000000E+01      4.800110000000000E-01      4.848633000000000E+01
5900000000.000000      2.205200000000000E-01     -1.019922000000000E+02      5.959778000000000E-01      3.831445000000000E+01
5920000000.000000      2.128983000000000E-01     -1.048633000000000E+02      6.709290000000000E-01      2.424511000000000E+01
5940000000.000000      1.983261000000000E-01     -1.068164000000000E+02      7.010498000000000E-01      1.099854000000000E+01
5960000000.000000      1.799927000000000E-01     -1.051328000000000E+02      7.110596000000000E-01     -1.860840000000000E+00
5980000000.000000      1.679230000000000E-01     -9.758984000000000E+01      6.876831000000000E-01     -1.555273000000000E+01
6000000000.000000      1.841354000000000E-01     -8.855078000000000E+01      6.249390000000000E-01     -2.909180000000000E+01
6020000000.000000      2.192612000000000E-01     -8.687500000000000E+01      5.232239000000000E-01     -4.184960000000000E+01
6040000000.000000      2.545319000000000E-01     -9.214453000000000E+01      3.961334000000000E-01     -4.974609000000000E+01
6060000000.000000      2.784119000000000E-01     -1.009922000000000E+02      2.824097000000000E-01     -4.912695000000000E+01
6080000000.000000      2.877197000000000E-01     -1.111367000000000E+02      2.044754000000000E-01     -3.476953000000000E+01
