! Network Analyzer HP8722D
! Hewlett-Packard
! Data name: Linha & Wilkinson+CNT
! Saver's name: Rodrigo Anjos
! Comments: Teste da utilização de aquisição
continua pelo VNA HP8722D
! Time and date: 29/9/2025 12:18
!              Frequency                     S11                                                   S21                                                   S12                                                   S22
# HZ  S  MA R 50
3000000000.000000      4.226837000000000E-01     -5.615820000000000E+01      2.081146000000000E-01     -1.313750000000000E+02
3020000000.000000      4.490356000000000E-01     -7.025391000000000E+01      3.505249000000000E-01     -1.348984000000000E+02
3040000000.000000      4.551086000000000E-01     -8.321484000000000E+01      4.687500000000000E-01     -1.448516000000000E+02
3060000000.000000      4.466095000000000E-01     -9.523046000000000E+01      5.709839000000000E-01     -1.551563000000000E+02
3080000000.000000      4.308319000000000E-01     -1.064453000000000E+02      6.715393000000000E-01     -1.682969000000000E+02
3100000000.000000      4.111786000000000E-01     -1.175625000000000E+02      7.244263000000000E-01      1.770313000000000E+02
3120000000.000000      3.817444000000000E-01     -1.294609000000000E+02      7.314758000000000E-01      1.635078000000000E+02
3140000000.000000      3.422089000000000E-01     -1.422656000000000E+02      7.241821000000000E-01      1.505625000000000E+02
3160000000.000000      2.819824000000000E-01     -1.561875000000000E+02      6.847229000000000E-01      1.371094000000000E+02
3180000000.000000      2.022552000000000E-01     -1.684219000000000E+02      6.127014000000000E-01      1.247344000000000E+02
3200000000.000000      1.148796000000000E-01     -1.689766000000000E+02      5.178223000000000E-01      1.116836000000000E+02
3220000000.000000      8.352661000000000E-02     -1.246133000000000E+02      3.851166000000000E-01      1.008828000000000E+02
3240000000.000000      1.536942000000000E-01     -1.055430000000000E+02      2.464371000000000E-01      9.976952000000000E+01
3260000000.000000      2.329483000000000E-01     -1.156602000000000E+02      1.473389000000000E-01      1.258359000000000E+02
3280000000.000000      2.910004000000000E-01     -1.308984000000000E+02      2.039490000000000E-01      1.655391000000000E+02
3300000000.000000      3.237610000000000E-01     -1.471094000000000E+02      3.308563000000000E-01      1.697891000000000E+02
3320000000.000000      3.356934000000000E-01     -1.628515000000000E+02      4.635773000000000E-01      1.627422000000000E+02
3340000000.000000      3.319550000000000E-01     -1.780625000000000E+02      5.756226000000000E-01      1.505938000000000E+02
3360000000.000000      3.195190000000000E-01      1.673359000000000E+02      6.466064000000000E-01      1.386250000000000E+02
3380000000.000000      3.021240000000000E-01      1.530781000000000E+02      7.093506000000000E-01      1.270976000000000E+02
3400000000.000000      2.788696000000000E-01      1.384687000000000E+02      7.576599000000000E-01      1.133281000000000E+02
3420000000.000000      2.429123000000000E-01      1.235781000000000E+02      7.497864000000000E-01      9.849218000000000E+01
3440000000.000000      1.887054000000000E-01      1.087578000000000E+02      7.061462000000000E-01      8.559374000000000E+01
3460000000.000000      1.180000000000000E-01      9.840624000000000E+01      6.462097000000000E-01      7.255077000000000E+01
3480000000.000000      4.743385000000000E-02      1.254180000000000E+02      5.504150000000000E-01      5.917578000000000E+01
3500000000.000000      9.534454000000000E-02     -1.728750000000000E+02      4.238434000000000E-01      4.766406000000000E+01
3520000000.000000      1.867218000000000E-01      1.796797000000000E+02      2.783356000000000E-01      4.067773000000000E+01
3540000000.000000      2.651672000000000E-01      1.634844000000000E+02      1.474228000000000E-01      5.870117000000000E+01
3560000000.000000      3.237610000000000E-01      1.464844000000000E+02      1.676407000000000E-01      1.078867000000000E+02
3580000000.000000      3.601227000000000E-01      1.303906000000000E+02      2.951508000000000E-01      1.176250000000000E+02
3600000000.000000      3.757935000000000E-01      1.156133000000000E+02      4.207306000000000E-01      1.107109000000000E+02
3620000000.000000      3.771057000000000E-01      1.029531000000000E+02      5.229797000000000E-01      1.012500000000000E+02
3640000000.000000      3.674927000000000E-01      9.166016000000000E+01      6.241760000000000E-01      9.009375000000000E+01
3660000000.000000      3.504944000000000E-01      8.145311000000000E+01      6.946716000000000E-01      7.585155000000000E+01
3680000000.000000      3.273315000000000E-01      7.210938000000000E+01      7.129517000000000E-01      6.265234000000000E+01
3700000000.000000      2.962952000000000E-01      6.380468000000000E+01      7.215576000000000E-01      5.103125000000000E+01
3720000000.000000      2.522125000000000E-01      5.760351000000000E+01      7.233887000000000E-01      3.684375000000000E+01
3740000000.000000      2.018509000000000E-01      5.850390000000000E+01      6.639099000000000E-01      2.152539000000000E+01
3760000000.000000      1.751938000000000E-01      7.260937000000000E+01      5.662537000000000E-01      7.169922000000000E+00
3780000000.000000      2.101593000000000E-01      8.783203000000000E+01      4.353943000000000E-01     -5.918945000000000E+00
3800000000.000000      2.807159000000000E-01      8.928905000000000E+01      2.819672000000000E-01     -1.337891000000000E+01
3820000000.000000      3.484039000000000E-01      8.278124000000000E+01      1.535110000000000E-01     -5.218506000000000E-02
3840000000.000000      3.985291000000000E-01      7.398438000000000E+01      1.439590000000000E-01      4.807422000000000E+01
3860000000.000000      4.336090000000000E-01      6.535937000000000E+01      2.469635000000000E-01      6.528125000000000E+01
3880000000.000000      4.589691000000000E-01      5.777538000000000E+01      3.766937000000000E-01      6.123047000000000E+01
3900000000.000000      4.873810000000000E-01      5.060156000000000E+01      4.776306000000000E-01      4.781640000000000E+01
3920000000.000000      5.195313000000000E-01      4.289063000000000E+01      5.094910000000000E-01      3.615429000000000E+01
3940000000.000000      5.474243000000000E-01      3.400391000000000E+01      5.398560000000000E-01      2.939941000000000E+01
3960000000.000000      5.584717000000000E-01      2.375293000000000E+01      5.959473000000000E-01      2.014160000000000E+01
3980000000.000000      5.518799000000000E-01      1.325879000000000E+01      5.980530000000000E-01      8.169434000000000E+00
4000000000.000000      5.256348000000000E-01      2.694336000000000E+00      5.807190000000000E-01      1.186523000000000E+00
4020000000.000000      4.830170000000000E-01     -7.170166000000000E+00      5.979614000000000E-01     -6.472412000000000E+00
4040000000.000000      4.239655000000000E-01     -1.607910000000000E+01      5.851746000000000E-01     -1.875977000000000E+01
4060000000.000000      3.487854000000000E-01     -2.213379000000000E+01      5.276794000000000E-01     -2.898144000000000E+01
4080000000.000000      2.741547000000000E-01     -2.231640000000000E+01      4.682159000000000E-01     -3.825586000000000E+01
4100000000.000000      2.278900000000000E-01     -1.195215000000000E+01      3.664703000000000E-01     -4.747656000000000E+01
4120000000.000000      2.411499000000000E-01      1.366394000000000E+00      2.491302000000000E-01     -4.396093000000000E+01
4140000000.000000      2.893524000000000E-01      4.678711000000000E+00      2.029266000000000E-01     -1.977734000000000E+01
4160000000.000000      3.333588000000000E-01      5.506897000000000E-01      2.646179000000000E-01     -1.373291000000000E-02
4180000000.000000      3.618011000000000E-01     -6.346191000000000E+00      3.575592000000000E-01      3.912476000000000E+00
4200000000.000000      3.709106000000000E-01     -1.408887000000000E+01      4.872437000000000E-01      1.499634000000000E+00
4220000000.000000      3.671265000000000E-01     -2.132910000000000E+01      6.413574000000000E-01     -1.106494000000000E+01
4240000000.000000      3.476105000000000E-01     -2.880273000000000E+01      7.220764000000000E-01     -2.766699000000000E+01
4260000000.000000      3.095245000000000E-01     -3.459375000000000E+01      7.428284000000000E-01     -4.185742000000000E+01
4280000000.000000      2.594910000000000E-01     -3.593164000000000E+01      7.501831000000000E-01     -5.559375000000000E+01
4300000000.000000      2.232742000000000E-01     -2.786914000000000E+01      7.135315000000000E-01     -7.066015000000000E+01
4320000000.000000      2.364655000000000E-01     -1.498682000000000E+01      6.316223000000000E-01     -8.510937000000000E+01
4340000000.000000      2.942963000000000E-01     -1.103857000000000E+01      5.149841000000000E-01     -9.778124000000000E+01
4360000000.000000      3.594666000000000E-01     -1.600586000000000E+01      3.798218000000000E-01     -1.068086000000000E+02
4380000000.000000      4.054565000000000E-01     -2.490918000000000E+01      2.492218000000000E-01     -1.078398000000000E+02
4400000000.000000      4.268799000000000E-01     -3.488281000000000E+01      1.538620000000000E-01     -8.489843000000000E+01
4420000000.000000      4.250336000000000E-01     -4.422852000000000E+01      1.882172000000000E-01     -4.541016000000000E+01
4440000000.000000      4.091492000000000E-01     -5.232031000000000E+01      3.112488000000000E-01     -3.609961000000000E+01
4460000000.000000      3.890533000000000E-01     -5.877148000000000E+01      4.537506000000000E-01     -4.329297000000000E+01
4480000000.000000      3.685150000000000E-01     -6.508984000000000E+01      5.616760000000000E-01     -5.530663000000000E+01
4500000000.000000      3.479004000000000E-01     -7.187890000000000E+01      6.427612000000000E-01     -6.687109000000000E+01
4520000000.000000      3.146515000000000E-01     -7.935156000000000E+01      7.163696000000000E-01     -7.978125000000000E+01
4540000000.000000      2.634735000000000E-01     -8.527344000000000E+01      7.417297000000000E-01     -9.435156000000000E+01
4560000000.000000      2.036133000000000E-01     -8.355078000000000E+01      7.289124000000000E-01     -1.075234000000000E+02
4580000000.000000      1.770401000000000E-01     -6.792578000000000E+01      6.906128000000000E-01     -1.213945000000000E+02
4600000000.000000      2.148438000000000E-01     -5.430859000000000E+01      6.044922000000000E-01     -1.346094000000000E+02
4620000000.000000      2.793884000000000E-01     -5.567773000000000E+01      4.973145000000000E-01     -1.450156000000000E+02
4640000000.000000      3.330231000000000E-01     -6.541406000000000E+01      3.781586000000000E-01     -1.531172000000000E+02
4660000000.000000      3.572388000000000E-01     -7.859765000000000E+01      2.456741000000000E-01     -1.514531000000000E+02
4680000000.000000      3.489685000000000E-01     -9.229687000000000E+01      1.792221000000000E-01     -1.232344000000000E+02
4700000000.000000      3.113861000000000E-01     -1.053437000000000E+02      2.482986000000000E-01     -9.644920000000000E+01
4720000000.000000      2.548981000000000E-01     -1.157891000000000E+02      3.666534000000000E-01     -9.528906000000000E+01
4740000000.000000      1.928482000000000E-01     -1.209101000000000E+02      4.741974000000000E-01     -1.016836000000000E+02
4760000000.000000      1.409912000000000E-01     -1.168281000000000E+02      5.808105000000000E-01     -1.104648000000000E+02
4780000000.000000      1.155167000000000E-01     -1.010625000000000E+02      6.668396000000000E-01     -1.227695000000000E+02
4800000000.000000      1.214409000000000E-01     -8.376953000000000E+01      7.155151000000000E-01     -1.356719000000000E+02
4820000000.000000      1.509552000000000E-01     -7.471484000000000E+01      7.330933000000000E-01     -1.488906000000000E+02
4840000000.000000      1.912308000000000E-01     -7.429296000000000E+01      7.178650000000000E-01     -1.616875000000000E+02
4860000000.000000      2.345200000000000E-01     -8.078905000000000E+01      6.831665000000000E-01     -1.741172000000000E+02
4880000000.000000      2.710724000000000E-01     -9.090235000000000E+01      6.171265000000000E-01      1.720469000000000E+02
4900000000.000000      2.964935000000000E-01     -1.041953000000000E+02      4.943390000000000E-01      1.599453000000000E+02
4920000000.000000      3.017578000000000E-01     -1.191875000000000E+02      3.641510000000000E-01      1.536016000000000E+02
4940000000.000000      2.866516000000000E-01     -1.346875000000000E+02      2.506714000000000E-01      1.563203000000000E+02
4960000000.000000      2.562256000000000E-01     -1.496172000000000E+02      1.773224000000000E-01      1.776875000000000E+02
4980000000.000000      2.129440000000000E-01     -1.635313000000000E+02      2.153549000000000E-01     -1.508281000000000E+02
5000000000.000000      1.685715000000000E-01     -1.750391000000000E+02      3.311615000000000E-01     -1.434609000000000E+02
5020000000.000000      1.306992000000000E-01      1.755703000000000E+02      4.618683000000000E-01     -1.495859000000000E+02
5040000000.000000      9.951782000000000E-02      1.658203000000000E+02      5.697327000000000E-01     -1.604375000000000E+02
5060000000.000000      7.076263000000000E-02      1.517500000000000E+02      6.506348000000000E-01     -1.717656000000000E+02
5080000000.000000      3.972816000000000E-02      1.267383000000000E+02      7.186584000000000E-01      1.760469000000000E+02
5100000000.000000      1.369190000000000E-02      3.865234000000000E+01      7.581787000000000E-01      1.623359000000000E+02
5120000000.000000      4.179192000000000E-02     -5.409570000000000E+01      7.537231000000000E-01      1.480781000000000E+02
5140000000.000000      7.423019000000000E-02     -8.845312000000000E+01      7.028809000000000E-01      1.343125000000000E+02
5160000000.000000      9.758759000000000E-02     -1.185117000000000E+02      6.291504000000000E-01      1.221328000000000E+02
5180000000.000000      1.102982000000000E-01     -1.488047000000000E+02      5.320129000000000E-01      1.108945000000000E+02
5200000000.000000      1.120834000000000E-01      1.789844000000000E+02      4.154968000000000E-01      1.013008000000000E+02
5220000000.000000      1.079025000000000E-01      1.426797000000000E+02      2.832031000000000E-01      9.859375000000000E+01
5240000000.000000      1.066170000000000E-01      1.061758000000000E+02      1.839676000000000E-01      1.155742000000000E+02
5260000000.000000      1.109886000000000E-01      7.223437000000000E+01      1.972351000000000E-01      1.495547000000000E+02
5280000000.000000      1.184807000000000E-01      4.540625000000000E+01      2.974396000000000E-01      1.607500000000000E+02
5300000000.000000      1.254501000000000E-01      2.434570000000000E+01      4.111481000000000E-01      1.582031000000000E+02
5320000000.000000      1.319962000000000E-01      7.879883000000000E+00      5.280457000000000E-01      1.505156000000000E+02
5340000000.000000      1.378098000000000E-01     -6.569824000000000E+00      6.378174000000000E-01      1.385547000000000E+02
5360000000.000000      1.431656000000000E-01     -2.200879000000000E+01      7.061157000000000E-01      1.241133000000000E+02
5380000000.000000      1.390152000000000E-01     -3.905273000000000E+01      7.177734000000000E-01      1.106953000000000E+02
5400000000.000000      1.208572000000000E-01     -5.703320000000000E+01      7.186890000000000E-01      9.915234000000000E+01
5420000000.000000      8.621979000000000E-02     -7.352734000000000E+01      7.042847000000000E-01      8.598436000000000E+01
5440000000.000000      3.259468000000000E-02     -7.752734000000000E+01      6.475830000000000E-01      7.170312000000000E+01
5460000000.000000      4.194450000000000E-02      3.603516000000000E+01      5.386658000000000E-01      5.853320000000000E+01
5480000000.000000      1.115036000000000E-01      2.984277000000000E+01      4.116058000000000E-01      4.944530000000000E+01
5500000000.000000      1.741333000000000E-01      1.489160000000000E+01      2.921448000000000E-01      4.750586000000000E+01
5520000000.000000      2.207642000000000E-01     -1.867676000000000E-01      1.952591000000000E-01      5.937695000000000E+01
5540000000.000000      2.527618000000000E-01     -1.381543000000000E+01      1.816864000000000E-01      9.106640000000000E+01
5560000000.000000      2.710419000000000E-01     -2.561230000000000E+01      2.638092000000000E-01      1.089297000000000E+02
5580000000.000000      2.840118000000000E-01     -3.531054000000000E+01      3.847961000000000E-01      1.085781000000000E+02
5600000000.000000      2.948456000000000E-01     -4.412890000000000E+01      5.070801000000000E-01      9.966015000000000E+01
5620000000.000000      3.057098000000000E-01     -5.314258000000000E+01      5.961304000000000E-01      8.705078000000000E+01
5640000000.000000      3.097229000000000E-01     -6.285351000000000E+01      6.451416000000000E-01      7.518749000000000E+01
5660000000.000000      3.001404000000000E-01     -7.355078000000000E+01      6.829224000000000E-01      6.402344000000000E+01
5680000000.000000      2.720947000000000E-01     -8.372656000000000E+01      6.983032000000000E-01      5.123047000000000E+01
5700000000.000000      2.252121000000000E-01     -9.128906000000000E+01      6.825256000000000E-01      3.886133000000000E+01
5720000000.000000      1.750870000000000E-01     -8.989843000000000E+01      6.423035000000000E-01      2.628027000000000E+01
5740000000.000000      1.533356000000000E-01     -7.599609000000000E+01      5.641479000000000E-01      1.287305000000000E+01
5760000000.000000      1.810608000000000E-01     -6.418750000000000E+01      4.495850000000000E-01      1.510620000000000E+00
5780000000.000000      2.268753000000000E-01     -6.553905000000000E+01      3.154449000000000E-01     -3.772461000000000E+00
5800000000.000000      2.595520000000000E-01     -7.321094000000000E+01      2.082291000000000E-01      7.362061000000000E+00
5820000000.000000      2.686462000000000E-01     -8.264063000000000E+01      1.899033000000000E-01      3.795703000000000E+01
5840000000.000000      2.596283000000000E-01     -9.097265000000000E+01      2.714539000000000E-01      5.428320000000000E+01
5860000000.000000      2.415543000000000E-01     -9.646873000000000E+01      3.717651000000000E-01      5.417187000000000E+01
5880000000.000000      2.275848000000000E-01     -9.961718000000000E+01      4.779968000000000E-01      4.890820000000000E+01
5900000000.000000      2.204132000000000E-01     -1.021406000000000E+02      5.950317000000000E-01      3.866601000000000E+01
5920000000.000000      2.126846000000000E-01     -1.048594000000000E+02      6.716919000000000E-01      2.463183000000000E+01
5940000000.000000      1.986237000000000E-01     -1.069492000000000E+02      7.016907000000000E-01      1.153271000000000E+01
5960000000.000000      1.807175000000000E-01     -1.053203000000000E+02      7.128906000000000E-01     -1.211243000000000E+00
5980000000.000000      1.675110000000000E-01     -9.770702000000000E+01      6.920776000000000E-01     -1.535645000000000E+01
6000000000.000000      1.829147000000000E-01     -8.847656000000000E+01      6.290588000000000E-01     -2.896484000000000E+01
6020000000.000000      2.180023000000000E-01     -8.665625000000000E+01      5.291138000000000E-01     -4.139648000000000E+01
6040000000.000000      2.540588000000000E-01     -9.180079000000000E+01      4.002228000000000E-01     -4.980078000000000E+01
6060000000.000000      2.784424000000000E-01     -1.007461000000000E+02      2.842865000000000E-01     -4.925195000000000E+01
6080000000.000000      2.888336000000000E-01     -1.107851000000000E+02      2.051392000000000E-01     -3.530468000000000E+01
