! Network Analyzer HP8722D
! Hewlett-Packard
! Data name: Linha & Wilkinson+CNT
! Saver's name: Rodrigo Anjos
! Comments: Teste da utilização de aquisição
continua pelo VNA HP8722D
! Time and date: 29/9/2025 16:55
!              Frequency                     S11                                                   S21                                                   S12                                                   S22
# HZ  S  MA R 50
3000000000.000000      4.247742000000000E-01     -5.584179000000000E+01      2.105713000000000E-01     -1.315156000000000E+02
3020000000.000000      4.495850000000000E-01     -7.007421000000000E+01      3.531189000000000E-01     -1.352109000000000E+02
3040000000.000000      4.512787000000000E-01     -8.303514000000000E+01      4.706116000000000E-01     -1.453828000000000E+02
3060000000.000000      4.441986000000000E-01     -9.501562000000000E+01      5.741882000000000E-01     -1.554688000000000E+02
3080000000.000000      4.289551000000000E-01     -1.062891000000000E+02      6.752930000000000E-01     -1.687109000000000E+02
3100000000.000000      4.082031000000000E-01     -1.174883000000000E+02      7.257690000000000E-01      1.766172000000000E+02
3120000000.000000      3.791656000000000E-01     -1.295469000000000E+02      7.321167000000000E-01      1.631016000000000E+02
3140000000.000000      3.372803000000000E-01     -1.424062000000000E+02      7.236023000000000E-01      1.501953000000000E+02
3160000000.000000      2.764130000000000E-01     -1.564375000000000E+02      6.821899000000000E-01      1.366328000000000E+02
3180000000.000000      1.970596000000000E-01     -1.690000000000000E+02      6.107178000000000E-01      1.241211000000000E+02
3200000000.000000      1.093445000000000E-01     -1.689141000000000E+02      5.180054000000000E-01      1.113711000000000E+02
3220000000.000000      8.098984000000000E-02     -1.228242000000000E+02      3.844452000000000E-01      1.007851000000000E+02
3240000000.000000      1.533356000000000E-01     -1.050781000000000E+02      2.440872000000000E-01      9.985546000000000E+01
3260000000.000000      2.320099000000000E-01     -1.155273000000000E+02      1.470566000000000E-01      1.267266000000000E+02
3280000000.000000      2.888336000000000E-01     -1.312031000000000E+02      2.065811000000000E-01      1.654687000000000E+02
3300000000.000000      3.207855000000000E-01     -1.474297000000000E+02      3.330078000000000E-01      1.694844000000000E+02
3320000000.000000      3.320770000000000E-01     -1.633125000000000E+02      4.650879000000000E-01      1.622734000000000E+02
3340000000.000000      3.282623000000000E-01     -1.786875000000000E+02      5.761414000000000E-01      1.502422000000000E+02
3360000000.000000      3.167725000000000E-01      1.665625000000000E+02      6.473999000000000E-01      1.380781000000000E+02
3380000000.000000      2.998505000000000E-01      1.523594000000000E+02      7.097168000000000E-01      1.267656000000000E+02
3400000000.000000      2.776947000000000E-01      1.376328000000000E+02      7.580566000000000E-01      1.129140000000000E+02
3420000000.000000      2.423706000000000E-01      1.226836000000000E+02      7.470398000000000E-01      9.820313000000000E+01
3440000000.000000      1.890259000000000E-01      1.080000000000000E+02      7.025146000000000E-01      8.533983000000000E+01
3460000000.000000      1.184692000000000E-01      9.780468000000000E+01      6.449280000000000E-01      7.222656000000000E+01
3480000000.000000      4.816628000000000E-02      1.236680000000000E+02      5.462036000000000E-01      5.886132000000000E+01
3500000000.000000      9.460831000000000E-02     -1.746719000000000E+02      4.221802000000000E-01      4.735352000000000E+01
3520000000.000000      1.860809000000000E-01      1.784765000000000E+02      2.756500000000000E-01      4.066406000000000E+01
3540000000.000000      2.648621000000000E-01      1.623203000000000E+02      1.462097000000000E-01      5.942187000000000E+01
3560000000.000000      3.239746000000000E-01      1.453594000000000E+02      1.695480000000000E-01      1.083320000000000E+02
3580000000.000000      3.603821000000000E-01      1.294688000000000E+02      2.976685000000000E-01      1.173906000000000E+02
3600000000.000000      3.762665000000000E-01      1.149766000000000E+02      4.219971000000000E-01      1.103594000000000E+02
3620000000.000000      3.783875000000000E-01      1.023125000000000E+02      5.229187000000000E-01      1.008320000000000E+02
3640000000.000000      3.682861000000000E-01      9.117968000000000E+01      6.228333000000000E-01      8.970703000000000E+01
3660000000.000000      3.519440000000000E-01      8.100000000000000E+01      6.936951000000000E-01      7.541797000000000E+01
3680000000.000000      3.289337000000000E-01      7.180469000000000E+01      7.114258000000000E-01      6.231640000000000E+01
3700000000.000000      2.984009000000000E-01      6.351563000000000E+01      7.200623000000000E-01      5.077929000000000E+01
3720000000.000000      2.540588000000000E-01      5.767383000000000E+01      7.217102000000000E-01      3.634961000000000E+01
3740000000.000000      2.042847000000000E-01      5.883203000000000E+01      6.611328000000000E-01      2.122949000000000E+01
3760000000.000000      1.788177000000000E-01      7.310937000000000E+01      5.626831000000000E-01      6.885498000000000E+00
3780000000.000000      2.135773000000000E-01      8.772264000000000E+01      4.318390000000000E-01     -6.260986000000000E+00
3800000000.000000      2.844543000000000E-01      8.900782000000000E+01      2.784882000000000E-01     -1.327734000000000E+01
3820000000.000000      3.513947000000000E-01      8.253515000000000E+01      1.515884000000000E-01      5.506897000000000E-01
3840000000.000000      4.013519000000000E-01      7.376562000000000E+01      1.455231000000000E-01      4.870507000000000E+01
3860000000.000000      4.363708000000000E-01      6.523828000000000E+01      2.493896000000000E-01      6.543359000000000E+01
3880000000.000000      4.617310000000000E-01      5.768555000000000E+01      3.788452000000000E-01      6.088672000000000E+01
3900000000.000000      4.902954000000000E-01      5.064453000000000E+01      4.795227000000000E-01      4.741796000000000E+01
3920000000.000000      5.214844000000000E-01      4.309960000000000E+01      5.093384000000000E-01      3.577539000000000E+01
3940000000.000000      5.480957000000000E-01      3.396093000000000E+01      5.397339000000000E-01      2.930859000000000E+01
3960000000.000000      5.593567000000000E-01      2.400781000000000E+01      5.951233000000000E-01      1.986816000000000E+01
3980000000.000000      5.536194000000000E-01      1.338818000000000E+01      5.961304000000000E-01      8.125488000000000E+00
4000000000.000000      5.270996000000000E-01      3.078857000000000E+00      5.802307000000000E-01      1.150818000000000E+00
4020000000.000000      4.829865000000000E-01     -6.940674000000000E+00      5.976868000000000E-01     -6.752686000000000E+00
4040000000.000000      4.229889000000000E-01     -1.575879000000000E+01      5.845947000000000E-01     -1.896973000000000E+01
4060000000.000000      3.476257000000000E-01     -2.166797000000000E+01      5.259705000000000E-01     -2.912109000000000E+01
4080000000.000000      2.727203000000000E-01     -2.145312000000000E+01      4.671478000000000E-01     -3.851563000000000E+01
4100000000.000000      2.279129000000000E-01     -1.064893000000000E+01      3.644257000000000E-01     -4.751367000000000E+01
4120000000.000000      2.434082000000000E-01      2.161499000000000E+00      2.473907000000000E-01     -4.361524000000000E+01
4140000000.000000      2.910309000000000E-01      5.331055000000000E+00      2.042313000000000E-01     -1.907422000000000E+01
4160000000.000000      3.341675000000000E-01      9.736633000000000E-01      2.665710000000000E-01      1.016235000000000E-01
4180000000.000000      3.619385000000000E-01     -5.888672000000000E+00      3.608704000000000E-01      3.772339000000000E+00
4200000000.000000      3.717194000000000E-01     -1.365625000000000E+01      4.919586000000000E-01      1.009338000000000E+00
4220000000.000000      3.671265000000000E-01     -2.080469000000000E+01      6.439209000000000E-01     -1.153857000000000E+01
4240000000.000000      3.479309000000000E-01     -2.828516000000000E+01      7.224426000000000E-01     -2.815332000000000E+01
4260000000.000000      3.087158000000000E-01     -3.399609000000000E+01      7.412720000000000E-01     -4.217969000000000E+01
4280000000.000000      2.583923000000000E-01     -3.503711000000000E+01      7.498474000000000E-01     -5.606054000000000E+01
4300000000.000000      2.221909000000000E-01     -2.670019000000000E+01      7.138062000000000E-01     -7.114062000000000E+01
4320000000.000000      2.368774000000000E-01     -1.418652000000000E+01      6.277771000000000E-01     -8.544140000000000E+01
4340000000.000000      2.953186000000000E-01     -1.049609000000000E+01      5.127563000000000E-01     -9.808594000000000E+01
4360000000.000000      3.607330000000000E-01     -1.577539000000000E+01      3.778229000000000E-01     -1.069375000000000E+02
4380000000.000000      4.060974000000000E-01     -2.479785000000000E+01      2.465057000000000E-01     -1.076445000000000E+02
4400000000.000000      4.267120000000000E-01     -3.471875000000000E+01      1.531677000000000E-01     -8.382813000000000E+01
4420000000.000000      4.243774000000000E-01     -4.401757000000000E+01      1.910934000000000E-01     -4.506055000000000E+01
4440000000.000000      4.076233000000000E-01     -5.198047000000000E+01      3.146515000000000E-01     -3.630664000000000E+01
4460000000.000000      3.857574000000000E-01     -5.864648000000000E+01      4.559326000000000E-01     -4.361133000000000E+01
4480000000.000000      3.672638000000000E-01     -6.485156000000000E+01      5.639343000000000E-01     -5.575000000000000E+01
4500000000.000000      3.453674000000000E-01     -7.178124000000000E+01      6.441040000000000E-01     -6.731250000000000E+01
4520000000.000000      3.116455000000000E-01     -7.956249000000000E+01      7.174377000000000E-01     -8.014452000000000E+01
4540000000.000000      2.594299000000000E-01     -8.567186000000000E+01      7.413940000000000E-01     -9.466797000000000E+01
4560000000.000000      1.985397000000000E-01     -8.357813000000000E+01      7.277832000000000E-01     -1.079140000000000E+02
4580000000.000000      1.737137000000000E-01     -6.703125000000000E+01      6.893311000000000E-01     -1.217891000000000E+02
4600000000.000000      2.128906000000000E-01     -5.339648000000000E+01      6.027222000000000E-01     -1.349844000000000E+02
4620000000.000000      2.781372000000000E-01     -5.512695000000000E+01      4.951019000000000E-01     -1.452734000000000E+02
4640000000.000000      3.306122000000000E-01     -6.520702000000000E+01      3.761444000000000E-01     -1.534453000000000E+02
4660000000.000000      3.531952000000000E-01     -7.843750000000000E+01      2.436600000000000E-01     -1.510391000000000E+02
4680000000.000000      3.437195000000000E-01     -9.241796000000000E+01      1.803665000000000E-01     -1.222617000000000E+02
4700000000.000000      3.054657000000000E-01     -1.055586000000000E+02      2.525330000000000E-01     -9.655859000000000E+01
4720000000.000000      2.496033000000000E-01     -1.158047000000000E+02      3.717804000000000E-01     -9.563280000000000E+01
4740000000.000000      1.884384000000000E-01     -1.207383000000000E+02      4.767456000000000E-01     -1.022266000000000E+02
4760000000.000000      1.372070000000000E-01     -1.161797000000000E+02      5.827637000000000E-01     -1.109570000000000E+02
4780000000.000000      1.126137000000000E-01     -9.994141000000000E+01      6.686096000000000E-01     -1.233203000000000E+02
4800000000.000000      1.198616000000000E-01     -8.235155000000000E+01      7.165527000000000E-01     -1.361406000000000E+02
4820000000.000000      1.489410000000000E-01     -7.331640000000000E+01      7.364502000000000E-01     -1.494219000000000E+02
4840000000.000000      1.901550000000000E-01     -7.366405000000000E+01      7.174988000000000E-01     -1.621016000000000E+02
4860000000.000000      2.332382000000000E-01     -8.041016000000000E+01      6.812134000000000E-01     -1.746094000000000E+02
4880000000.000000      2.700653000000000E-01     -9.102343000000000E+01      6.144104000000000E-01      1.716172000000000E+02
4900000000.000000      2.951813000000000E-01     -1.045039000000000E+02      4.902649000000000E-01      1.594297000000000E+02
4920000000.000000      3.007050000000000E-01     -1.196797000000000E+02      3.619995000000000E-01      1.534453000000000E+02
4940000000.000000      2.850800000000000E-01     -1.353594000000000E+02      2.483215000000000E-01      1.562813000000000E+02
4960000000.000000      2.534637000000000E-01     -1.504297000000000E+02      1.765137000000000E-01      1.784922000000000E+02
4980000000.000000      2.106705000000000E-01     -1.643281000000000E+02      2.175522000000000E-01     -1.507031000000000E+02
5000000000.000000      1.672668000000000E-01     -1.760078000000000E+02      3.339233000000000E-01     -1.438281000000000E+02
5020000000.000000      1.296387000000000E-01      1.739609000000000E+02      4.632568000000000E-01     -1.499063000000000E+02
5040000000.000000      9.964371000000000E-02      1.636719000000000E+02      5.731812000000000E-01     -1.608281000000000E+02
5060000000.000000      7.134247000000000E-02      1.491094000000000E+02      6.521301000000000E-01     -1.722812000000000E+02
5080000000.000000      4.043770000000000E-02      1.230195000000000E+02      7.193604000000000E-01      1.754375000000000E+02
5100000000.000000      1.610851000000000E-02      3.767187000000000E+01      7.551880000000000E-01      1.617891000000000E+02
5120000000.000000      4.180336000000000E-02     -5.325195000000000E+01      7.523804000000000E-01      1.475625000000000E+02
5140000000.000000      7.391357000000000E-02     -8.904297000000000E+01      7.021484000000000E-01      1.340156000000000E+02
5160000000.000000      9.696579000000000E-02     -1.198398000000000E+02      6.245117000000000E-01      1.217851000000000E+02
5180000000.000000      1.103745000000000E-01     -1.505938000000000E+02      5.282593000000000E-01      1.105820000000000E+02
5200000000.000000      1.127319000000000E-01      1.767891000000000E+02      4.121094000000000E-01      1.010195000000000E+02
5220000000.000000      1.101723000000000E-01      1.410469000000000E+02      2.791748000000000E-01      9.858984000000000E+01
5240000000.000000      1.090012000000000E-01      1.050312000000000E+02      1.821289000000000E-01      1.164531000000000E+02
5260000000.000000      1.133308000000000E-01      7.172656000000000E+01      1.993027000000000E-01      1.502734000000000E+02
5280000000.000000      1.203728000000000E-01      4.525976000000000E+01      3.005981000000000E-01      1.606250000000000E+02
5300000000.000000      1.274261000000000E-01      2.460156000000000E+01      4.140320000000000E-01      1.577891000000000E+02
5320000000.000000      1.339035000000000E-01      8.290527000000000E+00      5.309143000000000E-01      1.501719000000000E+02
5340000000.000000      1.391144000000000E-01     -6.170410000000000E+00      6.415405000000000E-01      1.381094000000000E+02
5360000000.000000      1.435242000000000E-01     -2.189063000000000E+01      7.082520000000000E-01      1.236836000000000E+02
5380000000.000000      1.381607000000000E-01     -3.960546000000000E+01      7.167969000000000E-01      1.104297000000000E+02
5400000000.000000      1.194191000000000E-01     -5.792578000000000E+01      7.164612000000000E-01      9.863281000000000E+01
5420000000.000000      8.298874000000000E-02     -7.472265000000000E+01      7.021790000000000E-01      8.553514000000000E+01
5440000000.000000      2.903461000000000E-02     -7.745312000000000E+01      6.447144000000000E-01      7.122265000000000E+01
5460000000.000000      4.491043000000000E-02      3.874609000000000E+01      5.363464000000000E-01      5.836523000000000E+01
5480000000.000000      1.145477000000000E-01      3.058105000000000E+01      4.080963000000000E-01      4.912109000000000E+01
5500000000.000000      1.769867000000000E-01      1.522803000000000E+01      2.886047000000000E-01      4.756640000000000E+01
5520000000.000000      2.217560000000000E-01      2.526855000000000E-01      1.932526000000000E-01      6.013866000000000E+01
5540000000.000000      2.517700000000000E-01     -1.345703000000000E+01      1.831207000000000E-01      9.182032000000000E+01
5560000000.000000      2.703705000000000E-01     -2.527637000000000E+01      2.672882000000000E-01      1.088281000000000E+02
5580000000.000000      2.821503000000000E-01     -3.521093000000000E+01      3.888245000000000E-01      1.083242000000000E+02
5600000000.000000      2.940521000000000E-01     -4.416211000000000E+01      5.102844000000000E-01      9.924999000000000E+01
5620000000.000000      3.039093000000000E-01     -5.333202000000000E+01      5.986633000000000E-01      8.666796000000000E+01
5640000000.000000      3.068695000000000E-01     -6.312500000000000E+01      6.485596000000000E-01      7.480469000000000E+01
5660000000.000000      2.970428000000000E-01     -7.368750000000000E+01      6.870728000000000E-01      6.355273000000000E+01
5680000000.000000      2.665253000000000E-01     -8.397264000000000E+01      6.979370000000000E-01      5.074804000000000E+01
5700000000.000000      2.183609000000000E-01     -9.121874000000000E+01      6.818848000000000E-01      3.844727000000000E+01
5720000000.000000      1.688766000000000E-01     -8.928125000000000E+01      6.407776000000000E-01      2.556836000000000E+01
5740000000.000000      1.496964000000000E-01     -7.480859000000000E+01      5.613098000000000E-01      1.253369000000000E+01
5760000000.000000      1.802063000000000E-01     -6.342382000000000E+01      4.461975000000000E-01      1.080750000000000E+00
5780000000.000000      2.261734000000000E-01     -6.546875000000000E+01      3.118439000000000E-01     -3.576050000000000E+00
5800000000.000000      2.575684000000000E-01     -7.333202000000000E+01      2.057953000000000E-01      8.003418000000000E+00
5820000000.000000      2.670746000000000E-01     -8.285156000000000E+01      1.914825000000000E-01      3.875391000000000E+01
5840000000.000000      2.557526000000000E-01     -9.112499000000000E+01      2.757416000000000E-01      5.424609000000000E+01
5860000000.000000      2.384109000000000E-01     -9.650780000000000E+01      3.764801000000000E-01      5.383594000000000E+01
5880000000.000000      2.234726000000000E-01     -9.972265000000000E+01      4.820557000000000E-01      4.830468000000000E+01
5900000000.000000      2.154694000000000E-01     -1.021953000000000E+02      5.972900000000000E-01      3.793164000000000E+01
5920000000.000000      2.073135000000000E-01     -1.052773000000000E+02      6.724854000000000E-01      2.406933000000000E+01
5940000000.000000      1.931686000000000E-01     -1.070000000000000E+02      7.023621000000000E-01      1.075000000000000E+01
5960000000.000000      1.761703000000000E-01     -1.049101000000000E+02      7.126160000000000E-01     -1.973450000000000E+00
5980000000.000000      1.655807000000000E-01     -9.693359000000000E+01      6.888733000000000E-01     -1.590039000000000E+01
6000000000.000000      1.822510000000000E-01     -8.779688000000000E+01      6.241760000000000E-01     -2.951074000000000E+01
6020000000.000000      2.182693000000000E-01     -8.632421000000000E+01      5.261536000000000E-01     -4.207421000000000E+01
6040000000.000000      2.525940000000000E-01     -9.173437000000000E+01      3.952484000000000E-01     -4.995507000000000E+01
6060000000.000000      2.755432000000000E-01     -1.010039000000000E+02      2.817230000000000E-01     -4.916601000000000E+01
6080000000.000000      2.847900000000000E-01     -1.113008000000000E+02      2.041855000000000E-01     -3.474023000000000E+01
