! Network Analyzer HP8722D
! Hewlett-Packard
! Data name: Linha & Wilkinson+CNT
! Saver's name: Rodrigo Anjos
! Comments: Teste da utilização de aquisição
continua pelo VNA HP8722D
! Time and date: 29/9/2025 16:19
!              Frequency                     S11                                                   S21                                                   S12                                                   S22
# HZ  S  MA R 50
3000000000.000000      4.245453000000000E-01     -5.560156000000000E+01      2.071609000000000E-01     -1.315781000000000E+02
3020000000.000000      4.471741000000000E-01     -6.971093000000000E+01      3.497620000000000E-01     -1.349844000000000E+02
3040000000.000000      4.519348000000000E-01     -8.282421000000000E+01      4.673309000000000E-01     -1.447500000000000E+02
3060000000.000000      4.446869000000000E-01     -9.482031000000000E+01      5.727844000000000E-01     -1.550234000000000E+02
3080000000.000000      4.295654000000000E-01     -1.061289000000000E+02      6.725769000000000E-01     -1.683828000000000E+02
3100000000.000000      4.090576000000000E-01     -1.173398000000000E+02      7.250061000000000E-01      1.768594000000000E+02
3120000000.000000      3.796082000000000E-01     -1.293047000000000E+02      7.319946000000000E-01      1.634453000000000E+02
3140000000.000000      3.388672000000000E-01     -1.422344000000000E+02      7.255554000000000E-01      1.505859000000000E+02
3160000000.000000      2.784119000000000E-01     -1.562969000000000E+02      6.842957000000000E-01      1.370000000000000E+02
3180000000.000000      1.993256000000000E-01     -1.690312000000000E+02      6.138611000000000E-01      1.244883000000000E+02
3200000000.000000      1.111221000000000E-01     -1.696953000000000E+02      5.193481000000000E-01      1.117031000000000E+02
3220000000.000000      7.917404000000000E-02     -1.240898000000000E+02      3.869781000000000E-01      1.009414000000000E+02
3240000000.000000      1.500549000000000E-01     -1.049219000000000E+02      2.474442000000000E-01      9.941406000000000E+01
3260000000.000000      2.298508000000000E-01     -1.149883000000000E+02      1.474152000000000E-01      1.252070000000000E+02
3280000000.000000      2.875671000000000E-01     -1.307500000000000E+02      2.027588000000000E-01      1.652734000000000E+02
3300000000.000000      3.201752000000000E-01     -1.470469000000000E+02      3.299255000000000E-01      1.696719000000000E+02
3320000000.000000      3.319702000000000E-01     -1.630156000000000E+02      4.632111000000000E-01      1.626562000000000E+02
3340000000.000000      3.286438000000000E-01     -1.784141000000000E+02      5.742798000000000E-01      1.505391000000000E+02
3360000000.000000      3.170929000000000E-01      1.668437000000000E+02      6.481323000000000E-01      1.383828000000000E+02
3380000000.000000      3.003540000000000E-01      1.525859000000000E+02      7.104187000000000E-01      1.270273000000000E+02
3400000000.000000      2.783203000000000E-01      1.378125000000000E+02      7.577515000000000E-01      1.132930000000000E+02
3420000000.000000      2.436066000000000E-01      1.229102000000000E+02      7.502441000000000E-01      9.846483000000000E+01
3440000000.000000      1.905975000000000E-01      1.081328000000000E+02      7.063599000000000E-01      8.564844000000000E+01
3460000000.000000      1.203384000000000E-01      9.750780000000000E+01      6.479797000000000E-01      7.260547000000000E+01
3480000000.000000      4.842377000000000E-02      1.208242000000000E+02      5.513306000000000E-01      5.904687000000000E+01
3500000000.000000      9.179688000000000E-02     -1.743672000000000E+02      4.261017000000000E-01      4.753906000000000E+01
3520000000.000000      1.832809000000000E-01      1.791172000000000E+02      2.797241000000000E-01      4.044922000000000E+01
3540000000.000000      2.631378000000000E-01      1.629141000000000E+02      1.479721000000000E-01      5.817773000000000E+01
3560000000.000000      3.225708000000000E-01      1.459453000000000E+02      1.669235000000000E-01      1.076445000000000E+02
3580000000.000000      3.598175000000000E-01      1.298984000000000E+02      2.940063000000000E-01      1.175195000000000E+02
3600000000.000000      3.760986000000000E-01      1.153633000000000E+02      4.188995000000000E-01      1.106406000000000E+02
3620000000.000000      3.784180000000000E-01      1.026563000000000E+02      5.206299000000000E-01      1.011719000000000E+02
3640000000.000000      3.687897000000000E-01      9.151171000000000E+01      6.221313000000000E-01      9.008593000000000E+01
3660000000.000000      3.526611000000000E-01      8.117579000000000E+01      6.927490000000000E-01      7.587109000000000E+01
3680000000.000000      3.297119000000000E-01      7.191796000000000E+01      7.106018000000000E-01      6.265038000000000E+01
3700000000.000000      2.997742000000000E-01      6.370507000000000E+01      7.207947000000000E-01      5.100390000000000E+01
3720000000.000000      2.553864000000000E-01      5.763281000000000E+01      7.230225000000000E-01      3.681445000000000E+01
3740000000.000000      2.053909000000000E-01      5.833593000000000E+01      6.639404000000000E-01      2.136817000000000E+01
3760000000.000000      1.781464000000000E-01      7.234375000000000E+01      5.666809000000000E-01      7.229004000000000E+00
3780000000.000000      2.118378000000000E-01      8.745312000000000E+01      4.356842000000000E-01     -6.097412000000000E+00
3800000000.000000      2.821045000000000E-01      8.908594000000000E+01      2.829437000000000E-01     -1.343945000000000E+01
3820000000.000000      3.497772000000000E-01      8.269922000000000E+01      1.540756000000000E-01     -5.699158000000000E-01
3840000000.000000      4.003296000000000E-01      7.399609000000000E+01      1.428452000000000E-01      4.762500000000000E+01
3860000000.000000      4.352264000000000E-01      6.547265000000000E+01      2.453690000000000E-01      6.552734000000000E+01
3880000000.000000      4.611816000000000E-01      5.786327000000000E+01      3.758850000000000E-01      6.116211000000000E+01
3900000000.000000      4.895935000000000E-01      5.080859000000000E+01      4.764252000000000E-01      4.787305000000000E+01
3920000000.000000      5.216980000000000E-01      4.326367000000000E+01      5.084229000000000E-01      3.616796000000000E+01
3940000000.000000      5.499878000000000E-01      3.410351000000000E+01      5.390930000000000E-01      2.961133000000000E+01
3960000000.000000      5.593872000000000E-01      2.408886000000000E+01      5.956421000000000E-01      2.017773000000000E+01
3980000000.000000      5.526428000000000E-01      1.357764000000000E+01      5.969543000000000E-01      8.232422000000000E+00
4000000000.000000      5.263062000000000E-01      3.103638000000000E+00      5.811462000000000E-01      1.344421000000000E+00
4020000000.000000      4.846649000000000E-01     -6.771729000000000E+00      5.985107000000000E-01     -6.549316000000000E+00
4040000000.000000      4.258881000000000E-01     -1.560498000000000E+01      5.858154000000000E-01     -1.878613000000000E+01
4060000000.000000      3.499603000000000E-01     -2.176856000000000E+01      5.275269000000000E-01     -2.884668000000000E+01
4080000000.000000      2.750549000000000E-01     -2.167773000000000E+01      4.691010000000000E-01     -3.813867000000000E+01
4100000000.000000      2.284775000000000E-01     -1.128467000000000E+01      3.672791000000000E-01     -4.730273000000000E+01
4120000000.000000      2.416611000000000E-01      1.925354000000000E+00      2.498627000000000E-01     -4.422071000000000E+01
4140000000.000000      2.896576000000000E-01      5.203369000000000E+00      2.026367000000000E-01     -2.004883000000000E+01
4160000000.000000      3.338928000000000E-01      1.102722000000000E+00      2.632599000000000E-01     -2.416992000000000E-01
4180000000.000000      3.618011000000000E-01     -5.800781000000000E+00      3.569031000000000E-01      4.000244000000000E+00
4200000000.000000      3.717041000000000E-01     -1.351221000000000E+01      4.869843000000000E-01      1.396606000000000E+00
4220000000.000000      3.678741000000000E-01     -2.073047000000000E+01      6.420593000000000E-01     -1.109766000000000E+01
4240000000.000000      3.487396000000000E-01     -2.817773000000000E+01      7.217712000000000E-01     -2.763281000000000E+01
4260000000.000000      3.103943000000000E-01     -3.402929000000000E+01      7.427063000000000E-01     -4.177148000000000E+01
4280000000.000000      2.599487000000000E-01     -3.530859000000000E+01      7.514648000000000E-01     -5.558984000000000E+01
4300000000.000000      2.225113000000000E-01     -2.728613000000000E+01      7.160950000000000E-01     -7.062500000000000E+01
4320000000.000000      2.353363000000000E-01     -1.443896000000000E+01      6.336975000000000E-01     -8.495703000000000E+01
4340000000.000000      2.931213000000000E-01     -1.048096000000000E+01      5.183716000000000E-01     -9.788280000000000E+01
4360000000.000000      3.584442000000000E-01     -1.549658000000000E+01      3.818054000000000E-01     -1.068516000000000E+02
4380000000.000000      4.052277000000000E-01     -2.445996000000000E+01      2.507019000000000E-01     -1.081875000000000E+02
4400000000.000000      4.267273000000000E-01     -3.441406000000000E+01      1.534042000000000E-01     -8.542969000000000E+01
4420000000.000000      4.248199000000000E-01     -4.389257000000000E+01      1.872482000000000E-01     -4.567773000000000E+01
4440000000.000000      4.087372000000000E-01     -5.188281000000000E+01      3.099518000000000E-01     -3.616406000000000E+01
4460000000.000000      3.870392000000000E-01     -5.839648000000000E+01      4.519653000000000E-01     -4.335351000000000E+01
4480000000.000000      3.668976000000000E-01     -6.472656000000000E+01      5.607300000000000E-01     -5.538280000000000E+01
4500000000.000000      3.473358000000000E-01     -7.157421000000000E+01      6.437683000000000E-01     -6.672265000000000E+01
4520000000.000000      3.138733000000000E-01     -7.929688000000000E+01      7.171326000000000E-01     -7.980469000000000E+01
4540000000.000000      2.624359000000000E-01     -8.557812000000000E+01      7.421570000000000E-01     -9.432812000000000E+01
4560000000.000000      2.014694000000000E-01     -8.395311000000000E+01      7.290344000000000E-01     -1.074726000000000E+02
4580000000.000000      1.738892000000000E-01     -6.789453000000000E+01      6.915588000000000E-01     -1.214453000000000E+02
4600000000.000000      2.113495000000000E-01     -5.379492000000000E+01      6.068420000000000E-01     -1.346562000000000E+02
4620000000.000000      2.767487000000000E-01     -5.498828000000000E+01      5.004578000000000E-01     -1.450000000000000E+02
4640000000.000000      3.300781000000000E-01     -6.497265000000000E+01      3.797760000000000E-01     -1.535156000000000E+02
4660000000.000000      3.543091000000000E-01     -7.826562000000000E+01      2.467117000000000E-01     -1.519766000000000E+02
4680000000.000000      3.459625000000000E-01     -9.224218000000000E+01      1.788177000000000E-01     -1.237891000000000E+02
4700000000.000000      3.091125000000000E-01     -1.055078000000000E+02      2.471542000000000E-01     -9.658592000000000E+01
4720000000.000000      2.533875000000000E-01     -1.161250000000000E+02      3.662567000000000E-01     -9.536718000000000E+01
4740000000.000000      1.913300000000000E-01     -1.214766000000000E+02      4.727936000000000E-01     -1.017695000000000E+02
4760000000.000000      1.389236000000000E-01     -1.176133000000000E+02      5.783386000000000E-01     -1.105312000000000E+02
4780000000.000000      1.117172000000000E-01     -1.015898000000000E+02      6.669922000000000E-01     -1.226641000000000E+02
4800000000.000000      1.170692000000000E-01     -8.363281000000000E+01      7.177734000000000E-01     -1.356641000000000E+02
4820000000.000000      1.466446000000000E-01     -7.372656000000000E+01      7.365112000000000E-01     -1.488516000000000E+02
4840000000.000000      1.867905000000000E-01     -7.351171000000000E+01      7.200317000000000E-01     -1.616875000000000E+02
4860000000.000000      2.301941000000000E-01     -7.998047000000000E+01      6.832581000000000E-01     -1.741719000000000E+02
4880000000.000000      2.682190000000000E-01     -9.055859000000000E+01      6.179199000000000E-01      1.719609000000000E+02
4900000000.000000      2.938232000000000E-01     -1.040195000000000E+02      4.961395000000000E-01      1.597812000000000E+02
4920000000.000000      3.003998000000000E-01     -1.190273000000000E+02      3.672485000000000E-01      1.534609000000000E+02
4940000000.000000      2.851563000000000E-01     -1.348672000000000E+02      2.519989000000000E-01      1.558594000000000E+02
4960000000.000000      2.546234000000000E-01     -1.499609000000000E+02      1.772919000000000E-01      1.771641000000000E+02
4980000000.000000      2.125854000000000E-01     -1.642812000000000E+02      2.133865000000000E-01     -1.513672000000000E+02
5000000000.000000      1.687012000000000E-01     -1.759922000000000E+02      3.298645000000000E-01     -1.435391000000000E+02
5020000000.000000      1.306992000000000E-01      1.739141000000000E+02      4.603577000000000E-01     -1.496875000000000E+02
5040000000.000000      1.002846000000000E-01      1.636094000000000E+02      5.691528000000000E-01     -1.603437000000000E+02
5060000000.000000      7.198715000000000E-02      1.485078000000000E+02      6.502075000000000E-01     -1.718281000000000E+02
5080000000.000000      4.186630000000000E-02      1.229453000000000E+02      7.190857000000000E-01      1.759844000000000E+02
5100000000.000000      1.712036000000000E-02      4.193749000000000E+01      7.568054000000000E-01      1.621797000000000E+02
5120000000.000000      4.105759000000000E-02     -5.071875000000000E+01      7.540588000000000E-01      1.479844000000000E+02
5140000000.000000      7.265854000000000E-02     -8.737108000000000E+01      7.056885000000000E-01      1.344063000000000E+02
5160000000.000000      9.643555000000000E-02     -1.187266000000000E+02      6.300354000000000E-01      1.220937000000000E+02
5180000000.000000      1.095772000000000E-01     -1.492266000000000E+02      5.335083000000000E-01      1.108594000000000E+02
5200000000.000000      1.128540000000000E-01      1.780937000000000E+02      4.174042000000000E-01      1.012031000000000E+02
5220000000.000000      1.098938000000000E-01      1.422969000000000E+02      2.838593000000000E-01      9.820313000000000E+01
5240000000.000000      1.089821000000000E-01      1.058945000000000E+02      1.840973000000000E-01      1.150117000000000E+02
5260000000.000000      1.133041000000000E-01      7.260156000000000E+01      1.961212000000000E-01      1.491797000000000E+02
5280000000.000000      1.207047000000000E-01      4.603711000000000E+01      2.957458000000000E-01      1.606328000000000E+02
5300000000.000000      1.276093000000000E-01      2.509766000000000E+01      4.093781000000000E-01      1.581640000000000E+02
5320000000.000000      1.336975000000000E-01      8.816406000000000E+00      5.259399000000000E-01      1.505703000000000E+02
5340000000.000000      1.393280000000000E-01     -5.656738000000000E+00      6.385803000000000E-01      1.385703000000000E+02
5360000000.000000      1.435165000000000E-01     -2.111914000000000E+01      7.060547000000000E-01      1.241172000000000E+02
5380000000.000000      1.388397000000000E-01     -3.889257000000000E+01      7.183228000000000E-01      1.107734000000000E+02
5400000000.000000      1.202660000000000E-01     -5.697656000000000E+01      7.201538000000000E-01      9.907421000000000E+01
5420000000.000000      8.520889000000000E-02     -7.391015000000000E+01      7.051697000000000E-01      8.593750000000000E+01
5440000000.000000      3.083324000000000E-02     -7.910546000000000E+01      6.494446000000000E-01      7.165234000000000E+01
5460000000.000000      4.285431000000000E-02      3.895117000000000E+01      5.404663000000000E-01      5.854297000000000E+01
5480000000.000000      1.128387000000000E-01      3.117773000000000E+01      4.134064000000000E-01      4.929101000000000E+01
5500000000.000000      1.753006000000000E-01      1.579395000000000E+01      2.926941000000000E-01      4.734375000000000E+01
5520000000.000000      2.205353000000000E-01      7.415771000000000E-01      1.957932000000000E-01      5.899219000000000E+01
5540000000.000000      2.514496000000000E-01     -1.303564000000000E+01      1.805038000000000E-01      9.076952000000000E+01
5560000000.000000      2.701721000000000E-01     -2.502050000000000E+01      2.624969000000000E-01      1.086914000000000E+02
5580000000.000000      2.823486000000000E-01     -3.490625000000000E+01      3.838348000000000E-01      1.086094000000000E+02
5600000000.000000      2.937622000000000E-01     -4.391797000000000E+01      5.063477000000000E-01      9.969921000000000E+01
5620000000.000000      3.044434000000000E-01     -5.301952000000000E+01      5.973511000000000E-01      8.713282000000000E+01
5640000000.000000      3.081970000000000E-01     -6.268164000000000E+01      6.481018000000000E-01      7.521484000000000E+01
5660000000.000000      2.987061000000000E-01     -7.329687000000000E+01      6.859131000000000E-01      6.393555000000000E+01
5680000000.000000      2.690430000000000E-01     -8.368359000000000E+01      6.995850000000000E-01      5.120507000000000E+01
5700000000.000000      2.211761000000000E-01     -9.108984000000000E+01      6.844482000000000E-01      3.893359000000000E+01
5720000000.000000      1.703644000000000E-01     -8.987108000000000E+01      6.431885000000000E-01      2.614453000000000E+01
5740000000.000000      1.495056000000000E-01     -7.542187000000000E+01      5.653687000000000E-01      1.281396000000000E+01
5760000000.000000      1.780624000000000E-01     -6.366992000000000E+01      4.521637000000000E-01      1.198853000000000E+00
5780000000.000000      2.247849000000000E-01     -6.518749000000000E+01      3.173218000000000E-01     -4.025146000000000E+00
5800000000.000000      2.573853000000000E-01     -7.299218000000000E+01      2.087173000000000E-01      6.792236000000000E+00
5820000000.000000      2.674561000000000E-01     -8.232031000000000E+01      1.892242000000000E-01      3.734375000000000E+01
5840000000.000000      2.579498000000000E-01     -9.097656000000000E+01      2.707062000000000E-01      5.386913000000000E+01
5860000000.000000      2.397385000000000E-01     -9.651953000000000E+01      3.712311000000000E-01      5.414063000000000E+01
5880000000.000000      2.237473000000000E-01     -9.964453000000000E+01      4.775391000000000E-01      4.874804000000000E+01
5900000000.000000      2.163162000000000E-01     -1.021797000000000E+02      5.944519000000000E-01      3.852539000000000E+01
5920000000.000000      2.081375000000000E-01     -1.050898000000000E+02      6.721802000000000E-01      2.473535000000000E+01
5940000000.000000      1.943817000000000E-01     -1.070508000000000E+02      7.040710000000000E-01      1.131689000000000E+01
5960000000.000000      1.776505000000000E-01     -1.052851000000000E+02      7.156372000000000E-01     -1.440613000000000E+00
5980000000.000000      1.656952000000000E-01     -9.747265000000000E+01      6.938477000000000E-01     -1.538379000000000E+01
6000000000.000000      1.814270000000000E-01     -8.831249000000000E+01      6.296997000000000E-01     -2.900000000000000E+01
6020000000.000000      2.159424000000000E-01     -8.621485000000000E+01      5.289307000000000E-01     -4.170507000000000E+01
6040000000.000000      2.518768000000000E-01     -9.155468000000000E+01      4.008179000000000E-01     -4.977734000000000E+01
6060000000.000000      2.754211000000000E-01     -1.007344000000000E+02      2.864075000000000E-01     -4.984765000000000E+01
6080000000.000000      2.852478000000000E-01     -1.108164000000000E+02      2.055893000000000E-01     -3.622070000000000E+01
