! Network Analyzer HP8722D
! Hewlett-Packard
! Data name: Linha & Wilkinson+CNT
! Saver's name: Rodrigo Anjos
! Comments: Teste da utilização de aquisição
continua pelo VNA HP8722D
! Time and date: 29/9/2025 16:30
!              Frequency                     S11                                                   S21                                                   S12                                                   S22
# HZ  S  MA R 50
3000000000.000000      4.240875000000000E-01     -5.542382000000000E+01      2.055511000000000E-01     -1.315234000000000E+02
3020000000.000000      4.479675000000000E-01     -6.954687000000000E+01      3.491058000000000E-01     -1.347969000000000E+02
3040000000.000000      4.537048000000000E-01     -8.270702000000000E+01      4.680481000000000E-01     -1.446406000000000E+02
3060000000.000000      4.454193000000000E-01     -9.469141000000000E+01      5.712891000000000E-01     -1.550234000000000E+02
3080000000.000000      4.301758000000000E-01     -1.060195000000000E+02      6.725464000000000E-01     -1.683203000000000E+02
3100000000.000000      4.087067000000000E-01     -1.171836000000000E+02      7.249756000000000E-01      1.769687000000000E+02
3120000000.000000      3.800659000000000E-01     -1.291719000000000E+02      7.323303000000000E-01      1.636016000000000E+02
3140000000.000000      3.395081000000000E-01     -1.421641000000000E+02      7.236938000000000E-01      1.505703000000000E+02
3160000000.000000      2.793121000000000E-01     -1.561406000000000E+02      6.835938000000000E-01      1.371641000000000E+02
3180000000.000000      2.001114000000000E-01     -1.688594000000000E+02      6.158142000000000E-01      1.245469000000000E+02
3200000000.000000      1.120262000000000E-01     -1.699922000000000E+02      5.207520000000000E-01      1.117734000000000E+02
3220000000.000000      7.875061000000000E-02     -1.248125000000000E+02      3.889618000000000E-01      1.007773000000000E+02
3240000000.000000      1.490555000000000E-01     -1.046250000000000E+02      2.486877000000000E-01      9.945702000000000E+01
3260000000.000000      2.292252000000000E-01     -1.148242000000000E+02      1.474991000000000E-01      1.247187000000000E+02
3280000000.000000      2.873077000000000E-01     -1.305000000000000E+02      2.014618000000000E-01      1.651250000000000E+02
3300000000.000000      3.205261000000000E-01     -1.468047000000000E+02      3.288422000000000E-01      1.696640000000000E+02
3320000000.000000      3.322144000000000E-01     -1.628047000000000E+02      4.615479000000000E-01      1.627344000000000E+02
3340000000.000000      3.284454000000000E-01     -1.782734000000000E+02      5.729065000000000E-01      1.506250000000000E+02
3360000000.000000      3.169556000000000E-01      1.670156000000000E+02      6.461792000000000E-01      1.386875000000000E+02
3380000000.000000      3.010101000000000E-01      1.527187000000000E+02      7.088623000000000E-01      1.271953000000000E+02
3400000000.000000      2.785492000000000E-01      1.379766000000000E+02      7.571716000000000E-01      1.135000000000000E+02
3420000000.000000      2.443085000000000E-01      1.229805000000000E+02      7.481689000000000E-01      9.861328000000000E+01
3440000000.000000      1.912231000000000E-01      1.081914000000000E+02      7.056580000000000E-01      8.569530000000000E+01
3460000000.000000      1.208458000000000E-01      9.732422000000000E+01      6.485291000000000E-01      7.251953000000000E+01
3480000000.000000      4.862022000000000E-02      1.200625000000000E+02      5.520630000000000E-01      5.915429000000000E+01
3500000000.000000      9.087372000000000E-02     -1.740469000000000E+02      4.282990000000000E-01      4.775195000000000E+01
3520000000.000000      1.828461000000000E-01      1.791953000000000E+02      2.810822000000000E-01      4.040039000000000E+01
3540000000.000000      2.618713000000000E-01      1.630625000000000E+02      1.483536000000000E-01      5.768164000000000E+01
3560000000.000000      3.222961000000000E-01      1.460781000000000E+02      1.655884000000000E-01      1.073555000000000E+02
3580000000.000000      3.597107000000000E-01      1.301328000000000E+02      2.923737000000000E-01      1.176015000000000E+02
3600000000.000000      3.757935000000000E-01      1.154766000000000E+02      4.181366000000000E-01      1.107187000000000E+02
3620000000.000000      3.783875000000000E-01      1.027812000000000E+02      5.194092000000000E-01      1.012070000000000E+02
3640000000.000000      3.685150000000000E-01      9.148438000000000E+01      6.208496000000000E-01      9.031250000000000E+01
3660000000.000000      3.526917000000000E-01      8.130077000000000E+01      6.917114000000000E-01      7.598046000000000E+01
3680000000.000000      3.304291000000000E-01      7.204296000000000E+01      7.113953000000000E-01      6.293163000000000E+01
3700000000.000000      3.000641000000000E-01      6.378124000000000E+01      7.207336000000000E-01      5.121094000000000E+01
3720000000.000000      2.562103000000000E-01      5.772461000000000E+01      7.253113000000000E-01      3.709375000000000E+01
3740000000.000000      2.056503000000000E-01      5.838672000000000E+01      6.648560000000000E-01      2.156836000000000E+01
3760000000.000000      1.779556000000000E-01      7.219140000000000E+01      5.681152000000000E-01      7.304443000000000E+00
3780000000.000000      2.108459000000000E-01      8.741014000000000E+01      4.376221000000000E-01     -6.005615000000000E+00
3800000000.000000      2.813568000000000E-01      8.922266000000000E+01      2.843018000000000E-01     -1.355029000000000E+01
3820000000.000000      3.491821000000000E-01      8.281641000000000E+01      1.549072000000000E-01     -8.747864000000000E-01
3840000000.000000      3.999634000000000E-01      7.412499000000000E+01      1.418839000000000E-01      4.746094000000000E+01
3860000000.000000      4.350586000000000E-01      6.543359000000000E+01      2.440948000000000E-01      6.537499000000000E+01
3880000000.000000      4.608765000000000E-01      5.796679000000000E+01      3.751373000000000E-01      6.132226000000000E+01
3900000000.000000      4.895935000000000E-01      5.093163000000000E+01      4.761200000000000E-01      4.789258000000000E+01
3920000000.000000      5.215149000000000E-01      4.342578000000000E+01      5.087280000000000E-01      3.615234000000000E+01
3940000000.000000      5.485535000000000E-01      3.435742000000000E+01      5.384827000000000E-01      2.970800000000000E+01
3960000000.000000      5.604553000000000E-01      2.432031000000000E+01      5.957947000000000E-01      2.030371000000000E+01
3980000000.000000      5.558167000000000E-01      1.377246000000000E+01      5.980225000000000E-01      8.238281000000000E+00
4000000000.000000      5.273438000000000E-01      3.320557000000000E+00      5.813293000000000E-01      1.323853000000000E+00
4020000000.000000      4.853821000000000E-01     -6.667480000000000E+00      5.978088000000000E-01     -6.368164000000000E+00
4040000000.000000      4.270630000000000E-01     -1.553906000000000E+01      5.864258000000000E-01     -1.852344000000000E+01
4060000000.000000      3.515625000000000E-01     -2.173438000000000E+01      5.292053000000000E-01     -2.869824000000000E+01
4080000000.000000      2.754669000000000E-01     -2.182715000000000E+01      4.699860000000000E-01     -3.791601000000000E+01
4100000000.000000      2.288055000000000E-01     -1.144385000000000E+01      3.690338000000000E-01     -4.760742000000000E+01
4120000000.000000      2.412033000000000E-01      1.826477000000000E+00      2.511444000000000E-01     -4.433007000000000E+01
4140000000.000000      2.894592000000000E-01      5.184082000000000E+00      2.024765000000000E-01     -2.050781000000000E+01
4160000000.000000      3.335876000000000E-01      1.154907000000000E+00      2.617645000000000E-01     -2.705383000000000E-01
4180000000.000000      3.614349000000000E-01     -5.656738000000000E+00      3.552551000000000E-01      3.994873000000000E+00
4200000000.000000      3.720245000000000E-01     -1.354639000000000E+01      4.865265000000000E-01      1.562805000000000E+00
4220000000.000000      3.678131000000000E-01     -2.064258000000000E+01      6.394653000000000E-01     -1.064600000000000E+01
4240000000.000000      3.491364000000000E-01     -2.820215000000000E+01      7.219543000000000E-01     -2.756250000000000E+01
4260000000.000000      3.110352000000000E-01     -3.394922000000000E+01      7.423706000000000E-01     -4.157812000000000E+01
4280000000.000000      2.607117000000000E-01     -3.539258000000000E+01      7.529907000000000E-01     -5.544140000000000E+01
4300000000.000000      2.223663000000000E-01     -2.741992000000000E+01      7.156677000000000E-01     -7.054688000000000E+01
4320000000.000000      2.345963000000000E-01     -1.470801000000000E+01      6.356201000000000E-01     -8.497265000000000E+01
4340000000.000000      2.922668000000000E-01     -1.043701000000000E+01      5.183411000000000E-01     -9.766014000000000E+01
4360000000.000000      3.581390000000000E-01     -1.543457000000000E+01      3.843994000000000E-01     -1.068398000000000E+02
4380000000.000000      4.050293000000000E-01     -2.438574000000000E+01      2.517395000000000E-01     -1.082461000000000E+02
4400000000.000000      4.269867000000000E-01     -3.431055000000000E+01      1.535645000000000E-01     -8.593359000000000E+01
4420000000.000000      4.254608000000000E-01     -4.364648000000000E+01      1.856003000000000E-01     -4.586523000000000E+01
4440000000.000000      4.083862000000000E-01     -5.176367000000000E+01      3.084106000000000E-01     -3.605859000000000E+01
4460000000.000000      3.877716000000000E-01     -5.836914000000000E+01      4.502563000000000E-01     -4.307226000000000E+01
4480000000.000000      3.665924000000000E-01     -6.482812000000000E+01      5.599365000000000E-01     -5.506249000000000E+01
4500000000.000000      3.476410000000000E-01     -7.155468000000000E+01      6.429443000000000E-01     -6.652344000000000E+01
4520000000.000000      3.145142000000000E-01     -7.919140000000000E+01      7.163391000000000E-01     -7.958202000000000E+01
4540000000.000000      2.629089000000000E-01     -8.553514000000000E+01      7.427979000000000E-01     -9.416796000000000E+01
4560000000.000000      2.022629000000000E-01     -8.418360000000000E+01      7.288513000000000E-01     -1.073633000000000E+02
4580000000.000000      1.737595000000000E-01     -6.831640000000000E+01      6.925354000000000E-01     -1.211992000000000E+02
4600000000.000000      2.104568000000000E-01     -5.391015000000000E+01      6.079407000000000E-01     -1.344844000000000E+02
4620000000.000000      2.755890000000000E-01     -5.500586000000000E+01      5.020447000000000E-01     -1.451406000000000E+02
4640000000.000000      3.296967000000000E-01     -6.478906000000000E+01      3.828735000000000E-01     -1.535781000000000E+02
4660000000.000000      3.544769000000000E-01     -7.803124000000000E+01      2.482758000000000E-01     -1.520625000000000E+02
4680000000.000000      3.467865000000000E-01     -9.210546000000000E+01      1.786957000000000E-01     -1.242070000000000E+02
4700000000.000000      3.101959000000000E-01     -1.053828000000000E+02      2.459259000000000E-01     -9.680077000000000E+01
4720000000.000000      2.543488000000000E-01     -1.160586000000000E+02      3.647614000000000E-01     -9.520702000000000E+01
4740000000.000000      1.920166000000000E-01     -1.214414000000000E+02      4.725494000000000E-01     -1.015430000000000E+02
4760000000.000000      1.394653000000000E-01     -1.179805000000000E+02      5.783997000000000E-01     -1.103203000000000E+02
4780000000.000000      1.118507000000000E-01     -1.022734000000000E+02      6.688843000000000E-01     -1.225078000000000E+02
4800000000.000000      1.170349000000000E-01     -8.384766000000000E+01      7.182617000000000E-01     -1.354297000000000E+02
4820000000.000000      1.452408000000000E-01     -7.364452000000000E+01      7.361450000000000E-01     -1.487344000000000E+02
4840000000.000000      1.857071000000000E-01     -7.354687000000000E+01      7.200928000000000E-01     -1.616406000000000E+02
4860000000.000000      2.298203000000000E-01     -7.995312000000000E+01      6.859131000000000E-01     -1.741484000000000E+02
4880000000.000000      2.678986000000000E-01     -9.043749000000000E+01      6.182251000000000E-01      1.721562000000000E+02
4900000000.000000      2.938538000000000E-01     -1.038008000000000E+02      4.967957000000000E-01      1.599531000000000E+02
4920000000.000000      3.003998000000000E-01     -1.189726000000000E+02      3.685303000000000E-01      1.534531000000000E+02
4940000000.000000      2.862396000000000E-01     -1.346172000000000E+02      2.539063000000000E-01      1.556562000000000E+02
4960000000.000000      2.559052000000000E-01     -1.499219000000000E+02      1.774979000000000E-01      1.764844000000000E+02
4980000000.000000      2.133179000000000E-01     -1.640547000000000E+02      2.126389000000000E-01     -1.514688000000000E+02
5000000000.000000      1.692352000000000E-01     -1.759063000000000E+02      3.275146000000000E-01     -1.434687000000000E+02
5020000000.000000      1.311569000000000E-01      1.740781000000000E+02      4.594116000000000E-01     -1.494844000000000E+02
5040000000.000000      1.011658000000000E-01      1.637969000000000E+02      5.676880000000000E-01     -1.603750000000000E+02
5060000000.000000      7.290649000000000E-02      1.487656000000000E+02      6.493530000000000E-01     -1.716172000000000E+02
5080000000.000000      4.221535000000000E-02      1.230703000000000E+02      7.185669000000000E-01      1.761875000000000E+02
5100000000.000000      1.696110000000000E-02      4.440625000000000E+01      7.572021000000000E-01      1.624609000000000E+02
5120000000.000000      4.075432000000000E-02     -4.980859000000000E+01      7.537537000000000E-01      1.482422000000000E+02
5140000000.000000      7.228851000000000E-02     -8.693359000000000E+01      7.043457000000000E-01      1.345156000000000E+02
5160000000.000000      9.624481000000000E-02     -1.182695000000000E+02      6.307678000000000E-01      1.222461000000000E+02
5180000000.000000      1.099777000000000E-01     -1.489297000000000E+02      5.368652000000000E-01      1.109570000000000E+02
5200000000.000000      1.132774000000000E-01      1.785391000000000E+02      4.199677000000000E-01      1.011250000000000E+02
5220000000.000000      1.099968000000000E-01      1.427344000000000E+02      2.860260000000000E-01      9.808983000000000E+01
5240000000.000000      1.090355000000000E-01      1.065039000000000E+02      1.847382000000000E-01      1.146719000000000E+02
5260000000.000000      1.131401000000000E-01      7.318359000000000E+01      1.948929000000000E-01      1.490000000000000E+02
5280000000.000000      1.207619000000000E-01      4.647851000000000E+01      2.941437000000000E-01      1.607031000000000E+02
5300000000.000000      1.278839000000000E-01      2.549316000000000E+01      4.082031000000000E-01      1.583203000000000E+02
5320000000.000000      1.332932000000000E-01      8.876953000000000E+00      5.263977000000000E-01      1.508828000000000E+02
5340000000.000000      1.393204000000000E-01     -5.357422000000000E+00      6.371460000000000E-01      1.387734000000000E+02
5360000000.000000      1.437912000000000E-01     -2.099219000000000E+01      7.040405000000000E-01      1.242266000000000E+02
5380000000.000000      1.390381000000000E-01     -3.854883000000000E+01      7.169495000000000E-01      1.109531000000000E+02
5400000000.000000      1.211700000000000E-01     -5.676562000000000E+01      7.188110000000000E-01      9.927343000000000E+01
5420000000.000000      8.562469000000000E-02     -7.384766000000000E+01      7.070007000000000E-01      8.624218000000000E+01
5440000000.000000      3.141785000000000E-02     -7.953515000000000E+01      6.500244000000000E-01      7.183984000000000E+01
5460000000.000000      4.151535000000000E-02      3.946875000000000E+01      5.420227000000000E-01      5.864452000000000E+01
5480000000.000000      1.117058000000000E-01      3.159863000000000E+01      4.167786000000000E-01      4.929101000000000E+01
5500000000.000000      1.746140000000000E-01      1.613672000000000E+01      2.949371000000000E-01      4.698828000000000E+01
5520000000.000000      2.197113000000000E-01      1.038208000000000E+00      1.961823000000000E-01      5.850976000000000E+01
5540000000.000000      2.515259000000000E-01     -1.279395000000000E+01      1.794739000000000E-01      9.024218000000000E+01
5560000000.000000      2.698669000000000E-01     -2.486914000000000E+01      2.604675000000000E-01      1.087344000000000E+02
5580000000.000000      2.826843000000000E-01     -3.474414000000000E+01      3.827515000000000E-01      1.088359000000000E+02
5600000000.000000      2.936554000000000E-01     -4.369141000000000E+01      5.054626000000000E-01      9.991405000000000E+01
5620000000.000000      3.045807000000000E-01     -5.282031000000000E+01      5.946350000000000E-01      8.731640000000000E+01
5640000000.000000      3.081207000000000E-01     -6.257421000000000E+01      6.475220000000000E-01      7.544531000000000E+01
5660000000.000000      2.983551000000000E-01     -7.317187000000000E+01      6.857605000000000E-01      6.412499000000000E+01
5680000000.000000      2.695160000000000E-01     -8.355078000000000E+01      6.982117000000000E-01      5.134570000000000E+01
5700000000.000000      2.220612000000000E-01     -9.110155000000000E+01      6.854248000000000E-01      3.909961000000000E+01
5720000000.000000      1.712952000000000E-01     -9.001171000000000E+01      6.467896000000000E-01      2.633008000000000E+01
5740000000.000000      1.493073000000000E-01     -7.567968000000000E+01      5.679932000000000E-01      1.301855000000000E+01
5760000000.000000      1.776199000000000E-01     -6.373632000000000E+01      4.533539000000000E-01      1.404846000000000E+00
5780000000.000000      2.240448000000000E-01     -6.498828000000000E+01      3.191681000000000E-01     -4.023926000000000E+00
5800000000.000000      2.564087000000000E-01     -7.280859000000000E+01      2.095032000000000E-01      6.516113000000000E+00
5820000000.000000      2.671356000000000E-01     -8.231640000000000E+01      1.879578000000000E-01      3.694921000000000E+01
5840000000.000000      2.577362000000000E-01     -9.082422000000000E+01      2.689514000000000E-01      5.397851000000000E+01
5860000000.000000      2.393723000000000E-01     -9.665625000000000E+01      3.699341000000000E-01      5.426367000000000E+01
5880000000.000000      2.240906000000000E-01     -9.957811000000000E+01      4.764099000000000E-01      4.897070000000000E+01
5900000000.000000      2.161713000000000E-01     -1.022070000000000E+02      5.939636000000000E-01      3.882031000000000E+01
5920000000.000000      2.087631000000000E-01     -1.049687000000000E+02      6.717834000000000E-01      2.484277000000000E+01
5940000000.000000      1.946793000000000E-01     -1.070000000000000E+02      7.018433000000000E-01      1.163428000000000E+01
5960000000.000000      1.774063000000000E-01     -1.054297000000000E+02      7.149963000000000E-01     -1.161804000000000E+00
5980000000.000000      1.655960000000000E-01     -9.768749000000000E+01      6.938782000000000E-01     -1.517627000000000E+01
6000000000.000000      1.813126000000000E-01     -8.842968000000000E+01      6.304016000000000E-01     -2.877539000000000E+01
6020000000.000000      2.156143000000000E-01     -8.637110000000000E+01      5.330811000000000E-01     -4.141992000000000E+01
6040000000.000000      2.510223000000000E-01     -9.153124000000000E+01      4.029846000000000E-01     -4.976563000000000E+01
6060000000.000000      2.746124000000000E-01     -1.004766000000000E+02      2.879486000000000E-01     -4.974023000000000E+01
6080000000.000000      2.855377000000000E-01     -1.108008000000000E+02      2.063446000000000E-01     -3.652148000000000E+01
