! Network Analyzer HP8722D
! Hewlett-Packard
! Data name: Linha & Wilkinson+CNT
! Saver's name: Rodrigo Anjos
! Comments: Teste da utilização de aquisição
continua pelo VNA HP8722D
! Time and date: 29/9/2025 11:58
!              Frequency                     S11                                                   S21                                                   S12                                                   S22
# HZ  S  MA R 50
3000000000.000000      4.239960000000000E-01     -5.644140000000000E+01      2.091064000000000E-01     -1.312969000000000E+02
3020000000.000000      4.482880000000000E-01     -7.021874000000000E+01      3.512573000000000E-01     -1.349062000000000E+02
3040000000.000000      4.534149000000000E-01     -8.328125000000000E+01      4.685974000000000E-01     -1.447422000000000E+02
3060000000.000000      4.458466000000000E-01     -9.540234000000000E+01      5.732727000000000E-01     -1.551797000000000E+02
3080000000.000000      4.310150000000000E-01     -1.066016000000000E+02      6.735535000000000E-01     -1.683828000000000E+02
3100000000.000000      4.104919000000000E-01     -1.177461000000000E+02      7.237854000000000E-01      1.768047000000000E+02
3120000000.000000      3.826447000000000E-01     -1.296875000000000E+02      7.311096000000000E-01      1.634375000000000E+02
3140000000.000000      3.416290000000000E-01     -1.425313000000000E+02      7.228699000000000E-01      1.505938000000000E+02
3160000000.000000      2.809296000000000E-01     -1.563906000000000E+02      6.842957000000000E-01      1.370781000000000E+02
3180000000.000000      2.017288000000000E-01     -1.685703000000000E+02      6.116638000000000E-01      1.244375000000000E+02
3200000000.000000      1.141129000000000E-01     -1.685156000000000E+02      5.175171000000000E-01      1.116406000000000E+02
3220000000.000000      8.381653000000000E-02     -1.243203000000000E+02      3.836975000000000E-01      1.009648000000000E+02
3240000000.000000      1.541443000000000E-01     -1.059141000000000E+02      2.451553000000000E-01      9.988670000000000E+01
3260000000.000000      2.336502000000000E-01     -1.157773000000000E+02      1.471024000000000E-01      1.261953000000000E+02
3280000000.000000      2.912292000000000E-01     -1.311797000000000E+02      2.050095000000000E-01      1.655859000000000E+02
3300000000.000000      3.241119000000000E-01     -1.473906000000000E+02      3.320770000000000E-01      1.695469000000000E+02
3320000000.000000      3.356018000000000E-01     -1.630078000000000E+02      4.644012000000000E-01      1.625234000000000E+02
3340000000.000000      3.317719000000000E-01     -1.782578000000000E+02      5.753174000000000E-01      1.503984000000000E+02
3360000000.000000      3.193207000000000E-01      1.671719000000000E+02      6.482239000000000E-01      1.384140000000000E+02
3380000000.000000      3.018036000000000E-01      1.529687000000000E+02      7.108459000000000E-01      1.270078000000000E+02
3400000000.000000      2.783661000000000E-01      1.383516000000000E+02      7.574463000000000E-01      1.130898000000000E+02
3420000000.000000      2.426682000000000E-01      1.235508000000000E+02      7.485046000000000E-01      9.829296000000000E+01
3440000000.000000      1.884308000000000E-01      1.088867000000000E+02      7.043152000000000E-01      8.546875000000000E+01
3460000000.000000      1.176186000000000E-01      9.880077000000000E+01      6.459045000000000E-01      7.230859000000000E+01
3480000000.000000      4.785919000000000E-02      1.260859000000000E+02      5.474548000000000E-01      5.897655000000000E+01
3500000000.000000      9.640121000000000E-02     -1.731875000000000E+02      4.240265000000000E-01      4.749609000000000E+01
3520000000.000000      1.876450000000000E-01      1.794531000000000E+02      2.770233000000000E-01      4.070117000000000E+01
3540000000.000000      2.661285000000000E-01      1.633203000000000E+02      1.470261000000000E-01      5.908789000000000E+01
3560000000.000000      3.242950000000000E-01      1.462656000000000E+02      1.687317000000000E-01      1.080469000000000E+02
3580000000.000000      3.604126000000000E-01      1.301719000000000E+02      2.964172000000000E-01      1.175312000000000E+02
3600000000.000000      3.756409000000000E-01      1.155039000000000E+02      4.215088000000000E-01      1.105273000000000E+02
3620000000.000000      3.770752000000000E-01      1.028477000000000E+02      5.228271000000000E-01      1.010469000000000E+02
3640000000.000000      3.675690000000000E-01      9.144531000000000E+01      6.244812000000000E-01      8.975000000000000E+01
3660000000.000000      3.504181000000000E-01      8.126562000000000E+01      6.935425000000000E-01      7.560547000000000E+01
3680000000.000000      3.271637000000000E-01      7.202734000000000E+01      7.124329000000000E-01      6.249609000000000E+01
3700000000.000000      2.964020000000000E-01      6.371679000000000E+01      7.212524000000000E-01      5.096874000000000E+01
3720000000.000000      2.510986000000000E-01      5.758594000000000E+01      7.231140000000000E-01      3.666992000000000E+01
3740000000.000000      2.009964000000000E-01      5.858593000000000E+01      6.623230000000000E-01      2.139648000000000E+01
3760000000.000000      1.753616000000000E-01      7.293359000000000E+01      5.649109000000000E-01      7.090088000000000E+00
3780000000.000000      2.106323000000000E-01      8.788280000000000E+01      4.325104000000000E-01     -6.105713000000000E+00
3800000000.000000      2.814484000000000E-01      8.928514000000000E+01      2.802124000000000E-01     -1.324561000000000E+01
3820000000.000000      3.490448000000000E-01      8.260546000000000E+01      1.524582000000000E-01      3.117371000000000E-01
3840000000.000000      3.991241000000000E-01      7.385937000000000E+01      1.445694000000000E-01      4.822851000000000E+01
3860000000.000000      4.340363000000000E-01      6.517968000000000E+01      2.478256000000000E-01      6.532812000000000E+01
3880000000.000000      4.596100000000000E-01      5.764062000000000E+01      3.779755000000000E-01      6.098242000000000E+01
3900000000.000000      4.872589000000000E-01      5.053711000000000E+01      4.797821000000000E-01      4.760156000000000E+01
3920000000.000000      5.189209000000000E-01      4.269921000000000E+01      5.099182000000000E-01      3.590429000000000E+01
3940000000.000000      5.454407000000000E-01      3.367773000000000E+01      5.396118000000000E-01      2.941699000000000E+01
3960000000.000000      5.560913000000000E-01      2.371777000000000E+01      5.962219000000000E-01      1.989844000000000E+01
3980000000.000000      5.531006000000000E-01      1.309668000000000E+01      5.977783000000000E-01      8.161133000000000E+00
4000000000.000000      5.256958000000000E-01      2.598267000000000E+00      5.804443000000000E-01      1.072510000000000E+00
4020000000.000000      4.818268000000000E-01     -7.325195000000000E+00      5.971069000000000E-01     -6.873535000000000E+00
4040000000.000000      4.227295000000000E-01     -1.619531000000000E+01      5.836792000000000E-01     -1.883789000000000E+01
4060000000.000000      3.470001000000000E-01     -2.226855000000000E+01      5.254517000000000E-01     -2.898926000000000E+01
4080000000.000000      2.729187000000000E-01     -2.226172000000000E+01      4.663239000000000E-01     -3.820117000000000E+01
4100000000.000000      2.278748000000000E-01     -1.171289000000000E+01      3.650665000000000E-01     -4.743945000000000E+01
4120000000.000000      2.419815000000000E-01      1.275757000000000E+00      2.482529000000000E-01     -4.373242000000000E+01
4140000000.000000      2.896271000000000E-01      4.607178000000000E+00      2.036285000000000E-01     -1.938769000000000E+01
4160000000.000000      3.338776000000000E-01      4.037476000000000E-01      2.653198000000000E-01      5.218506000000000E-02
4180000000.000000      3.614197000000000E-01     -6.505371000000000E+00      3.593750000000000E-01      3.760010000000000E+00
4200000000.000000      3.707428000000000E-01     -1.423828000000000E+01      4.886169000000000E-01      1.305969000000000E+00
4220000000.000000      3.664703000000000E-01     -2.139648000000000E+01      6.421204000000000E-01     -1.108008000000000E+01
4240000000.000000      3.464966000000000E-01     -2.891406000000000E+01      7.219238000000000E-01     -2.797266000000000E+01
4260000000.000000      3.089142000000000E-01     -3.461328000000000E+01      7.424927000000000E-01     -4.196875000000000E+01
4280000000.000000      2.590179000000000E-01     -3.585938000000000E+01      7.492981000000000E-01     -5.569140000000000E+01
4300000000.000000      2.228546000000000E-01     -2.757519000000000E+01      7.125854000000000E-01     -7.086719000000000E+01
4320000000.000000      2.369843000000000E-01     -1.491016000000000E+01      6.308594000000000E-01     -8.533203000000000E+01
4340000000.000000      2.953033000000000E-01     -1.110889000000000E+01      5.130005000000000E-01     -9.792578000000000E+01
4360000000.000000      3.599701000000000E-01     -1.617969000000000E+01      3.777466000000000E-01     -1.067188000000000E+02
4380000000.000000      4.058228000000000E-01     -2.507421000000000E+01      2.479248000000000E-01     -1.076992000000000E+02
4400000000.000000      4.265900000000000E-01     -3.502734000000000E+01      1.533966000000000E-01     -8.421484000000000E+01
4420000000.000000      4.258270000000000E-01     -4.431250000000000E+01      1.896057000000000E-01     -4.528710000000000E+01
4440000000.000000      4.089355000000000E-01     -5.252343000000000E+01      3.124542000000000E-01     -3.618359000000000E+01
4460000000.000000      3.879852000000000E-01     -5.889257000000000E+01      4.541168000000000E-01     -4.347656000000000E+01
4480000000.000000      3.694153000000000E-01     -6.517578000000000E+01      5.605164000000000E-01     -5.564062000000000E+01
4500000000.000000      3.473816000000000E-01     -7.195313000000000E+01      6.428223000000000E-01     -6.708593000000000E+01
4520000000.000000      3.141785000000000E-01     -7.934765000000000E+01      7.146912000000000E-01     -7.992969000000000E+01
4540000000.000000      2.627258000000000E-01     -8.535156000000000E+01      7.402954000000000E-01     -9.456640000000000E+01
4560000000.000000      2.031631000000000E-01     -8.335546000000000E+01      7.253113000000000E-01     -1.077773000000000E+02
4580000000.000000      1.775055000000000E-01     -6.773828000000000E+01      6.893616000000000E-01     -1.215625000000000E+02
4600000000.000000      2.159500000000000E-01     -5.435351000000000E+01      6.028748000000000E-01     -1.346953000000000E+02
4620000000.000000      2.798767000000000E-01     -5.586914000000000E+01      4.955750000000000E-01     -1.450156000000000E+02
4640000000.000000      3.337708000000000E-01     -6.568749000000000E+01      3.762512000000000E-01     -1.533594000000000E+02
4660000000.000000      3.571625000000000E-01     -7.869922000000000E+01      2.441406000000000E-01     -1.513047000000000E+02
4680000000.000000      3.480530000000000E-01     -9.255077000000000E+01      1.793747000000000E-01     -1.226953000000000E+02
4700000000.000000      3.099365000000000E-01     -1.055820000000000E+02      2.502136000000000E-01     -9.627342000000000E+01
4720000000.000000      2.538605000000000E-01     -1.159609000000000E+02      3.685303000000000E-01     -9.533203000000000E+01
4740000000.000000      1.910934000000000E-01     -1.209727000000000E+02      4.755402000000000E-01     -1.018320000000000E+02
4760000000.000000      1.395721000000000E-01     -1.165898000000000E+02      5.806274000000000E-01     -1.105156000000000E+02
4780000000.000000      1.149635000000000E-01     -1.005547000000000E+02      6.669312000000000E-01     -1.229961000000000E+02
4800000000.000000      1.219063000000000E-01     -8.335546000000000E+01      7.158813000000000E-01     -1.358672000000000E+02
4820000000.000000      1.517410000000000E-01     -7.433984000000000E+01      7.340088000000000E-01     -1.491016000000000E+02
4840000000.000000      1.925354000000000E-01     -7.419922000000000E+01      7.164307000000000E-01     -1.619609000000000E+02
4860000000.000000      2.351532000000000E-01     -8.076563000000000E+01      6.822815000000000E-01     -1.741328000000000E+02
4880000000.000000      2.719116000000000E-01     -9.094921000000000E+01      6.143494000000000E-01      1.718672000000000E+02
4900000000.000000      2.965240000000000E-01     -1.042891000000000E+02      4.930573000000000E-01      1.598438000000000E+02
4920000000.000000      3.007660000000000E-01     -1.192266000000000E+02      3.631134000000000E-01      1.537656000000000E+02
4940000000.000000      2.853394000000000E-01     -1.346641000000000E+02      2.501373000000000E-01      1.564766000000000E+02
4960000000.000000      2.547760000000000E-01     -1.498516000000000E+02      1.772385000000000E-01      1.781328000000000E+02
4980000000.000000      2.119827000000000E-01     -1.635781000000000E+02      2.163925000000000E-01     -1.508828000000000E+02
5000000000.000000      1.673660000000000E-01     -1.748281000000000E+02      3.326263000000000E-01     -1.436797000000000E+02
5020000000.000000      1.291656000000000E-01      1.755703000000000E+02      4.628143000000000E-01     -1.497187000000000E+02
5040000000.000000      9.842682000000000E-02      1.657344000000000E+02      5.717163000000000E-01     -1.605625000000000E+02
5060000000.000000      7.001877000000000E-02      1.515391000000000E+02      6.515198000000000E-01     -1.721328000000000E+02
5080000000.000000      3.913307000000000E-02      1.271719000000000E+02      7.182007000000000E-01      1.758125000000000E+02
5100000000.000000      1.390839000000000E-02      3.390625000000000E+01      7.555847000000000E-01      1.620859000000000E+02
5120000000.000000      4.224205000000000E-02     -5.506640000000000E+01      7.520447000000000E-01      1.478203000000000E+02
5140000000.000000      7.452011000000000E-02     -8.874609000000000E+01      7.001953000000000E-01      1.342109000000000E+02
5160000000.000000      9.765625000000000E-02     -1.189219000000000E+02      6.264038000000000E-01      1.219883000000000E+02
5180000000.000000      1.100998000000000E-01     -1.489375000000000E+02      5.310364000000000E-01      1.107617000000000E+02
5200000000.000000      1.118927000000000E-01      1.784297000000000E+02      4.136810000000000E-01      1.010390000000000E+02
5220000000.000000      1.074829000000000E-01      1.422969000000000E+02      2.812195000000000E-01      9.859375000000000E+01
5240000000.000000      1.061974000000000E-01      1.054726000000000E+02      1.836014000000000E-01      1.161055000000000E+02
5260000000.000000      1.105881000000000E-01      7.149609000000000E+01      1.984634000000000E-01      1.499531000000000E+02
5280000000.000000      1.181602000000000E-01      4.482812000000000E+01      2.983856000000000E-01      1.606172000000000E+02
5300000000.000000      1.249695000000000E-01      2.394726000000000E+01      4.119873000000000E-01      1.579297000000000E+02
5320000000.000000      1.317291000000000E-01      7.436279000000000E+00      5.302429000000000E-01      1.503438000000000E+02
5340000000.000000      1.381607000000000E-01     -6.802002000000000E+00      6.398010000000000E-01      1.384453000000000E+02
5360000000.000000      1.430740000000000E-01     -2.212988000000000E+01      7.062378000000000E-01      1.238125000000000E+02
5380000000.000000      1.393738000000000E-01     -3.955664000000000E+01      7.173157000000000E-01      1.106016000000000E+02
5400000000.000000      1.206398000000000E-01     -5.706055000000000E+01      7.180786000000000E-01      9.885937000000000E+01
5420000000.000000      8.574295000000000E-02     -7.341406000000000E+01      7.036438000000000E-01      8.594530000000000E+01
5440000000.000000      3.206253000000000E-02     -7.598046000000000E+01      6.442871000000000E-01      7.151953000000000E+01
5460000000.000000      4.312897000000000E-02      3.566601000000000E+01      5.367737000000000E-01      5.851171000000000E+01
5480000000.000000      1.121483000000000E-01      2.931836000000000E+01      4.097748000000000E-01      4.931641000000000E+01
5500000000.000000      1.746368000000000E-01      1.431885000000000E+01      2.904053000000000E-01      4.764844000000000E+01
5520000000.000000      2.209473000000000E-01     -3.721619000000000E-01      1.940308000000000E-01      5.981250000000000E+01
5540000000.000000      2.523651000000000E-01     -1.406152000000000E+01      1.822662000000000E-01      9.141405000000000E+01
5560000000.000000      2.705078000000000E-01     -2.585546000000000E+01      2.650909000000000E-01      1.088086000000000E+02
5580000000.000000      2.839661000000000E-01     -3.553711000000000E+01      3.860474000000000E-01      1.084492000000000E+02
5600000000.000000      2.952881000000000E-01     -4.418750000000000E+01      5.080261000000000E-01      9.942968000000000E+01
5620000000.000000      3.062134000000000E-01     -5.330468000000000E+01      5.959473000000000E-01      8.683594000000000E+01
5640000000.000000      3.097382000000000E-01     -6.305859000000000E+01      6.451721000000000E-01      7.506640000000000E+01
5660000000.000000      3.005829000000000E-01     -7.357031000000000E+01      6.850891000000000E-01      6.374413000000000E+01
5680000000.000000      2.716217000000000E-01     -8.396484000000000E+01      6.973877000000000E-01      5.098046000000000E+01
5700000000.000000      2.243118000000000E-01     -9.121485000000000E+01      6.804810000000000E-01      3.862695000000000E+01
5720000000.000000      1.748199000000000E-01     -8.967188000000000E+01      6.404724000000000E-01      2.586133000000000E+01
5740000000.000000      1.538162000000000E-01     -7.559375000000000E+01      5.643616000000000E-01      1.282373000000000E+01
5760000000.000000      1.826172000000000E-01     -6.426562000000000E+01      4.479980000000000E-01      1.334839000000000E+00
5780000000.000000      2.279968000000000E-01     -6.563281000000000E+01      3.133545000000000E-01     -3.606323000000000E+00
5800000000.000000      2.595673000000000E-01     -7.349218000000000E+01      2.067795000000000E-01      7.801514000000000E+00
5820000000.000000      2.685242000000000E-01     -8.271093000000000E+01      1.906815000000000E-01      3.829102000000000E+01
5840000000.000000      2.588806000000000E-01     -9.109766000000000E+01      2.733002000000000E-01      5.416601000000000E+01
5860000000.000000      2.415161000000000E-01     -9.649218000000000E+01      3.734283000000000E-01      5.402734000000000E+01
5880000000.000000      2.271347000000000E-01     -9.958593000000000E+01      4.788971000000000E-01      4.874609000000000E+01
5900000000.000000      2.199783000000000E-01     -1.019414000000000E+02      5.958252000000000E-01      3.835156000000000E+01
5920000000.000000      2.130661000000000E-01     -1.048047000000000E+02      6.712341000000000E-01      2.447461000000000E+01
5940000000.000000      1.987610000000000E-01     -1.069219000000000E+02      7.019043000000000E-01      1.122363000000000E+01
5960000000.000000      1.805344000000000E-01     -1.053984000000000E+02      7.122803000000000E-01     -1.490051000000000E+00
5980000000.000000      1.685486000000000E-01     -9.757421000000000E+01      6.893921000000000E-01     -1.554980000000000E+01
6000000000.000000      1.841354000000000E-01     -8.838671000000000E+01      6.261902000000000E-01     -2.903418000000000E+01
6020000000.000000      2.184525000000000E-01     -8.667969000000000E+01      5.261230000000000E-01     -4.156054000000000E+01
6040000000.000000      2.551117000000000E-01     -9.210546000000000E+01      3.975983000000000E-01     -4.965625000000000E+01
6060000000.000000      2.778015000000000E-01     -1.009805000000000E+02      2.830048000000000E-01     -4.926758000000000E+01
6080000000.000000      2.882690000000000E-01     -1.109727000000000E+02      2.047348000000000E-01     -3.499609000000000E+01
