! Network Analyzer HP8722D
! Hewlett-Packard
! Data name: Linha & Wilkinson+CNT
! Saver's name: Rodrigo Anjos
! Comments: Teste da utilização de aquisição
continua pelo VNA HP8722D
! Time and date: 29/9/2025 15:13
!              Frequency                     S11                                                   S21                                                   S12                                                   S22
# HZ  S  MA R 50
3000000000.000000      4.254761000000000E-01     -5.538280000000000E+01      2.056274000000000E-01     -1.316562000000000E+02
3020000000.000000      4.468384000000000E-01     -6.982812000000000E+01      3.483734000000000E-01     -1.347891000000000E+02
3040000000.000000      4.527283000000000E-01     -8.264843000000000E+01      4.661102000000000E-01     -1.447891000000000E+02
3060000000.000000      4.448242000000000E-01     -9.480469000000000E+01      5.719910000000000E-01     -1.550078000000000E+02
3080000000.000000      4.299469000000000E-01     -1.060859000000000E+02      6.733704000000000E-01     -1.681719000000000E+02
3100000000.000000      4.089050000000000E-01     -1.172539000000000E+02      7.239380000000000E-01      1.769531000000000E+02
3120000000.000000      3.800049000000000E-01     -1.292734000000000E+02      7.323303000000000E-01      1.635313000000000E+02
3140000000.000000      3.401184000000000E-01     -1.422500000000000E+02      7.243347000000000E-01      1.506641000000000E+02
3160000000.000000      2.798157000000000E-01     -1.562266000000000E+02      6.841125000000000E-01      1.370859000000000E+02
3180000000.000000      1.999817000000000E-01     -1.690312000000000E+02      6.159058000000000E-01      1.244922000000000E+02
3200000000.000000      1.123466000000000E-01     -1.700234000000000E+02      5.212402000000000E-01      1.116094000000000E+02
3220000000.000000      7.877350000000000E-02     -1.246484000000000E+02      3.885193000000000E-01      1.007539000000000E+02
3240000000.000000      1.497421000000000E-01     -1.048125000000000E+02      2.488632000000000E-01      9.934374000000000E+01
3260000000.000000      2.292557000000000E-01     -1.149297000000000E+02      1.473007000000000E-01      1.247422000000000E+02
3280000000.000000      2.872009000000000E-01     -1.306250000000000E+02      2.018051000000000E-01      1.651094000000000E+02
3300000000.000000      3.205872000000000E-01     -1.469609000000000E+02      3.286591000000000E-01      1.696875000000000E+02
3320000000.000000      3.319702000000000E-01     -1.628828000000000E+02      4.618225000000000E-01      1.626875000000000E+02
3340000000.000000      3.286438000000000E-01     -1.783203000000000E+02      5.739441000000000E-01      1.507031000000000E+02
3360000000.000000      3.168335000000000E-01      1.670234000000000E+02      6.456909000000000E-01      1.385469000000000E+02
3380000000.000000      3.007813000000000E-01      1.526953000000000E+02      7.087097000000000E-01      1.273281000000000E+02
3400000000.000000      2.785034000000000E-01      1.378906000000000E+02      7.568054000000000E-01      1.134219000000000E+02
3420000000.000000      2.439957000000000E-01      1.229140000000000E+02      7.494812000000000E-01      9.855078000000000E+01
3440000000.000000      1.910782000000000E-01      1.081680000000000E+02      7.068176000000000E-01      8.571875000000000E+01
3460000000.000000      1.209068000000000E-01      9.726563000000000E+01      6.491394000000000E-01      7.256640000000000E+01
3480000000.000000      4.836464000000000E-02      1.195586000000000E+02      5.526428000000000E-01      5.912109000000000E+01
3500000000.000000      9.105301000000000E-02     -1.742734000000000E+02      4.275055000000000E-01      4.772265000000000E+01
3520000000.000000      1.827621000000000E-01      1.793281000000000E+02      2.806091000000000E-01      4.040235000000000E+01
3540000000.000000      2.620239000000000E-01      1.631094000000000E+02      1.484222000000000E-01      5.762304000000000E+01
3560000000.000000      3.223724000000000E-01      1.460625000000000E+02      1.653976000000000E-01      1.074531000000000E+02
3580000000.000000      3.591919000000000E-01      1.301172000000000E+02      2.922821000000000E-01      1.176328000000000E+02
3600000000.000000      3.760376000000000E-01      1.153594000000000E+02      4.179077000000000E-01      1.106602000000000E+02
3620000000.000000      3.779449000000000E-01      1.027187000000000E+02      5.189209000000000E-01      1.012578000000000E+02
3640000000.000000      3.688202000000000E-01      9.151562000000000E+01      6.215820000000000E-01      9.014063000000000E+01
3660000000.000000      3.528290000000000E-01      8.130468000000000E+01      6.938171000000000E-01      7.604687000000000E+01
3680000000.000000      3.299561000000000E-01      7.201172000000000E+01      7.100830000000000E-01      6.275585000000000E+01
3700000000.000000      2.997894000000000E-01      6.370703000000000E+01      7.213135000000000E-01      5.116992000000000E+01
3720000000.000000      2.558289000000000E-01      5.767187000000000E+01      7.242432000000000E-01      3.699609000000000E+01
3740000000.000000      2.053528000000000E-01      5.834961000000000E+01      6.649475000000000E-01      2.154004000000000E+01
3760000000.000000      1.779175000000000E-01      7.214062000000000E+01      5.682373000000000E-01      7.320801000000000E+00
3780000000.000000      2.109070000000000E-01      8.733593000000000E+01      4.381409000000000E-01     -5.936768000000000E+00
3800000000.000000      2.814636000000000E-01      8.908983000000000E+01      2.843781000000000E-01     -1.359180000000000E+01
3820000000.000000      3.493500000000000E-01      8.276953000000000E+01      1.545868000000000E-01     -8.885193000000000E-01
3840000000.000000      3.998871000000000E-01      7.404297000000000E+01      1.417465000000000E-01      4.734961000000000E+01
3860000000.000000      4.354706000000000E-01      6.545703000000000E+01      2.442856000000000E-01      6.530859000000000E+01
3880000000.000000      4.599915000000000E-01      5.792578000000000E+01      3.746948000000000E-01      6.129101000000000E+01
3900000000.000000      4.893646000000000E-01      5.093359000000000E+01      4.762878000000000E-01      4.788086000000000E+01
3920000000.000000      5.199890000000000E-01      4.339063000000000E+01      5.082703000000000E-01      3.626758000000000E+01
3940000000.000000      5.470886000000000E-01      3.424805000000000E+01      5.388489000000000E-01      2.966015000000000E+01
3960000000.000000      5.603943000000000E-01      2.431250000000000E+01      5.954285000000000E-01      2.016602000000000E+01
3980000000.000000      5.542603000000000E-01      1.369434000000000E+01      5.971985000000000E-01      8.361816000000000E+00
4000000000.000000      5.270386000000000E-01      3.348022000000000E+00      5.794373000000000E-01      1.385620000000000E+00
4020000000.000000      4.852600000000000E-01     -6.720947000000000E+00      5.975037000000000E-01     -6.542480000000000E+00
4040000000.000000      4.262085000000000E-01     -1.559668000000000E+01      5.860291000000000E-01     -1.866894000000000E+01
4060000000.000000      3.505554000000000E-01     -2.178320000000000E+01      5.288086000000000E-01     -2.876172000000000E+01
4080000000.000000      2.754517000000000E-01     -2.189941000000000E+01      4.695129000000000E-01     -3.802539000000000E+01
4100000000.000000      2.286987000000000E-01     -1.143311000000000E+01      3.684692000000000E-01     -4.767383000000000E+01
4120000000.000000      2.413406000000000E-01      1.658936000000000E+00      2.508087000000000E-01     -4.438281000000000E+01
4140000000.000000      2.888794000000000E-01      5.255371000000000E+00      2.025681000000000E-01     -2.049121000000000E+01
4160000000.000000      3.335114000000000E-01      1.150818000000000E+00      2.617340000000000E-01     -2.513123000000000E-01
4180000000.000000      3.616180000000000E-01     -5.754150000000000E+00      3.556366000000000E-01      3.935791000000000E+00
4200000000.000000      3.718262000000000E-01     -1.351904000000000E+01      4.862976000000000E-01      1.642456000000000E+00
4220000000.000000      3.680420000000000E-01     -2.071972000000000E+01      6.407471000000000E-01     -1.087109000000000E+01
4240000000.000000      3.487244000000000E-01     -2.825976000000000E+01      7.209167000000000E-01     -2.760058000000000E+01
4260000000.000000      3.107300000000000E-01     -3.401172000000000E+01      7.440491000000000E-01     -4.148438000000000E+01
4280000000.000000      2.604218000000000E-01     -3.548633000000000E+01      7.519531000000000E-01     -5.535937000000000E+01
4300000000.000000      2.227707000000000E-01     -2.742676000000000E+01      7.159729000000000E-01     -7.052343000000000E+01
4320000000.000000      2.344971000000000E-01     -1.474121000000000E+01      6.344299000000000E-01     -8.497265000000000E+01
4340000000.000000      2.921448000000000E-01     -1.044434000000000E+01      5.179443000000000E-01     -9.783203000000000E+01
4360000000.000000      3.578339000000000E-01     -1.544824000000000E+01      3.832092000000000E-01     -1.067578000000000E+02
4380000000.000000      4.048615000000000E-01     -2.441992000000000E+01      2.520905000000000E-01     -1.082227000000000E+02
4400000000.000000      4.262238000000000E-01     -3.432617000000000E+01      1.538925000000000E-01     -8.607031000000000E+01
4420000000.000000      4.247589000000000E-01     -4.367383000000000E+01      1.860504000000000E-01     -4.588867000000000E+01
4440000000.000000      4.090271000000000E-01     -5.181641000000000E+01      3.084259000000000E-01     -3.608789000000000E+01
4460000000.000000      3.876801000000000E-01     -5.855859000000000E+01      4.502716000000000E-01     -4.315625000000000E+01
4480000000.000000      3.680573000000000E-01     -6.464062000000000E+01      5.604553000000000E-01     -5.522655000000000E+01
4500000000.000000      3.472137000000000E-01     -7.144921000000000E+01      6.430969000000000E-01     -6.664453000000000E+01
4520000000.000000      3.143921000000000E-01     -7.924218000000000E+01      7.152710000000000E-01     -7.946094000000000E+01
4540000000.000000      2.631226000000000E-01     -8.553905000000000E+01      7.423096000000000E-01     -9.423437000000000E+01
4560000000.000000      2.018356000000000E-01     -8.405468000000000E+01      7.290649000000000E-01     -1.074648000000000E+02
4580000000.000000      1.740875000000000E-01     -6.830859000000000E+01      6.929016000000000E-01     -1.212891000000000E+02
4600000000.000000      2.108459000000000E-01     -5.391992000000000E+01      6.080627000000000E-01     -1.345469000000000E+02
4620000000.000000      2.760315000000000E-01     -5.509375000000000E+01      5.011902000000000E-01     -1.450156000000000E+02
4640000000.000000      3.299561000000000E-01     -6.479687000000000E+01      3.814240000000000E-01     -1.535312000000000E+02
4660000000.000000      3.543549000000000E-01     -7.813671000000000E+01      2.482300000000000E-01     -1.521484000000000E+02
4680000000.000000      3.464203000000000E-01     -9.217577000000000E+01      1.787491000000000E-01     -1.242773000000000E+02
4700000000.000000      3.098755000000000E-01     -1.053984000000000E+02      2.454224000000000E-01     -9.661718000000000E+01
4720000000.000000      2.543793000000000E-01     -1.160859000000000E+02      3.651123000000000E-01     -9.522264000000000E+01
4740000000.000000      1.924210000000000E-01     -1.215586000000000E+02      4.723816000000000E-01     -1.014570000000000E+02
4760000000.000000      1.391754000000000E-01     -1.178867000000000E+02      5.777893000000000E-01     -1.102656000000000E+02
4780000000.000000      1.115837000000000E-01     -1.019648000000000E+02      6.660461000000000E-01     -1.226601000000000E+02
4800000000.000000      1.175385000000000E-01     -8.409765000000000E+01      7.171326000000000E-01     -1.354844000000000E+02
4820000000.000000      1.459122000000000E-01     -7.399219000000000E+01      7.355957000000000E-01     -1.487656000000000E+02
4840000000.000000      1.860428000000000E-01     -7.354297000000000E+01      7.189026000000000E-01     -1.617109000000000E+02
4860000000.000000      2.300720000000000E-01     -8.009375000000000E+01      6.863708000000000E-01     -1.739766000000000E+02
4880000000.000000      2.678680000000000E-01     -9.041796000000000E+01      6.184998000000000E-01      1.721484000000000E+02
4900000000.000000      2.937927000000000E-01     -1.039180000000000E+02      4.974213000000000E-01      1.599766000000000E+02
4920000000.000000      3.000183000000000E-01     -1.190586000000000E+02      3.689117000000000E-01      1.535156000000000E+02
4940000000.000000      2.862244000000000E-01     -1.346953000000000E+02      2.531891000000000E-01      1.557656000000000E+02
4960000000.000000      2.557831000000000E-01     -1.499297000000000E+02      1.771164000000000E-01      1.766953000000000E+02
4980000000.000000      2.133408000000000E-01     -1.641172000000000E+02      2.124329000000000E-01     -1.514375000000000E+02
5000000000.000000      1.688538000000000E-01     -1.760156000000000E+02      3.278809000000000E-01     -1.434844000000000E+02
5020000000.000000      1.311646000000000E-01      1.739766000000000E+02      4.590149000000000E-01     -1.493906000000000E+02
5040000000.000000      1.006775000000000E-01      1.638438000000000E+02      5.670166000000000E-01     -1.602734000000000E+02
5060000000.000000      7.263947000000000E-02      1.486016000000000E+02      6.501465000000000E-01     -1.716484000000000E+02
5080000000.000000      4.228401000000000E-02      1.230859000000000E+02      7.182007000000000E-01      1.761172000000000E+02
5100000000.000000      1.702785000000000E-02      4.554883000000000E+01      7.573853000000000E-01      1.623906000000000E+02
5120000000.000000      4.045486000000000E-02     -5.006445000000000E+01      7.539368000000000E-01      1.481484000000000E+02
5140000000.000000      7.211685000000000E-02     -8.672655000000000E+01      7.046204000000000E-01      1.345859000000000E+02
5160000000.000000      9.617233000000000E-02     -1.182148000000000E+02      6.295166000000000E-01      1.220703000000000E+02
5180000000.000000      1.096153000000000E-01     -1.488203000000000E+02      5.354004000000000E-01      1.109648000000000E+02
5200000000.000000      1.126251000000000E-01      1.783437000000000E+02      4.179077000000000E-01      1.009414000000000E+02
5220000000.000000      1.100731000000000E-01      1.424687000000000E+02      2.859039000000000E-01      9.810936000000000E+01
5240000000.000000      1.094437000000000E-01      1.062734000000000E+02      1.846161000000000E-01      1.147227000000000E+02
5260000000.000000      1.134720000000000E-01      7.295312000000000E+01      1.945724000000000E-01      1.489141000000000E+02
5280000000.000000      1.206093000000000E-01      4.642968000000000E+01      2.940369000000000E-01      1.605312000000000E+02
5300000000.000000      1.276016000000000E-01      2.539063000000000E+01      4.078064000000000E-01      1.582891000000000E+02
5320000000.000000      1.334152000000000E-01      8.931641000000000E+00      5.263672000000000E-01      1.507500000000000E+02
5340000000.000000      1.389084000000000E-01     -5.423340000000000E+00      6.373901000000000E-01      1.388359000000000E+02
5360000000.000000      1.431122000000000E-01     -2.116113000000000E+01      7.048950000000000E-01      1.243125000000000E+02
5380000000.000000      1.386414000000000E-01     -3.851563000000000E+01      7.176514000000000E-01      1.109141000000000E+02
5400000000.000000      1.205215000000000E-01     -5.682422000000000E+01      7.196655000000000E-01      9.933983000000000E+01
5420000000.000000      8.581924000000000E-02     -7.362499000000000E+01      7.061768000000000E-01      8.619141000000000E+01
5440000000.000000      3.110790000000000E-02     -7.938281000000000E+01      6.489258000000000E-01      7.192968000000000E+01
5460000000.000000      4.195976000000000E-02      3.906445000000000E+01      5.421448000000000E-01      5.867382000000000E+01
5480000000.000000      1.119728000000000E-01      3.158203000000000E+01      4.166260000000000E-01      4.955078000000000E+01
5500000000.000000      1.745071000000000E-01      1.613672000000000E+01      2.947998000000000E-01      4.721875000000000E+01
5520000000.000000      2.203674000000000E-01      1.075256000000000E+00      1.963806000000000E-01      5.841797000000000E+01
5540000000.000000      2.517548000000000E-01     -1.265381000000000E+01      1.795349000000000E-01      9.031250000000000E+01
5560000000.000000      2.702179000000000E-01     -2.478418000000000E+01      2.609406000000000E-01      1.086914000000000E+02
5580000000.000000      2.825012000000000E-01     -3.478320000000000E+01      3.821564000000000E-01      1.088359000000000E+02
5600000000.000000      2.939301000000000E-01     -4.367578000000000E+01      5.046692000000000E-01      9.981249000000000E+01
5620000000.000000      3.043976000000000E-01     -5.277538000000000E+01      5.939636000000000E-01      8.731249000000000E+01
5640000000.000000      3.084259000000000E-01     -6.247656000000000E+01      6.448669000000000E-01      7.546875000000000E+01
5660000000.000000      2.982178000000000E-01     -7.314453000000000E+01      6.844177000000000E-01      6.419922000000000E+01
5680000000.000000      2.695770000000000E-01     -8.367188000000000E+01      6.992798000000000E-01      5.131836000000000E+01
5700000000.000000      2.217178000000000E-01     -9.113281000000000E+01      6.854858000000000E-01      3.887500000000000E+01
5720000000.000000      1.713943000000000E-01     -8.991405000000000E+01      6.462708000000000E-01      2.621191000000000E+01
5740000000.000000      1.494598000000000E-01     -7.573828000000000E+01      5.672302000000000E-01      1.308984000000000E+01
5760000000.000000      1.776047000000000E-01     -6.384179000000000E+01      4.536896000000000E-01      1.373291000000000E+00
5780000000.000000      2.238998000000000E-01     -6.500781000000000E+01      3.193817000000000E-01     -3.951050000000000E+00
5800000000.000000      2.567444000000000E-01     -7.291406000000000E+01      2.092896000000000E-01      6.384277000000000E+00
5820000000.000000      2.669525000000000E-01     -8.229687000000000E+01      1.881866000000000E-01      3.699023000000000E+01
5840000000.000000      2.570801000000000E-01     -9.089453000000000E+01      2.689362000000000E-01      5.377930000000000E+01
5860000000.000000      2.397842000000000E-01     -9.662498000000000E+01      3.695984000000000E-01      5.421875000000000E+01
5880000000.000000      2.243347000000000E-01     -9.978125000000000E+01      4.764557000000000E-01      4.882421000000000E+01
5900000000.000000      2.166519000000000E-01     -1.021367000000000E+02      5.932312000000000E-01      3.860352000000000E+01
5920000000.000000      2.083664000000000E-01     -1.050820000000000E+02      6.717834000000000E-01      2.479394000000000E+01
5940000000.000000      1.948624000000000E-01     -1.070469000000000E+02      7.023621000000000E-01      1.154346000000000E+01
5960000000.000000      1.779556000000000E-01     -1.054609000000000E+02      7.144470000000000E-01     -1.174194000000000E+00
5980000000.000000      1.652985000000000E-01     -9.778906000000000E+01      6.924438000000000E-01     -1.510254000000000E+01
6000000000.000000      1.812057000000000E-01     -8.833593000000000E+01      6.306763000000000E-01     -2.876660000000000E+01
6020000000.000000      2.142334000000000E-01     -8.623827000000000E+01      5.323792000000000E-01     -4.137500000000000E+01
6040000000.000000      2.506561000000000E-01     -9.158983000000000E+01      4.029541000000000E-01     -4.974609000000000E+01
6060000000.000000      2.748108000000000E-01     -1.005898000000000E+02      2.878418000000000E-01     -4.989062000000000E+01
6080000000.000000      2.852020000000000E-01     -1.109023000000000E+02      2.063675000000000E-01     -3.664648000000000E+01
