! Network Analyzer HP8722D
! Hewlett-Packard
! Data name: Linha & Wilkinson+CNT
! Saver's name: Rodrigo Anjos
! Comments: Teste da utilização de aquisição
continua pelo VNA HP8722D
! Time and date: 29/9/2025 17:12
!              Frequency                     S11                                                   S21                                                   S12                                                   S22
# HZ  S  MA R 50
3000000000.000000      4.243164000000000E-01     -5.551562000000000E+01      2.056198000000000E-01     -1.314844000000000E+02
3020000000.000000      4.478760000000000E-01     -6.960546000000000E+01      3.490143000000000E-01     -1.348281000000000E+02
3040000000.000000      4.532318000000000E-01     -8.276953000000000E+01      4.671631000000000E-01     -1.447578000000000E+02
3060000000.000000      4.449768000000000E-01     -9.470312000000000E+01      5.717163000000000E-01     -1.550000000000000E+02
3080000000.000000      4.301300000000000E-01     -1.059687000000000E+02      6.739197000000000E-01     -1.682188000000000E+02
3100000000.000000      4.093475000000000E-01     -1.171211000000000E+02      7.242737000000000E-01      1.770156000000000E+02
3120000000.000000      3.803406000000000E-01     -1.290859000000000E+02      7.331543000000000E-01      1.634922000000000E+02
3140000000.000000      3.389435000000000E-01     -1.421016000000000E+02      7.251892000000000E-01      1.507031000000000E+02
3160000000.000000      2.790375000000000E-01     -1.560078000000000E+02      6.865540000000000E-01      1.372656000000000E+02
3180000000.000000      2.005234000000000E-01     -1.689375000000000E+02      6.145630000000000E-01      1.245586000000000E+02
3200000000.000000      1.120224000000000E-01     -1.696640000000000E+02      5.227356000000000E-01      1.117344000000000E+02
3220000000.000000      7.915497000000000E-02     -1.245273000000000E+02      3.893890000000000E-01      1.008086000000000E+02
3240000000.000000      1.502228000000000E-01     -1.047070000000000E+02      2.494202000000000E-01      9.937109000000000E+01
3260000000.000000      2.299194000000000E-01     -1.148828000000000E+02      1.477356000000000E-01      1.246523000000000E+02
3280000000.000000      2.878418000000000E-01     -1.305234000000000E+02      2.012634000000000E-01      1.650234000000000E+02
3300000000.000000      3.209534000000000E-01     -1.468516000000000E+02      3.283234000000000E-01      1.696875000000000E+02
3320000000.000000      3.330231000000000E-01     -1.627578000000000E+02      4.611969000000000E-01      1.627812000000000E+02
3340000000.000000      3.291016000000000E-01     -1.781641000000000E+02      5.746460000000000E-01      1.507109000000000E+02
3360000000.000000      3.176575000000000E-01      1.670000000000000E+02      6.459656000000000E-01      1.384453000000000E+02
3380000000.000000      3.015137000000000E-01      1.527656000000000E+02      7.077332000000000E-01      1.272266000000000E+02
3400000000.000000      2.791901000000000E-01      1.380625000000000E+02      7.576294000000000E-01      1.134727000000000E+02
3420000000.000000      2.444763000000000E-01      1.231523000000000E+02      7.482300000000000E-01      9.862108000000000E+01
3440000000.000000      1.916580000000000E-01      1.084883000000000E+02      7.067566000000000E-01      8.574219000000000E+01
3460000000.000000      1.217880000000000E-01      9.769140000000000E+01      6.481628000000000E-01      7.269140000000000E+01
3480000000.000000      4.915619000000000E-02      1.199375000000000E+02      5.512085000000000E-01      5.914453000000000E+01
3500000000.000000      9.064484000000000E-02     -1.748750000000000E+02      4.273529000000000E-01      4.767187000000000E+01
3520000000.000000      1.825485000000000E-01      1.791250000000000E+02      2.810211000000000E-01      4.039648000000000E+01
3540000000.000000      2.619476000000000E-01      1.629531000000000E+02      1.483841000000000E-01      5.738671000000000E+01
3560000000.000000      3.229370000000000E-01      1.460938000000000E+02      1.652069000000000E-01      1.072031000000000E+02
3580000000.000000      3.597107000000000E-01      1.300781000000000E+02      2.920227000000000E-01      1.175273000000000E+02
3600000000.000000      3.767242000000000E-01      1.154023000000000E+02      4.174652000000000E-01      1.107969000000000E+02
3620000000.000000      3.790894000000000E-01      1.027656000000000E+02      5.194397000000000E-01      1.014844000000000E+02
3640000000.000000      3.691254000000000E-01      9.158594000000000E+01      6.204529000000000E-01      9.025391000000000E+01
3660000000.000000      3.527832000000000E-01      8.131250000000000E+01      6.923218000000000E-01      7.598437000000000E+01
3680000000.000000      3.305359000000000E-01      7.208593000000000E+01      7.110291000000000E-01      6.279491000000000E+01
3700000000.000000      3.002014000000000E-01      6.388866000000000E+01      7.207947000000000E-01      5.128906000000000E+01
3720000000.000000      2.560730000000000E-01      5.772851000000000E+01      7.251282000000000E-01      3.705273000000000E+01
3740000000.000000      2.060013000000000E-01      5.839062000000000E+01      6.660461000000000E-01      2.158789000000000E+01
3760000000.000000      1.780319000000000E-01      7.217578000000000E+01      5.681458000000000E-01      7.337402000000000E+00
3780000000.000000      2.110367000000000E-01      8.744141000000000E+01      4.386597000000000E-01     -5.978027000000000E+00
3800000000.000000      2.810822000000000E-01      8.925781000000000E+01      2.842407000000000E-01     -1.349707000000000E+01
3820000000.000000      3.492584000000000E-01      8.284374000000000E+01      1.551666000000000E-01     -9.132385000000000E-01
3840000000.000000      4.003448000000000E-01      7.411718000000000E+01      1.419296000000000E-01      4.719727000000000E+01
3860000000.000000      4.352264000000000E-01      6.549218000000000E+01      2.440567000000000E-01      6.546093000000000E+01
3880000000.000000      4.601593000000000E-01      5.807422000000000E+01      3.740387000000000E-01      6.136913000000000E+01
3900000000.000000      4.894867000000000E-01      5.094921000000000E+01      4.752045000000000E-01      4.790039000000000E+01
3920000000.000000      5.206604000000000E-01      4.343750000000000E+01      5.078735000000000E-01      3.606836000000000E+01
3940000000.000000      5.494995000000000E-01      3.450976000000000E+01      5.387268000000000E-01      2.972070000000000E+01
3960000000.000000      5.591431000000000E-01      2.422266000000000E+01      5.947876000000000E-01      2.027344000000000E+01
3980000000.000000      5.555420000000000E-01      1.392773000000000E+01      5.966797000000000E-01      8.398926000000000E+00
4000000000.000000      5.279236000000000E-01      3.445557000000000E+00      5.805054000000000E-01      1.484497000000000E+00
4020000000.000000      4.853363000000000E-01     -6.686768000000000E+00      5.987854000000000E-01     -6.513672000000000E+00
4040000000.000000      4.267273000000000E-01     -1.551709000000000E+01      5.875854000000000E-01     -1.848242000000000E+01
4060000000.000000      3.505859000000000E-01     -2.173828000000000E+01      5.293274000000000E-01     -2.880273000000000E+01
4080000000.000000      2.755737000000000E-01     -2.171387000000000E+01      4.714661000000000E-01     -3.818554000000000E+01
4100000000.000000      2.285233000000000E-01     -1.112939000000000E+01      3.696442000000000E-01     -4.733984000000000E+01
4120000000.000000      2.409363000000000E-01      1.977539000000000E+00      2.510986000000000E-01     -4.438477000000000E+01
4140000000.000000      2.895508000000000E-01      5.396973000000000E+00      2.029495000000000E-01     -2.058203000000000E+01
4160000000.000000      3.334656000000000E-01      1.266174000000000E+00      2.617493000000000E-01     -1.840210000000000E-01
4180000000.000000      3.618774000000000E-01     -5.621094000000000E+00      3.556366000000000E-01      3.938599000000000E+00
4200000000.000000      3.713837000000000E-01     -1.343262000000000E+01      4.856110000000000E-01      1.551819000000000E+00
4220000000.000000      3.678894000000000E-01     -2.056641000000000E+01      6.408081000000000E-01     -1.086719000000000E+01
4240000000.000000      3.492889000000000E-01     -2.804980000000000E+01      7.222595000000000E-01     -2.749218000000000E+01
4260000000.000000      3.109131000000000E-01     -3.391406000000000E+01      7.423401000000000E-01     -4.158399000000000E+01
4280000000.000000      2.606201000000000E-01     -3.535156000000000E+01      7.520142000000000E-01     -5.541210000000000E+01
4300000000.000000      2.228851000000000E-01     -2.737109000000000E+01      7.166748000000000E-01     -7.042187000000000E+01
4320000000.000000      2.347031000000000E-01     -1.447900000000000E+01      6.352234000000000E-01     -8.490625000000000E+01
4340000000.000000      2.923126000000000E-01     -1.041113000000000E+01      5.190735000000000E-01     -9.783983000000000E+01
4360000000.000000      3.582153000000000E-01     -1.536035000000000E+01      3.835907000000000E-01     -1.067461000000000E+02
4380000000.000000      4.049530000000000E-01     -2.434570000000000E+01      2.525482000000000E-01     -1.082930000000000E+02
4400000000.000000      4.267273000000000E-01     -3.441406000000000E+01      1.539764000000000E-01     -8.618359000000000E+01
4420000000.000000      4.247437000000000E-01     -4.359375000000000E+01      1.856613000000000E-01     -4.588476000000000E+01
4440000000.000000      4.089966000000000E-01     -5.182031000000000E+01      3.075867000000000E-01     -3.596484000000000E+01
4460000000.000000      3.867798000000000E-01     -5.847265000000000E+01      4.502258000000000E-01     -4.314453000000000E+01
4480000000.000000      3.691254000000000E-01     -6.471874000000000E+01      5.608826000000000E-01     -5.511328000000000E+01
4500000000.000000      3.468475000000000E-01     -7.156250000000000E+01      6.419373000000000E-01     -6.663280000000000E+01
4520000000.000000      3.137817000000000E-01     -7.939062000000000E+01      7.163086000000000E-01     -7.954687000000000E+01
4540000000.000000      2.627258000000000E-01     -8.568750000000000E+01      7.434082000000000E-01     -9.423828000000000E+01
4560000000.000000      2.009125000000000E-01     -8.418360000000000E+01      7.308655000000000E-01     -1.073945000000000E+02
4580000000.000000      1.725159000000000E-01     -6.800390000000000E+01      6.933594000000000E-01     -1.212187000000000E+02
4600000000.000000      2.099686000000000E-01     -5.354492000000000E+01      6.085205000000000E-01     -1.345078000000000E+02
4620000000.000000      2.749176000000000E-01     -5.466991000000000E+01      5.020447000000000E-01     -1.449687000000000E+02
4640000000.000000      3.290100000000000E-01     -6.459765000000000E+01      3.820038000000000E-01     -1.533516000000000E+02
4660000000.000000      3.532104000000000E-01     -7.788280000000000E+01      2.486801000000000E-01     -1.519609000000000E+02
4680000000.000000      3.455200000000000E-01     -9.179688000000000E+01      1.799774000000000E-01     -1.241289000000000E+02
4700000000.000000      3.083191000000000E-01     -1.050625000000000E+02      2.464981000000000E-01     -9.695702000000000E+01
4720000000.000000      2.525482000000000E-01     -1.157031000000000E+02      3.650360000000000E-01     -9.543749000000000E+01
4740000000.000000      1.910172000000000E-01     -1.208750000000000E+02      4.722137000000000E-01     -1.016562000000000E+02
4760000000.000000      1.391144000000000E-01     -1.167617000000000E+02      5.783386000000000E-01     -1.103437000000000E+02
4780000000.000000      1.128349000000000E-01     -1.008164000000000E+02      6.672058000000000E-01     -1.226641000000000E+02
4800000000.000000      1.184578000000000E-01     -8.309374000000000E+01      7.168274000000000E-01     -1.354609000000000E+02
4820000000.000000      1.476135000000000E-01     -7.361328000000000E+01      7.368774000000000E-01     -1.487500000000000E+02
4840000000.000000      1.880493000000000E-01     -7.353516000000000E+01      7.196655000000000E-01     -1.617031000000000E+02
4860000000.000000      2.319717000000000E-01     -7.992578000000000E+01      6.882019000000000E-01     -1.740547000000000E+02
4880000000.000000      2.693787000000000E-01     -9.039843000000000E+01      6.194763000000000E-01      1.718203000000000E+02
4900000000.000000      2.954865000000000E-01     -1.038711000000000E+02      4.997559000000000E-01      1.595703000000000E+02
4920000000.000000      3.019409000000000E-01     -1.189531000000000E+02      3.680878000000000E-01      1.535859000000000E+02
4940000000.000000      2.877045000000000E-01     -1.345625000000000E+02      2.539978000000000E-01      1.555000000000000E+02
4960000000.000000      2.567596000000000E-01     -1.495781000000000E+02      1.772614000000000E-01      1.762734000000000E+02
4980000000.000000      2.142258000000000E-01     -1.639219000000000E+02      2.114487000000000E-01     -1.516484000000000E+02
5000000000.000000      1.699295000000000E-01     -1.757109000000000E+02      3.270721000000000E-01     -1.435391000000000E+02
5020000000.000000      1.321640000000000E-01      1.744375000000000E+02      4.572601000000000E-01     -1.494219000000000E+02
5040000000.000000      1.010742000000000E-01      1.642344000000000E+02      5.672913000000000E-01     -1.602109000000000E+02
5060000000.000000      7.360077000000000E-02      1.496953000000000E+02      6.471558000000000E-01     -1.716250000000000E+02
5080000000.000000      4.271317000000000E-02      1.241836000000000E+02      7.169189000000000E-01      1.761953000000000E+02
5100000000.000000      1.640606000000000E-02      4.669141000000000E+01      7.574768000000000E-01      1.625859000000000E+02
5120000000.000000      4.024506000000000E-02     -5.062695000000000E+01      7.540894000000000E-01      1.482344000000000E+02
5140000000.000000      7.181168000000000E-02     -8.714844000000000E+01      7.051697000000000E-01      1.345312000000000E+02
5160000000.000000      9.636688000000000E-02     -1.185000000000000E+02      6.298218000000000E-01      1.222109000000000E+02
5180000000.000000      1.101418000000000E-01     -1.487266000000000E+02      5.358276000000000E-01      1.108242000000000E+02
5200000000.000000      1.140099000000000E-01      1.786875000000000E+02      4.187012000000000E-01      1.009570000000000E+02
5220000000.000000      1.109161000000000E-01      1.429219000000000E+02      2.856445000000000E-01      9.811718000000000E+01
5240000000.000000      1.091156000000000E-01      1.067188000000000E+02      1.845779000000000E-01      1.146133000000000E+02
5260000000.000000      1.133919000000000E-01      7.324609000000000E+01      1.939316000000000E-01      1.489844000000000E+02
5280000000.000000      1.208305000000000E-01      4.654882000000000E+01      2.941132000000000E-01      1.606484000000000E+02
5300000000.000000      1.271744000000000E-01      2.571289000000000E+01      4.078064000000000E-01      1.583281000000000E+02
5320000000.000000      1.334152000000000E-01      9.004395000000000E+00      5.264587000000000E-01      1.507891000000000E+02
5340000000.000000      1.390533000000000E-01     -5.390381000000000E+00      6.373291000000000E-01      1.389219000000000E+02
5360000000.000000      1.430206000000000E-01     -2.104980000000000E+01      7.056274000000000E-01      1.242969000000000E+02
5380000000.000000      1.388092000000000E-01     -3.868164000000000E+01      7.174683000000000E-01      1.110664000000000E+02
5400000000.000000      1.209984000000000E-01     -5.703711000000000E+01      7.200928000000000E-01      9.932812000000000E+01
5420000000.000000      8.608246000000000E-02     -7.441406000000000E+01      7.066345000000000E-01      8.617579000000000E+01
5440000000.000000      3.195953000000000E-02     -8.113672000000000E+01      6.497803000000000E-01      7.182422000000000E+01
5460000000.000000      4.120064000000000E-02      4.008789000000000E+01      5.423279000000000E-01      5.871484000000000E+01
5480000000.000000      1.113777000000000E-01      3.179492000000000E+01      4.161987000000000E-01      4.948437000000000E+01
5500000000.000000      1.744308000000000E-01      1.632226000000000E+01      2.951508000000000E-01      4.713672000000000E+01
5520000000.000000      2.198944000000000E-01      1.219482000000000E+00      1.965637000000000E-01      5.853516000000000E+01
5540000000.000000      2.517548000000000E-01     -1.274707000000000E+01      1.796112000000000E-01      9.031641000000000E+01
5560000000.000000      2.697754000000000E-01     -2.472656000000000E+01      2.604675000000000E-01      1.086680000000000E+02
5580000000.000000      2.821350000000000E-01     -3.466211000000000E+01      3.817749000000000E-01      1.087539000000000E+02
5600000000.000000      2.935944000000000E-01     -4.373437000000000E+01      5.040588000000000E-01      9.983593000000000E+01
5620000000.000000      3.047638000000000E-01     -5.283984000000000E+01      5.945435000000000E-01      8.737890000000000E+01
5640000000.000000      3.087463000000000E-01     -6.254492000000000E+01      6.461792000000000E-01      7.549609000000000E+01
5660000000.000000      2.985687000000000E-01     -7.333984000000000E+01      6.851196000000000E-01      6.418359000000000E+01
5680000000.000000      2.695465000000000E-01     -8.370703000000000E+01      6.998291000000000E-01      5.128124000000000E+01
5700000000.000000      2.220840000000000E-01     -9.116796000000000E+01      6.838684000000000E-01      3.902539000000000E+01
5720000000.000000      1.710129000000000E-01     -9.008593000000000E+01      6.455383000000000E-01      2.628711000000000E+01
5740000000.000000      1.486816000000000E-01     -7.570313000000000E+01      5.689087000000000E-01      1.296777000000000E+01
5760000000.000000      1.769714000000000E-01     -6.365429000000000E+01      4.548492000000000E-01      1.462524000000000E+00
5780000000.000000      2.238312000000000E-01     -6.504687000000000E+01      3.190765000000000E-01     -4.033447000000000E+00
5800000000.000000      2.569733000000000E-01     -7.298046000000000E+01      2.096024000000000E-01      6.351318000000000E+00
5820000000.000000      2.673187000000000E-01     -8.226563000000000E+01      1.881104000000000E-01      3.692187000000000E+01
5840000000.000000      2.577057000000000E-01     -9.068750000000000E+01      2.686157000000000E-01      5.385742000000000E+01
5860000000.000000      2.390976000000000E-01     -9.641796000000000E+01      3.692169000000000E-01      5.418554000000000E+01
5880000000.000000      2.246704000000000E-01     -9.974609000000000E+01      4.761353000000000E-01      4.890234000000000E+01
5900000000.000000      2.159500000000000E-01     -1.022305000000000E+02      5.914917000000000E-01      3.877148000000000E+01
5920000000.000000      2.081909000000000E-01     -1.050937000000000E+02      6.711731000000000E-01      2.478906000000000E+01
5940000000.000000      1.944809000000000E-01     -1.070703000000000E+02      7.030029000000000E-01      1.153809000000000E+01
5960000000.000000      1.773758000000000E-01     -1.053633000000000E+02      7.149353000000000E-01     -1.161804000000000E+00
5980000000.000000      1.648788000000000E-01     -9.755077000000000E+01      6.922607000000000E-01     -1.529443000000000E+01
6000000000.000000      1.812744000000000E-01     -8.813280000000000E+01      6.315918000000000E-01     -2.860840000000000E+01
6020000000.000000      2.150650000000000E-01     -8.624609000000000E+01      5.339661000000000E-01     -4.145117000000000E+01
6040000000.000000      2.508240000000000E-01     -9.137890000000000E+01      4.031219000000000E-01     -4.965038000000000E+01
6060000000.000000      2.750397000000000E-01     -1.005195000000000E+02      2.883301000000000E-01     -4.983788000000000E+01
6080000000.000000      2.854614000000000E-01     -1.107383000000000E+02      2.065811000000000E-01     -3.653711000000000E+01
