! Network Analyzer HP8722D
! Hewlett-Packard
! Data name: Linha & Wilkinson+CNT
! Saver's name: Rodrigo Anjos
! Comments: Teste da utilização de aquisição
continua pelo VNA HP8722D
! Time and date: 29/9/2025 17:40
!              Frequency                     S11                                                   S21                                                   S12                                                   S22
# HZ  S  MA R 50
3000000000.000000      4.241791000000000E-01     -5.566211000000000E+01      2.067108000000000E-01     -1.315469000000000E+02
3020000000.000000      4.471588000000000E-01     -6.965234000000000E+01      3.497162000000000E-01     -1.350234000000000E+02
3040000000.000000      4.542389000000000E-01     -8.264063000000000E+01      4.673920000000000E-01     -1.449609000000000E+02
3060000000.000000      4.445343000000000E-01     -9.472265000000000E+01      5.720215000000000E-01     -1.552031000000000E+02
3080000000.000000      4.296417000000000E-01     -1.060781000000000E+02      6.737061000000000E-01     -1.683125000000000E+02
3100000000.000000      4.086151000000000E-01     -1.172227000000000E+02      7.242126000000000E-01      1.769531000000000E+02
3120000000.000000      3.796234000000000E-01     -1.291641000000000E+02      7.339172000000000E-01      1.634219000000000E+02
3140000000.000000      3.389130000000000E-01     -1.421719000000000E+02      7.241516000000000E-01      1.506016000000000E+02
3160000000.000000      2.783661000000000E-01     -1.561641000000000E+02      6.846313000000000E-01      1.369922000000000E+02
3180000000.000000      1.989822000000000E-01     -1.689687000000000E+02      6.138306000000000E-01      1.245391000000000E+02
3200000000.000000      1.115227000000000E-01     -1.697422000000000E+02      5.205383000000000E-01      1.117734000000000E+02
3220000000.000000      7.901382000000000E-02     -1.239141000000000E+02      3.874969000000000E-01      1.010312000000000E+02
3240000000.000000      1.499405000000000E-01     -1.046719000000000E+02      2.477188000000000E-01      9.949608000000000E+01
3260000000.000000      2.297516000000000E-01     -1.150078000000000E+02      1.476517000000000E-01      1.250977000000000E+02
3280000000.000000      2.877960000000000E-01     -1.306953000000000E+02      2.032623000000000E-01      1.651797000000000E+02
3300000000.000000      3.205719000000000E-01     -1.470078000000000E+02      3.295441000000000E-01      1.696094000000000E+02
3320000000.000000      3.316498000000000E-01     -1.628984000000000E+02      4.627991000000000E-01      1.626094000000000E+02
3340000000.000000      3.283234000000000E-01     -1.784141000000000E+02      5.747986000000000E-01      1.505078000000000E+02
3360000000.000000      3.167419000000000E-01      1.668047000000000E+02      6.470032000000000E-01      1.384531000000000E+02
3380000000.000000      3.005066000000000E-01      1.527187000000000E+02      7.106628000000000E-01      1.270937000000000E+02
3400000000.000000      2.785950000000000E-01      1.378515000000000E+02      7.590942000000000E-01      1.132813000000000E+02
3420000000.000000      2.436218000000000E-01      1.229648000000000E+02      7.496948000000000E-01      9.842577000000000E+01
3440000000.000000      1.905060000000000E-01      1.082344000000000E+02      7.054749000000000E-01      8.553905000000000E+01
3460000000.000000      1.204300000000000E-01      9.742188000000000E+01      6.474609000000000E-01      7.253906000000000E+01
3480000000.000000      4.837799000000000E-02      1.209844000000000E+02      5.507202000000000E-01      5.900976000000000E+01
3500000000.000000      9.141159000000000E-02     -1.743281000000000E+02      4.259491000000000E-01      4.755468000000000E+01
3520000000.000000      1.834488000000000E-01      1.790390000000000E+02      2.794647000000000E-01      4.048633000000000E+01
3540000000.000000      2.629852000000000E-01      1.628281000000000E+02      1.481323000000000E-01      5.820507000000000E+01
3560000000.000000      3.229370000000000E-01      1.458672000000000E+02      1.667938000000000E-01      1.075977000000000E+02
3580000000.000000      3.598938000000000E-01      1.298906000000000E+02      2.937012000000000E-01      1.175195000000000E+02
3600000000.000000      3.763123000000000E-01      1.153828000000000E+02      4.191742000000000E-01      1.106875000000000E+02
3620000000.000000      3.789673000000000E-01      1.026680000000000E+02      5.210266000000000E-01      1.012578000000000E+02
3640000000.000000      3.686981000000000E-01      9.144140000000000E+01      6.227722000000000E-01      9.005859000000000E+01
3660000000.000000      3.525238000000000E-01      8.123827000000000E+01      6.926880000000000E-01      7.579296000000000E+01
3680000000.000000      3.303528000000000E-01      7.200781000000000E+01      7.105103000000000E-01      6.271093000000000E+01
3700000000.000000      2.998962000000000E-01      6.383789000000000E+01      7.215881000000000E-01      5.112109000000000E+01
3720000000.000000      2.557220000000000E-01      5.764062000000000E+01      7.247314000000000E-01      3.684765000000000E+01
3740000000.000000      2.055206000000000E-01      5.844727000000000E+01      6.643066000000000E-01      2.146094000000000E+01
3760000000.000000      1.781998000000000E-01      7.245312000000000E+01      5.674744000000000E-01      7.311279000000000E+00
3780000000.000000      2.114410000000000E-01      8.758593000000000E+01      4.360046000000000E-01     -6.159424000000000E+00
3800000000.000000      2.825165000000000E-01      8.910547000000000E+01      2.831573000000000E-01     -1.349268000000000E+01
3820000000.000000      3.498993000000000E-01      8.274609000000000E+01      1.539459000000000E-01     -5.136108000000000E-01
3840000000.000000      4.006805000000000E-01      7.402344000000000E+01      1.426163000000000E-01      4.765821000000000E+01
3860000000.000000      4.356842000000000E-01      6.541016000000000E+01      2.457352000000000E-01      6.542578000000000E+01
3880000000.000000      4.613190000000000E-01      5.793554000000000E+01      3.755035000000000E-01      6.119335000000000E+01
3900000000.000000      4.894409000000000E-01      5.093163000000000E+01      4.768372000000000E-01      4.776953000000000E+01
3920000000.000000      5.212708000000000E-01      4.328125000000000E+01      5.086975000000000E-01      3.606640000000000E+01
3940000000.000000      5.494080000000000E-01      3.426172000000000E+01      5.379333000000000E-01      2.958398000000000E+01
3960000000.000000      5.593872000000000E-01      2.429883000000000E+01      5.967102000000000E-01      2.011133000000000E+01
3980000000.000000      5.542297000000000E-01      1.361475000000000E+01      5.971985000000000E-01      8.235352000000000E+00
4000000000.000000      5.285950000000000E-01      3.028076000000000E+00      5.800781000000000E-01      1.311462000000000E+00
4020000000.000000      4.851379000000000E-01     -6.704590000000000E+00      5.973816000000000E-01     -6.366699000000000E+00
4040000000.000000      4.261475000000000E-01     -1.566797000000000E+01      5.855103000000000E-01     -1.863867000000000E+01
4060000000.000000      3.500977000000000E-01     -2.173242000000000E+01      5.271912000000000E-01     -2.881250000000000E+01
4080000000.000000      2.751160000000000E-01     -2.183692000000000E+01      4.704285000000000E-01     -3.822656000000000E+01
4100000000.000000      2.285309000000000E-01     -1.114307000000000E+01      3.680573000000000E-01     -4.742578000000000E+01
4120000000.000000      2.419510000000000E-01      2.026978000000000E+00      2.505646000000000E-01     -4.428906000000000E+01
4140000000.000000      2.894592000000000E-01      5.359863000000000E+00      2.029419000000000E-01     -2.017383000000000E+01
4160000000.000000      3.335876000000000E-01      1.182373000000000E+00      2.628632000000000E-01     -1.565552000000000E-01
4180000000.000000      3.619843000000000E-01     -5.712891000000000E+00      3.568115000000000E-01      3.948120000000000E+00
4200000000.000000      3.715057000000000E-01     -1.354102000000000E+01      4.867859000000000E-01      1.458435000000000E+00
4220000000.000000      3.681488000000000E-01     -2.066016000000000E+01      6.407776000000000E-01     -1.091260000000000E+01
4240000000.000000      3.490601000000000E-01     -2.822851000000000E+01      7.233887000000000E-01     -2.772754000000000E+01
4260000000.000000      3.102722000000000E-01     -3.399219000000000E+01      7.438354000000000E-01     -4.174218000000000E+01
4280000000.000000      2.599335000000000E-01     -3.534765000000000E+01      7.528076000000000E-01     -5.554882000000000E+01
4300000000.000000      2.225037000000000E-01     -2.718847000000000E+01      7.148743000000000E-01     -7.066406000000000E+01
4320000000.000000      2.351379000000000E-01     -1.444189000000000E+01      6.332397000000000E-01     -8.494141000000000E+01
4340000000.000000      2.930298000000000E-01     -1.034912000000000E+01      5.176086000000000E-01     -9.794140000000000E+01
4360000000.000000      3.583679000000000E-01     -1.545508000000000E+01      3.822479000000000E-01     -1.069062000000000E+02
4380000000.000000      4.053192000000000E-01     -2.446875000000000E+01      2.506866000000000E-01     -1.081250000000000E+02
4400000000.000000      4.270020000000000E-01     -3.439453000000000E+01      1.535873000000000E-01     -8.535936000000000E+01
4420000000.000000      4.252777000000000E-01     -4.374219000000000E+01      1.875153000000000E-01     -4.571875000000000E+01
4440000000.000000      4.082642000000000E-01     -5.187109000000000E+01      3.097534000000000E-01     -3.610547000000000E+01
4460000000.000000      3.868103000000000E-01     -5.842968000000000E+01      4.515381000000000E-01     -4.333789000000000E+01
4480000000.000000      3.667450000000000E-01     -6.459374000000000E+01      5.605469000000000E-01     -5.536718000000000E+01
4500000000.000000      3.469238000000000E-01     -7.156640000000000E+01      6.427307000000000E-01     -6.684375000000000E+01
4520000000.000000      3.136292000000000E-01     -7.938671000000000E+01      7.158508000000000E-01     -7.967968000000000E+01
4540000000.000000      2.624207000000000E-01     -8.563280000000000E+01      7.432556000000000E-01     -9.432032000000000E+01
4560000000.000000      2.010117000000000E-01     -8.405859000000000E+01      7.292480000000000E-01     -1.075117000000000E+02
4580000000.000000      1.734390000000000E-01     -6.794531000000000E+01      6.922607000000000E-01     -1.213164000000000E+02
4600000000.000000      2.110519000000000E-01     -5.371679000000000E+01      6.080627000000000E-01     -1.345078000000000E+02
4620000000.000000      2.761993000000000E-01     -5.493164000000000E+01      4.989471000000000E-01     -1.449766000000000E+02
4640000000.000000      3.297119000000000E-01     -6.492188000000000E+01      3.796539000000000E-01     -1.534453000000000E+02
4660000000.000000      3.541870000000000E-01     -7.816796000000000E+01      2.471924000000000E-01     -1.519922000000000E+02
4680000000.000000      3.454895000000000E-01     -9.225389000000000E+01      1.794281000000000E-01     -1.237734000000000E+02
4700000000.000000      3.083496000000000E-01     -1.054492000000000E+02      2.476273000000000E-01     -9.666405000000000E+01
4720000000.000000      2.529449000000000E-01     -1.160000000000000E+02      3.664856000000000E-01     -9.553514000000000E+01
4740000000.000000      1.911163000000000E-01     -1.214609000000000E+02      4.739380000000000E-01     -1.016211000000000E+02
4760000000.000000      1.381226000000000E-01     -1.176445000000000E+02      5.799866000000000E-01     -1.103633000000000E+02
4780000000.000000      1.115036000000000E-01     -1.013867000000000E+02      6.672668000000000E-01     -1.227851000000000E+02
4800000000.000000      1.172333000000000E-01     -8.324219000000000E+01      7.175903000000000E-01     -1.356719000000000E+02
4820000000.000000      1.454163000000000E-01     -7.336719000000000E+01      7.372131000000000E-01     -1.490156000000000E+02
4840000000.000000      1.869583000000000E-01     -7.311328000000000E+01      7.193604000000000E-01     -1.617500000000000E+02
4860000000.000000      2.304230000000000E-01     -7.993750000000000E+01      6.858826000000000E-01     -1.742266000000000E+02
4880000000.000000      2.682648000000000E-01     -9.038671000000000E+01      6.164551000000000E-01      1.720156000000000E+02
4900000000.000000      2.943268000000000E-01     -1.040000000000000E+02      4.960480000000000E-01      1.598750000000000E+02
4920000000.000000      3.002930000000000E-01     -1.190664000000000E+02      3.660278000000000E-01      1.535312000000000E+02
4940000000.000000      2.857056000000000E-01     -1.347109000000000E+02      2.528076000000000E-01      1.559375000000000E+02
4960000000.000000      2.544250000000000E-01     -1.499531000000000E+02      1.774216000000000E-01      1.771016000000000E+02
4980000000.000000      2.124710000000000E-01     -1.641484000000000E+02      2.140045000000000E-01     -1.514141000000000E+02
5000000000.000000      1.684799000000000E-01     -1.760391000000000E+02      3.287354000000000E-01     -1.436328000000000E+02
5020000000.000000      1.308594000000000E-01      1.740547000000000E+02      4.605103000000000E-01     -1.497031000000000E+02
5040000000.000000      1.000938000000000E-01      1.636094000000000E+02      5.695190000000000E-01     -1.604297000000000E+02
5060000000.000000      7.190323000000000E-02      1.490469000000000E+02      6.510010000000000E-01     -1.719375000000000E+02
5080000000.000000      4.166412000000000E-02      1.234961000000000E+02      7.182617000000000E-01      1.760313000000000E+02
5100000000.000000      1.648235000000000E-02      4.304688000000000E+01      7.563477000000000E-01      1.621953000000000E+02
5120000000.000000      4.125214000000000E-02     -5.091797000000000E+01      7.549133000000000E-01      1.479922000000000E+02
5140000000.000000      7.275772000000000E-02     -8.734766000000000E+01      7.032776000000000E-01      1.343047000000000E+02
5160000000.000000      9.636307000000000E-02     -1.185898000000000E+02      6.284485000000000E-01      1.220976000000000E+02
5180000000.000000      1.096649000000000E-01     -1.492500000000000E+02      5.340576000000000E-01      1.107773000000000E+02
5200000000.000000      1.127281000000000E-01      1.782812000000000E+02      4.169769000000000E-01      1.009687000000000E+02
5220000000.000000      1.100883000000000E-01      1.425390000000000E+02      2.841187000000000E-01      9.820702000000000E+01
5240000000.000000      1.090546000000000E-01      1.061172000000000E+02      1.840744000000000E-01      1.152383000000000E+02
5260000000.000000      1.131744000000000E-01      7.262890000000000E+01      1.959991000000000E-01      1.493203000000000E+02
5280000000.000000      1.207809000000000E-01      4.598242000000000E+01      2.953949000000000E-01      1.606016000000000E+02
5300000000.000000      1.278534000000000E-01      2.528418000000000E+01      4.089966000000000E-01      1.582187000000000E+02
5320000000.000000      1.334076000000000E-01      8.702148000000000E+00      5.262146000000000E-01      1.505547000000000E+02
5340000000.000000      1.392212000000000E-01     -5.508301000000000E+00      6.401062000000000E-01      1.387187000000000E+02
5360000000.000000      1.438065000000000E-01     -2.121777000000000E+01      7.069092000000000E-01      1.240977000000000E+02
5380000000.000000      1.385651000000000E-01     -3.900586000000000E+01      7.183533000000000E-01      1.108203000000000E+02
5400000000.000000      1.202240000000000E-01     -5.728906000000000E+01      7.183228000000000E-01      9.926170000000000E+01
5420000000.000000      8.512878000000000E-02     -7.437890000000000E+01      7.062378000000000E-01      8.596874000000000E+01
5440000000.000000      3.096962000000000E-02     -7.895312000000000E+01      6.489258000000000E-01      7.177343000000000E+01
5460000000.000000      4.269028000000000E-02      3.948047000000000E+01      5.400696000000000E-01      5.853710000000000E+01
5480000000.000000      1.124649000000000E-01      3.134375000000000E+01      4.132996000000000E-01      4.933398000000000E+01
5500000000.000000      1.753311000000000E-01      1.589990000000000E+01      2.935791000000000E-01      4.720312000000000E+01
5520000000.000000      2.204208000000000E-01      8.692932000000000E-01      1.953812000000000E-01      5.898242000000000E+01
5540000000.000000      2.515869000000000E-01     -1.286377000000000E+01      1.807632000000000E-01      9.074219000000000E+01
5560000000.000000      2.701721000000000E-01     -2.501953000000000E+01      2.623444000000000E-01      1.086992000000000E+02
5580000000.000000      2.822266000000000E-01     -3.490234000000000E+01      3.836365000000000E-01      1.087109000000000E+02
5600000000.000000      2.942200000000000E-01     -4.381055000000000E+01      5.065002000000000E-01      9.976563000000000E+01
5620000000.000000      3.049469000000000E-01     -5.293359000000000E+01      5.975952000000000E-01      8.711718000000000E+01
5640000000.000000      3.085480000000000E-01     -6.266602000000000E+01      6.469727000000000E-01      7.522655000000000E+01
5660000000.000000      2.980652000000000E-01     -7.343359000000000E+01      6.863708000000000E-01      6.378515000000000E+01
5680000000.000000      2.684631000000000E-01     -8.367579000000000E+01      7.005615000000000E-01      5.111523000000000E+01
5700000000.000000      2.211609000000000E-01     -9.109766000000000E+01      6.839294000000000E-01      3.889648000000000E+01
5720000000.000000      1.703873000000000E-01     -8.977343000000000E+01      6.439819000000000E-01      2.614258000000000E+01
5740000000.000000      1.491241000000000E-01     -7.554688000000000E+01      5.653381000000000E-01      1.277832000000000E+01
5760000000.000000      1.778717000000000E-01     -6.366992000000000E+01      4.523468000000000E-01      1.045044000000000E+00
5780000000.000000      2.244644000000000E-01     -6.518359000000000E+01      3.173523000000000E-01     -4.052734000000000E+00
5800000000.000000      2.571716000000000E-01     -7.310156000000000E+01      2.087555000000000E-01      6.974854000000000E+00
5820000000.000000      2.674408000000000E-01     -8.234766000000000E+01      1.888885000000000E-01      3.741015000000000E+01
5840000000.000000      2.575684000000000E-01     -9.097265000000000E+01      2.707520000000000E-01      5.398438000000000E+01
5860000000.000000      2.388840000000000E-01     -9.651171000000000E+01      3.715820000000000E-01      5.414063000000000E+01
5880000000.000000      2.242203000000000E-01     -9.974998000000000E+01      4.791260000000000E-01      4.878711000000000E+01
5900000000.000000      2.159653000000000E-01     -1.022422000000000E+02      5.937195000000000E-01      3.850000000000000E+01
5920000000.000000      2.081528000000000E-01     -1.050977000000000E+02      6.720886000000000E-01      2.461426000000000E+01
5940000000.000000      1.944656000000000E-01     -1.069883000000000E+02      7.034607000000000E-01      1.141992000000000E+01
5960000000.000000      1.773453000000000E-01     -1.052656000000000E+02      7.145081000000000E-01     -1.308777000000000E+00
5980000000.000000      1.655960000000000E-01     -9.742968000000000E+01      6.930542000000000E-01     -1.536328000000000E+01
6000000000.000000      1.812820000000000E-01     -8.814062000000000E+01      6.287842000000000E-01     -2.885742000000000E+01
6020000000.000000      2.159958000000000E-01     -8.623438000000000E+01      5.299988000000000E-01     -4.143945000000000E+01
6040000000.000000      2.519531000000000E-01     -9.158203000000000E+01      3.994598000000000E-01     -4.972656000000000E+01
6060000000.000000      2.756195000000000E-01     -1.005625000000000E+02      2.868805000000000E-01     -4.968945000000000E+01
6080000000.000000      2.852478000000000E-01     -1.108086000000000E+02      2.057495000000000E-01     -3.608203000000000E+01
