! Network Analyzer HP8722D
! Hewlett-Packard
! Data name: Linha & Wilkinson+CNT
! Saver's name: Rodrigo Anjos
! Comments: Teste da utilização de aquisição
continua pelo VNA HP8722D
! Time and date: 29/9/2025 15:20
!              Frequency                     S11                                                   S21                                                   S12                                                   S22
# HZ  S  MA R 50
3000000000.000000      4.250336000000000E-01     -5.603906000000000E+01      2.082977000000000E-01     -1.314141000000000E+02
3020000000.000000      4.470825000000000E-01     -6.984375000000000E+01      3.511353000000000E-01     -1.349062000000000E+02
3040000000.000000      4.531860000000000E-01     -8.278906000000000E+01      4.691772000000000E-01     -1.449141000000000E+02
3060000000.000000      4.445953000000000E-01     -9.496094000000000E+01      5.718079000000000E-01     -1.553125000000000E+02
3080000000.000000      4.293671000000000E-01     -1.062148000000000E+02      6.742554000000000E-01     -1.683672000000000E+02
3100000000.000000      4.090424000000000E-01     -1.174219000000000E+02      7.247009000000000E-01      1.767734000000000E+02
3120000000.000000      3.793945000000000E-01     -1.293437000000000E+02      7.312622000000000E-01      1.633437000000000E+02
3140000000.000000      3.379364000000000E-01     -1.423906000000000E+02      7.236633000000000E-01      1.503984000000000E+02
3160000000.000000      2.784119000000000E-01     -1.564844000000000E+02      6.837769000000000E-01      1.369141000000000E+02
3180000000.000000      1.982803000000000E-01     -1.690625000000000E+02      6.131592000000000E-01      1.242969000000000E+02
3200000000.000000      1.108551000000000E-01     -1.697266000000000E+02      5.191040000000000E-01      1.116758000000000E+02
3220000000.000000      7.951355000000000E-02     -1.237969000000000E+02      3.849792000000000E-01      1.007305000000000E+02
3240000000.000000      1.513824000000000E-01     -1.048750000000000E+02      2.461319000000000E-01      9.964453000000000E+01
3260000000.000000      2.307739000000000E-01     -1.151328000000000E+02      1.468124000000000E-01      1.258320000000000E+02
3280000000.000000      2.875824000000000E-01     -1.309219000000000E+02      2.040482000000000E-01      1.654453000000000E+02
3300000000.000000      3.204956000000000E-01     -1.472578000000000E+02      3.308563000000000E-01      1.695156000000000E+02
3320000000.000000      3.318634000000000E-01     -1.631562000000000E+02      4.638214000000000E-01      1.625078000000000E+02
3340000000.000000      3.285370000000000E-01     -1.785859000000000E+02      5.746460000000000E-01      1.503359000000000E+02
3360000000.000000      3.163452000000000E-01      1.667031000000000E+02      6.470642000000000E-01      1.383516000000000E+02
3380000000.000000      2.997284000000000E-01      1.524453000000000E+02      7.093811000000000E-01      1.269375000000000E+02
3400000000.000000      2.781677000000000E-01      1.376875000000000E+02      7.576904000000000E-01      1.132383000000000E+02
3420000000.000000      2.429810000000000E-01      1.227070000000000E+02      7.482605000000000E-01      9.843750000000000E+01
3440000000.000000      1.893463000000000E-01      1.081406000000000E+02      7.038879000000000E-01      8.553514000000000E+01
3460000000.000000      1.192360000000000E-01      9.716797000000000E+01      6.471863000000000E-01      7.240234000000000E+01
3480000000.000000      4.759407000000000E-02      1.217617000000000E+02      5.496826000000000E-01      5.887109000000000E+01
3500000000.000000      9.288788000000000E-02     -1.740703000000000E+02      4.241333000000000E-01      4.773242000000000E+01
3520000000.000000      1.843033000000000E-01      1.790547000000000E+02      2.778015000000000E-01      4.048047000000000E+01
3540000000.000000      2.635345000000000E-01      1.627578000000000E+02      1.469269000000000E-01      5.859961000000000E+01
3560000000.000000      3.229370000000000E-01      1.457500000000000E+02      1.678314000000000E-01      1.079062000000000E+02
3580000000.000000      3.600311000000000E-01      1.297969000000000E+02      2.952728000000000E-01      1.174375000000000E+02
3600000000.000000      3.765717000000000E-01      1.151445000000000E+02      4.200287000000000E-01      1.106641000000000E+02
3620000000.000000      3.785248000000000E-01      1.024531000000000E+02      5.215149000000000E-01      1.011172000000000E+02
3640000000.000000      3.687134000000000E-01      9.127344000000000E+01      6.227722000000000E-01      8.992579000000000E+01
3660000000.000000      3.523865000000000E-01      8.108984000000000E+01      6.929626000000000E-01      7.567577000000000E+01
3680000000.000000      3.294678000000000E-01      7.186328000000000E+01      7.102966000000000E-01      6.256836000000000E+01
3700000000.000000      2.987671000000000E-01      6.370117000000000E+01      7.210999000000000E-01      5.094336000000000E+01
3720000000.000000      2.544861000000000E-01      5.761132000000000E+01      7.234192000000000E-01      3.672461000000000E+01
3740000000.000000      2.046890000000000E-01      5.852539000000000E+01      6.627808000000000E-01      2.145703000000000E+01
3760000000.000000      1.779785000000000E-01      7.259375000000000E+01      5.654602000000000E-01      7.029785000000000E+00
3780000000.000000      2.121277000000000E-01      8.757030000000000E+01      4.344635000000000E-01     -6.210205000000000E+00
3800000000.000000      2.825470000000000E-01      8.909374000000000E+01      2.810669000000000E-01     -1.346143000000000E+01
3820000000.000000      3.502960000000000E-01      8.261719000000000E+01      1.530151000000000E-01      1.373291000000000E-02
3840000000.000000      4.008179000000000E-01      7.386328000000000E+01      1.436462000000000E-01      4.813086000000000E+01
3860000000.000000      4.355469000000000E-01      6.540234000000000E+01      2.466583000000000E-01      6.547656000000000E+01
3880000000.000000      4.606323000000000E-01      5.784180000000000E+01      3.768921000000000E-01      6.107812000000000E+01
3900000000.000000      4.897308000000000E-01      5.077148000000000E+01      4.784241000000000E-01      4.780273000000000E+01
3920000000.000000      5.212708000000000E-01      4.316211000000000E+01      5.092773000000000E-01      3.604687000000000E+01
3940000000.000000      5.471191000000000E-01      3.418945000000000E+01      5.394287000000000E-01      2.944140000000000E+01
3960000000.000000      5.590820000000000E-01      2.407617000000000E+01      5.961914000000000E-01      1.989062000000000E+01
3980000000.000000      5.546265000000000E-01      1.348389000000000E+01      5.966797000000000E-01      8.108887000000000E+00
4000000000.000000      5.268250000000000E-01      3.100830000000000E+00      5.802917000000000E-01      1.219482000000000E+00
4020000000.000000      4.835205000000000E-01     -6.854248000000000E+00      5.978394000000000E-01     -6.635742000000000E+00
4040000000.000000      4.245148000000000E-01     -1.575342000000000E+01      5.847473000000000E-01     -1.895215000000000E+01
4060000000.000000      3.490143000000000E-01     -2.172852000000000E+01      5.267334000000000E-01     -2.893164000000000E+01
4080000000.000000      2.736664000000000E-01     -2.178125000000000E+01      4.668121000000000E-01     -3.821094000000000E+01
4100000000.000000      2.280197000000000E-01     -1.122412000000000E+01      3.664246000000000E-01     -4.754687000000000E+01
4120000000.000000      2.422180000000000E-01      1.974792000000000E+00      2.490768000000000E-01     -4.400195000000000E+01
4140000000.000000      2.902679000000000E-01      5.214355000000000E+00      2.033081000000000E-01     -1.977539000000000E+01
4160000000.000000      3.340302000000000E-01      9.187317000000000E-01      2.642365000000000E-01     -2.609253000000000E-02
4180000000.000000      3.618774000000000E-01     -5.947754000000000E+00      3.580475000000000E-01      3.813599000000000E+00
4200000000.000000      3.716736000000000E-01     -1.366846000000000E+01      4.899445000000000E-01      1.399353000000000E+00
4220000000.000000      3.676758000000000E-01     -2.084668000000000E+01      6.424866000000000E-01     -1.113477000000000E+01
4240000000.000000      3.481140000000000E-01     -2.832715000000000E+01      7.214661000000000E-01     -2.787109000000000E+01
4260000000.000000      3.097076000000000E-01     -3.406641000000000E+01      7.430420000000000E-01     -4.191992000000000E+01
4280000000.000000      2.593842000000000E-01     -3.533984000000000E+01      7.516174000000000E-01     -5.582812000000000E+01
4300000000.000000      2.226639000000000E-01     -2.715723000000000E+01      7.143250000000000E-01     -7.085546000000000E+01
4320000000.000000      2.359848000000000E-01     -1.441016000000000E+01      6.309814000000000E-01     -8.525782000000000E+01
4340000000.000000      2.942047000000000E-01     -1.049219000000000E+01      5.151978000000000E-01     -9.799608000000000E+01
4360000000.000000      3.589020000000000E-01     -1.560205000000000E+01      3.796997000000000E-01     -1.067383000000000E+02
4380000000.000000      4.054565000000000E-01     -2.458398000000000E+01      2.489700000000000E-01     -1.080273000000000E+02
4400000000.000000      4.269562000000000E-01     -3.450195000000000E+01      1.534500000000000E-01     -8.475389000000000E+01
4420000000.000000      4.245911000000000E-01     -4.387500000000000E+01      1.884003000000000E-01     -4.538671000000000E+01
4440000000.000000      4.077911000000000E-01     -5.203125000000000E+01      3.117065000000000E-01     -3.619141000000000E+01
4460000000.000000      3.875275000000000E-01     -5.859570000000000E+01      4.520111000000000E-01     -4.333398000000000E+01
4480000000.000000      3.672638000000000E-01     -6.492578000000000E+01      5.617981000000000E-01     -5.554688000000000E+01
4500000000.000000      3.465881000000000E-01     -7.162109000000000E+01      6.425781000000000E-01     -6.684375000000000E+01
4520000000.000000      3.129120000000000E-01     -7.935156000000000E+01      7.168884000000000E-01     -7.985546000000000E+01
4540000000.000000      2.616577000000000E-01     -8.559374000000000E+01      7.416992000000000E-01     -9.444921000000000E+01
4560000000.000000      2.010269000000000E-01     -8.377733000000000E+01      7.288208000000000E-01     -1.076875000000000E+02
4580000000.000000      1.742554000000000E-01     -6.767968000000000E+01      6.911621000000000E-01     -1.214805000000000E+02
4600000000.000000      2.119980000000000E-01     -5.373437000000000E+01      6.045532000000000E-01     -1.347500000000000E+02
4620000000.000000      2.774506000000000E-01     -5.519140000000000E+01      4.975739000000000E-01     -1.451484000000000E+02
4640000000.000000      3.307953000000000E-01     -6.514453000000000E+01      3.795624000000000E-01     -1.535234000000000E+02
4660000000.000000      3.542938000000000E-01     -7.835938000000000E+01      2.455673000000000E-01     -1.516641000000000E+02
4680000000.000000      3.462067000000000E-01     -9.247265000000000E+01      1.791229000000000E-01     -1.232383000000000E+02
4700000000.000000      3.087158000000000E-01     -1.056055000000000E+02      2.490845000000000E-01     -9.657030000000000E+01
4720000000.000000      2.528229000000000E-01     -1.162930000000000E+02      3.675690000000000E-01     -9.542969000000000E+01
4740000000.000000      1.907043000000000E-01     -1.213750000000000E+02      4.742584000000000E-01     -1.016836000000000E+02
4760000000.000000      1.386948000000000E-01     -1.175000000000000E+02      5.802612000000000E-01     -1.107656000000000E+02
4780000000.000000      1.119957000000000E-01     -1.015469000000000E+02      6.672668000000000E-01     -1.229102000000000E+02
4800000000.000000      1.175652000000000E-01     -8.344530000000000E+01      7.173462000000000E-01     -1.358125000000000E+02
4820000000.000000      1.466293000000000E-01     -7.394140000000000E+01      7.355347000000000E-01     -1.490313000000000E+02
4840000000.000000      1.874161000000000E-01     -7.362499000000000E+01      7.194824000000000E-01     -1.618515000000000E+02
4860000000.000000      2.308121000000000E-01     -8.030859000000000E+01      6.843567000000000E-01     -1.743438000000000E+02
4880000000.000000      2.682190000000000E-01     -9.077734000000000E+01      6.151733000000000E-01      1.717031000000000E+02
4900000000.000000      2.938843000000000E-01     -1.042656000000000E+02      4.951019000000000E-01      1.598125000000000E+02
4920000000.000000      3.000946000000000E-01     -1.194023000000000E+02      3.643494000000000E-01      1.535312000000000E+02
4940000000.000000      2.850647000000000E-01     -1.350469000000000E+02      2.510071000000000E-01      1.560078000000000E+02
4960000000.000000      2.540436000000000E-01     -1.503125000000000E+02      1.774368000000000E-01      1.777187000000000E+02
4980000000.000000      2.117081000000000E-01     -1.644375000000000E+02      2.152100000000000E-01     -1.510937000000000E+02
5000000000.000000      1.680603000000000E-01     -1.761562000000000E+02      3.312378000000000E-01     -1.435781000000000E+02
5020000000.000000      1.302490000000000E-01      1.738281000000000E+02      4.624176000000000E-01     -1.498516000000000E+02
5040000000.000000      9.961700000000000E-02      1.636094000000000E+02      5.708618000000000E-01     -1.606875000000000E+02
5060000000.000000      7.218933000000000E-02      1.485000000000000E+02      6.503906000000000E-01     -1.719453000000000E+02
5080000000.000000      4.116440000000000E-02      1.228086000000000E+02      7.181396000000000E-01      1.758594000000000E+02
5100000000.000000      1.686096000000000E-02      4.157812000000000E+01      7.567749000000000E-01      1.620469000000000E+02
5120000000.000000      4.126740000000000E-02     -5.188281000000000E+01      7.524414000000000E-01      1.479375000000000E+02
5140000000.000000      7.305145000000000E-02     -8.803905000000000E+01      7.051697000000000E-01      1.343047000000000E+02
5160000000.000000      9.683228000000000E-02     -1.192344000000000E+02      6.265869000000000E-01      1.219687000000000E+02
5180000000.000000      1.099358000000000E-01     -1.497187000000000E+02      5.324707000000000E-01      1.104805000000000E+02
5200000000.000000      1.128883000000000E-01      1.776172000000000E+02      4.141846000000000E-01      1.008555000000000E+02
5220000000.000000      1.100769000000000E-01      1.418437000000000E+02      2.822266000000000E-01      9.831249000000000E+01
5240000000.000000      1.089134000000000E-01      1.055859000000000E+02      1.835251000000000E-01      1.156680000000000E+02
5260000000.000000      1.135101000000000E-01      7.222265000000000E+01      1.971970000000000E-01      1.498047000000000E+02
5280000000.000000      1.208649000000000E-01      4.561132000000000E+01      2.973785000000000E-01      1.606641000000000E+02
5300000000.000000      1.273727000000000E-01      2.495898000000000E+01      4.109650000000000E-01      1.580859000000000E+02
5320000000.000000      1.332474000000000E-01      8.566406000000000E+00      5.280457000000000E-01      1.504922000000000E+02
5340000000.000000      1.391830000000000E-01     -5.995850000000000E+00      6.393127000000000E-01      1.385078000000000E+02
5360000000.000000      1.431351000000000E-01     -2.148535000000000E+01      7.059937000000000E-01      1.239766000000000E+02
5380000000.000000      1.385193000000000E-01     -3.900976000000000E+01      7.171936000000000E-01      1.105430000000000E+02
5400000000.000000      1.195259000000000E-01     -5.696289000000000E+01      7.189026000000000E-01      9.877733000000000E+01
5420000000.000000      8.419037000000000E-02     -7.408203000000000E+01      7.044373000000000E-01      8.581640000000000E+01
5440000000.000000      2.998257000000000E-02     -7.813671000000000E+01      6.472168000000000E-01      7.169922000000000E+01
5460000000.000000      4.349709000000000E-02      3.879492000000000E+01      5.397339000000000E-01      5.845117000000000E+01
5480000000.000000      1.134262000000000E-01      3.077343000000000E+01      4.109192000000000E-01      4.942577000000000E+01
5500000000.000000      1.756439000000000E-01      1.556055000000000E+01      2.911987000000000E-01      4.735156000000000E+01
5520000000.000000      2.213821000000000E-01      5.259705000000000E-01      1.946945000000000E-01      5.942773000000000E+01
5540000000.000000      2.518311000000000E-01     -1.326074000000000E+01      1.816483000000000E-01      9.127344000000000E+01
5560000000.000000      2.705688000000000E-01     -2.511816000000000E+01      2.640076000000000E-01      1.088164000000000E+02
5580000000.000000      2.822876000000000E-01     -3.501367000000000E+01      3.853760000000000E-01      1.085508000000000E+02
5600000000.000000      2.936859000000000E-01     -4.396484000000000E+01      5.075378000000000E-01      9.956249000000000E+01
5620000000.000000      3.046570000000000E-01     -5.306054000000000E+01      5.975037000000000E-01      8.696484000000000E+01
5640000000.000000      3.077850000000000E-01     -6.282812000000000E+01      6.477661000000000E-01      7.519921000000000E+01
5660000000.000000      2.977600000000000E-01     -7.342578000000000E+01      6.855164000000000E-01      6.373632000000000E+01
5680000000.000000      2.679596000000000E-01     -8.396484000000000E+01      6.987000000000000E-01      5.095312000000000E+01
5700000000.000000      2.201767000000000E-01     -9.114061000000000E+01      6.833191000000000E-01      3.862695000000000E+01
5720000000.000000      1.700058000000000E-01     -8.966406000000000E+01      6.431885000000000E-01      2.577051000000000E+01
5740000000.000000      1.496811000000000E-01     -7.504687000000000E+01      5.634155000000000E-01      1.261914000000000E+01
5760000000.000000      1.789780000000000E-01     -6.353125000000000E+01      4.497375000000000E-01      1.060181000000000E+00
5780000000.000000      2.250671000000000E-01     -6.523828000000000E+01      3.152313000000000E-01     -3.935913000000000E+00
5800000000.000000      2.576294000000000E-01     -7.303515000000000E+01      2.074585000000000E-01      7.443115000000000E+00
5820000000.000000      2.668762000000000E-01     -8.258984000000000E+01      1.900711000000000E-01      3.794531000000000E+01
5840000000.000000      2.574768000000000E-01     -9.106640000000000E+01      2.724152000000000E-01      5.403515000000000E+01
5860000000.000000      2.389297000000000E-01     -9.651171000000000E+01      3.733826000000000E-01      5.396484000000000E+01
5880000000.000000      2.238770000000000E-01     -9.988670000000000E+01      4.800568000000000E-01      4.868164000000000E+01
5900000000.000000      2.158966000000000E-01     -1.022617000000000E+02      5.953369000000000E-01      3.838672000000000E+01
5920000000.000000      2.080460000000000E-01     -1.050078000000000E+02      6.733704000000000E-01      2.454590000000000E+01
5940000000.000000      1.946793000000000E-01     -1.069414000000000E+02      7.011719000000000E-01      1.124023000000000E+01
5960000000.000000      1.774826000000000E-01     -1.052148000000000E+02      7.125854000000000E-01     -1.565552000000000E+00
5980000000.000000      1.653442000000000E-01     -9.754295000000000E+01      6.918335000000000E-01     -1.562402000000000E+01
6000000000.000000      1.819458000000000E-01     -8.815624000000000E+01      6.261902000000000E-01     -2.913379000000000E+01
6020000000.000000      2.159500000000000E-01     -8.648438000000000E+01      5.284119000000000E-01     -4.176367000000000E+01
6040000000.000000      2.520294000000000E-01     -9.173828000000000E+01      3.984528000000000E-01     -4.970508000000000E+01
6060000000.000000      2.756653000000000E-01     -1.007344000000000E+02      2.847748000000000E-01     -4.952929000000000E+01
6080000000.000000      2.852783000000000E-01     -1.110625000000000E+02      2.048187000000000E-01     -3.566211000000000E+01
