! Network Analyzer HP8722D
! Hewlett-Packard
! Data name: Linha & Wilkinson+CNT
! Saver's name: Rodrigo Anjos
! Comments: Teste da utilização de aquisição
continua pelo VNA HP8722D
! Time and date: 29/9/2025 16:06
!              Frequency                     S11                                                   S21                                                   S12                                                   S22
# HZ  S  MA R 50
3000000000.000000      4.244843000000000E-01     -5.580468000000000E+01      2.094650000000000E-01     -1.314141000000000E+02
3020000000.000000      4.465942000000000E-01     -6.999609000000000E+01      3.517761000000000E-01     -1.351250000000000E+02
3040000000.000000      4.523926000000000E-01     -8.296484000000000E+01      4.698792000000000E-01     -1.450547000000000E+02
3060000000.000000      4.446564000000000E-01     -9.497656000000000E+01      5.736084000000000E-01     -1.553437000000000E+02
3080000000.000000      4.290771000000000E-01     -1.062305000000000E+02      6.732788000000000E-01     -1.685390000000000E+02
3100000000.000000      4.090118000000000E-01     -1.175156000000000E+02      7.248535000000000E-01      1.765703000000000E+02
3120000000.000000      3.795471000000000E-01     -1.294688000000000E+02      7.322083000000000E-01      1.631719000000000E+02
3140000000.000000      3.378448000000000E-01     -1.424453000000000E+02      7.236023000000000E-01      1.503594000000000E+02
3160000000.000000      2.775421000000000E-01     -1.565391000000000E+02      6.828613000000000E-01      1.369219000000000E+02
3180000000.000000      1.981125000000000E-01     -1.691562000000000E+02      6.121216000000000E-01      1.243125000000000E+02
3200000000.000000      1.106262000000000E-01     -1.694453000000000E+02      5.179749000000000E-01      1.114961000000000E+02
3220000000.000000      8.020782000000000E-02     -1.234141000000000E+02      3.835907000000000E-01      1.008672000000000E+02
3240000000.000000      1.515656000000000E-01     -1.048516000000000E+02      2.450104000000000E-01      9.973827000000000E+01
3260000000.000000      2.305908000000000E-01     -1.153711000000000E+02      1.466370000000000E-01      1.261523000000000E+02
3280000000.000000      2.879791000000000E-01     -1.310781000000000E+02      2.055206000000000E-01      1.655625000000000E+02
3300000000.000000      3.199768000000000E-01     -1.472969000000000E+02      3.319550000000000E-01      1.695391000000000E+02
3320000000.000000      3.314819000000000E-01     -1.632813000000000E+02      4.646149000000000E-01      1.625156000000000E+02
3340000000.000000      3.280945000000000E-01     -1.786016000000000E+02      5.758972000000000E-01      1.503203000000000E+02
3360000000.000000      3.165894000000000E-01      1.666563000000000E+02      6.478577000000000E-01      1.381250000000000E+02
3380000000.000000      2.998962000000000E-01      1.523750000000000E+02      7.106628000000000E-01      1.268672000000000E+02
3400000000.000000      2.771759000000000E-01      1.376250000000000E+02      7.588806000000000E-01      1.131680000000000E+02
3420000000.000000      2.427139000000000E-01      1.226719000000000E+02      7.481995000000000E-01      9.814062000000000E+01
3440000000.000000      1.891174000000000E-01      1.079492000000000E+02      7.029419000000000E-01      8.539063000000000E+01
3460000000.000000      1.187096000000000E-01      9.759375000000000E+01      6.453857000000000E-01      7.232031000000000E+01
3480000000.000000      4.771233000000000E-02      1.227539000000000E+02      5.477905000000000E-01      5.868359000000000E+01
3500000000.000000      9.399796000000000E-02     -1.742500000000000E+02      4.227753000000000E-01      4.754883000000000E+01
3520000000.000000      1.851654000000000E-01      1.786328000000000E+02      2.769470000000000E-01      4.040039000000000E+01
3540000000.000000      2.642670000000000E-01      1.625703000000000E+02      1.468353000000000E-01      5.902148000000000E+01
3560000000.000000      3.233490000000000E-01      1.456016000000000E+02      1.689072000000000E-01      1.081328000000000E+02
3580000000.000000      3.605804000000000E-01      1.296484000000000E+02      2.962494000000000E-01      1.174492000000000E+02
3600000000.000000      3.760376000000000E-01      1.151484000000000E+02      4.209900000000000E-01      1.104336000000000E+02
3620000000.000000      3.778381000000000E-01      1.024883000000000E+02      5.226135000000000E-01      1.011328000000000E+02
3640000000.000000      3.686066000000000E-01      9.128906000000000E+01      6.239624000000000E-01      8.978907000000000E+01
3660000000.000000      3.516235000000000E-01      8.102734000000000E+01      6.929626000000000E-01      7.561718000000000E+01
3680000000.000000      3.291321000000000E-01      7.184375000000000E+01      7.113953000000000E-01      6.244726000000000E+01
3700000000.000000      2.986603000000000E-01      6.353710000000000E+01      7.205505000000000E-01      5.079102000000000E+01
3720000000.000000      2.545319000000000E-01      5.763281000000000E+01      7.230530000000000E-01      3.661328000000000E+01
3740000000.000000      2.043457000000000E-01      5.862305000000000E+01      6.614380000000000E-01      2.117578000000000E+01
3760000000.000000      1.781693000000000E-01      7.283203000000000E+01      5.632629000000000E-01      6.937744000000000E+00
3780000000.000000      2.127686000000000E-01      8.766016000000000E+01      4.330139000000000E-01     -6.171631000000000E+00
3800000000.000000      2.835541000000000E-01      8.907812000000000E+01      2.798157000000000E-01     -1.331006000000000E+01
3820000000.000000      3.508453000000000E-01      8.257421000000000E+01      1.526947000000000E-01      3.034973000000000E-01
3840000000.000000      4.008026000000000E-01      7.384766000000000E+01      1.447372000000000E-01      4.841797000000000E+01
3860000000.000000      4.355469000000000E-01      6.527344000000000E+01      2.478409000000000E-01      6.537109000000000E+01
3880000000.000000      4.612122000000000E-01      5.776562000000000E+01      3.778381000000000E-01      6.101757000000000E+01
3900000000.000000      4.899139000000000E-01      5.072266000000000E+01      4.787598000000000E-01      4.747851000000000E+01
3920000000.000000      5.205688000000000E-01      4.316602000000000E+01      5.102539000000000E-01      3.603906000000000E+01
3940000000.000000      5.495911000000000E-01      3.409765000000000E+01      5.407715000000000E-01      2.934765000000000E+01
3960000000.000000      5.586548000000000E-01      2.387793000000000E+01      5.959778000000000E-01      2.003711000000000E+01
3980000000.000000      5.536194000000000E-01      1.347607000000000E+01      5.977478000000000E-01      8.041992000000000E+00
4000000000.000000      5.270996000000000E-01      3.069214000000000E+00      5.800171000000000E-01      1.182373000000000E+00
4020000000.000000      4.836273000000000E-01     -6.899414000000000E+00      5.980835000000000E-01     -6.558838000000000E+00
4040000000.000000      4.244080000000000E-01     -1.571777000000000E+01      5.859070000000000E-01     -1.897265000000000E+01
4060000000.000000      3.478546000000000E-01     -2.180469000000000E+01      5.256653000000000E-01     -2.896191000000000E+01
4080000000.000000      2.745819000000000E-01     -2.151465000000000E+01      4.667511000000000E-01     -3.836914000000000E+01
4100000000.000000      2.286911000000000E-01     -1.084668000000000E+01      3.644104000000000E-01     -4.760547000000000E+01
4120000000.000000      2.428360000000000E-01      2.048950000000000E+00      2.482605000000000E-01     -4.376562000000000E+01
4140000000.000000      2.907715000000000E-01      5.211426000000000E+00      2.037201000000000E-01     -1.945019000000000E+01
4160000000.000000      3.341370000000000E-01      9.214783000000000E-01      2.656555000000000E-01      2.059937000000000E-02
4180000000.000000      3.617096000000000E-01     -5.883301000000000E+00      3.596191000000000E-01      3.836914000000000E+00
4200000000.000000      3.715210000000000E-01     -1.367432000000000E+01      4.895935000000000E-01      1.267517000000000E+00
4220000000.000000      3.677216000000000E-01     -2.089062000000000E+01      6.432800000000000E-01     -1.138770000000000E+01
4240000000.000000      3.478851000000000E-01     -2.837695000000000E+01      7.230835000000000E-01     -2.798437000000000E+01
4260000000.000000      3.089294000000000E-01     -3.417383000000000E+01      7.420044000000000E-01     -4.201562000000000E+01
4280000000.000000      2.591095000000000E-01     -3.520898000000000E+01      7.511902000000000E-01     -5.592187000000000E+01
4300000000.000000      2.225342000000000E-01     -2.689258000000000E+01      7.129822000000000E-01     -7.112109000000000E+01
4320000000.000000      2.362900000000000E-01     -1.432227000000000E+01      6.309204000000000E-01     -8.546093000000000E+01
4340000000.000000      2.944031000000000E-01     -1.043994000000000E+01      5.140381000000000E-01     -9.793358000000000E+01
4360000000.000000      3.595428000000000E-01     -1.566943000000000E+01      3.783722000000000E-01     -1.068633000000000E+02
4380000000.000000      4.058990000000000E-01     -2.469629000000000E+01      2.476273000000000E-01     -1.078672000000000E+02
4400000000.000000      4.265442000000000E-01     -3.460156000000000E+01      1.531372000000000E-01     -8.419922000000000E+01
4420000000.000000      4.243927000000000E-01     -4.391015000000000E+01      1.895294000000000E-01     -4.516211000000000E+01
4440000000.000000      4.082489000000000E-01     -5.193359000000000E+01      3.132019000000000E-01     -3.621679000000000E+01
4460000000.000000      3.889618000000000E-01     -5.862109000000000E+01      4.548492000000000E-01     -4.348242000000000E+01
4480000000.000000      3.665466000000000E-01     -6.501953000000000E+01      5.627441000000000E-01     -5.566015000000000E+01
4500000000.000000      3.463898000000000E-01     -7.164453000000000E+01      6.426697000000000E-01     -6.710546000000000E+01
4520000000.000000      3.126831000000000E-01     -7.941015000000000E+01      7.162781000000000E-01     -8.001562000000000E+01
4540000000.000000      2.609253000000000E-01     -8.558203000000000E+01      7.426758000000000E-01     -9.461329000000000E+01
4560000000.000000      2.000504000000000E-01     -8.367968000000000E+01      7.276611000000000E-01     -1.078906000000000E+02
4580000000.000000      1.742554000000000E-01     -6.742969000000000E+01      6.902466000000000E-01     -1.216797000000000E+02
4600000000.000000      2.131348000000000E-01     -5.356835000000000E+01      6.034851000000000E-01     -1.347656000000000E+02
4620000000.000000      2.778625000000000E-01     -5.522265000000000E+01      4.960327000000000E-01     -1.452812000000000E+02
4640000000.000000      3.311615000000000E-01     -6.525391000000000E+01      3.770447000000000E-01     -1.535469000000000E+02
4660000000.000000      3.542175000000000E-01     -7.848046000000000E+01      2.442856000000000E-01     -1.514219000000000E+02
4680000000.000000      3.454742000000000E-01     -9.255468000000000E+01      1.795959000000000E-01     -1.228789000000000E+02
4700000000.000000      3.080750000000000E-01     -1.056367000000000E+02      2.504272000000000E-01     -9.643358000000000E+01
4720000000.000000      2.520294000000000E-01     -1.162031000000000E+02      3.691864000000000E-01     -9.555468000000000E+01
4740000000.000000      1.900711000000000E-01     -1.213086000000000E+02      4.766083000000000E-01     -1.018711000000000E+02
4760000000.000000      1.380768000000000E-01     -1.173125000000000E+02      5.835876000000000E-01     -1.107265000000000E+02
4780000000.000000      1.119308000000000E-01     -1.012578000000000E+02      6.696472000000000E-01     -1.229766000000000E+02
4800000000.000000      1.177979000000000E-01     -8.347656000000000E+01      7.180176000000000E-01     -1.358750000000000E+02
4820000000.000000      1.469193000000000E-01     -7.405078000000000E+01      7.351990000000000E-01     -1.491953000000000E+02
4840000000.000000      1.880569000000000E-01     -7.383203000000000E+01      7.189941000000000E-01     -1.619453000000000E+02
4860000000.000000      2.315750000000000E-01     -8.040625000000000E+01      6.836548000000000E-01     -1.744766000000000E+02
4880000000.000000      2.686462000000000E-01     -9.076563000000000E+01      6.139221000000000E-01      1.718359000000000E+02
4900000000.000000      2.940369000000000E-01     -1.044258000000000E+02      4.919586000000000E-01      1.593672000000000E+02
4920000000.000000      2.999268000000000E-01     -1.195781000000000E+02      3.619080000000000E-01      1.534531000000000E+02
4940000000.000000      2.845306000000000E-01     -1.352266000000000E+02      2.498474000000000E-01      1.560937000000000E+02
4960000000.000000      2.535858000000000E-01     -1.504297000000000E+02      1.769257000000000E-01      1.781875000000000E+02
4980000000.000000      2.113953000000000E-01     -1.644140000000000E+02      2.168732000000000E-01     -1.509375000000000E+02
5000000000.000000      1.673203000000000E-01     -1.761797000000000E+02      3.326263000000000E-01     -1.436797000000000E+02
5020000000.000000      1.298676000000000E-01      1.737734000000000E+02      4.633636000000000E-01     -1.497656000000000E+02
5040000000.000000      9.941864000000000E-02      1.635391000000000E+02      5.713501000000000E-01     -1.606250000000000E+02
5060000000.000000      7.115173000000000E-02      1.485625000000000E+02      6.522827000000000E-01     -1.721875000000000E+02
5080000000.000000      4.040146000000000E-02      1.219219000000000E+02      7.178040000000000E-01      1.756172000000000E+02
5100000000.000000      1.644039000000000E-02      3.854101000000000E+01      7.548828000000000E-01      1.620469000000000E+02
5120000000.000000      4.199600000000000E-02     -5.230469000000000E+01      7.535400000000000E-01      1.476953000000000E+02
5140000000.000000      7.357025000000000E-02     -8.851171000000000E+01      7.027283000000000E-01      1.339062000000000E+02
5160000000.000000      9.662247000000000E-02     -1.194922000000000E+02      6.271667000000000E-01      1.217461000000000E+02
5180000000.000000      1.099510000000000E-01     -1.500391000000000E+02      5.299988000000000E-01      1.106328000000000E+02
5200000000.000000      1.126289000000000E-01      1.771328000000000E+02      4.133301000000000E-01      1.009414000000000E+02
5220000000.000000      1.095123000000000E-01      1.414531000000000E+02      2.804871000000000E-01      9.843359000000000E+01
5240000000.000000      1.088524000000000E-01      1.052656000000000E+02      1.831360000000000E-01      1.161055000000000E+02
5260000000.000000      1.132088000000000E-01      7.191406000000000E+01      1.987381000000000E-01      1.498828000000000E+02
5280000000.000000      1.203918000000000E-01      4.552343000000000E+01      2.989502000000000E-01      1.606562000000000E+02
5300000000.000000      1.275253000000000E-01      2.477344000000000E+01      4.122925000000000E-01      1.578594000000000E+02
5320000000.000000      1.335983000000000E-01      8.276367000000000E+00      5.299377000000000E-01      1.502969000000000E+02
5340000000.000000      1.393204000000000E-01     -5.890137000000000E+00      6.400757000000000E-01      1.382891000000000E+02
5360000000.000000      1.433105000000000E-01     -2.164941000000000E+01      7.069092000000000E-01      1.238672000000000E+02
5380000000.000000      1.384506000000000E-01     -3.911133000000000E+01      7.164001000000000E-01      1.104453000000000E+02
5400000000.000000      1.194191000000000E-01     -5.752734000000000E+01      7.178955000000000E-01      9.870703000000000E+01
5420000000.000000      8.353043000000000E-02     -7.416406000000000E+01      7.035522000000000E-01      8.570704000000000E+01
5440000000.000000      2.911663000000000E-02     -7.724999000000000E+01      6.460876000000000E-01      7.131640000000000E+01
5460000000.000000      4.430008000000000E-02      3.866796000000000E+01      5.381165000000000E-01      5.847461000000000E+01
5480000000.000000      1.141319000000000E-01      3.071484000000000E+01      4.104309000000000E-01      4.907421000000000E+01
5500000000.000000      1.760864000000000E-01      1.533936000000000E+01      2.896576000000000E-01      4.759570000000000E+01
5520000000.000000      2.217712000000000E-01      2.719116000000000E-01      1.936646000000000E-01      5.973046000000000E+01
5540000000.000000      2.521667000000000E-01     -1.332520000000000E+01      1.825256000000000E-01      9.140625000000000E+01
5560000000.000000      2.700653000000000E-01     -2.513184000000000E+01      2.655792000000000E-01      1.088281000000000E+02
5580000000.000000      2.824707000000000E-01     -3.516211000000000E+01      3.872375000000000E-01      1.084062000000000E+02
5600000000.000000      2.941589000000000E-01     -4.399414000000000E+01      5.085449000000000E-01      9.932812000000000E+01
5620000000.000000      3.045349000000000E-01     -5.319726000000000E+01      5.957031000000000E-01      8.700390000000000E+01
5640000000.000000      3.079834000000000E-01     -6.293163000000000E+01      6.490479000000000E-01      7.483593000000000E+01
5660000000.000000      2.974854000000000E-01     -7.360156000000000E+01      6.859131000000000E-01      6.361133000000000E+01
5680000000.000000      2.678070000000000E-01     -8.382421000000000E+01      6.979675000000000E-01      5.078125000000000E+01
5700000000.000000      2.194290000000000E-01     -9.101563000000000E+01      6.813965000000000E-01      3.853906000000000E+01
5720000000.000000      1.693726000000000E-01     -8.950781000000000E+01      6.424255000000000E-01      2.572656000000000E+01
5740000000.000000      1.501007000000000E-01     -7.478516000000000E+01      5.614319000000000E-01      1.266846000000000E+01
5760000000.000000      1.797333000000000E-01     -6.347265000000000E+01      4.478912000000000E-01      1.040955000000000E+00
5780000000.000000      2.257690000000000E-01     -6.528906000000000E+01      3.137207000000000E-01     -3.795776000000000E+00
5800000000.000000      2.575836000000000E-01     -7.326562000000000E+01      2.069778000000000E-01      7.708252000000000E+00
5820000000.000000      2.662811000000000E-01     -8.273046000000000E+01      1.909943000000000E-01      3.832226000000000E+01
5840000000.000000      2.570953000000000E-01     -9.106249000000000E+01      2.736969000000000E-01      5.412499000000000E+01
5860000000.000000      2.378845000000000E-01     -9.660545000000000E+01      3.747711000000000E-01      5.398046000000000E+01
5880000000.000000      2.235718000000000E-01     -9.981249000000000E+01      4.811249000000000E-01      4.848437000000000E+01
5900000000.000000      2.161407000000000E-01     -1.023203000000000E+02      5.971985000000000E-01      3.822461000000000E+01
5920000000.000000      2.078323000000000E-01     -1.050391000000000E+02      6.728516000000000E-01      2.419531000000000E+01
5940000000.000000      1.942673000000000E-01     -1.069883000000000E+02      7.033386000000000E-01      1.081592000000000E+01
5960000000.000000      1.762695000000000E-01     -1.048164000000000E+02      7.136536000000000E-01     -1.856689000000000E+00
5980000000.000000      1.655884000000000E-01     -9.716406000000000E+01      6.906128000000000E-01     -1.563770000000000E+01
6000000000.000000      1.826019000000000E-01     -8.814453000000000E+01      6.253662000000000E-01     -2.931445000000000E+01
6020000000.000000      2.169418000000000E-01     -8.630468000000000E+01      5.274658000000000E-01     -4.193359000000000E+01
6040000000.000000      2.519989000000000E-01     -9.178125000000000E+01      3.965302000000000E-01     -4.995898000000000E+01
6060000000.000000      2.754059000000000E-01     -1.008867000000000E+02      2.837372000000000E-01     -4.945117000000000E+01
6080000000.000000      2.850037000000000E-01     -1.110508000000000E+02      2.049408000000000E-01     -3.518555000000000E+01
