! Network Analyzer HP8722D
! Hewlett-Packard
! Data name: Linha & Wilkinson+CNT
! Saver's name: Rodrigo Anjos
! Comments: Teste da utilização de aquisição
continua pelo VNA HP8722D
! Time and date: 29/9/2025 11:58
!              Frequency                     S11                                                   S21                                                   S12                                                   S22
# HZ  S  MA R 50
3000000000.000000      4.229889000000000E-01     -5.647461000000000E+01      2.089386000000000E-01     -1.312813000000000E+02
3020000000.000000      4.487152000000000E-01     -7.058984000000000E+01      3.516541000000000E-01     -1.350859000000000E+02
3040000000.000000      4.546051000000000E-01     -8.342577000000000E+01      4.679413000000000E-01     -1.449219000000000E+02
3060000000.000000      4.458160000000000E-01     -9.536327000000000E+01      5.723572000000000E-01     -1.551875000000000E+02
3080000000.000000      4.310303000000000E-01     -1.066055000000000E+02      6.724243000000000E-01     -1.684531000000000E+02
3100000000.000000      4.103699000000000E-01     -1.177187000000000E+02      7.242737000000000E-01      1.768594000000000E+02
3120000000.000000      3.818512000000000E-01     -1.296719000000000E+02      7.315063000000000E-01      1.633359000000000E+02
3140000000.000000      3.408661000000000E-01     -1.426563000000000E+02      7.222900000000000E-01      1.505234000000000E+02
3160000000.000000      2.811432000000000E-01     -1.562813000000000E+02      6.816711000000000E-01      1.370938000000000E+02
3180000000.000000      2.017441000000000E-01     -1.687422000000000E+02      6.130676000000000E-01      1.243750000000000E+02
3200000000.000000      1.142807000000000E-01     -1.683594000000000E+02      5.170898000000000E-01      1.116992000000000E+02
3220000000.000000      8.362198000000000E-02     -1.243281000000000E+02      3.848419000000000E-01      1.010117000000000E+02
3240000000.000000      1.544189000000000E-01     -1.057344000000000E+02      2.449493000000000E-01      9.989843000000000E+01
3260000000.000000      2.334900000000000E-01     -1.156680000000000E+02      1.469955000000000E-01      1.262812000000000E+02
3280000000.000000      2.908325000000000E-01     -1.311953000000000E+02      2.050323000000000E-01      1.654453000000000E+02
3300000000.000000      3.240051000000000E-01     -1.472578000000000E+02      3.318787000000000E-01      1.695234000000000E+02
3320000000.000000      3.356781000000000E-01     -1.630391000000000E+02      4.643250000000000E-01      1.624609000000000E+02
3340000000.000000      3.319550000000000E-01     -1.782656000000000E+02      5.746765000000000E-01      1.505156000000000E+02
3360000000.000000      3.197937000000000E-01      1.671953000000000E+02      6.472778000000000E-01      1.383750000000000E+02
3380000000.000000      3.016968000000000E-01      1.529453000000000E+02      7.095337000000000E-01      1.269219000000000E+02
3400000000.000000      2.784119000000000E-01      1.383672000000000E+02      7.576904000000000E-01      1.132461000000000E+02
3420000000.000000      2.425156000000000E-01      1.234141000000000E+02      7.492676000000000E-01      9.834764000000000E+01
3440000000.000000      1.885223000000000E-01      1.088945000000000E+02      7.048035000000000E-01      8.535936000000000E+01
3460000000.000000      1.174126000000000E-01      9.872265000000000E+01      6.455383000000000E-01      7.240624000000000E+01
3480000000.000000      4.769707000000000E-02      1.267539000000000E+02      5.478516000000000E-01      5.903906000000000E+01
3500000000.000000      9.659958000000000E-02     -1.734453000000000E+02      4.232178000000000E-01      4.757421000000000E+01
3520000000.000000      1.876144000000000E-01      1.794609000000000E+02      2.768707000000000E-01      4.068749000000000E+01
3540000000.000000      2.660217000000000E-01      1.632656000000000E+02      1.468506000000000E-01      5.914844000000000E+01
3560000000.000000      3.243866000000000E-01      1.462344000000000E+02      1.687698000000000E-01      1.081211000000000E+02
3580000000.000000      3.602142000000000E-01      1.301875000000000E+02      2.963409000000000E-01      1.175508000000000E+02
3600000000.000000      3.752289000000000E-01      1.155586000000000E+02      4.211578000000000E-01      1.105703000000000E+02
3620000000.000000      3.769226000000000E-01      1.028164000000000E+02      5.222168000000000E-01      1.010430000000000E+02
3640000000.000000      3.676758000000000E-01      9.154688000000000E+01      6.234436000000000E-01      8.987890000000000E+01
3660000000.000000      3.504639000000000E-01      8.134766000000000E+01      6.932068000000000E-01      7.566796000000000E+01
3680000000.000000      3.271637000000000E-01      7.192968000000000E+01      7.120667000000000E-01      6.268164000000000E+01
3700000000.000000      2.960968000000000E-01      6.368359000000000E+01      7.211914000000000E-01      5.091991000000000E+01
3720000000.000000      2.516937000000000E-01      5.757813000000000E+01      7.240906000000000E-01      3.673242000000000E+01
3740000000.000000      2.017288000000000E-01      5.864452000000000E+01      6.608276000000000E-01      2.133399000000000E+01
3760000000.000000      1.756668000000000E-01      7.297265000000000E+01      5.640564000000000E-01      6.954346000000000E+00
3780000000.000000      2.110062000000000E-01      8.796093000000000E+01      4.331970000000000E-01     -5.946533000000000E+00
3800000000.000000      2.816925000000000E-01      8.914063000000000E+01      2.799225000000000E-01     -1.332373000000000E+01
3820000000.000000      3.489380000000000E-01      8.265234000000000E+01      1.528473000000000E-01      4.064941000000000E-01
3840000000.000000      3.990936000000000E-01      7.385156000000000E+01      1.448593000000000E-01      4.819921000000000E+01
3860000000.000000      4.339142000000000E-01      6.523046000000000E+01      2.479782000000000E-01      6.534374000000000E+01
3880000000.000000      4.591217000000000E-01      5.762304000000000E+01      3.779907000000000E-01      6.097851000000000E+01
3900000000.000000      4.871979000000000E-01      5.049999000000000E+01      4.793701000000000E-01      4.765429000000000E+01
3920000000.000000      5.184326000000000E-01      4.270508000000000E+01      5.086060000000000E-01      3.582422000000000E+01
3940000000.000000      5.475769000000000E-01      3.374804000000000E+01      5.393372000000000E-01      2.940820000000000E+01
3960000000.000000      5.572205000000000E-01      2.360742000000000E+01      5.961304000000000E-01      2.004297000000000E+01
3980000000.000000      5.509949000000000E-01      1.303516000000000E+01      5.968933000000000E-01      8.165527000000000E+00
4000000000.000000      5.244446000000000E-01      2.650391000000000E+00      5.803528000000000E-01      1.148071000000000E+00
4020000000.000000      4.819794000000000E-01     -7.303223000000000E+00      5.973816000000000E-01     -6.631836000000000E+00
4040000000.000000      4.230499000000000E-01     -1.616699000000000E+01      5.845642000000000E-01     -1.889941000000000E+01
4060000000.000000      3.475037000000000E-01     -2.227930000000000E+01      5.255127000000000E-01     -2.906933000000000E+01
4080000000.000000      2.735291000000000E-01     -2.215430000000000E+01      4.661255000000000E-01     -3.829883000000000E+01
4100000000.000000      2.275162000000000E-01     -1.177734000000000E+01      3.643494000000000E-01     -4.749804000000000E+01
4120000000.000000      2.416840000000000E-01      1.352661000000000E+00      2.481689000000000E-01     -4.376172000000000E+01
4140000000.000000      2.894897000000000E-01      4.612793000000000E+00      2.035980000000000E-01     -1.939258000000000E+01
4160000000.000000      3.337250000000000E-01      4.106140000000000E-01      2.655029000000000E-01     -3.570557000000000E-02
4180000000.000000      3.616791000000000E-01     -6.486084000000000E+00      3.592834000000000E-01      3.871216000000000E+00
4200000000.000000      3.710327000000000E-01     -1.422217000000000E+01      4.892120000000000E-01      1.204346000000000E+00
4220000000.000000      3.665009000000000E-01     -2.142480000000000E+01      6.418457000000000E-01     -1.135742000000000E+01
4240000000.000000      3.466949000000000E-01     -2.893164000000000E+01      7.225647000000000E-01     -2.788769000000000E+01
4260000000.000000      3.089752000000000E-01     -3.465625000000000E+01      7.421265000000000E-01     -4.192578000000000E+01
4280000000.000000      2.589111000000000E-01     -3.577734000000000E+01      7.518616000000000E-01     -5.594531000000000E+01
4300000000.000000      2.232056000000000E-01     -2.758008000000000E+01      7.123108000000000E-01     -7.088672000000000E+01
4320000000.000000      2.368011000000000E-01     -1.500488000000000E+01      6.301880000000000E-01     -8.526171000000000E+01
4340000000.000000      2.955017000000000E-01     -1.106201000000000E+01      5.126343000000000E-01     -9.804688000000000E+01
4360000000.000000      3.598480000000000E-01     -1.612305000000000E+01      3.790436000000000E-01     -1.068437000000000E+02
4380000000.000000      4.059448000000000E-01     -2.511133000000000E+01      2.476425000000000E-01     -1.077305000000000E+02
4400000000.000000      4.271851000000000E-01     -3.498437000000000E+01      1.533890000000000E-01     -8.423437000000000E+01
4420000000.000000      4.246674000000000E-01     -4.432226000000000E+01      1.894989000000000E-01     -4.539453000000000E+01
4440000000.000000      4.081268000000000E-01     -5.234179000000000E+01      3.117523000000000E-01     -3.615820000000000E+01
4460000000.000000      3.889008000000000E-01     -5.912890000000000E+01      4.526825000000000E-01     -4.341797000000000E+01
4480000000.000000      3.689117000000000E-01     -6.531640000000000E+01      5.616150000000000E-01     -5.546288000000000E+01
4500000000.000000      3.475494000000000E-01     -7.186718000000000E+01      6.429138000000000E-01     -6.698437000000000E+01
4520000000.000000      3.136292000000000E-01     -7.935547000000000E+01      7.155151000000000E-01     -7.996094000000000E+01
4540000000.000000      2.627411000000000E-01     -8.532030000000000E+01      7.407837000000000E-01     -9.449219000000000E+01
4560000000.000000      2.030792000000000E-01     -8.333593000000000E+01      7.274780000000000E-01     -1.076601000000000E+02
4580000000.000000      1.773376000000000E-01     -6.781640000000000E+01      6.885681000000000E-01     -1.216406000000000E+02
4600000000.000000      2.155304000000000E-01     -5.439062000000000E+01      6.018982000000000E-01     -1.347578000000000E+02
4620000000.000000      2.800140000000000E-01     -5.586719000000000E+01      4.954987000000000E-01     -1.449922000000000E+02
4640000000.000000      3.334808000000000E-01     -6.565624000000000E+01      3.770294000000000E-01     -1.532812000000000E+02
4660000000.000000      3.568268000000000E-01     -7.875781000000000E+01      2.446671000000000E-01     -1.513125000000000E+02
4680000000.000000      3.480835000000000E-01     -9.250000000000000E+01      1.796722000000000E-01     -1.227969000000000E+02
4700000000.000000      3.101349000000000E-01     -1.055312000000000E+02      2.495956000000000E-01     -9.635937000000000E+01
4720000000.000000      2.537231000000000E-01     -1.158945000000000E+02      3.689270000000000E-01     -9.529688000000000E+01
4740000000.000000      1.917038000000000E-01     -1.209844000000000E+02      4.757843000000000E-01     -1.018398000000000E+02
4760000000.000000      1.399460000000000E-01     -1.165469000000000E+02      5.805054000000000E-01     -1.107578000000000E+02
4780000000.000000      1.148491000000000E-01     -1.006406000000000E+02      6.666870000000000E-01     -1.230391000000000E+02
4800000000.000000      1.220284000000000E-01     -8.344530000000000E+01      7.168274000000000E-01     -1.359609000000000E+02
4820000000.000000      1.511230000000000E-01     -7.418359000000000E+01      7.340393000000000E-01     -1.492109000000000E+02
4840000000.000000      1.921463000000000E-01     -7.424609000000000E+01      7.177124000000000E-01     -1.618125000000000E+02
4860000000.000000      2.349319000000000E-01     -8.069530000000000E+01      6.823425000000000E-01     -1.742969000000000E+02
4880000000.000000      2.720032000000000E-01     -9.094141000000000E+01      6.135864000000000E-01      1.719297000000000E+02
4900000000.000000      2.966461000000000E-01     -1.043516000000000E+02      4.943390000000000E-01      1.599141000000000E+02
4920000000.000000      3.015594000000000E-01     -1.192266000000000E+02      3.636932000000000E-01      1.536250000000000E+02
4940000000.000000      2.863922000000000E-01     -1.347500000000000E+02      2.508850000000000E-01      1.565000000000000E+02
4960000000.000000      2.549896000000000E-01     -1.497656000000000E+02      1.776428000000000E-01      1.781016000000000E+02
4980000000.000000      2.122498000000000E-01     -1.636172000000000E+02      2.165909000000000E-01     -1.509453000000000E+02
5000000000.000000      1.672592000000000E-01     -1.749453000000000E+02      3.325653000000000E-01     -1.436797000000000E+02
5020000000.000000      1.293335000000000E-01      1.755859000000000E+02      4.617920000000000E-01     -1.498281000000000E+02
5040000000.000000      9.849548000000000E-02      1.658125000000000E+02      5.712280000000000E-01     -1.605859000000000E+02
5060000000.000000      6.927490000000000E-02      1.513515000000000E+02      6.513367000000000E-01     -1.720000000000000E+02
5080000000.000000      3.896141000000000E-02      1.266250000000000E+02      7.176819000000000E-01      1.758125000000000E+02
5100000000.000000      1.390648000000000E-02      3.482617000000000E+01      7.540588000000000E-01      1.620234000000000E+02
5120000000.000000      4.235077000000000E-02     -5.548437000000000E+01      7.521667000000000E-01      1.477266000000000E+02
5140000000.000000      7.450867000000000E-02     -8.883984000000000E+01      7.013245000000000E-01      1.342187000000000E+02
5160000000.000000      9.769440000000000E-02     -1.188203000000000E+02      6.260376000000000E-01      1.219492000000000E+02
5180000000.000000      1.098213000000000E-01     -1.489141000000000E+02      5.330505000000000E-01      1.106797000000000E+02
5200000000.000000      1.113091000000000E-01      1.786797000000000E+02      4.139404000000000E-01      1.012383000000000E+02
5220000000.000000      1.078911000000000E-01      1.425469000000000E+02      2.815704000000000E-01      9.869530000000000E+01
5240000000.000000      1.060257000000000E-01      1.054844000000000E+02      1.841278000000000E-01      1.161562000000000E+02
5260000000.000000      1.107674000000000E-01      7.157031000000000E+01      1.983490000000000E-01      1.498828000000000E+02
5280000000.000000      1.181679000000000E-01      4.464844000000000E+01      2.987823000000000E-01      1.606250000000000E+02
5300000000.000000      1.252441000000000E-01      2.389062000000000E+01      4.124298000000000E-01      1.579922000000000E+02
5320000000.000000      1.317520000000000E-01      7.498047000000000E+00      5.284424000000000E-01      1.503359000000000E+02
5340000000.000000      1.383133000000000E-01     -6.841797000000000E+00      6.386719000000000E-01      1.383359000000000E+02
5360000000.000000      1.435013000000000E-01     -2.227539000000000E+01      7.057495000000000E-01      1.238008000000000E+02
5380000000.000000      1.391830000000000E-01     -3.927929000000000E+01      7.162170000000000E-01      1.105742000000000E+02
5400000000.000000      1.208191000000000E-01     -5.721093000000000E+01      7.174377000000000E-01      9.882421000000000E+01
5420000000.000000      8.605957000000000E-02     -7.362890000000000E+01      7.044067000000000E-01      8.586329000000000E+01
5440000000.000000      3.183365000000000E-02     -7.680078000000000E+01      6.452637000000000E-01      7.144531000000000E+01
5460000000.000000      4.290962000000000E-02      3.578516000000000E+01      5.364990000000000E-01      5.849414000000000E+01
5480000000.000000      1.118736000000000E-01      2.933887000000000E+01      4.101868000000000E-01      4.965820000000000E+01
5500000000.000000      1.746979000000000E-01      1.444971000000000E+01      2.901917000000000E-01      4.753515000000000E+01
5520000000.000000      2.203827000000000E-01     -3.886414000000000E-01      1.942978000000000E-01      5.978516000000000E+01
5540000000.000000      2.525787000000000E-01     -1.412842000000000E+01      1.823120000000000E-01      9.144140000000000E+01
5560000000.000000      2.713623000000000E-01     -2.571972000000000E+01      2.648773000000000E-01      1.088008000000000E+02
5580000000.000000      2.836914000000000E-01     -3.550390000000000E+01      3.862762000000000E-01      1.085664000000000E+02
5600000000.000000      2.952118000000000E-01     -4.418750000000000E+01      5.080261000000000E-01      9.956249000000000E+01
5620000000.000000      3.059692000000000E-01     -5.325195000000000E+01      5.964661000000000E-01      8.696093000000000E+01
5640000000.000000      3.095245000000000E-01     -6.299999000000000E+01      6.445923000000000E-01      7.511328000000000E+01
5660000000.000000      3.004456000000000E-01     -7.358203000000000E+01      6.844482000000000E-01      6.381640000000000E+01
5680000000.000000      2.714233000000000E-01     -8.394531000000000E+01      6.966858000000000E-01      5.108788000000000E+01
5700000000.000000      2.247772000000000E-01     -9.122656000000000E+01      6.817017000000000E-01      3.878125000000000E+01
5720000000.000000      1.748428000000000E-01     -8.973047000000000E+01      6.429138000000000E-01      2.599707000000000E+01
5740000000.000000      1.535339000000000E-01     -7.578906000000000E+01      5.621948000000000E-01      1.283887000000000E+01
5760000000.000000      1.821899000000000E-01     -6.413280000000000E+01      4.476166000000000E-01      1.369141000000000E+00
5780000000.000000      2.279205000000000E-01     -6.557812000000000E+01      3.134460000000000E-01     -3.650269000000000E+00
5800000000.000000      2.592621000000000E-01     -7.351563000000000E+01      2.069321000000000E-01      7.785156000000000E+00
5820000000.000000      2.686768000000000E-01     -8.271093000000000E+01      1.903610000000000E-01      3.829687000000000E+01
5840000000.000000      2.594452000000000E-01     -9.117188000000000E+01      2.735748000000000E-01      5.418163000000000E+01
5860000000.000000      2.418747000000000E-01     -9.671875000000000E+01      3.736420000000000E-01      5.397461000000000E+01
5880000000.000000      2.271729000000000E-01     -9.958202000000000E+01      4.796143000000000E-01      4.849023000000000E+01
5900000000.000000      2.203522000000000E-01     -1.020703000000000E+02      5.953369000000000E-01      3.848633000000000E+01
5920000000.000000      2.127151000000000E-01     -1.047734000000000E+02      6.730652000000000E-01      2.450293000000000E+01
5940000000.000000      1.991806000000000E-01     -1.068320000000000E+02      7.015076000000000E-01      1.124268000000000E+01
5960000000.000000      1.806030000000000E-01     -1.051406000000000E+02      7.122803000000000E-01     -1.459839000000000E+00
5980000000.000000      1.681671000000000E-01     -9.754295000000000E+01      6.892395000000000E-01     -1.543457000000000E+01
6000000000.000000      1.837921000000000E-01     -8.837109000000000E+01      6.259155000000000E-01     -2.889746000000000E+01
6020000000.000000      2.186508000000000E-01     -8.689844000000000E+01      5.267334000000000E-01     -4.153906000000000E+01
6040000000.000000      2.541199000000000E-01     -9.200390000000000E+01      3.973236000000000E-01     -4.950781000000000E+01
6060000000.000000      2.781525000000000E-01     -1.009844000000000E+02      2.830811000000000E-01     -4.921484000000000E+01
6080000000.000000      2.882538000000000E-01     -1.108867000000000E+02      2.048340000000000E-01     -3.490234000000000E+01
