! Network Analyzer HP8722D
! Hewlett-Packard
! Data name: Linha & Wilkinson+CNT
! Saver's name: Rodrigo Anjos
! Comments: Teste da utilização de aquisição
continua pelo VNA HP8722D
! Time and date: 29/9/2025 13:15
!              Frequency                     S11                                                   S21                                                   S12                                                   S22
# HZ  S  MA R 50
3000000000.000000      4.240417000000000E-01     -5.587891000000000E+01      2.065201000000000E-01     -1.315469000000000E+02
3020000000.000000      4.468842000000000E-01     -7.014062000000000E+01      3.493958000000000E-01     -1.348984000000000E+02
3040000000.000000      4.545135000000000E-01     -8.295702000000000E+01      4.672852000000000E-01     -1.447656000000000E+02
3060000000.000000      4.447174000000000E-01     -9.509766000000000E+01      5.721436000000000E-01     -1.551484000000000E+02
3080000000.000000      4.298248000000000E-01     -1.063398000000000E+02      6.739807000000000E-01     -1.683828000000000E+02
3100000000.000000      4.091797000000000E-01     -1.175156000000000E+02      7.247925000000000E-01      1.768125000000000E+02
3120000000.000000      3.807526000000000E-01     -1.295234000000000E+02      7.319641000000000E-01      1.633984000000000E+02
3140000000.000000      3.393250000000000E-01     -1.424922000000000E+02      7.244873000000000E-01      1.505312000000000E+02
3160000000.000000      2.794647000000000E-01     -1.566250000000000E+02      6.831360000000000E-01      1.370469000000000E+02
3180000000.000000      2.001114000000000E-01     -1.692266000000000E+02      6.129761000000000E-01      1.245000000000000E+02
3200000000.000000      1.124420000000000E-01     -1.700625000000000E+02      5.208740000000000E-01      1.116484000000000E+02
3220000000.000000      7.960129000000000E-02     -1.246914000000000E+02      3.861542000000000E-01      1.007539000000000E+02
3240000000.000000      1.502838000000000E-01     -1.051094000000000E+02      2.475662000000000E-01      9.944139000000000E+01
3260000000.000000      2.300415000000000E-01     -1.151797000000000E+02      1.473312000000000E-01      1.249492000000000E+02
3280000000.000000      2.876892000000000E-01     -1.309219000000000E+02      2.023926000000000E-01      1.651875000000000E+02
3300000000.000000      3.209076000000000E-01     -1.472109000000000E+02      3.291931000000000E-01      1.696250000000000E+02
3320000000.000000      3.329468000000000E-01     -1.630859000000000E+02      4.621735000000000E-01      1.626484000000000E+02
3340000000.000000      3.290863000000000E-01     -1.785625000000000E+02      5.751343000000000E-01      1.504531000000000E+02
3360000000.000000      3.175812000000000E-01      1.666797000000000E+02      6.454773000000000E-01      1.383984000000000E+02
3380000000.000000      3.009796000000000E-01      1.525859000000000E+02      7.090759000000000E-01      1.270313000000000E+02
3400000000.000000      2.789154000000000E-01      1.377891000000000E+02      7.580872000000000E-01      1.132578000000000E+02
3420000000.000000      2.433319000000000E-01      1.227695000000000E+02      7.485962000000000E-01      9.840233000000000E+01
3440000000.000000      1.904144000000000E-01      1.082187000000000E+02      7.048035000000000E-01      8.559374000000000E+01
3460000000.000000      1.205025000000000E-01      9.744530000000000E+01      6.471252000000000E-01      7.255468000000000E+01
3480000000.000000      4.834366000000000E-02      1.213437000000000E+02      5.506287000000000E-01      5.905663000000000E+01
3500000000.000000      9.215546000000000E-02     -1.743438000000000E+02      4.259949000000000E-01      4.752539000000000E+01
3520000000.000000      1.839294000000000E-01      1.791797000000000E+02      2.802277000000000E-01      4.037695000000000E+01
3540000000.000000      2.632446000000000E-01      1.630000000000000E+02      1.476517000000000E-01      5.797852000000000E+01
3560000000.000000      3.228912000000000E-01      1.459766000000000E+02      1.660690000000000E-01      1.076094000000000E+02
3580000000.000000      3.597260000000000E-01      1.299687000000000E+02      2.934265000000000E-01      1.174609000000000E+02
3600000000.000000      3.755493000000000E-01      1.153320000000000E+02      4.183350000000000E-01      1.106914000000000E+02
3620000000.000000      3.782196000000000E-01      1.025937000000000E+02      5.205994000000000E-01      1.012812000000000E+02
3640000000.000000      3.683777000000000E-01      9.137890000000000E+01      6.222229000000000E-01      8.999609000000000E+01
3660000000.000000      3.518219000000000E-01      8.117968000000000E+01      6.922913000000000E-01      7.582812000000000E+01
3680000000.000000      3.290100000000000E-01      7.189062000000000E+01      7.099304000000000E-01      6.272851000000000E+01
3700000000.000000      2.988281000000000E-01      6.368554000000000E+01      7.206421000000000E-01      5.106445000000000E+01
3720000000.000000      2.546082000000000E-01      5.761913000000000E+01      7.237549000000000E-01      3.670507000000000E+01
3740000000.000000      2.046585000000000E-01      5.832617000000000E+01      6.643982000000000E-01      2.143652000000000E+01
3760000000.000000      1.775894000000000E-01      7.220312000000000E+01      5.661316000000000E-01      7.124512000000000E+00
3780000000.000000      2.110138000000000E-01      8.734766000000000E+01      4.364166000000000E-01     -6.211426000000000E+00
3800000000.000000      2.818298000000000E-01      8.905859000000000E+01      2.830505000000000E-01     -1.350928000000000E+01
3820000000.000000      3.494873000000000E-01      8.264452000000000E+01      1.541901000000000E-01     -6.097412000000000E-01
3840000000.000000      4.003601000000000E-01      7.391015000000000E+01      1.423492000000000E-01      4.754296000000000E+01
3860000000.000000      4.349213000000000E-01      6.530078000000000E+01      2.450790000000000E-01      6.530468000000000E+01
3880000000.000000      4.599152000000000E-01      5.779882000000000E+01      3.751373000000000E-01      6.104101000000000E+01
3900000000.000000      4.890137000000000E-01      5.071094000000000E+01      4.768066000000000E-01      4.780078000000000E+01
3920000000.000000      5.198669000000000E-01      4.299218000000000E+01      5.080566000000000E-01      3.602539000000000E+01
3940000000.000000      5.476990000000000E-01      3.421679000000000E+01      5.386353000000000E-01      2.954297000000000E+01
3960000000.000000      5.597534000000000E-01      2.379492000000000E+01      5.940247000000000E-01      2.010547000000000E+01
3980000000.000000      5.539246000000000E-01      1.347168000000000E+01      5.973206000000000E-01      8.108887000000000E+00
4000000000.000000      5.267334000000000E-01      3.008789000000000E+00      5.802002000000000E-01      1.251038000000000E+00
4020000000.000000      4.836884000000000E-01     -6.877441000000000E+00      5.981445000000000E-01     -6.661865000000000E+00
4040000000.000000      4.251862000000000E-01     -1.578223000000000E+01      5.854492000000000E-01     -1.891211000000000E+01
4060000000.000000      3.497467000000000E-01     -2.191113000000000E+01      5.295410000000000E-01     -2.897558000000000E+01
4080000000.000000      2.745361000000000E-01     -2.193457000000000E+01      4.701080000000000E-01     -3.834961000000000E+01
4100000000.000000      2.281876000000000E-01     -1.138330000000000E+01      3.684845000000000E-01     -4.751562000000000E+01
4120000000.000000      2.412338000000000E-01      1.554565000000000E+00      2.500916000000000E-01     -4.436132000000000E+01
4140000000.000000      2.893982000000000E-01      4.993164000000000E+00      2.031097000000000E-01     -2.033203000000000E+01
4160000000.000000      3.337097000000000E-01      9.571838000000000E-01      2.625885000000000E-01     -2.664185000000000E-01
4180000000.000000      3.611908000000000E-01     -6.027588000000000E+00      3.569489000000000E-01      3.798462000000000E+00
4200000000.000000      3.712463000000000E-01     -1.368896000000000E+01      4.865417000000000E-01      1.337585000000000E+00
4220000000.000000      3.669434000000000E-01     -2.093750000000000E+01      6.416931000000000E-01     -1.099072000000000E+01
4240000000.000000      3.479156000000000E-01     -2.839453000000000E+01      7.211914000000000E-01     -2.773926000000000E+01
4260000000.000000      3.098602000000000E-01     -3.427539000000000E+01      7.432556000000000E-01     -4.181445000000000E+01
4280000000.000000      2.598877000000000E-01     -3.554101000000000E+01      7.511902000000000E-01     -5.568749000000000E+01
4300000000.000000      2.226257000000000E-01     -2.748926000000000E+01      7.136841000000000E-01     -7.068749000000000E+01
4320000000.000000      2.353439000000000E-01     -1.483594000000000E+01      6.339111000000000E-01     -8.510157000000000E+01
4340000000.000000      2.930908000000000E-01     -1.077490000000000E+01      5.168457000000000E-01     -9.785936000000000E+01
4360000000.000000      3.588104000000000E-01     -1.572021000000000E+01      3.823242000000000E-01     -1.070313000000000E+02
4380000000.000000      4.048309000000000E-01     -2.465234000000000E+01      2.510071000000000E-01     -1.082148000000000E+02
4400000000.000000      4.261932000000000E-01     -3.459765000000000E+01      1.536026000000000E-01     -8.557032000000000E+01
4420000000.000000      4.246979000000000E-01     -4.400586000000000E+01      1.866531000000000E-01     -4.569921000000000E+01
4440000000.000000      4.081726000000000E-01     -5.206055000000000E+01      3.093262000000000E-01     -3.627734000000000E+01
4460000000.000000      3.877411000000000E-01     -5.883594000000000E+01      4.508057000000000E-01     -4.323632000000000E+01
4480000000.000000      3.678894000000000E-01     -6.505859000000000E+01      5.596008000000000E-01     -5.542187000000000E+01
4500000000.000000      3.470306000000000E-01     -7.165234000000000E+01      6.434021000000000E-01     -6.678905000000000E+01
4520000000.000000      3.136139000000000E-01     -7.924218000000000E+01      7.153320000000000E-01     -7.969531000000000E+01
4540000000.000000      2.625427000000000E-01     -8.554688000000000E+01      7.427368000000000E-01     -9.442186000000000E+01
4560000000.000000      2.020187000000000E-01     -8.395702000000000E+01      7.290039000000000E-01     -1.076406000000000E+02
4580000000.000000      1.742706000000000E-01     -6.816796000000000E+01      6.918945000000000E-01     -1.214219000000000E+02
4600000000.000000      2.113800000000000E-01     -5.403710000000000E+01      6.069336000000000E-01     -1.347265000000000E+02
4620000000.000000      2.766571000000000E-01     -5.536914000000000E+01      5.001526000000000E-01     -1.452812000000000E+02
4640000000.000000      3.306732000000000E-01     -6.516015000000000E+01      3.806305000000000E-01     -1.536484000000000E+02
4660000000.000000      3.549652000000000E-01     -7.833984000000000E+01      2.473679000000000E-01     -1.520547000000000E+02
4680000000.000000      3.467255000000000E-01     -9.229687000000000E+01      1.787720000000000E-01     -1.239101000000000E+02
4700000000.000000      3.093719000000000E-01     -1.055156000000000E+02      2.467804000000000E-01     -9.674999000000000E+01
4720000000.000000      2.536316000000000E-01     -1.161562000000000E+02      3.659668000000000E-01     -9.550781000000000E+01
4740000000.000000      1.913376000000000E-01     -1.215508000000000E+02      4.728394000000000E-01     -1.017422000000000E+02
4760000000.000000      1.397324000000000E-01     -1.177031000000000E+02      5.778198000000000E-01     -1.103398000000000E+02
4780000000.000000      1.121407000000000E-01     -1.017148000000000E+02      6.663513000000000E-01     -1.229570000000000E+02
4800000000.000000      1.175461000000000E-01     -8.409374000000000E+01      7.169495000000000E-01     -1.356797000000000E+02
4820000000.000000      1.465073000000000E-01     -7.435937000000000E+01      7.363892000000000E-01     -1.489219000000000E+02
4840000000.000000      1.875916000000000E-01     -7.382813000000000E+01      7.196350000000000E-01     -1.616719000000000E+02
4860000000.000000      2.312927000000000E-01     -8.035547000000000E+01      6.847839000000000E-01     -1.742344000000000E+02
4880000000.000000      2.688141000000000E-01     -9.081640000000000E+01      6.172791000000000E-01      1.718984000000000E+02
4900000000.000000      2.938385000000000E-01     -1.041797000000000E+02      4.971313000000000E-01      1.597578000000000E+02
4920000000.000000      2.998047000000000E-01     -1.193594000000000E+02      3.677216000000000E-01      1.534609000000000E+02
4940000000.000000      2.852173000000000E-01     -1.349062000000000E+02      2.528687000000000E-01      1.557422000000000E+02
4960000000.000000      2.542725000000000E-01     -1.501016000000000E+02      1.774597000000000E-01      1.768359000000000E+02
4980000000.000000      2.128601000000000E-01     -1.643984000000000E+02      2.135925000000000E-01     -1.514375000000000E+02
5000000000.000000      1.679993000000000E-01     -1.760625000000000E+02      3.286285000000000E-01     -1.437187000000000E+02
5020000000.000000      1.306229000000000E-01      1.739609000000000E+02      4.595184000000000E-01     -1.496406000000000E+02
5040000000.000000      1.004868000000000E-01      1.638515000000000E+02      5.675354000000000E-01     -1.603516000000000E+02
5060000000.000000      7.198334000000000E-02      1.488906000000000E+02      6.501770000000000E-01     -1.718828000000000E+02
5080000000.000000      4.171562000000000E-02      1.232851000000000E+02      7.186584000000000E-01      1.759844000000000E+02
5100000000.000000      1.652050000000000E-02      4.331445000000000E+01      7.584229000000000E-01      1.622187000000000E+02
5120000000.000000      4.067421000000000E-02     -5.091991000000000E+01      7.545166000000000E-01      1.479922000000000E+02
5140000000.000000      7.197189000000000E-02     -8.755468000000000E+01      7.056274000000000E-01      1.343125000000000E+02
5160000000.000000      9.578323000000000E-02     -1.187148000000000E+02      6.283875000000000E-01      1.220430000000000E+02
5180000000.000000      1.089325000000000E-01     -1.492812000000000E+02      5.337524000000000E-01      1.108476000000000E+02
5200000000.000000      1.120911000000000E-01      1.781797000000000E+02      4.169312000000000E-01      1.009609000000000E+02
5220000000.000000      1.094208000000000E-01      1.420625000000000E+02      2.838287000000000E-01      9.801170000000000E+01
5240000000.000000      1.089478000000000E-01      1.058242000000000E+02      1.840439000000000E-01      1.149648000000000E+02
5260000000.000000      1.130257000000000E-01      7.237890000000000E+01      1.959076000000000E-01      1.491406000000000E+02
5280000000.000000      1.210594000000000E-01      4.574414000000000E+01      2.955780000000000E-01      1.605312000000000E+02
5300000000.000000      1.274261000000000E-01      2.501953000000000E+01      4.088745000000000E-01      1.580781000000000E+02
5320000000.000000      1.331711000000000E-01      8.625488000000000E+00      5.278320000000000E-01      1.505000000000000E+02
5340000000.000000      1.391296000000000E-01     -5.799561000000000E+00      6.369934000000000E-01      1.384609000000000E+02
5360000000.000000      1.430664000000000E-01     -2.123437000000000E+01      7.046814000000000E-01      1.241211000000000E+02
5380000000.000000      1.384048000000000E-01     -3.862695000000000E+01      7.161865000000000E-01      1.107031000000000E+02
5400000000.000000      1.201134000000000E-01     -5.665039000000000E+01      7.184448000000000E-01      9.907030000000000E+01
5420000000.000000      8.444977000000000E-02     -7.310156000000000E+01      7.072144000000000E-01      8.605469000000000E+01
5440000000.000000      3.081512000000000E-02     -7.741405000000000E+01      6.487122000000000E-01      7.166016000000000E+01
5460000000.000000      4.289246000000000E-02      3.844336000000000E+01      5.407104000000000E-01      5.847851000000000E+01
5480000000.000000      1.122856000000000E-01      3.086719000000000E+01      4.152222000000000E-01      4.945313000000000E+01
5500000000.000000      1.753845000000000E-01      1.570313000000000E+01      2.934570000000000E-01      4.710742000000000E+01
5520000000.000000      2.211227000000000E-01      6.056213000000000E-01      1.953125000000000E-01      5.874023000000000E+01
5540000000.000000      2.522888000000000E-01     -1.310303000000000E+01      1.802673000000000E-01      9.046093000000000E+01
5560000000.000000      2.706299000000000E-01     -2.507910000000000E+01      2.619629000000000E-01      1.086601000000000E+02
5580000000.000000      2.827911000000000E-01     -3.487109000000000E+01      3.832397000000000E-01      1.085117000000000E+02
5600000000.000000      2.946472000000000E-01     -4.385351000000000E+01      5.055542000000000E-01      9.966015000000000E+01
5620000000.000000      3.043671000000000E-01     -5.291992000000000E+01      5.945740000000000E-01      8.717968000000000E+01
5640000000.000000      3.079529000000000E-01     -6.270898000000000E+01      6.472168000000000E-01      7.538280000000000E+01
5660000000.000000      2.983704000000000E-01     -7.341797000000000E+01      6.855469000000000E-01      6.391796000000000E+01
5680000000.000000      2.696228000000000E-01     -8.391796000000000E+01      6.982727000000000E-01      5.120507000000000E+01
5700000000.000000      2.220078000000000E-01     -9.122656000000000E+01      6.846924000000000E-01      3.882421000000000E+01
5720000000.000000      1.720963000000000E-01     -8.993750000000000E+01      6.444702000000000E-01      2.590918000000000E+01
5740000000.000000      1.501846000000000E-01     -7.567968000000000E+01      5.669250000000000E-01      1.275488000000000E+01
5760000000.000000      1.783142000000000E-01     -6.370312000000000E+01      4.532776000000000E-01      1.164551000000000E+00
5780000000.000000      2.244339000000000E-01     -6.521093000000000E+01      3.177185000000000E-01     -4.014160000000000E+00
5800000000.000000      2.568054000000000E-01     -7.301171000000000E+01      2.092438000000000E-01      6.551758000000000E+00
5820000000.000000      2.669830000000000E-01     -8.258593000000000E+01      1.889877000000000E-01      3.699804000000000E+01
5840000000.000000      2.571564000000000E-01     -9.116014000000000E+01      2.695160000000000E-01      5.376171000000000E+01
5860000000.000000      2.398453000000000E-01     -9.671875000000000E+01      3.712158000000000E-01      5.404687000000000E+01
5880000000.000000      2.250748000000000E-01     -9.988670000000000E+01      4.772186000000000E-01      4.875781000000000E+01
5900000000.000000      2.161026000000000E-01     -1.022890000000000E+02      5.946045000000000E-01      3.852148000000000E+01
5920000000.000000      2.096252000000000E-01     -1.049726000000000E+02      6.713562000000000E-01      2.470898000000000E+01
5940000000.000000      1.955719000000000E-01     -1.069414000000000E+02      7.025757000000000E-01      1.136084000000000E+01
5960000000.000000      1.775284000000000E-01     -1.056016000000000E+02      7.126770000000000E-01     -1.413147000000000E+00
5980000000.000000      1.654129000000000E-01     -9.783983000000000E+01      6.930542000000000E-01     -1.542090000000000E+01
6000000000.000000      1.808929000000000E-01     -8.853125000000000E+01      6.300964000000000E-01     -2.896191000000000E+01
6020000000.000000      2.151337000000000E-01     -8.668749000000000E+01      5.312195000000000E-01     -4.144921000000000E+01
6040000000.000000      2.513733000000000E-01     -9.172655000000000E+01      4.004517000000000E-01     -4.985352000000000E+01
6060000000.000000      2.756195000000000E-01     -1.007773000000000E+02      2.863312000000000E-01     -4.983203000000000E+01
6080000000.000000      2.854614000000000E-01     -1.110664000000000E+02      2.058716000000000E-01     -3.616601000000000E+01
