! Network Analyzer HP8722D
! Hewlett-Packard
! Data name: Linha & Wilkinson+CNT
! Saver's name: Rodrigo Anjos
! Comments: Teste da utilização de aquisição
continua pelo VNA HP8722D
! Time and date: 29/9/2025 14:57
!              Frequency                     S11                                                   S21                                                   S12                                                   S22
# HZ  S  MA R 50
3000000000.000000      4.247131000000000E-01     -5.576562000000000E+01      2.071533000000000E-01     -1.315312000000000E+02
3020000000.000000      4.481354000000000E-01     -6.982031000000000E+01      3.500977000000000E-01     -1.350156000000000E+02
3040000000.000000      4.536438000000000E-01     -8.299219000000000E+01      4.673309000000000E-01     -1.448594000000000E+02
3060000000.000000      4.450073000000000E-01     -9.485546000000000E+01      5.729065000000000E-01     -1.552344000000000E+02
3080000000.000000      4.296722000000000E-01     -1.061953000000000E+02      6.734619000000000E-01     -1.683437000000000E+02
3100000000.000000      4.085541000000000E-01     -1.173828000000000E+02      7.254028000000000E-01      1.768828000000000E+02
3120000000.000000      3.799133000000000E-01     -1.294062000000000E+02      7.324524000000000E-01      1.634063000000000E+02
3140000000.000000      3.392639000000000E-01     -1.424141000000000E+02      7.241516000000000E-01      1.506016000000000E+02
3160000000.000000      2.781982000000000E-01     -1.565000000000000E+02      6.854248000000000E-01      1.369766000000000E+02
3180000000.000000      1.992950000000000E-01     -1.691562000000000E+02      6.144409000000000E-01      1.243906000000000E+02
3200000000.000000      1.113358000000000E-01     -1.696953000000000E+02      5.194702000000000E-01      1.114141000000000E+02
3220000000.000000      7.919693000000000E-02     -1.240195000000000E+02      3.863068000000000E-01      1.006992000000000E+02
3240000000.000000      1.502991000000000E-01     -1.048984000000000E+02      2.468796000000000E-01      9.954296000000000E+01
3260000000.000000      2.299652000000000E-01     -1.151992000000000E+02      1.470413000000000E-01      1.252266000000000E+02
3280000000.000000      2.875519000000000E-01     -1.308281000000000E+02      2.030106000000000E-01      1.653203000000000E+02
3300000000.000000      3.204651000000000E-01     -1.472265000000000E+02      3.303528000000000E-01      1.696640000000000E+02
3320000000.000000      3.319244000000000E-01     -1.630312000000000E+02      4.630280000000000E-01      1.626562000000000E+02
3340000000.000000      3.284302000000000E-01     -1.784609000000000E+02      5.756226000000000E-01      1.505938000000000E+02
3360000000.000000      3.166199000000000E-01      1.667187000000000E+02      6.469421000000000E-01      1.384609000000000E+02
3380000000.000000      3.005219000000000E-01      1.524453000000000E+02      7.083740000000000E-01      1.270351000000000E+02
3400000000.000000      2.782745000000000E-01      1.378672000000000E+02      7.575684000000000E-01      1.132422000000000E+02
3420000000.000000      2.432938000000000E-01      1.227070000000000E+02      7.513733000000000E-01      9.844139000000000E+01
3440000000.000000      1.903915000000000E-01      1.081172000000000E+02      7.049255000000000E-01      8.556250000000000E+01
3460000000.000000      1.199837000000000E-01      9.729687000000000E+01      6.473389000000000E-01      7.250781000000000E+01
3480000000.000000      4.780960000000000E-02      1.212461000000000E+02      5.496521000000000E-01      5.903320000000000E+01
3500000000.000000      9.213257000000000E-02     -1.743438000000000E+02      4.243927000000000E-01      4.763085000000000E+01
3520000000.000000      1.834488000000000E-01      1.790937000000000E+02      2.791290000000000E-01      4.051171000000000E+01
3540000000.000000      2.630005000000000E-01      1.628515000000000E+02      1.475296000000000E-01      5.821679000000000E+01
3560000000.000000      3.232422000000000E-01      1.458281000000000E+02      1.665878000000000E-01      1.076289000000000E+02
3580000000.000000      3.595276000000000E-01      1.298047000000000E+02      2.938690000000000E-01      1.175117000000000E+02
3600000000.000000      3.762817000000000E-01      1.152070000000000E+02      4.190369000000000E-01      1.106016000000000E+02
3620000000.000000      3.779907000000000E-01      1.026367000000000E+02      5.209961000000000E-01      1.012305000000000E+02
3640000000.000000      3.685455000000000E-01      9.139452000000000E+01      6.222839000000000E-01      9.014452000000000E+01
3660000000.000000      3.524323000000000E-01      8.115234000000000E+01      6.936035000000000E-01      7.585546000000000E+01
3680000000.000000      3.298798000000000E-01      7.192577000000000E+01      7.098083000000000E-01      6.263866000000000E+01
3700000000.000000      2.991943000000000E-01      6.370312000000000E+01      7.200317000000000E-01      5.099414000000000E+01
3720000000.000000      2.555847000000000E-01      5.758398000000000E+01      7.234802000000000E-01      3.683789000000000E+01
3740000000.000000      2.050095000000000E-01      5.841015000000000E+01      6.639099000000000E-01      2.141016000000000E+01
3760000000.000000      1.778488000000000E-01      7.234765000000000E+01      5.667725000000000E-01      7.128662000000000E+00
3780000000.000000      2.114410000000000E-01      8.744921000000000E+01      4.368744000000000E-01     -6.193604000000000E+00
3800000000.000000      2.821655000000000E-01      8.908594000000000E+01      2.822266000000000E-01     -1.355029000000000E+01
3820000000.000000      3.496246000000000E-01      8.268749000000000E+01      1.532898000000000E-01     -5.671692000000000E-01
3840000000.000000      4.004822000000000E-01      7.392968000000000E+01      1.430130000000000E-01      4.780663000000000E+01
3860000000.000000      4.354553000000000E-01      6.530078000000000E+01      2.456131000000000E-01      6.543750000000000E+01
3880000000.000000      4.605103000000000E-01      5.782421000000000E+01      3.756561000000000E-01      6.119531000000000E+01
3900000000.000000      4.897766000000000E-01      5.077148000000000E+01      4.771423000000000E-01      4.766406000000000E+01
3920000000.000000      5.205688000000000E-01      4.299609000000000E+01      5.082092000000000E-01      3.610937000000000E+01
3940000000.000000      5.470276000000000E-01      3.413671000000000E+01      5.383911000000000E-01      2.953906000000000E+01
3960000000.000000      5.609741000000000E-01      2.418359000000000E+01      5.955505000000000E-01      2.016211000000000E+01
3980000000.000000      5.542603000000000E-01      1.361865000000000E+01      5.977783000000000E-01      8.235352000000000E+00
4000000000.000000      5.270691000000000E-01      3.132446000000000E+00      5.802612000000000E-01      1.334839000000000E+00
4020000000.000000      4.844818000000000E-01     -6.894043000000000E+00      5.977478000000000E-01     -6.642822000000000E+00
4040000000.000000      4.255981000000000E-01     -1.572461000000000E+01      5.839844000000000E-01     -1.890429000000000E+01
4060000000.000000      3.498077000000000E-01     -2.174609000000000E+01      5.278625000000000E-01     -2.898926000000000E+01
4080000000.000000      2.751007000000000E-01     -2.194434000000000E+01      4.684448000000000E-01     -3.823437000000000E+01
4100000000.000000      2.284317000000000E-01     -1.122021000000000E+01      3.673706000000000E-01     -4.734765000000000E+01
4120000000.000000      2.412338000000000E-01      1.804504000000000E+00      2.500305000000000E-01     -4.426367000000000E+01
4140000000.000000      2.897034000000000E-01      5.196533000000000E+00      2.025757000000000E-01     -2.007129000000000E+01
4160000000.000000      3.338776000000000E-01      1.097229000000000E+00      2.630463000000000E-01     -1.565552000000000E-01
4180000000.000000      3.615112000000000E-01     -5.799561000000000E+00      3.566895000000000E-01      3.915161000000000E+00
4200000000.000000      3.716888000000000E-01     -1.369189000000000E+01      4.875641000000000E-01      1.391113000000000E+00
4220000000.000000      3.674622000000000E-01     -2.077148000000000E+01      6.412354000000000E-01     -1.095215000000000E+01
4240000000.000000      3.484497000000000E-01     -2.831250000000000E+01      7.215576000000000E-01     -2.774902000000000E+01
4260000000.000000      3.093872000000000E-01     -3.413671000000000E+01      7.440186000000000E-01     -4.177343000000000E+01
4280000000.000000      2.597961000000000E-01     -3.540234000000000E+01      7.510681000000000E-01     -5.565039000000000E+01
4300000000.000000      2.223129000000000E-01     -2.729883000000000E+01      7.143860000000000E-01     -7.064453000000000E+01
4320000000.000000      2.353134000000000E-01     -1.456104000000000E+01      6.319275000000000E-01     -8.516796000000000E+01
4340000000.000000      2.934570000000000E-01     -1.052100000000000E+01      5.157471000000000E-01     -9.799608000000000E+01
4360000000.000000      3.586578000000000E-01     -1.561865000000000E+01      3.807831000000000E-01     -1.068086000000000E+02
4380000000.000000      4.048615000000000E-01     -2.454102000000000E+01      2.500916000000000E-01     -1.081523000000000E+02
4400000000.000000      4.260864000000000E-01     -3.453320000000000E+01      1.533890000000000E-01     -8.514063000000000E+01
4420000000.000000      4.245453000000000E-01     -4.385351000000000E+01      1.874924000000000E-01     -4.565234000000000E+01
4440000000.000000      4.080658000000000E-01     -5.198047000000000E+01      3.101349000000000E-01     -3.609961000000000E+01
4460000000.000000      3.863983000000000E-01     -5.866405000000000E+01      4.512177000000000E-01     -4.327344000000000E+01
4480000000.000000      3.669128000000000E-01     -6.471874000000000E+01      5.619812000000000E-01     -5.548242000000000E+01
4500000000.000000      3.468323000000000E-01     -7.151953000000000E+01      6.419373000000000E-01     -6.686328000000000E+01
4520000000.000000      3.134308000000000E-01     -7.935156000000000E+01      7.160645000000000E-01     -7.978516000000000E+01
4540000000.000000      2.622681000000000E-01     -8.554296000000000E+01      7.413025000000000E-01     -9.439453000000000E+01
4560000000.000000      2.015762000000000E-01     -8.387890000000000E+01      7.298279000000000E-01     -1.076601000000000E+02
4580000000.000000      1.742401000000000E-01     -6.783593000000000E+01      6.922302000000000E-01     -1.213555000000000E+02
4600000000.000000      2.115555000000000E-01     -5.387890000000000E+01      6.069336000000000E-01     -1.346875000000000E+02
4620000000.000000      2.767639000000000E-01     -5.508203000000000E+01      4.992828000000000E-01     -1.450078000000000E+02
4640000000.000000      3.305969000000000E-01     -6.506249000000000E+01      3.804932000000000E-01     -1.534219000000000E+02
4660000000.000000      3.544617000000000E-01     -7.830468000000000E+01      2.466202000000000E-01     -1.518828000000000E+02
4680000000.000000      3.461151000000000E-01     -9.235937000000000E+01      1.789474000000000E-01     -1.237070000000000E+02
4700000000.000000      3.091736000000000E-01     -1.055469000000000E+02      2.474365000000000E-01     -9.662498000000000E+01
4720000000.000000      2.530823000000000E-01     -1.162187000000000E+02      3.659821000000000E-01     -9.546484000000000E+01
4740000000.000000      1.911392000000000E-01     -1.214219000000000E+02      4.742737000000000E-01     -1.016445000000000E+02
4760000000.000000      1.386185000000000E-01     -1.176719000000000E+02      5.793762000000000E-01     -1.103437000000000E+02
4780000000.000000      1.123314000000000E-01     -1.017773000000000E+02      6.664734000000000E-01     -1.227422000000000E+02
4800000000.000000      1.176453000000000E-01     -8.377344000000000E+01      7.151489000000000E-01     -1.356172000000000E+02
4820000000.000000      1.463394000000000E-01     -7.399219000000000E+01      7.351074000000000E-01     -1.489609000000000E+02
4840000000.000000      1.868591000000000E-01     -7.361718000000000E+01      7.181702000000000E-01     -1.617969000000000E+02
4860000000.000000      2.309036000000000E-01     -8.026562000000000E+01      6.864624000000000E-01     -1.742812000000000E+02
4880000000.000000      2.675934000000000E-01     -9.068750000000000E+01      6.168213000000000E-01      1.720312000000000E+02
4900000000.000000      2.936707000000000E-01     -1.041719000000000E+02      4.960938000000000E-01      1.596094000000000E+02
4920000000.000000      2.993164000000000E-01     -1.192734000000000E+02      3.654175000000000E-01      1.537344000000000E+02
4940000000.000000      2.853546000000000E-01     -1.349453000000000E+02      2.519989000000000E-01      1.558672000000000E+02
4960000000.000000      2.542725000000000E-01     -1.501328000000000E+02      1.769333000000000E-01      1.772734000000000E+02
4980000000.000000      2.122879000000000E-01     -1.644297000000000E+02      2.141953000000000E-01     -1.511328000000000E+02
5000000000.000000      1.681824000000000E-01     -1.760078000000000E+02      3.299255000000000E-01     -1.435469000000000E+02
5020000000.000000      1.306763000000000E-01      1.737578000000000E+02      4.605560000000000E-01     -1.496719000000000E+02
5040000000.000000      1.000099000000000E-01      1.634375000000000E+02      5.691528000000000E-01     -1.605000000000000E+02
5060000000.000000      7.207870000000000E-02      1.484688000000000E+02      6.502075000000000E-01     -1.717813000000000E+02
5080000000.000000      4.177475000000000E-02      1.228203000000000E+02      7.185059000000000E-01      1.758906000000000E+02
5100000000.000000      1.708031000000000E-02      4.241015000000000E+01      7.573853000000000E-01      1.621875000000000E+02
5120000000.000000      4.092216000000000E-02     -5.091797000000000E+01      7.543335000000000E-01      1.480937000000000E+02
5140000000.000000      7.279205000000000E-02     -8.785156000000000E+01      7.032471000000000E-01      1.343672000000000E+02
5160000000.000000      9.615326000000000E-02     -1.186523000000000E+02      6.282959000000000E-01      1.220937000000000E+02
5180000000.000000      1.096649000000000E-01     -1.492969000000000E+02      5.333862000000000E-01      1.107383000000000E+02
5200000000.000000      1.120796000000000E-01      1.780156000000000E+02      4.158020000000000E-01      1.010859000000000E+02
5220000000.000000      1.099358000000000E-01      1.419922000000000E+02      2.839508000000000E-01      9.820313000000000E+01
5240000000.000000      1.090469000000000E-01      1.059766000000000E+02      1.837921000000000E-01      1.151484000000000E+02
5260000000.000000      1.133537000000000E-01      7.250000000000000E+01      1.962051000000000E-01      1.494297000000000E+02
5280000000.000000      1.203461000000000E-01      4.573828000000000E+01      2.958069000000000E-01      1.605547000000000E+02
5300000000.000000      1.270828000000000E-01      2.512890000000000E+01      4.101868000000000E-01      1.581563000000000E+02
5320000000.000000      1.327133000000000E-01      8.639160000000000E+00      5.270386000000000E-01      1.505781000000000E+02
5340000000.000000      1.393814000000000E-01     -5.700684000000000E+00      6.389465000000000E-01      1.385703000000000E+02
5360000000.000000      1.436691000000000E-01     -2.127246000000000E+01      7.059631000000000E-01      1.239648000000000E+02
5380000000.000000      1.386795000000000E-01     -3.884375000000000E+01      7.167053000000000E-01      1.107773000000000E+02
5400000000.000000      1.198883000000000E-01     -5.698828000000000E+01      7.190247000000000E-01      9.907030000000000E+01
5420000000.000000      8.455276000000000E-02     -7.382813000000000E+01      7.051086000000000E-01      8.589844000000000E+01
5440000000.000000      3.047371000000000E-02     -7.753906000000000E+01      6.477966000000000E-01      7.153125000000000E+01
5460000000.000000      4.289818000000000E-02      3.919336000000000E+01      5.398865000000000E-01      5.858593000000000E+01
5480000000.000000      1.126175000000000E-01      3.106445000000000E+01      4.138184000000000E-01      4.926367000000000E+01
5500000000.000000      1.749191000000000E-01      1.570459000000000E+01      2.926331000000000E-01      4.722656000000000E+01
5520000000.000000      2.209702000000000E-01      6.797791000000000E-01      1.953278000000000E-01      5.904687000000000E+01
5540000000.000000      2.522125000000000E-01     -1.319775000000000E+01      1.806412000000000E-01      9.082811000000000E+01
5560000000.000000      2.705536000000000E-01     -2.509082000000000E+01      2.623596000000000E-01      1.087891000000000E+02
5580000000.000000      2.823944000000000E-01     -3.499414000000000E+01      3.840485000000000E-01      1.085781000000000E+02
5600000000.000000      2.938232000000000E-01     -4.383985000000000E+01      5.064087000000000E-01      9.971483000000000E+01
5620000000.000000      3.048248000000000E-01     -5.293554000000000E+01      5.964661000000000E-01      8.707031000000000E+01
5640000000.000000      3.079376000000000E-01     -6.277344000000000E+01      6.460876000000000E-01      7.518749000000000E+01
5660000000.000000      2.978516000000000E-01     -7.344140000000000E+01      6.863403000000000E-01      6.385351000000000E+01
5680000000.000000      2.686920000000000E-01     -8.380859000000000E+01      6.987610000000000E-01      5.119922000000000E+01
5700000000.000000      2.210083000000000E-01     -9.119141000000000E+01      6.827087000000000E-01      3.874218000000000E+01
5720000000.000000      1.706161000000000E-01     -8.978125000000000E+01      6.437378000000000E-01      2.592187000000000E+01
5740000000.000000      1.495056000000000E-01     -7.549218000000000E+01      5.664368000000000E-01      1.283887000000000E+01
5760000000.000000      1.786499000000000E-01     -6.364452000000000E+01      4.506531000000000E-01      1.241455000000000E+00
5780000000.000000      2.246246000000000E-01     -6.523046000000000E+01      3.166046000000000E-01     -4.018311000000000E+00
5800000000.000000      2.565155000000000E-01     -7.289453000000000E+01      2.082520000000000E-01      6.884277000000000E+00
5820000000.000000      2.670593000000000E-01     -8.263281000000000E+01      1.890793000000000E-01      3.737109000000000E+01
5840000000.000000      2.568359000000000E-01     -9.094141000000000E+01      2.702484000000000E-01      5.397851000000000E+01
5860000000.000000      2.389069000000000E-01     -9.662498000000000E+01      3.711853000000000E-01      5.392773000000000E+01
5880000000.000000      2.235107000000000E-01     -9.985546000000000E+01      4.782562000000000E-01      4.875586000000000E+01
5900000000.000000      2.155838000000000E-01     -1.020976000000000E+02      5.942993000000000E-01      3.839844000000000E+01
5920000000.000000      2.090988000000000E-01     -1.049336000000000E+02      6.717834000000000E-01      2.458398000000000E+01
5940000000.000000      1.946640000000000E-01     -1.070703000000000E+02      7.023926000000000E-01      1.145020000000000E+01
5960000000.000000      1.772385000000000E-01     -1.052031000000000E+02      7.133789000000000E-01     -1.487305000000000E+00
5980000000.000000      1.660614000000000E-01     -9.743750000000000E+01      6.915283000000000E-01     -1.536035000000000E+01
6000000000.000000      1.813889000000000E-01     -8.835546000000000E+01      6.286926000000000E-01     -2.905762000000000E+01
6020000000.000000      2.163849000000000E-01     -8.635937000000000E+01      5.296021000000000E-01     -4.160937000000000E+01
6040000000.000000      2.514954000000000E-01     -9.157812000000000E+01      3.989105000000000E-01     -4.992773000000000E+01
6060000000.000000      2.753448000000000E-01     -1.007656000000000E+02      2.859039000000000E-01     -4.975195000000000E+01
6080000000.000000      2.851563000000000E-01     -1.109766000000000E+02      2.059631000000000E-01     -3.600000000000000E+01
