! Network Analyzer HP8722D
! Hewlett-Packard
! Data name: Linha & Wilkinson+CNT
! Saver's name: Rodrigo Anjos
! Comments: Teste da utilização de aquisição
continua pelo VNA HP8722D
! Time and date: 29/9/2025 16:18
!              Frequency                     S11                                                   S21                                                   S12                                                   S22
# HZ  S  MA R 50
3000000000.000000      4.245605000000000E-01     -5.539648000000000E+01      2.069702000000000E-01     -1.315625000000000E+02
3020000000.000000      4.471283000000000E-01     -6.978516000000000E+01      3.502197000000000E-01     -1.350000000000000E+02
3040000000.000000      4.537048000000000E-01     -8.293360000000000E+01      4.672241000000000E-01     -1.449453000000000E+02
3060000000.000000      4.445496000000000E-01     -9.495312000000000E+01      5.718079000000000E-01     -1.552500000000000E+02
3080000000.000000      4.291687000000000E-01     -1.061211000000000E+02      6.743164000000000E-01     -1.683047000000000E+02
3100000000.000000      4.090424000000000E-01     -1.173281000000000E+02      7.243042000000000E-01      1.767500000000000E+02
3120000000.000000      3.800964000000000E-01     -1.292969000000000E+02      7.315979000000000E-01      1.634453000000000E+02
3140000000.000000      3.388367000000000E-01     -1.422734000000000E+02      7.242432000000000E-01      1.506328000000000E+02
3160000000.000000      2.787476000000000E-01     -1.563281000000000E+02      6.853027000000000E-01      1.369766000000000E+02
3180000000.000000      1.988068000000000E-01     -1.690312000000000E+02      6.135559000000000E-01      1.244219000000000E+02
3200000000.000000      1.112366000000000E-01     -1.698984000000000E+02      5.199890000000000E-01      1.115391000000000E+02
3220000000.000000      7.915115000000000E-02     -1.243789000000000E+02      3.854523000000000E-01      1.008164000000000E+02
3240000000.000000      1.506882000000000E-01     -1.047890000000000E+02      2.473373000000000E-01      9.955858000000000E+01
3260000000.000000      2.300720000000000E-01     -1.150703000000000E+02      1.473846000000000E-01      1.254726000000000E+02
3280000000.000000      2.870941000000000E-01     -1.307969000000000E+02      2.034531000000000E-01      1.653281000000000E+02
3300000000.000000      3.206024000000000E-01     -1.471328000000000E+02      3.303528000000000E-01      1.695625000000000E+02
3320000000.000000      3.317871000000000E-01     -1.630547000000000E+02      4.629669000000000E-01      1.625625000000000E+02
3340000000.000000      3.282776000000000E-01     -1.784844000000000E+02      5.755615000000000E-01      1.505391000000000E+02
3360000000.000000      3.162537000000000E-01      1.667969000000000E+02      6.470947000000000E-01      1.383828000000000E+02
3380000000.000000      3.003845000000000E-01      1.525312000000000E+02      7.094116000000000E-01      1.270273000000000E+02
3400000000.000000      2.783661000000000E-01      1.378672000000000E+02      7.578430000000000E-01      1.132500000000000E+02
3420000000.000000      2.432938000000000E-01      1.228281000000000E+02      7.500305000000000E-01      9.846092000000000E+01
3440000000.000000      1.903687000000000E-01      1.081641000000000E+02      7.059937000000000E-01      8.537889000000000E+01
3460000000.000000      1.199188000000000E-01      9.734764000000000E+01      6.471558000000000E-01      7.251171000000000E+01
3480000000.000000      4.834175000000000E-02      1.210742000000000E+02      5.499573000000000E-01      5.900585000000000E+01
3500000000.000000      9.220886000000000E-02     -1.742188000000000E+02      4.248810000000000E-01      4.757226000000000E+01
3520000000.000000      1.836319000000000E-01      1.791016000000000E+02      2.786865000000000E-01      4.059960000000000E+01
3540000000.000000      2.632904000000000E-01      1.627187000000000E+02      1.474609000000000E-01      5.831445000000000E+01
3560000000.000000      3.227692000000000E-01      1.458672000000000E+02      1.671600000000000E-01      1.077148000000000E+02
3580000000.000000      3.599548000000000E-01      1.298984000000000E+02      2.944946000000000E-01      1.175430000000000E+02
3600000000.000000      3.762207000000000E-01      1.152305000000000E+02      4.196014000000000E-01      1.106523000000000E+02
3620000000.000000      3.782196000000000E-01      1.025820000000000E+02      5.214844000000000E-01      1.010898000000000E+02
3640000000.000000      3.690796000000000E-01      9.143749000000000E+01      6.227722000000000E-01      9.010546000000000E+01
3660000000.000000      3.522797000000000E-01      8.110546000000000E+01      6.929016000000000E-01      7.580468000000000E+01
3680000000.000000      3.294983000000000E-01      7.196094000000000E+01      7.119446000000000E-01      6.254101000000000E+01
3700000000.000000      2.993317000000000E-01      6.368750000000000E+01      7.210999000000000E-01      5.104297000000000E+01
3720000000.000000      2.554626000000000E-01      5.757226000000000E+01      7.242737000000000E-01      3.680078000000000E+01
3740000000.000000      2.052536000000000E-01      5.842773000000000E+01      6.640015000000000E-01      2.144726000000000E+01
3760000000.000000      1.783524000000000E-01      7.251562000000000E+01      5.662231000000000E-01      7.260498000000000E+00
3780000000.000000      2.119904000000000E-01      8.741405000000000E+01      4.365540000000000E-01     -6.006836000000000E+00
3800000000.000000      2.827301000000000E-01      8.909374000000000E+01      2.824402000000000E-01     -1.357129000000000E+01
3820000000.000000      3.501129000000000E-01      8.262499000000000E+01      1.537323000000000E-01     -3.721619000000000E-01
3840000000.000000      4.004211000000000E-01      7.393749000000000E+01      1.432114000000000E-01      4.783789000000000E+01
3860000000.000000      4.354095000000000E-01      6.533593000000000E+01      2.459030000000000E-01      6.541016000000000E+01
3880000000.000000      4.607391000000000E-01      5.780859000000000E+01      3.753510000000000E-01      6.111718000000000E+01
3900000000.000000      4.898682000000000E-01      5.084765000000000E+01      4.774170000000000E-01      4.775781000000000E+01
3920000000.000000      5.207520000000000E-01      4.319726000000000E+01      5.073853000000000E-01      3.586719000000000E+01
3940000000.000000      5.506592000000000E-01      3.412695000000000E+01      5.402222000000000E-01      2.942871000000000E+01
3960000000.000000      5.607605000000000E-01      2.412109000000000E+01      5.954895000000000E-01      2.008984000000000E+01
3980000000.000000      5.537109000000000E-01      1.358984000000000E+01      5.979004000000000E-01      8.071777000000000E+00
4000000000.000000      5.276489000000000E-01      3.228516000000000E+00      5.800476000000000E-01      1.308716000000000E+00
4020000000.000000      4.846344000000000E-01     -6.802002000000000E+00      5.975952000000000E-01     -6.530029000000000E+00
4040000000.000000      4.254303000000000E-01     -1.568066000000000E+01      5.849304000000000E-01     -1.873926000000000E+01
4060000000.000000      3.499908000000000E-01     -2.178223000000000E+01      5.293884000000000E-01     -2.890527000000000E+01
4080000000.000000      2.747955000000000E-01     -2.173242000000000E+01      4.698639000000000E-01     -3.831250000000000E+01
4100000000.000000      2.289505000000000E-01     -1.119141000000000E+01      3.679352000000000E-01     -4.737890000000000E+01
4120000000.000000      2.420273000000000E-01      1.834717000000000E+00      2.497406000000000E-01     -4.422852000000000E+01
4140000000.000000      2.896729000000000E-01      5.193604000000000E+00      2.029877000000000E-01     -2.006836000000000E+01
4160000000.000000      3.338165000000000E-01      1.097229000000000E+00      2.635651000000000E-01     -5.905151000000000E-02
4180000000.000000      3.615723000000000E-01     -5.836670000000000E+00      3.572998000000000E-01      3.841064000000000E+00
4200000000.000000      3.717957000000000E-01     -1.362061000000000E+01      4.872131000000000E-01      1.488647000000000E+00
4220000000.000000      3.676758000000000E-01     -2.074023000000000E+01      6.426697000000000E-01     -1.107568000000000E+01
4240000000.000000      3.487396000000000E-01     -2.826172000000000E+01      7.223206000000000E-01     -2.762304000000000E+01
4260000000.000000      3.100739000000000E-01     -3.404687000000000E+01      7.445374000000000E-01     -4.179101000000000E+01
4280000000.000000      2.599182000000000E-01     -3.532422000000000E+01      7.513733000000000E-01     -5.560741000000000E+01
4300000000.000000      2.223511000000000E-01     -2.717773000000000E+01      7.144775000000000E-01     -7.076953000000000E+01
4320000000.000000      2.351074000000000E-01     -1.448828000000000E+01      6.326599000000000E-01     -8.510546000000000E+01
4340000000.000000      2.933044000000000E-01     -1.045508000000000E+01      5.178223000000000E-01     -9.794140000000000E+01
4360000000.000000      3.586578000000000E-01     -1.552100000000000E+01      3.818512000000000E-01     -1.067969000000000E+02
4380000000.000000      4.056549000000000E-01     -2.451465000000000E+01      2.503357000000000E-01     -1.080703000000000E+02
4400000000.000000      4.257050000000000E-01     -3.450390000000000E+01      1.534729000000000E-01     -8.513281000000000E+01
4420000000.000000      4.248962000000000E-01     -4.385351000000000E+01      1.875381000000000E-01     -4.547461000000000E+01
4440000000.000000      4.085236000000000E-01     -5.189648000000000E+01      3.102264000000000E-01     -3.615625000000000E+01
4460000000.000000      3.871155000000000E-01     -5.848827000000000E+01      4.523468000000000E-01     -4.333593000000000E+01
4480000000.000000      3.678436000000000E-01     -6.469531000000000E+01      5.607300000000000E-01     -5.534961000000000E+01
4500000000.000000      3.466187000000000E-01     -7.152734000000000E+01      6.426392000000000E-01     -6.686328000000000E+01
4520000000.000000      3.134918000000000E-01     -7.937109000000000E+01      7.165833000000000E-01     -7.964844000000000E+01
4540000000.000000      2.623444000000000E-01     -8.559374000000000E+01      7.414246000000000E-01     -9.440624000000000E+01
4560000000.000000      2.011719000000000E-01     -8.398829000000000E+01      7.289734000000000E-01     -1.077617000000000E+02
4580000000.000000      1.738205000000000E-01     -6.796875000000000E+01      6.919556000000000E-01     -1.214492000000000E+02
4600000000.000000      2.115021000000000E-01     -5.375195000000000E+01      6.069336000000000E-01     -1.346953000000000E+02
4620000000.000000      2.766113000000000E-01     -5.512500000000000E+01      4.989624000000000E-01     -1.450547000000000E+02
4640000000.000000      3.302155000000000E-01     -6.498437000000000E+01      3.796082000000000E-01     -1.534375000000000E+02
4660000000.000000      3.539581000000000E-01     -7.825000000000000E+01      2.462540000000000E-01     -1.517656000000000E+02
4680000000.000000      3.457947000000000E-01     -9.231249000000000E+01      1.789932000000000E-01     -1.236797000000000E+02
4700000000.000000      3.087311000000000E-01     -1.055742000000000E+02      2.480927000000000E-01     -9.667578000000000E+01
4720000000.000000      2.532043000000000E-01     -1.162383000000000E+02      3.673859000000000E-01     -9.543360000000000E+01
4740000000.000000      1.909256000000000E-01     -1.214063000000000E+02      4.740448000000000E-01     -1.017969000000000E+02
4760000000.000000      1.387253000000000E-01     -1.175078000000000E+02      5.785217000000000E-01     -1.104453000000000E+02
4780000000.000000      1.119995000000000E-01     -1.016562000000000E+02      6.686401000000000E-01     -1.227851000000000E+02
4800000000.000000      1.172867000000000E-01     -8.352734000000000E+01      7.171326000000000E-01     -1.357422000000000E+02
4820000000.000000      1.453934000000000E-01     -7.377734000000000E+01      7.356873000000000E-01     -1.489844000000000E+02
4840000000.000000      1.874619000000000E-01     -7.343750000000000E+01      7.193298000000000E-01     -1.617734000000000E+02
4860000000.000000      2.308578000000000E-01     -8.015625000000000E+01      6.836243000000000E-01     -1.742578000000000E+02
4880000000.000000      2.681580000000000E-01     -9.064062000000000E+01      6.162415000000000E-01      1.719375000000000E+02
4900000000.000000      2.939453000000000E-01     -1.041562000000000E+02      4.951630000000000E-01      1.598906000000000E+02
4920000000.000000      2.997131000000000E-01     -1.192070000000000E+02      3.663940000000000E-01      1.535547000000000E+02
4940000000.000000      2.849426000000000E-01     -1.349688000000000E+02      2.516785000000000E-01      1.559766000000000E+02
4960000000.000000      2.545166000000000E-01     -1.502031000000000E+02      1.770477000000000E-01      1.772187000000000E+02
4980000000.000000      2.123489000000000E-01     -1.642422000000000E+02      2.143478000000000E-01     -1.512187000000000E+02
5000000000.000000      1.681671000000000E-01     -1.760859000000000E+02      3.297729000000000E-01     -1.436328000000000E+02
5020000000.000000      1.304169000000000E-01      1.737266000000000E+02      4.605408000000000E-01     -1.495547000000000E+02
5040000000.000000      9.985352000000000E-02      1.636328000000000E+02      5.689697000000000E-01     -1.603594000000000E+02
5060000000.000000      7.204437000000000E-02      1.485625000000000E+02      6.517029000000000E-01     -1.719766000000000E+02
5080000000.000000      4.137421000000000E-02      1.227891000000000E+02      7.194824000000000E-01      1.758672000000000E+02
5100000000.000000      1.675224000000000E-02      4.208593000000000E+01      7.575684000000000E-01      1.623281000000000E+02
5120000000.000000      4.136658000000000E-02     -5.099804000000000E+01      7.526855000000000E-01      1.480937000000000E+02
5140000000.000000      7.295990000000000E-02     -8.747265000000000E+01      7.033081000000000E-01      1.343125000000000E+02
5160000000.000000      9.616089000000000E-02     -1.188164000000000E+02      6.263733000000000E-01      1.220195000000000E+02
5180000000.000000      1.099854000000000E-01     -1.494609000000000E+02      5.323792000000000E-01      1.107070000000000E+02
5200000000.000000      1.126938000000000E-01      1.781250000000000E+02      4.159851000000000E-01      1.011445000000000E+02
5220000000.000000      1.095390000000000E-01      1.421875000000000E+02      2.832489000000000E-01      9.826952000000000E+01
5240000000.000000      1.089249000000000E-01      1.058711000000000E+02      1.838303000000000E-01      1.151875000000000E+02
5260000000.000000      1.130524000000000E-01      7.241796000000000E+01      1.961060000000000E-01      1.494375000000000E+02
5280000000.000000      1.205330000000000E-01      4.589257000000000E+01      2.964325000000000E-01      1.606484000000000E+02
5300000000.000000      1.275024000000000E-01      2.504883000000000E+01      4.100800000000000E-01      1.581172000000000E+02
5320000000.000000      1.336823000000000E-01      8.691406000000000E+00      5.263977000000000E-01      1.504375000000000E+02
5340000000.000000      1.394882000000000E-01     -5.781738000000000E+00      6.391296000000000E-01      1.384609000000000E+02
5360000000.000000      1.436157000000000E-01     -2.138574000000000E+01      7.073975000000000E-01      1.240781000000000E+02
5380000000.000000      1.387711000000000E-01     -3.892187000000000E+01      7.179260000000000E-01      1.106992000000000E+02
5400000000.000000      1.201553000000000E-01     -5.719727000000000E+01      7.180481000000000E-01      9.908592000000000E+01
5420000000.000000      8.438110000000000E-02     -7.399609000000000E+01      7.073669000000000E-01      8.574219000000000E+01
5440000000.000000      3.059006000000000E-02     -7.833984000000000E+01      6.479492000000000E-01      7.174218000000000E+01
5460000000.000000      4.304314000000000E-02      3.852148000000000E+01      5.389404000000000E-01      5.848827000000000E+01
5480000000.000000      1.128044000000000E-01      3.097558000000000E+01      4.132996000000000E-01      4.929688000000000E+01
5500000000.000000      1.755142000000000E-01      1.567188000000000E+01      2.931213000000000E-01      4.725586000000000E+01
5520000000.000000      2.211533000000000E-01      6.674194000000000E-01      1.954727000000000E-01      5.916601000000000E+01
5540000000.000000      2.517853000000000E-01     -1.319092000000000E+01      1.804123000000000E-01      9.068359000000000E+01
5560000000.000000      2.703094000000000E-01     -2.502148000000000E+01      2.623901000000000E-01      1.086172000000000E+02
5580000000.000000      2.825928000000000E-01     -3.511328000000000E+01      3.844910000000000E-01      1.085156000000000E+02
5600000000.000000      2.938080000000000E-01     -4.391015000000000E+01      5.066528000000000E-01      9.954687000000000E+01
5620000000.000000      3.046265000000000E-01     -5.302148000000000E+01      5.958557000000000E-01      8.707811000000000E+01
5640000000.000000      3.081665000000000E-01     -6.278320000000000E+01      6.476135000000000E-01      7.506249000000000E+01
5660000000.000000      2.987823000000000E-01     -7.341406000000000E+01      6.868591000000000E-01      6.395508000000000E+01
5680000000.000000      2.676392000000000E-01     -8.376171000000000E+01      6.994019000000000E-01      5.103906000000000E+01
5700000000.000000      2.207260000000000E-01     -9.109766000000000E+01      6.834717000000000E-01      3.875781000000000E+01
5720000000.000000      1.704712000000000E-01     -8.983984000000000E+01      6.433105000000000E-01      2.603320000000000E+01
5740000000.000000      1.497040000000000E-01     -7.530078000000000E+01      5.664368000000000E-01      1.287988000000000E+01
5760000000.000000      1.781921000000000E-01     -6.364258000000000E+01      4.521790000000000E-01      1.255188000000000E+00
5780000000.000000      2.247772000000000E-01     -6.523438000000000E+01      3.159943000000000E-01     -4.012939000000000E+00
5800000000.000000      2.572174000000000E-01     -7.295703000000000E+01      2.076416000000000E-01      6.902100000000000E+00
5820000000.000000      2.671509000000000E-01     -8.248827000000000E+01      1.894073000000000E-01      3.757031000000000E+01
5840000000.000000      2.569733000000000E-01     -9.085546000000000E+01      2.719116000000000E-01      5.399414000000000E+01
5860000000.000000      2.391357000000000E-01     -9.652733000000000E+01      3.721466000000000E-01      5.409180000000000E+01
5880000000.000000      2.239456000000000E-01     -9.963671000000000E+01      4.788666000000000E-01      4.872265000000000E+01
5900000000.000000      2.162247000000000E-01     -1.023047000000000E+02      5.947266000000000E-01      3.857812000000000E+01
5920000000.000000      2.087402000000000E-01     -1.050039000000000E+02      6.727600000000000E-01      2.445508000000000E+01
5940000000.000000      1.943665000000000E-01     -1.070469000000000E+02      7.023315000000000E-01      1.113037000000000E+01
5960000000.000000      1.770630000000000E-01     -1.054805000000000E+02      7.149353000000000E-01     -1.558716000000000E+00
5980000000.000000      1.651001000000000E-01     -9.748436000000000E+01      6.910095000000000E-01     -1.552246000000000E+01
6000000000.000000      1.811981000000000E-01     -8.805859000000000E+01      6.296082000000000E-01     -2.910058000000000E+01
6020000000.000000      2.165985000000000E-01     -8.639063000000000E+01      5.302734000000000E-01     -4.169726000000000E+01
6040000000.000000      2.514801000000000E-01     -9.158983000000000E+01      4.000854000000000E-01     -4.979687000000000E+01
6060000000.000000      2.753906000000000E-01     -1.006641000000000E+02      2.856140000000000E-01     -4.968163000000000E+01
6080000000.000000      2.847290000000000E-01     -1.109961000000000E+02      2.059631000000000E-01     -3.575390000000000E+01
