! Network Analyzer HP8722D
! Hewlett-Packard
! Data name: Linha & Wilkinson+CNT
! Saver's name: Rodrigo Anjos
! Comments: Teste da utilização de aquisição
continua pelo VNA HP8722D
! Time and date: 29/9/2025 12:18
!              Frequency                     S11                                                   S21                                                   S12                                                   S22
# HZ  S  MA R 50
3000000000.000000      4.228363000000000E-01     -5.611133000000000E+01      2.072983000000000E-01     -1.313437000000000E+02
3020000000.000000      4.473267000000000E-01     -7.060937000000000E+01      3.507233000000000E-01     -1.349609000000000E+02
3040000000.000000      4.530029000000000E-01     -8.299608000000000E+01      4.677277000000000E-01     -1.446797000000000E+02
3060000000.000000      4.462585000000000E-01     -9.520311000000000E+01      5.716248000000000E-01     -1.551641000000000E+02
3080000000.000000      4.309082000000000E-01     -1.064687000000000E+02      6.734619000000000E-01     -1.682891000000000E+02
3100000000.000000      4.109802000000000E-01     -1.176172000000000E+02      7.238159000000000E-01      1.769531000000000E+02
3120000000.000000      3.825836000000000E-01     -1.295078000000000E+02      7.312622000000000E-01      1.635234000000000E+02
3140000000.000000      3.418579000000000E-01     -1.423906000000000E+02      7.244263000000000E-01      1.506094000000000E+02
3160000000.000000      2.818604000000000E-01     -1.562344000000000E+02      6.840210000000000E-01      1.370703000000000E+02
3180000000.000000      2.023621000000000E-01     -1.686563000000000E+02      6.129150000000000E-01      1.246172000000000E+02
3200000000.000000      1.145935000000000E-01     -1.685859000000000E+02      5.185852000000000E-01      1.116367000000000E+02
3220000000.000000      8.278656000000000E-02     -1.246328000000000E+02      3.852081000000000E-01      1.010430000000000E+02
3240000000.000000      1.539459000000000E-01     -1.056602000000000E+02      2.462311000000000E-01      9.982811000000000E+01
3260000000.000000      2.329330000000000E-01     -1.156016000000000E+02      1.473465000000000E-01      1.258203000000000E+02
3280000000.000000      2.910156000000000E-01     -1.309922000000000E+02      2.041779000000000E-01      1.654375000000000E+02
3300000000.000000      3.241425000000000E-01     -1.471250000000000E+02      3.306732000000000E-01      1.697500000000000E+02
3320000000.000000      3.353882000000000E-01     -1.628594000000000E+02      4.635468000000000E-01      1.627031000000000E+02
3340000000.000000      3.317566000000000E-01     -1.781719000000000E+02      5.758057000000000E-01      1.506016000000000E+02
3360000000.000000      3.192139000000000E-01      1.672344000000000E+02      6.461792000000000E-01      1.384531000000000E+02
3380000000.000000      3.024139000000000E-01      1.530781000000000E+02      7.098083000000000E-01      1.271250000000000E+02
3400000000.000000      2.787018000000000E-01      1.385078000000000E+02      7.589111000000000E-01      1.134570000000000E+02
3420000000.000000      2.431107000000000E-01      1.234805000000000E+02      7.496643000000000E-01      9.855078000000000E+01
3440000000.000000      1.890640000000000E-01      1.088789000000000E+02      7.048645000000000E-01      8.555468000000000E+01
3460000000.000000      1.179810000000000E-01      9.878124000000000E+01      6.467896000000000E-01      7.242188000000000E+01
3480000000.000000      4.741669000000000E-02      1.252500000000000E+02      5.498962000000000E-01      5.910742000000000E+01
3500000000.000000      9.532166000000000E-02     -1.731641000000000E+02      4.245300000000000E-01      4.773438000000000E+01
3520000000.000000      1.870270000000000E-01      1.796797000000000E+02      2.784424000000000E-01      4.066602000000000E+01
3540000000.000000      2.650452000000000E-01      1.634922000000000E+02      1.472855000000000E-01      5.848437000000000E+01
3560000000.000000      3.239288000000000E-01      1.464766000000000E+02      1.679764000000000E-01      1.079219000000000E+02
3580000000.000000      3.602142000000000E-01      1.303437000000000E+02      2.952271000000000E-01      1.175312000000000E+02
3600000000.000000      3.759766000000000E-01      1.156328000000000E+02      4.205170000000000E-01      1.106602000000000E+02
3620000000.000000      3.766479000000000E-01      1.029726000000000E+02      5.230103000000000E-01      1.012422000000000E+02
3640000000.000000      3.669434000000000E-01      9.163280000000000E+01      6.221924000000000E-01      9.000780000000000E+01
3660000000.000000      3.504791000000000E-01      8.138281000000000E+01      6.933289000000000E-01      7.582421000000000E+01
3680000000.000000      3.280945000000000E-01      7.207031000000000E+01      7.126770000000000E-01      6.263672000000000E+01
3700000000.000000      2.966003000000000E-01      6.375195000000000E+01      7.219849000000000E-01      5.112890000000000E+01
3720000000.000000      2.517395000000000E-01      5.762695000000000E+01      7.235718000000000E-01      3.695898000000000E+01
3740000000.000000      2.019653000000000E-01      5.850976000000000E+01      6.640625000000000E-01      2.146777000000000E+01
3760000000.000000      1.756897000000000E-01      7.280078000000000E+01      5.660400000000000E-01      7.199951000000000E+00
3780000000.000000      2.102814000000000E-01      8.774218000000000E+01      4.335785000000000E-01     -5.934082000000000E+00
3800000000.000000      2.809601000000000E-01      8.932421000000000E+01      2.814789000000000E-01     -1.330762000000000E+01
3820000000.000000      3.484955000000000E-01      8.275782000000000E+01      1.533966000000000E-01     -5.355835000000000E-02
3840000000.000000      3.986816000000000E-01      7.398438000000000E+01      1.439056000000000E-01      4.813086000000000E+01
3860000000.000000      4.337921000000000E-01      6.535546000000000E+01      2.464981000000000E-01      6.537890000000000E+01
3880000000.000000      4.586182000000000E-01      5.770702000000000E+01      3.766479000000000E-01      6.119335000000000E+01
3900000000.000000      4.874725000000000E-01      5.061523000000000E+01      4.781036000000000E-01      4.768555000000000E+01
3920000000.000000      5.178833000000000E-01      4.300195000000000E+01      5.092163000000000E-01      3.588281000000000E+01
3940000000.000000      5.480347000000000E-01      3.377734000000000E+01      5.403748000000000E-01      2.947851000000000E+01
3960000000.000000      5.586243000000000E-01      2.356934000000000E+01      5.962524000000000E-01      2.010547000000000E+01
3980000000.000000      5.529175000000000E-01      1.329443000000000E+01      5.965881000000000E-01      8.198242000000000E+00
4000000000.000000      5.273743000000000E-01      2.859131000000000E+00      5.796814000000000E-01      1.224976000000000E+00
4020000000.000000      4.830322000000000E-01     -7.197510000000000E+00      5.981140000000000E-01     -6.671631000000000E+00
4040000000.000000      4.239197000000000E-01     -1.598389000000000E+01      5.848083000000000E-01     -1.885449000000000E+01
4060000000.000000      3.484344000000000E-01     -2.225879000000000E+01      5.262756000000000E-01     -2.884961000000000E+01
4080000000.000000      2.738953000000000E-01     -2.222266000000000E+01      4.671326000000000E-01     -3.833984000000000E+01
4100000000.000000      2.281876000000000E-01     -1.184619000000000E+01      3.654633000000000E-01     -4.724999000000000E+01
4120000000.000000      2.409973000000000E-01      1.338928000000000E+00      2.491760000000000E-01     -4.395508000000000E+01
4140000000.000000      2.891541000000000E-01      4.603271000000000E+00      2.033997000000000E-01     -1.975781000000000E+01
4160000000.000000      3.338165000000000E-01      4.971313000000000E-01      2.644806000000000E-01      1.647949000000000E-02
4180000000.000000      3.616028000000000E-01     -6.329590000000000E+00      3.580322000000000E-01      3.924805000000000E+00
4200000000.000000      3.714142000000000E-01     -1.405469000000000E+01      4.881744000000000E-01      1.389771000000000E+00
4220000000.000000      3.669281000000000E-01     -2.137207000000000E+01      6.423950000000000E-01     -1.091504000000000E+01
4240000000.000000      3.474884000000000E-01     -2.885644000000000E+01      7.218933000000000E-01     -2.766992000000000E+01
4260000000.000000      3.090210000000000E-01     -3.462500000000000E+01      7.444763000000000E-01     -4.183398000000000E+01
4280000000.000000      2.596893000000000E-01     -3.586719000000000E+01      7.516785000000000E-01     -5.563281000000000E+01
4300000000.000000      2.229080000000000E-01     -2.786426000000000E+01      7.136230000000000E-01     -7.068359000000000E+01
4320000000.000000      2.363205000000000E-01     -1.497070000000000E+01      6.315308000000000E-01     -8.514063000000000E+01
4340000000.000000      2.944336000000000E-01     -1.103027000000000E+01      5.151367000000000E-01     -9.776171000000000E+01
4360000000.000000      3.589630000000000E-01     -1.599902000000000E+01      3.810883000000000E-01     -1.067891000000000E+02
4380000000.000000      4.057770000000000E-01     -2.496289000000000E+01      2.493286000000000E-01     -1.077891000000000E+02
4400000000.000000      4.265442000000000E-01     -3.487500000000000E+01      1.537247000000000E-01     -8.476171000000000E+01
4420000000.000000      4.250641000000000E-01     -4.423437000000000E+01      1.882248000000000E-01     -4.550586000000000E+01
4440000000.000000      4.093781000000000E-01     -5.224023000000000E+01      3.104095000000000E-01     -3.606445000000000E+01
4460000000.000000      3.888855000000000E-01     -5.888672000000000E+01      4.521179000000000E-01     -4.326562000000000E+01
4480000000.000000      3.689270000000000E-01     -6.500000000000000E+01      5.611877000000000E-01     -5.534180000000000E+01
4500000000.000000      3.478851000000000E-01     -7.178124000000000E+01      6.412964000000000E-01     -6.675390000000000E+01
4520000000.000000      3.144531000000000E-01     -7.929296000000000E+01      7.160645000000000E-01     -7.984765000000000E+01
4540000000.000000      2.634888000000000E-01     -8.527735000000000E+01      7.405701000000000E-01     -9.434374000000000E+01
4560000000.000000      2.032166000000000E-01     -8.351171000000000E+01      7.290344000000000E-01     -1.076953000000000E+02
4580000000.000000      1.771164000000000E-01     -6.791016000000000E+01      6.906738000000000E-01     -1.214023000000000E+02
4600000000.000000      2.148056000000000E-01     -5.433594000000000E+01      6.046143000000000E-01     -1.345937000000000E+02
4620000000.000000      2.797699000000000E-01     -5.565234000000000E+01      4.976044000000000E-01     -1.450078000000000E+02
4640000000.000000      3.335419000000000E-01     -6.543750000000000E+01      3.781281000000000E-01     -1.531953000000000E+02
4660000000.000000      3.571472000000000E-01     -7.852344000000000E+01      2.459946000000000E-01     -1.516484000000000E+02
4680000000.000000      3.491058000000000E-01     -9.230078000000000E+01      1.794052000000000E-01     -1.231484000000000E+02
4700000000.000000      3.114319000000000E-01     -1.054102000000000E+02      2.484894000000000E-01     -9.636719000000000E+01
4720000000.000000      2.552490000000000E-01     -1.158476000000000E+02      3.670502000000000E-01     -9.515625000000000E+01
4740000000.000000      1.926041000000000E-01     -1.210000000000000E+02      4.744720000000000E-01     -1.016484000000000E+02
4760000000.000000      1.413574000000000E-01     -1.167226000000000E+02      5.802002000000000E-01     -1.104219000000000E+02
4780000000.000000      1.154480000000000E-01     -1.009492000000000E+02      6.683350000000000E-01     -1.227812000000000E+02
4800000000.000000      1.214333000000000E-01     -8.383204000000000E+01      7.168579000000000E-01     -1.356641000000000E+02
4820000000.000000      1.504745000000000E-01     -7.464844000000000E+01      7.343750000000000E-01     -1.489063000000000E+02
4840000000.000000      1.914368000000000E-01     -7.452734000000000E+01      7.163086000000000E-01     -1.617344000000000E+02
4860000000.000000      2.344894000000000E-01     -8.074999000000000E+01      6.829834000000000E-01     -1.740234000000000E+02
4880000000.000000      2.713470000000000E-01     -9.085546000000000E+01      6.156311000000000E-01      1.720234000000000E+02
4900000000.000000      2.964172000000000E-01     -1.041445000000000E+02      4.949951000000000E-01      1.598281000000000E+02
4920000000.000000      3.023834000000000E-01     -1.191211000000000E+02      3.661041000000000E-01      1.537734000000000E+02
4940000000.000000      2.864685000000000E-01     -1.346406000000000E+02      2.510223000000000E-01      1.562578000000000E+02
4960000000.000000      2.562103000000000E-01     -1.496172000000000E+02      1.773071000000000E-01      1.775469000000000E+02
4980000000.000000      2.132492000000000E-01     -1.634922000000000E+02      2.152328000000000E-01     -1.510703000000000E+02
5000000000.000000      1.685715000000000E-01     -1.749687000000000E+02      3.310547000000000E-01     -1.435078000000000E+02
5020000000.000000      1.301117000000000E-01      1.755000000000000E+02      4.612274000000000E-01     -1.493672000000000E+02
5040000000.000000      9.899139000000000E-02      1.659609000000000E+02      5.711365000000000E-01     -1.604141000000000E+02
5060000000.000000      7.083130000000000E-02      1.516172000000000E+02      6.510925000000000E-01     -1.717891000000000E+02
5080000000.000000      4.002571000000000E-02      1.264961000000000E+02      7.190552000000000E-01      1.760156000000000E+02
5100000000.000000      1.388550000000000E-02      3.910547000000000E+01      7.568970000000000E-01      1.623047000000000E+02
5120000000.000000      4.179192000000000E-02     -5.433594000000000E+01      7.526855000000000E-01      1.481797000000000E+02
5140000000.000000      7.403183000000000E-02     -8.866014000000000E+01      7.022095000000000E-01      1.344063000000000E+02
5160000000.000000      9.759903000000000E-02     -1.185312000000000E+02      6.274414000000000E-01      1.220313000000000E+02
5180000000.000000      1.100426000000000E-01     -1.484766000000000E+02      5.318298000000000E-01      1.106406000000000E+02
5200000000.000000      1.116867000000000E-01      1.789531000000000E+02      4.157410000000000E-01      1.013203000000000E+02
5220000000.000000      1.086311000000000E-01      1.428984000000000E+02      2.827911000000000E-01      9.854687000000000E+01
5240000000.000000      1.063919000000000E-01      1.060976000000000E+02      1.841431000000000E-01      1.156484000000000E+02
5260000000.000000      1.109009000000000E-01      7.232422000000000E+01      1.975403000000000E-01      1.496875000000000E+02
5280000000.000000      1.182137000000000E-01      4.522656000000000E+01      2.974396000000000E-01      1.607265000000000E+02
5300000000.000000      1.254578000000000E-01      2.423633000000000E+01      4.111633000000000E-01      1.581172000000000E+02
5320000000.000000      1.317825000000000E-01      7.664307000000000E+00      5.278625000000000E-01      1.505547000000000E+02
5340000000.000000      1.380768000000000E-01     -6.630371000000000E+00      6.397095000000000E-01      1.384609000000000E+02
5360000000.000000      1.432037000000000E-01     -2.178906000000000E+01      7.062073000000000E-01      1.241094000000000E+02
5380000000.000000      1.389771000000000E-01     -3.930664000000000E+01      7.178345000000000E-01      1.107539000000000E+02
5400000000.000000      1.210136000000000E-01     -5.691992000000000E+01      7.182007000000000E-01      9.911327000000000E+01
5420000000.000000      8.642578000000000E-02     -7.372265000000000E+01      7.041016000000000E-01      8.614452000000000E+01
5440000000.000000      3.225136000000000E-02     -7.771093000000000E+01      6.481018000000000E-01      7.173437000000000E+01
5460000000.000000      4.189110000000000E-02      3.606836000000000E+01      5.380249000000000E-01      5.872265000000000E+01
5480000000.000000      1.110992000000000E-01      2.983593000000000E+01      4.116516000000000E-01      4.949804000000000E+01
5500000000.000000      1.741257000000000E-01      1.481494000000000E+01      2.917633000000000E-01      4.755273000000000E+01
5520000000.000000      2.202530000000000E-01     -5.218506000000000E-02      1.953354000000000E-01      5.926758000000000E+01
5540000000.000000      2.521057000000000E-01     -1.363135000000000E+01      1.815720000000000E-01      9.103907000000000E+01
5560000000.000000      2.703857000000000E-01     -2.551367000000000E+01      2.634125000000000E-01      1.088164000000000E+02
5580000000.000000      2.832489000000000E-01     -3.529882000000000E+01      3.850861000000000E-01      1.085234000000000E+02
5600000000.000000      2.952881000000000E-01     -4.408984000000000E+01      5.079041000000000E-01      9.978516000000000E+01
5620000000.000000      3.057251000000000E-01     -5.308594000000000E+01      5.950012000000000E-01      8.709764000000000E+01
5640000000.000000      3.098145000000000E-01     -6.281836000000000E+01      6.435852000000000E-01      7.534765000000000E+01
5660000000.000000      3.009949000000000E-01     -7.354297000000000E+01      6.835327000000000E-01      6.386132000000000E+01
5680000000.000000      2.718811000000000E-01     -8.376953000000000E+01      6.948547000000000E-01      5.118164000000000E+01
5700000000.000000      2.246628000000000E-01     -9.114452000000000E+01      6.819458000000000E-01      3.888672000000000E+01
5720000000.000000      1.748657000000000E-01     -8.992188000000000E+01      6.418762000000000E-01      2.620605000000000E+01
5740000000.000000      1.533203000000000E-01     -7.587500000000000E+01      5.644226000000000E-01      1.293604000000000E+01
5760000000.000000      1.808777000000000E-01     -6.427734000000000E+01      4.498291000000000E-01      1.338928000000000E+00
5780000000.000000      2.272415000000000E-01     -6.567577000000000E+01      3.151398000000000E-01     -3.617310000000000E+00
5800000000.000000      2.591553000000000E-01     -7.323828000000000E+01      2.077866000000000E-01      7.279785000000000E+00
5820000000.000000      2.683563000000000E-01     -8.261719000000000E+01      1.898422000000000E-01      3.801758000000000E+01
5840000000.000000      2.591095000000000E-01     -9.106249000000000E+01      2.713776000000000E-01      5.416797000000000E+01
5860000000.000000      2.409821000000000E-01     -9.671484000000000E+01      3.723145000000000E-01      5.416797000000000E+01
5880000000.000000      2.274704000000000E-01     -9.972265000000000E+01      4.782562000000000E-01      4.890625000000000E+01
5900000000.000000      2.203522000000000E-01     -1.021250000000000E+02      5.955200000000000E-01      3.857031000000000E+01
5920000000.000000      2.130356000000000E-01     -1.047812000000000E+02      6.728821000000000E-01      2.471582000000000E+01
5940000000.000000      1.987152000000000E-01     -1.069180000000000E+02      7.003784000000000E-01      1.151904000000000E+01
5960000000.000000      1.807404000000000E-01     -1.053945000000000E+02      7.139587000000000E-01     -1.143982000000000E+00
5980000000.000000      1.679535000000000E-01     -9.766796000000000E+01      6.918945000000000E-01     -1.529443000000000E+01
6000000000.000000      1.832275000000000E-01     -8.862890000000000E+01      6.274719000000000E-01     -2.896289000000000E+01
6020000000.000000      2.180557000000000E-01     -8.676952000000000E+01      5.266113000000000E-01     -4.140038000000000E+01
6040000000.000000      2.537842000000000E-01     -9.187109000000000E+01      3.985138000000000E-01     -4.961328000000000E+01
6060000000.000000      2.779083000000000E-01     -1.009453000000000E+02      2.846985000000000E-01     -4.934375000000000E+01
6080000000.000000      2.889862000000000E-01     -1.107539000000000E+02      2.057648000000000E-01     -3.529687000000000E+01
