! Network Analyzer HP8722D
! Hewlett-Packard
! Data name: Linha & Wilkinson+CNT
! Saver's name: Rodrigo Anjos
! Comments: Teste da utilização de aquisição
continua pelo VNA HP8722D
! Time and date: 29/9/2025 12:04
!              Frequency                     S11                                                   S21                                                   S12                                                   S22
# HZ  S  MA R 50
3000000000.000000      4.243774000000000E-01     -5.638672000000000E+01      2.084961000000000E-01     -1.314219000000000E+02
3020000000.000000      4.485779000000000E-01     -7.057812000000000E+01      3.512878000000000E-01     -1.349844000000000E+02
3040000000.000000      4.541016000000000E-01     -8.326172000000000E+01      4.679413000000000E-01     -1.449609000000000E+02
3060000000.000000      4.455872000000000E-01     -9.533983000000000E+01      5.718079000000000E-01     -1.553281000000000E+02
3080000000.000000      4.310150000000000E-01     -1.065586000000000E+02      6.724243000000000E-01     -1.684531000000000E+02
3100000000.000000      4.109192000000000E-01     -1.177383000000000E+02      7.241821000000000E-01      1.768516000000000E+02
3120000000.000000      3.820496000000000E-01     -1.295156000000000E+02      7.315979000000000E-01      1.634922000000000E+02
3140000000.000000      3.410645000000000E-01     -1.424141000000000E+02      7.225037000000000E-01      1.505547000000000E+02
3160000000.000000      2.812958000000000E-01     -1.562656000000000E+02      6.839600000000000E-01      1.370547000000000E+02
3180000000.000000      2.019196000000000E-01     -1.685937000000000E+02      6.126709000000000E-01      1.244570000000000E+02
3200000000.000000      1.144218000000000E-01     -1.685469000000000E+02      5.186768000000000E-01      1.117109000000000E+02
3220000000.000000      8.361816000000000E-02     -1.245820000000000E+02      3.836670000000000E-01      1.010234000000000E+02
3240000000.000000      1.541519000000000E-01     -1.056445000000000E+02      2.455673000000000E-01      9.987890000000000E+01
3260000000.000000      2.336197000000000E-01     -1.156055000000000E+02      1.470108000000000E-01      1.260000000000000E+02
3280000000.000000      2.908020000000000E-01     -1.311016000000000E+02      2.044983000000000E-01      1.656484000000000E+02
3300000000.000000      3.239136000000000E-01     -1.472734000000000E+02      3.312988000000000E-01      1.696640000000000E+02
3320000000.000000      3.354645000000000E-01     -1.629922000000000E+02      4.638367000000000E-01      1.626016000000000E+02
3340000000.000000      3.317108000000000E-01     -1.782500000000000E+02      5.762329000000000E-01      1.505000000000000E+02
3360000000.000000      3.193207000000000E-01      1.671797000000000E+02      6.476746000000000E-01      1.383984000000000E+02
3380000000.000000      3.026123000000000E-01      1.530547000000000E+02      7.100830000000000E-01      1.271367000000000E+02
3400000000.000000      2.788849000000000E-01      1.383437000000000E+02      7.582703000000000E-01      1.133047000000000E+02
3420000000.000000      2.427902000000000E-01      1.233828000000000E+02      7.492981000000000E-01      9.839453000000000E+01
3440000000.000000      1.888733000000000E-01      1.089336000000000E+02      7.038269000000000E-01      8.557812000000000E+01
3460000000.000000      1.179085000000000E-01      9.871483000000000E+01      6.471558000000000E-01      7.235546000000000E+01
3480000000.000000      4.759598000000000E-02      1.262734000000000E+02      5.484314000000000E-01      5.903320000000000E+01
3500000000.000000      9.571075000000000E-02     -1.732734000000000E+02      4.242401000000000E-01      4.761328000000000E+01
3520000000.000000      1.875153000000000E-01      1.795234000000000E+02      2.773438000000000E-01      4.073828000000000E+01
3540000000.000000      2.653961000000000E-01      1.633125000000000E+02      1.472702000000000E-01      5.885742000000000E+01
3560000000.000000      3.239441000000000E-01      1.462891000000000E+02      1.684799000000000E-01      1.080703000000000E+02
3580000000.000000      3.600159000000000E-01      1.302656000000000E+02      2.957458000000000E-01      1.175078000000000E+02
3600000000.000000      3.757629000000000E-01      1.156211000000000E+02      4.208679000000000E-01      1.106055000000000E+02
3620000000.000000      3.770294000000000E-01      1.027500000000000E+02      5.233154000000000E-01      1.012226000000000E+02
3640000000.000000      3.670654000000000E-01      9.160156000000000E+01      6.233215000000000E-01      8.990234000000000E+01
3660000000.000000      3.507690000000000E-01      8.135546000000000E+01      6.929932000000000E-01      7.576172000000000E+01
3680000000.000000      3.272552000000000E-01      7.206249000000000E+01      7.110901000000000E-01      6.263281000000000E+01
3700000000.000000      2.964325000000000E-01      6.367773000000000E+01      7.212524000000000E-01      5.098633000000000E+01
3720000000.000000      2.517853000000000E-01      5.765625000000000E+01      7.230225000000000E-01      3.674219000000000E+01
3740000000.000000      2.016678000000000E-01      5.860352000000000E+01      6.622009000000000E-01      2.138574000000000E+01
3760000000.000000      1.755066000000000E-01      7.290234000000000E+01      5.655518000000000E-01      7.082031000000000E+00
3780000000.000000      2.106018000000000E-01      8.782421000000000E+01      4.344330000000000E-01     -6.072754000000000E+00
3800000000.000000      2.814178000000000E-01      8.930079000000000E+01      2.810669000000000E-01     -1.319336000000000E+01
3820000000.000000      3.488617000000000E-01      8.266796000000000E+01      1.532669000000000E-01      2.416992000000000E-01
3840000000.000000      3.990021000000000E-01      7.389453000000000E+01      1.443405000000000E-01      4.829492000000000E+01
3860000000.000000      4.337921000000000E-01      6.521874000000000E+01      2.476425000000000E-01      6.533203000000000E+01
3880000000.000000      4.588623000000000E-01      5.767968000000000E+01      3.775177000000000E-01      6.106054000000000E+01
3900000000.000000      4.875336000000000E-01      5.055859000000000E+01      4.781647000000000E-01      4.763281000000000E+01
3920000000.000000      5.169373000000000E-01      4.274023000000000E+01      5.091858000000000E-01      3.597461000000000E+01
3940000000.000000      5.480347000000000E-01      3.375391000000000E+01      5.409851000000000E-01      2.942383000000000E+01
3960000000.000000      5.578308000000000E-01      2.364062000000000E+01      5.960388000000000E-01      1.998926000000000E+01
3980000000.000000      5.522461000000000E-01      1.324951000000000E+01      5.979614000000000E-01      8.159668000000000E+00
4000000000.000000      5.255127000000000E-01      2.761597000000000E+00      5.806885000000000E-01      1.211243000000000E+00
4020000000.000000      4.819031000000000E-01     -7.248291000000000E+00      5.978394000000000E-01     -6.653809000000000E+00
4040000000.000000      4.229126000000000E-01     -1.612695000000000E+01      5.858459000000000E-01     -1.872559000000000E+01
4060000000.000000      3.477478000000000E-01     -2.220801000000000E+01      5.264893000000000E-01     -2.889160000000000E+01
4080000000.000000      2.734222000000000E-01     -2.227246000000000E+01      4.666290000000000E-01     -3.814062000000000E+01
4100000000.000000      2.275848000000000E-01     -1.168945000000000E+01      3.652191000000000E-01     -4.735937000000000E+01
4120000000.000000      2.415085000000000E-01      1.274414000000000E+00      2.484360000000000E-01     -4.387304000000000E+01
4140000000.000000      2.894745000000000E-01      4.559326000000000E+00      2.035370000000000E-01     -1.934863000000000E+01
4160000000.000000      3.332825000000000E-01      5.245972000000000E-01      2.650909000000000E-01     -2.609253000000000E-02
4180000000.000000      3.610535000000000E-01     -6.351563000000000E+00      3.584595000000000E-01      3.856201000000000E+00
4200000000.000000      3.708649000000000E-01     -1.417822000000000E+01      4.881744000000000E-01      1.396606000000000E+00
4220000000.000000      3.664551000000000E-01     -2.138770000000000E+01      6.425781000000000E-01     -1.107861000000000E+01
4240000000.000000      3.471222000000000E-01     -2.887793000000000E+01      7.217102000000000E-01     -2.779199000000000E+01
4260000000.000000      3.087769000000000E-01     -3.457031000000000E+01      7.422791000000000E-01     -4.190625000000000E+01
4280000000.000000      2.593994000000000E-01     -3.577734000000000E+01      7.506104000000000E-01     -5.571679000000000E+01
4300000000.000000      2.230072000000000E-01     -2.768555000000000E+01      7.123108000000000E-01     -7.078125000000000E+01
4320000000.000000      2.368851000000000E-01     -1.497754000000000E+01      6.312256000000000E-01     -8.507421000000000E+01
4340000000.000000      2.947998000000000E-01     -1.108008000000000E+01      5.142212000000000E-01     -9.779686000000000E+01
4360000000.000000      3.594971000000000E-01     -1.606250000000000E+01      3.791199000000000E-01     -1.069219000000000E+02
4380000000.000000      4.054565000000000E-01     -2.508789000000000E+01      2.482605000000000E-01     -1.078516000000000E+02
4400000000.000000      4.267273000000000E-01     -3.499804000000000E+01      1.535645000000000E-01     -8.448828000000000E+01
4420000000.000000      4.250488000000000E-01     -4.428320000000000E+01      1.886902000000000E-01     -4.531054000000000E+01
4440000000.000000      4.090729000000000E-01     -5.241601000000000E+01      3.117676000000000E-01     -3.616992000000000E+01
4460000000.000000      3.891907000000000E-01     -5.902148000000000E+01      4.530792000000000E-01     -4.332617000000000E+01
4480000000.000000      3.684387000000000E-01     -6.516406000000000E+01      5.619202000000000E-01     -5.545898000000000E+01
4500000000.000000      3.469391000000000E-01     -7.179296000000000E+01      6.426697000000000E-01     -6.689453000000000E+01
4520000000.000000      3.140717000000000E-01     -7.932812000000000E+01      7.152710000000000E-01     -7.999218000000000E+01
4540000000.000000      2.631226000000000E-01     -8.528515000000000E+01      7.414551000000000E-01     -9.456640000000000E+01
4560000000.000000      2.033768000000000E-01     -8.337500000000000E+01      7.278748000000000E-01     -1.076953000000000E+02
4580000000.000000      1.776199000000000E-01     -6.783203000000000E+01      6.891479000000000E-01     -1.215195000000000E+02
4600000000.000000      2.155380000000000E-01     -5.434960000000000E+01      6.039734000000000E-01     -1.348125000000000E+02
4620000000.000000      2.796936000000000E-01     -5.586523000000000E+01      4.963531000000000E-01     -1.450781000000000E+02
4640000000.000000      3.335419000000000E-01     -6.559375000000000E+01      3.778381000000000E-01     -1.531406000000000E+02
4660000000.000000      3.568420000000000E-01     -7.870703000000000E+01      2.448349000000000E-01     -1.513438000000000E+02
4680000000.000000      3.481903000000000E-01     -9.243359000000000E+01      1.792526000000000E-01     -1.229414000000000E+02
4700000000.000000      3.110657000000000E-01     -1.054883000000000E+02      2.493591000000000E-01     -9.647264000000000E+01
4720000000.000000      2.542725000000000E-01     -1.159023000000000E+02      3.684082000000000E-01     -9.539063000000000E+01
4740000000.000000      1.922913000000000E-01     -1.208555000000000E+02      4.762115000000000E-01     -1.017891000000000E+02
4760000000.000000      1.410599000000000E-01     -1.168945000000000E+02      5.808411000000000E-01     -1.104883000000000E+02
4780000000.000000      1.154594000000000E-01     -1.006953000000000E+02      6.681824000000000E-01     -1.230742000000000E+02
4800000000.000000      1.218071000000000E-01     -8.362499000000000E+01      7.176208000000000E-01     -1.358281000000000E+02
4820000000.000000      1.517487000000000E-01     -7.450000000000000E+01      7.343750000000000E-01     -1.489531000000000E+02
4840000000.000000      1.917038000000000E-01     -7.438671000000000E+01      7.160034000000000E-01     -1.617188000000000E+02
4860000000.000000      2.347565000000000E-01     -8.082811000000000E+01      6.839905000000000E-01     -1.741797000000000E+02
4880000000.000000      2.716522000000000E-01     -9.105078000000000E+01      6.142883000000000E-01      1.719453000000000E+02
4900000000.000000      2.961884000000000E-01     -1.042266000000000E+02      4.938965000000000E-01      1.598672000000000E+02
4920000000.000000      3.020782000000000E-01     -1.192226000000000E+02      3.636322000000000E-01      1.537109000000000E+02
4940000000.000000      2.868195000000000E-01     -1.347578000000000E+02      2.506866000000000E-01      1.563203000000000E+02
4960000000.000000      2.551422000000000E-01     -1.497656000000000E+02      1.775360000000000E-01      1.778984000000000E+02
4980000000.000000      2.121429000000000E-01     -1.635859000000000E+02      2.156906000000000E-01     -1.509375000000000E+02
5000000000.000000      1.678696000000000E-01     -1.750313000000000E+02      3.318634000000000E-01     -1.435937000000000E+02
5020000000.000000      1.293716000000000E-01      1.753672000000000E+02      4.620972000000000E-01     -1.495547000000000E+02
5040000000.000000      9.911728000000000E-02      1.657578000000000E+02      5.707703000000000E-01     -1.604609000000000E+02
5060000000.000000      7.024002000000000E-02      1.515156000000000E+02      6.515198000000000E-01     -1.719844000000000E+02
5080000000.000000      3.913116000000000E-02      1.263008000000000E+02      7.182922000000000E-01      1.759375000000000E+02
5100000000.000000      1.376581000000000E-02      3.602539000000000E+01      7.564087000000000E-01      1.622422000000000E+02
5120000000.000000      4.199028000000000E-02     -5.498241000000000E+01      7.521362000000000E-01      1.479844000000000E+02
5140000000.000000      7.406998000000000E-02     -8.895311000000000E+01      7.011108000000000E-01      1.343047000000000E+02
5160000000.000000      9.777832000000000E-02     -1.187695000000000E+02      6.264648000000000E-01      1.221328000000000E+02
5180000000.000000      1.101074000000000E-01     -1.489219000000000E+02      5.308838000000000E-01      1.106602000000000E+02
5200000000.000000      1.114960000000000E-01      1.788047000000000E+02      4.155273000000000E-01      1.011953000000000E+02
5220000000.000000      1.076546000000000E-01      1.425156000000000E+02      2.820435000000000E-01      9.853125000000000E+01
5240000000.000000      1.061630000000000E-01      1.057578000000000E+02      1.839447000000000E-01      1.159180000000000E+02
5260000000.000000      1.108971000000000E-01      7.178905000000000E+01      1.979675000000000E-01      1.498359000000000E+02
5280000000.000000      1.183586000000000E-01      4.494726000000000E+01      2.983551000000000E-01      1.606250000000000E+02
5300000000.000000      1.254959000000000E-01      2.404492000000000E+01      4.115448000000000E-01      1.580781000000000E+02
5320000000.000000      1.316299000000000E-01      7.448730000000000E+00      5.281677000000000E-01      1.505781000000000E+02
5340000000.000000      1.379852000000000E-01     -6.660645000000000E+00      6.392212000000000E-01      1.384531000000000E+02
5360000000.000000      1.432724000000000E-01     -2.203613000000000E+01      7.046509000000000E-01      1.240625000000000E+02
5380000000.000000      1.391068000000000E-01     -3.936718000000000E+01      7.176208000000000E-01      1.106914000000000E+02
5400000000.000000      1.210594000000000E-01     -5.697656000000000E+01      7.179565000000000E-01      9.904297000000000E+01
5420000000.000000      8.590698000000000E-02     -7.337109000000000E+01      7.038879000000000E-01      8.590624000000000E+01
5440000000.000000      3.213310000000000E-02     -7.694921000000000E+01      6.456909000000000E-01      7.164453000000000E+01
5460000000.000000      4.310226000000000E-02      3.551172000000000E+01      5.377197000000000E-01      5.865820000000000E+01
5480000000.000000      1.117401000000000E-01      2.966406000000000E+01      4.111633000000000E-01      4.938867000000000E+01
5500000000.000000      1.745529000000000E-01      1.454980000000000E+01      2.911224000000000E-01      4.756640000000000E+01
5520000000.000000      2.204895000000000E-01     -4.916382000000000E-01      1.947403000000000E-01      5.972656000000000E+01
5540000000.000000      2.524567000000000E-01     -1.395703000000000E+01      1.821976000000000E-01      9.132813000000000E+01
5560000000.000000      2.714081000000000E-01     -2.577441000000000E+01      2.643433000000000E-01      1.087461000000000E+02
5580000000.000000      2.838593000000000E-01     -3.539844000000000E+01      3.864288000000000E-01      1.085508000000000E+02
5600000000.000000      2.949982000000000E-01     -4.416601000000000E+01      5.077820000000000E-01      9.955858000000000E+01
5620000000.000000      3.059998000000000E-01     -5.315039000000000E+01      5.969543000000000E-01      8.699999000000000E+01
5640000000.000000      3.097229000000000E-01     -6.293750000000000E+01      6.461182000000000E-01      7.516015000000000E+01
5660000000.000000      3.007660000000000E-01     -7.361718000000000E+01      6.851196000000000E-01      6.395508000000000E+01
5680000000.000000      2.720032000000000E-01     -8.396093000000000E+01      6.969910000000000E-01      5.120312000000000E+01
5700000000.000000      2.251434000000000E-01     -9.110155000000000E+01      6.809387000000000E-01      3.871679000000000E+01
5720000000.000000      1.745911000000000E-01     -8.984375000000000E+01      6.419373000000000E-01      2.617969000000000E+01
5740000000.000000      1.533051000000000E-01     -7.569140000000000E+01      5.625916000000000E-01      1.279053000000000E+01
5760000000.000000      1.818466000000000E-01     -6.423437000000000E+01      4.496613000000000E-01      1.279907000000000E+00
5780000000.000000      2.280350000000000E-01     -6.564843000000000E+01      3.140411000000000E-01     -3.576050000000000E+00
5800000000.000000      2.590790000000000E-01     -7.338281000000000E+01      2.078323000000000E-01      7.797363000000000E+00
5820000000.000000      2.684479000000000E-01     -8.266016000000000E+01      1.901779000000000E-01      3.807812000000000E+01
5840000000.000000      2.582245000000000E-01     -9.100780000000000E+01      2.722321000000000E-01      5.421875000000000E+01
5860000000.000000      2.417603000000000E-01     -9.664063000000000E+01      3.728485000000000E-01      5.411718000000000E+01
5880000000.000000      2.278671000000000E-01     -9.973045000000000E+01      4.792480000000000E-01      4.865429000000000E+01
5900000000.000000      2.207336000000000E-01     -1.020273000000000E+02      5.951538000000000E-01      3.846680000000000E+01
5920000000.000000      2.131805000000000E-01     -1.048633000000000E+02      6.712952000000000E-01      2.460644000000000E+01
5940000000.000000      1.990814000000000E-01     -1.068906000000000E+02      7.003479000000000E-01      1.138428000000000E+01
5960000000.000000      1.802063000000000E-01     -1.052344000000000E+02      7.120361000000000E-01     -1.360962000000000E+00
5980000000.000000      1.681442000000000E-01     -9.782030000000000E+01      6.889648000000000E-01     -1.538086000000000E+01
6000000000.000000      1.838379000000000E-01     -8.851954000000000E+01      6.263733000000000E-01     -2.897461000000000E+01
6020000000.000000      2.184219000000000E-01     -8.674999000000000E+01      5.264282000000000E-01     -4.164648000000000E+01
6040000000.000000      2.545471000000000E-01     -9.202734000000000E+01      3.970947000000000E-01     -4.948632000000000E+01
6060000000.000000      2.786102000000000E-01     -1.010508000000000E+02      2.836914000000000E-01     -4.927343000000000E+01
6080000000.000000      2.887115000000000E-01     -1.110117000000000E+02      2.050095000000000E-01     -3.518945000000000E+01
