! Network Analyzer HP8722D
! Hewlett-Packard
! Data name: Linha & Wilkinson+CNT
! Saver's name: Rodrigo Anjos
! Comments: Teste da utilização de aquisição
continua pelo VNA HP8722D
! Time and date: 29/9/2025 16:02
!              Frequency                     S11                                                   S21                                                   S12                                                   S22
# HZ  S  MA R 50
3000000000.000000      4.258423000000000E-01     -5.574023000000000E+01      2.093658000000000E-01     -1.314922000000000E+02
3020000000.000000      4.468079000000000E-01     -6.988671000000000E+01      3.517151000000000E-01     -1.350781000000000E+02
3040000000.000000      4.545288000000000E-01     -8.278124000000000E+01      4.697876000000000E-01     -1.449922000000000E+02
3060000000.000000      4.446106000000000E-01     -9.499218000000000E+01      5.739136000000000E-01     -1.554062000000000E+02
3080000000.000000      4.290924000000000E-01     -1.062226000000000E+02      6.735229000000000E-01     -1.685078000000000E+02
3100000000.000000      4.091187000000000E-01     -1.174531000000000E+02      7.248840000000000E-01      1.766953000000000E+02
3120000000.000000      3.791351000000000E-01     -1.294141000000000E+02      7.320557000000000E-01      1.633125000000000E+02
3140000000.000000      3.385162000000000E-01     -1.424531000000000E+02      7.236938000000000E-01      1.503047000000000E+02
3160000000.000000      2.772675000000000E-01     -1.564766000000000E+02      6.827698000000000E-01      1.369219000000000E+02
3180000000.000000      1.977615000000000E-01     -1.689922000000000E+02      6.123352000000000E-01      1.243398000000000E+02
3200000000.000000      1.105728000000000E-01     -1.694922000000000E+02      5.179749000000000E-01      1.114453000000000E+02
3220000000.000000      7.946396000000000E-02     -1.236445000000000E+02      3.854675000000000E-01      1.008164000000000E+02
3240000000.000000      1.517410000000000E-01     -1.048633000000000E+02      2.455902000000000E-01      9.978516000000000E+01
3260000000.000000      2.307892000000000E-01     -1.152344000000000E+02      1.468506000000000E-01      1.260781000000000E+02
3280000000.000000      2.881317000000000E-01     -1.309844000000000E+02      2.050400000000000E-01      1.655000000000000E+02
3300000000.000000      3.205719000000000E-01     -1.472500000000000E+02      3.319550000000000E-01      1.695703000000000E+02
3320000000.000000      3.320770000000000E-01     -1.631484000000000E+02      4.645538000000000E-01      1.624922000000000E+02
3340000000.000000      3.282471000000000E-01     -1.785703000000000E+02      5.763245000000000E-01      1.502969000000000E+02
3360000000.000000      3.164063000000000E-01      1.666875000000000E+02      6.469421000000000E-01      1.383516000000000E+02
3380000000.000000      3.001099000000000E-01      1.523750000000000E+02      7.097168000000000E-01      1.269765000000000E+02
3400000000.000000      2.776794000000000E-01      1.376484000000000E+02      7.569580000000000E-01      1.131562000000000E+02
3420000000.000000      2.422485000000000E-01      1.227812000000000E+02      7.486572000000000E-01      9.832811000000000E+01
3440000000.000000      1.894836000000000E-01      1.079922000000000E+02      7.037964000000000E-01      8.541407000000000E+01
3460000000.000000      1.191025000000000E-01      9.758984000000000E+01      6.468201000000000E-01      7.237890000000000E+01
3480000000.000000      4.771233000000000E-02      1.223359000000000E+02      5.471802000000000E-01      5.887109000000000E+01
3500000000.000000      9.354401000000000E-02     -1.743281000000000E+02      4.236450000000000E-01      4.756055000000000E+01
3520000000.000000      1.849670000000000E-01      1.788594000000000E+02      2.766571000000000E-01      4.059375000000000E+01
3540000000.000000      2.638855000000000E-01      1.626641000000000E+02      1.467285000000000E-01      5.896874000000000E+01
3560000000.000000      3.231506000000000E-01      1.456484000000000E+02      1.681976000000000E-01      1.081797000000000E+02
3580000000.000000      3.605347000000000E-01      1.297578000000000E+02      2.957458000000000E-01      1.174609000000000E+02
3600000000.000000      3.764038000000000E-01      1.151055000000000E+02      4.209137000000000E-01      1.106055000000000E+02
3620000000.000000      3.781281000000000E-01      1.024805000000000E+02      5.228577000000000E-01      1.010938000000000E+02
3640000000.000000      3.688507000000000E-01      9.127733000000000E+01      6.224670000000000E-01      8.990625000000000E+01
3660000000.000000      3.521729000000000E-01      8.116796000000000E+01      6.929016000000000E-01      7.567968000000000E+01
3680000000.000000      3.295135000000000E-01      7.182031000000000E+01      7.112732000000000E-01      6.260937000000000E+01
3700000000.000000      2.987823000000000E-01      6.362499000000000E+01      7.212830000000000E-01      5.091991000000000E+01
3720000000.000000      2.545776000000000E-01      5.761913000000000E+01      7.241516000000000E-01      3.665820000000000E+01
3740000000.000000      2.045059000000000E-01      5.863867000000000E+01      6.634521000000000E-01      2.123633000000000E+01
3760000000.000000      1.783905000000000E-01      7.277344000000000E+01      5.643921000000000E-01      7.011963000000000E+00
3780000000.000000      2.125473000000000E-01      8.767969000000000E+01      4.334869000000000E-01     -6.385986000000000E+00
3800000000.000000      2.830048000000000E-01      8.909765000000000E+01      2.800140000000000E-01     -1.339648000000000E+01
3820000000.000000      3.505402000000000E-01      8.252344000000000E+01      1.526413000000000E-01      2.293396000000000E-01
3840000000.000000      4.008789000000000E-01      7.385156000000000E+01      1.442642000000000E-01      4.821484000000000E+01
3860000000.000000      4.357147000000000E-01      6.531640000000000E+01      2.476273000000000E-01      6.533593000000000E+01
3880000000.000000      4.607849000000000E-01      5.776953000000000E+01      3.774567000000000E-01      6.100976000000000E+01
3900000000.000000      4.911346000000000E-01      5.080273000000000E+01      4.803314000000000E-01      4.761523000000000E+01
3920000000.000000      5.198975000000000E-01      4.305078000000000E+01      5.095215000000000E-01      3.589258000000000E+01
3940000000.000000      5.491638000000000E-01      3.405859000000000E+01      5.402527000000000E-01      2.932617000000000E+01
3960000000.000000      5.600281000000000E-01      2.397265000000000E+01      5.950928000000000E-01      1.999609000000000E+01
3980000000.000000      5.541382000000000E-01      1.351172000000000E+01      5.966797000000000E-01      7.999268000000000E+00
4000000000.000000      5.279236000000000E-01      3.095337000000000E+00      5.807190000000000E-01      1.212585000000000E+00
4020000000.000000      4.836426000000000E-01     -6.802002000000000E+00      5.993652000000000E-01     -6.648193000000000E+00
4040000000.000000      4.243927000000000E-01     -1.569580000000000E+01      5.853577000000000E-01     -1.886133000000000E+01
4060000000.000000      3.482819000000000E-01     -2.167383000000000E+01      5.268555000000000E-01     -2.887988000000000E+01
4080000000.000000      2.742920000000000E-01     -2.171777000000000E+01      4.678192000000000E-01     -3.828711000000000E+01
4100000000.000000      2.282867000000000E-01     -1.087939000000000E+01      3.657379000000000E-01     -4.750000000000000E+01
4120000000.000000      2.425385000000000E-01      1.972046000000000E+00      2.488098000000000E-01     -4.383398000000000E+01
4140000000.000000      2.910156000000000E-01      5.127686000000000E+00      2.032318000000000E-01     -1.937304000000000E+01
4160000000.000000      3.346100000000000E-01      9.297180000000000E-01      2.649994000000000E-01      4.669189000000000E-02
4180000000.000000      3.619537000000000E-01     -5.910645000000000E+00      3.592682000000000E-01      3.783325000000000E+00
4200000000.000000      3.717194000000000E-01     -1.372217000000000E+01      4.891510000000000E-01      1.219482000000000E+00
4220000000.000000      3.676147000000000E-01     -2.086524000000000E+01      6.430359000000000E-01     -1.123389000000000E+01
4240000000.000000      3.482361000000000E-01     -2.829394000000000E+01      7.224731000000000E-01     -2.794726000000000E+01
4260000000.000000      3.094940000000000E-01     -3.409570000000000E+01      7.438965000000000E-01     -4.200000000000000E+01
4280000000.000000      2.591553000000000E-01     -3.525195000000000E+01      7.509460000000000E-01     -5.585938000000000E+01
4300000000.000000      2.220459000000000E-01     -2.697851000000000E+01      7.114258000000000E-01     -7.098046000000000E+01
4320000000.000000      2.358704000000000E-01     -1.433350000000000E+01      6.315308000000000E-01     -8.517187000000000E+01
4340000000.000000      2.942963000000000E-01     -1.049756000000000E+01      5.140686000000000E-01     -9.796875000000000E+01
4360000000.000000      3.595123000000000E-01     -1.561719000000000E+01      3.784790000000000E-01     -1.069844000000000E+02
4380000000.000000      4.056091000000000E-01     -2.468652000000000E+01      2.482529000000000E-01     -1.079140000000000E+02
4400000000.000000      4.264221000000000E-01     -3.457812000000000E+01      1.530838000000000E-01     -8.435156000000000E+01
4420000000.000000      4.245300000000000E-01     -4.396289000000000E+01      1.894455000000000E-01     -4.534765000000000E+01
4440000000.000000      4.084778000000000E-01     -5.199219000000000E+01      3.124847000000000E-01     -3.629492000000000E+01
4460000000.000000      3.865051000000000E-01     -5.856835000000000E+01      4.539032000000000E-01     -4.356445000000000E+01
4480000000.000000      3.684692000000000E-01     -6.494922000000000E+01      5.621643000000000E-01     -5.562890000000000E+01
4500000000.000000      3.462219000000000E-01     -7.165234000000000E+01      6.435547000000000E-01     -6.705078000000000E+01
4520000000.000000      3.130035000000000E-01     -7.942968000000000E+01      7.158508000000000E-01     -7.982422000000000E+01
4540000000.000000      2.613983000000000E-01     -8.555468000000000E+01      7.418518000000000E-01     -9.457422000000000E+01
4560000000.000000      2.003326000000000E-01     -8.372656000000000E+01      7.275085000000000E-01     -1.078867000000000E+02
4580000000.000000      1.741638000000000E-01     -6.759375000000000E+01      6.906433000000000E-01     -1.215625000000000E+02
4600000000.000000      2.126083000000000E-01     -5.374804000000000E+01      6.048584000000000E-01     -1.347812000000000E+02
4620000000.000000      2.774048000000000E-01     -5.517773000000000E+01      4.966583000000000E-01     -1.452891000000000E+02
4640000000.000000      3.308105000000000E-01     -6.520702000000000E+01      3.773041000000000E-01     -1.533906000000000E+02
4660000000.000000      3.545074000000000E-01     -7.848437000000000E+01      2.444534000000000E-01     -1.515781000000000E+02
4680000000.000000      3.456573000000000E-01     -9.248438000000000E+01      1.794052000000000E-01     -1.228906000000000E+02
4700000000.000000      3.084259000000000E-01     -1.056133000000000E+02      2.499771000000000E-01     -9.645702000000000E+01
4720000000.000000      2.520752000000000E-01     -1.162305000000000E+02      3.688812000000000E-01     -9.537109000000000E+01
4740000000.000000      1.900787000000000E-01     -1.213672000000000E+02      4.761505000000000E-01     -1.018359000000000E+02
4760000000.000000      1.384506000000000E-01     -1.174648000000000E+02      5.816345000000000E-01     -1.105820000000000E+02
4780000000.000000      1.121712000000000E-01     -1.012422000000000E+02      6.693115000000000E-01     -1.230547000000000E+02
4800000000.000000      1.179543000000000E-01     -8.359766000000000E+01      7.178345000000000E-01     -1.358359000000000E+02
4820000000.000000      1.463013000000000E-01     -7.388281000000000E+01      7.360229000000000E-01     -1.491016000000000E+02
4840000000.000000      1.876907000000000E-01     -7.378906000000000E+01      7.160950000000000E-01     -1.619453000000000E+02
4860000000.000000      2.314758000000000E-01     -8.040625000000000E+01      6.826172000000000E-01     -1.744688000000000E+02
4880000000.000000      2.681580000000000E-01     -9.082031000000000E+01      6.136475000000000E-01      1.717891000000000E+02
4900000000.000000      2.939758000000000E-01     -1.044023000000000E+02      4.940338000000000E-01      1.596094000000000E+02
4920000000.000000      2.999268000000000E-01     -1.194258000000000E+02      3.621979000000000E-01      1.536328000000000E+02
4940000000.000000      2.854767000000000E-01     -1.351328000000000E+02      2.500458000000000E-01      1.563203000000000E+02
4960000000.000000      2.536926000000000E-01     -1.503750000000000E+02      1.771545000000000E-01      1.780703000000000E+02
4980000000.000000      2.120132000000000E-01     -1.645078000000000E+02      2.163162000000000E-01     -1.508672000000000E+02
5000000000.000000      1.676636000000000E-01     -1.760781000000000E+02      3.321228000000000E-01     -1.435313000000000E+02
5020000000.000000      1.300659000000000E-01      1.737656000000000E+02      4.629822000000000E-01     -1.498594000000000E+02
5040000000.000000      9.949112000000000E-02      1.635859000000000E+02      5.712280000000000E-01     -1.606016000000000E+02
5060000000.000000      7.155991000000000E-02      1.484922000000000E+02      6.506653000000000E-01     -1.720937000000000E+02
5080000000.000000      4.072571000000000E-02      1.226719000000000E+02      7.194519000000000E-01      1.757344000000000E+02
5100000000.000000      1.644707000000000E-02      3.868555000000000E+01      7.564392000000000E-01      1.620000000000000E+02
5120000000.000000      4.152107000000000E-02     -5.164257000000000E+01      7.541199000000000E-01      1.477344000000000E+02
5140000000.000000      7.320786000000000E-02     -8.815233000000000E+01      7.015381000000000E-01      1.340234000000000E+02
5160000000.000000      9.653854000000000E-02     -1.194492000000000E+02      6.262817000000000E-01      1.217812000000000E+02
5180000000.000000      1.097908000000000E-01     -1.499531000000000E+02      5.308228000000000E-01      1.105859000000000E+02
5200000000.000000      1.122704000000000E-01      1.773359000000000E+02      4.126740000000000E-01      1.012461000000000E+02
5220000000.000000      1.095657000000000E-01      1.414687000000000E+02      2.809296000000000E-01      9.847656000000000E+01
5240000000.000000      1.089706000000000E-01      1.053828000000000E+02      1.833267000000000E-01      1.159648000000000E+02
5260000000.000000      1.133881000000000E-01      7.203515000000000E+01      1.983185000000000E-01      1.498125000000000E+02
5280000000.000000      1.205597000000000E-01      4.550390000000000E+01      2.987518000000000E-01      1.606641000000000E+02
5300000000.000000      1.270142000000000E-01      2.480566000000000E+01      4.117737000000000E-01      1.579531000000000E+02
5320000000.000000      1.332397000000000E-01      8.438477000000000E+00      5.293274000000000E-01      1.504922000000000E+02
5340000000.000000      1.390457000000000E-01     -5.929932000000000E+00      6.412048000000000E-01      1.383359000000000E+02
5360000000.000000      1.435013000000000E-01     -2.153906000000000E+01      7.072144000000000E-01      1.237812000000000E+02
5380000000.000000      1.386490000000000E-01     -3.915430000000000E+01      7.165527000000000E-01      1.105078000000000E+02
5400000000.000000      1.193047000000000E-01     -5.752343000000000E+01      7.192993000000000E-01      9.882421000000000E+01
5420000000.000000      8.392715000000000E-02     -7.423437000000000E+01      7.037354000000000E-01      8.586329000000000E+01
5440000000.000000      2.963161000000000E-02     -7.792578000000000E+01      6.463318000000000E-01      7.152734000000000E+01
5460000000.000000      4.431725000000000E-02      3.908594000000000E+01      5.379028000000000E-01      5.836523000000000E+01
5480000000.000000      1.137962000000000E-01      3.073925000000000E+01      4.102478000000000E-01      4.924023000000000E+01
5500000000.000000      1.763153000000000E-01      1.546289000000000E+01      2.902527000000000E-01      4.737695000000000E+01
5520000000.000000      2.212524000000000E-01      4.270935000000000E-01      1.943207000000000E-01      5.968554000000000E+01
5540000000.000000      2.525177000000000E-01     -1.322754000000000E+01      1.825333000000000E-01      9.139452000000000E+01
5560000000.000000      2.697754000000000E-01     -2.517187000000000E+01      2.646942000000000E-01      1.088281000000000E+02
5580000000.000000      2.821198000000000E-01     -3.515625000000000E+01      3.862457000000000E-01      1.084687000000000E+02
5600000000.000000      2.939758000000000E-01     -4.398438000000000E+01      5.091858000000000E-01      9.951952000000000E+01
5620000000.000000      3.045654000000000E-01     -5.317968000000000E+01      5.959167000000000E-01      8.687891000000000E+01
5640000000.000000      3.079529000000000E-01     -6.288476000000000E+01      6.487732000000000E-01      7.488281000000000E+01
5660000000.000000      2.975159000000000E-01     -7.359375000000000E+01      6.866760000000000E-01      6.366992000000000E+01
5680000000.000000      2.677307000000000E-01     -8.380859000000000E+01      6.972351000000000E-01      5.089648000000000E+01
5700000000.000000      2.204132000000000E-01     -9.110937000000000E+01      6.832886000000000E-01      3.851758000000000E+01
5720000000.000000      1.700058000000000E-01     -8.945313000000000E+01      6.413879000000000E-01      2.583789000000000E+01
5740000000.000000      1.498947000000000E-01     -7.486328000000000E+01      5.637207000000000E-01      1.254053000000000E+01
5760000000.000000      1.791458000000000E-01     -6.350390000000000E+01      4.490967000000000E-01      1.251038000000000E+00
5780000000.000000      2.254868000000000E-01     -6.531250000000000E+01      3.136749000000000E-01     -3.868652000000000E+00
5800000000.000000      2.577820000000000E-01     -7.325390000000000E+01      2.070770000000000E-01      7.484375000000000E+00
5820000000.000000      2.671814000000000E-01     -8.266016000000000E+01      1.899033000000000E-01      3.817187000000000E+01
5840000000.000000      2.569122000000000E-01     -9.101563000000000E+01      2.741394000000000E-01      5.420898000000000E+01
5860000000.000000      2.389297000000000E-01     -9.657421000000000E+01      3.743591000000000E-01      5.389453000000000E+01
5880000000.000000      2.240677000000000E-01     -9.984764000000000E+01      4.808807000000000E-01      4.856054000000000E+01
5900000000.000000      2.156754000000000E-01     -1.022227000000000E+02      5.967712000000000E-01      3.816406000000000E+01
5920000000.000000      2.083282000000000E-01     -1.050664000000000E+02      6.720581000000000E-01      2.435059000000000E+01
5940000000.000000      1.941605000000000E-01     -1.068906000000000E+02      7.033997000000000E-01      1.103711000000000E+01
5960000000.000000      1.769333000000000E-01     -1.050742000000000E+02      7.141113000000000E-01     -1.709778000000000E+00
5980000000.000000      1.655273000000000E-01     -9.720703000000000E+01      6.911926000000000E-01     -1.575049000000000E+01
6000000000.000000      1.814346000000000E-01     -8.811327000000000E+01      6.267700000000000E-01     -2.905273000000000E+01
6020000000.000000      2.166061000000000E-01     -8.625000000000000E+01      5.276489000000000E-01     -4.182813000000000E+01
6040000000.000000      2.520294000000000E-01     -9.180468000000000E+01      3.980408000000000E-01     -4.997656000000000E+01
6060000000.000000      2.753601000000000E-01     -1.009180000000000E+02      2.838287000000000E-01     -4.956640000000000E+01
6080000000.000000      2.848358000000000E-01     -1.110938000000000E+02      2.051849000000000E-01     -3.522656000000000E+01
