! Network Analyzer HP8722D
! Hewlett-Packard
! Data name: Linha & Wilkinson+CNT
! Saver's name: Rodrigo Anjos
! Comments: Teste da utilização de aquisição
continua pelo VNA HP8722D
! Time and date: 29/9/2025 16:22
!              Frequency                     S11                                                   S21                                                   S12                                                   S22
# HZ  S  MA R 50
3000000000.000000      4.262848000000000E-01     -5.565430000000000E+01      2.064743000000000E-01     -1.315312000000000E+02
3020000000.000000      4.483795000000000E-01     -6.984765000000000E+01      3.492432000000000E-01     -1.348984000000000E+02
3040000000.000000      4.519043000000000E-01     -8.273438000000000E+01      4.678192000000000E-01     -1.446953000000000E+02
3060000000.000000      4.452515000000000E-01     -9.479687000000000E+01      5.719604000000000E-01     -1.550859000000000E+02
3080000000.000000      4.292297000000000E-01     -1.061094000000000E+02      6.729431000000000E-01     -1.682656000000000E+02
3100000000.000000      4.087219000000000E-01     -1.172383000000000E+02      7.244568000000000E-01      1.770469000000000E+02
3120000000.000000      3.803558000000000E-01     -1.292109000000000E+02      7.326050000000000E-01      1.634609000000000E+02
3140000000.000000      3.389435000000000E-01     -1.421484000000000E+02      7.246399000000000E-01      1.506953000000000E+02
3160000000.000000      2.791748000000000E-01     -1.561016000000000E+02      6.858826000000000E-01      1.371406000000000E+02
3180000000.000000      1.995697000000000E-01     -1.691015000000000E+02      6.153564000000000E-01      1.244297000000000E+02
3200000000.000000      1.120491000000000E-01     -1.699609000000000E+02      5.199585000000000E-01      1.116289000000000E+02
3220000000.000000      7.906723000000000E-02     -1.245117000000000E+02      3.870239000000000E-01      1.009883000000000E+02
3240000000.000000      1.501846000000000E-01     -1.047422000000000E+02      2.477188000000000E-01      9.943748000000000E+01
3260000000.000000      2.296524000000000E-01     -1.149453000000000E+02      1.471786000000000E-01      1.248633000000000E+02
3280000000.000000      2.869110000000000E-01     -1.306094000000000E+02      2.022095000000000E-01      1.652500000000000E+02
3300000000.000000      3.202362000000000E-01     -1.469844000000000E+02      3.290405000000000E-01      1.696563000000000E+02
3320000000.000000      3.318939000000000E-01     -1.629453000000000E+02      4.623260000000000E-01      1.627031000000000E+02
3340000000.000000      3.285370000000000E-01     -1.783125000000000E+02      5.749512000000000E-01      1.505781000000000E+02
3360000000.000000      3.169708000000000E-01      1.669219000000000E+02      6.465454000000000E-01      1.385156000000000E+02
3380000000.000000      3.012085000000000E-01      1.525312000000000E+02      7.092285000000000E-01      1.270586000000000E+02
3400000000.000000      2.783813000000000E-01      1.378515000000000E+02      7.578735000000000E-01      1.134805000000000E+02
3420000000.000000      2.438583000000000E-01      1.229062000000000E+02      7.500916000000000E-01      9.867577000000000E+01
3440000000.000000      1.912155000000000E-01      1.082148000000000E+02      7.057495000000000E-01      8.555859000000000E+01
3460000000.000000      1.205406000000000E-01      9.735155000000000E+01      6.478882000000000E-01      7.253124000000000E+01
3480000000.000000      4.854584000000000E-02      1.199570000000000E+02      5.510559000000000E-01      5.916992000000000E+01
3500000000.000000      9.130096000000000E-02     -1.741797000000000E+02      4.260254000000000E-01      4.774610000000000E+01
3520000000.000000      1.830750000000000E-01      1.793047000000000E+02      2.803192000000000E-01      4.046875000000000E+01
3540000000.000000      2.626953000000000E-01      1.630078000000000E+02      1.480408000000000E-01      5.789844000000000E+01
3560000000.000000      3.226013000000000E-01      1.460312000000000E+02      1.661758000000000E-01      1.075078000000000E+02
3580000000.000000      3.597260000000000E-01      1.300078000000000E+02      2.934570000000000E-01      1.175781000000000E+02
3600000000.000000      3.765259000000000E-01      1.153828000000000E+02      4.184265000000000E-01      1.106602000000000E+02
3620000000.000000      3.781433000000000E-01      1.027305000000000E+02      5.202026000000000E-01      1.012109000000000E+02
3640000000.000000      3.687897000000000E-01      9.153515000000000E+01      6.221008000000000E-01      9.014063000000000E+01
3660000000.000000      3.526917000000000E-01      8.121485000000000E+01      6.925659000000000E-01      7.600390000000000E+01
3680000000.000000      3.302307000000000E-01      7.200000000000000E+01      7.109070000000000E-01      6.274414000000000E+01
3700000000.000000      2.993622000000000E-01      6.377148000000000E+01      7.209778000000000E-01      5.123047000000000E+01
3720000000.000000      2.554932000000000E-01      5.771289000000000E+01      7.241821000000000E-01      3.688086000000000E+01
3740000000.000000      2.055740000000000E-01      5.834961000000000E+01      6.662292000000000E-01      2.158398000000000E+01
3760000000.000000      1.779556000000000E-01      7.234765000000000E+01      5.674438000000000E-01      7.231689000000000E+00
3780000000.000000      2.114105000000000E-01      8.743359000000000E+01      4.379425000000000E-01     -6.157959000000000E+00
3800000000.000000      2.819061000000000E-01      8.914063000000000E+01      2.831726000000000E-01     -1.347900000000000E+01
3820000000.000000      3.494415000000000E-01      8.276562000000000E+01      1.544342000000000E-01     -7.154846000000000E-01
3840000000.000000      4.001465000000000E-01      7.406250000000000E+01      1.422501000000000E-01      4.760742000000000E+01
3860000000.000000      4.346771000000000E-01      6.544531000000000E+01      2.452393000000000E-01      6.539844000000000E+01
3880000000.000000      4.608307000000000E-01      5.791016000000000E+01      3.756256000000000E-01      6.121484000000000E+01
3900000000.000000      4.895630000000000E-01      5.093945000000000E+01      4.764404000000000E-01      4.798242000000000E+01
3920000000.000000      5.209656000000000E-01      4.324023000000000E+01      5.078430000000000E-01      3.624218000000000E+01
3940000000.000000      5.493469000000000E-01      3.426172000000000E+01      5.400085000000000E-01      2.959765000000000E+01
3960000000.000000      5.595398000000000E-01      2.421484000000000E+01      5.950928000000000E-01      2.017480000000000E+01
3980000000.000000      5.545654000000000E-01      1.365967000000000E+01      5.982971000000000E-01      8.354980000000000E+00
4000000000.000000      5.297852000000000E-01      3.345337000000000E+00      5.799561000000000E-01      1.404846000000000E+00
4020000000.000000      4.855804000000000E-01     -6.741699000000000E+00      5.981140000000000E-01     -6.391357000000000E+00
4040000000.000000      4.262390000000000E-01     -1.559814000000000E+01      5.861206000000000E-01     -1.864062000000000E+01
4060000000.000000      3.506470000000000E-01     -2.165430000000000E+01      5.297546000000000E-01     -2.878906000000000E+01
4080000000.000000      2.746582000000000E-01     -2.184863000000000E+01      4.691010000000000E-01     -3.813867000000000E+01
4100000000.000000      2.284470000000000E-01     -1.135303000000000E+01      3.675079000000000E-01     -4.748828000000000E+01
4120000000.000000      2.411041000000000E-01      1.983032000000000E+00      2.504730000000000E-01     -4.428515000000000E+01
4140000000.000000      2.893677000000000E-01      5.263672000000000E+00      2.028046000000000E-01     -2.028711000000000E+01
4160000000.000000      3.334503000000000E-01      1.156311000000000E+00      2.624359000000000E-01     -2.568054000000000E-01
4180000000.000000      3.616180000000000E-01     -5.784424000000000E+00      3.560181000000000E-01      3.944092000000000E+00
4200000000.000000      3.718872000000000E-01     -1.349854000000000E+01      4.866638000000000E-01      1.469421000000000E+00
4220000000.000000      3.675842000000000E-01     -2.065430000000000E+01      6.410522000000000E-01     -1.076270000000000E+01
4240000000.000000      3.490753000000000E-01     -2.823925000000000E+01      7.207642000000000E-01     -2.750293000000000E+01
4260000000.000000      3.106995000000000E-01     -3.412500000000000E+01      7.424927000000000E-01     -4.164453000000000E+01
4280000000.000000      2.602539000000000E-01     -3.536523000000000E+01      7.528076000000000E-01     -5.551171000000000E+01
4300000000.000000      2.222748000000000E-01     -2.733007000000000E+01      7.150574000000000E-01     -7.056250000000000E+01
4320000000.000000      2.348480000000000E-01     -1.463525000000000E+01      6.341248000000000E-01     -8.503906000000000E+01
4340000000.000000      2.926788000000000E-01     -1.049756000000000E+01      5.184326000000000E-01     -9.772655000000000E+01
4360000000.000000      3.582153000000000E-01     -1.545264000000000E+01      3.831177000000000E-01     -1.067969000000000E+02
4380000000.000000      4.052582000000000E-01     -2.440918000000000E+01      2.512970000000000E-01     -1.082031000000000E+02
4400000000.000000      4.265747000000000E-01     -3.438867000000000E+01      1.540375000000000E-01     -8.569530000000000E+01
4420000000.000000      4.252777000000000E-01     -4.366601000000000E+01      1.864090000000000E-01     -4.583398000000000E+01
4440000000.000000      4.081268000000000E-01     -5.180469000000000E+01      3.090057000000000E-01     -3.613672000000000E+01
4460000000.000000      3.882599000000000E-01     -5.867969000000000E+01      4.508820000000000E-01     -4.327148000000000E+01
4480000000.000000      3.682556000000000E-01     -6.462891000000000E+01      5.593262000000000E-01     -5.519921000000000E+01
4500000000.000000      3.469391000000000E-01     -7.153906000000000E+01      6.406555000000000E-01     -6.662890000000000E+01
4520000000.000000      3.137970000000000E-01     -7.926562000000000E+01      7.143555000000000E-01     -7.964062000000000E+01
4540000000.000000      2.629395000000000E-01     -8.555468000000000E+01      7.423401000000000E-01     -9.428905000000000E+01
4560000000.000000      2.018280000000000E-01     -8.405859000000000E+01      7.287598000000000E-01     -1.074375000000000E+02
4580000000.000000      1.738892000000000E-01     -6.811328000000000E+01      6.928406000000000E-01     -1.213164000000000E+02
4600000000.000000      2.109451000000000E-01     -5.377343000000000E+01      6.084900000000000E-01     -1.346250000000000E+02
4620000000.000000      2.764130000000000E-01     -5.499023000000000E+01      5.009460000000000E-01     -1.450469000000000E+02
4640000000.000000      3.299866000000000E-01     -6.483593000000000E+01      3.807983000000000E-01     -1.534609000000000E+02
4660000000.000000      3.547363000000000E-01     -7.813281000000000E+01      2.477341000000000E-01     -1.520078000000000E+02
4680000000.000000      3.461761000000000E-01     -9.220312000000000E+01      1.789398000000000E-01     -1.239844000000000E+02
4700000000.000000      3.097229000000000E-01     -1.054570000000000E+02      2.467957000000000E-01     -9.668749000000000E+01
4720000000.000000      2.539978000000000E-01     -1.161016000000000E+02      3.658447000000000E-01     -9.528515000000000E+01
4740000000.000000      1.917191000000000E-01     -1.214805000000000E+02      4.729156000000000E-01     -1.016250000000000E+02
4760000000.000000      1.390305000000000E-01     -1.176563000000000E+02      5.798950000000000E-01     -1.102539000000000E+02
4780000000.000000      1.117249000000000E-01     -1.019375000000000E+02      6.666870000000000E-01     -1.226445000000000E+02
4800000000.000000      1.166763000000000E-01     -8.375000000000000E+01      7.170715000000000E-01     -1.356016000000000E+02
4820000000.000000      1.450882000000000E-01     -7.409374000000000E+01      7.368469000000000E-01     -1.488906000000000E+02
4840000000.000000      1.864243000000000E-01     -7.345312000000000E+01      7.178955000000000E-01     -1.616328000000000E+02
4860000000.000000      2.304306000000000E-01     -8.003515000000000E+01      6.853638000000000E-01     -1.742031000000000E+02
4880000000.000000      2.675781000000000E-01     -9.039454000000000E+01      6.189575000000000E-01      1.719844000000000E+02
4900000000.000000      2.937927000000000E-01     -1.039609000000000E+02      4.983368000000000E-01      1.598359000000000E+02
4920000000.000000      2.998657000000000E-01     -1.190469000000000E+02      3.664246000000000E-01      1.536094000000000E+02
4940000000.000000      2.854614000000000E-01     -1.347109000000000E+02      2.532349000000000E-01      1.558437000000000E+02
4960000000.000000      2.553711000000000E-01     -1.500937000000000E+02      1.775284000000000E-01      1.768516000000000E+02
4980000000.000000      2.128906000000000E-01     -1.641562000000000E+02      2.129745000000000E-01     -1.513828000000000E+02
5000000000.000000      1.692505000000000E-01     -1.759687000000000E+02      3.287354000000000E-01     -1.436328000000000E+02
5020000000.000000      1.309586000000000E-01      1.739844000000000E+02      4.600220000000000E-01     -1.495859000000000E+02
5040000000.000000      1.007538000000000E-01      1.634922000000000E+02      5.683899000000000E-01     -1.602500000000000E+02
5060000000.000000      7.236862000000000E-02      1.487578000000000E+02      6.498413000000000E-01     -1.716875000000000E+02
5080000000.000000      4.209518000000000E-02      1.233125000000000E+02      7.182312000000000E-01      1.761484000000000E+02
5100000000.000000      1.703548000000000E-02      4.434960000000000E+01      7.568054000000000E-01      1.624219000000000E+02
5120000000.000000      4.100227000000000E-02     -5.048633000000000E+01      7.555542000000000E-01      1.482891000000000E+02
5140000000.000000      7.238770000000000E-02     -8.704687000000000E+01      7.049866000000000E-01      1.343750000000000E+02
5160000000.000000      9.627151000000000E-02     -1.183945000000000E+02      6.301575000000000E-01      1.222578000000000E+02
5180000000.000000      1.101074000000000E-01     -1.490391000000000E+02      5.362854000000000E-01      1.109453000000000E+02
5200000000.000000      1.130753000000000E-01      1.783281000000000E+02      4.187012000000000E-01      1.010859000000000E+02
5220000000.000000      1.098480000000000E-01      1.423594000000000E+02      2.848053000000000E-01      9.817968000000000E+01
5240000000.000000      1.091537000000000E-01      1.063867000000000E+02      1.842422000000000E-01      1.147734000000000E+02
5260000000.000000      1.132736000000000E-01      7.288280000000000E+01      1.950378000000000E-01      1.490313000000000E+02
5280000000.000000      1.209412000000000E-01      4.616015000000000E+01      2.947388000000000E-01      1.606953000000000E+02
5300000000.000000      1.274033000000000E-01      2.537207000000000E+01      4.083557000000000E-01      1.582500000000000E+02
5320000000.000000      1.335678000000000E-01      8.613281000000000E+00      5.270996000000000E-01      1.507422000000000E+02
5340000000.000000      1.391144000000000E-01     -5.548096000000000E+00      6.398926000000000E-01      1.387109000000000E+02
5360000000.000000      1.430969000000000E-01     -2.104492000000000E+01      7.060852000000000E-01      1.243242000000000E+02
5380000000.000000      1.388779000000000E-01     -3.895117000000000E+01      7.173157000000000E-01      1.108984000000000E+02
5400000000.000000      1.203880000000000E-01     -5.696289000000000E+01      7.202454000000000E-01      9.910545000000000E+01
5420000000.000000      8.542633000000000E-02     -7.401562000000000E+01      7.073364000000000E-01      8.621094000000000E+01
5440000000.000000      3.107929000000000E-02     -7.901562000000000E+01      6.501465000000000E-01      7.177734000000000E+01
5460000000.000000      4.221725000000000E-02      3.866601000000000E+01      5.409851000000000E-01      5.872070000000000E+01
5480000000.000000      1.118584000000000E-01      3.124707000000000E+01      4.141541000000000E-01      4.942968000000000E+01
5500000000.000000      1.745758000000000E-01      1.592871000000000E+01      2.938385000000000E-01      4.720899000000000E+01
5520000000.000000      2.204514000000000E-01      9.008789000000000E-01      1.960831000000000E-01      5.857616000000000E+01
5540000000.000000      2.514648000000000E-01     -1.282129000000000E+01      1.801224000000000E-01      9.050781000000000E+01
5560000000.000000      2.702179000000000E-01     -2.497559000000000E+01      2.612305000000000E-01      1.087187000000000E+02
5580000000.000000      2.829742000000000E-01     -3.471875000000000E+01      3.826447000000000E-01      1.087383000000000E+02
5600000000.000000      2.944489000000000E-01     -4.372460000000000E+01      5.054321000000000E-01      9.978905000000000E+01
5620000000.000000      3.045502000000000E-01     -5.289257000000000E+01      5.947266000000000E-01      8.723436000000000E+01
5640000000.000000      3.080139000000000E-01     -6.263866000000000E+01      6.461487000000000E-01      7.546875000000000E+01
5660000000.000000      2.982025000000000E-01     -7.319921000000000E+01      6.855774000000000E-01      6.398046000000000E+01
5680000000.000000      2.695618000000000E-01     -8.374218000000000E+01      6.994934000000000E-01      5.114452000000000E+01
5700000000.000000      2.215424000000000E-01     -9.110546000000000E+01      6.846619000000000E-01      3.893359000000000E+01
5720000000.000000      1.705780000000000E-01     -8.987890000000000E+01      6.455688000000000E-01      2.626758000000000E+01
5740000000.000000      1.493454000000000E-01     -7.557812000000000E+01      5.679626000000000E-01      1.299121000000000E+01
5760000000.000000      1.777954000000000E-01     -6.379492000000000E+01      4.528503000000000E-01      1.229065000000000E+00
5780000000.000000      2.243805000000000E-01     -6.507030000000000E+01      3.186951000000000E-01     -3.997681000000000E+00
5800000000.000000      2.566223000000000E-01     -7.292187000000000E+01      2.095947000000000E-01      6.675537000000000E+00
5820000000.000000      2.668915000000000E-01     -8.241796000000000E+01      1.882401000000000E-01      3.706640000000000E+01
5840000000.000000      2.574005000000000E-01     -9.093359000000000E+01      2.695007000000000E-01      5.397851000000000E+01
5860000000.000000      2.393341000000000E-01     -9.638672000000000E+01      3.703308000000000E-01      5.414844000000000E+01
5880000000.000000      2.245789000000000E-01     -9.970703000000000E+01      4.768829000000000E-01      4.883398000000000E+01
5900000000.000000      2.167435000000000E-01     -1.021367000000000E+02      5.940857000000000E-01      3.861328000000000E+01
5920000000.000000      2.083054000000000E-01     -1.050859000000000E+02      6.729126000000000E-01      2.475488000000000E+01
5940000000.000000      1.947784000000000E-01     -1.069141000000000E+02      7.023010000000000E-01      1.141602000000000E+01
5960000000.000000      1.769791000000000E-01     -1.054297000000000E+02      7.145386000000000E-01     -1.117859000000000E+00
5980000000.000000      1.654282000000000E-01     -9.749609000000000E+01      6.932373000000000E-01     -1.533008000000000E+01
6000000000.000000      1.812515000000000E-01     -8.826952000000000E+01      6.299133000000000E-01     -2.887109000000000E+01
6020000000.000000      2.155457000000000E-01     -8.630077000000000E+01      5.310669000000000E-01     -4.161718000000000E+01
6040000000.000000      2.507477000000000E-01     -9.141796000000000E+01      4.024506000000000E-01     -4.992382000000000E+01
6060000000.000000      2.749939000000000E-01     -1.004609000000000E+02      2.872162000000000E-01     -4.976563000000000E+01
6080000000.000000      2.854309000000000E-01     -1.107969000000000E+02      2.062149000000000E-01     -3.628711000000000E+01
