! Network Analyzer HP8722D
! Hewlett-Packard
! Data name: Linha & Wilkinson+CNT
! Saver's name: Rodrigo Anjos
! Comments: Teste da utilização de aquisição
continua pelo VNA HP8722D
! Time and date: 29/9/2025 17:00
!              Frequency                     S11                                                   S21                                                   S12                                                   S22
# HZ  S  MA R 50
3000000000.000000      4.256287000000000E-01     -5.555078000000000E+01      2.068100000000000E-01     -1.315859000000000E+02
3020000000.000000      4.479523000000000E-01     -6.984765000000000E+01      3.496399000000000E-01     -1.349688000000000E+02
3040000000.000000      4.525146000000000E-01     -8.279688000000000E+01      4.684296000000000E-01     -1.446640000000000E+02
3060000000.000000      4.443207000000000E-01     -9.482031000000000E+01      5.725403000000000E-01     -1.552109000000000E+02
3080000000.000000      4.292145000000000E-01     -1.060586000000000E+02      6.733398000000000E-01     -1.682344000000000E+02
3100000000.000000      4.098053000000000E-01     -1.172578000000000E+02      7.255554000000000E-01      1.769140000000000E+02
3120000000.000000      3.793793000000000E-01     -1.291563000000000E+02      7.325439000000000E-01      1.633984000000000E+02
3140000000.000000      3.388977000000000E-01     -1.422344000000000E+02      7.252502000000000E-01      1.505469000000000E+02
3160000000.000000      2.782745000000000E-01     -1.562031000000000E+02      6.849365000000000E-01      1.370078000000000E+02
3180000000.000000      1.993027000000000E-01     -1.689609000000000E+02      6.145630000000000E-01      1.244141000000000E+02
3200000000.000000      1.115608000000000E-01     -1.694844000000000E+02      5.206604000000000E-01      1.115820000000000E+02
3220000000.000000      7.970810000000000E-02     -1.239219000000000E+02      3.864288000000000E-01      1.010234000000000E+02
3240000000.000000      1.508484000000000E-01     -1.047852000000000E+02      2.476883000000000E-01      9.947266000000000E+01
3260000000.000000      2.301788000000000E-01     -1.150820000000000E+02      1.471558000000000E-01      1.250977000000000E+02
3280000000.000000      2.879333000000000E-01     -1.307656000000000E+02      2.029114000000000E-01      1.651484000000000E+02
3300000000.000000      3.209839000000000E-01     -1.470469000000000E+02      3.293152000000000E-01      1.696250000000000E+02
3320000000.000000      3.324127000000000E-01     -1.629609000000000E+02      4.626465000000000E-01      1.626172000000000E+02
3340000000.000000      3.287659000000000E-01     -1.783828000000000E+02      5.736389000000000E-01      1.505547000000000E+02
3360000000.000000      3.173218000000000E-01      1.668125000000000E+02      6.466675000000000E-01      1.384531000000000E+02
3380000000.000000      3.005219000000000E-01      1.526719000000000E+02      7.087097000000000E-01      1.271719000000000E+02
3400000000.000000      2.789001000000000E-01      1.379531000000000E+02      7.567139000000000E-01      1.133945000000000E+02
3420000000.000000      2.441864000000000E-01      1.229570000000000E+02      7.489014000000000E-01      9.844921000000000E+01
3440000000.000000      1.910782000000000E-01      1.083516000000000E+02      7.058716000000000E-01      8.555079000000000E+01
3460000000.000000      1.209793000000000E-01      9.753515000000000E+01      6.476440000000000E-01      7.251953000000000E+01
3480000000.000000      4.842186000000000E-02      1.208633000000000E+02      5.501099000000000E-01      5.901757000000000E+01
3500000000.000000      9.206772000000000E-02     -1.745156000000000E+02      4.259186000000000E-01      4.757226000000000E+01
3520000000.000000      1.834717000000000E-01      1.789609000000000E+02      2.804260000000000E-01      4.045703000000000E+01
3540000000.000000      2.629852000000000E-01      1.628203000000000E+02      1.481476000000000E-01      5.806835000000000E+01
3560000000.000000      3.229980000000000E-01      1.458828000000000E+02      1.660919000000000E-01      1.075352000000000E+02
3580000000.000000      3.603210000000000E-01      1.298984000000000E+02      2.934265000000000E-01      1.174805000000000E+02
3600000000.000000      3.765411000000000E-01      1.153320000000000E+02      4.183502000000000E-01      1.106680000000000E+02
3620000000.000000      3.784943000000000E-01      1.026953000000000E+02      5.204468000000000E-01      1.012773000000000E+02
3640000000.000000      3.692322000000000E-01      9.142187000000000E+01      6.221924000000000E-01      9.001562000000000E+01
3660000000.000000      3.526154000000000E-01      8.121094000000000E+01      6.928101000000000E-01      7.596093000000000E+01
3680000000.000000      3.300934000000000E-01      7.200390000000000E+01      7.109375000000000E-01      6.271874000000000E+01
3700000000.000000      2.996979000000000E-01      6.375977000000000E+01      7.210388000000000E-01      5.116015000000000E+01
3720000000.000000      2.555695000000000E-01      5.773632000000000E+01      7.232666000000000E-01      3.691015000000000E+01
3740000000.000000      2.053680000000000E-01      5.843163000000000E+01      6.648560000000000E-01      2.143261000000000E+01
3760000000.000000      1.781921000000000E-01      7.237499000000000E+01      5.675659000000000E-01      7.183594000000000E+00
3780000000.000000      2.118225000000000E-01      8.750391000000000E+01      4.350433000000000E-01     -6.053467000000000E+00
3800000000.000000      2.825470000000000E-01      8.914454000000000E+01      2.826385000000000E-01     -1.344727000000000E+01
3820000000.000000      3.498688000000000E-01      8.274218000000000E+01      1.538086000000000E-01     -5.767822000000000E-01
3840000000.000000      4.003448000000000E-01      7.396093000000000E+01      1.425629000000000E-01      4.770117000000000E+01
3860000000.000000      4.354858000000000E-01      6.539063000000000E+01      2.451859000000000E-01      6.541406000000000E+01
3880000000.000000      4.610138000000000E-01      5.792578000000000E+01      3.758240000000000E-01      6.115234000000000E+01
3900000000.000000      4.896698000000000E-01      5.083593000000000E+01      4.770660000000000E-01      4.772851000000000E+01
3920000000.000000      5.211792000000000E-01      4.311719000000000E+01      5.077515000000000E-01      3.605273000000000E+01
3940000000.000000      5.486755000000000E-01      3.437500000000000E+01      5.398254000000000E-01      2.958887000000000E+01
3960000000.000000      5.597534000000000E-01      2.421093000000000E+01      5.955200000000000E-01      2.019824000000000E+01
3980000000.000000      5.535583000000000E-01      1.373145000000000E+01      5.985718000000000E-01      8.201172000000000E+00
4000000000.000000      5.271912000000000E-01      3.191528000000000E+00      5.805359000000000E-01      1.403503000000000E+00
4020000000.000000      4.846954000000000E-01     -6.709961000000000E+00      5.977783000000000E-01     -6.542480000000000E+00
4040000000.000000      4.257202000000000E-01     -1.565430000000000E+01      5.841064000000000E-01     -1.879297000000000E+01
4060000000.000000      3.504639000000000E-01     -2.163965000000000E+01      5.290833000000000E-01     -2.882813000000000E+01
4080000000.000000      2.747192000000000E-01     -2.160351000000000E+01      4.709778000000000E-01     -3.823828000000000E+01
4100000000.000000      2.285614000000000E-01     -1.120898000000000E+01      3.677216000000000E-01     -4.746094000000000E+01
4120000000.000000      2.417297000000000E-01      1.955566000000000E+00      2.503204000000000E-01     -4.421288000000000E+01
4140000000.000000      2.897034000000000E-01      5.336426000000000E+00      2.029266000000000E-01     -2.008887000000000E+01
4160000000.000000      3.339691000000000E-01      1.163147000000000E+00      2.629852000000000E-01     -1.029968000000000E-01
4180000000.000000      3.615265000000000E-01     -5.740479000000000E+00      3.569489000000000E-01      3.772339000000000E+00
4200000000.000000      3.719635000000000E-01     -1.351465000000000E+01      4.863892000000000E-01      1.527100000000000E+00
4220000000.000000      3.682251000000000E-01     -2.069043000000000E+01      6.415710000000000E-01     -1.092627000000000E+01
4240000000.000000      3.486023000000000E-01     -2.817090000000000E+01      7.214966000000000E-01     -2.763379000000000E+01
4260000000.000000      3.105621000000000E-01     -3.396679000000000E+01      7.434082000000000E-01     -4.162890000000000E+01
4280000000.000000      2.601166000000000E-01     -3.526172000000000E+01      7.507629000000000E-01     -5.560741000000000E+01
4300000000.000000      2.224808000000000E-01     -2.719141000000000E+01      7.149658000000000E-01     -7.059765000000000E+01
4320000000.000000      2.353210000000000E-01     -1.438135000000000E+01      6.335754000000000E-01     -8.504686000000000E+01
4340000000.000000      2.930450000000000E-01     -1.040576000000000E+01      5.174255000000000E-01     -9.784374000000000E+01
4360000000.000000      3.586426000000000E-01     -1.552783000000000E+01      3.824921000000000E-01     -1.067539000000000E+02
4380000000.000000      4.052277000000000E-01     -2.444629000000000E+01      2.506714000000000E-01     -1.081836000000000E+02
4400000000.000000      4.266815000000000E-01     -3.443359000000000E+01      1.538239000000000E-01     -8.539843000000000E+01
4420000000.000000      4.250488000000000E-01     -4.371094000000000E+01      1.873779000000000E-01     -4.566796000000000E+01
4440000000.000000      4.084930000000000E-01     -5.176758000000000E+01      3.097687000000000E-01     -3.602734000000000E+01
4460000000.000000      3.871460000000000E-01     -5.845898000000000E+01      4.518890000000000E-01     -4.353516000000000E+01
4480000000.000000      3.682098000000000E-01     -6.451562000000000E+01      5.601501000000000E-01     -5.529297000000000E+01
4500000000.000000      3.464661000000000E-01     -7.159374000000000E+01      6.420593000000000E-01     -6.676562000000000E+01
4520000000.000000      3.136749000000000E-01     -7.934375000000000E+01      7.160339000000000E-01     -7.973437000000000E+01
4540000000.000000      2.619934000000000E-01     -8.569139000000000E+01      7.416687000000000E-01     -9.441406000000000E+01
4560000000.000000      2.006760000000000E-01     -8.405077000000000E+01      7.293396000000000E-01     -1.074101000000000E+02
4580000000.000000      1.731720000000000E-01     -6.776953000000000E+01      6.922302000000000E-01     -1.213515000000000E+02
4600000000.000000      2.108765000000000E-01     -5.362305000000000E+01      6.081238000000000E-01     -1.345859000000000E+02
4620000000.000000      2.754364000000000E-01     -5.483593000000000E+01      4.996796000000000E-01     -1.451797000000000E+02
4640000000.000000      3.297119000000000E-01     -6.478125000000000E+01      3.807220000000000E-01     -1.535469000000000E+02
4660000000.000000      3.537292000000000E-01     -7.804688000000000E+01      2.473679000000000E-01     -1.518125000000000E+02
4680000000.000000      3.450623000000000E-01     -9.208593000000000E+01      1.796799000000000E-01     -1.237969000000000E+02
4700000000.000000      3.083954000000000E-01     -1.053281000000000E+02      2.481308000000000E-01     -9.677343000000000E+01
4720000000.000000      2.524872000000000E-01     -1.159492000000000E+02      3.667450000000000E-01     -9.542187000000000E+01
4740000000.000000      1.903000000000000E-01     -1.210156000000000E+02      4.744415000000000E-01     -1.018086000000000E+02
4760000000.000000      1.383133000000000E-01     -1.170117000000000E+02      5.789795000000000E-01     -1.105469000000000E+02
4780000000.000000      1.123009000000000E-01     -1.009219000000000E+02      6.674194000000000E-01     -1.230039000000000E+02
4800000000.000000      1.182899000000000E-01     -8.302734000000000E+01      7.174683000000000E-01     -1.356484000000000E+02
4820000000.000000      1.477051000000000E-01     -7.369531000000000E+01      7.373657000000000E-01     -1.490078000000000E+02
4840000000.000000      1.882782000000000E-01     -7.345312000000000E+01      7.184143000000000E-01     -1.618438000000000E+02
4860000000.000000      2.318344000000000E-01     -8.017969000000000E+01      6.852417000000000E-01     -1.741953000000000E+02
4880000000.000000      2.693024000000000E-01     -9.058594000000000E+01      6.179810000000000E-01      1.719141000000000E+02
4900000000.000000      2.950745000000000E-01     -1.041094000000000E+02      4.964600000000000E-01      1.596484000000000E+02
4920000000.000000      3.015900000000000E-01     -1.190781000000000E+02      3.669281000000000E-01      1.534688000000000E+02
4940000000.000000      2.867889000000000E-01     -1.348828000000000E+02      2.527466000000000E-01      1.558203000000000E+02
4960000000.000000      2.555237000000000E-01     -1.499219000000000E+02      1.770401000000000E-01      1.768750000000000E+02
4980000000.000000      2.132797000000000E-01     -1.641172000000000E+02      2.133942000000000E-01     -1.514844000000000E+02
5000000000.000000      1.689224000000000E-01     -1.757891000000000E+02      3.289185000000000E-01     -1.436328000000000E+02
5020000000.000000      1.312332000000000E-01      1.743515000000000E+02      4.598541000000000E-01     -1.496641000000000E+02
5040000000.000000      1.009293000000000E-01      1.638750000000000E+02      5.688171000000000E-01     -1.603516000000000E+02
5060000000.000000      7.295609000000000E-02      1.490859000000000E+02      6.495361000000000E-01     -1.719141000000000E+02
5080000000.000000      4.205894000000000E-02      1.235664000000000E+02      7.178650000000000E-01      1.759844000000000E+02
5100000000.000000      1.682949000000000E-02      4.457617000000000E+01      7.557068000000000E-01      1.622422000000000E+02
5120000000.000000      4.100037000000000E-02     -5.030468000000000E+01      7.531433000000000E-01      1.480469000000000E+02
5140000000.000000      7.252884000000000E-02     -8.784374000000000E+01      7.037048000000000E-01      1.346484000000000E+02
5160000000.000000      9.592056000000000E-02     -1.187383000000000E+02      6.281738000000000E-01      1.219609000000000E+02
5180000000.000000      1.098633000000000E-01     -1.492266000000000E+02      5.336609000000000E-01      1.106484000000000E+02
5200000000.000000      1.128998000000000E-01      1.781953000000000E+02      4.171906000000000E-01      1.009609000000000E+02
5220000000.000000      1.102219000000000E-01      1.423203000000000E+02      2.838898000000000E-01      9.808594000000000E+01
5240000000.000000      1.093826000000000E-01      1.061719000000000E+02      1.835403000000000E-01      1.150391000000000E+02
5260000000.000000      1.134796000000000E-01      7.272655000000000E+01      1.955948000000000E-01      1.493828000000000E+02
5280000000.000000      1.206055000000000E-01      4.612305000000000E+01      2.957611000000000E-01      1.606797000000000E+02
5300000000.000000      1.272888000000000E-01      2.508496000000000E+01      4.094849000000000E-01      1.581719000000000E+02
5320000000.000000      1.332169000000000E-01      8.629395000000000E+00      5.266113000000000E-01      1.506719000000000E+02
5340000000.000000      1.394196000000000E-01     -5.718506000000000E+00      6.393127000000000E-01      1.385625000000000E+02
5360000000.000000      1.434708000000000E-01     -2.112597000000000E+01      7.046204000000000E-01      1.241836000000000E+02
5380000000.000000      1.384125000000000E-01     -3.903906000000000E+01      7.186890000000000E-01      1.108867000000000E+02
5400000000.000000      1.201630000000000E-01     -5.725586000000000E+01      7.194214000000000E-01      9.907812000000000E+01
5420000000.000000      8.501816000000000E-02     -7.435547000000000E+01      7.048950000000000E-01      8.604687000000000E+01
5440000000.000000      3.093624000000000E-02     -7.989843000000000E+01      6.492615000000000E-01      7.182031000000000E+01
5460000000.000000      4.231071000000000E-02      3.940430000000000E+01      5.409546000000000E-01      5.861718000000000E+01
5480000000.000000      1.120262000000000E-01      3.119141000000000E+01      4.144287000000000E-01      4.932031000000000E+01
5500000000.000000      1.748962000000000E-01      1.594922000000000E+01      2.934265000000000E-01      4.720899000000000E+01
5520000000.000000      2.203598000000000E-01      9.132385000000000E-01      1.956482000000000E-01      5.882030000000000E+01
5540000000.000000      2.517700000000000E-01     -1.293262000000000E+01      1.807404000000000E-01      9.076172000000000E+01
5560000000.000000      2.697449000000000E-01     -2.495996000000000E+01      2.618866000000000E-01      1.087969000000000E+02
5580000000.000000      2.822266000000000E-01     -3.497070000000000E+01      3.837738000000000E-01      1.085820000000000E+02
5600000000.000000      2.936707000000000E-01     -4.378125000000000E+01      5.060730000000000E-01      9.957420000000000E+01
5620000000.000000      3.047485000000000E-01     -5.296875000000000E+01      5.957031000000000E-01      8.701563000000000E+01
5640000000.000000      3.081512000000000E-01     -6.269726000000000E+01      6.460571000000000E-01      7.530468000000000E+01
5660000000.000000      2.982178000000000E-01     -7.339062000000000E+01      6.859741000000000E-01      6.396679000000000E+01
5680000000.000000      2.681885000000000E-01     -8.378515000000000E+01      6.987000000000000E-01      5.115429000000000E+01
5700000000.000000      2.210236000000000E-01     -9.120703000000000E+01      6.839905000000000E-01      3.869922000000000E+01
5720000000.000000      1.698380000000000E-01     -8.989452000000000E+01      6.443481000000000E-01      2.607129000000000E+01
5740000000.000000      1.491165000000000E-01     -7.551952000000000E+01      5.668640000000000E-01      1.284814000000000E+01
5760000000.000000      1.778259000000000E-01     -6.362499000000000E+01      4.515076000000000E-01      1.185120000000000E+00
5780000000.000000      2.243500000000000E-01     -6.513281000000000E+01      3.175354000000000E-01     -4.017090000000000E+00
5800000000.000000      2.569275000000000E-01     -7.298828000000000E+01      2.089691000000000E-01      6.874512000000000E+00
5820000000.000000      2.663574000000000E-01     -8.245312000000000E+01      1.886902000000000E-01      3.734570000000000E+01
5840000000.000000      2.570038000000000E-01     -9.091406000000000E+01      2.705688000000000E-01      5.396484000000000E+01
5860000000.000000      2.388840000000000E-01     -9.637499000000000E+01      3.713837000000000E-01      5.406054000000000E+01
5880000000.000000      2.241135000000000E-01     -9.977734000000000E+01      4.781952000000000E-01      4.880664000000000E+01
5900000000.000000      2.163925000000000E-01     -1.022969000000000E+02      5.946960000000000E-01      3.873437000000000E+01
5920000000.000000      2.080307000000000E-01     -1.049844000000000E+02      6.721802000000000E-01      2.460938000000000E+01
5940000000.000000      1.942139000000000E-01     -1.069727000000000E+02      7.036743000000000E-01      1.135400000000000E+01
5960000000.000000      1.771698000000000E-01     -1.052187000000000E+02      7.132874000000000E-01     -1.333496000000000E+00
5980000000.000000      1.652298000000000E-01     -9.733984000000000E+01      6.925354000000000E-01     -1.531641000000000E+01
6000000000.000000      1.811600000000000E-01     -8.816406000000000E+01      6.284180000000000E-01     -2.904590000000000E+01
6020000000.000000      2.162323000000000E-01     -8.623438000000000E+01      5.314636000000000E-01     -4.144140000000000E+01
6040000000.000000      2.512360000000000E-01     -9.160156000000000E+01      4.010468000000000E-01     -4.968750000000000E+01
6060000000.000000      2.750092000000000E-01     -1.006133000000000E+02      2.869110000000000E-01     -4.984961000000000E+01
6080000000.000000      2.851715000000000E-01     -1.108281000000000E+02      2.056122000000000E-01     -3.605469000000000E+01
