! Network Analyzer HP8722D
! Hewlett-Packard
! Data name: Linha & Wilkinson
! Saver's name: Rodrigo Anjos
! Comments: Teste da utilização de aquisição
continua pelo VNA HP8722D
! Time and date: 17/4/2025 11:48
!              Frequency                     S11                                                   S21                                                   S12                                                   S22
# HZ  S  MA R 50
4800000000.000000      3.778687000000000E-01      8.151171000000000E+01      1.891708000000000E-01      4.295507000000000E+01      1.887207000000000E-01      3.565063000000000E+00      3.672028000000000E-01      1.536572000000000E+01
4801000000.000000      3.836517000000000E-01      8.126562000000000E+01      1.886749000000000E-01      4.457617000000000E+01      1.875992000000000E-01      5.001465000000000E+00      3.674469000000000E-01      1.585156000000000E+01
4802000000.000000      3.880463000000000E-01      8.097265000000000E+01      1.889114000000000E-01      4.609961000000000E+01      1.878967000000000E-01      6.450195000000000E+00      3.683624000000000E-01      1.677832000000000E+01
4803000000.000000      3.920135000000000E-01      8.067186000000000E+01      1.898804000000000E-01      4.743164000000000E+01      1.882477000000000E-01      8.007324000000000E+00      3.658295000000000E-01      1.714746000000000E+01
4804000000.000000      3.974457000000000E-01      8.058985000000000E+01      1.899643000000000E-01      4.878320000000000E+01      1.886673000000000E-01      9.518066000000000E+00      3.641663000000000E-01      1.793652000000000E+01
4805000000.000000      4.022980000000000E-01      8.024609000000000E+01      1.905518000000000E-01      5.018164000000000E+01      1.893082000000000E-01      1.101611000000000E+01      3.638306000000000E-01      1.858008000000000E+01
4806000000.000000      4.057922000000000E-01      8.007421000000000E+01      1.914825000000000E-01      5.160937000000000E+01      1.901474000000000E-01      1.255713000000000E+01      3.626099000000000E-01      1.899805000000000E+01
4807000000.000000      4.100647000000000E-01      7.987109000000000E+01      1.928558000000000E-01      5.283984000000000E+01      1.915131000000000E-01      1.381104000000000E+01      3.611298000000000E-01      1.996680000000000E+01
4808000000.000000      4.127808000000000E-01      7.971093000000000E+01      1.946869000000000E-01      5.439648000000000E+01      1.927185000000000E-01      1.529980000000000E+01      3.592987000000000E-01      2.035156000000000E+01
4809000000.000000      4.171600000000000E-01      7.964062000000000E+01      1.960831000000000E-01      5.559765000000000E+01      1.948318000000000E-01      1.663672000000000E+01      3.594055000000000E-01      2.105175000000000E+01
4810000000.000000      4.198761000000000E-01      7.948047000000000E+01      1.981659000000000E-01      5.690234000000000E+01      1.964874000000000E-01      1.808203000000000E+01      3.581238000000000E-01      2.139648000000000E+01
4811000000.000000      4.229736000000000E-01      7.934765000000000E+01      2.002563000000000E-01      5.822851000000000E+01      1.990280000000000E-01      1.948926000000000E+01      3.568878000000000E-01      2.212988000000000E+01
4812000000.000000      4.267426000000000E-01      7.919531000000000E+01      2.018661000000000E-01      5.942187000000000E+01      2.012482000000000E-01      2.057031000000000E+01      3.559570000000000E-01      2.250781000000000E+01
4813000000.000000      4.286804000000000E-01      7.929688000000000E+01      2.045746000000000E-01      6.061132000000000E+01      2.030792000000000E-01      2.201074000000000E+01      3.564148000000000E-01      2.315625000000000E+01
4814000000.000000      4.301605000000000E-01      7.903125000000000E+01      2.069473000000000E-01      6.183788000000000E+01      2.060394000000000E-01      2.306250000000000E+01      3.528290000000000E-01      2.357715000000000E+01
4815000000.000000      4.325714000000000E-01      7.901172000000000E+01      2.101669000000000E-01      6.269336000000000E+01      2.081604000000000E-01      2.430273000000000E+01      3.542786000000000E-01      2.389062000000000E+01
4816000000.000000      4.355316000000000E-01      7.890625000000000E+01      2.136078000000000E-01      6.397655000000000E+01      2.120972000000000E-01      2.556055000000000E+01      3.533020000000000E-01      2.416113000000000E+01
4817000000.000000      4.358978000000000E-01      7.887500000000000E+01      2.160568000000000E-01      6.480859000000000E+01      2.149277000000000E-01      2.654980000000000E+01      3.506927000000000E-01      2.484961000000000E+01
4818000000.000000      4.376678000000000E-01      7.873828000000000E+01      2.193604000000000E-01      6.573047000000000E+01      2.187653000000000E-01      2.763867000000000E+01      3.498688000000000E-01      2.523535000000000E+01
4819000000.000000      4.389191000000000E-01      7.876171000000000E+01      2.228546000000000E-01      6.656640000000000E+01      2.219009000000000E-01      2.855175000000000E+01      3.482513000000000E-01      2.535156000000000E+01
4820000000.000000      4.386444000000000E-01      7.864452000000000E+01      2.262878000000000E-01      6.752734000000000E+01      2.256851000000000E-01      2.950195000000000E+01      3.469696000000000E-01      2.558789000000000E+01
4821000000.000000      4.401703000000000E-01      7.852734000000000E+01      2.306824000000000E-01      6.821094000000000E+01      2.291031000000000E-01      3.038671000000000E+01      3.470154000000000E-01      2.625097000000000E+01
4822000000.000000      4.400635000000000E-01      7.841015000000000E+01      2.342072000000000E-01      6.917187000000000E+01      2.331314000000000E-01      3.119629000000000E+01      3.458557000000000E-01      2.631054000000000E+01
4823000000.000000      4.405212000000000E-01      7.844531000000000E+01      2.383881000000000E-01      6.972656000000000E+01      2.363892000000000E-01      3.218750000000000E+01      3.439331000000000E-01      2.639648000000000E+01
4824000000.000000      4.399109000000000E-01      7.848046000000000E+01      2.427750000000000E-01      7.022265000000000E+01      2.413330000000000E-01      3.276367000000000E+01      3.423309000000000E-01      2.657812000000000E+01
4825000000.000000      4.390106000000000E-01      7.825000000000000E+01      2.463837000000000E-01      7.103516000000000E+01      2.456207000000000E-01      3.358984000000000E+01      3.427124000000000E-01      2.686621000000000E+01
4826000000.000000      4.386749000000000E-01      7.828515000000000E+01      2.517548000000000E-01      7.148438000000000E+01      2.493591000000000E-01      3.418750000000000E+01      3.414154000000000E-01      2.716992000000000E+01
4827000000.000000      4.375916000000000E-01      7.825781000000000E+01      2.556000000000000E-01      7.214453000000000E+01      2.544250000000000E-01      3.495117000000000E+01      3.399811000000000E-01      2.706836000000000E+01
4828000000.000000      4.373779000000000E-01      7.822656000000000E+01      2.608490000000000E-01      7.274609000000000E+01      2.589417000000000E-01      3.547852000000000E+01      3.371277000000000E-01      2.739941000000000E+01
4829000000.000000      4.350891000000000E-01      7.837891000000000E+01      2.649384000000000E-01      7.310156000000000E+01      2.634125000000000E-01      3.611328000000000E+01      3.381195000000000E-01      2.753125000000000E+01
4830000000.000000      4.329224000000000E-01      7.819921000000000E+01      2.695770000000000E-01      7.350780000000000E+01      2.682495000000000E-01      3.657422000000000E+01      3.336945000000000E-01      2.738965000000000E+01
4831000000.000000      4.310303000000000E-01      7.815234000000000E+01      2.743530000000000E-01      7.390625000000000E+01      2.734680000000000E-01      3.725586000000000E+01      3.315430000000000E-01      2.761230000000000E+01
4832000000.000000      4.282990000000000E-01      7.821875000000000E+01      2.792053000000000E-01      7.420703000000000E+01      2.775574000000000E-01      3.769336000000000E+01      3.301544000000000E-01      2.758789000000000E+01
4833000000.000000      4.254456000000000E-01      7.809765000000000E+01      2.837067000000000E-01      7.460155000000000E+01      2.825317000000000E-01      3.804101000000000E+01      3.276672000000000E-01      2.778418000000000E+01
4834000000.000000      4.231262000000000E-01      7.818359000000000E+01      2.895050000000000E-01      7.476563000000000E+01      2.878113000000000E-01      3.849218000000000E+01      3.274841000000000E-01      2.788183000000000E+01
4835000000.000000      4.201508000000000E-01      7.810547000000000E+01      2.948608000000000E-01      7.498828000000000E+01      2.926331000000000E-01      3.890429000000000E+01      3.251495000000000E-01      2.767773000000000E+01
4836000000.000000      4.170227000000000E-01      7.819921000000000E+01      2.993622000000000E-01      7.530078000000000E+01      2.973938000000000E-01      3.925390000000000E+01      3.219452000000000E-01      2.772168000000000E+01
4837000000.000000      4.132690000000000E-01      7.828906000000000E+01      3.045502000000000E-01      7.521484000000000E+01      3.025360000000000E-01      3.949804000000000E+01      3.218689000000000E-01      2.784668000000000E+01
4838000000.000000      4.088287000000000E-01      7.812500000000000E+01      3.098297000000000E-01      7.568749000000000E+01      3.075256000000000E-01      3.975781000000000E+01      3.176270000000000E-01      2.757910000000000E+01
4839000000.000000      4.067230000000000E-01      7.821484000000000E+01      3.151093000000000E-01      7.576953000000000E+01      3.131561000000000E-01      3.991601000000000E+01      3.170929000000000E-01      2.740332000000000E+01
4840000000.000000      4.012909000000000E-01      7.821094000000000E+01      3.203125000000000E-01      7.584374000000000E+01      3.181000000000000E-01      4.026757000000000E+01      3.135071000000000E-01      2.738672000000000E+01
4841000000.000000      3.973694000000000E-01      7.829296000000000E+01      3.254852000000000E-01      7.568359000000000E+01      3.232422000000000E-01      4.045703000000000E+01      3.113251000000000E-01      2.733593000000000E+01
4842000000.000000      3.922729000000000E-01      7.826172000000000E+01      3.310852000000000E-01      7.598437000000000E+01      3.284760000000000E-01      4.085938000000000E+01      3.099213000000000E-01      2.708887000000000E+01
4843000000.000000      3.885651000000000E-01      7.815624000000000E+01      3.364105000000000E-01      7.594531000000000E+01      3.339691000000000E-01      4.093750000000000E+01      3.074036000000000E-01      2.729785000000000E+01
4844000000.000000      3.827057000000000E-01      7.820703000000000E+01      3.420563000000000E-01      7.592968000000000E+01      3.385468000000000E-01      4.102539000000000E+01      3.043365000000000E-01      2.689160000000000E+01
4845000000.000000      3.774719000000000E-01      7.838672000000000E+01      3.469849000000000E-01      7.602344000000000E+01      3.448029000000000E-01      4.128906000000000E+01      3.031464000000000E-01      2.673730000000000E+01
4846000000.000000      3.722992000000000E-01      7.834374000000000E+01      3.525543000000000E-01      7.587500000000000E+01      3.504486000000000E-01      4.118164000000000E+01      3.001099000000000E-01      2.678808000000000E+01
4847000000.000000      3.670502000000000E-01      7.850390000000000E+01      3.581390000000000E-01      7.587500000000000E+01      3.560333000000000E-01      4.135547000000000E+01      2.973633000000000E-01      2.630371000000000E+01
4848000000.000000      3.608246000000000E-01      7.839844000000000E+01      3.626862000000000E-01      7.578906000000000E+01      3.607330000000000E-01      4.148438000000000E+01      2.952728000000000E-01      2.606738000000000E+01
4849000000.000000      3.556366000000000E-01      7.841797000000000E+01      3.688965000000000E-01      7.560156000000000E+01      3.662872000000000E-01      4.156054000000000E+01      2.923431000000000E-01      2.607129000000000E+01
4850000000.000000      3.490906000000000E-01      7.846874000000000E+01      3.739319000000000E-01      7.554296000000000E+01      3.719177000000000E-01      4.166016000000000E+01      2.904968000000000E-01      2.584473000000000E+01
4851000000.000000      3.435822000000000E-01      7.866796000000000E+01      3.796844000000000E-01      7.537499000000000E+01      3.769226000000000E-01      4.178320000000000E+01      2.886047000000000E-01      2.552929000000000E+01
4852000000.000000      3.371735000000000E-01      7.863281000000000E+01      3.850250000000000E-01      7.517187000000000E+01      3.824921000000000E-01      4.180860000000000E+01      2.860565000000000E-01      2.499218000000000E+01
4853000000.000000      3.310852000000000E-01      7.875390000000000E+01      3.897095000000000E-01      7.505077000000000E+01      3.882751000000000E-01      4.188672000000000E+01      2.839050000000000E-01      2.464550000000000E+01
4854000000.000000      3.241425000000000E-01      7.866015000000000E+01      3.957520000000000E-01      7.470703000000000E+01      3.932343000000000E-01      4.187109000000000E+01      2.825775000000000E-01      2.453613000000000E+01
4855000000.000000      3.180847000000000E-01      7.885156000000000E+01      4.014282000000000E-01      7.466406000000000E+01      3.984222000000000E-01      4.192773000000000E+01      2.785950000000000E-01      2.442480000000000E+01
4856000000.000000      3.115234000000000E-01      7.883203000000000E+01      4.065399000000000E-01      7.442577000000000E+01      4.042816000000000E-01      4.184960000000000E+01      2.780762000000000E-01      2.405859000000000E+01
4857000000.000000      3.047791000000000E-01      7.895702000000000E+01      4.124603000000000E-01      7.430469000000000E+01      4.092560000000000E-01      4.183984000000000E+01      2.732239000000000E-01      2.360254000000000E+01
4858000000.000000      2.978668000000000E-01      7.881249000000000E+01      4.176025000000000E-01      7.395312000000000E+01      4.145813000000000E-01      4.188281000000000E+01      2.729797000000000E-01      2.328906000000000E+01
4859000000.000000      2.911377000000000E-01      7.889843000000000E+01      4.235992000000000E-01      7.369922000000000E+01      4.196777000000000E-01      4.190820000000000E+01      2.696686000000000E-01      2.287402000000000E+01
4860000000.000000      2.844543000000000E-01      7.902344000000000E+01      4.277496000000000E-01      7.350780000000000E+01      4.247742000000000E-01      4.176562000000000E+01      2.671967000000000E-01      2.273828000000000E+01
4861000000.000000      2.770844000000000E-01      7.904297000000000E+01      4.334259000000000E-01      7.310937000000000E+01      4.306641000000000E-01      4.178124000000000E+01      2.646790000000000E-01      2.243750000000000E+01
4862000000.000000      2.695923000000000E-01      7.900000000000000E+01      4.385223000000000E-01      7.296875000000000E+01      4.361572000000000E-01      4.168359000000000E+01      2.632751000000000E-01      2.179394000000000E+01
4863000000.000000      2.627716000000000E-01      7.908593000000000E+01      4.433594000000000E-01      7.255077000000000E+01      4.414063000000000E-01      4.163086000000000E+01      2.624054000000000E-01      2.189844000000000E+01
4864000000.000000      2.558594000000000E-01      7.900000000000000E+01      4.503937000000000E-01      7.237890000000000E+01      4.447479000000000E-01      4.165235000000000E+01      2.599945000000000E-01      2.117383000000000E+01
4865000000.000000      2.484055000000000E-01      7.893359000000000E+01      4.537506000000000E-01      7.214453000000000E+01      4.510345000000000E-01      4.147070000000000E+01      2.587891000000000E-01      2.088183000000000E+01
4866000000.000000      2.413483000000000E-01      7.877734000000000E+01      4.586029000000000E-01      7.157812000000000E+01      4.552155000000000E-01      4.138867000000000E+01      2.584534000000000E-01      2.031054000000000E+01
4867000000.000000      2.338409000000000E-01      7.889062000000000E+01      4.639740000000000E-01      7.113671000000000E+01      4.610596000000000E-01      4.143750000000000E+01      2.554321000000000E-01      2.020312000000000E+01
4868000000.000000      2.272873000000000E-01      7.869531000000000E+01      4.693909000000000E-01      7.090234000000000E+01      4.658051000000000E-01      4.143359000000000E+01      2.533112000000000E-01      1.966113000000000E+01
4869000000.000000      2.196274000000000E-01      7.854297000000000E+01      4.731903000000000E-01      7.050781000000000E+01      4.704285000000000E-01      4.123828000000000E+01      2.515869000000000E-01      1.902051000000000E+01
4870000000.000000      2.127533000000000E-01      7.852734000000000E+01      4.789581000000000E-01      7.051562000000000E+01      4.768066000000000E-01      4.117773000000000E+01      2.509308000000000E-01      1.887402000000000E+01
4871000000.000000      2.056580000000000E-01      7.821875000000000E+01      4.838562000000000E-01      6.983984000000000E+01      4.809418000000000E-01      4.110937000000000E+01      2.493362000000000E-01      1.855859000000000E+01
4872000000.000000      1.986389000000000E-01      7.808203000000000E+01      4.883118000000000E-01      6.963281000000000E+01      4.865112000000000E-01      4.082617000000000E+01      2.491379000000000E-01      1.802637000000000E+01
4873000000.000000      1.914520000000000E-01      7.779687000000000E+01      4.924774000000000E-01      6.907421000000000E+01      4.898834000000000E-01      4.084570000000000E+01      2.459412000000000E-01      1.694824000000000E+01
4874000000.000000      1.841965000000000E-01      7.738281000000000E+01      4.978943000000000E-01      6.864452000000000E+01      4.975281000000000E-01      4.061328000000000E+01      2.468948000000000E-01      1.678808000000000E+01
4875000000.000000      1.766815000000000E-01      7.692577000000000E+01      5.022888000000000E-01      6.849218000000000E+01      5.010376000000000E-01      4.058984000000000E+01      2.448120000000000E-01      1.641699000000000E+01
4876000000.000000      1.706085000000000E-01      7.657812000000000E+01      5.067139000000000E-01      6.787890000000000E+01      5.049133000000000E-01      4.031836000000000E+01      2.438660000000000E-01      1.606445000000000E+01
4877000000.000000      1.629028000000000E-01      7.582421000000000E+01      5.117798000000000E-01      6.762109000000000E+01      5.105591000000000E-01      4.027539000000000E+01      2.421112000000000E-01      1.562939000000000E+01
4878000000.000000      1.555176000000000E-01      7.544922000000000E+01      5.168152000000000E-01      6.700390000000000E+01      5.146790000000000E-01      4.024219000000000E+01      2.427979000000000E-01      1.470752000000000E+01
4879000000.000000      1.491394000000000E-01      7.449219000000000E+01      5.190125000000000E-01      6.678124000000000E+01      5.204163000000000E-01      4.010938000000000E+01      2.419281000000000E-01      1.457715000000000E+01
4880000000.000000      1.417847000000000E-01      7.362890000000000E+01      5.231323000000000E-01      6.614843000000000E+01      5.249329000000000E-01      3.984766000000000E+01      2.400131000000000E-01      1.397559000000000E+01
4881000000.000000      1.351242000000000E-01      7.288280000000000E+01      5.294495000000000E-01      6.588281000000000E+01      5.303955000000000E-01      3.966015000000000E+01      2.413177000000000E-01      1.337988000000000E+01
4882000000.000000      1.287384000000000E-01      7.167187000000000E+01      5.324402000000000E-01      6.546093000000000E+01      5.338135000000000E-01      3.961523000000000E+01      2.391510000000000E-01      1.307471000000000E+01
