! Network Analyzer HP8722D
! Hewlett-Packard
! Data name: Linha & Wilkinson
! Saver's name: Rodrigo Anjos
! Comments: Teste da utilização de aquisição
continua pelo VNA HP8722D
! Time and date: 17/4/2025 11:34
!              Frequency                     S11                                                   S21                                                   S12                                                   S22
# HZ  S  MA R 50
4800000000.000000      2.952423000000000E-01      1.171562000000000E+02      7.098999000000000E-01      7.789063000000000E+01      6.632996000000000E-01     -1.572461000000000E+01      4.819489000000000E-01     -4.592382000000000E+01
4801000000.000000      2.901001000000000E-01      1.172539000000000E+02      7.106323000000000E-01      7.749609000000000E+01      6.616211000000000E-01     -1.643847000000000E+01      4.757385000000000E-01     -4.593946000000000E+01
4802000000.000000      2.846985000000000E-01      1.172305000000000E+02      7.117004000000000E-01      7.682031000000000E+01      6.653137000000000E-01     -1.663965000000000E+01      4.686584000000000E-01     -4.576953000000000E+01
4803000000.000000      2.788239000000000E-01      1.172109000000000E+02      7.143555000000000E-01      7.617188000000000E+01      6.645203000000000E-01     -1.722558000000000E+01      4.599915000000000E-01     -4.599023000000000E+01
4804000000.000000      2.743835000000000E-01      1.173125000000000E+02      7.141113000000000E-01      7.556641000000000E+01      6.676636000000000E-01     -1.763184000000000E+01      4.524841000000000E-01     -4.599414000000000E+01
4805000000.000000      2.692719000000000E-01      1.172266000000000E+02      7.157288000000000E-01      7.503906000000000E+01      6.686096000000000E-01     -1.806152000000000E+01      4.440613000000000E-01     -4.591797000000000E+01
4806000000.000000      2.626953000000000E-01      1.173008000000000E+02      7.171936000000000E-01      7.453906000000000E+01      6.694031000000000E-01     -1.849316000000000E+01      4.364929000000000E-01     -4.602148000000000E+01
4807000000.000000      2.580261000000000E-01      1.172500000000000E+02      7.183838000000000E-01      7.376171000000000E+01      6.706543000000000E-01     -1.899609000000000E+01      4.275513000000000E-01     -4.583593000000000E+01
4808000000.000000      2.524872000000000E-01      1.174922000000000E+02      7.180786000000000E-01      7.330859000000000E+01      6.715393000000000E-01     -1.937109000000000E+01      4.214478000000000E-01     -4.571289000000000E+01
4809000000.000000      2.463303000000000E-01      1.174766000000000E+02      7.176208000000000E-01      7.246094000000000E+01      6.735535000000000E-01     -1.979687000000000E+01      4.126434000000000E-01     -4.555664000000000E+01
4810000000.000000      2.408981000000000E-01      1.176719000000000E+02      7.203674000000000E-01      7.186718000000000E+01      6.734619000000000E-01     -2.022070000000000E+01      4.066010000000000E-01     -4.554883000000000E+01
4811000000.000000      2.350464000000000E-01      1.177500000000000E+02      7.211914000000000E-01      7.128124000000000E+01      6.777954000000000E-01     -2.066406000000000E+01      3.984375000000000E-01     -4.511523000000000E+01
4812000000.000000      2.294083000000000E-01      1.179688000000000E+02      7.219543000000000E-01      7.076562000000000E+01      6.772156000000000E-01     -2.111523000000000E+01      3.918762000000000E-01     -4.506445000000000E+01
4813000000.000000      2.232361000000000E-01      1.181602000000000E+02      7.198181000000000E-01      7.013281000000000E+01      6.764526000000000E-01     -2.149414000000000E+01      3.858032000000000E-01     -4.458398000000000E+01
4814000000.000000      2.166901000000000E-01      1.181367000000000E+02      7.200317000000000E-01      6.944530000000000E+01      6.778870000000000E-01     -2.189063000000000E+01      3.789978000000000E-01     -4.442773000000000E+01
4815000000.000000      2.108002000000000E-01      1.184922000000000E+02      7.205200000000000E-01      6.880077000000000E+01      6.776123000000000E-01     -2.236719000000000E+01      3.726807000000000E-01     -4.391406000000000E+01
4816000000.000000      2.052002000000000E-01      1.186797000000000E+02      7.210693000000000E-01      6.845312000000000E+01      6.801453000000000E-01     -2.277246000000000E+01      3.662262000000000E-01     -4.387695000000000E+01
4817000000.000000      1.991272000000000E-01      1.190664000000000E+02      7.205505000000000E-01      6.781250000000000E+01      6.782227000000000E-01     -2.328711000000000E+01      3.595428000000000E-01     -4.327734000000000E+01
4818000000.000000      1.921921000000000E-01      1.193867000000000E+02      7.200012000000000E-01      6.723046000000000E+01      6.795654000000000E-01     -2.361133000000000E+01      3.523102000000000E-01     -4.280663000000000E+01
4819000000.000000      1.872330000000000E-01      1.196094000000000E+02      7.178040000000000E-01      6.643359000000000E+01      6.800537000000000E-01     -2.411133000000000E+01      3.471832000000000E-01     -4.248437000000000E+01
4820000000.000000      1.799927000000000E-01      1.200391000000000E+02      7.178345000000000E-01      6.590234000000000E+01      6.800232000000000E-01     -2.458008000000000E+01      3.417206000000000E-01     -4.194726000000000E+01
4821000000.000000      1.745682000000000E-01      1.203672000000000E+02      7.183533000000000E-01      6.518359000000000E+01      6.796265000000000E-01     -2.512109000000000E+01      3.350525000000000E-01     -4.119922000000000E+01
4822000000.000000      1.686630000000000E-01      1.208242000000000E+02      7.167358000000000E-01      6.464453000000000E+01      6.793213000000000E-01     -2.566406000000000E+01      3.323669000000000E-01     -4.078906000000000E+01
4823000000.000000      1.621933000000000E-01      1.214336000000000E+02      7.160339000000000E-01      6.408593000000000E+01      6.804504000000000E-01     -2.589550000000000E+01      3.266602000000000E-01     -4.023633000000000E+01
4824000000.000000      1.571579000000000E-01      1.219180000000000E+02      7.163391000000000E-01      6.333008000000000E+01      6.802368000000000E-01     -2.646093000000000E+01      3.216858000000000E-01     -3.955078000000000E+01
4825000000.000000      1.505280000000000E-01      1.227266000000000E+02      7.145996000000000E-01      6.287109000000000E+01      6.812439000000000E-01     -2.688769000000000E+01      3.173828000000000E-01     -3.900781000000000E+01
4826000000.000000      1.453400000000000E-01      1.234258000000000E+02      7.145996000000000E-01      6.210742000000000E+01      6.779785000000000E-01     -2.741113000000000E+01      3.133240000000000E-01     -3.812304000000000E+01
4827000000.000000      1.391068000000000E-01      1.243750000000000E+02      7.135315000000000E-01      6.158008000000000E+01      6.786499000000000E-01     -2.777637000000000E+01      3.096313000000000E-01     -3.766992000000000E+01
4828000000.000000      1.341171000000000E-01      1.251055000000000E+02      7.128906000000000E-01      6.100390000000000E+01      6.777649000000000E-01     -2.828711000000000E+01      3.059082000000000E-01     -3.696680000000000E+01
4829000000.000000      1.281357000000000E-01      1.261641000000000E+02      7.108765000000000E-01      6.038867000000000E+01      6.791992000000000E-01     -2.868164000000000E+01      3.029175000000000E-01     -3.605469000000000E+01
4830000000.000000      1.230392000000000E-01      1.271953000000000E+02      7.086792000000000E-01      5.972461000000000E+01      6.774292000000000E-01     -2.916504000000000E+01      2.988739000000000E-01     -3.515234000000000E+01
4831000000.000000      1.175766000000000E-01      1.285781000000000E+02      7.081909000000000E-01      5.899023000000000E+01      6.773376000000000E-01     -2.957715000000000E+01      2.964935000000000E-01     -3.443945000000000E+01
4832000000.000000      1.124840000000000E-01      1.295391000000000E+02      7.074280000000000E-01      5.853516000000000E+01      6.755066000000000E-01     -3.018945000000000E+01      2.932281000000000E-01     -3.357422000000000E+01
4833000000.000000      1.077118000000000E-01      1.309375000000000E+02      7.048950000000000E-01      5.794140000000000E+01      6.749573000000000E-01     -3.061426000000000E+01      2.907562000000000E-01     -3.268750000000000E+01
4834000000.000000      1.032372000000000E-01      1.327266000000000E+02      7.031555000000000E-01      5.731054000000000E+01      6.726990000000000E-01     -3.107910000000000E+01      2.891388000000000E-01     -3.184668000000000E+01
4835000000.000000      9.835815000000000E-02      1.341797000000000E+02      7.012024000000000E-01      5.666797000000000E+01      6.724854000000000E-01     -3.158496000000000E+01      2.870636000000000E-01     -3.097265000000000E+01
4836000000.000000      9.380722000000000E-02      1.363984000000000E+02      6.996155000000000E-01      5.597070000000000E+01      6.708069000000000E-01     -3.194043000000000E+01      2.848053000000000E-01     -3.018945000000000E+01
4837000000.000000      9.022522000000000E-02      1.382969000000000E+02      6.961365000000000E-01      5.520312000000000E+01      6.705322000000000E-01     -3.255078000000000E+01      2.842102000000000E-01     -2.893457000000000E+01
4838000000.000000      8.609772000000000E-02      1.405078000000000E+02      6.965942000000000E-01      5.487695000000000E+01      6.680603000000000E-01     -3.302539000000000E+01      2.825470000000000E-01     -2.822266000000000E+01
4839000000.000000      8.212662000000000E-02      1.427656000000000E+02      6.924133000000000E-01      5.414453000000000E+01      6.669312000000000E-01     -3.355273000000000E+01      2.821503000000000E-01     -2.743750000000000E+01
4840000000.000000      7.839203000000000E-02      1.455000000000000E+02      6.912231000000000E-01      5.350976000000000E+01      6.655579000000000E-01     -3.391992000000000E+01      2.812958000000000E-01     -2.644726000000000E+01
4841000000.000000      7.572556000000000E-02      1.478906000000000E+02      6.893311000000000E-01      5.273828000000000E+01      6.641846000000000E-01     -3.447070000000000E+01      2.809296000000000E-01     -2.539844000000000E+01
4842000000.000000      7.268143000000000E-02      1.514844000000000E+02      6.862488000000000E-01      5.233788000000000E+01      6.603394000000000E-01     -3.498242000000000E+01      2.811584000000000E-01     -2.448535000000000E+01
4843000000.000000      6.981277000000000E-02      1.543359000000000E+02      6.846008000000000E-01      5.162109000000000E+01      6.598511000000000E-01     -3.553125000000000E+01      2.805634000000000E-01     -2.351953000000000E+01
4844000000.000000      6.816864000000000E-02      1.576719000000000E+02      6.820374000000000E-01      5.109570000000000E+01      6.569214000000000E-01     -3.594531000000000E+01      2.799683000000000E-01     -2.273144000000000E+01
4845000000.000000      6.583786000000000E-02      1.611250000000000E+02      6.785278000000000E-01      5.046288000000000E+01      6.556702000000000E-01     -3.657031000000000E+01      2.811279000000000E-01     -2.188965000000000E+01
4846000000.000000      6.431198000000000E-02      1.645937000000000E+02      6.763000000000000E-01      4.984570000000000E+01      6.542053000000000E-01     -3.705078000000000E+01      2.815857000000000E-01     -2.099902000000000E+01
4847000000.000000      6.359482000000000E-02      1.683125000000000E+02      6.730652000000000E-01      4.923828000000000E+01      6.524658000000000E-01     -3.746094000000000E+01      2.822266000000000E-01     -2.015918000000000E+01
4848000000.000000      6.267548000000000E-02      1.718359000000000E+02      6.707458000000000E-01      4.861914000000000E+01      6.498108000000000E-01     -3.805273000000000E+01      2.838287000000000E-01     -1.924023000000000E+01
4849000000.000000      6.250763000000000E-02      1.752812000000000E+02      6.661682000000000E-01      4.793750000000000E+01      6.464844000000000E-01     -3.853125000000000E+01      2.847137000000000E-01     -1.846680000000000E+01
4850000000.000000      6.219673000000000E-02      1.794141000000000E+02      6.654358000000000E-01      4.731250000000000E+01      6.445007000000000E-01     -3.900781000000000E+01      2.866974000000000E-01     -1.759473000000000E+01
4851000000.000000      6.225586000000000E-02     -1.773750000000000E+02      6.633606000000000E-01      4.669922000000000E+01      6.408081000000000E-01     -3.952539000000000E+01      2.882385000000000E-01     -1.687012000000000E+01
4852000000.000000      6.302643000000000E-02     -1.740703000000000E+02      6.601563000000000E-01      4.620898000000000E+01      6.390991000000000E-01     -4.001367000000000E+01      2.898712000000000E-01     -1.612695000000000E+01
4853000000.000000      6.391907000000000E-02     -1.711328000000000E+02      6.530457000000000E-01      4.549609000000000E+01      6.355591000000000E-01     -4.058007000000000E+01      2.928314000000000E-01     -1.533008000000000E+01
4854000000.000000      6.485748000000000E-02     -1.679688000000000E+02      6.529236000000000E-01      4.491211000000000E+01      6.330872000000000E-01     -4.108398000000000E+01      2.956848000000000E-01     -1.442236000000000E+01
4855000000.000000      6.609344000000000E-02     -1.654531000000000E+02      6.474915000000000E-01      4.423828000000000E+01      6.292419000000000E-01     -4.161523000000000E+01      2.972717000000000E-01     -1.379883000000000E+01
4856000000.000000      6.763077000000000E-02     -1.629219000000000E+02      6.455078000000000E-01      4.364648000000000E+01      6.257935000000000E-01     -4.216601000000000E+01      2.997437000000000E-01     -1.308887000000000E+01
4857000000.000000      6.906509000000000E-02     -1.607812000000000E+02      6.430664000000000E-01      4.299414000000000E+01      6.229248000000000E-01     -4.262109000000000E+01      3.025513000000000E-01     -1.243945000000000E+01
4858000000.000000      7.028198000000000E-02     -1.585234000000000E+02      6.375427000000000E-01      4.241211000000000E+01      6.186829000000000E-01     -4.303906000000000E+01      3.062134000000000E-01     -1.186426000000000E+01
4859000000.000000      7.231522000000000E-02     -1.570391000000000E+02      6.366577000000000E-01      4.189649000000000E+01      6.150818000000000E-01     -4.364453000000000E+01      3.096771000000000E-01     -1.128613000000000E+01
4860000000.000000      7.453156000000000E-02     -1.556875000000000E+02      6.320801000000000E-01      4.126758000000000E+01      6.115112000000000E-01     -4.415820000000000E+01      3.123169000000000E-01     -1.070068000000000E+01
4861000000.000000      7.625580000000000E-02     -1.539609000000000E+02      6.278076000000000E-01      4.048437000000000E+01      6.082153000000000E-01     -4.466992000000000E+01      3.156738000000000E-01     -1.033545000000000E+01
4862000000.000000      7.841492000000000E-02     -1.527891000000000E+02      6.248169000000000E-01      4.002149000000000E+01      6.042480000000000E-01     -4.516211000000000E+01      3.198853000000000E-01     -9.736816000000000E+00
4863000000.000000      8.030319000000000E-02     -1.521953000000000E+02      6.186523000000000E-01      3.923047000000000E+01      6.006775000000000E-01     -4.564843000000000E+01      3.235321000000000E-01     -9.257813000000000E+00
4864000000.000000      8.265305000000000E-02     -1.512266000000000E+02      6.165161000000000E-01      3.871289000000000E+01      5.951843000000000E-01     -4.620117000000000E+01      3.270111000000000E-01     -8.885254000000000E+00
4865000000.000000      8.477783000000000E-02     -1.505000000000000E+02      6.118164000000000E-01      3.814648000000000E+01      5.910950000000000E-01     -4.676367000000000E+01      3.319550000000000E-01     -8.248047000000000E+00
4866000000.000000      8.701324000000000E-02     -1.500234000000000E+02      6.064453000000000E-01      3.754101000000000E+01      5.878906000000000E-01     -4.734961000000000E+01      3.365021000000000E-01     -8.079102000000000E+00
4867000000.000000      8.926392000000000E-02     -1.497266000000000E+02      6.024780000000000E-01      3.678320000000000E+01      5.848083000000000E-01     -4.765234000000000E+01      3.412476000000000E-01     -7.610840000000000E+00
4868000000.000000      9.166718000000000E-02     -1.497813000000000E+02      5.977173000000000E-01      3.606054000000000E+01      5.814209000000000E-01     -4.824413000000000E+01      3.448486000000000E-01     -7.269043000000000E+00
4869000000.000000      9.387207000000000E-02     -1.495391000000000E+02      5.913086000000000E-01      3.551953000000000E+01      5.746765000000000E-01     -4.878711000000000E+01      3.502655000000000E-01     -7.144043000000000E+00
4870000000.000000      9.592819000000000E-02     -1.497813000000000E+02      5.879822000000000E-01      3.488867000000000E+01      5.700378000000000E-01     -4.928905000000000E+01      3.548584000000000E-01     -6.775879000000000E+00
4871000000.000000      9.822845000000000E-02     -1.499844000000000E+02      5.831299000000000E-01      3.425586000000000E+01      5.663147000000000E-01     -4.978320000000000E+01      3.590546000000000E-01     -6.715576000000000E+00
4872000000.000000      1.006203000000000E-01     -1.502734000000000E+02      5.765076000000000E-01      3.380468000000000E+01      5.610352000000000E-01     -5.040820000000000E+01      3.644104000000000E-01     -6.448975000000000E+00
4873000000.000000      1.029282000000000E-01     -1.504453000000000E+02      5.718079000000000E-01      3.309765000000000E+01      5.549927000000000E-01     -5.093163000000000E+01      3.681488000000000E-01     -6.296631000000000E+00
4874000000.000000      1.051559000000000E-01     -1.511172000000000E+02      5.665283000000000E-01      3.242578000000000E+01      5.513306000000000E-01     -5.132030000000000E+01      3.738251000000000E-01     -6.086426000000000E+00
4875000000.000000      1.073647000000000E-01     -1.515312000000000E+02      5.610352000000000E-01      3.193554000000000E+01      5.466919000000000E-01     -5.196875000000000E+01      3.789978000000000E-01     -5.978027000000000E+00
4876000000.000000      1.093102000000000E-01     -1.524531000000000E+02      5.572815000000000E-01      3.128027000000000E+01      5.401917000000000E-01     -5.233203000000000E+01      3.843689000000000E-01     -6.138672000000000E+00
4877000000.000000      1.118431000000000E-01     -1.531484000000000E+02      5.502319000000000E-01      3.059375000000000E+01      5.376587000000000E-01     -5.282227000000000E+01      3.891754000000000E-01     -5.980713000000000E+00
4878000000.000000      1.142006000000000E-01     -1.538594000000000E+02      5.464783000000000E-01      3.007910000000000E+01      5.301514000000000E-01     -5.330468000000000E+01      3.932953000000000E-01     -6.059082000000000E+00
4879000000.000000      1.162491000000000E-01     -1.548750000000000E+02      5.390320000000000E-01      2.973437000000000E+01      5.237732000000000E-01     -5.396484000000000E+01      3.987427000000000E-01     -5.887451000000000E+00
4880000000.000000      1.179543000000000E-01     -1.557891000000000E+02      5.331726000000000E-01      2.897070000000000E+01      5.196838000000000E-01     -5.428320000000000E+01      4.030151000000000E-01     -5.936768000000000E+00
4881000000.000000      1.208191000000000E-01     -1.568984000000000E+02      5.277405000000000E-01      2.864062000000000E+01      5.156555000000000E-01     -5.489648000000000E+01      4.086609000000000E-01     -5.865479000000000E+00
4882000000.000000      1.227493000000000E-01     -1.577891000000000E+02      5.217896000000000E-01      2.780078000000000E+01      5.084534000000000E-01     -5.526953000000000E+01      4.136047000000000E-01     -5.901123000000000E+00
