! Network Analyzer HP8722D
! Hewlett-Packard
! Data name: Linha & Wilkinson
! Saver's name: Rodrigo Anjos
! Comments: Teste da utilização de aquisição
continua pelo VNA HP8722D
! Time and date: 17/4/2025 12:18
!              Frequency                     S11                                                   S21                                                   S12                                                   S22
# HZ  S  MA R 50
4800000000.000000      3.348694000000000E-01     -1.160078000000000E+02      3.063660000000000E-01     -6.196094000000000E+01      2.990265000000000E-01     -1.762344000000000E+02      6.570435000000000E-01     -9.064844000000000E+01
4801000000.000000      3.335419000000000E-01     -1.169141000000000E+02      3.108673000000000E-01     -6.187500000000000E+01      3.033600000000000E-01     -1.760937000000000E+02      6.560059000000000E-01     -9.070704000000000E+01
4802000000.000000      3.328705000000000E-01     -1.178945000000000E+02      3.148041000000000E-01     -6.209570000000000E+01      3.080444000000000E-01     -1.760078000000000E+02      6.541443000000000E-01     -9.081640000000000E+01
4803000000.000000      3.322906000000000E-01     -1.189063000000000E+02      3.195343000000000E-01     -6.219140000000000E+01      3.113861000000000E-01     -1.758594000000000E+02      6.548767000000000E-01     -9.100389000000000E+01
4804000000.000000      3.321533000000000E-01     -1.198750000000000E+02      3.242645000000000E-01     -6.242578000000000E+01      3.154602000000000E-01     -1.759375000000000E+02      6.536255000000000E-01     -9.092577000000000E+01
4805000000.000000      3.324738000000000E-01     -1.209453000000000E+02      3.285370000000000E-01     -6.261913000000000E+01      3.191528000000000E-01     -1.757500000000000E+02      6.527100000000000E-01     -9.107813000000000E+01
4806000000.000000      3.321075000000000E-01     -1.219414000000000E+02      3.325500000000000E-01     -6.278125000000000E+01      3.231049000000000E-01     -1.756016000000000E+02      6.532898000000000E-01     -9.125000000000000E+01
4807000000.000000      3.320465000000000E-01     -1.230312000000000E+02      3.365784000000000E-01     -6.292382000000000E+01      3.273315000000000E-01     -1.757187000000000E+02      6.518860000000000E-01     -9.134375000000000E+01
4808000000.000000      3.325806000000000E-01     -1.241016000000000E+02      3.423462000000000E-01     -6.301367000000000E+01      3.304901000000000E-01     -1.756172000000000E+02      6.507568000000000E-01     -9.135157000000000E+01
4809000000.000000      3.330383000000000E-01     -1.251601000000000E+02      3.459320000000000E-01     -6.352734000000000E+01      3.355255000000000E-01     -1.756484000000000E+02      6.511230000000000E-01     -9.154297000000000E+01
4810000000.000000      3.345795000000000E-01     -1.263086000000000E+02      3.505859000000000E-01     -6.352929000000000E+01      3.391266000000000E-01     -1.755469000000000E+02      6.524658000000000E-01     -9.162889000000000E+01
4811000000.000000      3.353271000000000E-01     -1.273438000000000E+02      3.547974000000000E-01     -6.392383000000000E+01      3.438416000000000E-01     -1.755625000000000E+02      6.495361000000000E-01     -9.164063000000000E+01
4812000000.000000      3.368073000000000E-01     -1.283437000000000E+02      3.580933000000000E-01     -6.398828000000000E+01      3.479156000000000E-01     -1.754375000000000E+02      6.502075000000000E-01     -9.165625000000000E+01
4813000000.000000      3.373871000000000E-01     -1.294453000000000E+02      3.622437000000000E-01     -6.432031000000000E+01      3.506775000000000E-01     -1.753047000000000E+02      6.504822000000000E-01     -9.174999000000000E+01
4814000000.000000      3.390961000000000E-01     -1.307422000000000E+02      3.672028000000000E-01     -6.424609000000000E+01      3.545074000000000E-01     -1.754844000000000E+02      6.508484000000000E-01     -9.195313000000000E+01
4815000000.000000      3.411407000000000E-01     -1.316953000000000E+02      3.700562000000000E-01     -6.464453000000000E+01      3.581696000000000E-01     -1.754766000000000E+02      6.501160000000000E-01     -9.191015000000000E+01
4816000000.000000      3.432159000000000E-01     -1.328203000000000E+02      3.753510000000000E-01     -6.479687000000000E+01      3.630676000000000E-01     -1.752734000000000E+02      6.502075000000000E-01     -9.203905000000000E+01
4817000000.000000      3.456268000000000E-01     -1.339219000000000E+02      3.781891000000000E-01     -6.523046000000000E+01      3.662415000000000E-01     -1.753359000000000E+02      6.502686000000000E-01     -9.216797000000000E+01
4818000000.000000      3.479919000000000E-01     -1.350469000000000E+02      3.812103000000000E-01     -6.536327000000000E+01      3.706665000000000E-01     -1.753047000000000E+02      6.518555000000000E-01     -9.227734000000000E+01
4819000000.000000      3.506622000000000E-01     -1.361172000000000E+02      3.851471000000000E-01     -6.568359000000000E+01      3.742676000000000E-01     -1.752266000000000E+02      6.523132000000000E-01     -9.239061000000000E+01
4820000000.000000      3.527222000000000E-01     -1.371953000000000E+02      3.889465000000000E-01     -6.589062000000000E+01      3.787079000000000E-01     -1.752812000000000E+02      6.528625000000000E-01     -9.244532000000000E+01
4821000000.000000      3.561249000000000E-01     -1.382656000000000E+02      3.937073000000000E-01     -6.621484000000000E+01      3.813629000000000E-01     -1.753984000000000E+02      6.516724000000000E-01     -9.265234000000000E+01
4822000000.000000      3.610382000000000E-01     -1.393672000000000E+02      3.975220000000000E-01     -6.646484000000000E+01      3.859253000000000E-01     -1.753438000000000E+02      6.548767000000000E-01     -9.259375000000000E+01
4823000000.000000      3.631592000000000E-01     -1.403359000000000E+02      4.014282000000000E-01     -6.676952000000000E+01      3.888397000000000E-01     -1.752656000000000E+02      6.551819000000000E-01     -9.267578000000000E+01
4824000000.000000      3.678741000000000E-01     -1.414609000000000E+02      4.036255000000000E-01     -6.708593000000000E+01      3.939056000000000E-01     -1.753750000000000E+02      6.564331000000000E-01     -9.267969000000000E+01
4825000000.000000      3.708801000000000E-01     -1.423828000000000E+02      4.069519000000000E-01     -6.732422000000000E+01      3.975067000000000E-01     -1.753438000000000E+02      6.564941000000000E-01     -9.276953000000000E+01
4826000000.000000      3.753967000000000E-01     -1.434219000000000E+02      4.114380000000000E-01     -6.769921000000000E+01      4.012756000000000E-01     -1.754844000000000E+02      6.582947000000000E-01     -9.289454000000000E+01
4827000000.000000      3.789825000000000E-01     -1.442812000000000E+02      4.147797000000000E-01     -6.772265000000000E+01      4.044189000000000E-01     -1.753594000000000E+02      6.588440000000000E-01     -9.293360000000000E+01
4828000000.000000      3.842316000000000E-01     -1.452656000000000E+02      4.182434000000000E-01     -6.816015000000000E+01      4.082947000000000E-01     -1.753438000000000E+02      6.616211000000000E-01     -9.306250000000000E+01
4829000000.000000      3.870392000000000E-01     -1.462422000000000E+02      4.210815000000000E-01     -6.845703000000000E+01      4.119415000000000E-01     -1.754531000000000E+02      6.622925000000000E-01     -9.304296000000000E+01
4830000000.000000      3.924713000000000E-01     -1.471484000000000E+02      4.250793000000000E-01     -6.882421000000000E+01      4.166412000000000E-01     -1.753515000000000E+02      6.637573000000000E-01     -9.319530000000000E+01
4831000000.000000      3.961182000000000E-01     -1.480703000000000E+02      4.284973000000000E-01     -6.915234000000000E+01      4.204865000000000E-01     -1.754141000000000E+02      6.662292000000000E-01     -9.321093000000000E+01
4832000000.000000      4.019470000000000E-01     -1.489766000000000E+02      4.318085000000000E-01     -6.933594000000000E+01      4.237823000000000E-01     -1.755078000000000E+02      6.678772000000000E-01     -9.328905000000000E+01
4833000000.000000      4.066925000000000E-01     -1.498672000000000E+02      4.346161000000000E-01     -6.957421000000000E+01      4.284973000000000E-01     -1.755625000000000E+02      6.686096000000000E-01     -9.339844000000000E+01
4834000000.000000      4.114685000000000E-01     -1.507813000000000E+02      4.374390000000000E-01     -6.990234000000000E+01      4.322815000000000E-01     -1.755781000000000E+02      6.705627000000000E-01     -9.344530000000000E+01
4835000000.000000      4.161224000000000E-01     -1.515625000000000E+02      4.411774000000000E-01     -7.035546000000000E+01      4.362946000000000E-01     -1.756250000000000E+02      6.725769000000000E-01     -9.350389000000000E+01
4836000000.000000      4.218903000000000E-01     -1.523281000000000E+02      4.433746000000000E-01     -7.073437000000000E+01      4.396667000000000E-01     -1.756250000000000E+02      6.749573000000000E-01     -9.356640000000000E+01
4837000000.000000      4.266663000000000E-01     -1.531094000000000E+02      4.466095000000000E-01     -7.112890000000000E+01      4.437866000000000E-01     -1.757578000000000E+02      6.758728000000000E-01     -9.354687000000000E+01
4838000000.000000      4.319611000000000E-01     -1.540781000000000E+02      4.501648000000000E-01     -7.118750000000000E+01      4.476776000000000E-01     -1.758281000000000E+02      6.787415000000000E-01     -9.366014000000000E+01
4839000000.000000      4.371796000000000E-01     -1.547344000000000E+02      4.528198000000000E-01     -7.155859000000000E+01      4.515076000000000E-01     -1.758359000000000E+02      6.815491000000000E-01     -9.360937000000000E+01
4840000000.000000      4.418335000000000E-01     -1.555781000000000E+02      4.549713000000000E-01     -7.184765000000000E+01      4.553833000000000E-01     -1.760000000000000E+02      6.833801000000000E-01     -9.373047000000000E+01
4841000000.000000      4.469604000000000E-01     -1.563984000000000E+02      4.580994000000000E-01     -7.229297000000000E+01      4.594727000000000E-01     -1.760781000000000E+02      6.865845000000000E-01     -9.385157000000000E+01
4842000000.000000      4.526367000000000E-01     -1.569609000000000E+02      4.618225000000000E-01     -7.255468000000000E+01      4.622955000000000E-01     -1.761172000000000E+02      6.878052000000000E-01     -9.380859000000000E+01
4843000000.000000      4.574432000000000E-01     -1.578125000000000E+02      4.643097000000000E-01     -7.295703000000000E+01      4.669037000000000E-01     -1.762187000000000E+02      6.904907000000000E-01     -9.390625000000000E+01
4844000000.000000      4.623108000000000E-01     -1.584453000000000E+02      4.653778000000000E-01     -7.341406000000000E+01      4.702759000000000E-01     -1.762891000000000E+02      6.931763000000000E-01     -9.391016000000000E+01
4845000000.000000      4.672089000000000E-01     -1.590781000000000E+02      4.684143000000000E-01     -7.352734000000000E+01      4.745331000000000E-01     -1.765078000000000E+02      6.952515000000000E-01     -9.395311000000000E+01
4846000000.000000      4.722443000000000E-01     -1.597422000000000E+02      4.707336000000000E-01     -7.385547000000000E+01      4.792480000000000E-01     -1.765000000000000E+02      6.986084000000000E-01     -9.411718000000000E+01
4847000000.000000      4.780731000000000E-01     -1.604297000000000E+02      4.739227000000000E-01     -7.419922000000000E+01      4.828339000000000E-01     -1.767891000000000E+02      7.012939000000000E-01     -9.411718000000000E+01
4848000000.000000      4.825287000000000E-01     -1.610937000000000E+02      4.751892000000000E-01     -7.441796000000000E+01      4.864807000000000E-01     -1.766562000000000E+02      7.032776000000000E-01     -9.410936000000000E+01
4849000000.000000      4.874115000000000E-01     -1.618672000000000E+02      4.781342000000000E-01     -7.491796000000000E+01      4.905396000000000E-01     -1.768672000000000E+02      7.053528000000000E-01     -9.422655000000000E+01
4850000000.000000      4.922028000000000E-01     -1.623125000000000E+02      4.795074000000000E-01     -7.530859000000000E+01      4.939728000000000E-01     -1.769766000000000E+02      7.084656000000000E-01     -9.430468000000000E+01
4851000000.000000      4.969177000000000E-01     -1.628828000000000E+02      4.835968000000000E-01     -7.551562000000000E+01      4.974213000000000E-01     -1.771016000000000E+02      7.116699000000000E-01     -9.439453000000000E+01
4852000000.000000      5.014038000000000E-01     -1.635391000000000E+02      4.852905000000000E-01     -7.576172000000000E+01      5.018921000000000E-01     -1.771328000000000E+02      7.154541000000000E-01     -9.430859000000000E+01
4853000000.000000      5.059204000000000E-01     -1.640625000000000E+02      4.856110000000000E-01     -7.617969000000000E+01      5.050049000000000E-01     -1.774219000000000E+02      7.181702000000000E-01     -9.449999000000000E+01
4854000000.000000      5.093079000000000E-01     -1.646328000000000E+02      4.881592000000000E-01     -7.654297000000000E+01      5.086670000000000E-01     -1.776172000000000E+02      7.205200000000000E-01     -9.446484000000000E+01
4855000000.000000      5.132446000000000E-01     -1.651719000000000E+02      4.895477000000000E-01     -7.678905000000000E+01      5.119934000000000E-01     -1.775781000000000E+02      7.225952000000000E-01     -9.448046000000000E+01
4856000000.000000      5.179749000000000E-01     -1.656953000000000E+02      4.911041000000000E-01     -7.702734000000000E+01      5.160217000000000E-01     -1.778203000000000E+02      7.253113000000000E-01     -9.463671000000000E+01
4857000000.000000      5.214233000000000E-01     -1.661875000000000E+02      4.948883000000000E-01     -7.746484000000000E+01      5.187988000000000E-01     -1.779453000000000E+02      7.281189000000000E-01     -9.457811000000000E+01
4858000000.000000      5.231323000000000E-01     -1.667266000000000E+02      4.953308000000000E-01     -7.771093000000000E+01      5.219727000000000E-01     -1.782578000000000E+02      7.312622000000000E-01     -9.464844000000000E+01
4859000000.000000      5.277100000000000E-01     -1.672031000000000E+02      4.976807000000000E-01     -7.803905000000000E+01      5.255432000000000E-01     -1.784141000000000E+02      7.347717000000000E-01     -9.471483000000000E+01
4860000000.000000      5.323486000000000E-01     -1.676719000000000E+02      4.989929000000000E-01     -7.832812000000000E+01      5.294800000000000E-01     -1.784297000000000E+02      7.366028000000000E-01     -9.475000000000000E+01
4861000000.000000      5.343933000000000E-01     -1.680625000000000E+02      5.014038000000000E-01     -7.875390000000000E+01      5.328064000000000E-01     -1.786562000000000E+02      7.395325000000000E-01     -9.487499000000000E+01
4862000000.000000      5.376282000000000E-01     -1.685313000000000E+02      5.017700000000000E-01     -7.882030000000000E+01      5.355225000000000E-01     -1.787109000000000E+02      7.438354000000000E-01     -9.482813000000000E+01
4863000000.000000      5.397339000000000E-01     -1.689531000000000E+02      5.025940000000000E-01     -7.911327000000000E+01      5.396423000000000E-01     -1.789141000000000E+02      7.467651000000000E-01     -9.486328000000000E+01
4864000000.000000      5.426941000000000E-01     -1.692734000000000E+02      5.050049000000000E-01     -7.953515000000000E+01      5.414429000000000E-01     -1.790156000000000E+02      7.486267000000000E-01     -9.498438000000000E+01
4865000000.000000      5.442810000000000E-01     -1.698359000000000E+02      5.049744000000000E-01     -7.974218000000000E+01      5.457458000000000E-01     -1.793516000000000E+02      7.513123000000000E-01     -9.490625000000000E+01
4866000000.000000      5.461731000000000E-01     -1.700547000000000E+02      5.064392000000000E-01     -8.000000000000000E+01      5.480347000000000E-01     -1.794688000000000E+02      7.540894000000000E-01     -9.503515000000000E+01
4867000000.000000      5.477295000000000E-01     -1.704219000000000E+02      5.082092000000000E-01     -8.045313000000000E+01      5.507507000000000E-01     -1.796641000000000E+02      7.567139000000000E-01     -9.491796000000000E+01
4868000000.000000      5.507202000000000E-01     -1.708672000000000E+02      5.091553000000000E-01     -8.046875000000000E+01      5.543823000000000E-01     -1.798359000000000E+02      7.590637000000000E-01     -9.512110000000000E+01
4869000000.000000      5.509949000000000E-01     -1.711016000000000E+02      5.100403000000000E-01     -8.094530000000000E+01      5.564575000000000E-01      1.797266000000000E+02      7.617188000000000E-01     -9.519531000000000E+01
4870000000.000000      5.532837000000000E-01     -1.714375000000000E+02      5.111694000000000E-01     -8.107813000000000E+01      5.588684000000000E-01      1.796094000000000E+02      7.649536000000000E-01     -9.519922000000000E+01
4871000000.000000      5.558472000000000E-01     -1.717344000000000E+02      5.127563000000000E-01     -8.148046000000000E+01      5.609741000000000E-01      1.794297000000000E+02      7.677002000000000E-01     -9.532812000000000E+01
4872000000.000000      5.568237000000000E-01     -1.720625000000000E+02      5.127563000000000E-01     -8.146484000000000E+01      5.633240000000000E-01      1.792578000000000E+02      7.695007000000000E-01     -9.528515000000000E+01
4873000000.000000      5.572510000000000E-01     -1.722500000000000E+02      5.128784000000000E-01     -8.195313000000000E+01      5.660400000000000E-01      1.790000000000000E+02      7.716064000000000E-01     -9.535156000000000E+01
4874000000.000000      5.570068000000000E-01     -1.725391000000000E+02      5.140686000000000E-01     -8.228516000000000E+01      5.697021000000000E-01      1.788359000000000E+02      7.743835000000000E-01     -9.528906000000000E+01
4875000000.000000      5.587463000000000E-01     -1.727734000000000E+02      5.145874000000000E-01     -8.232422000000000E+01      5.706787000000000E-01      1.786250000000000E+02      7.764282000000000E-01     -9.543749000000000E+01
4876000000.000000      5.578308000000000E-01     -1.730312000000000E+02      5.158997000000000E-01     -8.247265000000000E+01      5.729065000000000E-01      1.784141000000000E+02      7.801208000000000E-01     -9.542969000000000E+01
4877000000.000000      5.590515000000000E-01     -1.732188000000000E+02      5.171814000000000E-01     -8.268358000000000E+01      5.748596000000000E-01      1.780703000000000E+02      7.814331000000000E-01     -9.559765000000000E+01
4878000000.000000      5.595703000000000E-01     -1.733438000000000E+02      5.185547000000000E-01     -8.293360000000000E+01      5.763245000000000E-01      1.780781000000000E+02      7.826538000000000E-01     -9.578905000000000E+01
4879000000.000000      5.602112000000000E-01     -1.735547000000000E+02      5.188293000000000E-01     -8.309374000000000E+01      5.782776000000000E-01      1.779140000000000E+02      7.845154000000000E-01     -9.553905000000000E+01
4880000000.000000      5.585938000000000E-01     -1.736328000000000E+02      5.205383000000000E-01     -8.330858000000000E+01      5.802917000000000E-01      1.775547000000000E+02      7.866211000000000E-01     -9.555859000000000E+01
4881000000.000000      5.597839000000000E-01     -1.738672000000000E+02      5.209656000000000E-01     -8.325781000000000E+01      5.818176000000000E-01      1.773906000000000E+02      7.892456000000000E-01     -9.572266000000000E+01
4882000000.000000      5.578003000000000E-01     -1.739375000000000E+02      5.228882000000000E-01     -8.379297000000000E+01      5.849609000000000E-01      1.772734000000000E+02      7.910767000000000E-01     -9.567968000000000E+01
