! Network Analyzer HP8722D
! Hewlett-Packard
! Data name: Linha & Wilkinson
! Saver's name: Rodrigo Anjos
! Comments: Teste da utilização de aquisição
continua pelo VNA HP8722D
! Time and date: 17/4/2025 11:24
!              Frequency                     S11                                                   S21                                                   S12                                                   S22
# HZ  S  MA R 50
4800000000.000000      3.845062000000000E-01      7.958593000000000E+01      2.006149000000000E-01     -6.032617000000000E+01      2.059097000000000E-01      7.472656000000000E+01      2.446823000000000E-01      7.800781000000000E+01
4801000000.000000      3.868866000000000E-01      7.984375000000000E+01      1.975174000000000E-01     -5.903906000000000E+01      2.022400000000000E-01      7.574609000000000E+01      2.487183000000000E-01      7.713672000000000E+01
4802000000.000000      3.904114000000000E-01      8.015625000000000E+01      1.938095000000000E-01     -5.758984000000000E+01      1.990128000000000E-01      7.681250000000000E+01      2.507019000000000E-01      7.628906000000000E+01
4803000000.000000      3.922577000000000E-01      8.043749000000000E+01      1.910629000000000E-01     -5.628124000000000E+01      1.958084000000000E-01      7.819140000000000E+01      2.509460000000000E-01      7.535546000000000E+01
4804000000.000000      3.941650000000000E-01      8.080858000000000E+01      1.882782000000000E-01     -5.485937000000000E+01      1.930313000000000E-01      7.933594000000000E+01      2.512360000000000E-01      7.447656000000000E+01
4805000000.000000      3.973083000000000E-01      8.101171000000000E+01      1.859207000000000E-01     -5.344336000000000E+01      1.905441000000000E-01      8.080858000000000E+01      2.528381000000000E-01      7.392187000000000E+01
4806000000.000000      3.979645000000000E-01      8.136328000000000E+01      1.840057000000000E-01     -5.179882000000000E+01      1.881104000000000E-01      8.237890000000000E+01      2.530212000000000E-01      7.327343000000000E+01
4807000000.000000      4.000244000000000E-01      8.162109000000000E+01      1.820984000000000E-01     -5.039453000000000E+01      1.861649000000000E-01      8.358593000000000E+01      2.552795000000000E-01      7.218359000000000E+01
4808000000.000000      4.008026000000000E-01      8.198437000000000E+01      1.803207000000000E-01     -4.870117000000000E+01      1.845703000000000E-01      8.512499000000000E+01      2.556000000000000E-01      7.123437000000000E+01
4809000000.000000      4.013977000000000E-01      8.227343000000000E+01      1.789932000000000E-01     -4.705859000000000E+01      1.837769000000000E-01      8.674608000000000E+01      2.593536000000000E-01      7.056250000000000E+01
4810000000.000000      4.029999000000000E-01      8.257421000000000E+01      1.784286000000000E-01     -4.513085000000000E+01      1.827621000000000E-01      8.837109000000000E+01      2.562714000000000E-01      6.961719000000000E+01
4811000000.000000      4.031219000000000E-01      8.289063000000000E+01      1.777115000000000E-01     -4.347852000000000E+01      1.820984000000000E-01      9.003515000000000E+01      2.586517000000000E-01      6.864062000000000E+01
4812000000.000000      4.044189000000000E-01      8.316015000000000E+01      1.771545000000000E-01     -4.172656000000000E+01      1.820831000000000E-01      9.167187000000000E+01      2.596130000000000E-01      6.780078000000000E+01
4813000000.000000      4.029694000000000E-01      8.350000000000000E+01      1.764450000000000E-01     -3.989062000000000E+01      1.818695000000000E-01      9.340624000000000E+01      2.617798000000000E-01      6.728516000000000E+01
4814000000.000000      4.022522000000000E-01      8.375000000000000E+01      1.774216000000000E-01     -3.811132000000000E+01      1.818390000000000E-01      9.504686000000000E+01      2.604370000000000E-01      6.560156000000000E+01
4815000000.000000      4.016113000000000E-01      8.401171000000000E+01      1.777420000000000E-01     -3.644726000000000E+01      1.823578000000000E-01      9.667969000000000E+01      2.619324000000000E-01      6.457031000000000E+01
4816000000.000000      4.022369000000000E-01      8.431641000000000E+01      1.796494000000000E-01     -3.477930000000000E+01      1.842804000000000E-01      9.828514000000000E+01      2.598267000000000E-01      6.414063000000000E+01
4817000000.000000      3.997803000000000E-01      8.470312000000000E+01      1.805420000000000E-01     -3.318164000000000E+01      1.850967000000000E-01      9.988281000000000E+01      2.623749000000000E-01      6.331445000000000E+01
4818000000.000000      3.990631000000000E-01      8.490625000000000E+01      1.820450000000000E-01     -3.139551000000000E+01      1.868744000000000E-01      1.012930000000000E+02      2.612457000000000E-01      6.205859000000000E+01
4819000000.000000      3.980865000000000E-01      8.516796000000000E+01      1.843338000000000E-01     -2.988086000000000E+01      1.885223000000000E-01      1.029414000000000E+02      2.612457000000000E-01      6.103125000000000E+01
4820000000.000000      3.945923000000000E-01      8.546484000000000E+01      1.861343000000000E-01     -2.817383000000000E+01      1.908951000000000E-01      1.043047000000000E+02      2.605286000000000E-01      5.993359000000000E+01
4821000000.000000      3.938904000000000E-01      8.576172000000000E+01      1.890717000000000E-01     -2.678613000000000E+01      1.929398000000000E-01      1.056914000000000E+02      2.608032000000000E-01      5.913086000000000E+01
4822000000.000000      3.902588000000000E-01      8.598436000000000E+01      1.908798000000000E-01     -2.550097000000000E+01      1.952972000000000E-01      1.070469000000000E+02      2.599487000000000E-01      5.765429000000000E+01
4823000000.000000      3.880463000000000E-01      8.627344000000000E+01      1.943283000000000E-01     -2.394141000000000E+01      1.985779000000000E-01      1.085039000000000E+02      2.596588000000000E-01      5.635156000000000E+01
4824000000.000000      3.860168000000000E-01      8.662500000000000E+01      1.977539000000000E-01     -2.277930000000000E+01      2.018127000000000E-01      1.095430000000000E+02      2.588959000000000E-01      5.516211000000000E+01
4825000000.000000      3.823700000000000E-01      8.677343000000000E+01      2.008209000000000E-01     -2.155468000000000E+01      2.059555000000000E-01      1.107539000000000E+02      2.589111000000000E-01      5.387109000000000E+01
4826000000.000000      3.789368000000000E-01      8.714453000000000E+01      2.048721000000000E-01     -2.030468000000000E+01      2.088394000000000E-01      1.118867000000000E+02      2.573395000000000E-01      5.281250000000000E+01
4827000000.000000      3.755493000000000E-01      8.740234000000000E+01      2.085495000000000E-01     -1.917676000000000E+01      2.126846000000000E-01      1.129414000000000E+02      2.571716000000000E-01      5.176952000000000E+01
4828000000.000000      3.723450000000000E-01      8.759766000000000E+01      2.128220000000000E-01     -1.816602000000000E+01      2.166519000000000E-01      1.139336000000000E+02      2.562714000000000E-01      5.037109000000000E+01
4829000000.000000      3.676147000000000E-01      8.799608000000000E+01      2.169189000000000E-01     -1.721094000000000E+01      2.211685000000000E-01      1.148555000000000E+02      2.556000000000000E-01      4.915820000000000E+01
4830000000.000000      3.633270000000000E-01      8.814453000000000E+01      2.211990000000000E-01     -1.653320000000000E+01      2.253647000000000E-01      1.157461000000000E+02      2.541351000000000E-01      4.798828000000000E+01
4831000000.000000      3.584900000000000E-01      8.838671000000000E+01      2.254105000000000E-01     -1.565967000000000E+01      2.298279000000000E-01      1.166602000000000E+02      2.528839000000000E-01      4.684766000000000E+01
4832000000.000000      3.544922000000000E-01      8.878124000000000E+01      2.305527000000000E-01     -1.475342000000000E+01      2.341843000000000E-01      1.173867000000000E+02      2.495193000000000E-01      4.564258000000000E+01
4833000000.000000      3.493347000000000E-01      8.896484000000000E+01      2.348557000000000E-01     -1.405029000000000E+01      2.389679000000000E-01      1.180078000000000E+02      2.498779000000000E-01      4.431445000000000E+01
4834000000.000000      3.442383000000000E-01      8.922266000000000E+01      2.401428000000000E-01     -1.340332000000000E+01      2.441254000000000E-01      1.186601000000000E+02      2.488785000000000E-01      4.325976000000000E+01
4835000000.000000      3.395081000000000E-01      8.936327000000000E+01      2.455444000000000E-01     -1.288184000000000E+01      2.487946000000000E-01      1.192891000000000E+02      2.470932000000000E-01      4.146874000000000E+01
4836000000.000000      3.342438000000000E-01      8.969921000000000E+01      2.497940000000000E-01     -1.231982000000000E+01      2.540741000000000E-01      1.199375000000000E+02      2.448883000000000E-01      4.031054000000000E+01
4837000000.000000      3.280640000000000E-01      9.003906000000000E+01      2.551880000000000E-01     -1.211279000000000E+01      2.588806000000000E-01      1.203164000000000E+02      2.439651000000000E-01      3.900781000000000E+01
4838000000.000000      3.218384000000000E-01      9.014063000000000E+01      2.612610000000000E-01     -1.134766000000000E+01      2.640076000000000E-01      1.208398000000000E+02      2.416534000000000E-01      3.754297000000000E+01
4839000000.000000      3.173523000000000E-01      9.037500000000000E+01      2.664642000000000E-01     -1.104297000000000E+01      2.696228000000000E-01      1.211484000000000E+02      2.414169000000000E-01      3.598047000000000E+01
4840000000.000000      3.100891000000000E-01      9.051561000000000E+01      2.716522000000000E-01     -1.072852000000000E+01      2.746124000000000E-01      1.217031000000000E+02      2.377853000000000E-01      3.482226000000000E+01
4841000000.000000      3.051758000000000E-01      9.082422000000000E+01      2.775726000000000E-01     -1.054980000000000E+01      2.801971000000000E-01      1.219258000000000E+02      2.377625000000000E-01      3.341211000000000E+01
4842000000.000000      2.978821000000000E-01      9.101954000000000E+01      2.830963000000000E-01     -1.024756000000000E+01      2.851563000000000E-01      1.224336000000000E+02      2.349014000000000E-01      3.233203000000000E+01
4843000000.000000      2.916718000000000E-01      9.100000000000000E+01      2.895203000000000E-01     -1.014746000000000E+01      2.911835000000000E-01      1.225625000000000E+02      2.340698000000000E-01      3.096972000000000E+01
4844000000.000000      2.849121000000000E-01      9.126562000000000E+01      2.942505000000000E-01     -1.002100000000000E+01      2.960510000000000E-01      1.228711000000000E+02      2.306137000000000E-01      2.976269000000000E+01
4845000000.000000      2.776184000000000E-01      9.148438000000000E+01      3.000793000000000E-01     -9.750488000000000E+00      3.021240000000000E-01      1.230156000000000E+02      2.299194000000000E-01      2.801172000000000E+01
4846000000.000000      2.712708000000000E-01      9.159374000000000E+01      3.060913000000000E-01     -9.530762000000000E+00      3.079681000000000E-01      1.232813000000000E+02      2.287140000000000E-01      2.665625000000000E+01
4847000000.000000      2.643585000000000E-01      9.181250000000000E+01      3.115692000000000E-01     -9.535156000000000E+00      3.142242000000000E-01      1.234141000000000E+02      2.242889000000000E-01      2.497949000000000E+01
4848000000.000000      2.566528000000000E-01      9.186718000000000E+01      3.170929000000000E-01     -9.580078000000000E+00      3.196564000000000E-01      1.236172000000000E+02      2.239456000000000E-01      2.373047000000000E+01
4849000000.000000      2.496109000000000E-01      9.186327000000000E+01      3.239899000000000E-01     -9.555664000000000E+00      3.249969000000000E-01      1.237422000000000E+02      2.208633000000000E-01      2.269433000000000E+01
4850000000.000000      2.423325000000000E-01      9.189844000000000E+01      3.292542000000000E-01     -9.651855000000000E+00      3.307343000000000E-01      1.239180000000000E+02      2.196198000000000E-01      2.101465000000000E+01
4851000000.000000      2.343063000000000E-01      9.203905000000000E+01      3.358612000000000E-01     -9.750488000000000E+00      3.360138000000000E-01      1.239141000000000E+02      2.186279000000000E-01      1.941895000000000E+01
4852000000.000000      2.268219000000000E-01      9.206640000000000E+01      3.409882000000000E-01     -9.799805000000000E+00      3.420410000000000E-01      1.240234000000000E+02      2.159348000000000E-01      1.780273000000000E+01
4853000000.000000      2.189713000000000E-01      9.206640000000000E+01      3.461914000000000E-01     -9.817871000000000E+00      3.485260000000000E-01      1.240859000000000E+02      2.141113000000000E-01      1.622949000000000E+01
4854000000.000000      2.111053000000000E-01      9.185156000000000E+01      3.526154000000000E-01     -1.004980000000000E+01      3.546448000000000E-01      1.240508000000000E+02      2.125244000000000E-01      1.500830000000000E+01
4855000000.000000      2.038116000000000E-01      9.182812000000000E+01      3.584442000000000E-01     -1.011719000000000E+01      3.599548000000000E-01      1.240664000000000E+02      2.091217000000000E-01      1.356250000000000E+01
4856000000.000000      1.954575000000000E-01      9.162500000000000E+01      3.641052000000000E-01     -1.039453000000000E+01      3.657074000000000E-01      1.241133000000000E+02      2.080307000000000E-01      1.219873000000000E+01
4857000000.000000      1.876144000000000E-01      9.153124000000000E+01      3.701935000000000E-01     -1.042236000000000E+01      3.713837000000000E-01      1.241016000000000E+02      2.049866000000000E-01      1.060693000000000E+01
4858000000.000000      1.791077000000000E-01      9.115625000000000E+01      3.760223000000000E-01     -1.069385000000000E+01      3.764496000000000E-01      1.241211000000000E+02      2.026443000000000E-01      8.868652000000000E+00
4859000000.000000      1.710358000000000E-01      9.104687000000000E+01      3.818054000000000E-01     -1.101953000000000E+01      3.836060000000000E-01      1.240547000000000E+02      2.017899000000000E-01      7.397705000000000E+00
4860000000.000000      1.628265000000000E-01      9.075781000000000E+01      3.877106000000000E-01     -1.117188000000000E+01      3.885345000000000E-01      1.239766000000000E+02      1.990967000000000E-01      6.036865000000000E+00
4861000000.000000      1.541824000000000E-01      9.023438000000000E+01      3.929901000000000E-01     -1.136816000000000E+01      3.957367000000000E-01      1.239492000000000E+02      1.964188000000000E-01      4.450684000000000E+00
4862000000.000000      1.458664000000000E-01      8.972265000000000E+01      3.992310000000000E-01     -1.166211000000000E+01      4.018707000000000E-01      1.237656000000000E+02      1.955032000000000E-01      2.698486000000000E+00
4863000000.000000      1.373291000000000E-01      8.900000000000000E+01      4.039154000000000E-01     -1.211963000000000E+01      4.073486000000000E-01      1.237617000000000E+02      1.928329000000000E-01      1.518860000000000E+00
4864000000.000000      1.287766000000000E-01      8.807812000000000E+01      4.108582000000000E-01     -1.221826000000000E+01      4.131470000000000E-01      1.237617000000000E+02      1.912689000000000E-01     -1.812744000000000E-01
4865000000.000000      1.205063000000000E-01      8.728125000000000E+01      4.166412000000000E-01     -1.255908000000000E+01      4.194031000000000E-01      1.234141000000000E+02      1.895981000000000E-01     -1.690552000000000E+00
4866000000.000000      1.119385000000000E-01      8.580858000000000E+01      4.217682000000000E-01     -1.296143000000000E+01      4.246063000000000E-01      1.233437000000000E+02      1.871414000000000E-01     -3.135254000000000E+00
4867000000.000000      1.033096000000000E-01      8.466015000000000E+01      4.274139000000000E-01     -1.345557000000000E+01      4.302979000000000E-01      1.231914000000000E+02      1.851807000000000E-01     -4.707764000000000E+00
4868000000.000000      9.590530000000000E-02      8.300390000000000E+01      4.328766000000000E-01     -1.364941000000000E+01      4.362183000000000E-01      1.230820000000000E+02      1.826782000000000E-01     -6.021973000000000E+00
4869000000.000000      8.711243000000000E-02      8.096483000000000E+01      4.378204000000000E-01     -1.409863000000000E+01      4.418488000000000E-01      1.230742000000000E+02      1.805420000000000E-01     -7.697510000000000E+00
4870000000.000000      7.906342000000000E-02      7.862890000000000E+01      4.440308000000000E-01     -1.425342000000000E+01      4.480591000000000E-01      1.228750000000000E+02      1.792450000000000E-01     -9.158691000000000E+00
4871000000.000000      7.131195000000000E-02      7.523046000000000E+01      4.490814000000000E-01     -1.476709000000000E+01      4.527740000000000E-01      1.225820000000000E+02      1.768112000000000E-01     -1.064746000000000E+01
4872000000.000000      6.403351000000000E-02      7.142187000000000E+01      4.541626000000000E-01     -1.501709000000000E+01      4.604645000000000E-01      1.220937000000000E+02      1.750107000000000E-01     -1.219092000000000E+01
4873000000.000000      5.696487000000000E-02      6.665625000000000E+01      4.593353000000000E-01     -1.559521000000000E+01      4.652710000000000E-01      1.221328000000000E+02      1.724625000000000E-01     -1.392969000000000E+01
4874000000.000000      5.013275000000000E-02      6.025585000000000E+01      4.641113000000000E-01     -1.601269000000000E+01      4.724121000000000E-01      1.218008000000000E+02      1.710434000000000E-01     -1.526855000000000E+01
4875000000.000000      4.385567000000000E-02      5.229687000000000E+01      4.698029000000000E-01     -1.631836000000000E+01      4.776611000000000E-01      1.216133000000000E+02      1.684265000000000E-01     -1.676465000000000E+01
4876000000.000000      4.005814000000000E-02      4.289453000000000E+01      4.747467000000000E-01     -1.671387000000000E+01      4.831696000000000E-01      1.214531000000000E+02      1.667328000000000E-01     -1.862793000000000E+01
4877000000.000000      3.757477000000000E-02      2.905859000000000E+01      4.799500000000000E-01     -1.724512000000000E+01      4.895325000000000E-01      1.210234000000000E+02      1.642761000000000E-01     -1.979199000000000E+01
4878000000.000000      3.569984000000000E-02      1.598877000000000E+01      4.840393000000000E-01     -1.775391000000000E+01      4.940033000000000E-01      1.209805000000000E+02      1.624222000000000E-01     -2.141406000000000E+01
4879000000.000000      3.697205000000000E-02      2.511719000000000E+00      4.901581000000000E-01     -1.790527000000000E+01      4.996033000000000E-01      1.206406000000000E+02      1.604691000000000E-01     -2.300683000000000E+01
4880000000.000000      4.023361000000000E-02     -9.331543000000000E+00      4.963684000000000E-01     -1.852344000000000E+01      5.058899000000000E-01      1.203711000000000E+02      1.579971000000000E-01     -2.438965000000000E+01
4881000000.000000      4.378128000000000E-02     -1.938965000000000E+01      5.001831000000000E-01     -1.872363000000000E+01      5.107422000000000E-01      1.200195000000000E+02      1.557159000000000E-01     -2.585254000000000E+01
4882000000.000000      4.957008000000000E-02     -2.723730000000000E+01      5.052490000000000E-01     -1.934766000000000E+01      5.173950000000000E-01      1.197539000000000E+02      1.535339000000000E-01     -2.712597000000000E+01
