! Network Analyzer HP8722D
! Hewlett-Packard
! Data name: Linha & Wilkinson
! Saver's name: Rodrigo Anjos
! Comments: Teste da utilização de aquisição
continua pelo VNA HP8722D
! Time and date: 17/4/2025 12:40
!              Frequency                     S11                                                   S21                                                   S12                                                   S22
# HZ  S  MA R 50
4800000000.000000      3.328247000000000E-01     -1.138555000000000E+02      2.906189000000000E-01     -6.088085000000000E+01      2.843323000000000E-01     -1.752031000000000E+02      6.569824000000000E-01     -8.986719000000000E+01
4801000000.000000      3.308411000000000E-01     -1.148320000000000E+02      2.945099000000000E-01     -6.099218000000000E+01      2.874908000000000E-01     -1.750859000000000E+02      6.550293000000000E-01     -8.988672000000000E+01
4802000000.000000      3.299408000000000E-01     -1.157617000000000E+02      2.992096000000000E-01     -6.115429000000000E+01      2.921906000000000E-01     -1.748516000000000E+02      6.528931000000000E-01     -8.987108000000000E+01
4803000000.000000      3.298950000000000E-01     -1.169062000000000E+02      3.050537000000000E-01     -6.108788000000000E+01      2.953033000000000E-01     -1.748437000000000E+02      6.529541000000000E-01     -9.011719000000000E+01
4804000000.000000      3.294373000000000E-01     -1.177461000000000E+02      3.086853000000000E-01     -6.133789000000000E+01      3.003845000000000E-01     -1.748359000000000E+02      6.528015000000000E-01     -9.013672000000000E+01
4805000000.000000      3.300171000000000E-01     -1.187852000000000E+02      3.135071000000000E-01     -6.144140000000000E+01      3.047638000000000E-01     -1.745937000000000E+02      6.520691000000000E-01     -9.038280000000000E+01
4806000000.000000      3.285980000000000E-01     -1.197695000000000E+02      3.179626000000000E-01     -6.142578000000000E+01      3.074799000000000E-01     -1.743984000000000E+02      6.521301000000000E-01     -9.035936000000000E+01
4807000000.000000      3.285522000000000E-01     -1.208398000000000E+02      3.218536000000000E-01     -6.171484000000000E+01      3.122864000000000E-01     -1.744375000000000E+02      6.497498000000000E-01     -9.053905000000000E+01
4808000000.000000      3.292236000000000E-01     -1.218320000000000E+02      3.273010000000000E-01     -6.172852000000000E+01      3.158112000000000E-01     -1.743906000000000E+02      6.498108000000000E-01     -9.060156000000000E+01
4809000000.000000      3.293915000000000E-01     -1.229961000000000E+02      3.315430000000000E-01     -6.215429000000000E+01      3.210754000000000E-01     -1.743281000000000E+02      6.495972000000000E-01     -9.071484000000000E+01
4810000000.000000      3.304749000000000E-01     -1.240742000000000E+02      3.360748000000000E-01     -6.214844000000000E+01      3.246307000000000E-01     -1.741953000000000E+02      6.496582000000000E-01     -9.071875000000000E+01
4811000000.000000      3.317566000000000E-01     -1.251953000000000E+02      3.394012000000000E-01     -6.253320000000000E+01      3.294678000000000E-01     -1.740859000000000E+02      6.495667000000000E-01     -9.078516000000000E+01
4812000000.000000      3.332825000000000E-01     -1.261484000000000E+02      3.438416000000000E-01     -6.277734000000000E+01      3.334656000000000E-01     -1.740156000000000E+02      6.498413000000000E-01     -9.085938000000000E+01
4813000000.000000      3.338165000000000E-01     -1.272266000000000E+02      3.478546000000000E-01     -6.268555000000000E+01      3.366394000000000E-01     -1.740313000000000E+02      6.492310000000000E-01     -9.089062000000000E+01
4814000000.000000      3.345032000000000E-01     -1.285703000000000E+02      3.528748000000000E-01     -6.305859000000000E+01      3.405457000000000E-01     -1.740391000000000E+02      6.493530000000000E-01     -9.117968000000000E+01
4815000000.000000      3.369141000000000E-01     -1.294609000000000E+02      3.557129000000000E-01     -6.330078000000000E+01      3.441620000000000E-01     -1.739687000000000E+02      6.492310000000000E-01     -9.107031000000000E+01
4816000000.000000      3.390350000000000E-01     -1.305938000000000E+02      3.604279000000000E-01     -6.338281000000000E+01      3.494263000000000E-01     -1.738203000000000E+02      6.488953000000000E-01     -9.117579000000000E+01
4817000000.000000      3.411255000000000E-01     -1.316015000000000E+02      3.644104000000000E-01     -6.375977000000000E+01      3.521576000000000E-01     -1.739375000000000E+02      6.488953000000000E-01     -9.126953000000000E+01
4818000000.000000      3.432007000000000E-01     -1.327422000000000E+02      3.672485000000000E-01     -6.394140000000000E+01      3.572388000000000E-01     -1.738203000000000E+02      6.491699000000000E-01     -9.147655000000000E+01
4819000000.000000      3.458862000000000E-01     -1.339062000000000E+02      3.722839000000000E-01     -6.429296000000000E+01      3.605804000000000E-01     -1.736953000000000E+02      6.515808000000000E-01     -9.151171000000000E+01
4820000000.000000      3.477020000000000E-01     -1.349688000000000E+02      3.758698000000000E-01     -6.430078000000000E+01      3.651428000000000E-01     -1.737031000000000E+02      6.512756000000000E-01     -9.154688000000000E+01
4821000000.000000      3.510590000000000E-01     -1.360312000000000E+02      3.812103000000000E-01     -6.460938000000000E+01      3.685150000000000E-01     -1.739609000000000E+02      6.506042000000000E-01     -9.166796000000000E+01
4822000000.000000      3.558502000000000E-01     -1.371562000000000E+02      3.841858000000000E-01     -6.490624000000000E+01      3.723145000000000E-01     -1.738984000000000E+02      6.531372000000000E-01     -9.170702000000000E+01
4823000000.000000      3.577423000000000E-01     -1.380469000000000E+02      3.876801000000000E-01     -6.519921000000000E+01      3.760223000000000E-01     -1.736719000000000E+02      6.535645000000000E-01     -9.178514000000000E+01
4824000000.000000      3.620453000000000E-01     -1.391953000000000E+02      3.916626000000000E-01     -6.560547000000000E+01      3.808441000000000E-01     -1.737734000000000E+02      6.547546000000000E-01     -9.185547000000000E+01
4825000000.000000      3.646698000000000E-01     -1.401562000000000E+02      3.951111000000000E-01     -6.580468000000000E+01      3.850555000000000E-01     -1.735937000000000E+02      6.558533000000000E-01     -9.191406000000000E+01
4826000000.000000      3.699493000000000E-01     -1.411719000000000E+02      3.992310000000000E-01     -6.610546000000000E+01      3.881531000000000E-01     -1.738047000000000E+02      6.562805000000000E-01     -9.201172000000000E+01
4827000000.000000      3.736115000000000E-01     -1.419766000000000E+02      4.033661000000000E-01     -6.623437000000000E+01      3.925018000000000E-01     -1.736562000000000E+02      6.587524000000000E-01     -9.208984000000000E+01
4828000000.000000      3.784790000000000E-01     -1.430234000000000E+02      4.067993000000000E-01     -6.653515000000000E+01      3.959503000000000E-01     -1.736250000000000E+02      6.605530000000000E-01     -9.208593000000000E+01
4829000000.000000      3.807220000000000E-01     -1.439531000000000E+02      4.096680000000000E-01     -6.699609000000000E+01      3.999939000000000E-01     -1.737344000000000E+02      6.607666000000000E-01     -9.207031000000000E+01
4830000000.000000      3.866272000000000E-01     -1.448672000000000E+02      4.134369000000000E-01     -6.719140000000000E+01      4.046936000000000E-01     -1.737500000000000E+02      6.620483000000000E-01     -9.232422000000000E+01
4831000000.000000      3.900604000000000E-01     -1.458047000000000E+02      4.172363000000000E-01     -6.751953000000000E+01      4.086304000000000E-01     -1.736641000000000E+02      6.642151000000000E-01     -9.230860000000000E+01
4832000000.000000      3.960571000000000E-01     -1.467187000000000E+02      4.199371000000000E-01     -6.776562000000000E+01      4.127045000000000E-01     -1.738516000000000E+02      6.659241000000000E-01     -9.246485000000000E+01
4833000000.000000      4.013062000000000E-01     -1.477031000000000E+02      4.237213000000000E-01     -6.797265000000000E+01      4.162140000000000E-01     -1.738516000000000E+02      6.671143000000000E-01     -9.239452000000000E+01
4834000000.000000      4.055634000000000E-01     -1.485937000000000E+02      4.270630000000000E-01     -6.830468000000000E+01      4.204102000000000E-01     -1.738750000000000E+02      6.685791000000000E-01     -9.247656000000000E+01
4835000000.000000      4.100952000000000E-01     -1.492969000000000E+02      4.308624000000000E-01     -6.874609000000000E+01      4.249878000000000E-01     -1.738984000000000E+02      6.712646000000000E-01     -9.263281000000000E+01
4836000000.000000      4.160614000000000E-01     -1.501016000000000E+02      4.342651000000000E-01     -6.900000000000000E+01      4.290161000000000E-01     -1.738906000000000E+02      6.728821000000000E-01     -9.259766000000000E+01
4837000000.000000      4.206085000000000E-01     -1.509297000000000E+02      4.363708000000000E-01     -6.943359000000000E+01      4.322052000000000E-01     -1.740703000000000E+02      6.743469000000000E-01     -9.268358000000000E+01
4838000000.000000      4.261780000000000E-01     -1.517891000000000E+02      4.402466000000000E-01     -6.966406000000000E+01      4.369812000000000E-01     -1.740547000000000E+02      6.770630000000000E-01     -9.274218000000000E+01
4839000000.000000      4.310150000000000E-01     -1.524531000000000E+02      4.425354000000000E-01     -6.974999000000000E+01      4.407501000000000E-01     -1.741016000000000E+02      6.797485000000000E-01     -9.262499000000000E+01
4840000000.000000      4.355774000000000E-01     -1.533359000000000E+02      4.461670000000000E-01     -7.006640000000000E+01      4.455109000000000E-01     -1.742031000000000E+02      6.812439000000000E-01     -9.278515000000000E+01
4841000000.000000      4.412079000000000E-01     -1.541250000000000E+02      4.484100000000000E-01     -7.059765000000000E+01      4.489746000000000E-01     -1.743203000000000E+02      6.840515000000000E-01     -9.290625000000000E+01
4842000000.000000      4.469147000000000E-01     -1.547969000000000E+02      4.517517000000000E-01     -7.092187000000000E+01      4.526825000000000E-01     -1.743203000000000E+02      6.866150000000000E-01     -9.290625000000000E+01
4843000000.000000      4.513397000000000E-01     -1.555625000000000E+02      4.543762000000000E-01     -7.119141000000000E+01      4.566345000000000E-01     -1.743828000000000E+02      6.891479000000000E-01     -9.288671000000000E+01
4844000000.000000      4.565277000000000E-01     -1.562656000000000E+02      4.569550000000000E-01     -7.153125000000000E+01      4.610748000000000E-01     -1.745312000000000E+02      6.906738000000000E-01     -9.305859000000000E+01
4845000000.000000      4.614410000000000E-01     -1.569141000000000E+02      4.596710000000000E-01     -7.173828000000000E+01      4.651337000000000E-01     -1.746016000000000E+02      6.927490000000000E-01     -9.294922000000000E+01
4846000000.000000      4.666901000000000E-01     -1.575156000000000E+02      4.624481000000000E-01     -7.212500000000000E+01      4.696503000000000E-01     -1.747031000000000E+02      6.966553000000000E-01     -9.307421000000000E+01
4847000000.000000      4.727631000000000E-01     -1.582344000000000E+02      4.651031000000000E-01     -7.241015000000000E+01      4.738922000000000E-01     -1.748516000000000E+02      6.995239000000000E-01     -9.330078000000000E+01
4848000000.000000      4.773102000000000E-01     -1.588203000000000E+02      4.670563000000000E-01     -7.280078000000000E+01      4.774780000000000E-01     -1.748828000000000E+02      7.018738000000000E-01     -9.328905000000000E+01
4849000000.000000      4.822693000000000E-01     -1.597344000000000E+02      4.710388000000000E-01     -7.321875000000000E+01      4.821167000000000E-01     -1.750469000000000E+02      7.052917000000000E-01     -9.318750000000000E+01
4850000000.000000      4.873199000000000E-01     -1.601250000000000E+02      4.730682000000000E-01     -7.335155000000000E+01      4.855042000000000E-01     -1.751797000000000E+02      7.064209000000000E-01     -9.326172000000000E+01
4851000000.000000      4.918671000000000E-01     -1.606719000000000E+02      4.752197000000000E-01     -7.393359000000000E+01      4.889069000000000E-01     -1.752656000000000E+02      7.108154000000000E-01     -9.336329000000000E+01
4852000000.000000      4.970398000000000E-01     -1.613203000000000E+02      4.777069000000000E-01     -7.416797000000000E+01      4.940033000000000E-01     -1.754297000000000E+02      7.134094000000000E-01     -9.332031000000000E+01
4853000000.000000      5.016174000000000E-01     -1.618438000000000E+02      4.781342000000000E-01     -7.437500000000000E+01      4.974518000000000E-01     -1.755859000000000E+02      7.160950000000000E-01     -9.350000000000000E+01
4854000000.000000      5.060425000000000E-01     -1.624141000000000E+02      4.805756000000000E-01     -7.479297000000000E+01      5.012817000000000E-01     -1.756797000000000E+02      7.194519000000000E-01     -9.351171000000000E+01
4855000000.000000      5.087585000000000E-01     -1.630469000000000E+02      4.832916000000000E-01     -7.508203000000000E+01      5.036621000000000E-01     -1.758516000000000E+02      7.214966000000000E-01     -9.349218000000000E+01
4856000000.000000      5.140076000000000E-01     -1.634219000000000E+02      4.844055000000000E-01     -7.535937000000000E+01      5.081787000000000E-01     -1.760234000000000E+02      7.241516000000000E-01     -9.357031000000000E+01
4857000000.000000      5.179443000000000E-01     -1.640391000000000E+02      4.874268000000000E-01     -7.571484000000000E+01      5.117493000000000E-01     -1.760937000000000E+02      7.272034000000000E-01     -9.360155000000000E+01
4858000000.000000      5.204468000000000E-01     -1.646016000000000E+02      4.883270000000000E-01     -7.602344000000000E+01      5.164490000000000E-01     -1.763047000000000E+02      7.305298000000000E-01     -9.365234000000000E+01
4859000000.000000      5.246887000000000E-01     -1.650312000000000E+02      4.913177000000000E-01     -7.629687000000000E+01      5.210571000000000E-01     -1.764922000000000E+02      7.349854000000000E-01     -9.367968000000000E+01
4860000000.000000      5.287170000000000E-01     -1.655313000000000E+02      4.922943000000000E-01     -7.641406000000000E+01      5.228271000000000E-01     -1.766484000000000E+02      7.357483000000000E-01     -9.376562000000000E+01
4861000000.000000      5.326233000000000E-01     -1.658906000000000E+02      4.942780000000000E-01     -7.702734000000000E+01      5.260620000000000E-01     -1.767969000000000E+02      7.392883000000000E-01     -9.388672000000000E+01
4862000000.000000      5.348816000000000E-01     -1.663437000000000E+02      4.967804000000000E-01     -7.719921000000000E+01      5.305786000000000E-01     -1.769922000000000E+02      7.434082000000000E-01     -9.380468000000000E+01
4863000000.000000      5.376892000000000E-01     -1.667891000000000E+02      4.967041000000000E-01     -7.760937000000000E+01      5.333557000000000E-01     -1.772031000000000E+02      7.464905000000000E-01     -9.389063000000000E+01
4864000000.000000      5.412903000000000E-01     -1.672188000000000E+02      4.998932000000000E-01     -7.780859000000000E+01      5.370178000000000E-01     -1.773203000000000E+02      7.479858000000000E-01     -9.388672000000000E+01
4865000000.000000      5.437012000000000E-01     -1.676563000000000E+02      5.006714000000000E-01     -7.813671000000000E+01      5.408936000000000E-01     -1.774531000000000E+02      7.515259000000000E-01     -9.389063000000000E+01
4866000000.000000      5.452881000000000E-01     -1.679141000000000E+02      5.019226000000000E-01     -7.820313000000000E+01      5.440369000000000E-01     -1.777578000000000E+02      7.540283000000000E-01     -9.389452000000000E+01
4867000000.000000      5.476990000000000E-01     -1.682734000000000E+02      5.038757000000000E-01     -7.859765000000000E+01      5.454102000000000E-01     -1.778516000000000E+02      7.568970000000000E-01     -9.401171000000000E+01
4868000000.000000      5.502930000000000E-01     -1.686953000000000E+02      5.048828000000000E-01     -7.880077000000000E+01      5.495911000000000E-01     -1.780469000000000E+02      7.581177000000000E-01     -9.403515000000000E+01
4869000000.000000      5.516968000000000E-01     -1.690625000000000E+02      5.033875000000000E-01     -7.926171000000000E+01      5.523682000000000E-01     -1.783047000000000E+02      7.606506000000000E-01     -9.423046000000000E+01
4870000000.000000      5.533447000000000E-01     -1.693438000000000E+02      5.062561000000000E-01     -7.941015000000000E+01      5.550842000000000E-01     -1.786094000000000E+02      7.653198000000000E-01     -9.414843000000000E+01
4871000000.000000      5.553894000000000E-01     -1.697422000000000E+02      5.083008000000000E-01     -7.985156000000000E+01      5.565186000000000E-01     -1.787734000000000E+02      7.669678000000000E-01     -9.430859000000000E+01
4872000000.000000      5.574341000000000E-01     -1.699062000000000E+02      5.087280000000000E-01     -7.984765000000000E+01      5.596313000000000E-01     -1.791250000000000E+02      7.706909000000000E-01     -9.427734000000000E+01
4873000000.000000      5.582886000000000E-01     -1.702188000000000E+02      5.098267000000000E-01     -8.027344000000000E+01      5.610352000000000E-01     -1.791875000000000E+02      7.728882000000000E-01     -9.437891000000000E+01
4874000000.000000      5.591125000000000E-01     -1.703906000000000E+02      5.118103000000000E-01     -8.041407000000000E+01      5.660400000000000E-01     -1.792891000000000E+02      7.735901000000000E-01     -9.414843000000000E+01
4875000000.000000      5.604553000000000E-01     -1.708281000000000E+02      5.124207000000000E-01     -8.057812000000000E+01      5.676270000000000E-01     -1.795703000000000E+02      7.769165000000000E-01     -9.442577000000000E+01
4876000000.000000      5.599060000000000E-01     -1.709609000000000E+02      5.136719000000000E-01     -8.081249000000000E+01      5.693359000000000E-01     -1.798594000000000E+02      7.801208000000000E-01     -9.451563000000000E+01
4877000000.000000      5.604858000000000E-01     -1.711328000000000E+02      5.149841000000000E-01     -8.107031000000000E+01      5.708618000000000E-01      1.798594000000000E+02      7.820129000000000E-01     -9.455469000000000E+01
4878000000.000000      5.618896000000000E-01     -1.712734000000000E+02      5.162659000000000E-01     -8.136328000000000E+01      5.731201000000000E-01      1.797891000000000E+02      7.846069000000000E-01     -9.466015000000000E+01
4879000000.000000      5.624390000000000E-01     -1.715312000000000E+02      5.147095000000000E-01     -8.141796000000000E+01      5.767517000000000E-01      1.794297000000000E+02      7.851257000000000E-01     -9.445704000000000E+01
4880000000.000000      5.617676000000000E-01     -1.716797000000000E+02      5.177612000000000E-01     -8.187891000000000E+01      5.798035000000000E-01      1.793828000000000E+02      7.892761000000000E-01     -9.467188000000000E+01
4881000000.000000      5.622559000000000E-01     -1.717578000000000E+02      5.194702000000000E-01     -8.173046000000000E+01      5.805969000000000E-01      1.790469000000000E+02      7.908325000000000E-01     -9.464062000000000E+01
4882000000.000000      5.615845000000000E-01     -1.719375000000000E+02      5.210266000000000E-01     -8.195704000000000E+01      5.820007000000000E-01      1.787969000000000E+02      7.923889000000000E-01     -9.476171000000000E+01
