! Network Analyzer HP8722D
! Hewlett-Packard
! Data name: Linha & Wilkinson
! Saver's name: Rodrigo Anjos
! Comments: Teste da utilização de aquisição
continua pelo VNA HP8722D
! Time and date: 17/4/2025 12:09
!              Frequency                     S11                                                   S21                                                   S12                                                   S22
# HZ  S  MA R 50
4800000000.000000      2.727356000000000E-01      8.516016000000000E+01      5.809021000000000E-01      1.486406000000000E+02      4.830017000000000E-01     -1.125430000000000E+02      7.220459000000000E-01     -6.106640000000000E+01
4801000000.000000      2.654114000000000E-01      8.537889000000000E+01      5.818787000000000E-01      1.485625000000000E+02      4.836731000000000E-01     -1.126914000000000E+02      7.172241000000000E-01     -6.114062000000000E+01
4802000000.000000      2.569122000000000E-01      8.563280000000000E+01      5.801392000000000E-01      1.483984000000000E+02      4.849854000000000E-01     -1.126211000000000E+02      7.124329000000000E-01     -6.103320000000000E+01
4803000000.000000      2.487488000000000E-01      8.581640000000000E+01      5.825500000000000E-01      1.481875000000000E+02      4.846954000000000E-01     -1.126055000000000E+02      7.064514000000000E-01     -6.127539000000000E+01
4804000000.000000      2.406235000000000E-01      8.618750000000000E+01      5.833130000000000E-01      1.476719000000000E+02      4.862061000000000E-01     -1.127500000000000E+02      7.013245000000000E-01     -6.129687000000000E+01
4805000000.000000      2.326965000000000E-01      8.635546000000000E+01      5.857239000000000E-01      1.475859000000000E+02      4.868317000000000E-01     -1.125508000000000E+02      6.958313000000000E-01     -6.138281000000000E+01
4806000000.000000      2.238617000000000E-01      8.662889000000000E+01      5.837708000000000E-01      1.471172000000000E+02      4.866943000000000E-01     -1.124023000000000E+02      6.901245000000000E-01     -6.151953000000000E+01
4807000000.000000      2.154846000000000E-01      8.702343000000000E+01      5.870972000000000E-01      1.467734000000000E+02      4.887085000000000E-01     -1.126055000000000E+02      6.835327000000000E-01     -6.154101000000000E+01
4808000000.000000      2.067871000000000E-01      8.746485000000000E+01      5.863647000000000E-01      1.469063000000000E+02      4.902039000000000E-01     -1.126250000000000E+02      6.781616000000000E-01     -6.162109000000000E+01
4809000000.000000      1.976929000000000E-01      8.776953000000000E+01      5.870361000000000E-01      1.462734000000000E+02      4.913788000000000E-01     -1.125742000000000E+02      6.737671000000000E-01     -6.169335000000000E+01
4810000000.000000      1.893845000000000E-01      8.830078000000000E+01      5.887756000000000E-01      1.461094000000000E+02      4.907074000000000E-01     -1.124805000000000E+02      6.683655000000000E-01     -6.190234000000000E+01
4811000000.000000      1.805496000000000E-01      8.880859000000000E+01      5.891724000000000E-01      1.455781000000000E+02      4.930420000000000E-01     -1.122930000000000E+02      6.624451000000000E-01     -6.179688000000000E+01
4812000000.000000      1.716003000000000E-01      8.925781000000000E+01      5.872192000000000E-01      1.454062000000000E+02      4.920349000000000E-01     -1.124101000000000E+02      6.571960000000000E-01     -6.193359000000000E+01
4813000000.000000      1.622543000000000E-01      8.985546000000000E+01      5.879211000000000E-01      1.451641000000000E+02      4.943695000000000E-01     -1.123398000000000E+02      6.536255000000000E-01     -6.194726000000000E+01
4814000000.000000      1.531601000000000E-01      9.035156000000000E+01      5.889282000000000E-01      1.446719000000000E+02      4.945679000000000E-01     -1.124492000000000E+02      6.471558000000000E-01     -6.213476000000000E+01
4815000000.000000      1.433258000000000E-01      9.134375000000000E+01      5.885010000000000E-01      1.442109000000000E+02      4.949188000000000E-01     -1.122890000000000E+02      6.426697000000000E-01     -6.202148000000000E+01
4816000000.000000      1.348877000000000E-01      9.193750000000000E+01      5.896606000000000E-01      1.441094000000000E+02      4.972534000000000E-01     -1.121016000000000E+02      6.371765000000000E-01     -6.219140000000000E+01
4817000000.000000      1.251831000000000E-01      9.316406000000000E+01      5.885315000000000E-01      1.437266000000000E+02      4.980927000000000E-01     -1.121523000000000E+02      6.323853000000000E-01     -6.222851000000000E+01
4818000000.000000      1.161499000000000E-01      9.405859000000000E+01      5.871277000000000E-01      1.433750000000000E+02      4.974365000000000E-01     -1.120430000000000E+02      6.263428000000000E-01     -6.218554000000000E+01
4819000000.000000      1.069031000000000E-01      9.504297000000000E+01      5.875549000000000E-01      1.430547000000000E+02      4.976959000000000E-01     -1.119180000000000E+02      6.226501000000000E-01     -6.245507000000000E+01
4820000000.000000      9.740448000000000E-02      9.674999000000000E+01      5.853271000000000E-01      1.427734000000000E+02      5.000305000000000E-01     -1.118906000000000E+02      6.177368000000000E-01     -6.237695000000000E+01
4821000000.000000      8.837509000000000E-02      9.822266000000000E+01      5.879822000000000E-01      1.421797000000000E+02      4.999390000000000E-01     -1.120703000000000E+02      6.116943000000000E-01     -6.253906000000000E+01
4822000000.000000      7.890320000000000E-02      1.006055000000000E+02      5.877380000000000E-01      1.418750000000000E+02      4.990845000000000E-01     -1.118555000000000E+02      6.091309000000000E-01     -6.258984000000000E+01
4823000000.000000      7.003403000000000E-02      1.029453000000000E+02      5.876465000000000E-01      1.415469000000000E+02      5.006104000000000E-01     -1.118828000000000E+02      6.042786000000000E-01     -6.253906000000000E+01
4824000000.000000      6.163979000000000E-02      1.064101000000000E+02      5.865784000000000E-01      1.411719000000000E+02      5.027161000000000E-01     -1.116992000000000E+02      5.995789000000000E-01     -6.268945000000000E+01
4825000000.000000      5.240631000000000E-02      1.101719000000000E+02      5.852051000000000E-01      1.408750000000000E+02      5.038757000000000E-01     -1.116914000000000E+02      5.956116000000000E-01     -6.286133000000000E+01
4826000000.000000      4.468346000000000E-02      1.162852000000000E+02      5.849609000000000E-01      1.405547000000000E+02      5.026245000000000E-01     -1.115937000000000E+02      5.912476000000000E-01     -6.292187000000000E+01
4827000000.000000      3.689003000000000E-02      1.244727000000000E+02      5.835266000000000E-01      1.401328000000000E+02      5.023193000000000E-01     -1.115859000000000E+02      5.870972000000000E-01     -6.297265000000000E+01
4828000000.000000      3.057957000000000E-02      1.367656000000000E+02      5.856018000000000E-01      1.396641000000000E+02      5.030212000000000E-01     -1.116328000000000E+02      5.834656000000000E-01     -6.304688000000000E+01
4829000000.000000      2.564335000000000E-02      1.538672000000000E+02      5.828857000000000E-01      1.392266000000000E+02      5.037231000000000E-01     -1.115156000000000E+02      5.808411000000000E-01     -6.305469000000000E+01
4830000000.000000      2.422237000000000E-02      1.757266000000000E+02      5.810242000000000E-01      1.387578000000000E+02      5.043945000000000E-01     -1.114414000000000E+02      5.752258000000000E-01     -6.316015000000000E+01
4831000000.000000      2.641106000000000E-02     -1.631172000000000E+02      5.797729000000000E-01      1.385313000000000E+02      5.050354000000000E-01     -1.112070000000000E+02      5.715637000000000E-01     -6.327343000000000E+01
4832000000.000000      3.135872000000000E-02     -1.471719000000000E+02      5.780945000000000E-01      1.382344000000000E+02      5.047302000000000E-01     -1.112266000000000E+02      5.669250000000000E-01     -6.314843000000000E+01
4833000000.000000      3.795815000000000E-02     -1.351719000000000E+02      5.778503000000000E-01      1.378906000000000E+02      5.058594000000000E-01     -1.112344000000000E+02      5.640869000000000E-01     -6.330468000000000E+01
4834000000.000000      4.560089000000000E-02     -1.283203000000000E+02      5.757141000000000E-01      1.373359000000000E+02      5.066223000000000E-01     -1.111055000000000E+02      5.599060000000000E-01     -6.331055000000000E+01
4835000000.000000      5.268669000000000E-02     -1.226992000000000E+02      5.737610000000000E-01      1.369688000000000E+02      5.065613000000000E-01     -1.112070000000000E+02      5.567322000000000E-01     -6.348827000000000E+01
4836000000.000000      6.163025000000000E-02     -1.181484000000000E+02      5.695801000000000E-01      1.366641000000000E+02      5.060730000000000E-01     -1.111328000000000E+02      5.534363000000000E-01     -6.340429000000000E+01
4837000000.000000      7.008362000000000E-02     -1.151601000000000E+02      5.704041000000000E-01      1.360156000000000E+02      5.071716000000000E-01     -1.111680000000000E+02      5.495300000000000E-01     -6.333202000000000E+01
4838000000.000000      7.833099000000000E-02     -1.127383000000000E+02      5.693359000000000E-01      1.359297000000000E+02      5.080261000000000E-01     -1.109101000000000E+02      5.469360000000000E-01     -6.348827000000000E+01
4839000000.000000      8.704376000000000E-02     -1.103203000000000E+02      5.661011000000000E-01      1.355234000000000E+02      5.068970000000000E-01     -1.107813000000000E+02      5.442200000000000E-01     -6.363476000000000E+01
4840000000.000000      9.576416000000000E-02     -1.089375000000000E+02      5.651245000000000E-01      1.352890000000000E+02      5.085449000000000E-01     -1.109648000000000E+02      5.402222000000000E-01     -6.358007000000000E+01
4841000000.000000      1.040230000000000E-01     -1.075625000000000E+02      5.616150000000000E-01      1.346562000000000E+02      5.070190000000000E-01     -1.109883000000000E+02      5.386658000000000E-01     -6.359961000000000E+01
4842000000.000000      1.128082000000000E-01     -1.061914000000000E+02      5.596924000000000E-01      1.344297000000000E+02      5.072021000000000E-01     -1.108594000000000E+02      5.357666000000000E-01     -6.360352000000000E+01
4843000000.000000      1.209717000000000E-01     -1.050859000000000E+02      5.569458000000000E-01      1.340156000000000E+02      5.085754000000000E-01     -1.109141000000000E+02      5.319214000000000E-01     -6.369141000000000E+01
4844000000.000000      1.297302000000000E-01     -1.042031000000000E+02      5.531006000000000E-01      1.337656000000000E+02      5.087585000000000E-01     -1.108906000000000E+02      5.294800000000000E-01     -6.372265000000000E+01
4845000000.000000      1.379242000000000E-01     -1.030430000000000E+02      5.516052000000000E-01      1.334063000000000E+02      5.070801000000000E-01     -1.108203000000000E+02      5.263977000000000E-01     -6.371679000000000E+01
4846000000.000000      1.463394000000000E-01     -1.021172000000000E+02      5.506897000000000E-01      1.331797000000000E+02      5.079956000000000E-01     -1.107539000000000E+02      5.238647000000000E-01     -6.371288000000000E+01
4847000000.000000      1.545944000000000E-01     -1.016836000000000E+02      5.457153000000000E-01      1.328516000000000E+02      5.088806000000000E-01     -1.107578000000000E+02      5.207214000000000E-01     -6.387890000000000E+01
4848000000.000000      1.629410000000000E-01     -1.008555000000000E+02      5.433044000000000E-01      1.325781000000000E+02      5.093079000000000E-01     -1.108711000000000E+02      5.183105000000000E-01     -6.380859000000000E+01
4849000000.000000      1.700668000000000E-01     -1.005000000000000E+02      5.418396000000000E-01      1.321328000000000E+02      5.074768000000000E-01     -1.106875000000000E+02      5.166321000000000E-01     -6.378515000000000E+01
4850000000.000000      1.789780000000000E-01     -9.980469000000000E+01      5.377197000000000E-01      1.317656000000000E+02      5.070190000000000E-01     -1.106602000000000E+02      5.134888000000000E-01     -6.379492000000000E+01
4851000000.000000      1.864700000000000E-01     -9.926952000000000E+01      5.364990000000000E-01      1.315391000000000E+02      5.066528000000000E-01     -1.106250000000000E+02      5.122070000000000E-01     -6.386719000000000E+01
4852000000.000000      1.944733000000000E-01     -9.889061000000000E+01      5.331726000000000E-01      1.311563000000000E+02      5.068054000000000E-01     -1.106133000000000E+02      5.085754000000000E-01     -6.383203000000000E+01
4853000000.000000      2.018051000000000E-01     -9.839844000000000E+01      5.296936000000000E-01      1.309062000000000E+02      5.049438000000000E-01     -1.106016000000000E+02      5.062866000000000E-01     -6.392578000000000E+01
4854000000.000000      2.095642000000000E-01     -9.783592000000000E+01      5.272217000000000E-01      1.304375000000000E+02      5.051270000000000E-01     -1.109180000000000E+02      5.055237000000000E-01     -6.382813000000000E+01
4855000000.000000      2.163010000000000E-01     -9.763281000000000E+01      5.239258000000000E-01      1.303516000000000E+02      5.045471000000000E-01     -1.107031000000000E+02      5.015259000000000E-01     -6.375195000000000E+01
4856000000.000000      2.246552000000000E-01     -9.732811000000000E+01      5.202637000000000E-01      1.298828000000000E+02      5.031738000000000E-01     -1.106992000000000E+02      5.001526000000000E-01     -6.376367000000000E+01
4857000000.000000      2.319946000000000E-01     -9.684374000000000E+01      5.188293000000000E-01      1.298047000000000E+02      5.028076000000000E-01     -1.107578000000000E+02      4.974976000000000E-01     -6.367578000000000E+01
4858000000.000000      2.375488000000000E-01     -9.667969000000000E+01      5.147705000000000E-01      1.295000000000000E+02      5.038757000000000E-01     -1.107851000000000E+02      4.967499000000000E-01     -6.373437000000000E+01
4859000000.000000      2.449341000000000E-01     -9.639843000000000E+01      5.118408000000000E-01      1.291016000000000E+02      5.028992000000000E-01     -1.108203000000000E+02      4.944153000000000E-01     -6.367578000000000E+01
4860000000.000000      2.520142000000000E-01     -9.624218000000000E+01      5.088501000000000E-01      1.289687000000000E+02      4.992676000000000E-01     -1.108203000000000E+02      4.930878000000000E-01     -6.345898000000000E+01
4861000000.000000      2.589722000000000E-01     -9.589844000000000E+01      5.060425000000000E-01      1.286328000000000E+02      5.003052000000000E-01     -1.110234000000000E+02      4.906311000000000E-01     -6.340038000000000E+01
4862000000.000000      2.651825000000000E-01     -9.564844000000000E+01      5.043335000000000E-01      1.283984000000000E+02      4.995422000000000E-01     -1.109727000000000E+02      4.888153000000000E-01     -6.348827000000000E+01
4863000000.000000      2.711029000000000E-01     -9.544922000000000E+01      4.998322000000000E-01      1.279492000000000E+02      4.987946000000000E-01     -1.108359000000000E+02      4.865570000000000E-01     -6.324023000000000E+01
4864000000.000000      2.778168000000000E-01     -9.536718000000000E+01      4.969940000000000E-01      1.278867000000000E+02      4.965515000000000E-01     -1.110078000000000E+02      4.847870000000000E-01     -6.331055000000000E+01
4865000000.000000      2.830811000000000E-01     -9.520702000000000E+01      4.946594000000000E-01      1.276836000000000E+02      4.962311000000000E-01     -1.109766000000000E+02      4.845276000000000E-01     -6.301758000000000E+01
4866000000.000000      2.891846000000000E-01     -9.499218000000000E+01      4.915771000000000E-01      1.274101000000000E+02      4.954834000000000E-01     -1.111562000000000E+02      4.830627000000000E-01     -6.295312000000000E+01
4867000000.000000      2.942963000000000E-01     -9.490234000000000E+01      4.876862000000000E-01      1.270976000000000E+02      4.929352000000000E-01     -1.111367000000000E+02      4.804535000000000E-01     -6.278125000000000E+01
4868000000.000000      3.002930000000000E-01     -9.482813000000000E+01      4.851227000000000E-01      1.270039000000000E+02      4.927216000000000E-01     -1.111836000000000E+02      4.785461000000000E-01     -6.279101000000000E+01
4869000000.000000      3.058624000000000E-01     -9.480078000000000E+01      4.825134000000000E-01      1.267500000000000E+02      4.909821000000000E-01     -1.111992000000000E+02      4.778748000000000E-01     -6.264062000000000E+01
4870000000.000000      3.099518000000000E-01     -9.471874000000000E+01      4.796448000000000E-01      1.267461000000000E+02      4.897308000000000E-01     -1.114141000000000E+02      4.763794000000000E-01     -6.240820000000000E+01
4871000000.000000      3.154144000000000E-01     -9.480860000000000E+01      4.753113000000000E-01      1.262461000000000E+02      4.883881000000000E-01     -1.113594000000000E+02      4.747620000000000E-01     -6.223633000000000E+01
4872000000.000000      3.204041000000000E-01     -9.469530000000000E+01      4.721680000000000E-01      1.263281000000000E+02      4.851685000000000E-01     -1.116406000000000E+02      4.736328000000000E-01     -6.206640000000000E+01
4873000000.000000      3.238068000000000E-01     -9.466797000000000E+01      4.690094000000000E-01      1.256875000000000E+02      4.839172000000000E-01     -1.115391000000000E+02      4.715424000000000E-01     -6.199609000000000E+01
4874000000.000000      3.278198000000000E-01     -9.474218000000000E+01      4.658966000000000E-01      1.257734000000000E+02      4.831390000000000E-01     -1.116992000000000E+02      4.703064000000000E-01     -6.172461000000000E+01
4875000000.000000      3.327789000000000E-01     -9.479687000000000E+01      4.628448000000000E-01      1.255273000000000E+02      4.820557000000000E-01     -1.116914000000000E+02      4.699707000000000E-01     -6.153710000000000E+01
4876000000.000000      3.354950000000000E-01     -9.480078000000000E+01      4.602203000000000E-01      1.251953000000000E+02      4.788361000000000E-01     -1.118203000000000E+02      4.673920000000000E-01     -6.150391000000000E+01
4877000000.000000      3.389740000000000E-01     -9.501562000000000E+01      4.568939000000000E-01      1.251172000000000E+02      4.765015000000000E-01     -1.120703000000000E+02      4.671326000000000E-01     -6.123828000000000E+01
4878000000.000000      3.422241000000000E-01     -9.506250000000000E+01      4.531860000000000E-01      1.248594000000000E+02      4.752350000000000E-01     -1.121484000000000E+02      4.653625000000000E-01     -6.103906000000000E+01
4879000000.000000      3.454132000000000E-01     -9.516796000000000E+01      4.506836000000000E-01      1.247578000000000E+02      4.721069000000000E-01     -1.122148000000000E+02      4.640350000000000E-01     -6.074804000000000E+01
4880000000.000000      3.477631000000000E-01     -9.526562000000000E+01      4.476929000000000E-01      1.244648000000000E+02      4.706726000000000E-01     -1.122695000000000E+02      4.634705000000000E-01     -6.049805000000000E+01
4881000000.000000      3.504028000000000E-01     -9.546093000000000E+01      4.457703000000000E-01      1.246445000000000E+02      4.686584000000000E-01     -1.125000000000000E+02      4.623566000000000E-01     -6.025391000000000E+01
4882000000.000000      3.516998000000000E-01     -9.556641000000000E+01      4.429474000000000E-01      1.240391000000000E+02      4.670410000000000E-01     -1.125508000000000E+02      4.608154000000000E-01     -6.002930000000000E+01
