! Network Analyzer HP8722D
! Hewlett-Packard
! Data name: Linha & Wilkinson
! Saver's name: Rodrigo Anjos
! Comments: Teste da utilização de aquisição
continua pelo VNA HP8722D
! Time and date: 17/4/2025 12:00
!              Frequency                     S11                                                   S21                                                   S12                                                   S22
# HZ  S  MA R 50
4800000000.000000      2.964630000000000E-01      8.666796000000000E+01      5.844421000000000E-01      1.501641000000000E+02      4.828033000000000E-01     -1.116016000000000E+02      7.360535000000000E-01     -6.033984000000000E+01
4801000000.000000      2.886810000000000E-01      8.679688000000000E+01      5.850830000000000E-01      1.499063000000000E+02      4.838562000000000E-01     -1.117109000000000E+02      7.321472000000000E-01     -6.040625000000000E+01
4802000000.000000      2.808228000000000E-01      8.697266000000000E+01      5.831604000000000E-01      1.498359000000000E+02      4.850159000000000E-01     -1.117109000000000E+02      7.275391000000000E-01     -6.046484000000000E+01
4803000000.000000      2.727356000000000E-01      8.704687000000000E+01      5.869446000000000E-01      1.495078000000000E+02      4.846649000000000E-01     -1.116055000000000E+02      7.215881000000000E-01     -6.060547000000000E+01
4804000000.000000      2.644806000000000E-01      8.740234000000000E+01      5.868530000000000E-01      1.491875000000000E+02      4.865723000000000E-01     -1.117930000000000E+02      7.153931000000000E-01     -6.064258000000000E+01
4805000000.000000      2.570343000000000E-01      8.746485000000000E+01      5.882263000000000E-01      1.488516000000000E+02      4.867706000000000E-01     -1.115078000000000E+02      7.101746000000000E-01     -6.076366000000000E+01
4806000000.000000      2.481918000000000E-01      8.783594000000000E+01      5.881653000000000E-01      1.487187000000000E+02      4.859924000000000E-01     -1.114648000000000E+02      7.042847000000000E-01     -6.097851000000000E+01
4807000000.000000      2.398453000000000E-01      8.798046000000000E+01      5.877991000000000E-01      1.483359000000000E+02      4.883270000000000E-01     -1.115039000000000E+02      6.983337000000000E-01     -6.089062000000000E+01
4808000000.000000      2.312012000000000E-01      8.835546000000000E+01      5.905151000000000E-01      1.482656000000000E+02      4.897766000000000E-01     -1.116016000000000E+02      6.934509000000000E-01     -6.105273000000000E+01
4809000000.000000      2.227783000000000E-01      8.857031000000000E+01      5.896301000000000E-01      1.478203000000000E+02      4.908905000000000E-01     -1.115156000000000E+02      6.874084000000000E-01     -6.112109000000000E+01
4810000000.000000      2.136383000000000E-01      8.876953000000000E+01      5.917969000000000E-01      1.475703000000000E+02      4.902649000000000E-01     -1.114570000000000E+02      6.819763000000000E-01     -6.128515000000000E+01
4811000000.000000      2.051392000000000E-01      8.919140000000000E+01      5.922546000000000E-01      1.470547000000000E+02      4.924316000000000E-01     -1.114258000000000E+02      6.768799000000000E-01     -6.121094000000000E+01
4812000000.000000      1.964035000000000E-01      8.952343000000000E+01      5.912170000000000E-01      1.468672000000000E+02      4.932098000000000E-01     -1.112109000000000E+02      6.728821000000000E-01     -6.145702000000000E+01
4813000000.000000      1.870499000000000E-01      9.010937000000000E+01      5.911255000000000E-01      1.465078000000000E+02      4.930115000000000E-01     -1.112383000000000E+02      6.669922000000000E-01     -6.127734000000000E+01
4814000000.000000      1.777802000000000E-01      9.030859000000000E+01      5.922852000000000E-01      1.462188000000000E+02      4.937744000000000E-01     -1.112617000000000E+02      6.616516000000000E-01     -6.143164000000000E+01
4815000000.000000      1.679993000000000E-01      9.089453000000000E+01      5.924072000000000E-01      1.460234000000000E+02      4.944611000000000E-01     -1.110938000000000E+02      6.569824000000000E-01     -6.150391000000000E+01
4816000000.000000      1.596146000000000E-01      9.129297000000000E+01      5.941772000000000E-01      1.456719000000000E+02      4.966125000000000E-01     -1.109336000000000E+02      6.517944000000000E-01     -6.155663000000000E+01
4817000000.000000      1.496887000000000E-01      9.199999000000000E+01      5.928345000000000E-01      1.452578000000000E+02      4.959869000000000E-01     -1.111016000000000E+02      6.471252000000000E-01     -6.166797000000000E+01
4818000000.000000      1.406097000000000E-01      9.251171000000000E+01      5.925293000000000E-01      1.449531000000000E+02      4.987793000000000E-01     -1.109375000000000E+02      6.409912000000000E-01     -6.181054000000000E+01
4819000000.000000      1.312180000000000E-01      9.317968000000000E+01      5.942078000000000E-01      1.445234000000000E+02      4.967346000000000E-01     -1.109805000000000E+02      6.367798000000000E-01     -6.200195000000000E+01
4820000000.000000      1.218109000000000E-01      9.391405000000000E+01      5.933533000000000E-01      1.443125000000000E+02      4.991150000000000E-01     -1.108008000000000E+02      6.315002000000000E-01     -6.194921000000000E+01
4821000000.000000      1.127853000000000E-01      9.471483000000000E+01      5.928345000000000E-01      1.438906000000000E+02      4.992676000000000E-01     -1.108789000000000E+02      6.260376000000000E-01     -6.196679000000000E+01
4822000000.000000      1.027527000000000E-01      9.601952000000000E+01      5.937195000000000E-01      1.435781000000000E+02      4.997864000000000E-01     -1.106914000000000E+02      6.225891000000000E-01     -6.215429000000000E+01
4823000000.000000      9.350586000000000E-02      9.711718000000000E+01      5.934448000000000E-01      1.431875000000000E+02      5.009766000000000E-01     -1.106094000000000E+02      6.180115000000000E-01     -6.225586000000000E+01
4824000000.000000      8.425522000000000E-02      9.860155000000000E+01      5.934753000000000E-01      1.427500000000000E+02      5.025330000000000E-01     -1.105430000000000E+02      6.137695000000000E-01     -6.235156000000000E+01
4825000000.000000      7.464218000000000E-02      1.004375000000000E+02      5.905151000000000E-01      1.424453000000000E+02      5.029602000000000E-01     -1.105156000000000E+02      6.086426000000000E-01     -6.234375000000000E+01
4826000000.000000      6.605148000000000E-02      1.027148000000000E+02      5.906372000000000E-01      1.420156000000000E+02      5.015259000000000E-01     -1.103789000000000E+02      6.051636000000000E-01     -6.253711000000000E+01
4827000000.000000      5.669212000000000E-02      1.053125000000000E+02      5.912476000000000E-01      1.417187000000000E+02      5.026855000000000E-01     -1.102851000000000E+02      6.010742000000000E-01     -6.246875000000000E+01
4828000000.000000      4.742813000000000E-02      1.095703000000000E+02      5.906067000000000E-01      1.412344000000000E+02      5.028687000000000E-01     -1.102226000000000E+02      5.969849000000000E-01     -6.261523000000000E+01
4829000000.000000      3.852844000000000E-02      1.155234000000000E+02      5.876465000000000E-01      1.409062000000000E+02      5.043030000000000E-01     -1.101953000000000E+02      5.942993000000000E-01     -6.276953000000000E+01
4830000000.000000      3.038025000000000E-02      1.241133000000000E+02      5.873108000000000E-01      1.404609000000000E+02      5.050354000000000E-01     -1.100859000000000E+02      5.882568000000000E-01     -6.272265000000000E+01
4831000000.000000      2.363586000000000E-02      1.384844000000000E+02      5.867615000000000E-01      1.400547000000000E+02      5.055237000000000E-01     -1.099062000000000E+02      5.848083000000000E-01     -6.279101000000000E+01
4832000000.000000      1.944256000000000E-02      1.604922000000000E+02      5.838928000000000E-01      1.398828000000000E+02      5.047302000000000E-01     -1.099766000000000E+02      5.810852000000000E-01     -6.285742000000000E+01
4833000000.000000      1.918030000000000E-02     -1.696640000000000E+02      5.830078000000000E-01      1.394063000000000E+02      5.063782000000000E-01     -1.099766000000000E+02      5.771790000000000E-01     -6.292969000000000E+01
4834000000.000000      2.311993000000000E-02     -1.465156000000000E+02      5.819702000000000E-01      1.390469000000000E+02      5.056763000000000E-01     -1.099375000000000E+02      5.736694000000000E-01     -6.295507000000000E+01
4835000000.000000      2.926636000000000E-02     -1.303672000000000E+02      5.813904000000000E-01      1.385703000000000E+02      5.074463000000000E-01     -1.097969000000000E+02      5.710144000000000E-01     -6.315820000000000E+01
4836000000.000000      3.674316000000000E-02     -1.223164000000000E+02      5.789795000000000E-01      1.382031000000000E+02      5.069275000000000E-01     -1.096836000000000E+02      5.671082000000000E-01     -6.305078000000000E+01
4837000000.000000      4.525566000000000E-02     -1.152305000000000E+02      5.778503000000000E-01      1.376797000000000E+02      5.066833000000000E-01     -1.096875000000000E+02      5.634155000000000E-01     -6.312109000000000E+01
4838000000.000000      5.380249000000000E-02     -1.112852000000000E+02      5.756836000000000E-01      1.376484000000000E+02      5.086060000000000E-01     -1.096094000000000E+02      5.607605000000000E-01     -6.324609000000000E+01
4839000000.000000      6.251907000000000E-02     -1.080820000000000E+02      5.726318000000000E-01      1.371562000000000E+02      5.087280000000000E-01     -1.093906000000000E+02      5.578918000000000E-01     -6.325000000000000E+01
4840000000.000000      7.111359000000000E-02     -1.055508000000000E+02      5.710449000000000E-01      1.368125000000000E+02      5.087891000000000E-01     -1.094023000000000E+02      5.551453000000000E-01     -6.324609000000000E+01
4841000000.000000      7.931137000000000E-02     -1.039180000000000E+02      5.708313000000000E-01      1.365313000000000E+02      5.101929000000000E-01     -1.094805000000000E+02      5.518799000000000E-01     -6.344531000000000E+01
4842000000.000000      8.921814000000000E-02     -1.023008000000000E+02      5.657349000000000E-01      1.361016000000000E+02      5.076904000000000E-01     -1.094609000000000E+02      5.497131000000000E-01     -6.341210000000000E+01
4843000000.000000      9.785843000000000E-02     -1.009766000000000E+02      5.648193000000000E-01      1.355156000000000E+02      5.100708000000000E-01     -1.092461000000000E+02      5.460205000000000E-01     -6.340625000000000E+01
4844000000.000000      1.060944000000000E-01     -9.998047000000000E+01      5.627441000000000E-01      1.351875000000000E+02      5.080872000000000E-01     -1.093789000000000E+02      5.429688000000000E-01     -6.356640000000000E+01
4845000000.000000      1.148987000000000E-01     -9.890625000000000E+01      5.601807000000000E-01      1.349297000000000E+02      5.100098000000000E-01     -1.092344000000000E+02      5.406799000000000E-01     -6.354297000000000E+01
4846000000.000000      1.227646000000000E-01     -9.791796000000000E+01      5.571289000000000E-01      1.345625000000000E+02      5.103455000000000E-01     -1.093086000000000E+02      5.378418000000000E-01     -6.358593000000000E+01
4847000000.000000      1.318436000000000E-01     -9.724218000000000E+01      5.551453000000000E-01      1.344844000000000E+02      5.103149000000000E-01     -1.091445000000000E+02      5.356445000000000E-01     -6.364843000000000E+01
4848000000.000000      1.402969000000000E-01     -9.663280000000000E+01      5.518494000000000E-01      1.340625000000000E+02      5.110779000000000E-01     -1.090703000000000E+02      5.319824000000000E-01     -6.377734000000000E+01
4849000000.000000      1.479797000000000E-01     -9.622265000000000E+01      5.492249000000000E-01      1.334297000000000E+02      5.104370000000000E-01     -1.091211000000000E+02      5.291443000000000E-01     -6.364452000000000E+01
4850000000.000000      1.565628000000000E-01     -9.547655000000000E+01      5.463257000000000E-01      1.332344000000000E+02      5.096130000000000E-01     -1.092500000000000E+02      5.268250000000000E-01     -6.376758000000000E+01
4851000000.000000      1.649170000000000E-01     -9.487108000000000E+01      5.458984000000000E-01      1.328984000000000E+02      5.078735000000000E-01     -1.091680000000000E+02      5.259399000000000E-01     -6.376562000000000E+01
4852000000.000000      1.732025000000000E-01     -9.434374000000000E+01      5.422363000000000E-01      1.327188000000000E+02      5.083923000000000E-01     -1.091953000000000E+02      5.233154000000000E-01     -6.377734000000000E+01
4853000000.000000      1.812286000000000E-01     -9.403515000000000E+01      5.371704000000000E-01      1.322969000000000E+02      5.099487000000000E-01     -1.088867000000000E+02      5.204468000000000E-01     -6.379101000000000E+01
4854000000.000000      1.894836000000000E-01     -9.348827000000000E+01      5.360413000000000E-01      1.319297000000000E+02      5.081482000000000E-01     -1.091328000000000E+02      5.180054000000000E-01     -6.367188000000000E+01
4855000000.000000      1.964493000000000E-01     -9.334764000000000E+01      5.316162000000000E-01      1.317031000000000E+02      5.093384000000000E-01     -1.091055000000000E+02      5.148010000000000E-01     -6.369726000000000E+01
4856000000.000000      2.045898000000000E-01     -9.292578000000000E+01      5.301514000000000E-01      1.315078000000000E+02      5.076294000000000E-01     -1.090703000000000E+02      5.154114000000000E-01     -6.378124000000000E+01
4857000000.000000      2.114334000000000E-01     -9.258984000000000E+01      5.276184000000000E-01      1.309687000000000E+02      5.085754000000000E-01     -1.090703000000000E+02      5.115051000000000E-01     -6.375390000000000E+01
4858000000.000000      2.189331000000000E-01     -9.229296000000000E+01      5.242615000000000E-01      1.310625000000000E+02      5.058289000000000E-01     -1.092500000000000E+02      5.100708000000000E-01     -6.379492000000000E+01
4859000000.000000      2.265854000000000E-01     -9.212500000000000E+01      5.209045000000000E-01      1.304688000000000E+02      5.068665000000000E-01     -1.091836000000000E+02      5.088196000000000E-01     -6.386523000000000E+01
4860000000.000000      2.332535000000000E-01     -9.191406000000000E+01      5.188599000000000E-01      1.305859000000000E+02      5.046387000000000E-01     -1.091211000000000E+02      5.057678000000000E-01     -6.359961000000000E+01
4861000000.000000      2.407303000000000E-01     -9.152344000000000E+01      5.162354000000000E-01      1.299297000000000E+02      5.066223000000000E-01     -1.091445000000000E+02      5.030823000000000E-01     -6.361914000000000E+01
4862000000.000000      2.476044000000000E-01     -9.134375000000000E+01      5.125732000000000E-01      1.298594000000000E+02      5.057678000000000E-01     -1.090742000000000E+02      5.017090000000000E-01     -6.355078000000000E+01
4863000000.000000      2.542725000000000E-01     -9.116014000000000E+01      5.105896000000000E-01      1.295000000000000E+02      5.051575000000000E-01     -1.091250000000000E+02      4.995117000000000E-01     -6.345117000000000E+01
4864000000.000000      2.604980000000000E-01     -9.101171000000000E+01      5.069275000000000E-01      1.294297000000000E+02      5.020142000000000E-01     -1.092344000000000E+02      4.979401000000000E-01     -6.347656000000000E+01
4865000000.000000      2.670135000000000E-01     -9.085155000000000E+01      5.036011000000000E-01      1.292031000000000E+02      5.020752000000000E-01     -1.093359000000000E+02      4.974823000000000E-01     -6.340625000000000E+01
4866000000.000000      2.738495000000000E-01     -9.078905000000000E+01      5.014954000000000E-01      1.287109000000000E+02      5.000916000000000E-01     -1.093320000000000E+02      4.954529000000000E-01     -6.322266000000000E+01
4867000000.000000      2.793579000000000E-01     -9.058203000000000E+01      4.969025000000000E-01      1.285547000000000E+02      5.006714000000000E-01     -1.093984000000000E+02      4.939117000000000E-01     -6.315234000000000E+01
4868000000.000000      2.861176000000000E-01     -9.058594000000000E+01      4.952393000000000E-01      1.284531000000000E+02      4.992828000000000E-01     -1.095976000000000E+02      4.908600000000000E-01     -6.296679000000000E+01
4869000000.000000      2.909698000000000E-01     -9.047655000000000E+01      4.926300000000000E-01      1.280625000000000E+02      4.973907000000000E-01     -1.094687000000000E+02      4.901733000000000E-01     -6.300586000000000E+01
4870000000.000000      2.963257000000000E-01     -9.040234000000000E+01      4.888153000000000E-01      1.280469000000000E+02      4.964905000000000E-01     -1.096250000000000E+02      4.883728000000000E-01     -6.275781000000000E+01
4871000000.000000      3.017120000000000E-01     -9.058594000000000E+01      4.859619000000000E-01      1.277656000000000E+02      4.938660000000000E-01     -1.095742000000000E+02      4.865417000000000E-01     -6.274609000000000E+01
4872000000.000000      3.070679000000000E-01     -9.049219000000000E+01      4.833679000000000E-01      1.277539000000000E+02      4.930420000000000E-01     -1.098125000000000E+02      4.868622000000000E-01     -6.248047000000000E+01
4873000000.000000      3.114471000000000E-01     -9.039063000000000E+01      4.806061000000000E-01      1.271992000000000E+02      4.928741000000000E-01     -1.099023000000000E+02      4.844513000000000E-01     -6.250781000000000E+01
4874000000.000000      3.158569000000000E-01     -9.034765000000000E+01      4.776154000000000E-01      1.271953000000000E+02      4.915924000000000E-01     -1.098594000000000E+02      4.820557000000000E-01     -6.215038000000000E+01
4875000000.000000      3.208923000000000E-01     -9.055079000000000E+01      4.756470000000000E-01      1.270273000000000E+02      4.888153000000000E-01     -1.099180000000000E+02      4.812622000000000E-01     -6.204102000000000E+01
4876000000.000000      3.240967000000000E-01     -9.048828000000000E+01      4.721680000000000E-01      1.266719000000000E+02      4.860840000000000E-01     -1.100820000000000E+02      4.796906000000000E-01     -6.197656000000000E+01
4877000000.000000      3.285980000000000E-01     -9.061327000000000E+01      4.675598000000000E-01      1.267773000000000E+02      4.863739000000000E-01     -1.102383000000000E+02      4.773254000000000E-01     -6.179296000000000E+01
4878000000.000000      3.323517000000000E-01     -9.071093000000000E+01      4.657440000000000E-01      1.261367000000000E+02      4.845123000000000E-01     -1.101601000000000E+02      4.774323000000000E-01     -6.159180000000000E+01
4879000000.000000      3.352814000000000E-01     -9.087500000000000E+01      4.621735000000000E-01      1.262383000000000E+02      4.817352000000000E-01     -1.104180000000000E+02      4.751282000000000E-01     -6.147461000000000E+01
4880000000.000000      3.390350000000000E-01     -9.091406000000000E+01      4.617462000000000E-01      1.259531000000000E+02      4.807281000000000E-01     -1.103789000000000E+02      4.741211000000000E-01     -6.117578000000000E+01
4881000000.000000      3.421326000000000E-01     -9.111328000000000E+01      4.570313000000000E-01      1.258750000000000E+02      4.786530000000000E-01     -1.104766000000000E+02      4.726563000000000E-01     -6.085938000000000E+01
4882000000.000000      3.440552000000000E-01     -9.125000000000000E+01      4.551849000000000E-01      1.255508000000000E+02      4.779816000000000E-01     -1.105937000000000E+02      4.707184000000000E-01     -6.069140000000000E+01
