! Network Analyzer HP8722D
! Hewlett-Packard
! Data name: Linha & Wilkinson
! Saver's name: Rodrigo Anjos
! Comments: Teste da utilização de aquisição
continua pelo VNA HP8722D
! Time and date: 17/4/2025 11:08
!              Frequency                     S11                                                   S21                                                   S12                                                   S22
# HZ  S  MA R 50
4800000000.000000      3.896332000000000E-01      7.680078000000000E+01      1.888657000000000E-01     -5.292187000000000E+01      1.921387000000000E-01      8.213282000000000E+01      2.480087000000000E-01      7.168750000000000E+01
4801000000.000000      3.918457000000000E-01      7.711719000000000E+01      1.866760000000000E-01     -5.130077000000000E+01      1.901398000000000E-01      8.342577000000000E+01      2.499619000000000E-01      7.043359000000000E+01
4802000000.000000      3.940430000000000E-01      7.735546000000000E+01      1.845627000000000E-01     -4.975780000000000E+01      1.887054000000000E-01      8.486719000000000E+01      2.524414000000000E-01      6.983593000000000E+01
4803000000.000000      3.958740000000000E-01      7.774219000000000E+01      1.837616000000000E-01     -4.807422000000000E+01      1.868134000000000E-01      8.646875000000000E+01      2.518311000000000E-01      6.912499000000000E+01
4804000000.000000      3.973236000000000E-01      7.808594000000000E+01      1.817627000000000E-01     -4.641211000000000E+01      1.856613000000000E-01      8.788280000000000E+01      2.503662000000000E-01      6.879687000000000E+01
4805000000.000000      3.993835000000000E-01      7.829296000000000E+01      1.812897000000000E-01     -4.489843000000000E+01      1.846771000000000E-01      8.938671000000000E+01      2.520142000000000E-01      6.765625000000000E+01
4806000000.000000      3.992920000000000E-01      7.856640000000000E+01      1.809311000000000E-01     -4.324023000000000E+01      1.839066000000000E-01      9.101563000000000E+01      2.538452000000000E-01      6.731640000000000E+01
4807000000.000000      4.004211000000000E-01      7.885547000000000E+01      1.806488000000000E-01     -4.158789000000000E+01      1.837158000000000E-01      9.239061000000000E+01      2.536774000000000E-01      6.570313000000000E+01
4808000000.000000      4.007263000000000E-01      7.927343000000000E+01      1.807785000000000E-01     -3.993555000000000E+01      1.837692000000000E-01      9.412500000000000E+01      2.536469000000000E-01      6.535156000000000E+01
4809000000.000000      4.014587000000000E-01      7.958202000000000E+01      1.809769000000000E-01     -3.829297000000000E+01      1.845169000000000E-01      9.557421000000000E+01      2.553558000000000E-01      6.442577000000000E+01
4810000000.000000      4.016266000000000E-01      7.983984000000000E+01      1.820374000000000E-01     -3.649805000000000E+01      1.848907000000000E-01      9.720312000000000E+01      2.552490000000000E-01      6.333984000000000E+01
4811000000.000000      4.019165000000000E-01      8.017578000000000E+01      1.828842000000000E-01     -3.500977000000000E+01      1.863785000000000E-01      9.874609000000000E+01      2.572174000000000E-01      6.250781000000000E+01
4812000000.000000      4.017029000000000E-01      8.049608000000000E+01      1.842499000000000E-01     -3.334375000000000E+01      1.875534000000000E-01      1.001641000000000E+02      2.562561000000000E-01      6.127930000000000E+01
4813000000.000000      4.006500000000000E-01      8.087109000000000E+01      1.857147000000000E-01     -3.177246000000000E+01      1.891022000000000E-01      1.017851000000000E+02      2.579498000000000E-01      6.074023000000000E+01
4814000000.000000      3.985596000000000E-01      8.106640000000000E+01      1.876755000000000E-01     -3.028613000000000E+01      1.910477000000000E-01      1.032265000000000E+02      2.566833000000000E-01      5.966210000000000E+01
4815000000.000000      3.978424000000000E-01      8.144531000000000E+01      1.895142000000000E-01     -2.871973000000000E+01      1.927795000000000E-01      1.044961000000000E+02      2.573547000000000E-01      5.825585000000000E+01
4816000000.000000      3.979034000000000E-01      8.173046000000000E+01      1.927490000000000E-01     -2.729883000000000E+01      1.959915000000000E-01      1.058945000000000E+02      2.570343000000000E-01      5.732616000000000E+01
4817000000.000000      3.952484000000000E-01      8.205469000000000E+01      1.951904000000000E-01     -2.597949000000000E+01      1.982651000000000E-01      1.071172000000000E+02      2.571411000000000E-01      5.697851000000000E+01
4818000000.000000      3.927155000000000E-01      8.235155000000000E+01      1.979599000000000E-01     -2.459082000000000E+01      2.013168000000000E-01      1.083828000000000E+02      2.554474000000000E-01      5.588867000000000E+01
4819000000.000000      3.913116000000000E-01      8.266796000000000E+01      2.008820000000000E-01     -2.331641000000000E+01      2.042770000000000E-01      1.095781000000000E+02      2.547913000000000E-01      5.470898000000000E+01
4820000000.000000      3.872375000000000E-01      8.300781000000000E+01      2.045288000000000E-01     -2.215820000000000E+01      2.076950000000000E-01      1.107031000000000E+02      2.548523000000000E-01      5.352148000000000E+01
4821000000.000000      3.861389000000000E-01      8.323046000000000E+01      2.082825000000000E-01     -2.114941000000000E+01      2.107086000000000E-01      1.117226000000000E+02      2.550201000000000E-01      5.257421000000000E+01
4822000000.000000      3.827209000000000E-01      8.346874000000000E+01      2.113571000000000E-01     -2.001367000000000E+01      2.145004000000000E-01      1.125781000000000E+02      2.537537000000000E-01      5.095508000000000E+01
4823000000.000000      3.796997000000000E-01      8.373047000000000E+01      2.156982000000000E-01     -1.902344000000000E+01      2.183151000000000E-01      1.137344000000000E+02      2.524719000000000E-01      5.009375000000000E+01
4824000000.000000      3.770905000000000E-01      8.417578000000000E+01      2.199707000000000E-01     -1.819629000000000E+01      2.223663000000000E-01      1.144414000000000E+02      2.511749000000000E-01      4.849218000000000E+01
4825000000.000000      3.728790000000000E-01      8.438280000000000E+01      2.233353000000000E-01     -1.734961000000000E+01      2.272339000000000E-01      1.153437000000000E+02      2.518158000000000E-01      4.780078000000000E+01
4826000000.000000      3.689880000000000E-01      8.470703000000000E+01      2.287369000000000E-01     -1.667676000000000E+01      2.311325000000000E-01      1.160664000000000E+02      2.497101000000000E-01      4.642383000000000E+01
4827000000.000000      3.651886000000000E-01      8.502344000000000E+01      2.330933000000000E-01     -1.562549000000000E+01      2.354965000000000E-01      1.167734000000000E+02      2.486420000000000E-01      4.506249000000000E+01
4828000000.000000      3.614349000000000E-01      8.531641000000000E+01      2.379684000000000E-01     -1.508301000000000E+01      2.405243000000000E-01      1.173438000000000E+02      2.478180000000000E-01      4.373828000000000E+01
4829000000.000000      3.563232000000000E-01      8.575781000000000E+01      2.419128000000000E-01     -1.446240000000000E+01      2.452545000000000E-01      1.181016000000000E+02      2.470474000000000E-01      4.267774000000000E+01
4830000000.000000      3.515778000000000E-01      8.594141000000000E+01      2.471466000000000E-01     -1.401318000000000E+01      2.499924000000000E-01      1.186953000000000E+02      2.434692000000000E-01      4.160937000000000E+01
4831000000.000000      3.465576000000000E-01      8.622656000000000E+01      2.526093000000000E-01     -1.342432000000000E+01      2.551575000000000E-01      1.191914000000000E+02      2.424164000000000E-01      4.029882000000000E+01
4832000000.000000      3.424683000000000E-01      8.656250000000000E+01      2.573547000000000E-01     -1.300244000000000E+01      2.597504000000000E-01      1.196641000000000E+02      2.412109000000000E-01      3.959179000000000E+01
4833000000.000000      3.365784000000000E-01      8.677734000000000E+01      2.626495000000000E-01     -1.245605000000000E+01      2.648926000000000E-01      1.200742000000000E+02      2.405624000000000E-01      3.765234000000000E+01
4834000000.000000      3.314972000000000E-01      8.716406000000000E+01      2.683105000000000E-01     -1.219629000000000E+01      2.701874000000000E-01      1.204531000000000E+02      2.386246000000000E-01      3.631445000000000E+01
4835000000.000000      3.254395000000000E-01      8.729687000000000E+01      2.736664000000000E-01     -1.176367000000000E+01      2.755890000000000E-01      1.208750000000000E+02      2.364426000000000E-01      3.535547000000000E+01
4836000000.000000      3.206482000000000E-01      8.758204000000000E+01      2.783966000000000E-01     -1.153711000000000E+01      2.804413000000000E-01      1.212578000000000E+02      2.352295000000000E-01      3.381054000000000E+01
4837000000.000000      3.141327000000000E-01      8.805468000000000E+01      2.836914000000000E-01     -1.151367000000000E+01      2.857819000000000E-01      1.214023000000000E+02      2.336960000000000E-01      3.247656000000000E+01
4838000000.000000      3.071747000000000E-01      8.819921000000000E+01      2.902374000000000E-01     -1.104297000000000E+01      2.909088000000000E-01      1.217422000000000E+02      2.325287000000000E-01      3.108789000000000E+01
4839000000.000000      3.029785000000000E-01      8.856249000000000E+01      2.956543000000000E-01     -1.080371000000000E+01      2.967072000000000E-01      1.219180000000000E+02      2.306366000000000E-01      2.939941000000000E+01
4840000000.000000      2.955627000000000E-01      8.865234000000000E+01      3.010254000000000E-01     -1.074756000000000E+01      3.023834000000000E-01      1.222070000000000E+02      2.275772000000000E-01      2.782812000000000E+01
4841000000.000000      2.897949000000000E-01      8.903124000000000E+01      3.064270000000000E-01     -1.073682000000000E+01      3.079071000000000E-01      1.223008000000000E+02      2.276306000000000E-01      2.702051000000000E+01
4842000000.000000      2.826996000000000E-01      8.926172000000000E+01      3.126221000000000E-01     -1.063379000000000E+01      3.128662000000000E-01      1.225781000000000E+02      2.252502000000000E-01      2.539844000000000E+01
4843000000.000000      2.759705000000000E-01      8.924219000000000E+01      3.190918000000000E-01     -1.066260000000000E+01      3.188477000000000E-01      1.226680000000000E+02      2.231216000000000E-01      2.401562000000000E+01
4844000000.000000      2.690582000000000E-01      8.960938000000000E+01      3.237610000000000E-01     -1.062109000000000E+01      3.242798000000000E-01      1.227930000000000E+02      2.212830000000000E-01      2.246973000000000E+01
4845000000.000000      2.620544000000000E-01      8.988281000000000E+01      3.297272000000000E-01     -1.050586000000000E+01      3.298645000000000E-01      1.227812000000000E+02      2.186661000000000E-01      2.119727000000000E+01
4846000000.000000      2.548065000000000E-01      9.000000000000000E+01      3.356628000000000E-01     -1.071729000000000E+01      3.366547000000000E-01      1.229023000000000E+02      2.163391000000000E-01      1.978711000000000E+01
4847000000.000000      2.483292000000000E-01      9.031250000000000E+01      3.412476000000000E-01     -1.070654000000000E+01      3.421783000000000E-01      1.229102000000000E+02      2.138748000000000E-01      1.817871000000000E+01
4848000000.000000      2.403259000000000E-01      9.032812000000000E+01      3.467102000000000E-01     -1.088916000000000E+01      3.476105000000000E-01      1.229805000000000E+02      2.130661000000000E-01      1.681152000000000E+01
4849000000.000000      2.332840000000000E-01      9.033983000000000E+01      3.528595000000000E-01     -1.092773000000000E+01      3.529968000000000E-01      1.230312000000000E+02      2.103348000000000E-01      1.531885000000000E+01
4850000000.000000      2.254181000000000E-01      9.054688000000000E+01      3.584137000000000E-01     -1.122119000000000E+01      3.589935000000000E-01      1.229922000000000E+02      2.085266000000000E-01      1.396484000000000E+01
4851000000.000000      2.178345000000000E-01      9.081249000000000E+01      3.644562000000000E-01     -1.140967000000000E+01      3.646240000000000E-01      1.230273000000000E+02      2.067413000000000E-01      1.228369000000000E+01
4852000000.000000      2.097778000000000E-01      9.089453000000000E+01      3.702393000000000E-01     -1.149170000000000E+01      3.704529000000000E-01      1.231055000000000E+02      2.045746000000000E-01      1.079785000000000E+01
4853000000.000000      2.021484000000000E-01      9.085546000000000E+01      3.754272000000000E-01     -1.160156000000000E+01      3.762054000000000E-01      1.229297000000000E+02      2.027054000000000E-01      9.140625000000000E+00
4854000000.000000      1.936493000000000E-01      9.078125000000000E+01      3.810730000000000E-01     -1.199854000000000E+01      3.822479000000000E-01      1.228516000000000E+02      2.013092000000000E-01      7.705322000000000E+00
4855000000.000000      1.863556000000000E-01      9.089062000000000E+01      3.864288000000000E-01     -1.221973000000000E+01      3.878326000000000E-01      1.228281000000000E+02      1.980591000000000E-01      6.354004000000000E+00
4856000000.000000      1.778107000000000E-01      9.081640000000000E+01      3.929596000000000E-01     -1.227881000000000E+01      3.938293000000000E-01      1.227148000000000E+02      1.964722000000000E-01      4.876465000000000E+00
4857000000.000000      1.700897000000000E-01      9.067968000000000E+01      3.991394000000000E-01     -1.251074000000000E+01      3.993988000000000E-01      1.226133000000000E+02      1.932755000000000E-01      3.210693000000000E+00
4858000000.000000      1.617661000000000E-01      9.045313000000000E+01      4.036865000000000E-01     -1.282129000000000E+01      4.055023000000000E-01      1.225547000000000E+02      1.920624000000000E-01      1.635559000000000E+00
4859000000.000000      1.530991000000000E-01      9.018749000000000E+01      4.101868000000000E-01     -1.330322000000000E+01      4.114990000000000E-01      1.223789000000000E+02      1.904755000000000E-01      6.317139000000000E-02
4860000000.000000      1.453094000000000E-01      9.027735000000000E+01      4.149933000000000E-01     -1.346240000000000E+01      4.162292000000000E-01      1.221797000000000E+02      1.874466000000000E-01     -1.336243000000000E+00
4861000000.000000      1.363144000000000E-01      8.985546000000000E+01      4.209442000000000E-01     -1.398193000000000E+01      4.224548000000000E-01      1.221211000000000E+02      1.851044000000000E-01     -3.073486000000000E+00
4862000000.000000      1.280518000000000E-01      8.919531000000000E+01      4.277802000000000E-01     -1.404346000000000E+01      4.286652000000000E-01      1.220000000000000E+02      1.828690000000000E-01     -4.776367000000000E+00
4863000000.000000      1.195488000000000E-01      8.867188000000000E+01      4.302521000000000E-01     -1.463135000000000E+01      4.344025000000000E-01      1.218476000000000E+02      1.813126000000000E-01     -6.133301000000000E+00
4864000000.000000      1.109886000000000E-01      8.790625000000000E+01      4.372253000000000E-01     -1.485352000000000E+01      4.389496000000000E-01      1.217812000000000E+02      1.792221000000000E-01     -7.792236000000000E+00
4865000000.000000      1.027565000000000E-01      8.682812000000000E+01      4.418793000000000E-01     -1.524121000000000E+01      4.463348000000000E-01      1.215078000000000E+02      1.777496000000000E-01     -9.162598000000000E+00
4866000000.000000      9.405899000000000E-02      8.562109000000000E+01      4.463959000000000E-01     -1.571338000000000E+01      4.523163000000000E-01      1.214101000000000E+02      1.758804000000000E-01     -1.082715000000000E+01
4867000000.000000      8.533859000000000E-02      8.435156000000000E+01      4.532776000000000E-01     -1.611914000000000E+01      4.560852000000000E-01      1.211250000000000E+02      1.736069000000000E-01     -1.245068000000000E+01
4868000000.000000      7.750702000000000E-02      8.264843000000000E+01      4.580688000000000E-01     -1.646875000000000E+01      4.637604000000000E-01      1.210156000000000E+02      1.709747000000000E-01     -1.395850000000000E+01
4869000000.000000      6.923294000000000E-02      8.067186000000000E+01      4.631805000000000E-01     -1.688965000000000E+01      4.690704000000000E-01      1.206406000000000E+02      1.687088000000000E-01     -1.560498000000000E+01
4870000000.000000      6.092453000000000E-02      7.783593000000000E+01      4.677277000000000E-01     -1.713086000000000E+01      4.744110000000000E-01      1.204180000000000E+02      1.674042000000000E-01     -1.701953000000000E+01
4871000000.000000      5.268097000000000E-02      7.396484000000000E+01      4.736176000000000E-01     -1.750586000000000E+01      4.808044000000000E-01      1.201758000000000E+02      1.652374000000000E-01     -1.876367000000000E+01
4872000000.000000      4.565048000000000E-02      6.832421000000000E+01      4.782104000000000E-01     -1.795312000000000E+01      4.846802000000000E-01      1.198750000000000E+02      1.628342000000000E-01     -1.998633000000000E+01
4873000000.000000      3.824806000000000E-02      6.202148000000000E+01      4.841003000000000E-01     -1.847852000000000E+01      4.906006000000000E-01      1.197109000000000E+02      1.599731000000000E-01     -2.190820000000000E+01
4874000000.000000      3.221703000000000E-02      5.144531000000000E+01      4.885101000000000E-01     -1.900976000000000E+01      4.982605000000000E-01      1.194570000000000E+02      1.592407000000000E-01     -2.330273000000000E+01
4875000000.000000      2.740955000000000E-02      3.820898000000000E+01      4.918518000000000E-01     -1.936426000000000E+01      5.029907000000000E-01      1.192070000000000E+02      1.564713000000000E-01     -2.474023000000000E+01
4876000000.000000      2.548027000000000E-02      2.059765000000000E+01      4.975433000000000E-01     -1.979785000000000E+01      5.100403000000000E-01      1.189883000000000E+02      1.544800000000000E-01     -2.672168000000000E+01
4877000000.000000      2.621937000000000E-02     -8.789063000000000E-02      5.017395000000000E-01     -2.028809000000000E+01      5.146484000000000E-01      1.185781000000000E+02      1.523361000000000E-01     -2.797949000000000E+01
4878000000.000000      2.819347000000000E-02     -1.702929000000000E+01      5.083923000000000E-01     -2.076465000000000E+01      5.195923000000000E-01      1.184336000000000E+02      1.496201000000000E-01     -2.978125000000000E+01
4879000000.000000      3.315163000000000E-02     -2.815430000000000E+01      5.110168000000000E-01     -2.099902000000000E+01      5.262146000000000E-01      1.178398000000000E+02      1.479416000000000E-01     -3.121679000000000E+01
4880000000.000000      3.951645000000000E-02     -3.803906000000000E+01      5.159607000000000E-01     -2.163086000000000E+01      5.302734000000000E-01      1.176680000000000E+02      1.456375000000000E-01     -3.282031000000000E+01
4881000000.000000      4.601097000000000E-02     -4.483594000000000E+01      5.206909000000000E-01     -2.188965000000000E+01      5.373840000000000E-01      1.174101000000000E+02      1.436462000000000E-01     -3.418554000000000E+01
4882000000.000000      5.252457000000000E-02     -4.853516000000000E+01      5.267029000000000E-01     -2.251855000000000E+01      5.434570000000000E-01      1.170391000000000E+02      1.411133000000000E-01     -3.572656000000000E+01
