! Network Analyzer HP8722D
! Hewlett-Packard
! Data name: Linha & Wilkinson
! Saver's name: Rodrigo Anjos
! Comments: Teste da utilização de aquisição
continua pelo VNA HP8722D
! Time and date: 17/4/2025 11:14
!              Frequency                     S11                                                   S21                                                   S12                                                   S22
# HZ  S  MA R 50
4800000000.000000      3.889008000000000E-01      7.683984000000000E+01      1.893387000000000E-01     -5.281250000000000E+01      1.928482000000000E-01      8.214844000000000E+01      2.475052000000000E-01      7.194530000000000E+01
4801000000.000000      3.919525000000000E-01      7.709374000000000E+01      1.873703000000000E-01     -5.124413000000000E+01      1.909027000000000E-01      8.333984000000000E+01      2.489014000000000E-01      7.100390000000000E+01
4802000000.000000      3.934174000000000E-01      7.741796000000000E+01      1.857224000000000E-01     -4.969727000000000E+01      1.890945000000000E-01      8.476171000000000E+01      2.535248000000000E-01      7.006640000000000E+01
4803000000.000000      3.959351000000000E-01      7.774219000000000E+01      1.845245000000000E-01     -4.806835000000000E+01      1.874847000000000E-01      8.634375000000000E+01      2.521210000000000E-01      6.971093000000000E+01
4804000000.000000      3.973846000000000E-01      7.803124000000000E+01      1.831360000000000E-01     -4.654687000000000E+01      1.863098000000000E-01      8.774609000000000E+01      2.518158000000000E-01      6.891796000000000E+01
4805000000.000000      3.991852000000000E-01      7.831640000000000E+01      1.824493000000000E-01     -4.488477000000000E+01      1.853409000000000E-01      8.925390000000000E+01      2.545319000000000E-01      6.766406000000000E+01
4806000000.000000      3.998108000000000E-01      7.863671000000000E+01      1.815109000000000E-01     -4.330274000000000E+01      1.847076000000000E-01      9.089062000000000E+01      2.547302000000000E-01      6.681641000000000E+01
4807000000.000000      4.008179000000000E-01      7.887500000000000E+01      1.814651000000000E-01     -4.159570000000000E+01      1.843719000000000E-01      9.235155000000000E+01      2.541504000000000E-01      6.583202000000000E+01
4808000000.000000      4.007263000000000E-01      7.925390000000000E+01      1.810303000000000E-01     -3.976367000000000E+01      1.842575000000000E-01      9.394531000000000E+01      2.544556000000000E-01      6.510547000000000E+01
4809000000.000000      4.011688000000000E-01      7.955859000000000E+01      1.818466000000000E-01     -3.835156000000000E+01      1.851654000000000E-01      9.546875000000000E+01      2.574768000000000E-01      6.475780000000000E+01
4810000000.000000      4.018860000000000E-01      7.983984000000000E+01      1.823959000000000E-01     -3.652148000000000E+01      1.856079000000000E-01      9.708984000000000E+01      2.550659000000000E-01      6.355663000000000E+01
4811000000.000000      4.017639000000000E-01      8.026953000000000E+01      1.836166000000000E-01     -3.493750000000000E+01      1.867447000000000E-01      9.870312000000000E+01      2.569427000000000E-01      6.270117000000000E+01
4812000000.000000      4.021454000000000E-01      8.049608000000000E+01      1.846848000000000E-01     -3.338086000000000E+01      1.879959000000000E-01      1.000508000000000E+02      2.571564000000000E-01      6.133203000000000E+01
4813000000.000000      4.007416000000000E-01      8.087109000000000E+01      1.867065000000000E-01     -3.187695000000000E+01      1.893616000000000E-01      1.016289000000000E+02      2.588043000000000E-01      6.079883000000000E+01
4814000000.000000      3.993530000000000E-01      8.108984000000000E+01      1.882629000000000E-01     -3.021289000000000E+01      1.914215000000000E-01      1.030586000000000E+02      2.573242000000000E-01      5.975780000000000E+01
4815000000.000000      3.977661000000000E-01      8.142187000000000E+01      1.902771000000000E-01     -2.882031000000000E+01      1.931915000000000E-01      1.044297000000000E+02      2.578888000000000E-01      5.887695000000000E+01
4816000000.000000      3.976746000000000E-01      8.174219000000000E+01      1.932144000000000E-01     -2.729589000000000E+01      1.961975000000000E-01      1.058437000000000E+02      2.571564000000000E-01      5.772070000000000E+01
4817000000.000000      3.948822000000000E-01      8.206249000000000E+01      1.953964000000000E-01     -2.604394000000000E+01      1.982040000000000E-01      1.070351000000000E+02      2.568207000000000E-01      5.694336000000000E+01
4818000000.000000      3.933105000000000E-01      8.240234000000000E+01      1.980743000000000E-01     -2.472070000000000E+01      2.014771000000000E-01      1.082422000000000E+02      2.572327000000000E-01      5.581055000000000E+01
4819000000.000000      3.917847000000000E-01      8.263281000000000E+01      2.012711000000000E-01     -2.344433000000000E+01      2.047653000000000E-01      1.094414000000000E+02      2.564087000000000E-01      5.465234000000000E+01
4820000000.000000      3.877716000000000E-01      8.299999000000000E+01      2.041931000000000E-01     -2.220703000000000E+01      2.079926000000000E-01      1.105312000000000E+02      2.555542000000000E-01      5.366211000000000E+01
4821000000.000000      3.862000000000000E-01      8.322657000000000E+01      2.083359000000000E-01     -2.110156000000000E+01      2.112732000000000E-01      1.116016000000000E+02      2.550812000000000E-01      5.281250000000000E+01
4822000000.000000      3.833771000000000E-01      8.350780000000000E+01      2.117081000000000E-01     -2.006543000000000E+01      2.151031000000000E-01      1.124648000000000E+02      2.532959000000000E-01      5.153906000000000E+01
4823000000.000000      3.804626000000000E-01      8.375780000000000E+01      2.158356000000000E-01     -1.915625000000000E+01      2.186432000000000E-01      1.136445000000000E+02      2.526245000000000E-01      5.041601000000000E+01
4824000000.000000      3.767853000000000E-01      8.419922000000000E+01      2.200699000000000E-01     -1.837207000000000E+01      2.228775000000000E-01      1.143711000000000E+02      2.525330000000000E-01      4.881054000000000E+01
4825000000.000000      3.732758000000000E-01      8.442577000000000E+01      2.242203000000000E-01     -1.724512000000000E+01      2.275085000000000E-01      1.152344000000000E+02      2.515869000000000E-01      4.757617000000000E+01
4826000000.000000      3.692932000000000E-01      8.467968000000000E+01      2.290649000000000E-01     -1.661914000000000E+01      2.314911000000000E-01      1.159609000000000E+02      2.509613000000000E-01      4.624609000000000E+01
4827000000.000000      3.655396000000000E-01      8.496094000000000E+01      2.335892000000000E-01     -1.581250000000000E+01      2.358475000000000E-01      1.167109000000000E+02      2.486877000000000E-01      4.531054000000000E+01
4828000000.000000      3.616333000000000E-01      8.530468000000000E+01      2.385712000000000E-01     -1.516553000000000E+01      2.404633000000000E-01      1.172812000000000E+02      2.479630000000000E-01      4.403320000000000E+01
4829000000.000000      3.570557000000000E-01      8.574610000000000E+01      2.428284000000000E-01     -1.441309000000000E+01      2.458267000000000E-01      1.180664000000000E+02      2.464371000000000E-01      4.280078000000000E+01
4830000000.000000      3.523560000000000E-01      8.586329000000000E+01      2.475433000000000E-01     -1.401611000000000E+01      2.503052000000000E-01      1.185547000000000E+02      2.447357000000000E-01      4.159961000000000E+01
4831000000.000000      3.470001000000000E-01      8.612890000000000E+01      2.530365000000000E-01     -1.348193000000000E+01      2.554321000000000E-01      1.191055000000000E+02      2.448654000000000E-01      4.037109000000000E+01
4832000000.000000      3.431549000000000E-01      8.650391000000000E+01      2.579803000000000E-01     -1.291455000000000E+01      2.599182000000000E-01      1.195898000000000E+02      2.422791000000000E-01      3.928320000000000E+01
4833000000.000000      3.365021000000000E-01      8.674999000000000E+01      2.630463000000000E-01     -1.243115000000000E+01      2.653656000000000E-01      1.200117000000000E+02      2.396393000000000E-01      3.781250000000000E+01
4834000000.000000      3.319092000000000E-01      8.706640000000000E+01      2.686005000000000E-01     -1.205908000000000E+01      2.705994000000000E-01      1.203789000000000E+02      2.394104000000000E-01      3.662109000000000E+01
4835000000.000000      3.262482000000000E-01      8.725000000000000E+01      2.738800000000000E-01     -1.181055000000000E+01      2.758789000000000E-01      1.208008000000000E+02      2.384720000000000E-01      3.548437000000000E+01
4836000000.000000      3.210449000000000E-01      8.765234000000000E+01      2.790070000000000E-01     -1.162646000000000E+01      2.812042000000000E-01      1.211680000000000E+02      2.360535000000000E-01      3.371679000000000E+01
4837000000.000000      3.146057000000000E-01      8.804296000000000E+01      2.842560000000000E-01     -1.144385000000000E+01      2.862244000000000E-01      1.213594000000000E+02      2.341385000000000E-01      3.274414000000000E+01
4838000000.000000      3.084717000000000E-01      8.821484000000000E+01      2.900238000000000E-01     -1.105225000000000E+01      2.913208000000000E-01      1.216836000000000E+02      2.314682000000000E-01      3.120214000000000E+01
4839000000.000000      3.035126000000000E-01      8.844141000000000E+01      2.960358000000000E-01     -1.091943000000000E+01      2.972260000000000E-01      1.218437000000000E+02      2.307739000000000E-01      2.967871000000000E+01
4840000000.000000      2.963409000000000E-01      8.866796000000000E+01      3.007507000000000E-01     -1.082568000000000E+01      3.025818000000000E-01      1.221406000000000E+02      2.278748000000000E-01      2.849414000000000E+01
4841000000.000000      2.901611000000000E-01      8.894922000000000E+01      3.065796000000000E-01     -1.069287000000000E+01      3.079681000000000E-01      1.221836000000000E+02      2.268906000000000E-01      2.706836000000000E+01
4842000000.000000      2.826233000000000E-01      8.921875000000000E+01      3.128510000000000E-01     -1.052100000000000E+01      3.130035000000000E-01      1.224531000000000E+02      2.255402000000000E-01      2.575195000000000E+01
4843000000.000000      2.769928000000000E-01      8.923437000000000E+01      3.188782000000000E-01     -1.074072000000000E+01      3.192139000000000E-01      1.225781000000000E+02      2.245941000000000E-01      2.402344000000000E+01
4844000000.000000      2.696228000000000E-01      8.954296000000000E+01      3.242035000000000E-01     -1.069678000000000E+01      3.244781000000000E-01      1.226211000000000E+02      2.195816000000000E-01      2.288965000000000E+01
4845000000.000000      2.625122000000000E-01      8.974218000000000E+01      3.298798000000000E-01     -1.062549000000000E+01      3.307800000000000E-01      1.227148000000000E+02      2.192612000000000E-01      2.131348000000000E+01
4846000000.000000      2.552490000000000E-01      8.994141000000000E+01      3.355865000000000E-01     -1.068848000000000E+01      3.367767000000000E-01      1.228320000000000E+02      2.170792000000000E-01      1.996484000000000E+01
4847000000.000000      2.486725000000000E-01      9.027735000000000E+01      3.404083000000000E-01     -1.078857000000000E+01      3.425140000000000E-01      1.228086000000000E+02      2.145538000000000E-01      1.836328000000000E+01
4848000000.000000      2.406540000000000E-01      9.035156000000000E+01      3.463745000000000E-01     -1.090137000000000E+01      3.477936000000000E-01      1.228789000000000E+02      2.130737000000000E-01      1.685840000000000E+01
4849000000.000000      2.335968000000000E-01      9.038671000000000E+01      3.525848000000000E-01     -1.108838000000000E+01      3.533173000000000E-01      1.228437000000000E+02      2.105484000000000E-01      1.552734000000000E+01
4850000000.000000      2.258148000000000E-01      9.050781000000000E+01      3.587799000000000E-01     -1.117480000000000E+01      3.592377000000000E-01      1.229375000000000E+02      2.086563000000000E-01      1.404590000000000E+01
4851000000.000000      2.182236000000000E-01      9.069139000000000E+01      3.650970000000000E-01     -1.136719000000000E+01      3.650970000000000E-01      1.228789000000000E+02      2.072144000000000E-01      1.263672000000000E+01
4852000000.000000      2.105255000000000E-01      9.081640000000000E+01      3.702698000000000E-01     -1.145752000000000E+01      3.709106000000000E-01      1.229648000000000E+02      2.047882000000000E-01      1.087744000000000E+01
4853000000.000000      2.027740000000000E-01      9.086718000000000E+01      3.747253000000000E-01     -1.164014000000000E+01      3.767853000000000E-01      1.228164000000000E+02      2.025757000000000E-01      9.346191000000000E+00
4854000000.000000      1.946411000000000E-01      9.065624000000000E+01      3.808289000000000E-01     -1.206738000000000E+01      3.828278000000000E-01      1.227617000000000E+02      2.012482000000000E-01      8.071777000000000E+00
4855000000.000000      1.870422000000000E-01      9.067577000000000E+01      3.881531000000000E-01     -1.213330000000000E+01      3.881531000000000E-01      1.227031000000000E+02      1.981277000000000E-01      6.521729000000000E+00
4856000000.000000      1.788101000000000E-01      9.076952000000000E+01      3.929749000000000E-01     -1.227588000000000E+01      3.939819000000000E-01      1.226719000000000E+02      1.969070000000000E-01      5.048096000000000E+00
4857000000.000000      1.702271000000000E-01      9.057421000000000E+01      3.988037000000000E-01     -1.260986000000000E+01      3.993378000000000E-01      1.225742000000000E+02      1.935043000000000E-01      3.301392000000000E+00
4858000000.000000      1.621246000000000E-01      9.018749000000000E+01      4.035492000000000E-01     -1.296387000000000E+01      4.060516000000000E-01      1.224453000000000E+02      1.920013000000000E-01      1.803101000000000E+00
4859000000.000000      1.542053000000000E-01      9.002733000000000E+01      4.098663000000000E-01     -1.320020000000000E+01      4.120331000000000E-01      1.222969000000000E+02      1.898575000000000E-01      1.867676000000000E-01
4860000000.000000      1.454620000000000E-01      8.989452000000000E+01      4.150391000000000E-01     -1.343652000000000E+01      4.168701000000000E-01      1.221680000000000E+02      1.880646000000000E-01     -1.192017000000000E+00
4861000000.000000      1.368484000000000E-01      8.958593000000000E+01      4.207764000000000E-01     -1.384033000000000E+01      4.237518000000000E-01      1.220117000000000E+02      1.848679000000000E-01     -2.901855000000000E+00
4862000000.000000      1.280594000000000E-01      8.918749000000000E+01      4.267426000000000E-01     -1.413281000000000E+01      4.292908000000000E-01      1.219102000000000E+02      1.835938000000000E-01     -4.445557000000000E+00
4863000000.000000      1.200409000000000E-01      8.844921000000000E+01      4.304810000000000E-01     -1.456689000000000E+01      4.352722000000000E-01      1.218437000000000E+02      1.819687000000000E-01     -5.806396000000000E+00
4864000000.000000      1.117783000000000E-01      8.751562000000000E+01      4.379730000000000E-01     -1.479199000000000E+01      4.412994000000000E-01      1.216602000000000E+02      1.796722000000000E-01     -7.617676000000000E+00
4865000000.000000      1.033058000000000E-01      8.688280000000000E+01      4.425049000000000E-01     -1.506787000000000E+01      4.460297000000000E-01      1.216211000000000E+02      1.777725000000000E-01     -9.020020000000000E+00
4866000000.000000      9.447098000000000E-02      8.510937000000000E+01      4.463348000000000E-01     -1.563086000000000E+01      4.527283000000000E-01      1.212578000000000E+02      1.761780000000000E-01     -1.068604000000000E+01
4867000000.000000      8.583450000000000E-02      8.404688000000000E+01      4.530487000000000E-01     -1.605176000000000E+01      4.574890000000000E-01      1.209219000000000E+02      1.732254000000000E-01     -1.211963000000000E+01
4868000000.000000      7.797623000000000E-02      8.254686000000000E+01      4.579620000000000E-01     -1.639453000000000E+01      4.632874000000000E-01      1.208164000000000E+02      1.710892000000000E-01     -1.371680000000000E+01
4869000000.000000      6.904984000000000E-02      8.005859000000000E+01      4.632568000000000E-01     -1.678906000000000E+01      4.682465000000000E-01      1.206328000000000E+02      1.683197000000000E-01     -1.547607000000000E+01
4870000000.000000      6.117439000000000E-02      7.705078000000000E+01      4.687347000000000E-01     -1.707617000000000E+01      4.746399000000000E-01      1.203750000000000E+02      1.673584000000000E-01     -1.680957000000000E+01
4871000000.000000      5.330658000000000E-02      7.296093000000000E+01      4.747009000000000E-01     -1.758301000000000E+01      4.807281000000000E-01      1.202383000000000E+02      1.648712000000000E-01     -1.849316000000000E+01
4872000000.000000      4.610062000000000E-02      6.757421000000000E+01      4.776306000000000E-01     -1.770312000000000E+01      4.860992000000000E-01      1.197890000000000E+02      1.630402000000000E-01     -1.993359000000000E+01
4873000000.000000      3.879356000000000E-02      6.112499000000000E+01      4.830017000000000E-01     -1.842871000000000E+01      4.907379000000000E-01      1.197852000000000E+02      1.600037000000000E-01     -2.158691000000000E+01
4874000000.000000      3.308487000000000E-02      5.112499000000000E+01      4.877930000000000E-01     -1.913183000000000E+01      4.967194000000000E-01      1.194453000000000E+02      1.587906000000000E-01     -2.312988000000000E+01
4875000000.000000      2.833366000000000E-02      3.733007000000000E+01      4.930878000000000E-01     -1.904394000000000E+01      5.033875000000000E-01      1.190351000000000E+02      1.565552000000000E-01     -2.491504000000000E+01
4876000000.000000      2.609634000000000E-02      2.073242000000000E+01      4.986115000000000E-01     -1.968359000000000E+01      5.102844000000000E-01      1.188203000000000E+02      1.542892000000000E-01     -2.661523000000000E+01
4877000000.000000      2.688599000000000E-02      5.767822000000000E-01      5.035400000000000E-01     -2.025391000000000E+01      5.140076000000000E-01      1.184492000000000E+02      1.521149000000000E-01     -2.786718000000000E+01
4878000000.000000      2.866936000000000E-02     -1.607226000000000E+01      5.081787000000000E-01     -2.055762000000000E+01      5.201416000000000E-01      1.182344000000000E+02      1.500626000000000E-01     -2.935840000000000E+01
4879000000.000000      3.387070000000000E-02     -2.757910000000000E+01      5.104980000000000E-01     -2.105469000000000E+01      5.260010000000000E-01      1.179062000000000E+02      1.483002000000000E-01     -3.109082000000000E+01
4880000000.000000      3.994942000000000E-02     -3.709961000000000E+01      5.178528000000000E-01     -2.161035000000000E+01      5.313110000000000E-01      1.175742000000000E+02      1.451645000000000E-01     -3.265820000000000E+01
4881000000.000000      4.603004000000000E-02     -4.372656000000000E+01      5.223083000000000E-01     -2.179297000000000E+01      5.364990000000000E-01      1.173242000000000E+02      1.435547000000000E-01     -3.400976000000000E+01
4882000000.000000      5.321121000000000E-02     -4.808203000000000E+01      5.289001000000000E-01     -2.234082000000000E+01      5.421143000000000E-01      1.170234000000000E+02      1.405334000000000E-01     -3.554688000000000E+01
