! Network Analyzer HP8722D
! Hewlett-Packard
! Data name: Linha & Wilkinson
! Saver's name: Rodrigo Anjos
! Comments: Teste da utilização de aquisição
continua pelo VNA HP8722D
! Time and date: 17/4/2025 11:07
!              Frequency                     S11                                                   S21                                                   S12                                                   S22
# HZ  S  MA R 50
4800000000.000000      3.890686000000000E-01      7.689843000000000E+01      1.885605000000000E-01     -5.306835000000000E+01      1.921158000000000E-01      8.205858000000000E+01      2.455978000000000E-01      7.153515000000000E+01
4801000000.000000      3.913727000000000E-01      7.712500000000000E+01      1.860809000000000E-01     -5.144921000000000E+01      1.896896000000000E-01      8.341015000000000E+01      2.465363000000000E-01      7.069921000000000E+01
4802000000.000000      3.936768000000000E-01      7.744531000000000E+01      1.845474000000000E-01     -4.977539000000000E+01      1.881409000000000E-01      8.473827000000000E+01      2.512970000000000E-01      6.931250000000000E+01
4803000000.000000      3.953094000000000E-01      7.773438000000000E+01      1.836548000000000E-01     -4.807617000000000E+01      1.860733000000000E-01      8.635546000000000E+01      2.499390000000000E-01      6.877343000000000E+01
4804000000.000000      3.973083000000000E-01      7.808203000000000E+01      1.824341000000000E-01     -4.647656000000000E+01      1.854324000000000E-01      8.769531000000000E+01      2.507782000000000E-01      6.820703000000000E+01
4805000000.000000      3.991699000000000E-01      7.831640000000000E+01      1.809082000000000E-01     -4.500000000000000E+01      1.842728000000000E-01      8.922655000000000E+01      2.528076000000000E-01      6.683594000000000E+01
4806000000.000000      3.993225000000000E-01      7.870703000000000E+01      1.804962000000000E-01     -4.338281000000000E+01      1.833420000000000E-01      9.094141000000000E+01      2.528839000000000E-01      6.607812000000000E+01
4807000000.000000      4.007416000000000E-01      7.894921000000000E+01      1.804810000000000E-01     -4.175195000000000E+01      1.833572000000000E-01      9.233593000000000E+01      2.531433000000000E-01      6.580859000000000E+01
4808000000.000000      4.007568000000000E-01      7.919531000000000E+01      1.806412000000000E-01     -3.997656000000000E+01      1.833725000000000E-01      9.397655000000000E+01      2.527924000000000E-01      6.474609000000000E+01
4809000000.000000      4.012451000000000E-01      7.969921000000000E+01      1.806793000000000E-01     -3.849804000000000E+01      1.840591000000000E-01      9.550781000000000E+01      2.552185000000000E-01      6.419922000000000E+01
4810000000.000000      4.015808000000000E-01      7.984765000000000E+01      1.817932000000000E-01     -3.650976000000000E+01      1.842651000000000E-01      9.715624000000000E+01      2.554626000000000E-01      6.306250000000000E+01
4811000000.000000      4.017944000000000E-01      8.024218000000000E+01      1.822739000000000E-01     -3.516211000000000E+01      1.858597000000000E-01      9.876562000000000E+01      2.556305000000000E-01      6.226757000000000E+01
4812000000.000000      4.021759000000000E-01      8.060156000000000E+01      1.836929000000000E-01     -3.336523000000000E+01      1.870270000000000E-01      1.000703000000000E+02      2.555847000000000E-01      6.088085000000000E+01
4813000000.000000      4.008026000000000E-01      8.090235000000000E+01      1.849213000000000E-01     -3.182422000000000E+01      1.886749000000000E-01      1.017344000000000E+02      2.578430000000000E-01      6.041210000000000E+01
4814000000.000000      3.990326000000000E-01      8.117579000000000E+01      1.873322000000000E-01     -3.038476000000000E+01      1.903839000000000E-01      1.030391000000000E+02      2.563477000000000E-01      5.930469000000000E+01
4815000000.000000      3.978729000000000E-01      8.149218000000000E+01      1.888351000000000E-01     -2.887793000000000E+01      1.925507000000000E-01      1.044648000000000E+02      2.579041000000000E-01      5.832421000000000E+01
4816000000.000000      3.973694000000000E-01      8.179688000000000E+01      1.921082000000000E-01     -2.711035000000000E+01      1.952972000000000E-01      1.058828000000000E+02      2.576752000000000E-01      5.698437000000000E+01
4817000000.000000      3.948669000000000E-01      8.216015000000000E+01      1.941681000000000E-01     -2.603027000000000E+01      1.976242000000000E-01      1.072031000000000E+02      2.560883000000000E-01      5.644726000000000E+01
4818000000.000000      3.930664000000000E-01      8.235546000000000E+01      1.970978000000000E-01     -2.488086000000000E+01      2.007065000000000E-01      1.083945000000000E+02      2.564697000000000E-01      5.562500000000000E+01
4819000000.000000      3.911285000000000E-01      8.268749000000000E+01      2.001190000000000E-01     -2.342871000000000E+01      2.038574000000000E-01      1.094765000000000E+02      2.550507000000000E-01      5.456445000000000E+01
4820000000.000000      3.873596000000000E-01      8.298437000000000E+01      2.034073000000000E-01     -2.215625000000000E+01      2.070541000000000E-01      1.106445000000000E+02      2.555084000000000E-01      5.304882000000000E+01
4821000000.000000      3.863525000000000E-01      8.330078000000000E+01      2.079544000000000E-01     -2.104785000000000E+01      2.105026000000000E-01      1.117109000000000E+02      2.535400000000000E-01      5.232616000000000E+01
4822000000.000000      3.829498000000000E-01      8.353907000000000E+01      2.107773000000000E-01     -2.012012000000000E+01      2.138214000000000E-01      1.126836000000000E+02      2.527161000000000E-01      5.100390000000000E+01
4823000000.000000      3.801270000000000E-01      8.382030000000000E+01      2.155304000000000E-01     -1.911914000000000E+01      2.179031000000000E-01      1.137344000000000E+02      2.524261000000000E-01      4.966210000000000E+01
4824000000.000000      3.771667000000000E-01      8.424219000000000E+01      2.189102000000000E-01     -1.834082000000000E+01      2.220078000000000E-01      1.143711000000000E+02      2.509003000000000E-01      4.846093000000000E+01
4825000000.000000      3.729858000000000E-01      8.440233000000000E+01      2.231216000000000E-01     -1.734766000000000E+01      2.268829000000000E-01      1.153906000000000E+02      2.509613000000000E-01      4.730273000000000E+01
4826000000.000000      3.691711000000000E-01      8.469141000000000E+01      2.279587000000000E-01     -1.657031000000000E+01      2.305222000000000E-01      1.161992000000000E+02      2.496109000000000E-01      4.649804000000000E+01
4827000000.000000      3.655396000000000E-01      8.510546000000000E+01      2.321091000000000E-01     -1.572461000000000E+01      2.351303000000000E-01      1.167891000000000E+02      2.482834000000000E-01      4.489258000000000E+01
4828000000.000000      3.616486000000000E-01      8.540625000000000E+01      2.370758000000000E-01     -1.502148000000000E+01      2.399979000000000E-01      1.173828000000000E+02      2.464828000000000E-01      4.360937000000000E+01
4829000000.000000      3.566132000000000E-01      8.576563000000000E+01      2.422409000000000E-01     -1.449658000000000E+01      2.448425000000000E-01      1.181914000000000E+02      2.477951000000000E-01      4.266015000000000E+01
4830000000.000000      3.521729000000000E-01      8.594921000000000E+01      2.471848000000000E-01     -1.390332000000000E+01      2.496796000000000E-01      1.186914000000000E+02      2.456512000000000E-01      4.123828000000000E+01
4831000000.000000      3.470612000000000E-01      8.627344000000000E+01      2.520447000000000E-01     -1.346924000000000E+01      2.544250000000000E-01      1.192969000000000E+02      2.420731000000000E-01      3.978711000000000E+01
4832000000.000000      3.422089000000000E-01      8.663671000000000E+01      2.569122000000000E-01     -1.285840000000000E+01      2.593231000000000E-01      1.197383000000000E+02      2.413025000000000E-01      3.910937000000000E+01
4833000000.000000      3.368225000000000E-01      8.683985000000000E+01      2.622375000000000E-01     -1.240527000000000E+01      2.645874000000000E-01      1.201250000000000E+02      2.409363000000000E-01      3.759570000000000E+01
4834000000.000000      3.316956000000000E-01      8.712891000000000E+01      2.672882000000000E-01     -1.213721000000000E+01      2.696533000000000E-01      1.205195000000000E+02      2.388687000000000E-01      3.613086000000000E+01
4835000000.000000      3.258514000000000E-01      8.735546000000000E+01      2.733765000000000E-01     -1.181592000000000E+01      2.752991000000000E-01      1.208867000000000E+02      2.379303000000000E-01      3.471680000000000E+01
4836000000.000000      3.209076000000000E-01      8.768749000000000E+01      2.782898000000000E-01     -1.157959000000000E+01      2.801514000000000E-01      1.213320000000000E+02      2.356186000000000E-01      3.366992000000000E+01
4837000000.000000      3.145905000000000E-01      8.802343000000000E+01      2.829742000000000E-01     -1.153711000000000E+01      2.854004000000000E-01      1.215586000000000E+02      2.328644000000000E-01      3.241992000000000E+01
4838000000.000000      3.080597000000000E-01      8.826172000000000E+01      2.892456000000000E-01     -1.102100000000000E+01      2.909393000000000E-01      1.217930000000000E+02      2.327652000000000E-01      3.086426000000000E+01
4839000000.000000      3.032684000000000E-01      8.850389000000000E+01      2.945251000000000E-01     -1.091504000000000E+01      2.966614000000000E-01      1.220469000000000E+02      2.313461000000000E-01      2.912988000000000E+01
4840000000.000000      2.961273000000000E-01      8.865625000000000E+01      3.007660000000000E-01     -1.078613000000000E+01      3.021393000000000E-01      1.222773000000000E+02      2.276306000000000E-01      2.781250000000000E+01
4841000000.000000      2.900543000000000E-01      8.908594000000000E+01      3.059387000000000E-01     -1.079297000000000E+01      3.074799000000000E-01      1.224687000000000E+02      2.261581000000000E-01      2.663476000000000E+01
4842000000.000000      2.821960000000000E-01      8.920702000000000E+01      3.115234000000000E-01     -1.068018000000000E+01      3.126373000000000E-01      1.226641000000000E+02      2.244873000000000E-01      2.543457000000000E+01
4843000000.000000      2.765198000000000E-01      8.935156000000000E+01      3.181000000000000E-01     -1.064453000000000E+01      3.184814000000000E-01      1.226875000000000E+02      2.236481000000000E-01      2.396094000000000E+01
4844000000.000000      2.689972000000000E-01      8.963282000000000E+01      3.234863000000000E-01     -1.069141000000000E+01      3.236542000000000E-01      1.227969000000000E+02      2.201233000000000E-01      2.235156000000000E+01
4845000000.000000      2.622528000000000E-01      8.993359000000000E+01      3.288879000000000E-01     -1.057617000000000E+01      3.301239000000000E-01      1.229140000000000E+02      2.184296000000000E-01      2.100586000000000E+01
4846000000.000000      2.555695000000000E-01      9.002733000000000E+01      3.344269000000000E-01     -1.066650000000000E+01      3.358765000000000E-01      1.229648000000000E+02      2.166214000000000E-01      1.957617000000000E+01
4847000000.000000      2.482986000000000E-01      9.030077000000000E+01      3.407898000000000E-01     -1.072168000000000E+01      3.420105000000000E-01      1.229766000000000E+02      2.142563000000000E-01      1.809668000000000E+01
4848000000.000000      2.407837000000000E-01      9.042969000000000E+01      3.456726000000000E-01     -1.072852000000000E+01      3.471680000000000E-01      1.230469000000000E+02      2.124329000000000E-01      1.653223000000000E+01
4849000000.000000      2.334900000000000E-01      9.050390000000000E+01      3.522034000000000E-01     -1.091260000000000E+01      3.526917000000000E-01      1.230273000000000E+02      2.096558000000000E-01      1.528320000000000E+01
4850000000.000000      2.253799000000000E-01      9.062500000000000E+01      3.578186000000000E-01     -1.101563000000000E+01      3.587952000000000E-01      1.231250000000000E+02      2.079620000000000E-01      1.376025000000000E+01
4851000000.000000      2.180099000000000E-01      9.089062000000000E+01      3.637085000000000E-01     -1.128613000000000E+01      3.643494000000000E-01      1.230508000000000E+02      2.068329000000000E-01      1.210254000000000E+01
4852000000.000000      2.100754000000000E-01      9.079687000000000E+01      3.701477000000000E-01     -1.136816000000000E+01      3.695374000000000E-01      1.230664000000000E+02      2.041016000000000E-01      1.068799000000000E+01
4853000000.000000      2.027206000000000E-01      9.098436000000000E+01      3.746033000000000E-01     -1.169092000000000E+01      3.764038000000000E-01      1.230273000000000E+02      2.019730000000000E-01      9.038574000000000E+00
4854000000.000000      1.940613000000000E-01      9.076563000000000E+01      3.806763000000000E-01     -1.192432000000000E+01      3.820190000000000E-01      1.228711000000000E+02      2.015381000000000E-01      7.539307000000000E+00
4855000000.000000      1.863327000000000E-01      9.087109000000000E+01      3.864594000000000E-01     -1.210596000000000E+01      3.873596000000000E-01      1.229375000000000E+02      1.967621000000000E-01      6.303223000000000E+00
4856000000.000000      1.780167000000000E-01      9.089062000000000E+01      3.918915000000000E-01     -1.239160000000000E+01      3.932495000000000E-01      1.228086000000000E+02      1.963730000000000E-01      4.703369000000000E+00
4857000000.000000      1.701889000000000E-01      9.078516000000000E+01      3.983307000000000E-01     -1.261377000000000E+01      3.989716000000000E-01      1.227500000000000E+02      1.931381000000000E-01      2.956665000000000E+00
4858000000.000000      1.619720000000000E-01      9.041016000000000E+01      4.031982000000000E-01     -1.291895000000000E+01      4.042206000000000E-01      1.225742000000000E+02      1.917038000000000E-01      1.354065000000000E+00
4859000000.000000      1.533737000000000E-01      9.022655000000000E+01      4.093933000000000E-01     -1.324561000000000E+01      4.108887000000000E-01      1.224844000000000E+02      1.904373000000000E-01     -1.235962000000000E-01
4860000000.000000      1.454544000000000E-01      9.016796000000000E+01      4.145813000000000E-01     -1.338721000000000E+01      4.158630000000000E-01      1.222187000000000E+02      1.876297000000000E-01     -1.446106000000000E+00
4861000000.000000      1.368179000000000E-01      8.966015000000000E+01      4.201660000000000E-01     -1.392969000000000E+01      4.225006000000000E-01      1.221836000000000E+02      1.846848000000000E-01     -3.240967000000000E+00
4862000000.000000      1.278534000000000E-01      8.919140000000000E+01      4.264679000000000E-01     -1.421387000000000E+01      4.282837000000000E-01      1.221328000000000E+02      1.834030000000000E-01     -4.926025000000000E+00
4863000000.000000      1.199074000000000E-01      8.861719000000000E+01      4.311218000000000E-01     -1.456006000000000E+01      4.341736000000000E-01      1.218750000000000E+02      1.813431000000000E-01     -6.204590000000000E+00
4864000000.000000      1.112328000000000E-01      8.800781000000000E+01      4.373016000000000E-01     -1.489063000000000E+01      4.396210000000000E-01      1.216836000000000E+02      1.786423000000000E-01     -8.035156000000000E+00
4865000000.000000      1.033020000000000E-01      8.685938000000000E+01      4.409180000000000E-01     -1.505420000000000E+01      4.447327000000000E-01      1.214961000000000E+02      1.781387000000000E-01     -9.351074000000000E+00
4866000000.000000      9.443283000000000E-02      8.538671000000000E+01      4.467773000000000E-01     -1.549365000000000E+01      4.505920000000000E-01      1.213515000000000E+02      1.753845000000000E-01     -1.106201000000000E+01
4867000000.000000      8.588791000000000E-02      8.455469000000000E+01      4.521942000000000E-01     -1.607324000000000E+01      4.572144000000000E-01      1.212773000000000E+02      1.734772000000000E-01     -1.253418000000000E+01
4868000000.000000      7.807541000000000E-02      8.291407000000000E+01      4.571228000000000E-01     -1.644824000000000E+01      4.647827000000000E-01      1.208281000000000E+02      1.708298000000000E-01     -1.400781000000000E+01
4869000000.000000      6.911850000000000E-02      8.027344000000000E+01      4.629974000000000E-01     -1.681250000000000E+01      4.688568000000000E-01      1.207500000000000E+02      1.692810000000000E-01     -1.583447000000000E+01
4870000000.000000      6.148529000000000E-02      7.731640000000000E+01      4.676208000000000E-01     -1.701172000000000E+01      4.741669000000000E-01      1.206055000000000E+02      1.671524000000000E-01     -1.725586000000000E+01
4871000000.000000      5.352020000000000E-02      7.345312000000000E+01      4.723358000000000E-01     -1.761328000000000E+01      4.796906000000000E-01      1.201758000000000E+02      1.644821000000000E-01     -1.878320000000000E+01
4872000000.000000      4.593658000000000E-02      6.884766000000000E+01      4.768982000000000E-01     -1.790723000000000E+01      4.851379000000000E-01      1.198320000000000E+02      1.631546000000000E-01     -2.016699000000000E+01
4873000000.000000      3.881073000000000E-02      6.175781000000000E+01      4.827728000000000E-01     -1.840234000000000E+01      4.912567000000000E-01      1.196328000000000E+02      1.605682000000000E-01     -2.202929000000000E+01
4874000000.000000      3.290367000000000E-02      5.237305000000000E+01      4.876556000000000E-01     -1.885254000000000E+01      4.972076000000000E-01      1.194727000000000E+02      1.587906000000000E-01     -2.342871000000000E+01
4875000000.000000      2.747345000000000E-02      3.766602000000000E+01      4.936066000000000E-01     -1.925683000000000E+01      5.040283000000000E-01      1.192812000000000E+02      1.563187000000000E-01     -2.496679000000000E+01
4876000000.000000      2.584076000000000E-02      2.141016000000000E+01      4.970245000000000E-01     -1.982715000000000E+01      5.084534000000000E-01      1.191094000000000E+02      1.547699000000000E-01     -2.680273000000000E+01
4877000000.000000      2.593136000000000E-02      1.407593000000000E+00      5.022583000000000E-01     -2.005078000000000E+01      5.142517000000000E-01      1.185820000000000E+02      1.520538000000000E-01     -2.810351000000000E+01
4878000000.000000      2.841568000000000E-02     -1.574902000000000E+01      5.075989000000000E-01     -2.064648000000000E+01      5.194397000000000E-01      1.183906000000000E+02      1.500244000000000E-01     -2.993261000000000E+01
4879000000.000000      3.294945000000000E-02     -2.824512000000000E+01      5.107422000000000E-01     -2.108984000000000E+01      5.247192000000000E-01      1.179766000000000E+02      1.484985000000000E-01     -3.151367000000000E+01
4880000000.000000      3.933144000000000E-02     -3.755468000000000E+01      5.162354000000000E-01     -2.163574000000000E+01      5.306396000000000E-01      1.178281000000000E+02      1.458588000000000E-01     -3.300195000000000E+01
4881000000.000000      4.537582000000000E-02     -4.471875000000000E+01      5.213013000000000E-01     -2.190136000000000E+01      5.369873000000000E-01      1.173672000000000E+02      1.438675000000000E-01     -3.438672000000000E+01
4882000000.000000      5.259514000000000E-02     -4.857226000000000E+01      5.255432000000000E-01     -2.253711000000000E+01      5.430603000000000E-01      1.171016000000000E+02      1.409683000000000E-01     -3.574804000000000E+01
