! Network Analyzer HP8722D
! Hewlett-Packard
! Data name: Linha & Wilkinson
! Saver's name: Rodrigo Anjos
! Comments: Teste da utilização de aquisição
continua pelo VNA HP8722D
! Time and date: 17/4/2025 12:42
!              Frequency                     S11                                                   S21                                                   S12                                                   S22
# HZ  S  MA R 50
4800000000.000000      3.318176000000000E-01     -1.138320000000000E+02      2.904816000000000E-01     -6.097461000000000E+01      2.836761000000000E-01     -1.751484000000000E+02      6.561584000000000E-01     -8.982422000000000E+01
4801000000.000000      3.314209000000000E-01     -1.146445000000000E+02      2.949219000000000E-01     -6.104101000000000E+01      2.878113000000000E-01     -1.750937000000000E+02      6.546936000000000E-01     -8.991014000000000E+01
4802000000.000000      3.302002000000000E-01     -1.157617000000000E+02      2.988434000000000E-01     -6.098633000000000E+01      2.917633000000000E-01     -1.748828000000000E+02      6.539001000000000E-01     -8.996874000000000E+01
4803000000.000000      3.298950000000000E-01     -1.167656000000000E+02      3.044128000000000E-01     -6.120312000000000E+01      2.962036000000000E-01     -1.748594000000000E+02      6.533813000000000E-01     -9.008204000000000E+01
4804000000.000000      3.289185000000000E-01     -1.176523000000000E+02      3.085480000000000E-01     -6.120898000000000E+01      2.996521000000000E-01     -1.747969000000000E+02      6.523438000000000E-01     -9.008204000000000E+01
4805000000.000000      3.291779000000000E-01     -1.187070000000000E+02      3.125153000000000E-01     -6.146484000000000E+01      3.040466000000000E-01     -1.746484000000000E+02      6.519165000000000E-01     -9.030077000000000E+01
4806000000.000000      3.289337000000000E-01     -1.197734000000000E+02      3.176575000000000E-01     -6.153320000000000E+01      3.066711000000000E-01     -1.742891000000000E+02      6.516113000000000E-01     -9.035547000000000E+01
4807000000.000000      3.283234000000000E-01     -1.207969000000000E+02      3.219452000000000E-01     -6.181250000000000E+01      3.119659000000000E-01     -1.744922000000000E+02      6.501465000000000E-01     -9.053514000000000E+01
4808000000.000000      3.294067000000000E-01     -1.218125000000000E+02      3.263092000000000E-01     -6.182031000000000E+01      3.157654000000000E-01     -1.743359000000000E+02      6.494141000000000E-01     -9.051172000000000E+01
4809000000.000000      3.290405000000000E-01     -1.228711000000000E+02      3.312378000000000E-01     -6.212109000000000E+01      3.200378000000000E-01     -1.743515000000000E+02      6.496277000000000E-01     -9.068750000000000E+01
4810000000.000000      3.301086000000000E-01     -1.240469000000000E+02      3.360748000000000E-01     -6.222656000000000E+01      3.248596000000000E-01     -1.742031000000000E+02      6.502380000000000E-01     -9.071093000000000E+01
4811000000.000000      3.311005000000000E-01     -1.251445000000000E+02      3.398590000000000E-01     -6.251953000000000E+01      3.292389000000000E-01     -1.741172000000000E+02      6.490173000000000E-01     -9.074219000000000E+01
4812000000.000000      3.327026000000000E-01     -1.260976000000000E+02      3.439331000000000E-01     -6.270508000000000E+01      3.327789000000000E-01     -1.740234000000000E+02      6.503296000000000E-01     -9.092577000000000E+01
4813000000.000000      3.333282000000000E-01     -1.272109000000000E+02      3.483582000000000E-01     -6.283398000000000E+01      3.361053000000000E-01     -1.738828000000000E+02      6.492004000000000E-01     -9.090235000000000E+01
4814000000.000000      3.346863000000000E-01     -1.284609000000000E+02      3.523560000000000E-01     -6.314648000000000E+01      3.405762000000000E-01     -1.740391000000000E+02      6.488953000000000E-01     -9.100000000000000E+01
4815000000.000000      3.367004000000000E-01     -1.295078000000000E+02      3.558350000000000E-01     -6.326366000000000E+01      3.445129000000000E-01     -1.739141000000000E+02      6.491089000000000E-01     -9.112499000000000E+01
4816000000.000000      3.388977000000000E-01     -1.304453000000000E+02      3.605652000000000E-01     -6.348827000000000E+01      3.486938000000000E-01     -1.738047000000000E+02      6.485291000000000E-01     -9.112890000000000E+01
4817000000.000000      3.411407000000000E-01     -1.316328000000000E+02      3.644867000000000E-01     -6.372851000000000E+01      3.526001000000000E-01     -1.738984000000000E+02      6.488037000000000E-01     -9.134766000000000E+01
4818000000.000000      3.432770000000000E-01     -1.327422000000000E+02      3.677216000000000E-01     -6.407812000000000E+01      3.565369000000000E-01     -1.737578000000000E+02      6.490173000000000E-01     -9.135157000000000E+01
4819000000.000000      3.456421000000000E-01     -1.337500000000000E+02      3.719177000000000E-01     -6.426562000000000E+01      3.600616000000000E-01     -1.738203000000000E+02      6.516418000000000E-01     -9.150000000000000E+01
4820000000.000000      3.475494000000000E-01     -1.347344000000000E+02      3.756256000000000E-01     -6.432812000000000E+01      3.649597000000000E-01     -1.737266000000000E+02      6.514587000000000E-01     -9.153515000000000E+01
4821000000.000000      3.511200000000000E-01     -1.359219000000000E+02      3.799744000000000E-01     -6.448437000000000E+01      3.686523000000000E-01     -1.738281000000000E+02      6.509399000000000E-01     -9.169531000000000E+01
4822000000.000000      3.554993000000000E-01     -1.370469000000000E+02      3.836212000000000E-01     -6.489062000000000E+01      3.717346000000000E-01     -1.737890000000000E+02      6.526489000000000E-01     -9.165625000000000E+01
4823000000.000000      3.575592000000000E-01     -1.380078000000000E+02      3.885193000000000E-01     -6.519531000000000E+01      3.756714000000000E-01     -1.736094000000000E+02      6.532288000000000E-01     -9.176952000000000E+01
4824000000.000000      3.620758000000000E-01     -1.391328000000000E+02      3.914032000000000E-01     -6.557812000000000E+01      3.807526000000000E-01     -1.737187000000000E+02      6.548462000000000E-01     -9.179688000000000E+01
4825000000.000000      3.652039000000000E-01     -1.400938000000000E+02      3.944244000000000E-01     -6.567187000000000E+01      3.851318000000000E-01     -1.736172000000000E+02      6.548767000000000E-01     -9.185156000000000E+01
4826000000.000000      3.693390000000000E-01     -1.410859000000000E+02      3.985443000000000E-01     -6.599218000000000E+01      3.878632000000000E-01     -1.738125000000000E+02      6.557617000000000E-01     -9.200781000000000E+01
4827000000.000000      3.735657000000000E-01     -1.419219000000000E+02      4.030457000000000E-01     -6.626953000000000E+01      3.923492000000000E-01     -1.736484000000000E+02      6.574707000000000E-01     -9.206640000000000E+01
4828000000.000000      3.777924000000000E-01     -1.430078000000000E+02      4.067841000000000E-01     -6.656640000000000E+01      3.954773000000000E-01     -1.736719000000000E+02      6.594543000000000E-01     -9.223047000000000E+01
4829000000.000000      3.809204000000000E-01     -1.438359000000000E+02      4.091034000000000E-01     -6.678515000000000E+01      3.996277000000000E-01     -1.736562000000000E+02      6.604614000000000E-01     -9.205469000000000E+01
4830000000.000000      3.862305000000000E-01     -1.448750000000000E+02      4.132385000000000E-01     -6.717968000000000E+01      4.038849000000000E-01     -1.736094000000000E+02      6.613770000000000E-01     -9.228125000000000E+01
4831000000.000000      3.903961000000000E-01     -1.457344000000000E+02      4.167023000000000E-01     -6.729687000000000E+01      4.085693000000000E-01     -1.736484000000000E+02      6.642151000000000E-01     -9.229296000000000E+01
4832000000.000000      3.959503000000000E-01     -1.466406000000000E+02      4.205627000000000E-01     -6.773828000000000E+01      4.125366000000000E-01     -1.737890000000000E+02      6.661682000000000E-01     -9.240625000000000E+01
4833000000.000000      4.007874000000000E-01     -1.476484000000000E+02      4.235535000000000E-01     -6.797656000000000E+01      4.172058000000000E-01     -1.737734000000000E+02      6.675720000000000E-01     -9.244532000000000E+01
4834000000.000000      4.049988000000000E-01     -1.484688000000000E+02      4.273376000000000E-01     -6.824609000000000E+01      4.203644000000000E-01     -1.738828000000000E+02      6.684875000000000E-01     -9.248438000000000E+01
4835000000.000000      4.098663000000000E-01     -1.493125000000000E+02      4.296417000000000E-01     -6.865234000000000E+01      4.251404000000000E-01     -1.738750000000000E+02      6.716614000000000E-01     -9.258204000000000E+01
4836000000.000000      4.155731000000000E-01     -1.500391000000000E+02      4.330444000000000E-01     -6.895312000000000E+01      4.282837000000000E-01     -1.738281000000000E+02      6.730652000000000E-01     -9.256639000000000E+01
4837000000.000000      4.207764000000000E-01     -1.508281000000000E+02      4.364777000000000E-01     -6.941406000000000E+01      4.325867000000000E-01     -1.740156000000000E+02      6.752625000000000E-01     -9.253906000000000E+01
4838000000.000000      4.259949000000000E-01     -1.517969000000000E+02      4.403687000000000E-01     -6.929296000000000E+01      4.367065000000000E-01     -1.740391000000000E+02      6.777344000000000E-01     -9.266405000000000E+01
4839000000.000000      4.312134000000000E-01     -1.524219000000000E+02      4.421997000000000E-01     -6.978125000000000E+01      4.409027000000000E-01     -1.740547000000000E+02      6.802673000000000E-01     -9.265625000000000E+01
4840000000.000000      4.360657000000000E-01     -1.532344000000000E+02      4.455261000000000E-01     -7.012109000000000E+01      4.449921000000000E-01     -1.741328000000000E+02      6.816711000000000E-01     -9.273829000000000E+01
4841000000.000000      4.412079000000000E-01     -1.541563000000000E+02      4.484711000000000E-01     -7.054688000000000E+01      4.500885000000000E-01     -1.743515000000000E+02      6.841736000000000E-01     -9.282812000000000E+01
4842000000.000000      4.468689000000000E-01     -1.546875000000000E+02      4.521790000000000E-01     -7.082421000000000E+01      4.527130000000000E-01     -1.743203000000000E+02      6.868591000000000E-01     -9.285936000000000E+01
4843000000.000000      4.511871000000000E-01     -1.555469000000000E+02      4.543762000000000E-01     -7.121484000000000E+01      4.569702000000000E-01     -1.743828000000000E+02      6.880493000000000E-01     -9.302343000000000E+01
4844000000.000000      4.563293000000000E-01     -1.562266000000000E+02      4.574432000000000E-01     -7.153515000000000E+01      4.607239000000000E-01     -1.744688000000000E+02      6.912537000000000E-01     -9.303514000000000E+01
4845000000.000000      4.616852000000000E-01     -1.567969000000000E+02      4.592285000000000E-01     -7.183594000000000E+01      4.651337000000000E-01     -1.746406000000000E+02      6.934509000000000E-01     -9.298437000000000E+01
4846000000.000000      4.665222000000000E-01     -1.574609000000000E+02      4.622498000000000E-01     -7.203906000000000E+01      4.697418000000000E-01     -1.746172000000000E+02      6.969604000000000E-01     -9.306250000000000E+01
4847000000.000000      4.722595000000000E-01     -1.581797000000000E+02      4.651184000000000E-01     -7.250781000000000E+01      4.742584000000000E-01     -1.748828000000000E+02      6.991272000000000E-01     -9.325781000000000E+01
4848000000.000000      4.772949000000000E-01     -1.587969000000000E+02      4.673004000000000E-01     -7.268749000000000E+01      4.774170000000000E-01     -1.748906000000000E+02      7.018127000000000E-01     -9.316406000000000E+01
4849000000.000000      4.820404000000000E-01     -1.596641000000000E+02      4.689331000000000E-01     -7.321094000000000E+01      4.813843000000000E-01     -1.750859000000000E+02      7.045898000000000E-01     -9.325390000000000E+01
4850000000.000000      4.868622000000000E-01     -1.600391000000000E+02      4.721222000000000E-01     -7.336328000000000E+01      4.853973000000000E-01     -1.750625000000000E+02      7.073364000000000E-01     -9.327734000000000E+01
4851000000.000000      4.922943000000000E-01     -1.606094000000000E+02      4.761658000000000E-01     -7.383594000000000E+01      4.892120000000000E-01     -1.751953000000000E+02      7.113647000000000E-01     -9.331249000000000E+01
4852000000.000000      4.969025000000000E-01     -1.612578000000000E+02      4.768829000000000E-01     -7.406250000000000E+01      4.931335000000000E-01     -1.753594000000000E+02      7.137146000000000E-01     -9.338282000000000E+01
4853000000.000000      5.014648000000000E-01     -1.618515000000000E+02      4.780426000000000E-01     -7.435156000000000E+01      4.976349000000000E-01     -1.755781000000000E+02      7.150269000000000E-01     -9.350780000000000E+01
4854000000.000000      5.059204000000000E-01     -1.623516000000000E+02      4.806519000000000E-01     -7.484375000000000E+01      5.016785000000000E-01     -1.756797000000000E+02      7.166443000000000E-01     -9.340624000000000E+01
4855000000.000000      5.088806000000000E-01     -1.630078000000000E+02      4.826508000000000E-01     -7.500000000000000E+01      5.046997000000000E-01     -1.758828000000000E+02      7.205200000000000E-01     -9.352343000000000E+01
4856000000.000000      5.145264000000000E-01     -1.634219000000000E+02      4.853516000000000E-01     -7.525000000000000E+01      5.083618000000000E-01     -1.759766000000000E+02      7.239075000000000E-01     -9.352343000000000E+01
4857000000.000000      5.185547000000000E-01     -1.639922000000000E+02      4.871826000000000E-01     -7.571094000000000E+01      5.128784000000000E-01     -1.761094000000000E+02      7.269287000000000E-01     -9.361328000000000E+01
4858000000.000000      5.201416000000000E-01     -1.645078000000000E+02      4.891815000000000E-01     -7.593750000000000E+01      5.148315000000000E-01     -1.763125000000000E+02      7.308044000000000E-01     -9.380077000000000E+01
4859000000.000000      5.249329000000000E-01     -1.650703000000000E+02      4.917297000000000E-01     -7.625000000000000E+01      5.200500000000000E-01     -1.766094000000000E+02      7.351074000000000E-01     -9.374609000000000E+01
4860000000.000000      5.291443000000000E-01     -1.654922000000000E+02      4.916687000000000E-01     -7.650391000000000E+01      5.213623000000000E-01     -1.766875000000000E+02      7.356262000000000E-01     -9.368750000000000E+01
4861000000.000000      5.326538000000000E-01     -1.658125000000000E+02      4.934082000000000E-01     -7.703515000000000E+01      5.265198000000000E-01     -1.767500000000000E+02      7.395325000000000E-01     -9.375780000000000E+01
4862000000.000000      5.348816000000000E-01     -1.662969000000000E+02      4.958191000000000E-01     -7.697266000000000E+01      5.302429000000000E-01     -1.770781000000000E+02      7.438354000000000E-01     -9.376171000000000E+01
4863000000.000000      5.375671000000000E-01     -1.667656000000000E+02      4.949799000000000E-01     -7.741405000000000E+01      5.332947000000000E-01     -1.771641000000000E+02      7.457275000000000E-01     -9.389843000000000E+01
4864000000.000000      5.413818000000000E-01     -1.671172000000000E+02      4.982605000000000E-01     -7.781250000000000E+01      5.354614000000000E-01     -1.773281000000000E+02      7.481689000000000E-01     -9.400000000000000E+01
4865000000.000000      5.434265000000000E-01     -1.676328000000000E+02      5.006714000000000E-01     -7.806641000000000E+01      5.386353000000000E-01     -1.775703000000000E+02      7.508545000000000E-01     -9.394922000000000E+01
4866000000.000000      5.453186000000000E-01     -1.679297000000000E+02      5.014954000000000E-01     -7.827734000000000E+01      5.424194000000000E-01     -1.777422000000000E+02      7.539673000000000E-01     -9.381639000000000E+01
4867000000.000000      5.476990000000000E-01     -1.682812000000000E+02      5.046387000000000E-01     -7.864452000000000E+01      5.456543000000000E-01     -1.778828000000000E+02      7.568665000000000E-01     -9.403515000000000E+01
4868000000.000000      5.507507000000000E-01     -1.687031000000000E+02      5.054016000000000E-01     -7.900000000000000E+01      5.495605000000000E-01     -1.781328000000000E+02      7.605591000000000E-01     -9.414843000000000E+01
4869000000.000000      5.512695000000000E-01     -1.689766000000000E+02      5.046387000000000E-01     -7.930859000000000E+01      5.511780000000000E-01     -1.783281000000000E+02      7.616577000000000E-01     -9.414454000000000E+01
4870000000.000000      5.528259000000000E-01     -1.693438000000000E+02      5.064087000000000E-01     -7.932031000000000E+01      5.543823000000000E-01     -1.784844000000000E+02      7.644653000000000E-01     -9.410156000000000E+01
4871000000.000000      5.558472000000000E-01     -1.696953000000000E+02      5.082092000000000E-01     -7.956640000000000E+01      5.558777000000000E-01     -1.788437000000000E+02      7.668152000000000E-01     -9.428514000000000E+01
4872000000.000000      5.580444000000000E-01     -1.698828000000000E+02      5.088806000000000E-01     -7.985546000000000E+01      5.594177000000000E-01     -1.791953000000000E+02      7.705078000000000E-01     -9.414843000000000E+01
4873000000.000000      5.580139000000000E-01     -1.701484000000000E+02      5.098267000000000E-01     -8.008984000000000E+01      5.614929000000000E-01     -1.791563000000000E+02      7.717896000000000E-01     -9.432421000000000E+01
4874000000.000000      5.585938000000000E-01     -1.703984000000000E+02      5.111084000000000E-01     -8.062500000000000E+01      5.662537000000000E-01     -1.793594000000000E+02      7.749023000000000E-01     -9.419922000000000E+01
4875000000.000000      5.606995000000000E-01     -1.707187000000000E+02      5.123901000000000E-01     -8.059765000000000E+01      5.666809000000000E-01     -1.797344000000000E+02      7.770081000000000E-01     -9.442968000000000E+01
4876000000.000000      5.612183000000000E-01     -1.709531000000000E+02      5.135498000000000E-01     -8.104687000000000E+01      5.697632000000000E-01     -1.797109000000000E+02      7.796631000000000E-01     -9.446875000000000E+01
4877000000.000000      5.612793000000000E-01     -1.710859000000000E+02      5.140076000000000E-01     -8.098047000000000E+01      5.713196000000000E-01      1.798516000000000E+02      7.819519000000000E-01     -9.452734000000000E+01
4878000000.000000      5.620117000000000E-01     -1.713125000000000E+02      5.155945000000000E-01     -8.125780000000000E+01      5.746155000000000E-01      1.797812000000000E+02      7.844238000000000E-01     -9.450781000000000E+01
4879000000.000000      5.627441000000000E-01     -1.715781000000000E+02      5.152588000000000E-01     -8.141016000000000E+01      5.758362000000000E-01      1.795781000000000E+02      7.864380000000000E-01     -9.448046000000000E+01
4880000000.000000      5.620422000000000E-01     -1.717031000000000E+02      5.170593000000000E-01     -8.179688000000000E+01      5.794067000000000E-01      1.793516000000000E+02      7.890625000000000E-01     -9.458593000000000E+01
4881000000.000000      5.627747000000000E-01     -1.717656000000000E+02      5.188599000000000E-01     -8.185156000000000E+01      5.793152000000000E-01      1.791875000000000E+02      7.915649000000000E-01     -9.464453000000000E+01
4882000000.000000      5.616455000000000E-01     -1.719766000000000E+02      5.194092000000000E-01     -8.197266000000000E+01      5.811157000000000E-01      1.789141000000000E+02      7.916260000000000E-01     -9.463671000000000E+01
