! Network Analyzer HP8722D
! Hewlett-Packard
! Data name: Linha & Wilkinson
! Saver's name: Rodrigo Anjos
! Comments: Teste da utilização de aquisição
continua pelo VNA HP8722D
! Time and date: 17/4/2025 12:26
!              Frequency                     S11                                                   S21                                                   S12                                                   S22
# HZ  S  MA R 50
4800000000.000000      3.330841000000000E-01     -1.142305000000000E+02      2.937012000000000E-01     -6.115820000000000E+01      2.868958000000000E-01     -1.753203000000000E+02      6.564636000000000E-01     -8.999218000000000E+01
4801000000.000000      3.320770000000000E-01     -1.152773000000000E+02      2.981720000000000E-01     -6.109375000000000E+01      2.904053000000000E-01     -1.752656000000000E+02      6.550293000000000E-01     -9.012890000000000E+01
4802000000.000000      3.307800000000000E-01     -1.161094000000000E+02      3.020325000000000E-01     -6.120117000000000E+01      2.948608000000000E-01     -1.751094000000000E+02      6.537170000000000E-01     -9.006250000000000E+01
4803000000.000000      3.304138000000000E-01     -1.171758000000000E+02      3.072205000000000E-01     -6.130859000000000E+01      2.988586000000000E-01     -1.750234000000000E+02      6.529846000000000E-01     -9.028515000000000E+01
4804000000.000000      3.296509000000000E-01     -1.182148000000000E+02      3.120880000000000E-01     -6.144531000000000E+01      3.029480000000000E-01     -1.749922000000000E+02      6.520691000000000E-01     -9.026953000000000E+01
4805000000.000000      3.301239000000000E-01     -1.192344000000000E+02      3.162384000000000E-01     -6.166797000000000E+01      3.064117000000000E-01     -1.748750000000000E+02      6.526184000000000E-01     -9.046875000000000E+01
4806000000.000000      3.292694000000000E-01     -1.201953000000000E+02      3.208771000000000E-01     -6.171093000000000E+01      3.107147000000000E-01     -1.746094000000000E+02      6.520386000000000E-01     -9.062891000000000E+01
4807000000.000000      3.292389000000000E-01     -1.212344000000000E+02      3.252411000000000E-01     -6.194921000000000E+01      3.153229000000000E-01     -1.746641000000000E+02      6.506348000000000E-01     -9.058985000000000E+01
4808000000.000000      3.303833000000000E-01     -1.223203000000000E+02      3.296814000000000E-01     -6.208398000000000E+01      3.189850000000000E-01     -1.746172000000000E+02      6.505737000000000E-01     -9.057421000000000E+01
4809000000.000000      3.298950000000000E-01     -1.234101000000000E+02      3.337708000000000E-01     -6.259960000000000E+01      3.229523000000000E-01     -1.746406000000000E+02      6.505737000000000E-01     -9.079687000000000E+01
4810000000.000000      3.312073000000000E-01     -1.246719000000000E+02      3.380737000000000E-01     -6.245507000000000E+01      3.271790000000000E-01     -1.745469000000000E+02      6.497498000000000E-01     -9.100000000000000E+01
4811000000.000000      3.323517000000000E-01     -1.255781000000000E+02      3.424835000000000E-01     -6.276367000000000E+01      3.318634000000000E-01     -1.744688000000000E+02      6.481628000000000E-01     -9.094141000000000E+01
4812000000.000000      3.333740000000000E-01     -1.265937000000000E+02      3.473969000000000E-01     -6.290429000000000E+01      3.356018000000000E-01     -1.743203000000000E+02      6.494446000000000E-01     -9.108984000000000E+01
4813000000.000000      3.348236000000000E-01     -1.276250000000000E+02      3.505096000000000E-01     -6.314453000000000E+01      3.392792000000000E-01     -1.742344000000000E+02      6.486206000000000E-01     -9.101171000000000E+01
4814000000.000000      3.354340000000000E-01     -1.289375000000000E+02      3.548889000000000E-01     -6.340625000000000E+01      3.433533000000000E-01     -1.743281000000000E+02      6.491699000000000E-01     -9.120312000000000E+01
4815000000.000000      3.376465000000000E-01     -1.298125000000000E+02      3.584747000000000E-01     -6.351367000000000E+01      3.468933000000000E-01     -1.742422000000000E+02      6.482239000000000E-01     -9.127344000000000E+01
4816000000.000000      3.396606000000000E-01     -1.309844000000000E+02      3.635559000000000E-01     -6.369335000000000E+01      3.518677000000000E-01     -1.741172000000000E+02      6.494141000000000E-01     -9.136328000000000E+01
4817000000.000000      3.422089000000000E-01     -1.320859000000000E+02      3.669586000000000E-01     -6.398632000000000E+01      3.551483000000000E-01     -1.741328000000000E+02      6.488037000000000E-01     -9.149218000000000E+01
4818000000.000000      3.444824000000000E-01     -1.333125000000000E+02      3.711243000000000E-01     -6.423046000000000E+01      3.593445000000000E-01     -1.741328000000000E+02      6.495056000000000E-01     -9.151562000000000E+01
4819000000.000000      3.471985000000000E-01     -1.343047000000000E+02      3.748932000000000E-01     -6.451953000000000E+01      3.626404000000000E-01     -1.741641000000000E+02      6.517944000000000E-01     -9.166016000000000E+01
4820000000.000000      3.486786000000000E-01     -1.353047000000000E+02      3.786316000000000E-01     -6.477734000000000E+01      3.674316000000000E-01     -1.740937000000000E+02      6.513672000000000E-01     -9.162500000000000E+01
4821000000.000000      3.524933000000000E-01     -1.364531000000000E+02      3.831482000000000E-01     -6.505077000000000E+01      3.704224000000000E-01     -1.741250000000000E+02      6.512451000000000E-01     -9.183985000000000E+01
4822000000.000000      3.562012000000000E-01     -1.375234000000000E+02      3.862915000000000E-01     -6.505859000000000E+01      3.740234000000000E-01     -1.740625000000000E+02      6.532288000000000E-01     -9.195704000000000E+01
4823000000.000000      3.589020000000000E-01     -1.384375000000000E+02      3.899536000000000E-01     -6.553905000000000E+01      3.782806000000000E-01     -1.739453000000000E+02      6.528625000000000E-01     -9.188671000000000E+01
4824000000.000000      3.632050000000000E-01     -1.396250000000000E+02      3.937073000000000E-01     -6.585546000000000E+01      3.835144000000000E-01     -1.741641000000000E+02      6.546021000000000E-01     -9.194530000000000E+01
4825000000.000000      3.661499000000000E-01     -1.406016000000000E+02      3.973846000000000E-01     -6.600390000000000E+01      3.874664000000000E-01     -1.739844000000000E+02      6.559448000000000E-01     -9.208593000000000E+01
4826000000.000000      3.705292000000000E-01     -1.415625000000000E+02      4.016113000000000E-01     -6.636719000000000E+01      3.903809000000000E-01     -1.741328000000000E+02      6.564026000000000E-01     -9.207811000000000E+01
4827000000.000000      3.748779000000000E-01     -1.424609000000000E+02      4.051971000000000E-01     -6.641796000000000E+01      3.946228000000000E-01     -1.740078000000000E+02      6.588745000000000E-01     -9.210546000000000E+01
4828000000.000000      3.797913000000000E-01     -1.435000000000000E+02      4.093018000000000E-01     -6.689062000000000E+01      3.990479000000000E-01     -1.739297000000000E+02      6.606445000000000E-01     -9.225780000000000E+01
4829000000.000000      3.820496000000000E-01     -1.444219000000000E+02      4.116669000000000E-01     -6.721093000000000E+01      4.023132000000000E-01     -1.739609000000000E+02      6.617432000000000E-01     -9.228907000000000E+01
4830000000.000000      3.873444000000000E-01     -1.453672000000000E+02      4.156189000000000E-01     -6.744531000000000E+01      4.067535000000000E-01     -1.740859000000000E+02      6.622620000000000E-01     -9.239843000000000E+01
4831000000.000000      3.917847000000000E-01     -1.462812000000000E+02      4.196777000000000E-01     -6.775781000000000E+01      4.109802000000000E-01     -1.739922000000000E+02      6.647034000000000E-01     -9.254686000000000E+01
4832000000.000000      3.973389000000000E-01     -1.471250000000000E+02      4.215088000000000E-01     -6.800390000000000E+01      4.145660000000000E-01     -1.740937000000000E+02      6.662292000000000E-01     -9.260937000000000E+01
4833000000.000000      4.024200000000000E-01     -1.481250000000000E+02      4.258575000000000E-01     -6.835546000000000E+01      4.184570000000000E-01     -1.742031000000000E+02      6.672363000000000E-01     -9.255859000000000E+01
4834000000.000000      4.062958000000000E-01     -1.490078000000000E+02      4.297791000000000E-01     -6.857422000000000E+01      4.225769000000000E-01     -1.741406000000000E+02      6.689758000000000E-01     -9.270311000000000E+01
4835000000.000000      4.111938000000000E-01     -1.497500000000000E+02      4.331512000000000E-01     -6.892968000000000E+01      4.278259000000000E-01     -1.742188000000000E+02      6.716003000000000E-01     -9.282812000000000E+01
4836000000.000000      4.172058000000000E-01     -1.505312000000000E+02      4.345551000000000E-01     -6.927734000000000E+01      4.308624000000000E-01     -1.742344000000000E+02      6.728821000000000E-01     -9.273829000000000E+01
4837000000.000000      4.224243000000000E-01     -1.513594000000000E+02      4.384613000000000E-01     -6.981640000000000E+01      4.349976000000000E-01     -1.743984000000000E+02      6.743164000000000E-01     -9.290234000000000E+01
4838000000.000000      4.275360000000000E-01     -1.523125000000000E+02      4.424591000000000E-01     -6.988671000000000E+01      4.394836000000000E-01     -1.744375000000000E+02      6.777344000000000E-01     -9.285936000000000E+01
4839000000.000000      4.321136000000000E-01     -1.528906000000000E+02      4.441681000000000E-01     -7.008594000000000E+01      4.428406000000000E-01     -1.743750000000000E+02      6.804199000000000E-01     -9.288280000000000E+01
4840000000.000000      4.368896000000000E-01     -1.537734000000000E+02      4.470367000000000E-01     -7.046093000000000E+01      4.471893000000000E-01     -1.745234000000000E+02      6.816101000000000E-01     -9.299999000000000E+01
4841000000.000000      4.422607000000000E-01     -1.545938000000000E+02      4.500427000000000E-01     -7.089844000000000E+01      4.510345000000000E-01     -1.746328000000000E+02      6.840210000000000E-01     -9.301561000000000E+01
4842000000.000000      4.482880000000000E-01     -1.552031000000000E+02      4.533539000000000E-01     -7.133203000000000E+01      4.551239000000000E-01     -1.746953000000000E+02      6.859436000000000E-01     -9.307812000000000E+01
4843000000.000000      4.525909000000000E-01     -1.559844000000000E+02      4.569855000000000E-01     -7.162499000000000E+01      4.588470000000000E-01     -1.747578000000000E+02      6.889343000000000E-01     -9.311327000000000E+01
4844000000.000000      4.579315000000000E-01     -1.566953000000000E+02      4.591675000000000E-01     -7.180469000000000E+01      4.625549000000000E-01     -1.748906000000000E+02      6.919556000000000E-01     -9.322266000000000E+01
4845000000.000000      4.626617000000000E-01     -1.572969000000000E+02      4.615936000000000E-01     -7.201953000000000E+01      4.666443000000000E-01     -1.749687000000000E+02      6.940002000000000E-01     -9.316015000000000E+01
4846000000.000000      4.677277000000000E-01     -1.579609000000000E+02      4.640656000000000E-01     -7.233203000000000E+01      4.718475000000000E-01     -1.750469000000000E+02      6.967468000000000E-01     -9.322266000000000E+01
4847000000.000000      4.731598000000000E-01     -1.586484000000000E+02      4.665375000000000E-01     -7.275391000000000E+01      4.755096000000000E-01     -1.752266000000000E+02      7.003784000000000E-01     -9.340235000000000E+01
4848000000.000000      4.784393000000000E-01     -1.592422000000000E+02      4.685516000000000E-01     -7.305859000000000E+01      4.790802000000000E-01     -1.752656000000000E+02      7.028198000000000E-01     -9.338282000000000E+01
4849000000.000000      4.836121000000000E-01     -1.601641000000000E+02      4.712372000000000E-01     -7.351563000000000E+01      4.835205000000000E-01     -1.754375000000000E+02      7.040405000000000E-01     -9.345703000000000E+01
4850000000.000000      4.877014000000000E-01     -1.605391000000000E+02      4.743347000000000E-01     -7.369141000000000E+01      4.870758000000000E-01     -1.754688000000000E+02      7.077332000000000E-01     -9.339453000000000E+01
4851000000.000000      4.934235000000000E-01     -1.611172000000000E+02      4.769745000000000E-01     -7.415625000000000E+01      4.907227000000000E-01     -1.756719000000000E+02      7.114868000000000E-01     -9.350389000000000E+01
4852000000.000000      4.980316000000000E-01     -1.617109000000000E+02      4.786377000000000E-01     -7.442187000000000E+01      4.950409000000000E-01     -1.757422000000000E+02      7.142944000000000E-01     -9.355469000000000E+01
4853000000.000000      5.024109000000000E-01     -1.622813000000000E+02      4.792633000000000E-01     -7.469921000000000E+01      4.987946000000000E-01     -1.758984000000000E+02      7.164917000000000E-01     -9.367188000000000E+01
4854000000.000000      5.062866000000000E-01     -1.628047000000000E+02      4.829865000000000E-01     -7.524609000000000E+01      5.017700000000000E-01     -1.759219000000000E+02      7.188416000000000E-01     -9.363281000000000E+01
4855000000.000000      5.096741000000000E-01     -1.634687000000000E+02      4.843903000000000E-01     -7.542187000000000E+01      5.060425000000000E-01     -1.762187000000000E+02      7.206421000000000E-01     -9.370703000000000E+01
4856000000.000000      5.155640000000000E-01     -1.639062000000000E+02      4.861298000000000E-01     -7.567187000000000E+01      5.105591000000000E-01     -1.763594000000000E+02      7.253113000000000E-01     -9.375391000000000E+01
4857000000.000000      5.187988000000000E-01     -1.644609000000000E+02      4.891052000000000E-01     -7.601953000000000E+01      5.132751000000000E-01     -1.764141000000000E+02      7.287903000000000E-01     -9.378515000000000E+01
4858000000.000000      5.211487000000000E-01     -1.649453000000000E+02      4.907990000000000E-01     -7.640625000000000E+01      5.163269000000000E-01     -1.766953000000000E+02      7.307434000000000E-01     -9.380077000000000E+01
4859000000.000000      5.256653000000000E-01     -1.655313000000000E+02      4.922333000000000E-01     -7.671484000000000E+01      5.203857000000000E-01     -1.768437000000000E+02      7.341309000000000E-01     -9.396093000000000E+01
4860000000.000000      5.304565000000000E-01     -1.659531000000000E+02      4.949188000000000E-01     -7.692577000000000E+01      5.229797000000000E-01     -1.770000000000000E+02      7.359619000000000E-01     -9.387499000000000E+01
4861000000.000000      5.326538000000000E-01     -1.663125000000000E+02      4.950714000000000E-01     -7.738281000000000E+01      5.277100000000000E-01     -1.770547000000000E+02      7.384644000000000E-01     -9.403124000000000E+01
4862000000.000000      5.357361000000000E-01     -1.667500000000000E+02      4.967499000000000E-01     -7.755468000000000E+01      5.317688000000000E-01     -1.773047000000000E+02      7.437439000000000E-01     -9.398438000000000E+01
4863000000.000000      5.385132000000000E-01     -1.672031000000000E+02      4.979095000000000E-01     -7.805469000000000E+01      5.353394000000000E-01     -1.775312000000000E+02      7.459412000000000E-01     -9.402735000000000E+01
4864000000.000000      5.420837000000000E-01     -1.675859000000000E+02      5.003662000000000E-01     -7.800781000000000E+01      5.364685000000000E-01     -1.776953000000000E+02      7.473145000000000E-01     -9.416796000000000E+01
4865000000.000000      5.440063000000000E-01     -1.680859000000000E+02      5.009460000000000E-01     -7.837891000000000E+01      5.411682000000000E-01     -1.780547000000000E+02      7.519226000000000E-01     -9.401562000000000E+01
4866000000.000000      5.464172000000000E-01     -1.683437000000000E+02      5.005493000000000E-01     -7.876171000000000E+01      5.445251000000000E-01     -1.781172000000000E+02      7.539978000000000E-01     -9.413280000000000E+01
4867000000.000000      5.479126000000000E-01     -1.687109000000000E+02      5.046997000000000E-01     -7.896093000000000E+01      5.463257000000000E-01     -1.783594000000000E+02      7.570190000000000E-01     -9.421484000000000E+01
4868000000.000000      5.505676000000000E-01     -1.692656000000000E+02      5.057983000000000E-01     -7.923828000000000E+01      5.502625000000000E-01     -1.785703000000000E+02      7.583008000000000E-01     -9.425390000000000E+01
4869000000.000000      5.519714000000000E-01     -1.693906000000000E+02      5.069580000000000E-01     -7.952343000000000E+01      5.528564000000000E-01     -1.786797000000000E+02      7.635498000000000E-01     -9.437500000000000E+01
4870000000.000000      5.532227000000000E-01     -1.697734000000000E+02      5.090332000000000E-01     -7.964844000000000E+01      5.553894000000000E-01     -1.790156000000000E+02      7.651672000000000E-01     -9.420702000000000E+01
4871000000.000000      5.555420000000000E-01     -1.701562000000000E+02      5.090942000000000E-01     -8.004297000000000E+01      5.576782000000000E-01     -1.790859000000000E+02      7.678528000000000E-01     -9.454296000000000E+01
4872000000.000000      5.570679000000000E-01     -1.703906000000000E+02      5.097961000000000E-01     -8.013281000000000E+01      5.596619000000000E-01     -1.795078000000000E+02      7.700195000000000E-01     -9.444530000000000E+01
4873000000.000000      5.577087000000000E-01     -1.706094000000000E+02      5.106506000000000E-01     -8.057032000000000E+01      5.627747000000000E-01     -1.795078000000000E+02      7.721252000000000E-01     -9.457031000000000E+01
4874000000.000000      5.582886000000000E-01     -1.708750000000000E+02      5.123596000000000E-01     -8.076952000000000E+01      5.654907000000000E-01     -1.795703000000000E+02      7.744446000000000E-01     -9.439062000000000E+01
4875000000.000000      5.599365000000000E-01     -1.712031000000000E+02      5.121155000000000E-01     -8.103907000000000E+01      5.678101000000000E-01      1.799219000000000E+02      7.769775000000000E-01     -9.461718000000000E+01
4876000000.000000      5.597534000000000E-01     -1.713906000000000E+02      5.148010000000000E-01     -8.142578000000000E+01      5.687256000000000E-01      1.798125000000000E+02      7.797852000000000E-01     -9.464453000000000E+01
4877000000.000000      5.608215000000000E-01     -1.715625000000000E+02      5.155640000000000E-01     -8.137499000000000E+01      5.719604000000000E-01      1.795312000000000E+02      7.813721000000000E-01     -9.476171000000000E+01
4878000000.000000      5.616455000000000E-01     -1.718047000000000E+02      5.170593000000000E-01     -8.168360000000000E+01      5.744019000000000E-01      1.795000000000000E+02      7.839355000000000E-01     -9.481640000000000E+01
4879000000.000000      5.626831000000000E-01     -1.719375000000000E+02      5.159302000000000E-01     -8.180859000000000E+01      5.764771000000000E-01      1.791172000000000E+02      7.847595000000000E-01     -9.473827000000000E+01
4880000000.000000      5.606384000000000E-01     -1.720312000000000E+02      5.172729000000000E-01     -8.205078000000000E+01      5.791016000000000E-01      1.790703000000000E+02      7.883606000000000E-01     -9.471874000000000E+01
4881000000.000000      5.627136000000000E-01     -1.722500000000000E+02      5.201416000000000E-01     -8.208202000000000E+01      5.812073000000000E-01      1.787656000000000E+02      7.907104000000000E-01     -9.489843000000000E+01
4882000000.000000      5.615845000000000E-01     -1.723828000000000E+02      5.192261000000000E-01     -8.249218000000000E+01      5.820618000000000E-01      1.785938000000000E+02      7.906494000000000E-01     -9.484375000000000E+01
