! Network Analyzer HP8722D
! Hewlett-Packard
! Data name: Linha & Wilkinson
! Saver's name: Rodrigo Anjos
! Comments: Teste da utilização de aquisição
continua pelo VNA HP8722D
! Time and date: 17/4/2025 11:03
!              Frequency                     S11                                                   S21                                                   S12                                                   S22
# HZ  S  MA R 50
4800000000.000000      4.737282000000000E-02     -1.513984000000000E+02      7.205200000000000E-01     -1.385000000000000E+02      7.004700000000000E-01     -1.362422000000000E+02      4.412537000000000E-01     -9.333202000000000E+01
4801000000.000000      4.437637000000000E-02     -1.562266000000000E+02      7.209778000000000E-01     -1.392031000000000E+02      7.005615000000000E-01     -1.370547000000000E+02      4.401855000000000E-01     -9.350000000000000E+01
4802000000.000000      4.213524000000000E-02     -1.601875000000000E+02      7.232971000000000E-01     -1.399219000000000E+02      7.022705000000000E-01     -1.376562000000000E+02      4.382019000000000E-01     -9.358593000000000E+01
4803000000.000000      3.953934000000000E-02     -1.646563000000000E+02      7.268372000000000E-01     -1.406172000000000E+02      7.040405000000000E-01     -1.383828000000000E+02      4.367218000000000E-01     -9.410936000000000E+01
4804000000.000000      3.771973000000000E-02     -1.704609000000000E+02      7.276306000000000E-01     -1.413047000000000E+02      7.019043000000000E-01     -1.391875000000000E+02      4.346313000000000E-01     -9.437500000000000E+01
4805000000.000000      3.564453000000000E-02     -1.752578000000000E+02      7.284241000000000E-01     -1.421406000000000E+02      7.037354000000000E-01     -1.397969000000000E+02      4.325562000000000E-01     -9.468359000000000E+01
4806000000.000000      3.353500000000000E-02      1.791016000000000E+02      7.301941000000000E-01     -1.427891000000000E+02      7.038269000000000E-01     -1.404375000000000E+02      4.310150000000000E-01     -9.494532000000000E+01
4807000000.000000      3.229904000000000E-02      1.715391000000000E+02      7.311707000000000E-01     -1.436016000000000E+02      7.032166000000000E-01     -1.413203000000000E+02      4.282990000000000E-01     -9.525000000000000E+01
4808000000.000000      3.152847000000000E-02      1.656563000000000E+02      7.333984000000000E-01     -1.441797000000000E+02      7.023010000000000E-01     -1.418672000000000E+02      4.261932000000000E-01     -9.543360000000000E+01
4809000000.000000      3.003311000000000E-02      1.574141000000000E+02      7.364502000000000E-01     -1.452031000000000E+02      7.056580000000000E-01     -1.427891000000000E+02      4.230804000000000E-01     -9.583984000000000E+01
4810000000.000000      2.987957000000000E-02      1.495078000000000E+02      7.377930000000000E-01     -1.456719000000000E+02      7.049255000000000E-01     -1.434922000000000E+02      4.230042000000000E-01     -9.610546000000000E+01
4811000000.000000      3.032780000000000E-02      1.411875000000000E+02      7.377319000000000E-01     -1.466484000000000E+02      7.049866000000000E-01     -1.438828000000000E+02      4.197845000000000E-01     -9.625000000000000E+01
4812000000.000000      3.064537000000000E-02      1.340000000000000E+02      7.372742000000000E-01     -1.471719000000000E+02      7.056580000000000E-01     -1.446094000000000E+02      4.174347000000000E-01     -9.656639000000000E+01
4813000000.000000      3.196335000000000E-02      1.278164000000000E+02      7.374268000000000E-01     -1.481094000000000E+02      7.044373000000000E-01     -1.452500000000000E+02      4.150391000000000E-01     -9.670702000000000E+01
4814000000.000000      3.247261000000000E-02      1.198476000000000E+02      7.409668000000000E-01     -1.486875000000000E+02      7.042236000000000E-01     -1.460703000000000E+02      4.132996000000000E-01     -9.698046000000000E+01
4815000000.000000      3.382492000000000E-02      1.140703000000000E+02      7.391052000000000E-01     -1.493750000000000E+02      7.018127000000000E-01     -1.467266000000000E+02      4.104767000000000E-01     -9.702734000000000E+01
4816000000.000000      3.640747000000000E-02      1.077578000000000E+02      7.407837000000000E-01     -1.500781000000000E+02      7.021179000000000E-01     -1.472656000000000E+02      4.084320000000000E-01     -9.735155000000000E+01
4817000000.000000      3.810501000000000E-02      1.032227000000000E+02      7.409973000000000E-01     -1.509531000000000E+02      7.011414000000000E-01     -1.481094000000000E+02      4.053497000000000E-01     -9.744141000000000E+01
4818000000.000000      3.948212000000000E-02      9.812109000000000E+01      7.395630000000000E-01     -1.515781000000000E+02      7.001038000000000E-01     -1.487734000000000E+02      4.026489000000000E-01     -9.777733000000000E+01
4819000000.000000      4.214668000000000E-02      9.372265000000000E+01      7.408142000000000E-01     -1.522500000000000E+02      6.980286000000000E-01     -1.493047000000000E+02      4.013367000000000E-01     -9.795311000000000E+01
4820000000.000000      4.461479000000000E-02      8.878906000000000E+01      7.406311000000000E-01     -1.529766000000000E+02      6.995544000000000E-01     -1.499687000000000E+02      3.989563000000000E-01     -9.806641000000000E+01
4821000000.000000      4.771423000000000E-02      8.496874000000000E+01      7.408447000000000E-01     -1.539219000000000E+02      6.972351000000000E-01     -1.507969000000000E+02      3.953705000000000E-01     -9.824608000000000E+01
4822000000.000000      4.952240000000000E-02      8.237499000000000E+01      7.382507000000000E-01     -1.543828000000000E+02      6.968689000000000E-01     -1.512422000000000E+02      3.940582000000000E-01     -9.819921000000000E+01
4823000000.000000      5.201340000000000E-02      7.872656000000000E+01      7.397156000000000E-01     -1.554062000000000E+02      6.955872000000000E-01     -1.517734000000000E+02      3.914795000000000E-01     -9.841015000000000E+01
4824000000.000000      5.566406000000000E-02      7.604687000000000E+01      7.395630000000000E-01     -1.560547000000000E+02      6.950073000000000E-01     -1.527344000000000E+02      3.887787000000000E-01     -9.858593000000000E+01
4825000000.000000      5.788994000000000E-02      7.309375000000000E+01      7.380676000000000E-01     -1.567500000000000E+02      6.946411000000000E-01     -1.532969000000000E+02      3.867493000000000E-01     -9.873047000000000E+01
4826000000.000000      6.077766000000000E-02      7.110937000000000E+01      7.378845000000000E-01     -1.576484000000000E+02      6.907654000000000E-01     -1.538984000000000E+02      3.840485000000000E-01     -9.872656000000000E+01
4827000000.000000      6.322098000000000E-02      6.834765000000000E+01      7.365112000000000E-01     -1.580859000000000E+02      6.893921000000000E-01     -1.544922000000000E+02      3.823547000000000E-01     -9.875389000000000E+01
4828000000.000000      6.614685000000000E-02      6.628515000000000E+01      7.360535000000000E-01     -1.588906000000000E+02      6.880798000000000E-01     -1.551094000000000E+02      3.812103000000000E-01     -9.891796000000000E+01
4829000000.000000      6.902313000000000E-02      6.363671000000000E+01      7.322693000000000E-01     -1.597031000000000E+02      6.871033000000000E-01     -1.556953000000000E+02      3.793030000000000E-01     -9.879686000000000E+01
4830000000.000000      7.173538000000000E-02      6.170312000000000E+01      7.326660000000000E-01     -1.605234000000000E+02      6.859741000000000E-01     -1.562500000000000E+02      3.761597000000000E-01     -9.889452000000000E+01
4831000000.000000      7.461166000000000E-02      5.986718000000000E+01      7.301941000000000E-01     -1.613828000000000E+02      6.836853000000000E-01     -1.569844000000000E+02      3.743896000000000E-01     -9.900780000000000E+01
4832000000.000000      7.807541000000000E-02      5.819336000000000E+01      7.303162000000000E-01     -1.618359000000000E+02      6.829834000000000E-01     -1.575156000000000E+02      3.719482000000000E-01     -9.891405000000000E+01
4833000000.000000      7.997131000000000E-02      5.638476000000000E+01      7.286987000000000E-01     -1.625156000000000E+02      6.802063000000000E-01     -1.581563000000000E+02      3.701172000000000E-01     -9.901562000000000E+01
4834000000.000000      8.270645000000000E-02      5.496094000000000E+01      7.256165000000000E-01     -1.634453000000000E+02      6.790466000000000E-01     -1.587656000000000E+02      3.676300000000000E-01     -9.917187000000000E+01
4835000000.000000      8.600616000000000E-02      5.299023000000000E+01      7.251587000000000E-01     -1.641406000000000E+02      6.778259000000000E-01     -1.594453000000000E+02      3.664856000000000E-01     -9.907812000000000E+01
4836000000.000000      8.809280000000000E-02      5.141602000000000E+01      7.217712000000000E-01     -1.648203000000000E+02      6.756592000000000E-01     -1.598594000000000E+02      3.647461000000000E-01     -9.892967000000000E+01
4837000000.000000      9.139252000000000E-02      5.030859000000000E+01      7.197266000000000E-01     -1.656563000000000E+02      6.741943000000000E-01     -1.606797000000000E+02      3.622284000000000E-01     -9.891405000000000E+01
4838000000.000000      9.424973000000000E-02      4.865820000000000E+01      7.197571000000000E-01     -1.662344000000000E+02      6.721497000000000E-01     -1.612266000000000E+02      3.615723000000000E-01     -9.890625000000000E+01
4839000000.000000      9.708786000000000E-02      4.691796000000000E+01      7.151794000000000E-01     -1.669688000000000E+02      6.684570000000000E-01     -1.617344000000000E+02      3.599396000000000E-01     -9.885546000000000E+01
4840000000.000000      9.903717000000000E-02      4.545507000000000E+01      7.135315000000000E-01     -1.677344000000000E+02      6.683655000000000E-01     -1.623750000000000E+02      3.582458000000000E-01     -9.884375000000000E+01
4841000000.000000      1.023293000000000E-01      4.432422000000000E+01      7.115173000000000E-01     -1.683359000000000E+02      6.642456000000000E-01     -1.630156000000000E+02      3.561859000000000E-01     -9.870312000000000E+01
4842000000.000000      1.044426000000000E-01      4.306641000000000E+01      7.076111000000000E-01     -1.691406000000000E+02      6.613770000000000E-01     -1.636953000000000E+02      3.555756000000000E-01     -9.865623000000000E+01
4843000000.000000      1.075783000000000E-01      4.139257000000000E+01      7.048340000000000E-01     -1.699375000000000E+02      6.608582000000000E-01     -1.642187000000000E+02      3.532867000000000E-01     -9.867188000000000E+01
4844000000.000000      1.103134000000000E-01      4.027734000000000E+01      7.022400000000000E-01     -1.705078000000000E+02      6.592102000000000E-01     -1.647500000000000E+02      3.527222000000000E-01     -9.861717000000000E+01
4845000000.000000      1.131210000000000E-01      3.909180000000000E+01      6.976318000000000E-01     -1.711875000000000E+02      6.557312000000000E-01     -1.654297000000000E+02      3.511353000000000E-01     -9.857031000000000E+01
4846000000.000000      1.154938000000000E-01      3.770898000000000E+01      6.960449000000000E-01     -1.717656000000000E+02      6.542358000000000E-01     -1.660234000000000E+02      3.505402000000000E-01     -9.850389000000000E+01
4847000000.000000      1.180687000000000E-01      3.688477000000000E+01      6.913757000000000E-01     -1.725156000000000E+02      6.519165000000000E-01     -1.665937000000000E+02      3.503723000000000E-01     -9.845703000000000E+01
4848000000.000000      1.200981000000000E-01      3.556445000000000E+01      6.875610000000000E-01     -1.732109000000000E+02      6.489258000000000E-01     -1.670859000000000E+02      3.489685000000000E-01     -9.844921000000000E+01
4849000000.000000      1.227455000000000E-01      3.423242000000000E+01      6.849976000000000E-01     -1.739922000000000E+02      6.472473000000000E-01     -1.677578000000000E+02      3.476715000000000E-01     -9.825390000000000E+01
4850000000.000000      1.251450000000000E-01      3.310742000000000E+01      6.808167000000000E-01     -1.746094000000000E+02      6.439209000000000E-01     -1.681875000000000E+02      3.476105000000000E-01     -9.819139000000000E+01
4851000000.000000      1.278687000000000E-01      3.222265000000000E+01      6.788330000000000E-01     -1.753672000000000E+02      6.409607000000000E-01     -1.687813000000000E+02      3.466797000000000E-01     -9.814453000000000E+01
4852000000.000000      1.302185000000000E-01      3.107715000000000E+01      6.737366000000000E-01     -1.759063000000000E+02      6.383972000000000E-01     -1.694219000000000E+02      3.459625000000000E-01     -9.804296000000000E+01
4853000000.000000      1.320496000000000E-01      3.000293000000000E+01      6.688538000000000E-01     -1.765391000000000E+02      6.357422000000000E-01     -1.700312000000000E+02      3.460236000000000E-01     -9.816015000000000E+01
4854000000.000000      1.345978000000000E-01      2.865723000000000E+01      6.647034000000000E-01     -1.773594000000000E+02      6.333618000000000E-01     -1.706016000000000E+02      3.453064000000000E-01     -9.805859000000000E+01
4855000000.000000      1.368866000000000E-01      2.793457000000000E+01      6.604004000000000E-01     -1.778906000000000E+02      6.305847000000000E-01     -1.711875000000000E+02      3.447723000000000E-01     -9.794140000000000E+01
4856000000.000000      1.390228000000000E-01      2.670312000000000E+01      6.562805000000000E-01     -1.785625000000000E+02      6.267395000000000E-01     -1.717187000000000E+02      3.446960000000000E-01     -9.807421000000000E+01
4857000000.000000      1.416016000000000E-01      2.586035000000000E+01      6.531982000000000E-01     -1.792578000000000E+02      6.248169000000000E-01     -1.722265000000000E+02      3.451691000000000E-01     -9.798828000000000E+01
4858000000.000000      1.432495000000000E-01      2.470605000000000E+01      6.496887000000000E-01     -1.797578000000000E+02      6.210022000000000E-01     -1.727422000000000E+02      3.446045000000000E-01     -9.798828000000000E+01
4859000000.000000      1.459122000000000E-01      2.374902000000000E+01      6.445313000000000E-01      1.796641000000000E+02      6.187134000000000E-01     -1.733047000000000E+02      3.445740000000000E-01     -9.802734000000000E+01
4860000000.000000      1.479568000000000E-01      2.296093000000000E+01      6.399536000000000E-01      1.790000000000000E+02      6.148376000000000E-01     -1.738359000000000E+02      3.444519000000000E-01     -9.802343000000000E+01
4861000000.000000      1.501694000000000E-01      2.176465000000000E+01      6.340637000000000E-01      1.782969000000000E+02      6.119995000000000E-01     -1.743203000000000E+02      3.442688000000000E-01     -9.807812000000000E+01
4862000000.000000      1.523361000000000E-01      2.068652000000000E+01      6.314697000000000E-01      1.777891000000000E+02      6.100769000000000E-01     -1.748984000000000E+02      3.446808000000000E-01     -9.822655000000000E+01
4863000000.000000      1.541977000000000E-01      1.987500000000000E+01      6.242981000000000E-01      1.771719000000000E+02      6.052856000000000E-01     -1.755312000000000E+02      3.446198000000000E-01     -9.812500000000000E+01
4864000000.000000      1.562805000000000E-01      1.891406000000000E+01      6.229553000000000E-01      1.767734000000000E+02      6.026001000000000E-01     -1.760703000000000E+02      3.450317000000000E-01     -9.831640000000000E+01
4865000000.000000      1.576309000000000E-01      1.794141000000000E+01      6.165161000000000E-01      1.761797000000000E+02      5.998840000000000E-01     -1.765703000000000E+02      3.453369000000000E-01     -9.815233000000000E+01
4866000000.000000      1.601105000000000E-01      1.678808000000000E+01      6.120605000000000E-01      1.756641000000000E+02      5.974731000000000E-01     -1.771328000000000E+02      3.457947000000000E-01     -9.835938000000000E+01
4867000000.000000      1.606293000000000E-01      1.577734000000000E+01      6.085205000000000E-01      1.750078000000000E+02      5.916138000000000E-01     -1.776250000000000E+02      3.459473000000000E-01     -9.849998000000000E+01
4868000000.000000      1.632233000000000E-01      1.506494000000000E+01      6.027222000000000E-01      1.743515000000000E+02      5.896912000000000E-01     -1.781563000000000E+02      3.453064000000000E-01     -9.849218000000000E+01
4869000000.000000      1.650391000000000E-01      1.401025000000000E+01      5.981140000000000E-01      1.737266000000000E+02      5.860291000000000E-01     -1.787734000000000E+02      3.459473000000000E-01     -9.872265000000000E+01
4870000000.000000      1.668243000000000E-01      1.339209000000000E+01      5.928955000000000E-01      1.735156000000000E+02      5.824890000000000E-01     -1.792344000000000E+02      3.471832000000000E-01     -9.877342000000000E+01
4871000000.000000      1.685638000000000E-01      1.231934000000000E+01      5.883789000000000E-01      1.729141000000000E+02      5.784912000000000E-01     -1.797031000000000E+02      3.466492000000000E-01     -9.900391000000000E+01
4872000000.000000      1.696701000000000E-01      1.138965000000000E+01      5.830688000000000E-01      1.724219000000000E+02      5.742188000000000E-01      1.795312000000000E+02      3.476105000000000E-01     -9.923828000000000E+01
4873000000.000000      1.713104000000000E-01      1.078125000000000E+01      5.783997000000000E-01      1.717656000000000E+02      5.707397000000000E-01      1.791953000000000E+02      3.477325000000000E-01     -9.946093000000000E+01
4874000000.000000      1.733856000000000E-01      9.611328000000000E+00      5.737915000000000E-01      1.713828000000000E+02      5.685425000000000E-01      1.787266000000000E+02      3.469086000000000E-01     -9.934765000000000E+01
4875000000.000000      1.746292000000000E-01      8.770996000000000E+00      5.683289000000000E-01      1.709844000000000E+02      5.643311000000000E-01      1.781563000000000E+02      3.478241000000000E-01     -9.969921000000000E+01
4876000000.000000      1.762466000000000E-01      8.113281000000000E+00      5.646362000000000E-01      1.704531000000000E+02      5.614014000000000E-01      1.777109000000000E+02      3.491364000000000E-01     -1.000234000000000E+02
4877000000.000000      1.774902000000000E-01      7.062744000000000E+00      5.597534000000000E-01      1.699141000000000E+02      5.581055000000000E-01      1.770391000000000E+02      3.480988000000000E-01     -1.001875000000000E+02
4878000000.000000      1.788025000000000E-01      6.251221000000000E+00      5.564575000000000E-01      1.695703000000000E+02      5.523071000000000E-01      1.766641000000000E+02      3.494263000000000E-01     -1.005430000000000E+02
4879000000.000000      1.800690000000000E-01      5.545166000000000E+00      5.477905000000000E-01      1.693047000000000E+02      5.494995000000000E-01      1.761562000000000E+02      3.488617000000000E-01     -1.005781000000000E+02
4880000000.000000      1.821213000000000E-01      4.714355000000000E+00      5.452271000000000E-01      1.686797000000000E+02      5.470581000000000E-01      1.756641000000000E+02      3.494110000000000E-01     -1.008984000000000E+02
4881000000.000000      1.824341000000000E-01      3.879517000000000E+00      5.410461000000000E-01      1.684687000000000E+02      5.423279000000000E-01      1.750859000000000E+02      3.489075000000000E-01     -1.013164000000000E+02
4882000000.000000      1.843567000000000E-01      3.154419000000000E+00      5.362244000000000E-01      1.677344000000000E+02      5.382080000000000E-01      1.747969000000000E+02      3.489838000000000E-01     -1.016016000000000E+02
