! Network Analyzer HP8722D
! Hewlett-Packard
! Data name: Linha & Wilkinson
! Saver's name: Rodrigo Anjos
! Comments: Teste da utilização de aquisição
continua pelo VNA HP8722D
! Time and date: 17/4/2025 11:15
!              Frequency                     S11                                                   S21                                                   S12                                                   S22
# HZ  S  MA R 50
4800000000.000000      3.889618000000000E-01      7.688281000000000E+01      1.891785000000000E-01     -5.278710000000000E+01      1.929932000000000E-01      8.212891000000000E+01      2.462616000000000E-01      7.211328000000000E+01
4801000000.000000      3.914795000000000E-01      7.712500000000000E+01      1.873245000000000E-01     -5.115820000000000E+01      1.908493000000000E-01      8.343750000000000E+01      2.500763000000000E-01      7.084374000000000E+01
4802000000.000000      3.938293000000000E-01      7.742969000000000E+01      1.855240000000000E-01     -4.973242000000000E+01      1.891327000000000E-01      8.480469000000000E+01      2.522583000000000E-01      7.001953000000000E+01
4803000000.000000      3.957062000000000E-01      7.772655000000000E+01      1.837387000000000E-01     -4.816015000000000E+01      1.874771000000000E-01      8.632813000000000E+01      2.509003000000000E-01      6.917187000000000E+01
4804000000.000000      3.968048000000000E-01      7.808984000000000E+01      1.823425000000000E-01     -4.634766000000000E+01      1.862946000000000E-01      8.780077000000000E+01      2.527466000000000E-01      6.878906000000000E+01
4805000000.000000      3.989563000000000E-01      7.826172000000000E+01      1.821594000000000E-01     -4.481054000000000E+01      1.853714000000000E-01      8.932032000000000E+01      2.534485000000000E-01      6.757030000000000E+01
4806000000.000000      3.997650000000000E-01      7.855078000000000E+01      1.812668000000000E-01     -4.324023000000000E+01      1.842117000000000E-01      9.091406000000000E+01      2.558289000000000E-01      6.700390000000000E+01
4807000000.000000      4.011688000000000E-01      7.895312000000000E+01      1.813431000000000E-01     -4.168945000000000E+01      1.843185000000000E-01      9.234766000000000E+01      2.548676000000000E-01      6.617188000000000E+01
4808000000.000000      4.006805000000000E-01      7.928515000000000E+01      1.815720000000000E-01     -3.984375000000000E+01      1.842499000000000E-01      9.400782000000000E+01      2.528534000000000E-01      6.513281000000000E+01
4809000000.000000      4.012146000000000E-01      7.966797000000000E+01      1.815567000000000E-01     -3.831836000000000E+01      1.852036000000000E-01      9.543749000000000E+01      2.571869000000000E-01      6.451562000000000E+01
4810000000.000000      4.020691000000000E-01      7.992578000000000E+01      1.823883000000000E-01     -3.655468000000000E+01      1.857529000000000E-01      9.711718000000000E+01      2.559509000000000E-01      6.336328000000000E+01
4811000000.000000      4.017487000000000E-01      8.017578000000000E+01      1.835709000000000E-01     -3.499609000000000E+01      1.871338000000000E-01      9.864843000000000E+01      2.555695000000000E-01      6.245312000000000E+01
4812000000.000000      4.017944000000000E-01      8.049999000000000E+01      1.845703000000000E-01     -3.323437000000000E+01      1.879883000000000E-01      1.000820000000000E+02      2.576752000000000E-01      6.134960000000000E+01
4813000000.000000      4.009857000000000E-01      8.084375000000000E+01      1.863861000000000E-01     -3.169922000000000E+01      1.896286000000000E-01      1.016133000000000E+02      2.566986000000000E-01      6.069140000000000E+01
4814000000.000000      3.993225000000000E-01      8.107813000000000E+01      1.885681000000000E-01     -3.027148000000000E+01      1.915665000000000E-01      1.030664000000000E+02      2.577972000000000E-01      5.949219000000000E+01
4815000000.000000      3.978577000000000E-01      8.139063000000000E+01      1.901398000000000E-01     -2.880078000000000E+01      1.931534000000000E-01      1.044062000000000E+02      2.559052000000000E-01      5.821094000000000E+01
4816000000.000000      3.973236000000000E-01      8.177734000000000E+01      1.925354000000000E-01     -2.724902000000000E+01      1.961670000000000E-01      1.058320000000000E+02      2.577820000000000E-01      5.757617000000000E+01
4817000000.000000      3.948669000000000E-01      8.211329000000000E+01      1.953812000000000E-01     -2.609277000000000E+01      1.986771000000000E-01      1.070586000000000E+02      2.555542000000000E-01      5.691211000000000E+01
4818000000.000000      3.931427000000000E-01      8.229296000000000E+01      1.977997000000000E-01     -2.462402000000000E+01      2.018433000000000E-01      1.082695000000000E+02      2.579498000000000E-01      5.603125000000000E+01
4819000000.000000      3.917389000000000E-01      8.267969000000000E+01      2.015152000000000E-01     -2.338477000000000E+01      2.047882000000000E-01      1.095313000000000E+02      2.550812000000000E-01      5.486718000000000E+01
4820000000.000000      3.875885000000000E-01      8.290625000000000E+01      2.047806000000000E-01     -2.214844000000000E+01      2.080460000000000E-01      1.104922000000000E+02      2.544098000000000E-01      5.363086000000000E+01
4821000000.000000      3.865967000000000E-01      8.320704000000000E+01      2.082901000000000E-01     -2.115723000000000E+01      2.114334000000000E-01      1.115391000000000E+02      2.538452000000000E-01      5.278906000000000E+01
4822000000.000000      3.827057000000000E-01      8.355469000000000E+01      2.119522000000000E-01     -2.007813000000000E+01      2.149277000000000E-01      1.124687000000000E+02      2.538452000000000E-01      5.123241000000000E+01
4823000000.000000      3.794403000000000E-01      8.379297000000000E+01      2.162094000000000E-01     -1.915137000000000E+01      2.189560000000000E-01      1.136172000000000E+02      2.535095000000000E-01      5.028710000000000E+01
4824000000.000000      3.766785000000000E-01      8.416016000000000E+01      2.197495000000000E-01     -1.818262000000000E+01      2.233429000000000E-01      1.142656000000000E+02      2.502136000000000E-01      4.865820000000000E+01
4825000000.000000      3.729401000000000E-01      8.439844000000000E+01      2.242279000000000E-01     -1.732226000000000E+01      2.279510000000000E-01      1.152891000000000E+02      2.520599000000000E-01      4.763672000000000E+01
4826000000.000000      3.694458000000000E-01      8.473047000000000E+01      2.291870000000000E-01     -1.651660000000000E+01      2.316437000000000E-01      1.159609000000000E+02      2.498398000000000E-01      4.650781000000000E+01
4827000000.000000      3.651276000000000E-01      8.498438000000000E+01      2.328110000000000E-01     -1.573145000000000E+01      2.360001000000000E-01      1.166914000000000E+02      2.501068000000000E-01      4.518555000000000E+01
4828000000.000000      3.622437000000000E-01      8.532421000000000E+01      2.385025000000000E-01     -1.507617000000000E+01      2.406006000000000E-01      1.173203000000000E+02      2.487411000000000E-01      4.377343000000000E+01
4829000000.000000      3.566589000000000E-01      8.571484000000000E+01      2.425995000000000E-01     -1.453809000000000E+01      2.458038000000000E-01      1.179883000000000E+02      2.477570000000000E-01      4.279297000000000E+01
4830000000.000000      3.523254000000000E-01      8.588282000000000E+01      2.478714000000000E-01     -1.382520000000000E+01      2.503967000000000E-01      1.185820000000000E+02      2.455215000000000E-01      4.195898000000000E+01
4831000000.000000      3.469391000000000E-01      8.623438000000000E+01      2.527466000000000E-01     -1.342969000000000E+01      2.552948000000000E-01      1.191680000000000E+02      2.440720000000000E-01      4.029492000000000E+01
4832000000.000000      3.424683000000000E-01      8.656250000000000E+01      2.577667000000000E-01     -1.289404000000000E+01      2.599335000000000E-01      1.195273000000000E+02      2.422028000000000E-01      3.898046000000000E+01
4833000000.000000      3.366699000000000E-01      8.679688000000000E+01      2.628937000000000E-01     -1.251904000000000E+01      2.653198000000000E-01      1.199414000000000E+02      2.400589000000000E-01      3.778125000000000E+01
4834000000.000000      3.314819000000000E-01      8.698828000000000E+01      2.686768000000000E-01     -1.199609000000000E+01      2.707520000000000E-01      1.203633000000000E+02      2.391891000000000E-01      3.664063000000000E+01
4835000000.000000      3.262177000000000E-01      8.726171000000000E+01      2.741089000000000E-01     -1.183643000000000E+01      2.761536000000000E-01      1.207031000000000E+02      2.385178000000000E-01      3.506836000000000E+01
4836000000.000000      3.210602000000000E-01      8.764452000000000E+01      2.788086000000000E-01     -1.146875000000000E+01      2.808380000000000E-01      1.211406000000000E+02      2.352295000000000E-01      3.356054000000000E+01
4837000000.000000      3.144989000000000E-01      8.804688000000000E+01      2.844238000000000E-01     -1.152100000000000E+01      2.863922000000000E-01      1.212852000000000E+02      2.344437000000000E-01      3.257226000000000E+01
4838000000.000000      3.078766000000000E-01      8.818750000000000E+01      2.902069000000000E-01     -1.102344000000000E+01      2.917328000000000E-01      1.216289000000000E+02      2.327805000000000E-01      3.110352000000000E+01
4839000000.000000      3.036194000000000E-01      8.846094000000000E+01      2.955627000000000E-01     -1.097266000000000E+01      2.973480000000000E-01      1.218516000000000E+02      2.300873000000000E-01      2.924902000000000E+01
4840000000.000000      2.961426000000000E-01      8.861328000000000E+01      3.013000000000000E-01     -1.057861000000000E+01      3.027344000000000E-01      1.220430000000000E+02      2.282181000000000E-01      2.800879000000000E+01
4841000000.000000      2.899475000000000E-01      8.899218000000000E+01      3.075256000000000E-01     -1.077783000000000E+01      3.085022000000000E-01      1.222070000000000E+02      2.285156000000000E-01      2.698925000000000E+01
4842000000.000000      2.828674000000000E-01      8.917969000000000E+01      3.125305000000000E-01     -1.063770000000000E+01      3.135986000000000E-01      1.225312000000000E+02      2.266617000000000E-01      2.537207000000000E+01
4843000000.000000      2.766876000000000E-01      8.925390000000000E+01      3.187103000000000E-01     -1.064990000000000E+01      3.190918000000000E-01      1.225664000000000E+02      2.236710000000000E-01      2.420605000000000E+01
4844000000.000000      2.695160000000000E-01      8.962500000000000E+01      3.241425000000000E-01     -1.069141000000000E+01      3.242645000000000E-01      1.227500000000000E+02      2.204437000000000E-01      2.284375000000000E+01
4845000000.000000      2.628021000000000E-01      8.992188000000000E+01      3.293610000000000E-01     -1.054980000000000E+01      3.307648000000000E-01      1.226680000000000E+02      2.197342000000000E-01      2.119043000000000E+01
4846000000.000000      2.557983000000000E-01      8.991014000000000E+01      3.359680000000000E-01     -1.066504000000000E+01      3.363953000000000E-01      1.228437000000000E+02      2.171021000000000E-01      1.987207000000000E+01
4847000000.000000      2.487106000000000E-01      9.022655000000000E+01      3.412933000000000E-01     -1.068457000000000E+01      3.428650000000000E-01      1.228555000000000E+02      2.141342000000000E-01      1.837793000000000E+01
4848000000.000000      2.409668000000000E-01      9.030859000000000E+01      3.460083000000000E-01     -1.085889000000000E+01      3.479004000000000E-01      1.228711000000000E+02      2.130051000000000E-01      1.679492000000000E+01
4849000000.000000      2.333603000000000E-01      9.039063000000000E+01      3.531189000000000E-01     -1.101660000000000E+01      3.535919000000000E-01      1.229297000000000E+02      2.105103000000000E-01      1.549609000000000E+01
4850000000.000000      2.255173000000000E-01      9.048828000000000E+01      3.586731000000000E-01     -1.111279000000000E+01      3.595734000000000E-01      1.228516000000000E+02      2.088470000000000E-01      1.398926000000000E+01
4851000000.000000      2.183456000000000E-01      9.073046000000000E+01      3.652954000000000E-01     -1.127783000000000E+01      3.648224000000000E-01      1.229961000000000E+02      2.073975000000000E-01      1.249512000000000E+01
4852000000.000000      2.105942000000000E-01      9.073046000000000E+01      3.706512000000000E-01     -1.154150000000000E+01      3.712158000000000E-01      1.228867000000000E+02      2.049484000000000E-01      1.088574000000000E+01
4853000000.000000      2.028122000000000E-01      9.076952000000000E+01      3.750916000000000E-01     -1.162646000000000E+01      3.769836000000000E-01      1.228047000000000E+02      2.029572000000000E-01      9.251465000000000E+00
4854000000.000000      1.942368000000000E-01      9.073046000000000E+01      3.811493000000000E-01     -1.204248000000000E+01      3.828735000000000E-01      1.228594000000000E+02      2.014084000000000E-01      8.063965000000000E+00
4855000000.000000      1.867523000000000E-01      9.078516000000000E+01      3.864441000000000E-01     -1.218018000000000E+01      3.882904000000000E-01      1.226250000000000E+02      1.979599000000000E-01      6.529785000000000E+00
4856000000.000000      1.786652000000000E-01      9.073437000000000E+01      3.932953000000000E-01     -1.236133000000000E+01      3.941040000000000E-01      1.226367000000000E+02      1.963577000000000E-01      4.965820000000000E+00
4857000000.000000      1.704941000000000E-01      9.058203000000000E+01      3.982391000000000E-01     -1.280762000000000E+01      3.998108000000000E-01      1.224726000000000E+02      1.935120000000000E-01      3.350830000000000E+00
4858000000.000000      1.623840000000000E-01      9.019140000000000E+01      4.046173000000000E-01     -1.287061000000000E+01      4.057922000000000E-01      1.223750000000000E+02      1.914597000000000E-01      1.647949000000000E+00
4859000000.000000      1.536713000000000E-01      9.009766000000000E+01      4.103546000000000E-01     -1.323877000000000E+01      4.110718000000000E-01      1.223008000000000E+02      1.901245000000000E-01      1.428223000000000E-01
4860000000.000000      1.458969000000000E-01      8.998438000000000E+01      4.150848000000000E-01     -1.341602000000000E+01      4.167328000000000E-01      1.221601000000000E+02      1.876907000000000E-01     -1.212646000000000E+00
4861000000.000000      1.369171000000000E-01      8.942577000000000E+01      4.210815000000000E-01     -1.390771000000000E+01      4.233856000000000E-01      1.221523000000000E+02      1.847153000000000E-01     -2.879883000000000E+00
4862000000.000000      1.283798000000000E-01      8.905859000000000E+01      4.268951000000000E-01     -1.416016000000000E+01      4.291077000000000E-01      1.219531000000000E+02      1.834106000000000E-01     -4.666504000000000E+00
4863000000.000000      1.197510000000000E-01      8.822266000000000E+01      4.305267000000000E-01     -1.449658000000000E+01      4.339752000000000E-01      1.218047000000000E+02      1.815643000000000E-01     -5.936768000000000E+00
4864000000.000000      1.117249000000000E-01      8.743359000000000E+01      4.368439000000000E-01     -1.473828000000000E+01      4.397583000000000E-01      1.217422000000000E+02      1.794357000000000E-01     -7.614990000000000E+00
4865000000.000000      1.029892000000000E-01      8.657812000000000E+01      4.420471000000000E-01     -1.520801000000000E+01      4.450989000000000E-01      1.215117000000000E+02      1.780090000000000E-01     -9.038086000000000E+00
4866000000.000000      9.415817000000000E-02      8.500000000000000E+01      4.473572000000000E-01     -1.556641000000000E+01      4.525299000000000E-01      1.211406000000000E+02      1.751328000000000E-01     -1.079004000000000E+01
4867000000.000000      8.572006000000000E-02      8.435938000000000E+01      4.530487000000000E-01     -1.589453000000000E+01      4.580994000000000E-01      1.210586000000000E+02      1.735535000000000E-01     -1.226074000000000E+01
4868000000.000000      7.825851000000000E-02      8.230860000000000E+01      4.588318000000000E-01     -1.654297000000000E+01      4.631348000000000E-01      1.209648000000000E+02      1.709976000000000E-01     -1.375635000000000E+01
4869000000.000000      6.929398000000000E-02      8.008204000000000E+01      4.627533000000000E-01     -1.690430000000000E+01      4.689026000000000E-01      1.207813000000000E+02      1.688766000000000E-01     -1.547705000000000E+01
4870000000.000000      6.147957000000000E-02      7.732422000000000E+01      4.680786000000000E-01     -1.709277000000000E+01      4.743958000000000E-01      1.203945000000000E+02      1.664810000000000E-01     -1.690430000000000E+01
4871000000.000000      5.330086000000000E-02      7.301952000000000E+01      4.740448000000000E-01     -1.750977000000000E+01      4.811249000000000E-01      1.201641000000000E+02      1.644058000000000E-01     -1.847265000000000E+01
4872000000.000000      4.623222000000000E-02      6.849218000000000E+01      4.763489000000000E-01     -1.788769000000000E+01      4.857941000000000E-01      1.197734000000000E+02      1.628952000000000E-01     -1.992676000000000E+01
4873000000.000000      3.889847000000000E-02      6.074609000000000E+01      4.841156000000000E-01     -1.841309000000000E+01      4.925842000000000E-01      1.196172000000000E+02      1.601715000000000E-01     -2.186328000000000E+01
4874000000.000000      3.293991000000000E-02      5.094531000000000E+01      4.863281000000000E-01     -1.896289000000000E+01      4.985504000000000E-01      1.193555000000000E+02      1.588516000000000E-01     -2.315527000000000E+01
4875000000.000000      2.782822000000000E-02      3.740429000000000E+01      4.923553000000000E-01     -1.930664000000000E+01      5.041809000000000E-01      1.191484000000000E+02      1.560669000000000E-01     -2.483203000000000E+01
4876000000.000000      2.577782000000000E-02      2.193066000000000E+01      4.978333000000000E-01     -1.979101000000000E+01      5.095825000000000E-01      1.188398000000000E+02      1.542664000000000E-01     -2.668457000000000E+01
4877000000.000000      2.656651000000000E-02      6.948853000000000E-01      5.032654000000000E-01     -2.042773000000000E+01      5.151978000000000E-01      1.186055000000000E+02      1.520081000000000E-01     -2.795117000000000E+01
4878000000.000000      2.884197000000000E-02     -1.525879000000000E+01      5.081482000000000E-01     -2.058105000000000E+01      5.191040000000000E-01      1.182734000000000E+02      1.503525000000000E-01     -2.956152000000000E+01
4879000000.000000      3.364372000000000E-02     -2.853027000000000E+01      5.133057000000000E-01     -2.106152000000000E+01      5.261841000000000E-01      1.179844000000000E+02      1.483078000000000E-01     -3.122949000000000E+01
4880000000.000000      4.037094000000000E-02     -3.743555000000000E+01      5.183716000000000E-01     -2.160351000000000E+01      5.318909000000000E-01      1.176445000000000E+02      1.450043000000000E-01     -3.270508000000000E+01
4881000000.000000      4.612160000000000E-02     -4.355469000000000E+01      5.222473000000000E-01     -2.171875000000000E+01      5.379028000000000E-01      1.172617000000000E+02      1.433716000000000E-01     -3.412890000000000E+01
4882000000.000000      5.358315000000000E-02     -4.837891000000000E+01      5.273132000000000E-01     -2.244727000000000E+01      5.416565000000000E-01      1.170937000000000E+02      1.403885000000000E-01     -3.567383000000000E+01
