! Network Analyzer HP8722D
! Hewlett-Packard
! Data name: Linha & Wilkinson
! Saver's name: Rodrigo Anjos
! Comments: Teste da utilização de aquisição
continua pelo VNA HP8722D
! Time and date: 17/4/2025 11:18
!              Frequency                     S11                                                   S21                                                   S12                                                   S22
# HZ  S  MA R 50
4800000000.000000      3.889160000000000E-01      7.738671000000000E+01      1.921082000000000E-01     -5.468945000000000E+01      1.970596000000000E-01      7.960546000000000E+01      2.473907000000000E-01      7.470703000000000E+01
4801000000.000000      3.913727000000000E-01      7.768359000000000E+01      1.894302000000000E-01     -5.302734000000000E+01      1.941681000000000E-01      8.071484000000000E+01      2.489853000000000E-01      7.377734000000000E+01
4802000000.000000      3.931274000000000E-01      7.803124000000000E+01      1.868439000000000E-01     -5.163476000000000E+01      1.919556000000000E-01      8.202734000000000E+01      2.520294000000000E-01      7.310937000000000E+01
4803000000.000000      3.950043000000000E-01      7.827343000000000E+01      1.858597000000000E-01     -5.003124000000000E+01      1.897736000000000E-01      8.358984000000000E+01      2.519379000000000E-01      7.201953000000000E+01
4804000000.000000      3.964844000000000E-01      7.860937000000000E+01      1.836548000000000E-01     -4.847461000000000E+01      1.880417000000000E-01      8.497656000000000E+01      2.521973000000000E-01      7.153515000000000E+01
4805000000.000000      3.991089000000000E-01      7.882813000000000E+01      1.825256000000000E-01     -4.688086000000000E+01      1.861801000000000E-01      8.636328000000000E+01      2.549286000000000E-01      7.086719000000000E+01
4806000000.000000      3.988647000000000E-01      7.914453000000000E+01      1.813889000000000E-01     -4.531250000000000E+01      1.849976000000000E-01      8.808985000000000E+01      2.558441000000000E-01      6.968750000000000E+01
4807000000.000000      4.005127000000000E-01      7.947266000000000E+01      1.808167000000000E-01     -4.370117000000000E+01      1.841812000000000E-01      8.940624000000000E+01      2.554016000000000E-01      6.888281000000000E+01
4808000000.000000      4.012756000000000E-01      7.974999000000000E+01      1.809158000000000E-01     -4.167578000000000E+01      1.838760000000000E-01      9.109375000000000E+01      2.569580000000000E-01      6.841797000000000E+01
4809000000.000000      4.013062000000000E-01      8.013281000000000E+01      1.802673000000000E-01     -4.029687000000000E+01      1.839371000000000E-01      9.264063000000000E+01      2.582397000000000E-01      6.764453000000000E+01
4810000000.000000      4.021606000000000E-01      8.041796000000000E+01      1.808548000000000E-01     -3.856250000000000E+01      1.838837000000000E-01      9.428514000000000E+01      2.582397000000000E-01      6.644531000000000E+01
4811000000.000000      4.022827000000000E-01      8.062891000000000E+01      1.813736000000000E-01     -3.687304000000000E+01      1.846924000000000E-01      9.594530000000000E+01      2.589264000000000E-01      6.553124000000000E+01
4812000000.000000      4.023590000000000E-01      8.103125000000000E+01      1.819839000000000E-01     -3.523046000000000E+01      1.850739000000000E-01      9.735155000000000E+01      2.586670000000000E-01      6.439843000000000E+01
4813000000.000000      4.015045000000000E-01      8.134375000000000E+01      1.832275000000000E-01     -3.360742000000000E+01      1.863480000000000E-01      9.902344000000000E+01      2.601166000000000E-01      6.379883000000000E+01
4814000000.000000      3.993225000000000E-01      8.161327000000000E+01      1.850891000000000E-01     -3.193066000000000E+01      1.875534000000000E-01      1.005312000000000E+02      2.590637000000000E-01      6.283008000000000E+01
4815000000.000000      3.986359000000000E-01      8.196875000000000E+01      1.861954000000000E-01     -3.048242000000000E+01      1.887970000000000E-01      1.020742000000000E+02      2.599487000000000E-01      6.201562000000000E+01
4816000000.000000      3.987885000000000E-01      8.225000000000000E+01      1.886444000000000E-01     -2.894238000000000E+01      1.916809000000000E-01      1.034648000000000E+02      2.597656000000000E-01      6.053124000000000E+01
4817000000.000000      3.960724000000000E-01      8.258204000000000E+01      1.908340000000000E-01     -2.741015000000000E+01      1.933365000000000E-01      1.048594000000000E+02      2.585602000000000E-01      6.000977000000000E+01
4818000000.000000      3.940430000000000E-01      8.280077000000000E+01      1.935120000000000E-01     -2.608887000000000E+01      1.960526000000000E-01      1.061680000000000E+02      2.600098000000000E-01      5.881836000000000E+01
4819000000.000000      3.927002000000000E-01      8.312500000000000E+01      1.964493000000000E-01     -2.474902000000000E+01      1.987305000000000E-01      1.075156000000000E+02      2.583771000000000E-01      5.770702000000000E+01
4820000000.000000      3.887787000000000E-01      8.348827000000000E+01      1.994476000000000E-01     -2.334765000000000E+01      2.016754000000000E-01      1.087109000000000E+02      2.598572000000000E-01      5.657227000000000E+01
4821000000.000000      3.878479000000000E-01      8.379686000000000E+01      2.029800000000000E-01     -2.228516000000000E+01      2.044373000000000E-01      1.098203000000000E+02      2.584381000000000E-01      5.556054000000000E+01
4822000000.000000      3.841400000000000E-01      8.396484000000000E+01      2.056885000000000E-01     -2.105859000000000E+01      2.078171000000000E-01      1.110039000000000E+02      2.577209000000000E-01      5.423046000000000E+01
4823000000.000000      3.813019000000000E-01      8.429688000000000E+01      2.100601000000000E-01     -2.005859000000000E+01      2.115097000000000E-01      1.121758000000000E+02      2.565460000000000E-01      5.316796000000000E+01
4824000000.000000      3.787384000000000E-01      8.468750000000000E+01      2.139740000000000E-01     -1.910742000000000E+01      2.152863000000000E-01      1.130234000000000E+02      2.555542000000000E-01      5.181054000000000E+01
4825000000.000000      3.747406000000000E-01      8.498827000000000E+01      2.175293000000000E-01     -1.802051000000000E+01      2.197571000000000E-01      1.140078000000000E+02      2.552490000000000E-01      5.066601000000000E+01
4826000000.000000      3.708191000000000E-01      8.523829000000000E+01      2.226791000000000E-01     -1.717773000000000E+01      2.233658000000000E-01      1.149062000000000E+02      2.544098000000000E-01      4.965038000000000E+01
4827000000.000000      3.675537000000000E-01      8.549608000000000E+01      2.268906000000000E-01     -1.631836000000000E+01      2.278137000000000E-01      1.157500000000000E+02      2.532196000000000E-01      4.841015000000000E+01
4828000000.000000      3.637848000000000E-01      8.574610000000000E+01      2.315445000000000E-01     -1.543994000000000E+01      2.324600000000000E-01      1.164453000000000E+02      2.514191000000000E-01      4.691992000000000E+01
4829000000.000000      3.586273000000000E-01      8.622265000000000E+01      2.357635000000000E-01     -1.477295000000000E+01      2.370911000000000E-01      1.172617000000000E+02      2.509003000000000E-01      4.596289000000000E+01
4830000000.000000      3.543091000000000E-01      8.642969000000000E+01      2.405701000000000E-01     -1.407764000000000E+01      2.413712000000000E-01      1.178906000000000E+02      2.493362000000000E-01      4.475195000000000E+01
4831000000.000000      3.494568000000000E-01      8.669140000000000E+01      2.454910000000000E-01     -1.371387000000000E+01      2.465668000000000E-01      1.185430000000000E+02      2.480011000000000E-01      4.354688000000000E+01
4832000000.000000      3.447723000000000E-01      8.701172000000000E+01      2.504578000000000E-01     -1.309180000000000E+01      2.510834000000000E-01      1.190977000000000E+02      2.463531000000000E-01      4.250196000000000E+01
4833000000.000000      3.392487000000000E-01      8.726171000000000E+01      2.560730000000000E-01     -1.259473000000000E+01      2.559357000000000E-01      1.196016000000000E+02      2.446213000000000E-01      4.085351000000000E+01
4834000000.000000      3.340607000000000E-01      8.757030000000000E+01      2.608643000000000E-01     -1.230615000000000E+01      2.612915000000000E-01      1.201172000000000E+02      2.445145000000000E-01      3.969336000000000E+01
4835000000.000000      3.289490000000000E-01      8.775000000000000E+01      2.664642000000000E-01     -1.184229000000000E+01      2.666016000000000E-01      1.205547000000000E+02      2.422333000000000E-01      3.830078000000000E+01
4836000000.000000      3.238220000000000E-01      8.810156000000000E+01      2.710876000000000E-01     -1.145752000000000E+01      2.714996000000000E-01      1.209961000000000E+02      2.402878000000000E-01      3.692968000000000E+01
4837000000.000000      3.170166000000000E-01      8.843750000000000E+01      2.761688000000000E-01     -1.143311000000000E+01      2.765045000000000E-01      1.212031000000000E+02      2.386856000000000E-01      3.562500000000000E+01
4838000000.000000      3.105316000000000E-01      8.863281000000000E+01      2.826843000000000E-01     -1.075439000000000E+01      2.819519000000000E-01      1.216211000000000E+02      2.372513000000000E-01      3.411328000000000E+01
4839000000.000000      3.059692000000000E-01      8.890625000000000E+01      2.879333000000000E-01     -1.070361000000000E+01      2.877045000000000E-01      1.218516000000000E+02      2.359543000000000E-01      3.250000000000000E+01
4840000000.000000      2.989044000000000E-01      8.903906000000000E+01      2.940369000000000E-01     -1.052783000000000E+01      2.931671000000000E-01      1.222500000000000E+02      2.331085000000000E-01      3.120312000000000E+01
4841000000.000000      2.929230000000000E-01      8.938671000000000E+01      2.995605000000000E-01     -1.043457000000000E+01      2.984619000000000E-01      1.223476000000000E+02      2.321091000000000E-01      2.998242000000000E+01
4842000000.000000      2.858734000000000E-01      8.957422000000000E+01      3.046417000000000E-01     -1.006494000000000E+01      3.034973000000000E-01      1.227031000000000E+02      2.305756000000000E-01      2.879883000000000E+01
4843000000.000000      2.794495000000000E-01      8.957422000000000E+01      3.113556000000000E-01     -1.009131000000000E+01      3.096466000000000E-01      1.228437000000000E+02      2.290039000000000E-01      2.739551000000000E+01
4844000000.000000      2.724762000000000E-01      8.990625000000000E+01      3.164978000000000E-01     -1.018750000000000E+01      3.141937000000000E-01      1.229805000000000E+02      2.257156000000000E-01      2.607324000000000E+01
4845000000.000000      2.652893000000000E-01      9.021875000000000E+01      3.214569000000000E-01     -1.006934000000000E+01      3.207092000000000E-01      1.231172000000000E+02      2.251129000000000E-01      2.458593000000000E+01
4846000000.000000      2.585297000000000E-01      9.034374000000000E+01      3.282623000000000E-01     -1.009375000000000E+01      3.268433000000000E-01      1.231641000000000E+02      2.219925000000000E-01      2.312598000000000E+01
4847000000.000000      2.511139000000000E-01      9.061718000000000E+01      3.342133000000000E-01     -1.007471000000000E+01      3.320770000000000E-01      1.232969000000000E+02      2.199249000000000E-01      2.130859000000000E+01
4848000000.000000      2.440491000000000E-01      9.064453000000000E+01      3.385010000000000E-01     -1.025732000000000E+01      3.380890000000000E-01      1.233008000000000E+02      2.181396000000000E-01      2.019629000000000E+01
4849000000.000000      2.365799000000000E-01      9.071093000000000E+01      3.449707000000000E-01     -1.029834000000000E+01      3.439178000000000E-01      1.233398000000000E+02      2.158356000000000E-01      1.875684000000000E+01
4850000000.000000      2.288513000000000E-01      9.083593000000000E+01      3.515015000000000E-01     -1.044434000000000E+01      3.497772000000000E-01      1.235273000000000E+02      2.142105000000000E-01      1.737695000000000E+01
4851000000.000000      2.210846000000000E-01      9.112499000000000E+01      3.572693000000000E-01     -1.062256000000000E+01      3.548431000000000E-01      1.235156000000000E+02      2.127762000000000E-01      1.593701000000000E+01
4852000000.000000      2.135315000000000E-01      9.111719000000000E+01      3.625946000000000E-01     -1.072705000000000E+01      3.609619000000000E-01      1.235508000000000E+02      2.107162000000000E-01      1.422705000000000E+01
4853000000.000000      2.056351000000000E-01      9.118359000000000E+01      3.673248000000000E-01     -1.096729000000000E+01      3.669281000000000E-01      1.234648000000000E+02      2.078323000000000E-01      1.255029000000000E+01
4854000000.000000      1.977234000000000E-01      9.107031000000000E+01      3.736877000000000E-01     -1.123535000000000E+01      3.726349000000000E-01      1.234805000000000E+02      2.073135000000000E-01      1.147510000000000E+01
4855000000.000000      1.899796000000000E-01      9.107813000000000E+01      3.798065000000000E-01     -1.131348000000000E+01      3.779144000000000E-01      1.234297000000000E+02      2.034607000000000E-01      9.891602000000000E+00
4856000000.000000      1.816254000000000E-01      9.093750000000000E+01      3.858795000000000E-01     -1.160303000000000E+01      3.840637000000000E-01      1.233555000000000E+02      2.020950000000000E-01      8.312500000000000E+00
4857000000.000000      1.738434000000000E-01      9.104687000000000E+01      3.920898000000000E-01     -1.184326000000000E+01      3.900909000000000E-01      1.233203000000000E+02      1.992493000000000E-01      6.911621000000000E+00
4858000000.000000      1.654816000000000E-01      9.063671000000000E+01      3.976898000000000E-01     -1.210986000000000E+01      3.965149000000000E-01      1.231836000000000E+02      1.973267000000000E-01      5.256836000000000E+00
4859000000.000000      1.569977000000000E-01      9.053125000000000E+01      4.027710000000000E-01     -1.228027000000000E+01      4.014587000000000E-01      1.231211000000000E+02      1.956635000000000E-01      3.707886000000000E+00
4860000000.000000      1.490250000000000E-01      9.029297000000000E+01      4.085083000000000E-01     -1.263184000000000E+01      4.068756000000000E-01      1.229688000000000E+02      1.935272000000000E-01      2.360596000000000E+00
4861000000.000000      1.401749000000000E-01      8.988672000000000E+01      4.140320000000000E-01     -1.292139000000000E+01      4.136658000000000E-01      1.229023000000000E+02      1.906586000000000E-01      6.193542000000000E-01
4862000000.000000      1.317673000000000E-01      8.927343000000000E+01      4.199371000000000E-01     -1.323047000000000E+01      4.199829000000000E-01      1.228398000000000E+02      1.891785000000000E-01     -1.038208000000000E+00
4863000000.000000      1.234360000000000E-01      8.843750000000000E+01      4.250793000000000E-01     -1.363574000000000E+01      4.252472000000000E-01      1.227461000000000E+02      1.873016000000000E-01     -2.375854000000000E+00
4864000000.000000      1.154137000000000E-01      8.783203000000000E+01      4.299316000000000E-01     -1.387744000000000E+01      4.309235000000000E-01      1.224687000000000E+02      1.844254000000000E-01     -4.053955000000000E+00
4865000000.000000      1.067085000000000E-01      8.714062000000000E+01      4.358826000000000E-01     -1.410938000000000E+01      4.368591000000000E-01      1.223438000000000E+02      1.838150000000000E-01     -5.387451000000000E+00
4866000000.000000      9.780502000000000E-02      8.544140000000000E+01      4.404602000000000E-01     -1.462842000000000E+01      4.429321000000000E-01      1.220664000000000E+02      1.811752000000000E-01     -7.113770000000000E+00
4867000000.000000      8.922577000000000E-02      8.438280000000000E+01      4.466400000000000E-01     -1.509424000000000E+01      4.476013000000000E-01      1.221133000000000E+02      1.791306000000000E-01     -8.543457000000000E+00
4868000000.000000      8.117676000000000E-02      8.258204000000000E+01      4.521484000000000E-01     -1.539600000000000E+01      4.533844000000000E-01      1.216680000000000E+02      1.769562000000000E-01     -1.002246000000000E+01
4869000000.000000      7.285309000000000E-02      8.035156000000000E+01      4.563599000000000E-01     -1.589209000000000E+01      4.602051000000000E-01      1.216953000000000E+02      1.744308000000000E-01     -1.180664000000000E+01
4870000000.000000      6.530762000000000E-02      7.791016000000000E+01      4.631500000000000E-01     -1.608594000000000E+01      4.656830000000000E-01      1.213711000000000E+02      1.728821000000000E-01     -1.325244000000000E+01
4871000000.000000      5.692673000000000E-02      7.403515000000000E+01      4.673767000000000E-01     -1.662012000000000E+01      4.708557000000000E-01      1.212500000000000E+02      1.704788000000000E-01     -1.462988000000000E+01
4872000000.000000      4.955292000000000E-02      6.926562000000000E+01      4.724121000000000E-01     -1.673633000000000E+01      4.771881000000000E-01      1.207813000000000E+02      1.690979000000000E-01     -1.611719000000000E+01
4873000000.000000      4.243279000000000E-02      6.282617000000000E+01      4.770203000000000E-01     -1.732617000000000E+01      4.822388000000000E-01      1.204922000000000E+02      1.660385000000000E-01     -1.785449000000000E+01
4874000000.000000      3.613281000000000E-02      5.468945000000000E+01      4.831543000000000E-01     -1.796191000000000E+01      4.899750000000000E-01      1.203359000000000E+02      1.648331000000000E-01     -1.953809000000000E+01
4875000000.000000      3.067589000000000E-02      4.266015000000000E+01      4.859772000000000E-01     -1.811133000000000E+01      4.941254000000000E-01      1.201953000000000E+02      1.621323000000000E-01     -2.097070000000000E+01
4876000000.000000      2.812576000000000E-02      2.734082000000000E+01      4.931641000000000E-01     -1.869531000000000E+01      5.005188000000000E-01      1.199219000000000E+02      1.603241000000000E-01     -2.279199000000000E+01
4877000000.000000      2.776146000000000E-02      8.939941000000000E+00      4.957581000000000E-01     -1.907812000000000E+01      5.056763000000000E-01      1.196641000000000E+02      1.579742000000000E-01     -2.400879000000000E+01
4878000000.000000      2.893734000000000E-02     -8.575195000000000E+00      5.018005000000000E-01     -1.950000000000000E+01      5.113220000000000E-01      1.193750000000000E+02      1.557999000000000E-01     -2.568652000000000E+01
4879000000.000000      3.297615000000000E-02     -2.145996000000000E+01      5.067139000000000E-01     -1.999804000000000E+01      5.184937000000000E-01      1.189687000000000E+02      1.538620000000000E-01     -2.708887000000000E+01
4880000000.000000      3.894043000000000E-02     -3.176758000000000E+01      5.099792000000000E-01     -2.046484000000000E+01      5.223389000000000E-01      1.187383000000000E+02      1.512604000000000E-01     -2.862988000000000E+01
4881000000.000000      4.464531000000000E-02     -3.979687000000000E+01      5.162354000000000E-01     -2.076465000000000E+01      5.301514000000000E-01      1.184766000000000E+02      1.493073000000000E-01     -3.021289000000000E+01
4882000000.000000      5.128288000000000E-02     -4.421679000000000E+01      5.218506000000000E-01     -2.143750000000000E+01      5.342102000000000E-01      1.182109000000000E+02      1.472473000000000E-01     -3.147949000000000E+01
