! Network Analyzer HP8722D
! Hewlett-Packard
! Data name: Linha & Wilkinson
! Saver's name: Rodrigo Anjos
! Comments: Teste da utilização de aquisição
continua pelo VNA HP8722D
! Time and date: 17/4/2025 11:31
!              Frequency                     S11                                                   S21                                                   S12                                                   S22
# HZ  S  MA R 50
4800000000.000000      3.837280000000000E-01      7.989062000000000E+01      2.028580000000000E-01     -6.117969000000000E+01      2.082291000000000E-01      7.390234000000000E+01      2.425461000000000E-01      7.873437000000000E+01
4801000000.000000      3.868256000000000E-01      8.026171000000000E+01      1.992722000000000E-01     -5.994922000000000E+01      2.041016000000000E-01      7.478906000000000E+01      2.479706000000000E-01      7.722265000000000E+01
4802000000.000000      3.895416000000000E-01      8.046093000000000E+01      1.956253000000000E-01     -5.862695000000000E+01      2.007523000000000E-01      7.594140000000000E+01      2.518768000000000E-01      7.664063000000000E+01
4803000000.000000      3.920288000000000E-01      8.080858000000000E+01      1.930008000000000E-01     -5.725976000000000E+01      1.974640000000000E-01      7.717968000000000E+01      2.506409000000000E-01      7.664063000000000E+01
4804000000.000000      3.941650000000000E-01      8.115625000000000E+01      1.899033000000000E-01     -5.573828000000000E+01      1.947937000000000E-01      7.832031000000000E+01      2.521057000000000E-01      7.548437000000000E+01
4805000000.000000      3.969421000000000E-01      8.137499000000000E+01      1.868744000000000E-01     -5.452538000000000E+01      1.918945000000000E-01      7.964062000000000E+01      2.537994000000000E-01      7.462109000000000E+01
4806000000.000000      3.980865000000000E-01      8.178125000000000E+01      1.844482000000000E-01     -5.291601000000000E+01      1.892395000000000E-01      8.122656000000000E+01      2.545624000000000E-01      7.369141000000000E+01
4807000000.000000      3.998108000000000E-01      8.199999000000000E+01      1.826248000000000E-01     -5.153710000000000E+01      1.871338000000000E-01      8.255859000000000E+01      2.544708000000000E-01      7.263672000000000E+01
4808000000.000000      4.008179000000000E-01      8.233202000000000E+01      1.811981000000000E-01     -4.974804000000000E+01      1.853180000000000E-01      8.403124000000000E+01      2.540741000000000E-01      7.218359000000000E+01
4809000000.000000      4.019012000000000E-01      8.262499000000000E+01      1.795425000000000E-01     -4.821875000000000E+01      1.840820000000000E-01      8.556250000000000E+01      2.582245000000000E-01      7.129296000000000E+01
4810000000.000000      4.029388000000000E-01      8.290625000000000E+01      1.783371000000000E-01     -4.621679000000000E+01      1.826859000000000E-01      8.719141000000000E+01      2.590942000000000E-01      7.034765000000000E+01
4811000000.000000      4.032593000000000E-01      8.314453000000000E+01      1.775284000000000E-01     -4.467578000000000E+01      1.824265000000000E-01      8.887499000000000E+01      2.595367000000000E-01      6.980469000000000E+01
4812000000.000000      4.044952000000000E-01      8.352343000000000E+01      1.769409000000000E-01     -4.294726000000000E+01      1.816483000000000E-01      9.038671000000000E+01      2.591248000000000E-01      6.846093000000000E+01
4813000000.000000      4.038391000000000E-01      8.385937000000000E+01      1.767883000000000E-01     -4.101171000000000E+01      1.814041000000000E-01      9.221483000000000E+01      2.619171000000000E-01      6.788280000000000E+01
4814000000.000000      4.029999000000000E-01      8.405468000000000E+01      1.770248000000000E-01     -3.924219000000000E+01      1.814575000000000E-01      9.392187000000000E+01      2.598419000000000E-01      6.662890000000000E+01
4815000000.000000      4.022522000000000E-01      8.445313000000000E+01      1.775284000000000E-01     -3.757421000000000E+01      1.816254000000000E-01      9.556250000000000E+01      2.604523000000000E-01      6.536718000000000E+01
4816000000.000000      4.023285000000000E-01      8.463671000000000E+01      1.782608000000000E-01     -3.565625000000000E+01      1.831360000000000E-01      9.726952000000000E+01      2.623596000000000E-01      6.457812000000000E+01
4817000000.000000      4.008179000000000E-01      8.503515000000000E+01      1.791458000000000E-01     -3.411718000000000E+01      1.836319000000000E-01      9.872265000000000E+01      2.608643000000000E-01      6.405078000000000E+01
4818000000.000000      3.994904000000000E-01      8.518749000000000E+01      1.802826000000000E-01     -3.241015000000000E+01      1.852264000000000E-01      1.002734000000000E+02      2.611542000000000E-01      6.280468000000000E+01
4819000000.000000      3.984833000000000E-01      8.558594000000000E+01      1.820908000000000E-01     -3.059570000000000E+01      1.874619000000000E-01      1.019961000000000E+02      2.606506000000000E-01      6.178905000000000E+01
4820000000.000000      3.952179000000000E-01      8.582811000000000E+01      1.843109000000000E-01     -2.913086000000000E+01      1.893387000000000E-01      1.033476000000000E+02      2.616272000000000E-01      6.067968000000000E+01
4821000000.000000      3.944397000000000E-01      8.613672000000000E+01      1.866226000000000E-01     -2.770801000000000E+01      1.910400000000000E-01      1.048555000000000E+02      2.612762000000000E-01      5.976367000000000E+01
4822000000.000000      3.923645000000000E-01      8.631639000000000E+01      1.892853000000000E-01     -2.608593000000000E+01      1.936493000000000E-01      1.061758000000000E+02      2.606659000000000E-01      5.824804000000000E+01
4823000000.000000      3.892365000000000E-01      8.660547000000000E+01      1.922531000000000E-01     -2.480762000000000E+01      1.961365000000000E-01      1.076328000000000E+02      2.601013000000000E-01      5.694530000000000E+01
4824000000.000000      3.867035000000000E-01      8.692186000000000E+01      1.953125000000000E-01     -2.347266000000000E+01      1.995468000000000E-01      1.087656000000000E+02      2.585144000000000E-01      5.617382000000000E+01
4825000000.000000      3.835297000000000E-01      8.711718000000000E+01      1.983032000000000E-01     -2.212695000000000E+01      2.033081000000000E-01      1.101211000000000E+02      2.585602000000000E-01      5.478710000000000E+01
4826000000.000000      3.802643000000000E-01      8.742188000000000E+01      2.023468000000000E-01     -2.119727000000000E+01      2.062912000000000E-01      1.112617000000000E+02      2.574768000000000E-01      5.372265000000000E+01
4827000000.000000      3.771820000000000E-01      8.764452000000000E+01      2.051849000000000E-01     -1.971094000000000E+01      2.098236000000000E-01      1.123711000000000E+02      2.579041000000000E-01      5.222461000000000E+01
4828000000.000000      3.737030000000000E-01      8.796093000000000E+01      2.099304000000000E-01     -1.874609000000000E+01      2.140808000000000E-01      1.133633000000000E+02      2.569733000000000E-01      5.101563000000000E+01
4829000000.000000      3.690491000000000E-01      8.826563000000000E+01      2.138748000000000E-01     -1.781738000000000E+01      2.184448000000000E-01      1.143906000000000E+02      2.561035000000000E-01      5.010156000000000E+01
4830000000.000000      3.653564000000000E-01      8.849609000000000E+01      2.178955000000000E-01     -1.677344000000000E+01      2.222290000000000E-01      1.153086000000000E+02      2.538605000000000E-01      4.894921000000000E+01
4831000000.000000      3.601074000000000E-01      8.872656000000000E+01      2.223740000000000E-01     -1.613281000000000E+01      2.268753000000000E-01      1.161211000000000E+02      2.532654000000000E-01      4.748828000000000E+01
4832000000.000000      3.562164000000000E-01      8.904297000000000E+01      2.272644000000000E-01     -1.510498000000000E+01      2.311707000000000E-01      1.169375000000000E+02      2.526855000000000E-01      4.672461000000000E+01
4833000000.000000      3.509216000000000E-01      8.926561000000000E+01      2.315979000000000E-01     -1.435400000000000E+01      2.358322000000000E-01      1.176641000000000E+02      2.512054000000000E-01      4.515234000000000E+01
4834000000.000000      3.461456000000000E-01      8.954296000000000E+01      2.367172000000000E-01     -1.386768000000000E+01      2.407608000000000E-01      1.183516000000000E+02      2.494278000000000E-01      4.362305000000000E+01
4835000000.000000      3.409119000000000E-01      8.966015000000000E+01      2.418518000000000E-01     -1.322754000000000E+01      2.454300000000000E-01      1.189687000000000E+02      2.482300000000000E-01      4.222265000000000E+01
4836000000.000000      3.362579000000000E-01      8.995703000000000E+01      2.466583000000000E-01     -1.262744000000000E+01      2.504578000000000E-01      1.197266000000000E+02      2.447510000000000E-01      4.141015000000000E+01
4837000000.000000      3.302765000000000E-01      9.027735000000000E+01      2.514343000000000E-01     -1.231738000000000E+01      2.555847000000000E-01      1.200430000000000E+02      2.452164000000000E-01      3.982617000000000E+01
4838000000.000000      3.237610000000000E-01      9.036718000000000E+01      2.577057000000000E-01     -1.165527000000000E+01      2.603607000000000E-01      1.206523000000000E+02      2.425690000000000E-01      3.854297000000000E+01
4839000000.000000      3.195953000000000E-01      9.065624000000000E+01      2.624664000000000E-01     -1.110449000000000E+01      2.658691000000000E-01      1.210508000000000E+02      2.403412000000000E-01      3.635742000000000E+01
4840000000.000000      3.128357000000000E-01      9.073437000000000E+01      2.682190000000000E-01     -1.081055000000000E+01      2.714691000000000E-01      1.214961000000000E+02      2.402725000000000E-01      3.533203000000000E+01
4841000000.000000      3.067932000000000E-01      9.106249000000000E+01      2.741241000000000E-01     -1.059375000000000E+01      2.767639000000000E-01      1.218476000000000E+02      2.379074000000000E-01      3.422070000000000E+01
4842000000.000000      2.998352000000000E-01      9.121485000000000E+01      2.795868000000000E-01     -1.024756000000000E+01      2.819061000000000E-01      1.222187000000000E+02      2.376709000000000E-01      3.293554000000000E+01
4843000000.000000      2.936554000000000E-01      9.125391000000000E+01      2.857361000000000E-01     -1.008008000000000E+01      2.880096000000000E-01      1.225625000000000E+02      2.354889000000000E-01      3.163476000000000E+01
4844000000.000000      2.867584000000000E-01      9.140234000000000E+01      2.912750000000000E-01     -9.868652000000000E+00      2.929840000000000E-01      1.227851000000000E+02      2.313309000000000E-01      3.025195000000000E+01
4845000000.000000      2.800751000000000E-01      9.173046000000000E+01      2.964935000000000E-01     -9.624023000000000E+00      2.984467000000000E-01      1.230234000000000E+02      2.309036000000000E-01      2.857812000000000E+01
4846000000.000000      2.736816000000000E-01      9.177343000000000E+01      3.030701000000000E-01     -9.583008000000000E+00      3.050537000000000E-01      1.232734000000000E+02      2.289810000000000E-01      2.729199000000000E+01
4847000000.000000      2.665405000000000E-01      9.202343000000000E+01      3.084869000000000E-01     -9.478516000000000E+00      3.103485000000000E-01      1.233828000000000E+02      2.269287000000000E-01      2.566113000000000E+01
4848000000.000000      2.587433000000000E-01      9.207031000000000E+01      3.134918000000000E-01     -9.515625000000000E+00      3.157043000000000E-01      1.235586000000000E+02      2.251358000000000E-01      2.436132000000000E+01
4849000000.000000      2.515869000000000E-01      9.190233000000000E+01      3.198547000000000E-01     -9.478516000000000E+00      3.215332000000000E-01      1.236836000000000E+02      2.220764000000000E-01      2.312891000000000E+01
4850000000.000000      2.439728000000000E-01      9.212891000000000E+01      3.253632000000000E-01     -9.511719000000000E+00      3.272705000000000E-01      1.239063000000000E+02      2.217407000000000E-01      2.161816000000000E+01
4851000000.000000      2.370605000000000E-01      9.229296000000000E+01      3.320770000000000E-01     -9.448242000000000E+00      3.334808000000000E-01      1.239922000000000E+02      2.194214000000000E-01      2.004395000000000E+01
4852000000.000000      2.290421000000000E-01      9.211329000000000E+01      3.369598000000000E-01     -9.645020000000000E+00      3.384857000000000E-01      1.241211000000000E+02      2.177811000000000E-01      1.866797000000000E+01
4853000000.000000      2.218018000000000E-01      9.219530000000000E+01      3.423462000000000E-01     -9.692871000000000E+00      3.445892000000000E-01      1.241562000000000E+02      2.147293000000000E-01      1.705176000000000E+01
4854000000.000000      2.132492000000000E-01      9.205858000000000E+01      3.486328000000000E-01     -9.794434000000000E+00      3.512115000000000E-01      1.242344000000000E+02      2.138443000000000E-01      1.575830000000000E+01
4855000000.000000      2.057495000000000E-01      9.201172000000000E+01      3.546448000000000E-01     -1.006934000000000E+01      3.567657000000000E-01      1.242226000000000E+02      2.106018000000000E-01      1.432471000000000E+01
4856000000.000000      1.974716000000000E-01      9.195313000000000E+01      3.602905000000000E-01     -1.008984000000000E+01      3.624115000000000E-01      1.242578000000000E+02      2.091827000000000E-01      1.290039000000000E+01
4857000000.000000      1.898270000000000E-01      9.184374000000000E+01      3.669128000000000E-01     -1.021729000000000E+01      3.681793000000000E-01      1.242969000000000E+02      2.064056000000000E-01      1.131836000000000E+01
4858000000.000000      1.812897000000000E-01      9.127344000000000E+01      3.730011000000000E-01     -1.046191000000000E+01      3.737640000000000E-01      1.242344000000000E+02      2.045898000000000E-01      9.715820000000000E+00
4859000000.000000      1.733017000000000E-01      9.108984000000000E+01      3.784790000000000E-01     -1.066650000000000E+01      3.797913000000000E-01      1.242578000000000E+02      2.025528000000000E-01      8.254395000000000E+00
4860000000.000000      1.654587000000000E-01      9.085546000000000E+01      3.846436000000000E-01     -1.089600000000000E+01      3.852386000000000E-01      1.240742000000000E+02      2.006454000000000E-01      6.836182000000000E+00
4861000000.000000      1.564255000000000E-01      9.046093000000000E+01      3.902588000000000E-01     -1.131738000000000E+01      3.920135000000000E-01      1.240664000000000E+02      1.974869000000000E-01      5.097656000000000E+00
4862000000.000000      1.477127000000000E-01      8.974218000000000E+01      3.958740000000000E-01     -1.133691000000000E+01      3.980103000000000E-01      1.240547000000000E+02      1.963806000000000E-01      3.548584000000000E+00
4863000000.000000      1.397781000000000E-01      8.895702000000000E+01      4.006653000000000E-01     -1.176367000000000E+01      4.038239000000000E-01      1.239961000000000E+02      1.947708000000000E-01      2.370239000000000E+00
4864000000.000000      1.313400000000000E-01      8.832422000000000E+01      4.080200000000000E-01     -1.191357000000000E+01      4.095917000000000E-01      1.238633000000000E+02      1.926727000000000E-01      6.536865000000000E-01
4865000000.000000      1.227760000000000E-01      8.732813000000000E+01      4.120483000000000E-01     -1.221973000000000E+01      4.151459000000000E-01      1.237578000000000E+02      1.906204000000000E-01     -8.432007000000000E-01
4866000000.000000      1.141129000000000E-01      8.600000000000000E+01      4.174805000000000E-01     -1.274854000000000E+01      4.220581000000000E-01      1.234687000000000E+02      1.888962000000000E-01     -2.283813000000000E+00
4867000000.000000      1.058998000000000E-01      8.455469000000000E+01      4.237518000000000E-01     -1.304395000000000E+01      4.271393000000000E-01      1.235312000000000E+02      1.871033000000000E-01     -3.867188000000000E+00
4868000000.000000      9.799576000000000E-02      8.304688000000000E+01      4.300537000000000E-01     -1.335010000000000E+01      4.328918000000000E-01      1.232305000000000E+02      1.839371000000000E-01     -5.285889000000000E+00
4869000000.000000      8.952713000000000E-02      8.097265000000000E+01      4.348907000000000E-01     -1.378418000000000E+01      4.391022000000000E-01      1.229297000000000E+02      1.823578000000000E-01     -6.942139000000000E+00
4870000000.000000      8.164978000000000E-02      7.869922000000000E+01      4.411316000000000E-01     -1.401074000000000E+01      4.444275000000000E-01      1.230234000000000E+02      1.800613000000000E-01     -8.354004000000000E+00
4871000000.000000      7.329559000000000E-02      7.554296000000000E+01      4.458618000000000E-01     -1.443750000000000E+01      4.509125000000000E-01      1.227109000000000E+02      1.779404000000000E-01     -9.846680000000000E+00
4872000000.000000      6.604767000000000E-02      7.175781000000000E+01      4.511871000000000E-01     -1.467090000000000E+01      4.554291000000000E-01      1.223320000000000E+02      1.769867000000000E-01     -1.130127000000000E+01
4873000000.000000      5.910683000000000E-02      6.724218000000000E+01      4.563446000000000E-01     -1.520410000000000E+01      4.615326000000000E-01      1.224570000000000E+02      1.741333000000000E-01     -1.298340000000000E+01
4874000000.000000      5.271912000000000E-02      6.097656000000000E+01      4.619751000000000E-01     -1.562549000000000E+01      4.680634000000000E-01      1.219375000000000E+02      1.727524000000000E-01     -1.441162000000000E+01
4875000000.000000      4.598236000000000E-02      5.339062000000000E+01      4.662170000000000E-01     -1.601074000000000E+01      4.759064000000000E-01      1.219336000000000E+02      1.699600000000000E-01     -1.598535000000000E+01
4876000000.000000      4.226875000000000E-02      4.397265000000000E+01      4.727020000000000E-01     -1.641113000000000E+01      4.804535000000000E-01      1.216914000000000E+02      1.680679000000000E-01     -1.783008000000000E+01
4877000000.000000      3.903580000000000E-02      3.139062000000000E+01      4.773102000000000E-01     -1.684082000000000E+01      4.862823000000000E-01      1.213320000000000E+02      1.655960000000000E-01     -1.899316000000000E+01
4878000000.000000      3.714180000000000E-02      1.940039000000000E+01      4.837646000000000E-01     -1.736426000000000E+01      4.916840000000000E-01      1.212695000000000E+02      1.636276000000000E-01     -2.062891000000000E+01
4879000000.000000      3.771973000000000E-02      6.511963000000000E+00      4.863892000000000E-01     -1.756250000000000E+01      4.977264000000000E-01      1.208398000000000E+02      1.617355000000000E-01     -2.206933000000000E+01
4880000000.000000      4.034424000000000E-02     -6.328125000000000E+00      4.928894000000000E-01     -1.821484000000000E+01      5.039368000000000E-01      1.206758000000000E+02      1.592941000000000E-01     -2.364746000000000E+01
4881000000.000000      4.436493000000000E-02     -1.686328000000000E+01      4.985962000000000E-01     -1.847852000000000E+01      5.089111000000000E-01      1.203008000000000E+02      1.575394000000000E-01     -2.502148000000000E+01
4882000000.000000      4.978752000000000E-02     -2.388476000000000E+01      5.036316000000000E-01     -1.907227000000000E+01      5.137939000000000E-01      1.201523000000000E+02      1.550369000000000E-01     -2.620605000000000E+01
