! Network Analyzer HP8722D
! Hewlett-Packard
! Data name: Linha & Wilkinson
! Saver's name: Rodrigo Anjos
! Comments: Teste da utilização de aquisição
continua pelo VNA HP8722D
! Time and date: 17/4/2025 11:12
!              Frequency                     S11                                                   S21                                                   S12                                                   S22
# HZ  S  MA R 50
4800000000.000000      3.896942000000000E-01      7.684765000000000E+01      1.894302000000000E-01     -5.297070000000000E+01      1.928787000000000E-01      8.214062000000000E+01      2.458954000000000E-01      7.180859000000000E+01
4801000000.000000      3.915405000000000E-01      7.718750000000000E+01      1.872253000000000E-01     -5.136523000000000E+01      1.906281000000000E-01      8.338282000000000E+01      2.497711000000000E-01      7.091015000000000E+01
4802000000.000000      3.940430000000000E-01      7.744531000000000E+01      1.854248000000000E-01     -4.983593000000000E+01      1.889877000000000E-01      8.468750000000000E+01      2.529449000000000E-01      7.019921000000000E+01
4803000000.000000      3.949738000000000E-01      7.772655000000000E+01      1.841278000000000E-01     -4.819921000000000E+01      1.872787000000000E-01      8.629686000000000E+01      2.510986000000000E-01      6.958593000000000E+01
4804000000.000000      3.974915000000000E-01      7.807031000000000E+01      1.830139000000000E-01     -4.658399000000000E+01      1.860504000000000E-01      8.770702000000000E+01      2.515411000000000E-01      6.876562000000000E+01
4805000000.000000      3.994293000000000E-01      7.833202000000000E+01      1.815491000000000E-01     -4.494726000000000E+01      1.852188000000000E-01      8.927734000000000E+01      2.525330000000000E-01      6.762109000000000E+01
4806000000.000000      3.996735000000000E-01      7.858593000000000E+01      1.813660000000000E-01     -4.321875000000000E+01      1.843338000000000E-01      9.087891000000000E+01      2.532654000000000E-01      6.718359000000000E+01
4807000000.000000      4.007568000000000E-01      7.891406000000000E+01      1.811447000000000E-01     -4.183007000000000E+01      1.841049000000000E-01      9.228907000000000E+01      2.541962000000000E-01      6.639843000000000E+01
4808000000.000000      4.013214000000000E-01      7.919531000000000E+01      1.811371000000000E-01     -3.985742000000000E+01      1.841736000000000E-01      9.389843000000000E+01      2.549438000000000E-01      6.500781000000000E+01
4809000000.000000      4.010925000000000E-01      7.963672000000000E+01      1.813431000000000E-01     -3.833984000000000E+01      1.849518000000000E-01      9.542187000000000E+01      2.563171000000000E-01      6.455859000000000E+01
4810000000.000000      4.019470000000000E-01      7.982812000000000E+01      1.826477000000000E-01     -3.655859000000000E+01      1.853027000000000E-01      9.698828000000000E+01      2.546844000000000E-01      6.356054000000000E+01
4811000000.000000      4.019623000000000E-01      8.019531000000000E+01      1.835098000000000E-01     -3.505468000000000E+01      1.868744000000000E-01      9.860546000000000E+01      2.558594000000000E-01      6.249804000000000E+01
4812000000.000000      4.020386000000000E-01      8.047655000000000E+01      1.846619000000000E-01     -3.353320000000000E+01      1.878433000000000E-01      1.000664000000000E+02      2.562256000000000E-01      6.117969000000000E+01
4813000000.000000      4.008179000000000E-01      8.090235000000000E+01      1.857376000000000E-01     -3.183594000000000E+01      1.892700000000000E-01      1.015859000000000E+02      2.586823000000000E-01      6.090234000000000E+01
4814000000.000000      3.990173000000000E-01      8.101954000000000E+01      1.876755000000000E-01     -3.019824000000000E+01      1.912079000000000E-01      1.030156000000000E+02      2.564850000000000E-01      5.986523000000000E+01
4815000000.000000      3.980103000000000E-01      8.146875000000000E+01      1.899185000000000E-01     -2.891894000000000E+01      1.928940000000000E-01      1.043828000000000E+02      2.563171000000000E-01      5.864843000000000E+01
4816000000.000000      3.980255000000000E-01      8.173437000000000E+01      1.926880000000000E-01     -2.731250000000000E+01      1.960831000000000E-01      1.057109000000000E+02      2.579803000000000E-01      5.742969000000000E+01
4817000000.000000      3.954620000000000E-01      8.212500000000000E+01      1.954651000000000E-01     -2.617578000000000E+01      1.981430000000000E-01      1.070195000000000E+02      2.567139000000000E-01      5.708593000000000E+01
4818000000.000000      3.931274000000000E-01      8.235546000000000E+01      1.978378000000000E-01     -2.495703000000000E+01      2.012863000000000E-01      1.083086000000000E+02      2.564392000000000E-01      5.604492000000000E+01
4819000000.000000      3.916473000000000E-01      8.260546000000000E+01      2.007980000000000E-01     -2.353906000000000E+01      2.046738000000000E-01      1.094883000000000E+02      2.545013000000000E-01      5.478906000000000E+01
4820000000.000000      3.880920000000000E-01      8.294531000000000E+01      2.040634000000000E-01     -2.222949000000000E+01      2.079010000000000E-01      1.106289000000000E+02      2.561340000000000E-01      5.360937000000000E+01
4821000000.000000      3.868866000000000E-01      8.329687000000000E+01      2.082520000000000E-01     -2.111914000000000E+01      2.108002000000000E-01      1.115391000000000E+02      2.549438000000000E-01      5.278125000000000E+01
4822000000.000000      3.836823000000000E-01      8.347656000000000E+01      2.118530000000000E-01     -2.018652000000000E+01      2.148666000000000E-01      1.124687000000000E+02      2.539520000000000E-01      5.155078000000000E+01
4823000000.000000      3.800354000000000E-01      8.382813000000000E+01      2.161331000000000E-01     -1.925781000000000E+01      2.182693000000000E-01      1.135625000000000E+02      2.536316000000000E-01      5.018945000000000E+01
4824000000.000000      3.772583000000000E-01      8.414454000000000E+01      2.196655000000000E-01     -1.839258000000000E+01      2.226410000000000E-01      1.142578000000000E+02      2.518158000000000E-01      4.909570000000000E+01
4825000000.000000      3.727875000000000E-01      8.442186000000000E+01      2.237930000000000E-01     -1.734473000000000E+01      2.271881000000000E-01      1.152031000000000E+02      2.518158000000000E-01      4.781640000000000E+01
4826000000.000000      3.692932000000000E-01      8.476563000000000E+01      2.289886000000000E-01     -1.666797000000000E+01      2.310562000000000E-01      1.159805000000000E+02      2.502441000000000E-01      4.671679000000000E+01
4827000000.000000      3.658295000000000E-01      8.502344000000000E+01      2.328644000000000E-01     -1.573145000000000E+01      2.356186000000000E-01      1.166211000000000E+02      2.499084000000000E-01      4.515234000000000E+01
4828000000.000000      3.618927000000000E-01      8.531250000000000E+01      2.382431000000000E-01     -1.514893000000000E+01      2.405701000000000E-01      1.173711000000000E+02      2.481079000000000E-01      4.376367000000000E+01
4829000000.000000      3.570862000000000E-01      8.569530000000000E+01      2.420654000000000E-01     -1.451172000000000E+01      2.454605000000000E-01      1.180273000000000E+02      2.476349000000000E-01      4.289063000000000E+01
4830000000.000000      3.522949000000000E-01      8.591406000000000E+01      2.471085000000000E-01     -1.407764000000000E+01      2.501678000000000E-01      1.185976000000000E+02      2.462082000000000E-01      4.198828000000000E+01
4831000000.000000      3.471222000000000E-01      8.624218000000000E+01      2.520294000000000E-01     -1.358643000000000E+01      2.553253000000000E-01      1.191602000000000E+02      2.435684000000000E-01      4.029492000000000E+01
4832000000.000000      3.423462000000000E-01      8.656250000000000E+01      2.574463000000000E-01     -1.294922000000000E+01      2.600861000000000E-01      1.196211000000000E+02      2.412033000000000E-01      3.940430000000000E+01
4833000000.000000      3.365936000000000E-01      8.677343000000000E+01      2.623901000000000E-01     -1.249561000000000E+01      2.649841000000000E-01      1.199648000000000E+02      2.390366000000000E-01      3.784961000000000E+01
4834000000.000000      3.317719000000000E-01      8.705078000000000E+01      2.678223000000000E-01     -1.214160000000000E+01      2.701874000000000E-01      1.204062000000000E+02      2.395554000000000E-01      3.627344000000000E+01
4835000000.000000      3.263550000000000E-01      8.730860000000000E+01      2.735596000000000E-01     -1.190381000000000E+01      2.755280000000000E-01      1.208672000000000E+02      2.373734000000000E-01      3.501562000000000E+01
4836000000.000000      3.211975000000000E-01      8.769140000000000E+01      2.792664000000000E-01     -1.171729000000000E+01      2.804718000000000E-01      1.212031000000000E+02      2.359772000000000E-01      3.384570000000000E+01
4837000000.000000      3.145752000000000E-01      8.798046000000000E+01      2.840576000000000E-01     -1.165527000000000E+01      2.856598000000000E-01      1.213789000000000E+02      2.327271000000000E-01      3.249414000000000E+01
4838000000.000000      3.082428000000000E-01      8.824219000000000E+01      2.897949000000000E-01     -1.100586000000000E+01      2.913818000000000E-01      1.216953000000000E+02      2.324295000000000E-01      3.121679000000000E+01
4839000000.000000      3.037567000000000E-01      8.846874000000000E+01      2.954559000000000E-01     -1.079834000000000E+01      2.968140000000000E-01      1.218984000000000E+02      2.320709000000000E-01      2.928613000000000E+01
4840000000.000000      2.961121000000000E-01      8.861719000000000E+01      3.005371000000000E-01     -1.076270000000000E+01      3.022156000000000E-01      1.221601000000000E+02      2.280960000000000E-01      2.800000000000000E+01
4841000000.000000      2.904205000000000E-01      8.903906000000000E+01      3.068848000000000E-01     -1.076807000000000E+01      3.081207000000000E-01      1.222695000000000E+02      2.265167000000000E-01      2.701757000000000E+01
4842000000.000000      2.829742000000000E-01      8.921093000000000E+01      3.120422000000000E-01     -1.065137000000000E+01      3.128662000000000E-01      1.225352000000000E+02      2.264938000000000E-01      2.576660000000000E+01
4843000000.000000      2.767487000000000E-01      8.916407000000000E+01      3.186340000000000E-01     -1.075293000000000E+01      3.188477000000000E-01      1.225664000000000E+02      2.244949000000000E-01      2.448828000000000E+01
4844000000.000000      2.696991000000000E-01      8.957031000000000E+01      3.232880000000000E-01     -1.063770000000000E+01      3.243256000000000E-01      1.227031000000000E+02      2.216110000000000E-01      2.283203000000000E+01
4845000000.000000      2.626801000000000E-01      8.977734000000000E+01      3.294220000000000E-01     -1.061279000000000E+01      3.300934000000000E-01      1.227305000000000E+02      2.191772000000000E-01      2.127832000000000E+01
4846000000.000000      2.554626000000000E-01      8.992579000000000E+01      3.361816000000000E-01     -1.064453000000000E+01      3.364563000000000E-01      1.228320000000000E+02      2.165909000000000E-01      2.007519000000000E+01
4847000000.000000      2.487869000000000E-01      9.022264000000000E+01      3.416901000000000E-01     -1.073682000000000E+01      3.421173000000000E-01      1.229688000000000E+02      2.145157000000000E-01      1.840820000000000E+01
4848000000.000000      2.407913000000000E-01      9.032421000000000E+01      3.454132000000000E-01     -1.079688000000000E+01      3.473969000000000E-01      1.228711000000000E+02      2.128143000000000E-01      1.698535000000000E+01
4849000000.000000      2.335052000000000E-01      9.039454000000000E+01      3.513794000000000E-01     -1.109619000000000E+01      3.529510000000000E-01      1.228867000000000E+02      2.103195000000000E-01      1.545752000000000E+01
4850000000.000000      2.256546000000000E-01      9.051561000000000E+01      3.583221000000000E-01     -1.113477000000000E+01      3.588715000000000E-01      1.228906000000000E+02      2.084808000000000E-01      1.414063000000000E+01
4851000000.000000      2.184296000000000E-01      9.073828000000000E+01      3.643188000000000E-01     -1.135742000000000E+01      3.644409000000000E-01      1.229766000000000E+02      2.069092000000000E-01      1.259033000000000E+01
4852000000.000000      2.104950000000000E-01      9.069530000000000E+01      3.692169000000000E-01     -1.139844000000000E+01      3.703918000000000E-01      1.229609000000000E+02      2.046280000000000E-01      1.110010000000000E+01
4853000000.000000      2.029266000000000E-01      9.084764000000000E+01      3.744202000000000E-01     -1.160156000000000E+01      3.762512000000000E-01      1.228867000000000E+02      2.025375000000000E-01      9.364258000000000E+00
4854000000.000000      1.944275000000000E-01      9.064844000000000E+01      3.808899000000000E-01     -1.203027000000000E+01      3.819122000000000E-01      1.228320000000000E+02      2.017975000000000E-01      8.012695000000000E+00
4855000000.000000      1.866531000000000E-01      9.070313000000000E+01      3.862610000000000E-01     -1.217285000000000E+01      3.879089000000000E-01      1.227734000000000E+02      1.975250000000000E-01      6.399414000000000E+00
4856000000.000000      1.783066000000000E-01      9.072657000000000E+01      3.928223000000000E-01     -1.236133000000000E+01      3.938904000000000E-01      1.226680000000000E+02      1.962662000000000E-01      5.211426000000000E+00
4857000000.000000      1.704941000000000E-01      9.062891000000000E+01      3.982239000000000E-01     -1.252051000000000E+01      3.986359000000000E-01      1.226445000000000E+02      1.934433000000000E-01      3.409790000000000E+00
4858000000.000000      1.620255000000000E-01      9.010157000000000E+01      4.038696000000000E-01     -1.289258000000000E+01      4.059753000000000E-01      1.224414000000000E+02      1.918335000000000E-01      1.756409000000000E+00
4859000000.000000      1.537704000000000E-01      9.014452000000000E+01      4.098816000000000E-01     -1.319482000000000E+01      4.109955000000000E-01      1.224023000000000E+02      1.898346000000000E-01      3.199768000000000E-01
4860000000.000000      1.457596000000000E-01      9.015234000000000E+01      4.146881000000000E-01     -1.329785000000000E+01      4.161987000000000E-01      1.222617000000000E+02      1.877289000000000E-01     -1.175537000000000E+00
4861000000.000000      1.371384000000000E-01      8.970312000000000E+01      4.203644000000000E-01     -1.391699000000000E+01      4.224243000000000E-01      1.220859000000000E+02      1.849747000000000E-01     -2.937500000000000E+00
4862000000.000000      1.284409000000000E-01      8.911718000000000E+01      4.263458000000000E-01     -1.420166000000000E+01      4.284668000000000E-01      1.219492000000000E+02      1.835785000000000E-01     -4.404297000000000E+00
4863000000.000000      1.201057000000000E-01      8.824219000000000E+01      4.309845000000000E-01     -1.452686000000000E+01      4.341888000000000E-01      1.217812000000000E+02      1.816711000000000E-01     -5.940918000000000E+00
4864000000.000000      1.116104000000000E-01      8.749609000000000E+01      4.364471000000000E-01     -1.492676000000000E+01      4.398193000000000E-01      1.218008000000000E+02      1.792526000000000E-01     -7.546387000000000E+00
4865000000.000000      1.029358000000000E-01      8.658594000000000E+01      4.419861000000000E-01     -1.513525000000000E+01      4.456635000000000E-01      1.217070000000000E+02      1.778946000000000E-01     -9.036621000000000E+00
4866000000.000000      9.466934000000000E-02      8.524218000000000E+01      4.467468000000000E-01     -1.561328000000000E+01      4.518280000000000E-01      1.213398000000000E+02      1.761246000000000E-01     -1.069678000000000E+01
4867000000.000000      8.600998000000000E-02      8.408594000000000E+01      4.529114000000000E-01     -1.595654000000000E+01      4.578552000000000E-01      1.210664000000000E+02      1.738586000000000E-01     -1.219482000000000E+01
4868000000.000000      7.797241000000000E-02      8.230078000000000E+01      4.585114000000000E-01     -1.648730000000000E+01      4.616394000000000E-01      1.209805000000000E+02      1.710358000000000E-01     -1.363574000000000E+01
4869000000.000000      6.939316000000000E-02      8.047266000000000E+01      4.632568000000000E-01     -1.673633000000000E+01      4.687347000000000E-01      1.206719000000000E+02      1.683578000000000E-01     -1.545654000000000E+01
4870000000.000000      6.138420000000000E-02      7.712500000000000E+01      4.681396000000000E-01     -1.700684000000000E+01      4.757233000000000E-01      1.205625000000000E+02      1.671448000000000E-01     -1.689160000000000E+01
4871000000.000000      5.368805000000000E-02      7.333593000000000E+01      4.725342000000000E-01     -1.756250000000000E+01      4.806213000000000E-01      1.201719000000000E+02      1.649246000000000E-01     -1.857422000000000E+01
4872000000.000000      4.598236000000000E-02      6.844531000000000E+01      4.778442000000000E-01     -1.787012000000000E+01      4.850159000000000E-01      1.197070000000000E+02      1.632004000000000E-01     -1.980078000000000E+01
4873000000.000000      3.919983000000000E-02      6.126171000000000E+01      4.832001000000000E-01     -1.844238000000000E+01      4.918671000000000E-01      1.196719000000000E+02      1.600952000000000E-01     -2.168750000000000E+01
4874000000.000000      3.293419000000000E-02      5.172461000000000E+01      4.878998000000000E-01     -1.888476000000000E+01      4.985809000000000E-01      1.193398000000000E+02      1.590195000000000E-01     -2.316113000000000E+01
4875000000.000000      2.813530000000000E-02      3.798633000000000E+01      4.931335000000000E-01     -1.926465000000000E+01      5.029602000000000E-01      1.192695000000000E+02      1.561584000000000E-01     -2.471972000000000E+01
4876000000.000000      2.634716000000000E-02      2.168652000000000E+01      4.984131000000000E-01     -1.974609000000000E+01      5.084839000000000E-01      1.188242000000000E+02      1.544266000000000E-01     -2.654882000000000E+01
4877000000.000000      2.702713000000000E-02      1.099976000000000E+00      5.027161000000000E-01     -2.029395000000000E+01      5.137939000000000E-01      1.185742000000000E+02      1.520233000000000E-01     -2.770410000000000E+01
4878000000.000000      2.841091000000000E-02     -1.464355000000000E+01      5.078735000000000E-01     -2.060156000000000E+01      5.188599000000000E-01      1.183047000000000E+02      1.503830000000000E-01     -2.965918000000000E+01
4879000000.000000      3.372955000000000E-02     -2.728222000000000E+01      5.105896000000000E-01     -2.095410000000000E+01      5.252075000000000E-01      1.180547000000000E+02      1.476135000000000E-01     -3.112988000000000E+01
4880000000.000000      4.005432000000000E-02     -3.692187000000000E+01      5.168457000000000E-01     -2.157227000000000E+01      5.301514000000000E-01      1.177461000000000E+02      1.456528000000000E-01     -3.262890000000000E+01
4881000000.000000      4.639626000000000E-02     -4.355664000000000E+01      5.224609000000000E-01     -2.187109000000000E+01      5.359497000000000E-01      1.174531000000000E+02      1.435394000000000E-01     -3.415430000000000E+01
4882000000.000000      5.303574000000000E-02     -4.792773000000000E+01      5.269775000000000E-01     -2.264355000000000E+01      5.422058000000000E-01      1.170625000000000E+02      1.405563000000000E-01     -3.564062000000000E+01
