! Network Analyzer HP8722D
! Hewlett-Packard
! Data name: Linha & Wilkinson
! Saver's name: Rodrigo Anjos
! Comments: Teste da utilização de aquisição
continua pelo VNA HP8722D
! Time and date: 17/4/2025 12:17
!              Frequency                     S11                                                   S21                                                   S12                                                   S22
# HZ  S  MA R 50
4800000000.000000      3.348846000000000E-01     -1.159687000000000E+02      3.066864000000000E-01     -6.178711000000000E+01      3.000793000000000E-01     -1.762031000000000E+02      6.572876000000000E-01     -9.081640000000000E+01
4801000000.000000      3.334198000000000E-01     -1.169414000000000E+02      3.108368000000000E-01     -6.201366000000000E+01      3.029633000000000E-01     -1.761328000000000E+02      6.561279000000000E-01     -9.072657000000000E+01
4802000000.000000      3.321228000000000E-01     -1.179140000000000E+02      3.148346000000000E-01     -6.200000000000000E+01      3.079987000000000E-01     -1.760313000000000E+02      6.543579000000000E-01     -9.074219000000000E+01
4803000000.000000      3.322449000000000E-01     -1.189023000000000E+02      3.205719000000000E-01     -6.216991000000000E+01      3.118744000000000E-01     -1.759219000000000E+02      6.541748000000000E-01     -9.094921000000000E+01
4804000000.000000      3.322296000000000E-01     -1.199531000000000E+02      3.249512000000000E-01     -6.250195000000000E+01      3.155670000000000E-01     -1.760000000000000E+02      6.531982000000000E-01     -9.098436000000000E+01
4805000000.000000      3.322754000000000E-01     -1.210508000000000E+02      3.290253000000000E-01     -6.263866000000000E+01      3.195343000000000E-01     -1.757734000000000E+02      6.528015000000000E-01     -9.114452000000000E+01
4806000000.000000      3.312225000000000E-01     -1.219570000000000E+02      3.321075000000000E-01     -6.268945000000000E+01      3.224487000000000E-01     -1.756172000000000E+02      6.533508000000000E-01     -9.125780000000000E+01
4807000000.000000      3.318634000000000E-01     -1.230703000000000E+02      3.366394000000000E-01     -6.288280000000000E+01      3.274536000000000E-01     -1.757109000000000E+02      6.509399000000000E-01     -9.128515000000000E+01
4808000000.000000      3.320618000000000E-01     -1.240664000000000E+02      3.424225000000000E-01     -6.303711000000000E+01      3.311920000000000E-01     -1.757266000000000E+02      6.515198000000000E-01     -9.135546000000000E+01
4809000000.000000      3.328247000000000E-01     -1.251445000000000E+02      3.457184000000000E-01     -6.348633000000000E+01      3.354492000000000E-01     -1.756641000000000E+02      6.514893000000000E-01     -9.158594000000000E+01
4810000000.000000      3.338318000000000E-01     -1.262852000000000E+02      3.501282000000000E-01     -6.347851000000000E+01      3.393555000000000E-01     -1.755781000000000E+02      6.520996000000000E-01     -9.164454000000000E+01
4811000000.000000      3.352661000000000E-01     -1.274101000000000E+02      3.546448000000000E-01     -6.384766000000000E+01      3.440247000000000E-01     -1.755000000000000E+02      6.508179000000000E-01     -9.155468000000000E+01
4812000000.000000      3.368378000000000E-01     -1.284531000000000E+02      3.590088000000000E-01     -6.400781000000000E+01      3.477936000000000E-01     -1.755156000000000E+02      6.515198000000000E-01     -9.169531000000000E+01
4813000000.000000      3.380432000000000E-01     -1.295469000000000E+02      3.621521000000000E-01     -6.441406000000000E+01      3.510284000000000E-01     -1.753047000000000E+02      6.504822000000000E-01     -9.182032000000000E+01
4814000000.000000      3.391113000000000E-01     -1.307812000000000E+02      3.665161000000000E-01     -6.448047000000000E+01      3.550720000000000E-01     -1.755078000000000E+02      6.499634000000000E-01     -9.190233000000000E+01
4815000000.000000      3.406372000000000E-01     -1.317344000000000E+02      3.699341000000000E-01     -6.473046000000000E+01      3.582306000000000E-01     -1.753906000000000E+02      6.492310000000000E-01     -9.206640000000000E+01
4816000000.000000      3.432922000000000E-01     -1.328125000000000E+02      3.741302000000000E-01     -6.483984000000000E+01      3.634949000000000E-01     -1.753515000000000E+02      6.506958000000000E-01     -9.201563000000000E+01
4817000000.000000      3.459167000000000E-01     -1.339141000000000E+02      3.782196000000000E-01     -6.510937000000000E+01      3.661041000000000E-01     -1.753281000000000E+02      6.499939000000000E-01     -9.223047000000000E+01
4818000000.000000      3.475647000000000E-01     -1.350937000000000E+02      3.813171000000000E-01     -6.549999000000000E+01      3.706970000000000E-01     -1.753906000000000E+02      6.512756000000000E-01     -9.231249000000000E+01
4819000000.000000      3.511505000000000E-01     -1.361016000000000E+02      3.856964000000000E-01     -6.567577000000000E+01      3.746643000000000E-01     -1.753359000000000E+02      6.528625000000000E-01     -9.231640000000000E+01
4820000000.000000      3.529205000000000E-01     -1.371953000000000E+02      3.897095000000000E-01     -6.587500000000000E+01      3.781281000000000E-01     -1.753750000000000E+02      6.533813000000000E-01     -9.246874000000000E+01
4821000000.000000      3.564301000000000E-01     -1.381797000000000E+02      3.936768000000000E-01     -6.624218000000000E+01      3.813477000000000E-01     -1.754375000000000E+02      6.524658000000000E-01     -9.262499000000000E+01
4822000000.000000      3.608398000000000E-01     -1.393672000000000E+02      3.970490000000000E-01     -6.655859000000000E+01      3.852844000000000E-01     -1.754141000000000E+02      6.539612000000000E-01     -9.257813000000000E+01
4823000000.000000      3.629761000000000E-01     -1.402734000000000E+02      4.007263000000000E-01     -6.669531000000000E+01      3.889923000000000E-01     -1.752578000000000E+02      6.544800000000000E-01     -9.263281000000000E+01
4824000000.000000      3.673706000000000E-01     -1.414141000000000E+02      4.046631000000000E-01     -6.726171000000000E+01      3.937988000000000E-01     -1.753594000000000E+02      6.563416000000000E-01     -9.276953000000000E+01
4825000000.000000      3.704529000000000E-01     -1.423906000000000E+02      4.069061000000000E-01     -6.730469000000000E+01      3.977814000000000E-01     -1.753438000000000E+02      6.579895000000000E-01     -9.285547000000000E+01
4826000000.000000      3.752899000000000E-01     -1.434062000000000E+02      4.107819000000000E-01     -6.769921000000000E+01      4.005585000000000E-01     -1.753906000000000E+02      6.589966000000000E-01     -9.296093000000000E+01
4827000000.000000      3.788147000000000E-01     -1.442656000000000E+02      4.149323000000000E-01     -6.788671000000000E+01      4.043427000000000E-01     -1.753984000000000E+02      6.597290000000000E-01     -9.293360000000000E+01
4828000000.000000      3.841858000000000E-01     -1.453125000000000E+02      4.191284000000000E-01     -6.817577000000000E+01      4.083710000000000E-01     -1.754297000000000E+02      6.614685000000000E-01     -9.300390000000000E+01
4829000000.000000      3.868561000000000E-01     -1.461797000000000E+02      4.209442000000000E-01     -6.852734000000000E+01      4.122162000000000E-01     -1.754375000000000E+02      6.618652000000000E-01     -9.305079000000000E+01
4830000000.000000      3.921356000000000E-01     -1.471719000000000E+02      4.241333000000000E-01     -6.889843000000000E+01      4.161987000000000E-01     -1.753828000000000E+02      6.635132000000000E-01     -9.325781000000000E+01
4831000000.000000      3.960419000000000E-01     -1.480781000000000E+02      4.279633000000000E-01     -6.916016000000000E+01      4.208832000000000E-01     -1.754219000000000E+02      6.656189000000000E-01     -9.327734000000000E+01
4832000000.000000      4.019012000000000E-01     -1.489609000000000E+02      4.310913000000000E-01     -6.946484000000000E+01      4.243011000000000E-01     -1.754688000000000E+02      6.677246000000000E-01     -9.332811000000000E+01
4833000000.000000      4.067688000000000E-01     -1.499687000000000E+02      4.346008000000000E-01     -6.974609000000000E+01      4.278412000000000E-01     -1.755781000000000E+02      6.687012000000000E-01     -9.333593000000000E+01
4834000000.000000      4.112244000000000E-01     -1.507969000000000E+02      4.375153000000000E-01     -6.995703000000000E+01      4.324951000000000E-01     -1.755703000000000E+02      6.707764000000000E-01     -9.342968000000000E+01
4835000000.000000      4.161835000000000E-01     -1.515938000000000E+02      4.411469000000000E-01     -7.027734000000000E+01      4.363708000000000E-01     -1.756328000000000E+02      6.734619000000000E-01     -9.358202000000000E+01
4836000000.000000      4.219360000000000E-01     -1.523828000000000E+02      4.438324000000000E-01     -7.064453000000000E+01      4.399719000000000E-01     -1.756250000000000E+02      6.749573000000000E-01     -9.348047000000000E+01
4837000000.000000      4.272156000000000E-01     -1.531328000000000E+02      4.467773000000000E-01     -7.112499000000000E+01      4.436798000000000E-01     -1.758906000000000E+02      6.759949000000000E-01     -9.364452000000000E+01
4838000000.000000      4.321594000000000E-01     -1.540547000000000E+02      4.513092000000000E-01     -7.132813000000000E+01      4.477539000000000E-01     -1.758594000000000E+02      6.793518000000000E-01     -9.372265000000000E+01
4839000000.000000      4.369812000000000E-01     -1.546953000000000E+02      4.530029000000000E-01     -7.148828000000000E+01      4.514618000000000E-01     -1.758047000000000E+02      6.813965000000000E-01     -9.363281000000000E+01
4840000000.000000      4.417877000000000E-01     -1.555781000000000E+02      4.554749000000000E-01     -7.183203000000000E+01      4.559784000000000E-01     -1.759922000000000E+02      6.833801000000000E-01     -9.376171000000000E+01
4841000000.000000      4.472809000000000E-01     -1.563828000000000E+02      4.581451000000000E-01     -7.237890000000000E+01      4.593811000000000E-01     -1.761172000000000E+02      6.858826000000000E-01     -9.380468000000000E+01
4842000000.000000      4.528198000000000E-01     -1.570313000000000E+02      4.608002000000000E-01     -7.260547000000000E+01      4.627686000000000E-01     -1.761016000000000E+02      6.880493000000000E-01     -9.381250000000000E+01
4843000000.000000      4.571686000000000E-01     -1.577891000000000E+02      4.628143000000000E-01     -7.299999000000000E+01      4.667969000000000E-01     -1.761953000000000E+02      6.909180000000000E-01     -9.387890000000000E+01
4844000000.000000      4.619598000000000E-01     -1.584375000000000E+02      4.666901000000000E-01     -7.319140000000000E+01      4.705048000000000E-01     -1.762500000000000E+02      6.928406000000000E-01     -9.392578000000000E+01
4845000000.000000      4.671478000000000E-01     -1.591406000000000E+02      4.679413000000000E-01     -7.344531000000000E+01      4.745026000000000E-01     -1.764453000000000E+02      6.949768000000000E-01     -9.401171000000000E+01
4846000000.000000      4.721069000000000E-01     -1.597656000000000E+02      4.714661000000000E-01     -7.382030000000000E+01      4.787140000000000E-01     -1.765156000000000E+02      6.977539000000000E-01     -9.405859000000000E+01
4847000000.000000      4.782410000000000E-01     -1.604141000000000E+02      4.738922000000000E-01     -7.421093000000000E+01      4.830170000000000E-01     -1.767266000000000E+02      7.011108000000000E-01     -9.422655000000000E+01
4848000000.000000      4.821777000000000E-01     -1.610625000000000E+02      4.752045000000000E-01     -7.441015000000000E+01      4.862366000000000E-01     -1.767734000000000E+02      7.029724000000000E-01     -9.420313000000000E+01
4849000000.000000      4.872589000000000E-01     -1.619375000000000E+02      4.772797000000000E-01     -7.495703000000000E+01      4.905396000000000E-01     -1.769219000000000E+02      7.044983000000000E-01     -9.421484000000000E+01
4850000000.000000      4.923553000000000E-01     -1.622890000000000E+02      4.811401000000000E-01     -7.515625000000000E+01      4.942474000000000E-01     -1.769219000000000E+02      7.088013000000000E-01     -9.429688000000000E+01
4851000000.000000      4.966736000000000E-01     -1.628594000000000E+02      4.835052000000000E-01     -7.564453000000000E+01      4.974976000000000E-01     -1.771563000000000E+02      7.122803000000000E-01     -9.428905000000000E+01
4852000000.000000      5.014343000000000E-01     -1.634922000000000E+02      4.846802000000000E-01     -7.578515000000000E+01      5.025024000000000E-01     -1.772500000000000E+02      7.139282000000000E-01     -9.445704000000000E+01
4853000000.000000      5.060120000000000E-01     -1.640391000000000E+02      4.857635000000000E-01     -7.614843000000000E+01      5.044861000000000E-01     -1.773828000000000E+02      7.167053000000000E-01     -9.445313000000000E+01
4854000000.000000      5.095215000000000E-01     -1.645859000000000E+02      4.885712000000000E-01     -7.663280000000000E+01      5.079651000000000E-01     -1.774765000000000E+02      7.195129000000000E-01     -9.445313000000000E+01
4855000000.000000      5.126648000000000E-01     -1.651953000000000E+02      4.900055000000000E-01     -7.683984000000000E+01      5.133972000000000E-01     -1.778047000000000E+02      7.230835000000000E-01     -9.455858000000000E+01
4856000000.000000      5.177917000000000E-01     -1.656797000000000E+02      4.919739000000000E-01     -7.711328000000000E+01      5.153809000000000E-01     -1.778359000000000E+02      7.266541000000000E-01     -9.463282000000000E+01
4857000000.000000      5.213623000000000E-01     -1.662031000000000E+02      4.937439000000000E-01     -7.729297000000000E+01      5.195313000000000E-01     -1.779375000000000E+02      7.282104000000000E-01     -9.450781000000000E+01
4858000000.000000      5.232849000000000E-01     -1.666797000000000E+02      4.954071000000000E-01     -7.752343000000000E+01      5.229187000000000E-01     -1.781953000000000E+02      7.299194000000000E-01     -9.472265000000000E+01
4859000000.000000      5.280457000000000E-01     -1.672188000000000E+02      4.969482000000000E-01     -7.784374000000000E+01      5.262146000000000E-01     -1.783906000000000E+02      7.350464000000000E-01     -9.482031000000000E+01
4860000000.000000      5.319519000000000E-01     -1.676563000000000E+02      4.997864000000000E-01     -7.816406000000000E+01      5.296936000000000E-01     -1.784922000000000E+02      7.372131000000000E-01     -9.469530000000000E+01
4861000000.000000      5.342712000000000E-01     -1.680391000000000E+02      5.007935000000000E-01     -7.874609000000000E+01      5.324402000000000E-01     -1.785391000000000E+02      7.404480000000000E-01     -9.476954000000000E+01
4862000000.000000      5.371704000000000E-01     -1.685234000000000E+02      5.021362000000000E-01     -7.891406000000000E+01      5.364990000000000E-01     -1.788516000000000E+02      7.439270000000000E-01     -9.474609000000000E+01
4863000000.000000      5.390015000000000E-01     -1.688516000000000E+02      5.022278000000000E-01     -7.942187000000000E+01      5.400696000000000E-01     -1.788906000000000E+02      7.467651000000000E-01     -9.488672000000000E+01
4864000000.000000      5.423889000000000E-01     -1.692578000000000E+02      5.056763000000000E-01     -7.924218000000000E+01      5.415955000000000E-01     -1.791250000000000E+02      7.489929000000000E-01     -9.503124000000000E+01
4865000000.000000      5.444336000000000E-01     -1.698750000000000E+02      5.058899000000000E-01     -7.978516000000000E+01      5.460205000000000E-01     -1.794297000000000E+02      7.517090000000000E-01     -9.490625000000000E+01
4866000000.000000      5.464478000000000E-01     -1.701172000000000E+02      5.052795000000000E-01     -8.015625000000000E+01      5.489197000000000E-01     -1.795391000000000E+02      7.543945000000000E-01     -9.494921000000000E+01
4867000000.000000      5.487671000000000E-01     -1.704219000000000E+02      5.081482000000000E-01     -8.047266000000000E+01      5.497131000000000E-01     -1.797109000000000E+02      7.562561000000000E-01     -9.505468000000000E+01
4868000000.000000      5.510254000000000E-01     -1.709219000000000E+02      5.085449000000000E-01     -8.048437000000000E+01      5.536499000000000E-01     -1.798906000000000E+02      7.596436000000000E-01     -9.505077000000000E+01
4869000000.000000      5.518494000000000E-01     -1.711094000000000E+02      5.093384000000000E-01     -8.099218000000000E+01      5.567322000000000E-01      1.798672000000000E+02      7.631531000000000E-01     -9.536327000000000E+01
4870000000.000000      5.534363000000000E-01     -1.714609000000000E+02      5.115662000000000E-01     -8.086718000000000E+01      5.581055000000000E-01      1.796406000000000E+02      7.666321000000000E-01     -9.516405000000000E+01
4871000000.000000      5.549927000000000E-01     -1.717578000000000E+02      5.118103000000000E-01     -8.132813000000000E+01      5.592346000000000E-01      1.794453000000000E+02      7.663879000000000E-01     -9.537889000000000E+01
4872000000.000000      5.571594000000000E-01     -1.720703000000000E+02      5.121460000000000E-01     -8.136328000000000E+01      5.637817000000000E-01      1.791797000000000E+02      7.720642000000000E-01     -9.522264000000000E+01
4873000000.000000      5.565796000000000E-01     -1.722031000000000E+02      5.142517000000000E-01     -8.198437000000000E+01      5.654602000000000E-01      1.790000000000000E+02      7.719116000000000E-01     -9.547655000000000E+01
4874000000.000000      5.570068000000000E-01     -1.725156000000000E+02      5.133362000000000E-01     -8.216797000000000E+01      5.690308000000000E-01      1.788437000000000E+02      7.743835000000000E-01     -9.528906000000000E+01
4875000000.000000      5.586853000000000E-01     -1.728437000000000E+02      5.155334000000000E-01     -8.241405000000000E+01      5.708008000000000E-01      1.784375000000000E+02      7.756958000000000E-01     -9.543360000000000E+01
4876000000.000000      5.586243000000000E-01     -1.730547000000000E+02      5.150757000000000E-01     -8.251953000000000E+01      5.705566000000000E-01      1.783125000000000E+02      7.800293000000000E-01     -9.542187000000000E+01
4877000000.000000      5.585327000000000E-01     -1.731641000000000E+02      5.177002000000000E-01     -8.280859000000000E+01      5.742188000000000E-01      1.781016000000000E+02      7.802734000000000E-01     -9.561327000000000E+01
4878000000.000000      5.587158000000000E-01     -1.734062000000000E+02      5.180359000000000E-01     -8.296484000000000E+01      5.762024000000000E-01      1.779687000000000E+02      7.835999000000000E-01     -9.553514000000000E+01
4879000000.000000      5.599060000000000E-01     -1.735703000000000E+02      5.177002000000000E-01     -8.298828000000000E+01      5.792847000000000E-01      1.776953000000000E+02      7.854004000000000E-01     -9.549219000000000E+01
4880000000.000000      5.587463000000000E-01     -1.737422000000000E+02      5.181885000000000E-01     -8.343359000000000E+01      5.819092000000000E-01      1.776016000000000E+02      7.883911000000000E-01     -9.567577000000000E+01
4881000000.000000      5.596008000000000E-01     -1.737890000000000E+02      5.213013000000000E-01     -8.350389000000000E+01      5.827332000000000E-01      1.773047000000000E+02      7.903748000000000E-01     -9.569530000000000E+01
4882000000.000000      5.574341000000000E-01     -1.739609000000000E+02      5.211792000000000E-01     -8.364452000000000E+01      5.841064000000000E-01      1.772266000000000E+02      7.916870000000000E-01     -9.580078000000000E+01
