! Network Analyzer HP8722D
! Hewlett-Packard
! Data name: Linha & Wilkinson
! Saver's name: Rodrigo Anjos
! Comments: Teste da utilização de aquisição
continua pelo VNA HP8722D
! Time and date: 17/4/2025 12:19
!              Frequency                     S11                                                   S21                                                   S12                                                   S22
# HZ  S  MA R 50
4800000000.000000      3.340149000000000E-01     -1.154140000000000E+02      3.006592000000000E-01     -6.157031000000000E+01      2.946777000000000E-01     -1.757266000000000E+02      6.564331000000000E-01     -9.031641000000000E+01
4801000000.000000      3.330231000000000E-01     -1.162773000000000E+02      3.059692000000000E-01     -6.164648000000000E+01      2.979431000000000E-01     -1.756562000000000E+02      6.558838000000000E-01     -9.032030000000000E+01
4802000000.000000      3.326569000000000E-01     -1.174453000000000E+02      3.098907000000000E-01     -6.177734000000000E+01      3.022308000000000E-01     -1.755547000000000E+02      6.544800000000000E-01     -9.046484000000000E+01
4803000000.000000      3.318024000000000E-01     -1.184219000000000E+02      3.153381000000000E-01     -6.192773000000000E+01      3.063354000000000E-01     -1.754688000000000E+02      6.539307000000000E-01     -9.055859000000000E+01
4804000000.000000      3.317566000000000E-01     -1.194453000000000E+02      3.192902000000000E-01     -6.190234000000000E+01      3.102417000000000E-01     -1.755000000000000E+02      6.527405000000000E-01     -9.062109000000000E+01
4805000000.000000      3.316193000000000E-01     -1.204062000000000E+02      3.241119000000000E-01     -6.222851000000000E+01      3.150482000000000E-01     -1.753515000000000E+02      6.528625000000000E-01     -9.077343000000000E+01
4806000000.000000      3.313293000000000E-01     -1.213320000000000E+02      3.281860000000000E-01     -6.232616000000000E+01      3.174133000000000E-01     -1.751719000000000E+02      6.520386000000000E-01     -9.090624000000000E+01
4807000000.000000      3.315430000000000E-01     -1.224883000000000E+02      3.320160000000000E-01     -6.250977000000000E+01      3.222656000000000E-01     -1.752500000000000E+02      6.513062000000000E-01     -9.099218000000000E+01
4808000000.000000      3.324432000000000E-01     -1.234219000000000E+02      3.368988000000000E-01     -6.258398000000000E+01      3.257751000000000E-01     -1.752422000000000E+02      6.503601000000000E-01     -9.100780000000000E+01
4809000000.000000      3.323517000000000E-01     -1.246523000000000E+02      3.410187000000000E-01     -6.306445000000000E+01      3.300934000000000E-01     -1.751953000000000E+02      6.503906000000000E-01     -9.114061000000000E+01
4810000000.000000      3.332520000000000E-01     -1.257578000000000E+02      3.458710000000000E-01     -6.309179000000000E+01      3.344574000000000E-01     -1.750781000000000E+02      6.506653000000000E-01     -9.124609000000000E+01
4811000000.000000      3.346405000000000E-01     -1.267578000000000E+02      3.501587000000000E-01     -6.340234000000000E+01      3.380280000000000E-01     -1.749766000000000E+02      6.494141000000000E-01     -9.131639000000000E+01
4812000000.000000      3.364105000000000E-01     -1.277851000000000E+02      3.543549000000000E-01     -6.353710000000000E+01      3.427124000000000E-01     -1.748984000000000E+02      6.507263000000000E-01     -9.138672000000000E+01
4813000000.000000      3.366241000000000E-01     -1.289141000000000E+02      3.586121000000000E-01     -6.377734000000000E+01      3.461761000000000E-01     -1.749141000000000E+02      6.503296000000000E-01     -9.146484000000000E+01
4814000000.000000      3.381348000000000E-01     -1.301719000000000E+02      3.621368000000000E-01     -6.396289000000000E+01      3.501740000000000E-01     -1.748906000000000E+02      6.496277000000000E-01     -9.157421000000000E+01
4815000000.000000      3.399353000000000E-01     -1.311172000000000E+02      3.659821000000000E-01     -6.411718000000000E+01      3.536377000000000E-01     -1.748437000000000E+02      6.484070000000000E-01     -9.161718000000000E+01
4816000000.000000      3.422852000000000E-01     -1.322578000000000E+02      3.702850000000000E-01     -6.435937000000000E+01      3.583832000000000E-01     -1.748125000000000E+02      6.500549000000000E-01     -9.167578000000000E+01
4817000000.000000      3.451080000000000E-01     -1.333125000000000E+02      3.738403000000000E-01     -6.474999000000000E+01      3.617096000000000E-01     -1.748672000000000E+02      6.491394000000000E-01     -9.187500000000000E+01
4818000000.000000      3.467255000000000E-01     -1.343672000000000E+02      3.771667000000000E-01     -6.493359000000000E+01      3.658905000000000E-01     -1.747266000000000E+02      6.502686000000000E-01     -9.189844000000000E+01
4819000000.000000      3.499756000000000E-01     -1.354766000000000E+02      3.819427000000000E-01     -6.523828000000000E+01      3.686829000000000E-01     -1.748516000000000E+02      6.508789000000000E-01     -9.191406000000000E+01
4820000000.000000      3.515015000000000E-01     -1.365547000000000E+02      3.850098000000000E-01     -6.534374000000000E+01      3.731689000000000E-01     -1.747500000000000E+02      6.506348000000000E-01     -9.207811000000000E+01
4821000000.000000      3.555450000000000E-01     -1.376484000000000E+02      3.896027000000000E-01     -6.569140000000000E+01      3.769684000000000E-01     -1.748203000000000E+02      6.508179000000000E-01     -9.218359000000000E+01
4822000000.000000      3.596802000000000E-01     -1.387266000000000E+02      3.923645000000000E-01     -6.596874000000000E+01      3.806915000000000E-01     -1.747266000000000E+02      6.532288000000000E-01     -9.221483000000000E+01
4823000000.000000      3.618927000000000E-01     -1.397422000000000E+02      3.966675000000000E-01     -6.633203000000000E+01      3.853607000000000E-01     -1.746641000000000E+02      6.545410000000000E-01     -9.230078000000000E+01
4824000000.000000      3.664246000000000E-01     -1.408281000000000E+02      4.009094000000000E-01     -6.651953000000000E+01      3.894196000000000E-01     -1.748203000000000E+02      6.555786000000000E-01     -9.236328000000000E+01
4825000000.000000      3.693085000000000E-01     -1.417813000000000E+02      4.040375000000000E-01     -6.668750000000000E+01      3.936310000000000E-01     -1.747656000000000E+02      6.564636000000000E-01     -9.234375000000000E+01
4826000000.000000      3.736115000000000E-01     -1.428281000000000E+02      4.073486000000000E-01     -6.715234000000000E+01      3.960419000000000E-01     -1.748516000000000E+02      6.568909000000000E-01     -9.257030000000000E+01
4827000000.000000      3.780365000000000E-01     -1.436875000000000E+02      4.117737000000000E-01     -6.727344000000000E+01      4.002533000000000E-01     -1.747578000000000E+02      6.584167000000000E-01     -9.246485000000000E+01
4828000000.000000      3.829498000000000E-01     -1.447656000000000E+02      4.145050000000000E-01     -6.764843000000000E+01      4.044342000000000E-01     -1.747578000000000E+02      6.617737000000000E-01     -9.265234000000000E+01
4829000000.000000      3.854675000000000E-01     -1.456016000000000E+02      4.181976000000000E-01     -6.795312000000000E+01      4.081879000000000E-01     -1.748359000000000E+02      6.620178000000000E-01     -9.268358000000000E+01
4830000000.000000      3.909607000000000E-01     -1.466016000000000E+02      4.208374000000000E-01     -6.816796000000000E+01      4.123688000000000E-01     -1.747969000000000E+02      6.632996000000000E-01     -9.289063000000000E+01
4831000000.000000      3.950653000000000E-01     -1.474219000000000E+02      4.248199000000000E-01     -6.865624000000000E+01      4.164734000000000E-01     -1.748359000000000E+02      6.644897000000000E-01     -9.277344000000000E+01
4832000000.000000      4.009857000000000E-01     -1.483750000000000E+02      4.291077000000000E-01     -6.878515000000000E+01      4.199066000000000E-01     -1.748516000000000E+02      6.671753000000000E-01     -9.281250000000000E+01
4833000000.000000      4.051819000000000E-01     -1.493359000000000E+02      4.321899000000000E-01     -6.905859000000000E+01      4.244080000000000E-01     -1.749687000000000E+02      6.678162000000000E-01     -9.298828000000000E+01
4834000000.000000      4.098663000000000E-01     -1.501797000000000E+02      4.336243000000000E-01     -6.948047000000000E+01      4.277496000000000E-01     -1.749922000000000E+02      6.697083000000000E-01     -9.307421000000000E+01
4835000000.000000      4.144592000000000E-01     -1.510000000000000E+02      4.381561000000000E-01     -6.980469000000000E+01      4.326935000000000E-01     -1.750547000000000E+02      6.724548000000000E-01     -9.315624000000000E+01
4836000000.000000      4.204712000000000E-01     -1.517344000000000E+02      4.400024000000000E-01     -7.008203000000000E+01      4.362335000000000E-01     -1.750781000000000E+02      6.732178000000000E-01     -9.310938000000000E+01
4837000000.000000      4.258423000000000E-01     -1.525859000000000E+02      4.437866000000000E-01     -7.063281000000000E+01      4.397888000000000E-01     -1.751328000000000E+02      6.755676000000000E-01     -9.318750000000000E+01
4838000000.000000      4.305420000000000E-01     -1.534688000000000E+02      4.473877000000000E-01     -7.080078000000000E+01      4.443512000000000E-01     -1.751328000000000E+02      6.779785000000000E-01     -9.330078000000000E+01
4839000000.000000      4.355927000000000E-01     -1.540547000000000E+02      4.486847000000000E-01     -7.103906000000000E+01      4.481506000000000E-01     -1.752187000000000E+02      6.807251000000000E-01     -9.315624000000000E+01
4840000000.000000      4.401703000000000E-01     -1.549922000000000E+02      4.523621000000000E-01     -7.131640000000000E+01      4.517975000000000E-01     -1.753438000000000E+02      6.819458000000000E-01     -9.337500000000000E+01
4841000000.000000      4.456177000000000E-01     -1.558437000000000E+02      4.554901000000000E-01     -7.180078000000000E+01      4.564667000000000E-01     -1.755156000000000E+02      6.851501000000000E-01     -9.345703000000000E+01
4842000000.000000      4.515381000000000E-01     -1.563594000000000E+02      4.582214000000000E-01     -7.191406000000000E+01      4.590607000000000E-01     -1.754766000000000E+02      6.872253000000000E-01     -9.350389000000000E+01
4843000000.000000      4.558868000000000E-01     -1.572187000000000E+02      4.608002000000000E-01     -7.248828000000000E+01      4.629517000000000E-01     -1.755781000000000E+02      6.903687000000000E-01     -9.352343000000000E+01
4844000000.000000      4.610443000000000E-01     -1.579219000000000E+02      4.627380000000000E-01     -7.262109000000000E+01      4.670563000000000E-01     -1.756797000000000E+02      6.918335000000000E-01     -9.363281000000000E+01
4845000000.000000      4.655609000000000E-01     -1.585156000000000E+02      4.662933000000000E-01     -7.303124000000000E+01      4.716339000000000E-01     -1.758359000000000E+02      6.937256000000000E-01     -9.363281000000000E+01
4846000000.000000      4.706726000000000E-01     -1.591484000000000E+02      4.684906000000000E-01     -7.337891000000000E+01      4.758759000000000E-01     -1.758672000000000E+02      6.960754000000000E-01     -9.356249000000000E+01
4847000000.000000      4.766083000000000E-01     -1.598359000000000E+02      4.713745000000000E-01     -7.357422000000000E+01      4.797516000000000E-01     -1.760391000000000E+02      7.002258000000000E-01     -9.378124000000000E+01
4848000000.000000      4.812469000000000E-01     -1.604844000000000E+02      4.729309000000000E-01     -7.387890000000000E+01      4.830475000000000E-01     -1.761484000000000E+02      7.024231000000000E-01     -9.381639000000000E+01
4849000000.000000      4.861755000000000E-01     -1.613203000000000E+02      4.758301000000000E-01     -7.431641000000000E+01      4.872742000000000E-01     -1.762344000000000E+02      7.046814000000000E-01     -9.379686000000000E+01
4850000000.000000      4.904480000000000E-01     -1.617422000000000E+02      4.781647000000000E-01     -7.454687000000000E+01      4.913177000000000E-01     -1.763594000000000E+02      7.074890000000000E-01     -9.383204000000000E+01
4851000000.000000      4.958191000000000E-01     -1.623047000000000E+02      4.807129000000000E-01     -7.489843000000000E+01      4.943390000000000E-01     -1.764688000000000E+02      7.112122000000000E-01     -9.387890000000000E+01
4852000000.000000      5.005493000000000E-01     -1.629375000000000E+02      4.817200000000000E-01     -7.540625000000000E+01      4.992065000000000E-01     -1.766953000000000E+02      7.145691000000000E-01     -9.395311000000000E+01
4853000000.000000      5.048523000000000E-01     -1.634687000000000E+02      4.839783000000000E-01     -7.573047000000000E+01      5.025330000000000E-01     -1.768047000000000E+02      7.164001000000000E-01     -9.416796000000000E+01
4854000000.000000      5.086670000000000E-01     -1.640391000000000E+02      4.861450000000000E-01     -7.598437000000000E+01      5.058289000000000E-01     -1.768828000000000E+02      7.191162000000000E-01     -9.406250000000000E+01
4855000000.000000      5.118713000000000E-01     -1.646484000000000E+02      4.877014000000000E-01     -7.630468000000000E+01      5.106506000000000E-01     -1.769844000000000E+02      7.215576000000000E-01     -9.405468000000000E+01
4856000000.000000      5.166931000000000E-01     -1.650234000000000E+02      4.890747000000000E-01     -7.652734000000000E+01      5.132751000000000E-01     -1.772187000000000E+02      7.253723000000000E-01     -9.417969000000000E+01
4857000000.000000      5.212402000000000E-01     -1.656563000000000E+02      4.919586000000000E-01     -7.685156000000000E+01      5.172424000000000E-01     -1.773672000000000E+02      7.282715000000000E-01     -9.421093000000000E+01
4858000000.000000      5.231323000000000E-01     -1.661953000000000E+02      4.937439000000000E-01     -7.710546000000000E+01      5.197144000000000E-01     -1.775234000000000E+02      7.300110000000000E-01     -9.432812000000000E+01
4859000000.000000      5.263977000000000E-01     -1.666641000000000E+02      4.944458000000000E-01     -7.750390000000000E+01      5.232849000000000E-01     -1.777969000000000E+02      7.334900000000000E-01     -9.439062000000000E+01
4860000000.000000      5.310974000000000E-01     -1.671172000000000E+02      4.982758000000000E-01     -7.770312000000000E+01      5.267334000000000E-01     -1.778594000000000E+02      7.360840000000000E-01     -9.430859000000000E+01
4861000000.000000      5.347900000000000E-01     -1.674844000000000E+02      4.995728000000000E-01     -7.817577000000000E+01      5.308228000000000E-01     -1.781016000000000E+02      7.395020000000000E-01     -9.441015000000000E+01
4862000000.000000      5.369568000000000E-01     -1.679375000000000E+02      5.008545000000000E-01     -7.834765000000000E+01      5.340271000000000E-01     -1.782422000000000E+02      7.429504000000000E-01     -9.433985000000000E+01
4863000000.000000      5.395508000000000E-01     -1.683125000000000E+02      5.002747000000000E-01     -7.867188000000000E+01      5.373840000000000E-01     -1.782656000000000E+02      7.453613000000000E-01     -9.436718000000000E+01
4864000000.000000      5.420532000000000E-01     -1.688203000000000E+02      5.038147000000000E-01     -7.896484000000000E+01      5.396423000000000E-01     -1.784141000000000E+02      7.480469000000000E-01     -9.450781000000000E+01
4865000000.000000      5.446167000000000E-01     -1.692969000000000E+02      5.039063000000000E-01     -7.932031000000000E+01      5.421143000000000E-01     -1.788437000000000E+02      7.507935000000000E-01     -9.444530000000000E+01
4866000000.000000      5.458374000000000E-01     -1.695547000000000E+02      5.040588000000000E-01     -7.946875000000000E+01      5.462952000000000E-01     -1.790078000000000E+02      7.541504000000000E-01     -9.452734000000000E+01
4867000000.000000      5.488281000000000E-01     -1.698984000000000E+02      5.080566000000000E-01     -7.978516000000000E+01      5.485840000000000E-01     -1.791797000000000E+02      7.570190000000000E-01     -9.454296000000000E+01
4868000000.000000      5.509949000000000E-01     -1.703438000000000E+02      5.079956000000000E-01     -8.007813000000000E+01      5.516357000000000E-01     -1.793750000000000E+02      7.582092000000000E-01     -9.468359000000000E+01
4869000000.000000      5.511475000000000E-01     -1.706172000000000E+02      5.077515000000000E-01     -8.038671000000000E+01      5.549927000000000E-01     -1.795312000000000E+02      7.622375000000000E-01     -9.483984000000000E+01
4870000000.000000      5.535583000000000E-01     -1.709766000000000E+02      5.098267000000000E-01     -8.039454000000000E+01      5.581970000000000E-01     -1.796719000000000E+02      7.649536000000000E-01     -9.474609000000000E+01
4871000000.000000      5.553284000000000E-01     -1.712969000000000E+02      5.105591000000000E-01     -8.079296000000000E+01      5.604553000000000E-01     -1.798828000000000E+02      7.670288000000000E-01     -9.490234000000000E+01
4872000000.000000      5.570984000000000E-01     -1.715469000000000E+02      5.120239000000000E-01     -8.095312000000000E+01      5.623779000000000E-01      1.797578000000000E+02      7.689819000000000E-01     -9.489061000000000E+01
4873000000.000000      5.573730000000000E-01     -1.717891000000000E+02      5.133667000000000E-01     -8.120703000000000E+01      5.635376000000000E-01      1.796562000000000E+02      7.737427000000000E-01     -9.492968000000000E+01
4874000000.000000      5.582886000000000E-01     -1.719453000000000E+02      5.131531000000000E-01     -8.172266000000000E+01      5.690002000000000E-01      1.794141000000000E+02      7.734375000000000E-01     -9.489843000000000E+01
4875000000.000000      5.597534000000000E-01     -1.722891000000000E+02      5.140991000000000E-01     -8.168360000000000E+01      5.696716000000000E-01      1.791641000000000E+02      7.752686000000000E-01     -9.495312000000000E+01
4876000000.000000      5.586853000000000E-01     -1.725234000000000E+02      5.161133000000000E-01     -8.220312000000000E+01      5.704651000000000E-01      1.790547000000000E+02      7.807617000000000E-01     -9.501171000000000E+01
4877000000.000000      5.594177000000000E-01     -1.726172000000000E+02      5.161438000000000E-01     -8.216015000000000E+01      5.743408000000000E-01      1.787188000000000E+02      7.815857000000000E-01     -9.509375000000000E+01
4878000000.000000      5.598145000000000E-01     -1.728750000000000E+02      5.166931000000000E-01     -8.242968000000000E+01      5.763855000000000E-01      1.786875000000000E+02      7.840881000000000E-01     -9.515625000000000E+01
4879000000.000000      5.602417000000000E-01     -1.730937000000000E+02      5.169067000000000E-01     -8.267187000000000E+01      5.776978000000000E-01      1.784297000000000E+02      7.849121000000000E-01     -9.501562000000000E+01
4880000000.000000      5.585022000000000E-01     -1.732109000000000E+02      5.198364000000000E-01     -8.287889000000000E+01      5.796509000000000E-01      1.781797000000000E+02      7.875366000000000E-01     -9.522264000000000E+01
4881000000.000000      5.602722000000000E-01     -1.733203000000000E+02      5.202026000000000E-01     -8.283983000000000E+01      5.812683000000000E-01      1.778672000000000E+02      7.890320000000000E-01     -9.523046000000000E+01
4882000000.000000      5.590515000000000E-01     -1.734609000000000E+02      5.213928000000000E-01     -8.316015000000000E+01      5.833130000000000E-01      1.777734000000000E+02      7.913818000000000E-01     -9.530859000000000E+01
