! Network Analyzer HP8722D
! Hewlett-Packard
! Data name: Linha & Wilkinson
! Saver's name: Rodrigo Anjos
! Comments: Teste da utilização de aquisição
continua pelo VNA HP8722D
! Time and date: 17/4/2025 11:33
!              Frequency                     S11                                                   S21                                                   S12                                                   S22
# HZ  S  MA R 50
4800000000.000000      3.119202000000000E-01      1.179883000000000E+02      7.099304000000000E-01      7.978125000000000E+01      6.618652000000000E-01     -1.462695000000000E+01      4.893188000000000E-01     -4.602929000000000E+01
4801000000.000000      3.065033000000000E-01      1.178242000000000E+02      7.124939000000000E-01      7.937890000000000E+01      6.632690000000000E-01     -1.519043000000000E+01      4.832153000000000E-01     -4.612109000000000E+01
4802000000.000000      3.018494000000000E-01      1.177266000000000E+02      7.113342000000000E-01      7.871484000000000E+01      6.662903000000000E-01     -1.554199000000000E+01      4.759979000000000E-01     -4.594727000000000E+01
4803000000.000000      2.960052000000000E-01      1.177070000000000E+02      7.147522000000000E-01      7.806641000000000E+01      6.666870000000000E-01     -1.609863000000000E+01      4.686737000000000E-01     -4.617969000000000E+01
4804000000.000000      2.911530000000000E-01      1.176211000000000E+02      7.167664000000000E-01      7.760156000000000E+01      6.682129000000000E-01     -1.647851000000000E+01      4.595184000000000E-01     -4.621289000000000E+01
4805000000.000000      2.867584000000000E-01      1.176328000000000E+02      7.174377000000000E-01      7.696875000000000E+01      6.695251000000000E-01     -1.693555000000000E+01      4.523621000000000E-01     -4.616211000000000E+01
4806000000.000000      2.804718000000000E-01      1.175781000000000E+02      7.187195000000000E-01      7.617578000000000E+01      6.688843000000000E-01     -1.722852000000000E+01      4.447937000000000E-01     -4.628906000000000E+01
4807000000.000000      2.752991000000000E-01      1.175156000000000E+02      7.204285000000000E-01      7.551952000000000E+01      6.710205000000000E-01     -1.789355000000000E+01      4.357758000000000E-01     -4.610547000000000E+01
4808000000.000000      2.695313000000000E-01      1.176367000000000E+02      7.225647000000000E-01      7.526562000000000E+01      6.730042000000000E-01     -1.831738000000000E+01      4.291382000000000E-01     -4.615430000000000E+01
4809000000.000000      2.635040000000000E-01      1.175391000000000E+02      7.201538000000000E-01      7.428515000000000E+01      6.751099000000000E-01     -1.864062000000000E+01      4.209137000000000E-01     -4.588867000000000E+01
4810000000.000000      2.582092000000000E-01      1.173750000000000E+02      7.209473000000000E-01      7.387890000000000E+01      6.749268000000000E-01     -1.920703000000000E+01      4.147186000000000E-01     -4.602539000000000E+01
4811000000.000000      2.524872000000000E-01      1.174883000000000E+02      7.245483000000000E-01      7.304688000000000E+01      6.756592000000000E-01     -1.942676000000000E+01      4.058380000000000E-01     -4.560742000000000E+01
4812000000.000000      2.466583000000000E-01      1.175078000000000E+02      7.245178000000000E-01      7.248437000000000E+01      6.764221000000000E-01     -1.999414000000000E+01      4.001007000000000E-01     -4.566211000000000E+01
4813000000.000000      2.403488000000000E-01      1.176055000000000E+02      7.238464000000000E-01      7.200390000000000E+01      6.770325000000000E-01     -2.029395000000000E+01      3.926849000000000E-01     -4.519531000000000E+01
4814000000.000000      2.339935000000000E-01      1.173750000000000E+02      7.261963000000000E-01      7.133984000000000E+01      6.788330000000000E-01     -2.078223000000000E+01      3.860321000000000E-01     -4.513085000000000E+01
4815000000.000000      2.280197000000000E-01      1.176875000000000E+02      7.249451000000000E-01      7.079296000000000E+01      6.785583000000000E-01     -2.123340000000000E+01      3.792725000000000E-01     -4.470312000000000E+01
4816000000.000000      2.224884000000000E-01      1.176484000000000E+02      7.261047000000000E-01      7.022655000000000E+01      6.811218000000000E-01     -2.154590000000000E+01      3.728333000000000E-01     -4.455468000000000E+01
4817000000.000000      2.161636000000000E-01      1.178555000000000E+02      7.252197000000000E-01      6.951562000000000E+01      6.806335000000000E-01     -2.213086000000000E+01      3.656158000000000E-01     -4.402148000000000E+01
4818000000.000000      2.094269000000000E-01      1.178828000000000E+02      7.253113000000000E-01      6.900391000000000E+01      6.826782000000000E-01     -2.249512000000000E+01      3.591614000000000E-01     -4.376562000000000E+01
4819000000.000000      2.033081000000000E-01      1.180859000000000E+02      7.267151000000000E-01      6.830859000000000E+01      6.801453000000000E-01     -2.292578000000000E+01      3.531799000000000E-01     -4.347265000000000E+01
4820000000.000000      1.965256000000000E-01      1.182187000000000E+02      7.241211000000000E-01      6.772655000000000E+01      6.829834000000000E-01     -2.340039000000000E+01      3.472900000000000E-01     -4.290039000000000E+01
4821000000.000000      1.910934000000000E-01      1.183516000000000E+02      7.262268000000000E-01      6.712500000000000E+01      6.827087000000000E-01     -2.395215000000000E+01      3.412018000000000E-01     -4.225390000000000E+01
4822000000.000000      1.846848000000000E-01      1.185312000000000E+02      7.239685000000000E-01      6.650000000000000E+01      6.817627000000000E-01     -2.443945000000000E+01      3.367462000000000E-01     -4.199023000000000E+01
4823000000.000000      1.781616000000000E-01      1.189258000000000E+02      7.233887000000000E-01      6.587109000000000E+01      6.818848000000000E-01     -2.467676000000000E+01      3.316956000000000E-01     -4.150000000000000E+01
4824000000.000000      1.726379000000000E-01      1.191406000000000E+02      7.236633000000000E-01      6.522655000000000E+01      6.823730000000000E-01     -2.526758000000000E+01      3.257446000000000E-01     -4.076757000000000E+01
4825000000.000000      1.657333000000000E-01      1.194531000000000E+02      7.231140000000000E-01      6.465625000000000E+01      6.841125000000000E-01     -2.560449000000000E+01      3.221130000000000E-01     -4.024414000000000E+01
4826000000.000000      1.602707000000000E-01      1.199297000000000E+02      7.231140000000000E-01      6.376171000000000E+01      6.823120000000000E-01     -2.618359000000000E+01      3.179169000000000E-01     -3.950586000000000E+01
4827000000.000000      1.537628000000000E-01      1.203750000000000E+02      7.212830000000000E-01      6.343359000000000E+01      6.816101000000000E-01     -2.651758000000000E+01      3.137207000000000E-01     -3.888867000000000E+01
4828000000.000000      1.483078000000000E-01      1.208203000000000E+02      7.210693000000000E-01      6.263281000000000E+01      6.809998000000000E-01     -2.704102000000000E+01      3.092804000000000E-01     -3.830469000000000E+01
4829000000.000000      1.415100000000000E-01      1.213867000000000E+02      7.196045000000000E-01      6.219336000000000E+01      6.820984000000000E-01     -2.749609000000000E+01      3.064270000000000E-01     -3.748047000000000E+01
4830000000.000000      1.358185000000000E-01      1.220078000000000E+02      7.171326000000000E-01      6.134766000000000E+01      6.807861000000000E-01     -2.794140000000000E+01      3.014984000000000E-01     -3.676953000000000E+01
4831000000.000000      1.303253000000000E-01      1.225703000000000E+02      7.179565000000000E-01      6.091601000000000E+01      6.807861000000000E-01     -2.847656000000000E+01      2.985840000000000E-01     -3.599023000000000E+01
4832000000.000000      1.250153000000000E-01      1.233906000000000E+02      7.146301000000000E-01      6.026562000000000E+01      6.788635000000000E-01     -2.892871000000000E+01      2.950439000000000E-01     -3.504883000000000E+01
4833000000.000000      1.193237000000000E-01      1.242891000000000E+02      7.148132000000000E-01      5.967187000000000E+01      6.784058000000000E-01     -2.939258000000000E+01      2.926025000000000E-01     -3.425586000000000E+01
4834000000.000000      1.136856000000000E-01      1.253516000000000E+02      7.135620000000000E-01      5.899609000000000E+01      6.775208000000000E-01     -2.992188000000000E+01      2.899017000000000E-01     -3.350781000000000E+01
4835000000.000000      1.085205000000000E-01      1.261211000000000E+02      7.118225000000000E-01      5.823828000000000E+01      6.782227000000000E-01     -3.040136000000000E+01      2.871246000000000E-01     -3.262304000000000E+01
4836000000.000000      1.032181000000000E-01      1.275273000000000E+02      7.094116000000000E-01      5.766406000000000E+01      6.769409000000000E-01     -3.074414000000000E+01      2.859802000000000E-01     -3.175879000000000E+01
4837000000.000000      9.811020000000000E-02      1.286484000000000E+02      7.079468000000000E-01      5.689062000000000E+01      6.746521000000000E-01     -3.137988000000000E+01      2.841339000000000E-01     -3.054980000000000E+01
4838000000.000000      9.368515000000000E-02      1.299844000000000E+02      7.067261000000000E-01      5.655468000000000E+01      6.743469000000000E-01     -3.172363000000000E+01      2.821350000000000E-01     -3.002930000000000E+01
4839000000.000000      8.857346000000000E-02      1.319844000000000E+02      7.036438000000000E-01      5.592187000000000E+01      6.732788000000000E-01     -3.226171000000000E+01      2.815094000000000E-01     -2.913867000000000E+01
4840000000.000000      8.393097000000000E-02      1.334297000000000E+02      7.035522000000000E-01      5.536914000000000E+01      6.714478000000000E-01     -3.274219000000000E+01      2.796021000000000E-01     -2.822070000000000E+01
4841000000.000000      7.971191000000000E-02      1.353047000000000E+02      7.013855000000000E-01      5.451953000000000E+01      6.695557000000000E-01     -3.328516000000000E+01      2.799072000000000E-01     -2.710058000000000E+01
4842000000.000000      7.548904000000000E-02      1.377578000000000E+02      6.985474000000000E-01      5.392773000000000E+01      6.663513000000000E-01     -3.373437000000000E+01      2.789612000000000E-01     -2.614746000000000E+01
4843000000.000000      7.110596000000000E-02      1.397422000000000E+02      6.973877000000000E-01      5.324023000000000E+01      6.663818000000000E-01     -3.426367000000000E+01      2.784424000000000E-01     -2.518555000000000E+01
4844000000.000000      6.822586000000000E-02      1.428047000000000E+02      6.958923000000000E-01      5.264453000000000E+01      6.635437000000000E-01     -3.469531000000000E+01      2.782440000000000E-01     -2.434473000000000E+01
4845000000.000000      6.466675000000000E-02      1.454766000000000E+02      6.911316000000000E-01      5.211328000000000E+01      6.621399000000000E-01     -3.524805000000000E+01      2.780304000000000E-01     -2.352539000000000E+01
4846000000.000000      6.115150000000000E-02      1.488047000000000E+02      6.896973000000000E-01      5.148438000000000E+01      6.605835000000000E-01     -3.576757000000000E+01      2.787170000000000E-01     -2.252246000000000E+01
4847000000.000000      5.879021000000000E-02      1.521406000000000E+02      6.867981000000000E-01      5.094336000000000E+01      6.590271000000000E-01     -3.621484000000000E+01      2.787323000000000E-01     -2.170898000000000E+01
4848000000.000000      5.628204000000000E-02      1.559297000000000E+02      6.832886000000000E-01      5.027929000000000E+01      6.553040000000000E-01     -3.680469000000000E+01      2.796631000000000E-01     -2.068750000000000E+01
4849000000.000000      5.430031000000000E-02      1.595234000000000E+02      6.814575000000000E-01      4.957617000000000E+01      6.535034000000000E-01     -3.734766000000000E+01      2.807617000000000E-01     -1.975098000000000E+01
4850000000.000000      5.274010000000000E-02      1.634687000000000E+02      6.774292000000000E-01      4.906445000000000E+01      6.513367000000000E-01     -3.771093000000000E+01      2.816162000000000E-01     -1.903027000000000E+01
4851000000.000000      5.163383000000000E-02      1.676797000000000E+02      6.765137000000000E-01      4.824609000000000E+01      6.490479000000000E-01     -3.827929000000000E+01      2.843018000000000E-01     -1.800390000000000E+01
4852000000.000000      5.067825000000000E-02      1.727109000000000E+02      6.725769000000000E-01      4.769531000000000E+01      6.459351000000000E-01     -3.872461000000000E+01      2.853241000000000E-01     -1.722949000000000E+01
4853000000.000000      5.079842000000000E-02      1.767344000000000E+02      6.681519000000000E-01      4.710546000000000E+01      6.440735000000000E-01     -3.932812000000000E+01      2.875366000000000E-01     -1.660058000000000E+01
4854000000.000000      5.003548000000000E-02     -1.789141000000000E+02      6.647034000000000E-01      4.637304000000000E+01      6.410217000000000E-01     -3.973633000000000E+01      2.899170000000000E-01     -1.568066000000000E+01
4855000000.000000      5.032349000000000E-02     -1.753047000000000E+02      6.626587000000000E-01      4.580274000000000E+01      6.375427000000000E-01     -4.040235000000000E+01      2.908173000000000E-01     -1.502393000000000E+01
4856000000.000000      5.153465000000000E-02     -1.705469000000000E+02      6.595459000000000E-01      4.524804000000000E+01      6.351929000000000E-01     -4.088281000000000E+01      2.938690000000000E-01     -1.420410000000000E+01
4857000000.000000      5.185318000000000E-02     -1.671562000000000E+02      6.568604000000000E-01      4.465820000000000E+01      6.306458000000000E-01     -4.136523000000000E+01      2.960358000000000E-01     -1.339941000000000E+01
4858000000.000000      5.289078000000000E-02     -1.638203000000000E+02      6.532593000000000E-01      4.400586000000000E+01      6.285400000000000E-01     -4.191015000000000E+01      2.995148000000000E-01     -1.283496000000000E+01
4859000000.000000      5.490112000000000E-02     -1.606484000000000E+02      6.511230000000000E-01      4.325195000000000E+01      6.244812000000000E-01     -4.241992000000000E+01      3.031311000000000E-01     -1.228711000000000E+01
4860000000.000000      5.643463000000000E-02     -1.585078000000000E+02      6.467285000000000E-01      4.277929000000000E+01      6.189575000000000E-01     -4.278320000000000E+01      3.063202000000000E-01     -1.148389000000000E+01
4861000000.000000      5.833244000000000E-02     -1.559062000000000E+02      6.438599000000000E-01      4.195508000000000E+01      6.179504000000000E-01     -4.339648000000000E+01      3.089294000000000E-01     -1.093311000000000E+01
4862000000.000000      6.029701000000000E-02     -1.536641000000000E+02      6.397400000000000E-01      4.138672000000000E+01      6.144714000000000E-01     -4.394531000000000E+01      3.121796000000000E-01     -1.036182000000000E+01
4863000000.000000      6.215286000000000E-02     -1.520234000000000E+02      6.335144000000000E-01      4.071289000000000E+01      6.117554000000000E-01     -4.447266000000000E+01      3.160400000000000E-01     -9.865723000000000E+00
4864000000.000000      6.432724000000000E-02     -1.501250000000000E+02      6.314697000000000E-01      4.020703000000000E+01      6.068420000000000E-01     -4.494336000000000E+01      3.198547000000000E-01     -9.392090000000000E+00
4865000000.000000      6.607819000000000E-02     -1.494062000000000E+02      6.268616000000000E-01      3.965039000000000E+01      6.028748000000000E-01     -4.556054000000000E+01      3.248444000000000E-01     -8.753418000000000E+00
4866000000.000000      6.880951000000000E-02     -1.477734000000000E+02      6.207886000000000E-01      3.901758000000000E+01      5.995178000000000E-01     -4.609961000000000E+01      3.287048000000000E-01     -8.459473000000000E+00
4867000000.000000      7.086945000000000E-02     -1.472891000000000E+02      6.195374000000000E-01      3.824023000000000E+01      5.941467000000000E-01     -4.649804000000000E+01      3.332977000000000E-01     -7.941895000000000E+00
4868000000.000000      7.332611000000000E-02     -1.471641000000000E+02      6.139832000000000E-01      3.768555000000000E+01      5.892029000000000E-01     -4.716797000000000E+01      3.365936000000000E-01     -7.693359000000000E+00
4869000000.000000      7.566452000000000E-02     -1.463438000000000E+02      6.093750000000000E-01      3.703125000000000E+01      5.871582000000000E-01     -4.765234000000000E+01      3.418884000000000E-01     -7.396729000000000E+00
4870000000.000000      7.802200000000000E-02     -1.461484000000000E+02      6.056824000000000E-01      3.661133000000000E+01      5.832214000000000E-01     -4.825585000000000E+01      3.468933000000000E-01     -6.931152000000000E+00
4871000000.000000      8.055496000000000E-02     -1.460391000000000E+02      6.006165000000000E-01      3.576757000000000E+01      5.765991000000000E-01     -4.871679000000000E+01      3.513184000000000E-01     -6.741699000000000E+00
4872000000.000000      8.347702000000000E-02     -1.463047000000000E+02      5.960999000000000E-01      3.540039000000000E+01      5.728760000000000E-01     -4.937695000000000E+01      3.566589000000000E-01     -6.494385000000000E+00
4873000000.000000      8.539581000000000E-02     -1.464297000000000E+02      5.903320000000000E-01      3.468750000000000E+01      5.672302000000000E-01     -4.987109000000000E+01      3.606110000000000E-01     -6.335205000000000E+00
4874000000.000000      8.752441000000000E-02     -1.465703000000000E+02      5.836487000000000E-01      3.388672000000000E+01      5.635376000000000E-01     -5.038086000000000E+01      3.659821000000000E-01     -6.054932000000000E+00
4875000000.000000      9.049606000000000E-02     -1.471094000000000E+02      5.797729000000000E-01      3.334961000000000E+01      5.587769000000000E-01     -5.079492000000000E+01      3.708191000000000E-01     -6.050781000000000E+00
4876000000.000000      9.258652000000000E-02     -1.478281000000000E+02      5.743408000000000E-01      3.267578000000000E+01      5.529480000000000E-01     -5.131054000000000E+01      3.765717000000000E-01     -5.964355000000000E+00
4877000000.000000      9.496689000000000E-02     -1.483594000000000E+02      5.675964000000000E-01      3.212109000000000E+01      5.480347000000000E-01     -5.176367000000000E+01      3.813629000000000E-01     -5.744629000000000E+00
4878000000.000000      9.735870000000000E-02     -1.490781000000000E+02      5.639648000000000E-01      3.158105000000000E+01      5.422058000000000E-01     -5.224218000000000E+01      3.866119000000000E-01     -5.773438000000000E+00
4879000000.000000      9.979248000000000E-02     -1.503047000000000E+02      5.566101000000000E-01      3.101269000000000E+01      5.387268000000000E-01     -5.290625000000000E+01      3.912964000000000E-01     -5.726807000000000E+00
4880000000.000000      1.017570000000000E-01     -1.509844000000000E+02      5.523987000000000E-01      3.036133000000000E+01      5.340881000000000E-01     -5.332226000000000E+01      3.957062000000000E-01     -5.630615000000000E+00
4881000000.000000      1.051445000000000E-01     -1.518281000000000E+02      5.477905000000000E-01      2.983105000000000E+01      5.276184000000000E-01     -5.365624000000000E+01      4.010620000000000E-01     -5.493164000000000E+00
4882000000.000000      1.070671000000000E-01     -1.530000000000000E+02      5.414429000000000E-01      2.913671000000000E+01      5.229187000000000E-01     -5.424609000000000E+01      4.064331000000000E-01     -5.625000000000000E+00
