! Network Analyzer HP8722D
! Hewlett-Packard
! Data name: Linha & Wilkinson
! Saver's name: Rodrigo Anjos
! Comments: Teste da utilização de aquisição
continua pelo VNA HP8722D
! Time and date: 17/4/2025 12:31
!              Frequency                     S11                                                   S21                                                   S12                                                   S22
# HZ  S  MA R 50
4800000000.000000      3.321991000000000E-01     -1.140703000000000E+02      2.917633000000000E-01     -6.108007000000000E+01      2.860260000000000E-01     -1.752812000000000E+02      6.559143000000000E-01     -8.998438000000000E+01
4801000000.000000      3.321838000000000E-01     -1.150664000000000E+02      2.966156000000000E-01     -6.119726000000000E+01      2.893372000000000E-01     -1.752969000000000E+02      6.557007000000000E-01     -9.000000000000000E+01
4802000000.000000      3.305511000000000E-01     -1.159961000000000E+02      3.012543000000000E-01     -6.107422000000000E+01      2.937469000000000E-01     -1.750234000000000E+02      6.546936000000000E-01     -9.004297000000000E+01
4803000000.000000      3.302002000000000E-01     -1.170469000000000E+02      3.064270000000000E-01     -6.128124000000000E+01      2.973175000000000E-01     -1.750078000000000E+02      6.530151000000000E-01     -9.018749000000000E+01
4804000000.000000      3.294983000000000E-01     -1.180391000000000E+02      3.101196000000000E-01     -6.128906000000000E+01      3.020172000000000E-01     -1.749219000000000E+02      6.516724000000000E-01     -9.029688000000000E+01
4805000000.000000      3.301849000000000E-01     -1.190469000000000E+02      3.145294000000000E-01     -6.149414000000000E+01      3.059998000000000E-01     -1.747890000000000E+02      6.516418000000000E-01     -9.044922000000000E+01
4806000000.000000      3.289032000000000E-01     -1.200664000000000E+02      3.187408000000000E-01     -6.162304000000000E+01      3.092346000000000E-01     -1.745625000000000E+02      6.519470000000000E-01     -9.053125000000000E+01
4807000000.000000      3.291473000000000E-01     -1.210859000000000E+02      3.232727000000000E-01     -6.182422000000000E+01      3.138275000000000E-01     -1.745859000000000E+02      6.519470000000000E-01     -9.058594000000000E+01
4808000000.000000      3.299255000000000E-01     -1.220976000000000E+02      3.282776000000000E-01     -6.200781000000000E+01      3.177490000000000E-01     -1.745703000000000E+02      6.485596000000000E-01     -9.064062000000000E+01
4809000000.000000      3.303375000000000E-01     -1.231484000000000E+02      3.332367000000000E-01     -6.223827000000000E+01      3.218994000000000E-01     -1.745703000000000E+02      6.499939000000000E-01     -9.077734000000000E+01
4810000000.000000      3.308258000000000E-01     -1.243242000000000E+02      3.373260000000000E-01     -6.235156000000000E+01      3.254089000000000E-01     -1.744141000000000E+02      6.492310000000000E-01     -9.085938000000000E+01
4811000000.000000      3.320313000000000E-01     -1.253516000000000E+02      3.417358000000000E-01     -6.273632000000000E+01      3.305969000000000E-01     -1.743281000000000E+02      6.491089000000000E-01     -9.086329000000000E+01
4812000000.000000      3.335876000000000E-01     -1.263945000000000E+02      3.455811000000000E-01     -6.282812000000000E+01      3.343353000000000E-01     -1.741406000000000E+02      6.498413000000000E-01     -9.093359000000000E+01
4813000000.000000      3.342896000000000E-01     -1.275039000000000E+02      3.495941000000000E-01     -6.301171000000000E+01      3.374481000000000E-01     -1.741172000000000E+02      6.492920000000000E-01     -9.098436000000000E+01
4814000000.000000      3.355560000000000E-01     -1.287734000000000E+02      3.539734000000000E-01     -6.317773000000000E+01      3.417053000000000E-01     -1.741250000000000E+02      6.493225000000000E-01     -9.119921000000000E+01
4815000000.000000      3.370514000000000E-01     -1.297188000000000E+02      3.580780000000000E-01     -6.347461000000000E+01      3.452148000000000E-01     -1.739687000000000E+02      6.481323000000000E-01     -9.119532000000000E+01
4816000000.000000      3.393402000000000E-01     -1.308281000000000E+02      3.627014000000000E-01     -6.362695000000000E+01      3.500061000000000E-01     -1.739531000000000E+02      6.502991000000000E-01     -9.123047000000000E+01
4817000000.000000      3.417358000000000E-01     -1.318203000000000E+02      3.666534000000000E-01     -6.395117000000000E+01      3.536072000000000E-01     -1.740859000000000E+02      6.491394000000000E-01     -9.141405000000000E+01
4818000000.000000      3.441162000000000E-01     -1.330781000000000E+02      3.690338000000000E-01     -6.412109000000000E+01      3.585663000000000E-01     -1.739844000000000E+02      6.493530000000000E-01     -9.153124000000000E+01
4819000000.000000      3.467255000000000E-01     -1.341328000000000E+02      3.734283000000000E-01     -6.441015000000000E+01      3.614349000000000E-01     -1.739063000000000E+02      6.511536000000000E-01     -9.158203000000000E+01
4820000000.000000      3.482361000000000E-01     -1.351250000000000E+02      3.777313000000000E-01     -6.447656000000000E+01      3.659973000000000E-01     -1.739219000000000E+02      6.509705000000000E-01     -9.165234000000000E+01
4821000000.000000      3.519897000000000E-01     -1.362109000000000E+02      3.813934000000000E-01     -6.473827000000000E+01      3.699341000000000E-01     -1.741953000000000E+02      6.503296000000000E-01     -9.186327000000000E+01
4822000000.000000      3.562012000000000E-01     -1.373594000000000E+02      3.852844000000000E-01     -6.506249000000000E+01      3.733521000000000E-01     -1.739844000000000E+02      6.528625000000000E-01     -9.189062000000000E+01
4823000000.000000      3.587036000000000E-01     -1.383359000000000E+02      3.897705000000000E-01     -6.539063000000000E+01      3.770142000000000E-01     -1.738047000000000E+02      6.529846000000000E-01     -9.183203000000000E+01
4824000000.000000      3.628540000000000E-01     -1.394375000000000E+02      3.933868000000000E-01     -6.580859000000000E+01      3.819885000000000E-01     -1.739844000000000E+02      6.551514000000000E-01     -9.195704000000000E+01
4825000000.000000      3.657379000000000E-01     -1.403828000000000E+02      3.965149000000000E-01     -6.592968000000000E+01      3.868561000000000E-01     -1.738828000000000E+02      6.557922000000000E-01     -9.196875000000000E+01
4826000000.000000      3.701172000000000E-01     -1.413828000000000E+02      3.999634000000000E-01     -6.638672000000000E+01      3.894806000000000E-01     -1.740156000000000E+02      6.563416000000000E-01     -9.215235000000000E+01
4827000000.000000      3.739777000000000E-01     -1.422344000000000E+02      4.048004000000000E-01     -6.637500000000000E+01      3.934326000000000E-01     -1.739063000000000E+02      6.578064000000000E-01     -9.210546000000000E+01
4828000000.000000      3.790741000000000E-01     -1.433281000000000E+02      4.078369000000000E-01     -6.674609000000000E+01      3.974457000000000E-01     -1.738828000000000E+02      6.606750000000000E-01     -9.215624000000000E+01
4829000000.000000      3.819427000000000E-01     -1.442266000000000E+02      4.106140000000000E-01     -6.701953000000000E+01      4.012756000000000E-01     -1.739297000000000E+02      6.601868000000000E-01     -9.223436000000000E+01
4830000000.000000      3.864288000000000E-01     -1.451562000000000E+02      4.144135000000000E-01     -6.723827000000000E+01      4.052277000000000E-01     -1.738750000000000E+02      6.627502000000000E-01     -9.243359000000000E+01
4831000000.000000      3.911743000000000E-01     -1.460781000000000E+02      4.180908000000000E-01     -6.779687000000000E+01      4.102478000000000E-01     -1.738828000000000E+02      6.651001000000000E-01     -9.242579000000000E+01
4832000000.000000      3.967896000000000E-01     -1.469609000000000E+02      4.219513000000000E-01     -6.791016000000000E+01      4.132385000000000E-01     -1.740078000000000E+02      6.664429000000000E-01     -9.250391000000000E+01
4833000000.000000      4.020844000000000E-01     -1.479531000000000E+02      4.244995000000000E-01     -6.814062000000000E+01      4.177094000000000E-01     -1.739687000000000E+02      6.679688000000000E-01     -9.251953000000000E+01
4834000000.000000      4.060059000000000E-01     -1.487813000000000E+02      4.282837000000000E-01     -6.848827000000000E+01      4.216614000000000E-01     -1.740156000000000E+02      6.693726000000000E-01     -9.274218000000000E+01
4835000000.000000      4.107208000000000E-01     -1.495859000000000E+02      4.317322000000000E-01     -6.887500000000000E+01      4.264221000000000E-01     -1.741016000000000E+02      6.714478000000000E-01     -9.270311000000000E+01
4836000000.000000      4.167175000000000E-01     -1.503828000000000E+02      4.347687000000000E-01     -6.912109000000000E+01      4.302063000000000E-01     -1.741953000000000E+02      6.730957000000000E-01     -9.265625000000000E+01
4837000000.000000      4.217834000000000E-01     -1.511641000000000E+02      4.373779000000000E-01     -6.972656000000000E+01      4.332275000000000E-01     -1.742578000000000E+02      6.754456000000000E-01     -9.276562000000000E+01
4838000000.000000      4.271545000000000E-01     -1.520547000000000E+02      4.411926000000000E-01     -6.972656000000000E+01      4.388275000000000E-01     -1.742344000000000E+02      6.767578000000000E-01     -9.288671000000000E+01
4839000000.000000      4.320526000000000E-01     -1.527031000000000E+02      4.439087000000000E-01     -7.009766000000000E+01      4.421997000000000E-01     -1.742812000000000E+02      6.798096000000000E-01     -9.269531000000000E+01
4840000000.000000      4.360809000000000E-01     -1.536172000000000E+02      4.467773000000000E-01     -7.046875000000000E+01      4.467621000000000E-01     -1.744531000000000E+02      6.814270000000000E-01     -9.289454000000000E+01
4841000000.000000      4.420166000000000E-01     -1.544219000000000E+02      4.501648000000000E-01     -7.091406000000000E+01      4.506226000000000E-01     -1.745312000000000E+02      6.844482000000000E-01     -9.306641000000000E+01
4842000000.000000      4.477997000000000E-01     -1.550000000000000E+02      4.530029000000000E-01     -7.107812000000000E+01      4.534302000000000E-01     -1.745469000000000E+02      6.862793000000000E-01     -9.290234000000000E+01
4843000000.000000      4.522400000000000E-01     -1.558203000000000E+02      4.549103000000000E-01     -7.138672000000000E+01      4.582214000000000E-01     -1.746641000000000E+02      6.879272000000000E-01     -9.307421000000000E+01
4844000000.000000      4.572754000000000E-01     -1.564687000000000E+02      4.582062000000000E-01     -7.182812000000000E+01      4.619293000000000E-01     -1.747422000000000E+02      6.920776000000000E-01     -9.317968000000000E+01
4845000000.000000      4.622650000000000E-01     -1.571250000000000E+02      4.606781000000000E-01     -7.202734000000000E+01      4.661560000000000E-01     -1.748828000000000E+02      6.943970000000000E-01     -9.317186000000000E+01
4846000000.000000      4.672241000000000E-01     -1.577734000000000E+02      4.631195000000000E-01     -7.239843000000000E+01      4.712219000000000E-01     -1.749297000000000E+02      6.964722000000000E-01     -9.316406000000000E+01
4847000000.000000      4.734344000000000E-01     -1.584375000000000E+02      4.661713000000000E-01     -7.262109000000000E+01      4.750977000000000E-01     -1.750781000000000E+02      6.999512000000000E-01     -9.325390000000000E+01
4848000000.000000      4.779816000000000E-01     -1.590469000000000E+02      4.670563000000000E-01     -7.298046000000000E+01      4.781799000000000E-01     -1.751484000000000E+02      7.015076000000000E-01     -9.333202000000000E+01
4849000000.000000      4.830780000000000E-01     -1.599141000000000E+02      4.715424000000000E-01     -7.337500000000000E+01      4.828033000000000E-01     -1.752344000000000E+02      7.047119000000000E-01     -9.332422000000000E+01
4850000000.000000      4.874725000000000E-01     -1.603516000000000E+02      4.739075000000000E-01     -7.357812000000000E+01      4.864807000000000E-01     -1.753515000000000E+02      7.072449000000000E-01     -9.330469000000000E+01
4851000000.000000      4.923859000000000E-01     -1.609844000000000E+02      4.766541000000000E-01     -7.394531000000000E+01      4.896851000000000E-01     -1.754688000000000E+02      7.109375000000000E-01     -9.342968000000000E+01
4852000000.000000      4.975586000000000E-01     -1.615078000000000E+02      4.781036000000000E-01     -7.430859000000000E+01      4.945679000000000E-01     -1.756328000000000E+02      7.126465000000000E-01     -9.347265000000000E+01
4853000000.000000      5.018311000000000E-01     -1.621250000000000E+02      4.782867000000000E-01     -7.457031000000000E+01      4.990387000000000E-01     -1.757656000000000E+02      7.166443000000000E-01     -9.362890000000000E+01
4854000000.000000      5.062256000000000E-01     -1.626250000000000E+02      4.823456000000000E-01     -7.511328000000000E+01      5.019226000000000E-01     -1.759453000000000E+02      7.196045000000000E-01     -9.353907000000000E+01
4855000000.000000      5.092773000000000E-01     -1.632891000000000E+02      4.837189000000000E-01     -7.525391000000000E+01      5.063782000000000E-01     -1.760625000000000E+02      7.202454000000000E-01     -9.362499000000000E+01
4856000000.000000      5.148315000000000E-01     -1.637422000000000E+02      4.853973000000000E-01     -7.549609000000000E+01      5.100708000000000E-01     -1.761484000000000E+02      7.253723000000000E-01     -9.374218000000000E+01
4857000000.000000      5.184326000000000E-01     -1.643047000000000E+02      4.885406000000000E-01     -7.592578000000000E+01      5.130920000000000E-01     -1.763438000000000E+02      7.271118000000000E-01     -9.366796000000000E+01
4858000000.000000      5.208740000000000E-01     -1.647656000000000E+02      4.906769000000000E-01     -7.612109000000000E+01      5.159302000000000E-01     -1.764375000000000E+02      7.300720000000000E-01     -9.380468000000000E+01
4859000000.000000      5.250244000000000E-01     -1.653125000000000E+02      4.922638000000000E-01     -7.645312000000000E+01      5.197144000000000E-01     -1.769922000000000E+02      7.341003000000000E-01     -9.382421000000000E+01
4860000000.000000      5.299377000000000E-01     -1.657422000000000E+02      4.953461000000000E-01     -7.678515000000000E+01      5.226135000000000E-01     -1.769063000000000E+02      7.359009000000000E-01     -9.377344000000000E+01
4861000000.000000      5.327148000000000E-01     -1.661328000000000E+02      4.959869000000000E-01     -7.728906000000000E+01      5.276489000000000E-01     -1.770547000000000E+02      7.385864000000000E-01     -9.392969000000000E+01
4862000000.000000      5.353699000000000E-01     -1.666484000000000E+02      4.982910000000000E-01     -7.735546000000000E+01      5.319824000000000E-01     -1.771563000000000E+02      7.427368000000000E-01     -9.392578000000000E+01
4863000000.000000      5.383911000000000E-01     -1.670625000000000E+02      4.985504000000000E-01     -7.780468000000000E+01      5.341797000000000E-01     -1.773984000000000E+02      7.452087000000000E-01     -9.391016000000000E+01
4864000000.000000      5.417480000000000E-01     -1.674844000000000E+02      5.022583000000000E-01     -7.790625000000000E+01      5.371704000000000E-01     -1.775078000000000E+02      7.475891000000000E-01     -9.412109000000000E+01
4865000000.000000      5.436401000000000E-01     -1.679531000000000E+02      5.000000000000000E-01     -7.812890000000000E+01      5.399780000000000E-01     -1.777187000000000E+02      7.502441000000000E-01     -9.396875000000000E+01
4866000000.000000      5.453796000000000E-01     -1.682656000000000E+02      5.018311000000000E-01     -7.857812000000000E+01      5.430298000000000E-01     -1.779297000000000E+02      7.545166000000000E-01     -9.400391000000000E+01
4867000000.000000      5.480957000000000E-01     -1.685469000000000E+02      5.052490000000000E-01     -7.880468000000000E+01      5.464478000000000E-01     -1.781172000000000E+02      7.568054000000000E-01     -9.398438000000000E+01
4868000000.000000      5.500488000000000E-01     -1.690078000000000E+02      5.053101000000000E-01     -7.913280000000000E+01      5.486755000000000E-01     -1.782891000000000E+02      7.594299000000000E-01     -9.423828000000000E+01
4869000000.000000      5.516052000000000E-01     -1.692422000000000E+02      5.052490000000000E-01     -7.962891000000000E+01      5.515747000000000E-01     -1.785391000000000E+02      7.633667000000000E-01     -9.439453000000000E+01
4870000000.000000      5.529480000000000E-01     -1.696016000000000E+02      5.086365000000000E-01     -7.963281000000000E+01      5.530396000000000E-01     -1.788047000000000E+02      7.664795000000000E-01     -9.424219000000000E+01
4871000000.000000      5.557556000000000E-01     -1.700000000000000E+02      5.086365000000000E-01     -7.998047000000000E+01      5.578918000000000E-01     -1.789453000000000E+02      7.668762000000000E-01     -9.424999000000000E+01
4872000000.000000      5.574036000000000E-01     -1.701250000000000E+02      5.073547000000000E-01     -7.996094000000000E+01      5.606079000000000E-01     -1.793750000000000E+02      7.701111000000000E-01     -9.432032000000000E+01
4873000000.000000      5.581665000000000E-01     -1.705078000000000E+02      5.108032000000000E-01     -8.042969000000000E+01      5.617981000000000E-01     -1.794062000000000E+02      7.724915000000000E-01     -9.443359000000000E+01
4874000000.000000      5.593262000000000E-01     -1.706719000000000E+02      5.114136000000000E-01     -8.066406000000000E+01      5.670166000000000E-01     -1.796641000000000E+02      7.742004000000000E-01     -9.429688000000000E+01
4875000000.000000      5.607605000000000E-01     -1.709766000000000E+02      5.133972000000000E-01     -8.066015000000000E+01      5.681763000000000E-01     -1.799219000000000E+02      7.762756000000000E-01     -9.452343000000000E+01
4876000000.000000      5.606995000000000E-01     -1.712188000000000E+02      5.135193000000000E-01     -8.112499000000000E+01      5.690918000000000E-01      1.798828000000000E+02      7.791138000000000E-01     -9.453905000000000E+01
4877000000.000000      5.607605000000000E-01     -1.713906000000000E+02      5.140991000000000E-01     -8.123438000000000E+01      5.729065000000000E-01      1.796406000000000E+02      7.817993000000000E-01     -9.457031000000000E+01
4878000000.000000      5.614014000000000E-01     -1.715703000000000E+02      5.154419000000000E-01     -8.140625000000000E+01      5.749512000000000E-01      1.794844000000000E+02      7.839050000000000E-01     -9.466406000000000E+01
4879000000.000000      5.621643000000000E-01     -1.717656000000000E+02      5.158691000000000E-01     -8.166407000000000E+01      5.760193000000000E-01      1.792812000000000E+02      7.864990000000000E-01     -9.460546000000000E+01
4880000000.000000      5.619202000000000E-01     -1.719375000000000E+02      5.176392000000000E-01     -8.205078000000000E+01      5.795288000000000E-01      1.791094000000000E+02      7.886963000000000E-01     -9.464062000000000E+01
4881000000.000000      5.626831000000000E-01     -1.719766000000000E+02      5.188904000000000E-01     -8.202343000000000E+01      5.808716000000000E-01      1.789687000000000E+02      7.901306000000000E-01     -9.472656000000000E+01
4882000000.000000      5.614319000000000E-01     -1.721641000000000E+02      5.193481000000000E-01     -8.230860000000000E+01      5.828552000000000E-01      1.787344000000000E+02      7.908630000000000E-01     -9.488672000000000E+01
