! Network Analyzer HP8722D
! Hewlett-Packard
! Data name: Linha & Wilkinson
! Saver's name: Rodrigo Anjos
! Comments: Teste da utilização de aquisição
continua pelo VNA HP8722D
! Time and date: 17/4/2025 12:24
!              Frequency                     S11                                                   S21                                                   S12                                                   S22
# HZ  S  MA R 50
4800000000.000000      3.328857000000000E-01     -1.143906000000000E+02      2.942200000000000E-01     -6.130859000000000E+01      2.878113000000000E-01     -1.754531000000000E+02      6.564941000000000E-01     -9.007813000000000E+01
4801000000.000000      3.318176000000000E-01     -1.153242000000000E+02      2.990112000000000E-01     -6.123632000000000E+01      2.915192000000000E-01     -1.753359000000000E+02      6.552124000000000E-01     -9.008204000000000E+01
4802000000.000000      3.304596000000000E-01     -1.163594000000000E+02      3.029022000000000E-01     -6.140038000000000E+01      2.959290000000000E-01     -1.751172000000000E+02      6.534424000000000E-01     -9.018358000000000E+01
4803000000.000000      3.301392000000000E-01     -1.173516000000000E+02      3.086853000000000E-01     -6.139648000000000E+01      2.993011000000000E-01     -1.750781000000000E+02      6.531372000000000E-01     -9.027344000000000E+01
4804000000.000000      3.296814000000000E-01     -1.182539000000000E+02      3.131714000000000E-01     -6.144140000000000E+01      3.036346000000000E-01     -1.751406000000000E+02      6.529846000000000E-01     -9.034765000000000E+01
4805000000.000000      3.306427000000000E-01     -1.194141000000000E+02      3.168793000000000E-01     -6.169922000000000E+01      3.081665000000000E-01     -1.749219000000000E+02      6.528931000000000E-01     -9.049999000000000E+01
4806000000.000000      3.293610000000000E-01     -1.203477000000000E+02      3.215790000000000E-01     -6.185351000000000E+01      3.106079000000000E-01     -1.747656000000000E+02      6.528015000000000E-01     -9.058985000000000E+01
4807000000.000000      3.296814000000000E-01     -1.214531000000000E+02      3.257141000000000E-01     -6.204296000000000E+01      3.165436000000000E-01     -1.747422000000000E+02      6.506653000000000E-01     -9.067186000000000E+01
4808000000.000000      3.303375000000000E-01     -1.224766000000000E+02      3.309631000000000E-01     -6.189453000000000E+01      3.194427000000000E-01     -1.747969000000000E+02      6.504822000000000E-01     -9.072266000000000E+01
4809000000.000000      3.309937000000000E-01     -1.235430000000000E+02      3.346863000000000E-01     -6.266992000000000E+01      3.244476000000000E-01     -1.747422000000000E+02      6.498718000000000E-01     -9.085938000000000E+01
4810000000.000000      3.318787000000000E-01     -1.246562000000000E+02      3.393097000000000E-01     -6.259375000000000E+01      3.274384000000000E-01     -1.745312000000000E+02      6.510620000000000E-01     -9.094141000000000E+01
4811000000.000000      3.327179000000000E-01     -1.257344000000000E+02      3.435516000000000E-01     -6.282031000000000E+01      3.325195000000000E-01     -1.745000000000000E+02      6.492004000000000E-01     -9.091406000000000E+01
4812000000.000000      3.344879000000000E-01     -1.267188000000000E+02      3.475342000000000E-01     -6.315430000000000E+01      3.363800000000000E-01     -1.743438000000000E+02      6.504211000000000E-01     -9.098827000000000E+01
4813000000.000000      3.351593000000000E-01     -1.278984000000000E+02      3.521729000000000E-01     -6.332617000000000E+01      3.404236000000000E-01     -1.743672000000000E+02      6.494446000000000E-01     -9.105078000000000E+01
4814000000.000000      3.361511000000000E-01     -1.291172000000000E+02      3.561096000000000E-01     -6.348633000000000E+01      3.442383000000000E-01     -1.743281000000000E+02      6.492004000000000E-01     -9.125780000000000E+01
4815000000.000000      3.381653000000000E-01     -1.300469000000000E+02      3.600464000000000E-01     -6.366992000000000E+01      3.477325000000000E-01     -1.743203000000000E+02      6.484375000000000E-01     -9.129297000000000E+01
4816000000.000000      3.400879000000000E-01     -1.311172000000000E+02      3.640594000000000E-01     -6.378906000000000E+01      3.532410000000000E-01     -1.741719000000000E+02      6.490173000000000E-01     -9.134375000000000E+01
4817000000.000000      3.423615000000000E-01     -1.322187000000000E+02      3.682709000000000E-01     -6.410937000000000E+01      3.558350000000000E-01     -1.742656000000000E+02      6.488647000000000E-01     -9.152735000000000E+01
4818000000.000000      3.446655000000000E-01     -1.333984000000000E+02      3.711853000000000E-01     -6.440234000000000E+01      3.604736000000000E-01     -1.741797000000000E+02      6.498108000000000E-01     -9.159374000000000E+01
4819000000.000000      3.474579000000000E-01     -1.344687000000000E+02      3.754272000000000E-01     -6.452343000000000E+01      3.630371000000000E-01     -1.742422000000000E+02      6.513062000000000E-01     -9.169531000000000E+01
4820000000.000000      3.489380000000000E-01     -1.355000000000000E+02      3.796692000000000E-01     -6.486718000000000E+01      3.685455000000000E-01     -1.741016000000000E+02      6.512756000000000E-01     -9.175781000000000E+01
4821000000.000000      3.527985000000000E-01     -1.366250000000000E+02      3.836212000000000E-01     -6.503515000000000E+01      3.712769000000000E-01     -1.742812000000000E+02      6.508484000000000E-01     -9.190233000000000E+01
4822000000.000000      3.571625000000000E-01     -1.377031000000000E+02      3.865204000000000E-01     -6.526172000000000E+01      3.753357000000000E-01     -1.742188000000000E+02      6.530151000000000E-01     -9.193750000000000E+01
4823000000.000000      3.593750000000000E-01     -1.386094000000000E+02      3.909760000000000E-01     -6.560156000000000E+01      3.792877000000000E-01     -1.740781000000000E+02      6.534119000000000E-01     -9.197266000000000E+01
4824000000.000000      3.635864000000000E-01     -1.398125000000000E+02      3.945923000000000E-01     -6.597265000000000E+01      3.841553000000000E-01     -1.742031000000000E+02      6.551208000000000E-01     -9.205858000000000E+01
4825000000.000000      3.666687000000000E-01     -1.407344000000000E+02      3.988342000000000E-01     -6.612499000000000E+01      3.878479000000000E-01     -1.741328000000000E+02      6.553955000000000E-01     -9.212500000000000E+01
4826000000.000000      3.715057000000000E-01     -1.417500000000000E+02      4.022064000000000E-01     -6.630468000000000E+01      3.908844000000000E-01     -1.742344000000000E+02      6.570740000000000E-01     -9.225389000000000E+01
4827000000.000000      3.752747000000000E-01     -1.425469000000000E+02      4.051361000000000E-01     -6.663671000000000E+01      3.951569000000000E-01     -1.741094000000000E+02      6.581421000000000E-01     -9.223436000000000E+01
4828000000.000000      3.803101000000000E-01     -1.436484000000000E+02      4.101257000000000E-01     -6.701953000000000E+01      3.986359000000000E-01     -1.740703000000000E+02      6.607361000000000E-01     -9.235155000000000E+01
4829000000.000000      3.827057000000000E-01     -1.445078000000000E+02      4.123535000000000E-01     -6.719921000000000E+01      4.031525000000000E-01     -1.741016000000000E+02      6.611938000000000E-01     -9.229687000000000E+01
4830000000.000000      3.878632000000000E-01     -1.454844000000000E+02      4.156647000000000E-01     -6.759375000000000E+01      4.074249000000000E-01     -1.741172000000000E+02      6.627197000000000E-01     -9.245703000000000E+01
4831000000.000000      3.915863000000000E-01     -1.463906000000000E+02      4.196014000000000E-01     -6.795703000000000E+01      4.115753000000000E-01     -1.741562000000000E+02      6.642456000000000E-01     -9.245703000000000E+01
4832000000.000000      3.980408000000000E-01     -1.472891000000000E+02      4.232330000000000E-01     -6.810937000000000E+01      4.150238000000000E-01     -1.741797000000000E+02      6.666565000000000E-01     -9.260157000000000E+01
4833000000.000000      4.025574000000000E-01     -1.482734000000000E+02      4.271698000000000E-01     -6.843750000000000E+01      4.198761000000000E-01     -1.742344000000000E+02      6.672668000000000E-01     -9.267187000000000E+01
4834000000.000000      4.072723000000000E-01     -1.491406000000000E+02      4.298248000000000E-01     -6.878906000000000E+01      4.237061000000000E-01     -1.742656000000000E+02      6.692200000000000E-01     -9.271484000000000E+01
4835000000.000000      4.118195000000000E-01     -1.498906000000000E+02      4.328308000000000E-01     -6.912499000000000E+01      4.277344000000000E-01     -1.743984000000000E+02      6.714478000000000E-01     -9.284374000000000E+01
4836000000.000000      4.176178000000000E-01     -1.506875000000000E+02      4.358826000000000E-01     -6.921875000000000E+01      4.315491000000000E-01     -1.743359000000000E+02      6.734009000000000E-01     -9.288280000000000E+01
4837000000.000000      4.225311000000000E-01     -1.515391000000000E+02      4.386902000000000E-01     -6.998828000000000E+01      4.351807000000000E-01     -1.745547000000000E+02      6.750793000000000E-01     -9.284374000000000E+01
4838000000.000000      4.277344000000000E-01     -1.523672000000000E+02      4.434052000000000E-01     -6.999609000000000E+01      4.395447000000000E-01     -1.745078000000000E+02      6.771851000000000E-01     -9.301561000000000E+01
4839000000.000000      4.326935000000000E-01     -1.530156000000000E+02      4.457703000000000E-01     -7.021874000000000E+01      4.432373000000000E-01     -1.745312000000000E+02      6.795044000000000E-01     -9.295702000000000E+01
4840000000.000000      4.373169000000000E-01     -1.538672000000000E+02      4.485321000000000E-01     -7.071875000000000E+01      4.477692000000000E-01     -1.747031000000000E+02      6.822205000000000E-01     -9.310547000000000E+01
4841000000.000000      4.428253000000000E-01     -1.547969000000000E+02      4.513702000000000E-01     -7.103906000000000E+01      4.521637000000000E-01     -1.747266000000000E+02      6.831970000000000E-01     -9.321484000000000E+01
4842000000.000000      4.486389000000000E-01     -1.553828000000000E+02      4.546051000000000E-01     -7.128124000000000E+01      4.550934000000000E-01     -1.747813000000000E+02      6.864624000000000E-01     -9.308203000000000E+01
4843000000.000000      4.531250000000000E-01     -1.561719000000000E+02      4.575195000000000E-01     -7.184765000000000E+01      4.597778000000000E-01     -1.748672000000000E+02      6.888123000000000E-01     -9.314062000000000E+01
4844000000.000000      4.581757000000000E-01     -1.568125000000000E+02      4.592133000000000E-01     -7.203515000000000E+01      4.629517000000000E-01     -1.749922000000000E+02      6.912537000000000E-01     -9.316406000000000E+01
4845000000.000000      4.633942000000000E-01     -1.574375000000000E+02      4.625854000000000E-01     -7.228125000000000E+01      4.676208000000000E-01     -1.750469000000000E+02      6.930237000000000E-01     -9.326172000000000E+01
4846000000.000000      4.682312000000000E-01     -1.581172000000000E+02      4.642944000000000E-01     -7.259375000000000E+01      4.725342000000000E-01     -1.751562000000000E+02      6.968079000000000E-01     -9.333984000000000E+01
4847000000.000000      4.740601000000000E-01     -1.587578000000000E+02      4.676361000000000E-01     -7.283984000000000E+01      4.756775000000000E-01     -1.753125000000000E+02      7.004700000000000E-01     -9.349218000000000E+01
4848000000.000000      4.788208000000000E-01     -1.593203000000000E+02      4.696503000000000E-01     -7.309765000000000E+01      4.798126000000000E-01     -1.753906000000000E+02      7.008972000000000E-01     -9.351171000000000E+01
4849000000.000000      4.836578000000000E-01     -1.602813000000000E+02      4.725189000000000E-01     -7.365624000000000E+01      4.840240000000000E-01     -1.755547000000000E+02      7.052917000000000E-01     -9.358202000000000E+01
4850000000.000000      4.886169000000000E-01     -1.606328000000000E+02      4.747467000000000E-01     -7.378515000000000E+01      4.875031000000000E-01     -1.756250000000000E+02      7.077942000000000E-01     -9.349218000000000E+01
4851000000.000000      4.932251000000000E-01     -1.612890000000000E+02      4.772491000000000E-01     -7.439062000000000E+01      4.911041000000000E-01     -1.757344000000000E+02      7.100830000000000E-01     -9.362499000000000E+01
4852000000.000000      4.980927000000000E-01     -1.619062000000000E+02      4.794922000000000E-01     -7.449219000000000E+01      4.956207000000000E-01     -1.758516000000000E+02      7.129211000000000E-01     -9.353516000000000E+01
4853000000.000000      5.028381000000000E-01     -1.624375000000000E+02      4.792938000000000E-01     -7.488281000000000E+01      4.995575000000000E-01     -1.760625000000000E+02      7.148132000000000E-01     -9.371094000000000E+01
4854000000.000000      5.071106000000000E-01     -1.629609000000000E+02      4.837036000000000E-01     -7.529297000000000E+01      5.022278000000000E-01     -1.761328000000000E+02      7.189636000000000E-01     -9.373047000000000E+01
4855000000.000000      5.100403000000000E-01     -1.635391000000000E+02      4.848328000000000E-01     -7.552343000000000E+01      5.071411000000000E-01     -1.763281000000000E+02      7.200928000000000E-01     -9.382030000000000E+01
4856000000.000000      5.153503000000000E-01     -1.640312000000000E+02      4.870148000000000E-01     -7.570703000000000E+01      5.102234000000000E-01     -1.764844000000000E+02      7.251892000000000E-01     -9.381639000000000E+01
4857000000.000000      5.191345000000000E-01     -1.646484000000000E+02      4.891510000000000E-01     -7.608203000000000E+01      5.140076000000000E-01     -1.766094000000000E+02      7.272644000000000E-01     -9.383984000000000E+01
4858000000.000000      5.210571000000000E-01     -1.651484000000000E+02      4.907532000000000E-01     -7.642968000000000E+01      5.178528000000000E-01     -1.768047000000000E+02      7.302551000000000E-01     -9.393749000000000E+01
4859000000.000000      5.258179000000000E-01     -1.656406000000000E+02      4.928741000000000E-01     -7.688281000000000E+01      5.208130000000000E-01     -1.769453000000000E+02      7.336731000000000E-01     -9.407812000000000E+01
4860000000.000000      5.305786000000000E-01     -1.661250000000000E+02      4.952087000000000E-01     -7.687500000000000E+01      5.240173000000000E-01     -1.770937000000000E+02      7.363281000000000E-01     -9.395311000000000E+01
4861000000.000000      5.331116000000000E-01     -1.664141000000000E+02      4.968109000000000E-01     -7.745703000000000E+01      5.278931000000000E-01     -1.772578000000000E+02      7.384033000000000E-01     -9.414063000000000E+01
4862000000.000000      5.357361000000000E-01     -1.669609000000000E+02      4.971924000000000E-01     -7.769531000000000E+01      5.326233000000000E-01     -1.774765000000000E+02      7.435608000000000E-01     -9.412500000000000E+01
4863000000.000000      5.385437000000000E-01     -1.673437000000000E+02      4.993134000000000E-01     -7.813281000000000E+01      5.357056000000000E-01     -1.777109000000000E+02      7.451782000000000E-01     -9.414843000000000E+01
4864000000.000000      5.415039000000000E-01     -1.677891000000000E+02      5.007935000000000E-01     -7.830859000000000E+01      5.364380000000000E-01     -1.777344000000000E+02      7.468262000000000E-01     -9.420702000000000E+01
4865000000.000000      5.433960000000000E-01     -1.682891000000000E+02      5.020142000000000E-01     -7.864452000000000E+01      5.386658000000000E-01     -1.780547000000000E+02      7.520447000000000E-01     -9.414063000000000E+01
4866000000.000000      5.459290000000000E-01     -1.685313000000000E+02      5.046387000000000E-01     -7.884375000000000E+01      5.443115000000000E-01     -1.781563000000000E+02      7.535706000000000E-01     -9.413280000000000E+01
4867000000.000000      5.484009000000000E-01     -1.688594000000000E+02      5.045776000000000E-01     -7.925781000000000E+01      5.475159000000000E-01     -1.784297000000000E+02      7.581482000000000E-01     -9.429296000000000E+01
4868000000.000000      5.506287000000000E-01     -1.693672000000000E+02      5.050049000000000E-01     -7.939453000000000E+01      5.499878000000000E-01     -1.786094000000000E+02      7.600708000000000E-01     -9.441015000000000E+01
4869000000.000000      5.516968000000000E-01     -1.695234000000000E+02      5.070496000000000E-01     -7.964844000000000E+01      5.525208000000000E-01     -1.789063000000000E+02      7.622375000000000E-01     -9.442968000000000E+01
4870000000.000000      5.538025000000000E-01     -1.699062000000000E+02      5.093994000000000E-01     -7.983593000000000E+01      5.550537000000000E-01     -1.790469000000000E+02      7.653809000000000E-01     -9.432812000000000E+01
4871000000.000000      5.554504000000000E-01     -1.702734000000000E+02      5.093079000000000E-01     -7.999609000000000E+01      5.575562000000000E-01     -1.793437000000000E+02      7.664795000000000E-01     -9.439062000000000E+01
4872000000.000000      5.576782000000000E-01     -1.704922000000000E+02      5.092163000000000E-01     -8.021875000000000E+01      5.606384000000000E-01     -1.794922000000000E+02      7.701416000000000E-01     -9.443359000000000E+01
4873000000.000000      5.578003000000000E-01     -1.707344000000000E+02      5.095520000000000E-01     -8.065233000000000E+01      5.622864000000000E-01     -1.795234000000000E+02      7.716980000000000E-01     -9.455858000000000E+01
4874000000.000000      5.587158000000000E-01     -1.710312000000000E+02      5.133057000000000E-01     -8.084764000000000E+01      5.653992000000000E-01     -1.798750000000000E+02      7.738953000000000E-01     -9.451952000000000E+01
4875000000.000000      5.605469000000000E-01     -1.712422000000000E+02      5.126648000000000E-01     -8.107031000000000E+01      5.684204000000000E-01      1.798281000000000E+02      7.759705000000000E-01     -9.463671000000000E+01
4876000000.000000      5.598450000000000E-01     -1.715312000000000E+02      5.135498000000000E-01     -8.141016000000000E+01      5.688782000000000E-01      1.797578000000000E+02      7.789612000000000E-01     -9.466406000000000E+01
4877000000.000000      5.609741000000000E-01     -1.716953000000000E+02      5.158691000000000E-01     -8.149609000000000E+01      5.717163000000000E-01      1.793203000000000E+02      7.812195000000000E-01     -9.470312000000000E+01
4878000000.000000      5.609436000000000E-01     -1.718594000000000E+02      5.165710000000000E-01     -8.167187000000000E+01      5.751648000000000E-01      1.793437000000000E+02      7.837524000000000E-01     -9.476563000000000E+01
4879000000.000000      5.625000000000000E-01     -1.721172000000000E+02      5.152588000000000E-01     -8.197266000000000E+01      5.760498000000000E-01      1.789141000000000E+02      7.858887000000000E-01     -9.475000000000000E+01
4880000000.000000      5.608215000000000E-01     -1.722578000000000E+02      5.184021000000000E-01     -8.220312000000000E+01      5.784912000000000E-01      1.788906000000000E+02      7.881470000000000E-01     -9.474609000000000E+01
4881000000.000000      5.621948000000000E-01     -1.723750000000000E+02      5.205994000000000E-01     -8.236719000000000E+01      5.813599000000000E-01      1.786016000000000E+02      7.894287000000000E-01     -9.486328000000000E+01
4882000000.000000      5.603638000000000E-01     -1.725312000000000E+02      5.199890000000000E-01     -8.250780000000000E+01      5.823364000000000E-01      1.785312000000000E+02      7.917480000000000E-01     -9.494921000000000E+01
