! Network Analyzer HP8722D
! Hewlett-Packard
! Data name: Linha & Wilkinson
! Saver's name: Rodrigo Anjos
! Comments: Teste da utilização de aquisição
continua pelo VNA HP8722D
! Time and date: 17/4/2025 12:21
!              Frequency                     S11                                                   S21                                                   S12                                                   S22
# HZ  S  MA R 50
4800000000.000000      3.334351000000000E-01     -1.146445000000000E+02      2.960052000000000E-01     -6.132030000000000E+01      2.893982000000000E-01     -1.754688000000000E+02      6.567078000000000E-01     -9.015234000000000E+01
4801000000.000000      3.323059000000000E-01     -1.156016000000000E+02      3.003540000000000E-01     -6.133007000000000E+01      2.926788000000000E-01     -1.753984000000000E+02      6.553650000000000E-01     -9.021875000000000E+01
4802000000.000000      3.312378000000000E-01     -1.166875000000000E+02      3.041382000000000E-01     -6.145898000000000E+01      2.976227000000000E-01     -1.753281000000000E+02      6.531677000000000E-01     -9.029297000000000E+01
4803000000.000000      3.309937000000000E-01     -1.176601000000000E+02      3.103333000000000E-01     -6.138476000000000E+01      3.008575000000000E-01     -1.751719000000000E+02      6.532898000000000E-01     -9.023829000000000E+01
4804000000.000000      3.297272000000000E-01     -1.185703000000000E+02      3.138275000000000E-01     -6.175195000000000E+01      3.050690000000000E-01     -1.751641000000000E+02      6.524658000000000E-01     -9.049999000000000E+01
4805000000.000000      3.303680000000000E-01     -1.195976000000000E+02      3.190765000000000E-01     -6.172656000000000E+01      3.092499000000000E-01     -1.750078000000000E+02      6.523743000000000E-01     -9.057421000000000E+01
4806000000.000000      3.298950000000000E-01     -1.206211000000000E+02      3.231659000000000E-01     -6.194921000000000E+01      3.126678000000000E-01     -1.748203000000000E+02      6.515503000000000E-01     -9.067968000000000E+01
4807000000.000000      3.305511000000000E-01     -1.216289000000000E+02      3.269043000000000E-01     -6.212891000000000E+01      3.174286000000000E-01     -1.749687000000000E+02      6.506653000000000E-01     -9.072657000000000E+01
4808000000.000000      3.304291000000000E-01     -1.227305000000000E+02      3.323364000000000E-01     -6.212109000000000E+01      3.211517000000000E-01     -1.748516000000000E+02      6.501770000000000E-01     -9.079687000000000E+01
4809000000.000000      3.303375000000000E-01     -1.237461000000000E+02      3.360901000000000E-01     -6.265820000000000E+01      3.258057000000000E-01     -1.748984000000000E+02      6.494446000000000E-01     -9.097265000000000E+01
4810000000.000000      3.316650000000000E-01     -1.249453000000000E+02      3.413544000000000E-01     -6.267187000000000E+01      3.289185000000000E-01     -1.747578000000000E+02      6.496887000000000E-01     -9.114061000000000E+01
4811000000.000000      3.330231000000000E-01     -1.259609000000000E+02      3.455200000000000E-01     -6.301367000000000E+01      3.346252000000000E-01     -1.747734000000000E+02      6.487427000000000E-01     -9.101954000000000E+01
4812000000.000000      3.345795000000000E-01     -1.269844000000000E+02      3.489380000000000E-01     -6.305078000000000E+01      3.383789000000000E-01     -1.745234000000000E+02      6.493225000000000E-01     -9.122656000000000E+01
4813000000.000000      3.349152000000000E-01     -1.281406000000000E+02      3.535614000000000E-01     -6.336328000000000E+01      3.419037000000000E-01     -1.743828000000000E+02      6.484985000000000E-01     -9.112499000000000E+01
4814000000.000000      3.362274000000000E-01     -1.293594000000000E+02      3.567047000000000E-01     -6.360546000000000E+01      3.454437000000000E-01     -1.744922000000000E+02      6.495972000000000E-01     -9.141796000000000E+01
4815000000.000000      3.385468000000000E-01     -1.302969000000000E+02      3.607788000000000E-01     -6.382421000000000E+01      3.495636000000000E-01     -1.743515000000000E+02      6.484985000000000E-01     -9.139063000000000E+01
4816000000.000000      3.404541000000000E-01     -1.313984000000000E+02      3.654327000000000E-01     -6.379883000000000E+01      3.543091000000000E-01     -1.743906000000000E+02      6.498108000000000E-01     -9.146484000000000E+01
4817000000.000000      3.435059000000000E-01     -1.324453000000000E+02      3.697205000000000E-01     -6.430859000000000E+01      3.571777000000000E-01     -1.744297000000000E+02      6.488342000000000E-01     -9.160936000000000E+01
4818000000.000000      3.454895000000000E-01     -1.335938000000000E+02      3.729095000000000E-01     -6.446094000000000E+01      3.614197000000000E-01     -1.743281000000000E+02      6.499634000000000E-01     -9.172266000000000E+01
4819000000.000000      3.480530000000000E-01     -1.346328000000000E+02      3.776550000000000E-01     -6.472656000000000E+01      3.647461000000000E-01     -1.743047000000000E+02      6.518250000000000E-01     -9.179296000000000E+01
4820000000.000000      3.496857000000000E-01     -1.356484000000000E+02      3.806152000000000E-01     -6.486328000000000E+01      3.690186000000000E-01     -1.742891000000000E+02      6.514893000000000E-01     -9.188671000000000E+01
4821000000.000000      3.532104000000000E-01     -1.368594000000000E+02      3.847961000000000E-01     -6.535546000000000E+01      3.730011000000000E-01     -1.744531000000000E+02      6.512146000000000E-01     -9.194921000000000E+01
4822000000.000000      3.578949000000000E-01     -1.379375000000000E+02      3.883820000000000E-01     -6.542187000000000E+01      3.762665000000000E-01     -1.743984000000000E+02      6.537170000000000E-01     -9.191406000000000E+01
4823000000.000000      3.599243000000000E-01     -1.388672000000000E+02      3.921356000000000E-01     -6.577343000000000E+01      3.804474000000000E-01     -1.742578000000000E+02      6.539001000000000E-01     -9.216015000000000E+01
4824000000.000000      3.638153000000000E-01     -1.399922000000000E+02      3.959656000000000E-01     -6.603125000000000E+01      3.860474000000000E-01     -1.743125000000000E+02      6.552429000000000E-01     -9.208984000000000E+01
4825000000.000000      3.675995000000000E-01     -1.409609000000000E+02      3.993683000000000E-01     -6.635156000000000E+01      3.895416000000000E-01     -1.743359000000000E+02      6.552734000000000E-01     -9.226171000000000E+01
4826000000.000000      3.718567000000000E-01     -1.419531000000000E+02      4.033813000000000E-01     -6.673437000000000E+01      3.920441000000000E-01     -1.743906000000000E+02      6.571655000000000E-01     -9.232031000000000E+01
4827000000.000000      3.760223000000000E-01     -1.428047000000000E+02      4.072571000000000E-01     -6.682031000000000E+01      3.962860000000000E-01     -1.742891000000000E+02      6.579590000000000E-01     -9.235937000000000E+01
4828000000.000000      3.800812000000000E-01     -1.438359000000000E+02      4.101715000000000E-01     -6.705078000000000E+01      4.000702000000000E-01     -1.743515000000000E+02      6.605835000000000E-01     -9.237108000000000E+01
4829000000.000000      3.829803000000000E-01     -1.447109000000000E+02      4.133911000000000E-01     -6.753124000000000E+01      4.038086000000000E-01     -1.743281000000000E+02      6.614990000000000E-01     -9.242188000000000E+01
4830000000.000000      3.890228000000000E-01     -1.457344000000000E+02      4.176636000000000E-01     -6.779687000000000E+01      4.087067000000000E-01     -1.743203000000000E+02      6.625671000000000E-01     -9.258204000000000E+01
4831000000.000000      3.928986000000000E-01     -1.466484000000000E+02      4.208984000000000E-01     -6.800390000000000E+01      4.130859000000000E-01     -1.742422000000000E+02      6.649170000000000E-01     -9.264063000000000E+01
4832000000.000000      3.986359000000000E-01     -1.475156000000000E+02      4.240723000000000E-01     -6.837500000000000E+01      4.164581000000000E-01     -1.744062000000000E+02      6.662598000000000E-01     -9.278124000000000E+01
4833000000.000000      4.030151000000000E-01     -1.485078000000000E+02      4.276733000000000E-01     -6.863671000000000E+01      4.205933000000000E-01     -1.744141000000000E+02      6.679993000000000E-01     -9.276171000000000E+01
4834000000.000000      4.078979000000000E-01     -1.493515000000000E+02      4.306030000000000E-01     -6.885937000000000E+01      4.241333000000000E-01     -1.745000000000000E+02      6.686401000000000E-01     -9.273438000000000E+01
4835000000.000000      4.122467000000000E-01     -1.501797000000000E+02      4.343719000000000E-01     -6.928905000000000E+01      4.294891000000000E-01     -1.745234000000000E+02      6.711121000000000E-01     -9.291796000000000E+01
4836000000.000000      4.179230000000000E-01     -1.509297000000000E+02      4.369507000000000E-01     -6.958984000000000E+01      4.324188000000000E-01     -1.744766000000000E+02      6.719971000000000E-01     -9.295702000000000E+01
4837000000.000000      4.230499000000000E-01     -1.516875000000000E+02      4.395447000000000E-01     -7.015625000000000E+01      4.363708000000000E-01     -1.747344000000000E+02      6.742859000000000E-01     -9.304688000000000E+01
4838000000.000000      4.283752000000000E-01     -1.526094000000000E+02      4.442749000000000E-01     -7.019921000000000E+01      4.408264000000000E-01     -1.747109000000000E+02      6.780396000000000E-01     -9.304296000000000E+01
4839000000.000000      4.337769000000000E-01     -1.532812000000000E+02      4.457245000000000E-01     -7.048828000000000E+01      4.442902000000000E-01     -1.746953000000000E+02      6.802673000000000E-01     -9.296484000000000E+01
4840000000.000000      4.385986000000000E-01     -1.541250000000000E+02      4.486389000000000E-01     -7.080468000000000E+01      4.487915000000000E-01     -1.748594000000000E+02      6.813049000000000E-01     -9.314062000000000E+01
4841000000.000000      4.433594000000000E-01     -1.549922000000000E+02      4.514313000000000E-01     -7.119922000000000E+01      4.529419000000000E-01     -1.749609000000000E+02      6.840820000000000E-01     -9.322657000000000E+01
4842000000.000000      4.492798000000000E-01     -1.555781000000000E+02      4.551544000000000E-01     -7.151172000000000E+01      4.553680000000000E-01     -1.750078000000000E+02      6.871033000000000E-01     -9.318750000000000E+01
4843000000.000000      4.536896000000000E-01     -1.563984000000000E+02      4.582214000000000E-01     -7.183594000000000E+01      4.603119000000000E-01     -1.750781000000000E+02      6.884155000000000E-01     -9.322266000000000E+01
4844000000.000000      4.586639000000000E-01     -1.570937000000000E+02      4.593201000000000E-01     -7.212891000000000E+01      4.636993000000000E-01     -1.751953000000000E+02      6.915283000000000E-01     -9.323046000000000E+01
4845000000.000000      4.634552000000000E-01     -1.576562000000000E+02      4.627380000000000E-01     -7.239452000000000E+01      4.685211000000000E-01     -1.752891000000000E+02      6.947937000000000E-01     -9.343750000000000E+01
4846000000.000000      4.687805000000000E-01     -1.582578000000000E+02      4.654083000000000E-01     -7.266015000000000E+01      4.730072000000000E-01     -1.753203000000000E+02      6.972351000000000E-01     -9.341015000000000E+01
4847000000.000000      4.746246000000000E-01     -1.589922000000000E+02      4.681396000000000E-01     -7.308203000000000E+01      4.766998000000000E-01     -1.755625000000000E+02      6.994019000000000E-01     -9.354296000000000E+01
4848000000.000000      4.792328000000000E-01     -1.596562000000000E+02      4.698944000000000E-01     -7.332421000000000E+01      4.804840000000000E-01     -1.755469000000000E+02      7.017822000000000E-01     -9.355860000000000E+01
4849000000.000000      4.842377000000000E-01     -1.605312000000000E+02      4.736023000000000E-01     -7.376171000000000E+01      4.850616000000000E-01     -1.757344000000000E+02      7.059937000000000E-01     -9.352734000000000E+01
4850000000.000000      4.891510000000000E-01     -1.609141000000000E+02      4.757996000000000E-01     -7.402344000000000E+01      4.883118000000000E-01     -1.757969000000000E+02      7.067871000000000E-01     -9.368359000000000E+01
4851000000.000000      4.941864000000000E-01     -1.614844000000000E+02      4.778137000000000E-01     -7.442968000000000E+01      4.920959000000000E-01     -1.759140000000000E+02      7.120972000000000E-01     -9.373438000000000E+01
4852000000.000000      4.989166000000000E-01     -1.621406000000000E+02      4.797058000000000E-01     -7.460155000000000E+01      4.964752000000000E-01     -1.760625000000000E+02      7.138977000000000E-01     -9.369141000000000E+01
4853000000.000000      5.030518000000000E-01     -1.626406000000000E+02      4.803467000000000E-01     -7.501953000000000E+01      5.000610000000000E-01     -1.762500000000000E+02      7.167664000000000E-01     -9.385937000000000E+01
4854000000.000000      5.075378000000000E-01     -1.631875000000000E+02      4.838562000000000E-01     -7.548046000000000E+01      5.031128000000000E-01     -1.762891000000000E+02      7.195435000000000E-01     -9.375780000000000E+01
4855000000.000000      5.110474000000000E-01     -1.637969000000000E+02      4.852905000000000E-01     -7.569140000000000E+01      5.072632000000000E-01     -1.764922000000000E+02      7.211609000000000E-01     -9.376562000000000E+01
4856000000.000000      5.158997000000000E-01     -1.642500000000000E+02      4.879761000000000E-01     -7.599999000000000E+01      5.116272000000000E-01     -1.766719000000000E+02      7.258606000000000E-01     -9.384766000000000E+01
4857000000.000000      5.196533000000000E-01     -1.648125000000000E+02      4.898071000000000E-01     -7.634375000000000E+01      5.140686000000000E-01     -1.767812000000000E+02      7.272644000000000E-01     -9.394140000000000E+01
4858000000.000000      5.214539000000000E-01     -1.653906000000000E+02      4.915314000000000E-01     -7.664844000000000E+01      5.187378000000000E-01     -1.769297000000000E+02      7.297058000000000E-01     -9.398829000000000E+01
4859000000.000000      5.262146000000000E-01     -1.658047000000000E+02      4.933929000000000E-01     -7.692187000000000E+01      5.208740000000000E-01     -1.772734000000000E+02      7.338562000000000E-01     -9.415625000000000E+01
4860000000.000000      5.308533000000000E-01     -1.662656000000000E+02      4.951019000000000E-01     -7.723046000000000E+01      5.253296000000000E-01     -1.771719000000000E+02      7.354126000000000E-01     -9.394531000000000E+01
4861000000.000000      5.331116000000000E-01     -1.667109000000000E+02      4.971161000000000E-01     -7.762109000000000E+01      5.293274000000000E-01     -1.773984000000000E+02      7.397156000000000E-01     -9.417969000000000E+01
4862000000.000000      5.361938000000000E-01     -1.671172000000000E+02      4.993744000000000E-01     -7.783203000000000E+01      5.321350000000000E-01     -1.775938000000000E+02      7.437744000000000E-01     -9.410936000000000E+01
4863000000.000000      5.382690000000000E-01     -1.675469000000000E+02      4.997864000000000E-01     -7.826562000000000E+01      5.356140000000000E-01     -1.779140000000000E+02      7.454529000000000E-01     -9.419922000000000E+01
4864000000.000000      5.419312000000000E-01     -1.680000000000000E+02      5.021667000000000E-01     -7.842968000000000E+01      5.377808000000000E-01     -1.778828000000000E+02      7.485657000000000E-01     -9.432812000000000E+01
4865000000.000000      5.438538000000000E-01     -1.684844000000000E+02      5.023804000000000E-01     -7.865234000000000E+01      5.416870000000000E-01     -1.781875000000000E+02      7.511597000000000E-01     -9.429688000000000E+01
4866000000.000000      5.456543000000000E-01     -1.687734000000000E+02      5.036316000000000E-01     -7.894921000000000E+01      5.445557000000000E-01     -1.784297000000000E+02      7.530823000000000E-01     -9.427734000000000E+01
4867000000.000000      5.479126000000000E-01     -1.691094000000000E+02      5.050354000000000E-01     -7.932812000000000E+01      5.477905000000000E-01     -1.784609000000000E+02      7.573853000000000E-01     -9.423828000000000E+01
4868000000.000000      5.498962000000000E-01     -1.695625000000000E+02      5.067139000000000E-01     -7.952343000000000E+01      5.514221000000000E-01     -1.786875000000000E+02      7.594299000000000E-01     -9.438280000000000E+01
4869000000.000000      5.517578000000000E-01     -1.698906000000000E+02      5.071411000000000E-01     -7.990234000000000E+01      5.522461000000000E-01     -1.789531000000000E+02      7.632446000000000E-01     -9.452343000000000E+01
4870000000.000000      5.535889000000000E-01     -1.701484000000000E+02      5.084534000000000E-01     -8.011719000000000E+01      5.559998000000000E-01     -1.790859000000000E+02      7.651062000000000E-01     -9.444921000000000E+01
4871000000.000000      5.553894000000000E-01     -1.704609000000000E+02      5.098267000000000E-01     -8.026171000000000E+01      5.585327000000000E-01     -1.795000000000000E+02      7.671204000000000E-01     -9.448828000000000E+01
4872000000.000000      5.575867000000000E-01     -1.707187000000000E+02      5.101013000000000E-01     -8.052343000000000E+01      5.599060000000000E-01     -1.796953000000000E+02      7.697754000000000E-01     -9.454296000000000E+01
4873000000.000000      5.581970000000000E-01     -1.709453000000000E+02      5.113831000000000E-01     -8.080469000000000E+01      5.634766000000000E-01     -1.798594000000000E+02      7.715759000000000E-01     -9.465235000000000E+01
4874000000.000000      5.588074000000000E-01     -1.712109000000000E+02      5.125122000000000E-01     -8.111719000000000E+01      5.673523000000000E-01      1.799531000000000E+02      7.744141000000000E-01     -9.453125000000000E+01
4875000000.000000      5.598145000000000E-01     -1.714531000000000E+02      5.131531000000000E-01     -8.106249000000000E+01      5.683899000000000E-01      1.796094000000000E+02      7.766113000000000E-01     -9.477734000000000E+01
4876000000.000000      5.597229000000000E-01     -1.717031000000000E+02      5.154724000000000E-01     -8.140234000000000E+01      5.707397000000000E-01      1.794141000000000E+02      7.791138000000000E-01     -9.477734000000000E+01
4877000000.000000      5.602722000000000E-01     -1.717969000000000E+02      5.143127000000000E-01     -8.156250000000000E+01      5.727539000000000E-01      1.791953000000000E+02      7.807617000000000E-01     -9.495703000000000E+01
4878000000.000000      5.607605000000000E-01     -1.720937000000000E+02      5.173950000000000E-01     -8.177343000000000E+01      5.746765000000000E-01      1.791953000000000E+02      7.852478000000000E-01     -9.493750000000000E+01
4879000000.000000      5.615234000000000E-01     -1.722812000000000E+02      5.158386000000000E-01     -8.223827000000000E+01      5.772095000000000E-01      1.789375000000000E+02      7.857971000000000E-01     -9.484375000000000E+01
4880000000.000000      5.614929000000000E-01     -1.725234000000000E+02      5.177917000000000E-01     -8.227734000000000E+01      5.796814000000000E-01      1.787734000000000E+02      7.884827000000000E-01     -9.489061000000000E+01
4881000000.000000      5.612488000000000E-01     -1.726172000000000E+02      5.205994000000000E-01     -8.238281000000000E+01      5.812683000000000E-01      1.784141000000000E+02      7.897339000000000E-01     -9.500391000000000E+01
4882000000.000000      5.606079000000000E-01     -1.727578000000000E+02      5.212708000000000E-01     -8.278515000000000E+01      5.830994000000000E-01      1.783281000000000E+02      7.915649000000000E-01     -9.510157000000000E+01
