! Network Analyzer HP8722D
! Hewlett-Packard
! Data name: Linha & Wilkinson
! Saver's name: Rodrigo Anjos
! Comments: Teste da utilização de aquisição
continua pelo VNA HP8722D
! Time and date: 17/4/2025 12:30
!              Frequency                     S11                                                   S21                                                   S12                                                   S22
# HZ  S  MA R 50
4800000000.000000      3.329468000000000E-01     -1.139883000000000E+02      2.923431000000000E-01     -6.101563000000000E+01      2.860260000000000E-01     -1.753438000000000E+02      6.558533000000000E-01     -8.998827000000000E+01
4801000000.000000      3.317108000000000E-01     -1.149258000000000E+02      2.967529000000000E-01     -6.117188000000000E+01      2.891693000000000E-01     -1.752266000000000E+02      6.549988000000000E-01     -8.998438000000000E+01
4802000000.000000      3.307800000000000E-01     -1.160273000000000E+02      3.010559000000000E-01     -6.106054000000000E+01      2.935944000000000E-01     -1.750234000000000E+02      6.546936000000000E-01     -8.995312000000000E+01
4803000000.000000      3.300018000000000E-01     -1.169922000000000E+02      3.059235000000000E-01     -6.119726000000000E+01      2.971191000000000E-01     -1.749141000000000E+02      6.531982000000000E-01     -9.015234000000000E+01
4804000000.000000      3.302002000000000E-01     -1.180859000000000E+02      3.103027000000000E-01     -6.131836000000000E+01      3.022919000000000E-01     -1.750391000000000E+02      6.520386000000000E-01     -9.023046000000000E+01
4805000000.000000      3.298950000000000E-01     -1.190664000000000E+02      3.154144000000000E-01     -6.164257000000000E+01      3.053284000000000E-01     -1.747734000000000E+02      6.522522000000000E-01     -9.042578000000000E+01
4806000000.000000      3.291473000000000E-01     -1.200664000000000E+02      3.197021000000000E-01     -6.163086000000000E+01      3.092957000000000E-01     -1.746172000000000E+02      6.524048000000000E-01     -9.053905000000000E+01
4807000000.000000      3.294067000000000E-01     -1.211406000000000E+02      3.236847000000000E-01     -6.188477000000000E+01      3.138275000000000E-01     -1.746641000000000E+02      6.503906000000000E-01     -9.055079000000000E+01
4808000000.000000      3.298187000000000E-01     -1.221172000000000E+02      3.292389000000000E-01     -6.190820000000000E+01      3.175659000000000E-01     -1.745391000000000E+02      6.499023000000000E-01     -9.059765000000000E+01
4809000000.000000      3.301086000000000E-01     -1.232148000000000E+02      3.329010000000000E-01     -6.224999000000000E+01      3.224640000000000E-01     -1.746172000000000E+02      6.497498000000000E-01     -9.080469000000000E+01
4810000000.000000      3.307648000000000E-01     -1.244023000000000E+02      3.368530000000000E-01     -6.239843000000000E+01      3.256073000000000E-01     -1.744375000000000E+02      6.505127000000000E-01     -9.092577000000000E+01
4811000000.000000      3.319397000000000E-01     -1.253945000000000E+02      3.420105000000000E-01     -6.280663000000000E+01      3.311462000000000E-01     -1.744062000000000E+02      6.493530000000000E-01     -9.091015000000000E+01
4812000000.000000      3.333893000000000E-01     -1.264453000000000E+02      3.458252000000000E-01     -6.291601000000000E+01      3.344727000000000E-01     -1.742344000000000E+02      6.493225000000000E-01     -9.094530000000000E+01
4813000000.000000      3.347626000000000E-01     -1.275352000000000E+02      3.493500000000000E-01     -6.317968000000000E+01      3.378448000000000E-01     -1.741719000000000E+02      6.485596000000000E-01     -9.108593000000000E+01
4814000000.000000      3.359528000000000E-01     -1.288125000000000E+02      3.541870000000000E-01     -6.317577000000000E+01      3.423462000000000E-01     -1.741250000000000E+02      6.488953000000000E-01     -9.111719000000000E+01
4815000000.000000      3.371582000000000E-01     -1.297188000000000E+02      3.584595000000000E-01     -6.347656000000000E+01      3.456116000000000E-01     -1.741562000000000E+02      6.476440000000000E-01     -9.124218000000000E+01
4816000000.000000      3.394623000000000E-01     -1.308516000000000E+02      3.630219000000000E-01     -6.349999000000000E+01      3.506927000000000E-01     -1.740703000000000E+02      6.489563000000000E-01     -9.134766000000000E+01
4817000000.000000      3.420563000000000E-01     -1.318984000000000E+02      3.667297000000000E-01     -6.393945000000000E+01      3.541870000000000E-01     -1.739922000000000E+02      6.484985000000000E-01     -9.151171000000000E+01
4818000000.000000      3.439026000000000E-01     -1.330469000000000E+02      3.695374000000000E-01     -6.417969000000000E+01      3.588409000000000E-01     -1.739375000000000E+02      6.489868000000000E-01     -9.147264000000000E+01
4819000000.000000      3.472443000000000E-01     -1.340391000000000E+02      3.741455000000000E-01     -6.432812000000000E+01      3.621826000000000E-01     -1.740469000000000E+02      6.513367000000000E-01     -9.156250000000000E+01
4820000000.000000      3.484497000000000E-01     -1.351953000000000E+02      3.786926000000000E-01     -6.461719000000000E+01      3.673096000000000E-01     -1.741016000000000E+02      6.506958000000000E-01     -9.170313000000000E+01
4821000000.000000      3.515167000000000E-01     -1.362266000000000E+02      3.816986000000000E-01     -6.494922000000000E+01      3.702850000000000E-01     -1.740547000000000E+02      6.521606000000000E-01     -9.184765000000000E+01
4822000000.000000      3.561096000000000E-01     -1.373516000000000E+02      3.853149000000000E-01     -6.508203000000000E+01      3.735504000000000E-01     -1.740703000000000E+02      6.529846000000000E-01     -9.172655000000000E+01
4823000000.000000      3.583832000000000E-01     -1.383359000000000E+02      3.892822000000000E-01     -6.538280000000000E+01      3.772278000000000E-01     -1.737813000000000E+02      6.533508000000000E-01     -9.190624000000000E+01
4824000000.000000      3.628540000000000E-01     -1.394063000000000E+02      3.930817000000000E-01     -6.575781000000000E+01      3.827667000000000E-01     -1.739453000000000E+02      6.542664000000000E-01     -9.201952000000000E+01
4825000000.000000      3.659668000000000E-01     -1.404063000000000E+02      3.964691000000000E-01     -6.588672000000000E+01      3.867188000000000E-01     -1.739531000000000E+02      6.559448000000000E-01     -9.193750000000000E+01
4826000000.000000      3.705444000000000E-01     -1.413984000000000E+02      4.008331000000000E-01     -6.629687000000000E+01      3.899384000000000E-01     -1.740078000000000E+02      6.568298000000000E-01     -9.215624000000000E+01
4827000000.000000      3.744812000000000E-01     -1.422578000000000E+02      4.043579000000000E-01     -6.632813000000000E+01      3.936615000000000E-01     -1.738906000000000E+02      6.586609000000000E-01     -9.206640000000000E+01
4828000000.000000      3.792267000000000E-01     -1.432812000000000E+02      4.083405000000000E-01     -6.682812000000000E+01      3.977966000000000E-01     -1.739063000000000E+02      6.596680000000000E-01     -9.215235000000000E+01
4829000000.000000      3.819122000000000E-01     -1.442266000000000E+02      4.104614000000000E-01     -6.695703000000000E+01      4.018402000000000E-01     -1.739219000000000E+02      6.603699000000000E-01     -9.224609000000000E+01
4830000000.000000      3.869324000000000E-01     -1.452031000000000E+02      4.145203000000000E-01     -6.733203000000000E+01      4.057922000000000E-01     -1.739141000000000E+02      6.633301000000000E-01     -9.239843000000000E+01
4831000000.000000      3.911133000000000E-01     -1.460938000000000E+02      4.180603000000000E-01     -6.777344000000000E+01      4.097290000000000E-01     -1.739375000000000E+02      6.636963000000000E-01     -9.244921000000000E+01
4832000000.000000      3.965607000000000E-01     -1.469766000000000E+02      4.215698000000000E-01     -6.793359000000000E+01      4.138641000000000E-01     -1.740313000000000E+02      6.663208000000000E-01     -9.256639000000000E+01
4833000000.000000      4.016876000000000E-01     -1.480391000000000E+02      4.258423000000000E-01     -6.822266000000000E+01      4.173889000000000E-01     -1.740625000000000E+02      6.671143000000000E-01     -9.257813000000000E+01
4834000000.000000      4.065857000000000E-01     -1.488047000000000E+02      4.277496000000000E-01     -6.856250000000000E+01      4.221649000000000E-01     -1.740391000000000E+02      6.683655000000000E-01     -9.267969000000000E+01
4835000000.000000      4.109955000000000E-01     -1.496016000000000E+02      4.327545000000000E-01     -6.883594000000000E+01      4.269257000000000E-01     -1.741641000000000E+02      6.718750000000000E-01     -9.271875000000000E+01
4836000000.000000      4.168701000000000E-01     -1.503828000000000E+02      4.350128000000000E-01     -6.927734000000000E+01      4.300385000000000E-01     -1.741953000000000E+02      6.728821000000000E-01     -9.267969000000000E+01
4837000000.000000      4.218750000000000E-01     -1.511953000000000E+02      4.371643000000000E-01     -6.971093000000000E+01      4.339142000000000E-01     -1.742500000000000E+02      6.743469000000000E-01     -9.285547000000000E+01
4838000000.000000      4.272003000000000E-01     -1.520469000000000E+02      4.414825000000000E-01     -6.964062000000000E+01      4.382172000000000E-01     -1.742734000000000E+02      6.773376000000000E-01     -9.282812000000000E+01
4839000000.000000      4.319763000000000E-01     -1.527500000000000E+02      4.441223000000000E-01     -7.013281000000000E+01      4.424591000000000E-01     -1.742578000000000E+02      6.806030000000000E-01     -9.282421000000000E+01
4840000000.000000      4.370117000000000E-01     -1.536406000000000E+02      4.467621000000000E-01     -7.047265000000000E+01      4.466858000000000E-01     -1.744609000000000E+02      6.812744000000000E-01     -9.298046000000000E+01
4841000000.000000      4.422760000000000E-01     -1.544453000000000E+02      4.496155000000000E-01     -7.072656000000000E+01      4.504089000000000E-01     -1.745312000000000E+02      6.833496000000000E-01     -9.301561000000000E+01
4842000000.000000      4.474792000000000E-01     -1.550547000000000E+02      4.525909000000000E-01     -7.106640000000000E+01      4.537964000000000E-01     -1.745937000000000E+02      6.860046000000000E-01     -9.309374000000000E+01
4843000000.000000      4.520874000000000E-01     -1.558828000000000E+02      4.557190000000000E-01     -7.149609000000000E+01      4.578094000000000E-01     -1.746094000000000E+02      6.893921000000000E-01     -9.307421000000000E+01
4844000000.000000      4.574280000000000E-01     -1.565703000000000E+02      4.582825000000000E-01     -7.175390000000000E+01      4.614868000000000E-01     -1.747187000000000E+02      6.905212000000000E-01     -9.311327000000000E+01
4845000000.000000      4.626007000000000E-01     -1.571406000000000E+02      4.607239000000000E-01     -7.200781000000000E+01      4.666748000000000E-01     -1.748437000000000E+02      6.940918000000000E-01     -9.324610000000000E+01
4846000000.000000      4.674225000000000E-01     -1.578125000000000E+02      4.633179000000000E-01     -7.235937000000000E+01      4.707794000000000E-01     -1.749531000000000E+02      6.962280000000000E-01     -9.315624000000000E+01
4847000000.000000      4.736023000000000E-01     -1.584922000000000E+02      4.662170000000000E-01     -7.260547000000000E+01      4.752045000000000E-01     -1.751094000000000E+02      7.005615000000000E-01     -9.325781000000000E+01
4848000000.000000      4.779968000000000E-01     -1.590859000000000E+02      4.682922000000000E-01     -7.294140000000000E+01      4.788361000000000E-01     -1.751172000000000E+02      7.022705000000000E-01     -9.331249000000000E+01
4849000000.000000      4.830780000000000E-01     -1.599688000000000E+02      4.716797000000000E-01     -7.336328000000000E+01      4.827881000000000E-01     -1.753438000000000E+02      7.043152000000000E-01     -9.342188000000000E+01
4850000000.000000      4.876404000000000E-01     -1.603984000000000E+02      4.734650000000000E-01     -7.350390000000000E+01      4.865265000000000E-01     -1.753828000000000E+02      7.073975000000000E-01     -9.338282000000000E+01
4851000000.000000      4.929199000000000E-01     -1.609141000000000E+02      4.775543000000000E-01     -7.413671000000000E+01      4.899902000000000E-01     -1.755156000000000E+02      7.108154000000000E-01     -9.344921000000000E+01
4852000000.000000      4.976654000000000E-01     -1.615937000000000E+02      4.789734000000000E-01     -7.433203000000000E+01      4.942932000000000E-01     -1.756250000000000E+02      7.132568000000000E-01     -9.348047000000000E+01
4853000000.000000      5.021973000000000E-01     -1.621719000000000E+02      4.776154000000000E-01     -7.464062000000000E+01      4.986725000000000E-01     -1.758672000000000E+02      7.160950000000000E-01     -9.360546000000000E+01
4854000000.000000      5.061035000000000E-01     -1.627266000000000E+02      4.826508000000000E-01     -7.518749000000000E+01      5.020142000000000E-01     -1.758906000000000E+02      7.180176000000000E-01     -9.368750000000000E+01
4855000000.000000      5.096436000000000E-01     -1.633281000000000E+02      4.837799000000000E-01     -7.537499000000000E+01      5.055237000000000E-01     -1.758984000000000E+02      7.220154000000000E-01     -9.367188000000000E+01
4856000000.000000      5.152283000000000E-01     -1.637422000000000E+02      4.855499000000000E-01     -7.551562000000000E+01      5.085449000000000E-01     -1.763125000000000E+02      7.239380000000000E-01     -9.366796000000000E+01
4857000000.000000      5.187378000000000E-01     -1.642656000000000E+02      4.887238000000000E-01     -7.591406000000000E+01      5.129700000000000E-01     -1.762344000000000E+02      7.267761000000000E-01     -9.372265000000000E+01
4858000000.000000      5.206299000000000E-01     -1.648047000000000E+02      4.900360000000000E-01     -7.624609000000000E+01      5.165710000000000E-01     -1.766094000000000E+02      7.294312000000000E-01     -9.381250000000000E+01
4859000000.000000      5.252686000000000E-01     -1.653281000000000E+02      4.911804000000000E-01     -7.648046000000000E+01      5.201416000000000E-01     -1.768437000000000E+02      7.350159000000000E-01     -9.378906000000000E+01
4860000000.000000      5.299683000000000E-01     -1.658594000000000E+02      4.936676000000000E-01     -7.682812000000000E+01      5.232239000000000E-01     -1.768750000000000E+02      7.349243000000000E-01     -9.393749000000000E+01
4861000000.000000      5.324402000000000E-01     -1.661406000000000E+02      4.945221000000000E-01     -7.736328000000000E+01      5.272522000000000E-01     -1.770781000000000E+02      7.393188000000000E-01     -9.400782000000000E+01
4862000000.000000      5.357971000000000E-01     -1.666250000000000E+02      4.986267000000000E-01     -7.753515000000000E+01      5.308533000000000E-01     -1.771719000000000E+02      7.432861000000000E-01     -9.389063000000000E+01
4863000000.000000      5.385132000000000E-01     -1.670703000000000E+02      4.977875000000000E-01     -7.794922000000000E+01      5.348511000000000E-01     -1.773438000000000E+02      7.454529000000000E-01     -9.401953000000000E+01
4864000000.000000      5.415649000000000E-01     -1.674687000000000E+02      4.996338000000000E-01     -7.791406000000000E+01      5.363464000000000E-01     -1.775078000000000E+02      7.478943000000000E-01     -9.411718000000000E+01
4865000000.000000      5.437012000000000E-01     -1.679766000000000E+02      5.017090000000000E-01     -7.836719000000000E+01      5.405884000000000E-01     -1.778047000000000E+02      7.516174000000000E-01     -9.403515000000000E+01
4866000000.000000      5.456238000000000E-01     -1.682031000000000E+02      5.018005000000000E-01     -7.851953000000000E+01      5.432739000000000E-01     -1.780469000000000E+02      7.544556000000000E-01     -9.407421000000000E+01
4867000000.000000      5.475159000000000E-01     -1.685547000000000E+02      5.028992000000000E-01     -7.892187000000000E+01      5.469360000000000E-01     -1.781250000000000E+02      7.572937000000000E-01     -9.407030000000000E+01
4868000000.000000      5.504456000000000E-01     -1.690312000000000E+02      5.048523000000000E-01     -7.925390000000000E+01      5.496826000000000E-01     -1.783594000000000E+02      7.581787000000000E-01     -9.414454000000000E+01
4869000000.000000      5.514526000000000E-01     -1.693203000000000E+02      5.054932000000000E-01     -7.940234000000000E+01      5.541992000000000E-01     -1.786641000000000E+02      7.625732000000000E-01     -9.437500000000000E+01
4870000000.000000      5.531921000000000E-01     -1.696250000000000E+02      5.068359000000000E-01     -7.951562000000000E+01      5.542908000000000E-01     -1.787969000000000E+02      7.640076000000000E-01     -9.414454000000000E+01
4871000000.000000      5.557556000000000E-01     -1.700391000000000E+02      5.084839000000000E-01     -7.989843000000000E+01      5.564270000000000E-01     -1.789687000000000E+02      7.664185000000000E-01     -9.440624000000000E+01
4872000000.000000      5.573425000000000E-01     -1.702109000000000E+02      5.095215000000000E-01     -8.015625000000000E+01      5.591431000000000E-01     -1.792734000000000E+02      7.703247000000000E-01     -9.438671000000000E+01
4873000000.000000      5.574341000000000E-01     -1.704844000000000E+02      5.103149000000000E-01     -8.028124000000000E+01      5.627747000000000E-01     -1.794609000000000E+02      7.712402000000000E-01     -9.447657000000000E+01
4874000000.000000      5.596313000000000E-01     -1.707344000000000E+02      5.122681000000000E-01     -8.083984000000000E+01      5.662231000000000E-01     -1.796641000000000E+02      7.744446000000000E-01     -9.433203000000000E+01
4875000000.000000      5.598145000000000E-01     -1.710078000000000E+02      5.120850000000000E-01     -8.073828000000000E+01      5.680847000000000E-01     -1.800000000000000E+02      7.758789000000000E-01     -9.444921000000000E+01
4876000000.000000      5.599365000000000E-01     -1.712656000000000E+02      5.127869000000000E-01     -8.124609000000000E+01      5.679321000000000E-01      1.799687000000000E+02      7.791443000000000E-01     -9.451563000000000E+01
4877000000.000000      5.607605000000000E-01     -1.713359000000000E+02      5.148315000000000E-01     -8.129297000000000E+01      5.719604000000000E-01      1.797422000000000E+02      7.816772000000000E-01     -9.464453000000000E+01
4878000000.000000      5.613098000000000E-01     -1.716016000000000E+02      5.163269000000000E-01     -8.162109000000000E+01      5.741272000000000E-01      1.794922000000000E+02      7.847900000000000E-01     -9.470312000000000E+01
4879000000.000000      5.622253000000000E-01     -1.718750000000000E+02      5.153809000000000E-01     -8.175781000000000E+01      5.764160000000000E-01      1.792109000000000E+02      7.862244000000000E-01     -9.468359000000000E+01
4880000000.000000      5.609131000000000E-01     -1.720078000000000E+02      5.167542000000000E-01     -8.208984000000000E+01      5.800781000000000E-01      1.791328000000000E+02      7.883606000000000E-01     -9.472656000000000E+01
4881000000.000000      5.625610000000000E-01     -1.721484000000000E+02      5.184631000000000E-01     -8.199610000000000E+01      5.805054000000000E-01      1.788359000000000E+02      7.909241000000000E-01     -9.476954000000000E+01
4882000000.000000      5.610657000000000E-01     -1.722265000000000E+02      5.194702000000000E-01     -8.227343000000000E+01      5.818481000000000E-01      1.786641000000000E+02      7.924194000000000E-01     -9.479687000000000E+01
