! Network Analyzer HP8722D
! Hewlett-Packard
! Data name: Linha & Wilkinson
! Saver's name: Rodrigo Anjos
! Comments: Teste da utilização de aquisição
continua pelo VNA HP8722D
! Time and date: 17/4/2025 11:54
!              Frequency                     S11                                                   S21                                                   S12                                                   S22
# HZ  S  MA R 50
4800000000.000000      3.736267000000000E-01      8.589844000000000E+01      1.901550000000000E-01      3.660937000000000E+01      1.900711000000000E-01     -2.933350000000000E+00      3.561401000000000E-01      1.424365000000000E+01
4801000000.000000      3.791199000000000E-01      8.555468000000000E+01      1.887589000000000E-01      3.827734000000000E+01      1.883011000000000E-01     -1.490051000000000E+00      3.580170000000000E-01      1.482715000000000E+01
4802000000.000000      3.850708000000000E-01      8.522655000000000E+01      1.872635000000000E-01      3.965234000000000E+01      1.876602000000000E-01     -3.021240000000000E-02      3.584595000000000E-01      1.581299000000000E+01
4803000000.000000      3.891449000000000E-01      8.500391000000000E+01      1.868591000000000E-01      4.115234000000000E+01      1.861877000000000E-01      1.657532000000000E+00      3.562775000000000E-01      1.650488000000000E+01
4804000000.000000      3.947601000000000E-01      8.478907000000000E+01      1.862488000000000E-01      4.266211000000000E+01      1.862106000000000E-01      3.043213000000000E+00      3.533936000000000E-01      1.740430000000000E+01
4805000000.000000      4.007263000000000E-01      8.435156000000000E+01      1.856613000000000E-01      4.400391000000000E+01      1.853256000000000E-01      4.654053000000000E+00      3.513947000000000E-01      1.753515000000000E+01
4806000000.000000      4.045563000000000E-01      8.417578000000000E+01      1.855545000000000E-01      4.557617000000000E+01      1.847153000000000E-01      6.185303000000000E+00      3.512878000000000E-01      1.838769000000000E+01
4807000000.000000      4.089050000000000E-01      8.391796000000000E+01      1.858978000000000E-01      4.685156000000000E+01      1.851273000000000E-01      7.650391000000000E+00      3.496399000000000E-01      1.910352000000000E+01
4808000000.000000      4.129333000000000E-01      8.367579000000000E+01      1.867142000000000E-01      4.867578000000000E+01      1.850357000000000E-01      9.185547000000000E+00      3.481598000000000E-01      2.003613000000000E+01
4809000000.000000      4.170074000000000E-01      8.359766000000000E+01      1.869431000000000E-01      4.985937000000000E+01      1.864014000000000E-01      1.074707000000000E+01      3.477478000000000E-01      2.080078000000000E+01
4810000000.000000      4.211578000000000E-01      8.338282000000000E+01      1.882019000000000E-01      5.143945000000000E+01      1.867294000000000E-01      1.226611000000000E+01      3.459625000000000E-01      2.106738000000000E+01
4811000000.000000      4.244690000000000E-01      8.316797000000000E+01      1.894531000000000E-01      5.276953000000000E+01      1.887360000000000E-01      1.394971000000000E+01      3.451538000000000E-01      2.184082000000000E+01
4812000000.000000      4.284973000000000E-01      8.307812000000000E+01      1.905441000000000E-01      5.423633000000000E+01      1.895828000000000E-01      1.534375000000000E+01      3.442688000000000E-01      2.235547000000000E+01
4813000000.000000      4.309692000000000E-01      8.295313000000000E+01      1.917725000000000E-01      5.560547000000000E+01      1.914444000000000E-01      1.669629000000000E+01      3.441772000000000E-01      2.319726000000000E+01
4814000000.000000      4.332886000000000E-01      8.279297000000000E+01      1.934052000000000E-01      5.710546000000000E+01      1.927414000000000E-01      1.832617000000000E+01      3.431244000000000E-01      2.342676000000000E+01
4815000000.000000      4.358673000000000E-01      8.266016000000000E+01      1.956940000000000E-01      5.831640000000000E+01      1.950302000000000E-01      1.952929000000000E+01      3.414459000000000E-01      2.395898000000000E+01
4816000000.000000      4.388275000000000E-01      8.254686000000000E+01      1.982269000000000E-01      5.966797000000000E+01      1.971893000000000E-01      2.105859000000000E+01      3.404694000000000E-01      2.442480000000000E+01
4817000000.000000      4.406738000000000E-01      8.248827000000000E+01      2.006149000000000E-01      6.092578000000000E+01      1.994095000000000E-01      2.233789000000000E+01      3.392944000000000E-01      2.506054000000000E+01
4818000000.000000      4.426575000000000E-01      8.236328000000000E+01      2.029572000000000E-01      6.208008000000000E+01      2.023773000000000E-01      2.361914000000000E+01      3.383484000000000E-01      2.553223000000000E+01
4819000000.000000      4.444885000000000E-01      8.227734000000000E+01      2.059174000000000E-01      6.319336000000000E+01      2.049561000000000E-01      2.483593000000000E+01      3.364410000000000E-01      2.576269000000000E+01
4820000000.000000      4.442596000000000E-01      8.218359000000000E+01      2.084045000000000E-01      6.433594000000000E+01      2.079315000000000E-01      2.614941000000000E+01      3.366852000000000E-01      2.629980000000000E+01
4821000000.000000      4.475403000000000E-01      8.201952000000000E+01      2.123260000000000E-01      6.523438000000000E+01      2.111282000000000E-01      2.716211000000000E+01      3.353729000000000E-01      2.684179000000000E+01
4822000000.000000      4.471283000000000E-01      8.186718000000000E+01      2.149887000000000E-01      6.634375000000000E+01      2.143326000000000E-01      2.815918000000000E+01      3.352661000000000E-01      2.683887000000000E+01
4823000000.000000      4.478302000000000E-01      8.184765000000000E+01      2.188568000000000E-01      6.717187000000000E+01      2.178040000000000E-01      2.939355000000000E+01      3.337708000000000E-01      2.725000000000000E+01
4824000000.000000      4.486542000000000E-01      8.178514000000000E+01      2.220764000000000E-01      6.797656000000000E+01      2.213898000000000E-01      3.013769000000000E+01      3.323669000000000E-01      2.760254000000000E+01
4825000000.000000      4.483643000000000E-01      8.162500000000000E+01      2.259216000000000E-01      6.901953000000000E+01      2.257004000000000E-01      3.125586000000000E+01      3.311768000000000E-01      2.764551000000000E+01
4826000000.000000      4.480896000000000E-01      8.162109000000000E+01      2.305603000000000E-01      6.973046000000000E+01      2.288361000000000E-01      3.207422000000000E+01      3.293457000000000E-01      2.804590000000000E+01
4827000000.000000      4.479218000000000E-01      8.158203000000000E+01      2.344666000000000E-01      7.056641000000000E+01      2.334061000000000E-01      3.288671000000000E+01      3.293610000000000E-01      2.814648000000000E+01
4828000000.000000      4.475708000000000E-01      8.147655000000000E+01      2.386932000000000E-01      7.128906000000000E+01      2.372437000000000E-01      3.367969000000000E+01      3.273163000000000E-01      2.815234000000000E+01
4829000000.000000      4.453583000000000E-01      8.157030000000000E+01      2.430115000000000E-01      7.185937000000000E+01      2.422714000000000E-01      3.460938000000000E+01      3.283234000000000E-01      2.858887000000000E+01
4830000000.000000      4.443665000000000E-01      8.144140000000000E+01      2.471771000000000E-01      7.232812000000000E+01      2.461090000000000E-01      3.524023000000000E+01      3.246765000000000E-01      2.887207000000000E+01
4831000000.000000      4.419708000000000E-01      8.137499000000000E+01      2.519836000000000E-01      7.291406000000000E+01      2.503510000000000E-01      3.602734000000000E+01      3.230133000000000E-01      2.869043000000000E+01
4832000000.000000      4.407196000000000E-01      8.133593000000000E+01      2.566528000000000E-01      7.356250000000000E+01      2.546844000000000E-01      3.670703000000000E+01      3.210449000000000E-01      2.900879000000000E+01
4833000000.000000      4.378357000000000E-01      8.121874000000000E+01      2.610168000000000E-01      7.407812000000000E+01      2.603149000000000E-01      3.726367000000000E+01      3.197174000000000E-01      2.926855000000000E+01
4834000000.000000      4.360199000000000E-01      8.122265000000000E+01      2.657776000000000E-01      7.444140000000000E+01      2.645264000000000E-01      3.784765000000000E+01      3.186493000000000E-01      2.914941000000000E+01
4835000000.000000      4.338074000000000E-01      8.113672000000000E+01      2.705536000000000E-01      7.477344000000000E+01      2.692108000000000E-01      3.829102000000000E+01      3.166962000000000E-01      2.913671000000000E+01
4836000000.000000      4.310760000000000E-01      8.122265000000000E+01      2.754669000000000E-01      7.512890000000000E+01      2.738190000000000E-01      3.889843000000000E+01      3.145142000000000E-01      2.918457000000000E+01
4837000000.000000      4.271698000000000E-01      8.120703000000000E+01      2.802124000000000E-01      7.521484000000000E+01      2.785645000000000E-01      3.918750000000000E+01      3.144226000000000E-01      2.924414000000000E+01
4838000000.000000      4.234161000000000E-01      8.114061000000000E+01      2.859497000000000E-01      7.585546000000000E+01      2.838593000000000E-01      3.969922000000000E+01      3.098755000000000E-01      2.926855000000000E+01
4839000000.000000      4.219360000000000E-01      8.112890000000000E+01      2.907715000000000E-01      7.599999000000000E+01      2.892303000000000E-01      4.007617000000000E+01      3.096924000000000E-01      2.876074000000000E+01
4840000000.000000      4.167023000000000E-01      8.106249000000000E+01      2.960968000000000E-01      7.639453000000000E+01      2.947388000000000E-01      4.053320000000000E+01      3.068542000000000E-01      2.904199000000000E+01
4841000000.000000      4.129791000000000E-01      8.112499000000000E+01      3.012390000000000E-01      7.647655000000000E+01      3.000336000000000E-01      4.085938000000000E+01      3.070374000000000E-01      2.898828000000000E+01
4842000000.000000      4.083557000000000E-01      8.109375000000000E+01      3.068848000000000E-01      7.667969000000000E+01      3.046875000000000E-01      4.124219000000000E+01      3.052063000000000E-01      2.887988000000000E+01
4843000000.000000      4.046936000000000E-01      8.096094000000000E+01      3.126831000000000E-01      7.674999000000000E+01      3.101654000000000E-01      4.150195000000000E+01      3.023529000000000E-01      2.895020000000000E+01
4844000000.000000      3.989258000000000E-01      8.099609000000000E+01      3.175659000000000E-01      7.681641000000000E+01      3.147736000000000E-01      4.174218000000000E+01      2.998199000000000E-01      2.881543000000000E+01
4845000000.000000      3.943634000000000E-01      8.111328000000000E+01      3.225708000000000E-01      7.689843000000000E+01      3.204651000000000E-01      4.189843000000000E+01      2.977753000000000E-01      2.858887000000000E+01
4846000000.000000      3.898773000000000E-01      8.105860000000000E+01      3.287201000000000E-01      7.700781000000000E+01      3.263092000000000E-01      4.213672000000000E+01      2.951355000000000E-01      2.826074000000000E+01
4847000000.000000      3.845673000000000E-01      8.113672000000000E+01      3.335571000000000E-01      7.702343000000000E+01      3.318024000000000E-01      4.235742000000000E+01      2.936096000000000E-01      2.807129000000000E+01
4848000000.000000      3.785400000000000E-01      8.102734000000000E+01      3.386078000000000E-01      7.704296000000000E+01      3.377380000000000E-01      4.264257000000000E+01      2.915344000000000E-01      2.790039000000000E+01
4849000000.000000      3.732605000000000E-01      8.099609000000000E+01      3.449402000000000E-01      7.696875000000000E+01      3.428192000000000E-01      4.275976000000000E+01      2.895355000000000E-01      2.809668000000000E+01
4850000000.000000      3.669586000000000E-01      8.107031000000000E+01      3.497620000000000E-01      7.690234000000000E+01      3.479919000000000E-01      4.290429000000000E+01      2.874298000000000E-01      2.755176000000000E+01
4851000000.000000      3.614502000000000E-01      8.118750000000000E+01      3.560791000000000E-01      7.689843000000000E+01      3.529053000000000E-01      4.301953000000000E+01      2.875824000000000E-01      2.729492000000000E+01
4852000000.000000      3.554382000000000E-01      8.117188000000000E+01      3.610077000000000E-01      7.675390000000000E+01      3.585205000000000E-01      4.327734000000000E+01      2.846527000000000E-01      2.690625000000000E+01
4853000000.000000      3.495636000000000E-01      8.114061000000000E+01      3.665314000000000E-01      7.662890000000000E+01      3.641968000000000E-01      4.332812000000000E+01      2.819061000000000E-01      2.670996000000000E+01
4854000000.000000      3.425293000000000E-01      8.111719000000000E+01      3.719025000000000E-01      7.629296000000000E+01      3.697662000000000E-01      4.333593000000000E+01      2.798920000000000E-01      2.627344000000000E+01
4855000000.000000      3.368530000000000E-01      8.121485000000000E+01      3.774872000000000E-01      7.646874000000000E+01      3.743744000000000E-01      4.333984000000000E+01      2.769928000000000E-01      2.641992000000000E+01
4856000000.000000      3.301544000000000E-01      8.124609000000000E+01      3.828430000000000E-01      7.627734000000000E+01      3.801880000000000E-01      4.344922000000000E+01      2.755585000000000E-01      2.597949000000000E+01
4857000000.000000      3.237762000000000E-01      8.117188000000000E+01      3.887177000000000E-01      7.614452000000000E+01      3.859253000000000E-01      4.357422000000000E+01      2.735138000000000E-01      2.554688000000000E+01
4858000000.000000      3.164215000000000E-01      8.111328000000000E+01      3.944702000000000E-01      7.585155000000000E+01      3.908997000000000E-01      4.357226000000000E+01      2.707977000000000E-01      2.525683000000000E+01
4859000000.000000      3.095551000000000E-01      8.108593000000000E+01      3.994446000000000E-01      7.564062000000000E+01      3.968353000000000E-01      4.366211000000000E+01      2.690887000000000E-01      2.485840000000000E+01
4860000000.000000      3.035431000000000E-01      8.123438000000000E+01      4.044800000000000E-01      7.552343000000000E+01      4.008484000000000E-01      4.353711000000000E+01      2.672272000000000E-01      2.435351000000000E+01
4861000000.000000      2.958527000000000E-01      8.132813000000000E+01      4.098206000000000E-01      7.516796000000000E+01      4.073334000000000E-01      4.361133000000000E+01      2.651215000000000E-01      2.428320000000000E+01
4862000000.000000      2.886353000000000E-01      8.121094000000000E+01      4.165955000000000E-01      7.503906000000000E+01      4.133301000000000E-01      4.363281000000000E+01      2.637634000000000E-01      2.383203000000000E+01
4863000000.000000      2.819519000000000E-01      8.112108000000000E+01      4.205475000000000E-01      7.467968000000000E+01      4.181213000000000E-01      4.361133000000000E+01      2.626648000000000E-01      2.372265000000000E+01
4864000000.000000      2.749176000000000E-01      8.114452000000000E+01      4.269562000000000E-01      7.444921000000000E+01      4.227448000000000E-01      4.358007000000000E+01      2.601471000000000E-01      2.270703000000000E+01
4865000000.000000      2.675171000000000E-01      8.097265000000000E+01      4.311523000000000E-01      7.438671000000000E+01      4.281464000000000E-01      4.357422000000000E+01      2.587891000000000E-01      2.276465000000000E+01
4866000000.000000      2.604828000000000E-01      8.082811000000000E+01      4.363403000000000E-01      7.384766000000000E+01      4.339447000000000E-01      4.342578000000000E+01      2.567596000000000E-01      2.242285000000000E+01
4867000000.000000      2.526398000000000E-01      8.090235000000000E+01      4.420776000000000E-01      7.346093000000000E+01      4.384613000000000E-01      4.349805000000000E+01      2.559814000000000E-01      2.194238000000000E+01
4868000000.000000      2.461853000000000E-01      8.067186000000000E+01      4.469757000000000E-01      7.332421000000000E+01      4.436340000000000E-01      4.341797000000000E+01      2.526093000000000E-01      2.135254000000000E+01
4869000000.000000      2.384415000000000E-01      8.059374000000000E+01      4.522705000000000E-01      7.291016000000000E+01      4.482422000000000E-01      4.333203000000000E+01      2.515411000000000E-01      2.091601000000000E+01
4870000000.000000      2.311859000000000E-01      8.048437000000000E+01      4.574280000000000E-01      7.280468000000000E+01      4.549561000000000E-01      4.328711000000000E+01      2.522583000000000E-01      2.057812000000000E+01
4871000000.000000      2.237854000000000E-01      8.021484000000000E+01      4.627380000000000E-01      7.221484000000000E+01      4.595795000000000E-01      4.327734000000000E+01      2.499542000000000E-01      2.012500000000000E+01
4872000000.000000      2.172318000000000E-01      8.000391000000000E+01      4.675293000000000E-01      7.207031000000000E+01      4.647827000000000E-01      4.302930000000000E+01      2.502289000000000E-01      1.944922000000000E+01
4873000000.000000      2.096405000000000E-01      7.978125000000000E+01      4.724426000000000E-01      7.158593000000000E+01      4.682922000000000E-01      4.311913000000000E+01      2.478561000000000E-01      1.923242000000000E+01
4874000000.000000      2.025070000000000E-01      7.950000000000000E+01      4.763947000000000E-01      7.122265000000000E+01      4.766541000000000E-01      4.282617000000000E+01      2.481613000000000E-01      1.847070000000000E+01
4875000000.000000      1.950378000000000E-01      7.909765000000000E+01      4.817200000000000E-01      7.085155000000000E+01      4.807129000000000E-01      4.295312000000000E+01      2.466888000000000E-01      1.811230000000000E+01
4876000000.000000      1.885071000000000E-01      7.875000000000000E+01      4.877472000000000E-01      7.045312000000000E+01      4.851379000000000E-01      4.281640000000000E+01      2.462234000000000E-01      1.748242000000000E+01
4877000000.000000      1.810303000000000E-01      7.808203000000000E+01      4.908447000000000E-01      6.999609000000000E+01      4.895020000000000E-01      4.264257000000000E+01      2.449112000000000E-01      1.713867000000000E+01
4878000000.000000      1.731796000000000E-01      7.768749000000000E+01      4.971161000000000E-01      6.957812000000000E+01      4.959564000000000E-01      4.266015000000000E+01      2.444763000000000E-01      1.662695000000000E+01
4879000000.000000      1.667175000000000E-01      7.701953000000000E+01      4.989929000000000E-01      6.938281000000000E+01      5.007935000000000E-01      4.232422000000000E+01      2.428818000000000E-01      1.582129000000000E+01
4880000000.000000      1.595917000000000E-01      7.610937000000000E+01      5.047913000000000E-01      6.894531000000000E+01      5.054932000000000E-01      4.228516000000000E+01      2.427139000000000E-01      1.540967000000000E+01
4881000000.000000      1.524582000000000E-01      7.556641000000000E+01      5.105286000000000E-01      6.852734000000000E+01      5.107117000000000E-01      4.223828000000000E+01      2.417831000000000E-01      1.524609000000000E+01
4882000000.000000      1.461868000000000E-01      7.428515000000000E+01      5.140381000000000E-01      6.801171000000000E+01      5.144043000000000E-01      4.216797000000000E+01      2.425995000000000E-01      1.452490000000000E+01
