! Network Analyzer HP8722D
! Hewlett-Packard
! Data name: Linha & Wilkinson
! Saver's name: Rodrigo Anjos
! Comments: Teste da utilização de aquisição
continua pelo VNA HP8722D
! Time and date: 17/4/2025 11:48
!              Frequency                     S11                                                   S21                                                   S12                                                   S22
# HZ  S  MA R 50
4800000000.000000      3.778076000000000E-01      8.150782000000000E+01      1.892624000000000E-01      4.264648000000000E+01      1.887512000000000E-01      2.654541000000000E+00      3.659058000000000E-01      1.484521000000000E+01
4801000000.000000      3.832245000000000E-01      8.123438000000000E+01      1.887131000000000E-01      4.419335000000000E+01      1.875305000000000E-01      3.983887000000000E+00      3.662872000000000E-01      1.531348000000000E+01
4802000000.000000      3.881378000000000E-01      8.096874000000000E+01      1.882095000000000E-01      4.572461000000000E+01      1.877975000000000E-01      5.506836000000000E+00      3.650208000000000E-01      1.640625000000000E+01
4803000000.000000      3.924408000000000E-01      8.065233000000000E+01      1.888351000000000E-01      4.714648000000000E+01      1.873016000000000E-01      7.138184000000000E+00      3.638306000000000E-01      1.690722000000000E+01
4804000000.000000      3.972626000000000E-01      8.058594000000000E+01      1.895065000000000E-01      4.858398000000000E+01      1.884232000000000E-01      8.514160000000000E+00      3.623047000000000E-01      1.752637000000000E+01
4805000000.000000      4.027100000000000E-01      8.020311000000000E+01      1.901016000000000E-01      5.012890000000000E+01      1.883392000000000E-01      9.984863000000000E+00      3.614197000000000E-01      1.824609000000000E+01
4806000000.000000      4.055939000000000E-01      8.003515000000000E+01      1.907120000000000E-01      5.139257000000000E+01      1.888657000000000E-01      1.171143000000000E+01      3.603668000000000E-01      1.888672000000000E+01
4807000000.000000      4.092865000000000E-01      7.986328000000000E+01      1.920471000000000E-01      5.259179000000000E+01      1.901321000000000E-01      1.284814000000000E+01      3.595123000000000E-01      1.951660000000000E+01
4808000000.000000      4.129791000000000E-01      7.976171000000000E+01      1.940460000000000E-01      5.411133000000000E+01      1.911621000000000E-01      1.450439000000000E+01      3.587646000000000E-01      1.997851000000000E+01
4809000000.000000      4.164429000000000E-01      7.964062000000000E+01      1.948853000000000E-01      5.525000000000000E+01      1.930084000000000E-01      1.576123000000000E+01      3.576660000000000E-01      2.081738000000000E+01
4810000000.000000      4.199524000000000E-01      7.951172000000000E+01      1.971054000000000E-01      5.679101000000000E+01      1.943817000000000E-01      1.731250000000000E+01      3.553925000000000E-01      2.103808000000000E+01
4811000000.000000      4.234924000000000E-01      7.936328000000000E+01      1.987381000000000E-01      5.785351000000000E+01      1.969376000000000E-01      1.872168000000000E+01      3.537445000000000E-01      2.177539000000000E+01
4812000000.000000      4.268646000000000E-01      7.928124000000000E+01      2.011948000000000E-01      5.919140000000000E+01      1.982574000000000E-01      2.008301000000000E+01      3.534241000000000E-01      2.189844000000000E+01
4813000000.000000      4.288635000000000E-01      7.916797000000000E+01      2.033234000000000E-01      6.032031000000000E+01      2.010574000000000E-01      2.139941000000000E+01      3.536072000000000E-01      2.298438000000000E+01
4814000000.000000      4.300385000000000E-01      7.899609000000000E+01      2.062378000000000E-01      6.151757000000000E+01      2.035370000000000E-01      2.252832000000000E+01      3.515778000000000E-01      2.322852000000000E+01
4815000000.000000      4.323578000000000E-01      7.897265000000000E+01      2.086639000000000E-01      6.254492000000000E+01      2.061615000000000E-01      2.366309000000000E+01      3.510437000000000E-01      2.363770000000000E+01
4816000000.000000      4.354706000000000E-01      7.883984000000000E+01      2.122269000000000E-01      6.362499000000000E+01      2.095871000000000E-01      2.494824000000000E+01      3.507996000000000E-01      2.408594000000000E+01
4817000000.000000      4.360809000000000E-01      7.880077000000000E+01      2.150497000000000E-01      6.470703000000000E+01      2.116470000000000E-01      2.611914000000000E+01      3.496552000000000E-01      2.453320000000000E+01
4818000000.000000      4.376984000000000E-01      7.868359000000000E+01      2.179489000000000E-01      6.571875000000000E+01      2.155380000000000E-01      2.718652000000000E+01      3.475494000000000E-01      2.518164000000000E+01
4819000000.000000      4.388580000000000E-01      7.866796000000000E+01      2.219620000000000E-01      6.640234000000000E+01      2.182236000000000E-01      2.816015000000000E+01      3.447876000000000E-01      2.527637000000000E+01
4820000000.000000      4.380951000000000E-01      7.861328000000000E+01      2.252121000000000E-01      6.748047000000000E+01      2.216263000000000E-01      2.919043000000000E+01      3.442230000000000E-01      2.571191000000000E+01
4821000000.000000      4.404755000000000E-01      7.854297000000000E+01      2.292023000000000E-01      6.821875000000000E+01      2.253418000000000E-01      3.001269000000000E+01      3.434296000000000E-01      2.623242000000000E+01
4822000000.000000      4.402466000000000E-01      7.844531000000000E+01      2.325821000000000E-01      6.913671000000000E+01      2.290192000000000E-01      3.096582000000000E+01      3.427734000000000E-01      2.609179000000000E+01
4823000000.000000      4.401093000000000E-01      7.842187000000000E+01      2.370148000000000E-01      6.978906000000000E+01      2.330627000000000E-01      3.211328000000000E+01      3.407745000000000E-01      2.632813000000000E+01
4824000000.000000      4.399261000000000E-01      7.839062000000000E+01      2.409210000000000E-01      7.044922000000000E+01      2.370377000000000E-01      3.253320000000000E+01      3.399353000000000E-01      2.670996000000000E+01
4825000000.000000      4.393311000000000E-01      7.828515000000000E+01      2.454681000000000E-01      7.108984000000000E+01      2.415009000000000E-01      3.350000000000000E+01      3.390656000000000E-01      2.696094000000000E+01
4826000000.000000      4.385986000000000E-01      7.826953000000000E+01      2.497177000000000E-01      7.169922000000000E+01      2.453690000000000E-01      3.410937000000000E+01      3.371887000000000E-01      2.704394000000000E+01
4827000000.000000      4.380035000000000E-01      7.832421000000000E+01      2.537384000000000E-01      7.218750000000000E+01      2.501831000000000E-01      3.470508000000000E+01      3.362427000000000E-01      2.726171000000000E+01
4828000000.000000      4.372101000000000E-01      7.819140000000000E+01      2.587738000000000E-01      7.265625000000000E+01      2.546997000000000E-01      3.533398000000000E+01      3.350830000000000E-01      2.707812000000000E+01
4829000000.000000      4.348907000000000E-01      7.831640000000000E+01      2.631226000000000E-01      7.314453000000000E+01      2.595978000000000E-01      3.600000000000000E+01      3.338013000000000E-01      2.779394000000000E+01
4830000000.000000      4.332733000000000E-01      7.817968000000000E+01      2.681274000000000E-01      7.351563000000000E+01      2.638855000000000E-01      3.656445000000000E+01      3.304291000000000E-01      2.784472000000000E+01
4831000000.000000      4.307098000000000E-01      7.817577000000000E+01      2.722473000000000E-01      7.395312000000000E+01      2.683105000000000E-01      3.716015000000000E+01      3.299408000000000E-01      2.758203000000000E+01
4832000000.000000      4.286499000000000E-01      7.820703000000000E+01      2.774353000000000E-01      7.439453000000000E+01      2.730103000000000E-01      3.767187000000000E+01      3.272095000000000E-01      2.803125000000000E+01
4833000000.000000      4.253235000000000E-01      7.808984000000000E+01      2.822723000000000E-01      7.481250000000000E+01      2.784424000000000E-01      3.811132000000000E+01      3.261566000000000E-01      2.780762000000000E+01
4834000000.000000      4.225311000000000E-01      7.810156000000000E+01      2.878723000000000E-01      7.512890000000000E+01      2.827454000000000E-01      3.860156000000000E+01      3.240204000000000E-01      2.785645000000000E+01
4835000000.000000      4.203949000000000E-01      7.805859000000000E+01      2.925415000000000E-01      7.507813000000000E+01      2.886200000000000E-01      3.886523000000000E+01      3.223114000000000E-01      2.819824000000000E+01
4836000000.000000      4.175262000000000E-01      7.816796000000000E+01      2.971497000000000E-01      7.539063000000000E+01      2.926483000000000E-01      3.939648000000000E+01      3.214264000000000E-01      2.789063000000000E+01
4837000000.000000      4.128113000000000E-01      7.820703000000000E+01      3.022614000000000E-01      7.543750000000000E+01      2.980194000000000E-01      3.965039000000000E+01      3.194122000000000E-01      2.795410000000000E+01
4838000000.000000      4.086456000000000E-01      7.815624000000000E+01      3.076630000000000E-01      7.586328000000000E+01      3.028717000000000E-01      3.998437000000000E+01      3.156433000000000E-01      2.778027000000000E+01
4839000000.000000      4.067383000000000E-01      7.821484000000000E+01      3.131256000000000E-01      7.587500000000000E+01      3.081665000000000E-01      4.026953000000000E+01      3.144989000000000E-01      2.768652000000000E+01
4840000000.000000      4.011536000000000E-01      7.810547000000000E+01      3.185730000000000E-01      7.600390000000000E+01      3.137512000000000E-01      4.058594000000000E+01      3.118896000000000E-01      2.773046000000000E+01
4841000000.000000      3.973999000000000E-01      7.819921000000000E+01      3.242798000000000E-01      7.613281000000000E+01      3.190460000000000E-01      4.074219000000000E+01      3.113098000000000E-01      2.762207000000000E+01
4842000000.000000      3.919983000000000E-01      7.828906000000000E+01      3.295441000000000E-01      7.621484000000000E+01      3.236084000000000E-01      4.108788000000000E+01      3.094940000000000E-01      2.732617000000000E+01
4843000000.000000      3.883362000000000E-01      7.820703000000000E+01      3.351440000000000E-01      7.612499000000000E+01      3.297729000000000E-01      4.121679000000000E+01      3.071899000000000E-01      2.748730000000000E+01
4844000000.000000      3.828278000000000E-01      7.815624000000000E+01      3.395081000000000E-01      7.609765000000000E+01      3.348389000000000E-01      4.143750000000000E+01      3.030548000000000E-01      2.724316000000000E+01
4845000000.000000      3.773041000000000E-01      7.839844000000000E+01      3.447571000000000E-01      7.618359000000000E+01      3.407898000000000E-01      4.157031000000000E+01      3.005371000000000E-01      2.708887000000000E+01
4846000000.000000      3.724670000000000E-01      7.835546000000000E+01      3.512878000000000E-01      7.617578000000000E+01      3.463745000000000E-01      4.159765000000000E+01      2.991028000000000E-01      2.661914000000000E+01
4847000000.000000      3.670959000000000E-01      7.850390000000000E+01      3.555603000000000E-01      7.628124000000000E+01      3.514404000000000E-01      4.177539000000000E+01      2.974091000000000E-01      2.647754000000000E+01
4848000000.000000      3.607941000000000E-01      7.839844000000000E+01      3.609924000000000E-01      7.600390000000000E+01      3.565521000000000E-01      4.194140000000000E+01      2.948914000000000E-01      2.614258000000000E+01
4849000000.000000      3.555908000000000E-01      7.842187000000000E+01      3.669434000000000E-01      7.583984000000000E+01      3.617706000000000E-01      4.199023000000000E+01      2.919464000000000E-01      2.617578000000000E+01
4850000000.000000      3.495483000000000E-01      7.850780000000000E+01      3.722839000000000E-01      7.578906000000000E+01      3.672180000000000E-01      4.215039000000000E+01      2.888031000000000E-01      2.612597000000000E+01
4851000000.000000      3.434296000000000E-01      7.868750000000000E+01      3.787689000000000E-01      7.571094000000000E+01      3.730927000000000E-01      4.219140000000000E+01      2.887268000000000E-01      2.596191000000000E+01
4852000000.000000      3.368225000000000E-01      7.862890000000000E+01      3.827362000000000E-01      7.551562000000000E+01      3.779449000000000E-01      4.229297000000000E+01      2.856445000000000E-01      2.552441000000000E+01
4853000000.000000      3.311462000000000E-01      7.869531000000000E+01      3.882904000000000E-01      7.539844000000000E+01      3.834381000000000E-01      4.242188000000000E+01      2.811890000000000E-01      2.515527000000000E+01
4854000000.000000      3.242340000000000E-01      7.872656000000000E+01      3.931427000000000E-01      7.502343000000000E+01      3.890686000000000E-01      4.234961000000000E+01      2.818146000000000E-01      2.513769000000000E+01
4855000000.000000      3.180084000000000E-01      7.880468000000000E+01      3.995361000000000E-01      7.493750000000000E+01      3.942108000000000E-01      4.235937000000000E+01      2.786865000000000E-01      2.473535000000000E+01
4856000000.000000      3.111572000000000E-01      7.890234000000000E+01      4.044800000000000E-01      7.473827000000000E+01      3.994141000000000E-01      4.241796000000000E+01      2.782288000000000E-01      2.436621000000000E+01
4857000000.000000      3.046722000000000E-01      7.894140000000000E+01      4.102936000000000E-01      7.464453000000000E+01      4.042664000000000E-01      4.245898000000000E+01      2.729034000000000E-01      2.390039000000000E+01
4858000000.000000      2.976227000000000E-01      7.889453000000000E+01      4.156799000000000E-01      7.429688000000000E+01      4.100952000000000E-01      4.239453000000000E+01      2.718201000000000E-01      2.344043000000000E+01
4859000000.000000      2.910309000000000E-01      7.883594000000000E+01      4.216309000000000E-01      7.405859000000000E+01      4.152527000000000E-01      4.241406000000000E+01      2.702484000000000E-01      2.348828000000000E+01
4860000000.000000      2.845306000000000E-01      7.911327000000000E+01      4.263916000000000E-01      7.380859000000000E+01      4.199219000000000E-01      4.228320000000000E+01      2.677002000000000E-01      2.323828000000000E+01
4861000000.000000      2.763824000000000E-01      7.901172000000000E+01      4.310913000000000E-01      7.348827000000000E+01      4.261017000000000E-01      4.234179000000000E+01      2.646179000000000E-01      2.264355000000000E+01
4862000000.000000      2.695007000000000E-01      7.910546000000000E+01      4.378052000000000E-01      7.325390000000000E+01      4.313812000000000E-01      4.233007000000000E+01      2.631989000000000E-01      2.223731000000000E+01
4863000000.000000      2.626648000000000E-01      7.899609000000000E+01      4.405670000000000E-01      7.291797000000000E+01      4.361572000000000E-01      4.234765000000000E+01      2.628937000000000E-01      2.202148000000000E+01
4864000000.000000      2.561646000000000E-01      7.893359000000000E+01      4.471283000000000E-01      7.272265000000000E+01      4.417419000000000E-01      4.228320000000000E+01      2.603760000000000E-01      2.125293000000000E+01
4865000000.000000      2.483292000000000E-01      7.891406000000000E+01      4.524536000000000E-01      7.239452000000000E+01      4.455872000000000E-01      4.209180000000000E+01      2.584534000000000E-01      2.111426000000000E+01
4866000000.000000      2.413254000000000E-01      7.882030000000000E+01      4.564667000000000E-01      7.202734000000000E+01      4.521332000000000E-01      4.197851000000000E+01      2.574158000000000E-01      2.066504000000000E+01
4867000000.000000      2.342682000000000E-01      7.880859000000000E+01      4.623718000000000E-01      7.158984000000000E+01      4.559479000000000E-01      4.203906000000000E+01      2.564392000000000E-01      2.044922000000000E+01
4868000000.000000      2.270050000000000E-01      7.871484000000000E+01      4.675293000000000E-01      7.126171000000000E+01      4.617615000000000E-01      4.204883000000000E+01      2.522888000000000E-01      1.982617000000000E+01
4869000000.000000      2.197723000000000E-01      7.865624000000000E+01      4.721375000000000E-01      7.091406000000000E+01      4.679260000000000E-01      4.192968000000000E+01      2.525330000000000E-01      1.930957000000000E+01
4870000000.000000      2.129288000000000E-01      7.841015000000000E+01      4.770660000000000E-01      7.073828000000000E+01      4.722290000000000E-01      4.190820000000000E+01      2.515869000000000E-01      1.910156000000000E+01
4871000000.000000      2.054520000000000E-01      7.817577000000000E+01      4.814606000000000E-01      7.024219000000000E+01      4.768524000000000E-01      4.167578000000000E+01      2.493820000000000E-01      1.875488000000000E+01
4872000000.000000      1.989594000000000E-01      7.806641000000000E+01      4.865723000000000E-01      7.001953000000000E+01      4.812775000000000E-01      4.134375000000000E+01      2.491913000000000E-01      1.813379000000000E+01
4873000000.000000      1.914597000000000E-01      7.776562000000000E+01      4.916687000000000E-01      6.935937000000000E+01      4.869232000000000E-01      4.150586000000000E+01      2.464752000000000E-01      1.756543000000000E+01
4874000000.000000      1.839142000000000E-01      7.738281000000000E+01      4.955139000000000E-01      6.905078000000000E+01      4.928436000000000E-01      4.123828000000000E+01      2.459793000000000E-01      1.727832000000000E+01
4875000000.000000      1.771622000000000E-01      7.718359000000000E+01      5.001831000000000E-01      6.869141000000000E+01      4.964447000000000E-01      4.121094000000000E+01      2.445221000000000E-01      1.676172000000000E+01
4876000000.000000      1.703949000000000E-01      7.664063000000000E+01      5.053711000000000E-01      6.829296000000000E+01      5.023193000000000E-01      4.098828000000000E+01      2.443161000000000E-01      1.607910000000000E+01
4877000000.000000      1.627808000000000E-01      7.583593000000000E+01      5.101318000000000E-01      6.794922000000000E+01      5.065002000000000E-01      4.095703000000000E+01      2.438812000000000E-01      1.576660000000000E+01
4878000000.000000      1.552963000000000E-01      7.536718000000000E+01      5.140991000000000E-01      6.752734000000000E+01      5.115967000000000E-01      4.089453000000000E+01      2.425613000000000E-01      1.514307000000000E+01
4879000000.000000      1.488495000000000E-01      7.473827000000000E+01      5.173950000000000E-01      6.723827000000000E+01      5.158081000000000E-01      4.068555000000000E+01      2.412567000000000E-01      1.454150000000000E+01
4880000000.000000      1.419373000000000E-01      7.368359000000000E+01      5.231018000000000E-01      6.665234000000000E+01      5.202026000000000E-01      4.073047000000000E+01      2.412415000000000E-01      1.433301000000000E+01
4881000000.000000      1.349640000000000E-01      7.287499000000000E+01      5.282898000000000E-01      6.641015000000000E+01      5.260620000000000E-01      4.035156000000000E+01      2.412872000000000E-01      1.385889000000000E+01
4882000000.000000      1.289978000000000E-01      7.156640000000000E+01      5.323181000000000E-01      6.579296000000000E+01      5.310669000000000E-01      4.036328000000000E+01      2.414322000000000E-01      1.311328000000000E+01
