! Network Analyzer HP8722D
! Hewlett-Packard
! Data name: Linha com CNT
! Saver's name: Rodrigo Anjos
! Comments: Teste de deteccao de acetona 0-100ppm a partir de cilindro
! Time and date: 10/9/2025 15:30
!              Frequency                     S11                                                   S21                                                   S12                                                   S22
# HZ  S  MA R 50
3000000000.000000      4.620819000000000E-01      1.422021000000000E+01      2.385559000000000E-01      3.420312000000000E+01
3020000000.000000      4.710999000000000E-01      1.365283000000000E+01      2.425690000000000E-01      4.795410000000000E+00
3040000000.000000      4.783936000000000E-01      1.249951000000000E+01      2.428970000000000E-01     -2.437891000000000E+01
3060000000.000000      4.832306000000000E-01      1.076904000000000E+01      2.427216000000000E-01     -5.372460000000000E+01
3080000000.000000      4.803009000000000E-01      9.114258000000000E+00      2.386551000000000E-01     -8.267187000000000E+01
3100000000.000000      4.783630000000000E-01      7.624512000000000E+00      2.372055000000000E-01     -1.103789000000000E+02
3120000000.000000      4.749908000000000E-01      6.722168000000000E+00      2.365875000000000E-01     -1.389219000000000E+02
3140000000.000000      4.759369000000000E-01      5.943604000000000E+00      2.331467000000000E-01     -1.675781000000000E+02
3160000000.000000      4.765015000000000E-01      4.837891000000000E+00      2.287827000000000E-01      1.638515000000000E+02
3180000000.000000      4.720764000000000E-01      3.593872000000000E+00      2.230988000000000E-01      1.356797000000000E+02
3200000000.000000      4.626923000000000E-01      2.794556000000000E+00      2.190704000000000E-01      1.073828000000000E+02
3220000000.000000      4.513092000000000E-01      2.720459000000000E+00      2.100067000000000E-01      7.873437000000000E+01
3240000000.000000      4.454956000000000E-01      3.359009000000000E+00      2.030563000000000E-01      5.344531000000000E+01
3260000000.000000      4.457855000000000E-01      4.537354000000000E+00      2.122574000000000E-01      2.767773000000000E+01
3280000000.000000      4.555969000000000E-01      5.274658000000000E+00      2.207642000000000E-01     -1.913025000000000E+00
3300000000.000000      4.728699000000000E-01      4.986328000000000E+00      2.233047000000000E-01     -3.049414000000000E+01
3320000000.000000      4.908142000000000E-01      3.558105000000000E+00      2.314148000000000E-01     -5.950390000000000E+01
3340000000.000000      5.020752000000000E-01      1.485901000000000E+00      2.360153000000000E-01     -8.920313000000000E+01
3360000000.000000      5.068970000000000E-01     -7.594299000000000E-01      2.387009000000000E-01     -1.189922000000000E+02
3380000000.000000      5.055542000000000E-01     -2.425293000000000E+00      2.376862000000000E-01     -1.484453000000000E+02
3400000000.000000      5.010071000000000E-01     -3.988037000000000E+00      2.371674000000000E-01     -1.770547000000000E+02
3420000000.000000      4.978180000000000E-01     -5.134766000000000E+00      2.354584000000000E-01      1.536484000000000E+02
3440000000.000000      4.931488000000000E-01     -6.307617000000000E+00      2.309570000000000E-01      1.255312000000000E+02
3460000000.000000      4.883423000000000E-01     -7.297852000000000E+00      2.311630000000000E-01      9.726171000000000E+01
3480000000.000000      4.864807000000000E-01     -8.319824000000000E+00      2.282791000000000E-01      6.822266000000000E+01
3500000000.000000      4.854736000000000E-01     -9.072266000000000E+00      2.261429000000000E-01      4.022265000000000E+01
3520000000.000000      4.836731000000000E-01     -1.012695000000000E+01      2.268448000000000E-01      1.121680000000000E+01
3540000000.000000      4.830933000000000E-01     -1.088623000000000E+01      2.221527000000000E-01     -1.725000000000000E+01
3560000000.000000      4.822235000000000E-01     -1.157568000000000E+01      2.236404000000000E-01     -4.534375000000000E+01
3580000000.000000      4.793396000000000E-01     -1.210449000000000E+01      2.234726000000000E-01     -7.402344000000000E+01
3600000000.000000      4.777985000000000E-01     -1.270850000000000E+01      2.236023000000000E-01     -1.014492000000000E+02
3620000000.000000      4.791107000000000E-01     -1.323340000000000E+01      2.277451000000000E-01     -1.297969000000000E+02
3640000000.000000      4.811249000000000E-01     -1.404785000000000E+01      2.287750000000000E-01     -1.582266000000000E+02
3660000000.000000      4.833374000000000E-01     -1.541797000000000E+01      2.299957000000000E-01      1.733750000000000E+02
3680000000.000000      4.833984000000000E-01     -1.677344000000000E+01      2.284012000000000E-01      1.449375000000000E+02
3700000000.000000      4.792786000000000E-01     -1.808008000000000E+01      2.262497000000000E-01      1.176445000000000E+02
3720000000.000000      4.743500000000000E-01     -1.878418000000000E+01      2.277908000000000E-01      8.930468000000000E+01
3740000000.000000      4.735718000000000E-01     -1.901660000000000E+01      2.230759000000000E-01      6.106640000000000E+01
3760000000.000000      4.757080000000000E-01     -1.906348000000000E+01      2.228622000000000E-01      3.391992000000000E+01
3780000000.000000      4.803925000000000E-01     -1.978125000000000E+01      2.250595000000000E-01      5.229492000000000E+00
3800000000.000000      4.857178000000000E-01     -2.105175000000000E+01      2.233582000000000E-01     -2.393555000000000E+01
3820000000.000000      4.844818000000000E-01     -2.284082000000000E+01      2.218704000000000E-01     -5.259960000000000E+01
3840000000.000000      4.803162000000000E-01     -2.420898000000000E+01      2.215118000000000E-01     -8.121094000000000E+01
3860000000.000000      4.764709000000000E-01     -2.511621000000000E+01      2.220840000000000E-01     -1.102031000000000E+02
3880000000.000000      4.738464000000000E-01     -2.555469000000000E+01      2.195892000000000E-01     -1.389062000000000E+02
3900000000.000000      4.785309000000000E-01     -2.608593000000000E+01      2.191467000000000E-01     -1.665313000000000E+02
3920000000.000000      4.838867000000000E-01     -2.723730000000000E+01      2.219238000000000E-01      1.650234000000000E+02
3940000000.000000      4.842987000000000E-01     -2.871191000000000E+01      2.208939000000000E-01      1.366484000000000E+02
3960000000.000000      4.786987000000000E-01     -3.009082000000000E+01      2.213516000000000E-01      1.083633000000000E+02
3980000000.000000      4.698181000000000E-01     -3.072656000000000E+01      2.150040000000000E-01      7.986718000000000E+01
4000000000.000000      4.655609000000000E-01     -3.077441000000000E+01      2.119064000000000E-01      5.421875000000000E+01
4020000000.000000      4.682007000000000E-01     -3.064550000000000E+01      2.201538000000000E-01      2.637500000000000E+01
4040000000.000000      4.810486000000000E-01     -3.104785000000000E+01      2.198792000000000E-01     -4.154297000000000E+00
4060000000.000000      4.958038000000000E-01     -3.270508000000000E+01      2.158661000000000E-01     -3.299805000000000E+01
4080000000.000000      5.029297000000000E-01     -3.561718000000000E+01      2.160110000000000E-01     -6.197851000000000E+01
4100000000.000000      4.983215000000000E-01     -3.840625000000000E+01      2.159805000000000E-01     -9.146484000000000E+01
4120000000.000000      4.865723000000000E-01     -4.017578000000000E+01      2.135162000000000E-01     -1.217148000000000E+02
4140000000.000000      4.739380000000000E-01     -4.096680000000000E+01      2.062531000000000E-01     -1.500391000000000E+02
4160000000.000000      4.692383000000000E-01     -4.133789000000000E+01      2.087479000000000E-01     -1.765156000000000E+02
4180000000.000000      4.675598000000000E-01     -4.176367000000000E+01      2.137604000000000E-01      1.544531000000000E+02
4200000000.000000      4.678802000000000E-01     -4.280859000000000E+01      2.111282000000000E-01      1.258828000000000E+02
4220000000.000000      4.676819000000000E-01     -4.383985000000000E+01      2.125778000000000E-01      9.785156000000000E+01
4240000000.000000      4.621277000000000E-01     -4.480273000000000E+01      2.079163000000000E-01      6.893749000000000E+01
4260000000.000000      4.582672000000000E-01     -4.514062000000000E+01      2.030106000000000E-01      4.192383000000000E+01
4280000000.000000      4.586639000000000E-01     -4.518750000000000E+01      2.042313000000000E-01      1.432031000000000E+01
4300000000.000000      4.637756000000000E-01     -4.546875000000000E+01      2.033768000000000E-01     -1.417139000000000E+01
4320000000.000000      4.697723000000000E-01     -4.647656000000000E+01      2.035980000000000E-01     -4.331640000000000E+01
4340000000.000000      4.741669000000000E-01     -4.823047000000000E+01      2.037582000000000E-01     -7.288280000000000E+01
4360000000.000000      4.742737000000000E-01     -4.988281000000000E+01      2.037354000000000E-01     -1.030039000000000E+02
4380000000.000000      4.699860000000000E-01     -5.108398000000000E+01      2.013779000000000E-01     -1.331797000000000E+02
4400000000.000000      4.684753000000000E-01     -5.180273000000000E+01      2.000427000000000E-01     -1.617969000000000E+02
4420000000.000000      4.699860000000000E-01     -5.250000000000000E+01      2.055969000000000E-01      1.693203000000000E+02
4440000000.000000      4.743958000000000E-01     -5.357422000000000E+01      2.069778000000000E-01      1.395313000000000E+02
4460000000.000000      4.773560000000000E-01     -5.514453000000000E+01      2.063065000000000E-01      1.105859000000000E+02
4480000000.000000      4.721832000000000E-01     -5.703320000000000E+01      2.044525000000000E-01      8.189062000000000E+01
4500000000.000000      4.677277000000000E-01     -5.796093000000000E+01      2.006760000000000E-01      5.408789000000000E+01
4520000000.000000      4.600830000000000E-01     -5.853906000000000E+01      1.980286000000000E-01      2.580664000000000E+01
4540000000.000000      4.583282000000000E-01     -5.870703000000000E+01      1.919556000000000E-01     -2.304443000000000E+00
4560000000.000000      4.653778000000000E-01     -5.902734000000000E+01      1.911697000000000E-01     -2.990234000000000E+01
4580000000.000000      4.751740000000000E-01     -6.028906000000000E+01      1.917572000000000E-01     -6.020508000000000E+01
4600000000.000000      4.797058000000000E-01     -6.185351000000000E+01      1.895599000000000E-01     -9.068359000000000E+01
4620000000.000000      4.812927000000000E-01     -6.324219000000000E+01      1.886978000000000E-01     -1.221016000000000E+02
4640000000.000000      4.841766000000000E-01     -6.463281000000000E+01      1.856918000000000E-01     -1.534609000000000E+02
4660000000.000000      4.846344000000000E-01     -6.560937000000000E+01      1.868057000000000E-01      1.774219000000000E+02
4680000000.000000      4.893494000000000E-01     -6.667578000000000E+01      1.937408000000000E-01      1.471562000000000E+02
4700000000.000000      4.930725000000000E-01     -6.818359000000000E+01      1.965714000000000E-01      1.173672000000000E+02
4720000000.000000      4.963226000000000E-01     -7.008594000000000E+01      2.000580000000000E-01      8.888672000000000E+01
4740000000.000000      4.984589000000000E-01     -7.235546000000000E+01      2.035370000000000E-01      6.050195000000000E+01
4760000000.000000      4.976196000000000E-01     -7.457031000000000E+01      2.028809000000000E-01      3.288086000000000E+01
4780000000.000000      4.954681000000000E-01     -7.665625000000000E+01      1.992569000000000E-01      4.942383000000000E+00
4800000000.000000      4.909973000000000E-01     -7.887500000000000E+01      1.917801000000000E-01     -2.256543000000000E+01
4820000000.000000      4.799805000000000E-01     -8.119921000000000E+01      1.802597000000000E-01     -5.014257000000000E+01
4840000000.000000      4.617767000000000E-01     -8.296875000000000E+01      1.690292000000000E-01     -7.719531000000000E+01
4860000000.000000      4.439392000000000E-01     -8.381639000000000E+01      1.598434000000000E-01     -1.061914000000000E+02
4880000000.000000      4.243164000000000E-01     -8.321093000000000E+01      1.447525000000000E-01     -1.360625000000000E+02
4900000000.000000      4.141235000000000E-01     -8.164063000000000E+01      1.312561000000000E-01     -1.618750000000000E+02
4920000000.000000      4.172363000000000E-01     -7.969921000000000E+01      1.354141000000000E-01      1.728047000000000E+02
4940000000.000000      4.324493000000000E-01     -7.830078000000000E+01      1.492844000000000E-01      1.422031000000000E+02
4960000000.000000      4.578705000000000E-01     -7.860546000000000E+01      1.583939000000000E-01      1.098828000000000E+02
4980000000.000000      4.795685000000000E-01     -8.092188000000000E+01      1.693954000000000E-01      8.011328000000000E+01
5000000000.000000      4.899445000000000E-01     -8.405077000000000E+01      1.820602000000000E-01      5.026367000000000E+01
5020000000.000000      4.877625000000000E-01     -8.717577000000000E+01      1.889343000000000E-01      2.105762000000000E+01
5040000000.000000      4.758148000000000E-01     -8.926561000000000E+01      1.913757000000000E-01     -5.527588000000000E+00
5060000000.000000      4.663239000000000E-01     -9.031641000000000E+01      1.969070000000000E-01     -3.038574000000000E+01
5080000000.000000      4.587250000000000E-01     -9.083593000000000E+01      2.027206000000000E-01     -5.711132000000000E+01
5100000000.000000      4.580536000000000E-01     -9.144531000000000E+01      2.000351000000000E-01     -8.404688000000000E+01
5120000000.000000      4.598999000000000E-01     -9.225000000000000E+01      1.975632000000000E-01     -1.106133000000000E+02
5140000000.000000      4.622650000000000E-01     -9.294922000000000E+01      1.919098000000000E-01     -1.388906000000000E+02
5160000000.000000      4.653931000000000E-01     -9.391405000000000E+01      1.848526000000000E-01     -1.674766000000000E+02
5180000000.000000      4.713593000000000E-01     -9.477734000000000E+01      1.798859000000000E-01      1.619922000000000E+02
5200000000.000000      4.785614000000000E-01     -9.600389000000000E+01      1.759033000000000E-01      1.310391000000000E+02
5220000000.000000      4.833832000000000E-01     -9.762108000000000E+01      1.766052000000000E-01      9.969530000000000E+01
5240000000.000000      4.853821000000000E-01     -9.935156000000000E+01      1.805191000000000E-01      6.791406000000000E+01
5260000000.000000      4.841003000000000E-01     -1.010430000000000E+02      1.857681000000000E-01      3.686914000000000E+01
5280000000.000000      4.798584000000000E-01     -1.025273000000000E+02      1.914063000000000E-01      7.097168000000000E+00
5300000000.000000      4.775391000000000E-01     -1.035508000000000E+02      1.963196000000000E-01     -1.993750000000000E+01
5320000000.000000      4.764404000000000E-01     -1.046328000000000E+02      2.056274000000000E-01     -4.619922000000000E+01
5340000000.000000      4.768982000000000E-01     -1.057891000000000E+02      2.101288000000000E-01     -7.328125000000000E+01
5360000000.000000      4.767456000000000E-01     -1.072266000000000E+02      2.100449000000000E-01     -9.926952000000000E+01
5380000000.000000      4.781494000000000E-01     -1.082695000000000E+02      2.072220000000000E-01     -1.253320000000000E+02
5400000000.000000      4.774017000000000E-01     -1.093984000000000E+02      1.998215000000000E-01     -1.515469000000000E+02
5420000000.000000      4.799042000000000E-01     -1.098750000000000E+02      1.935196000000000E-01     -1.783281000000000E+02
5440000000.000000      4.860382000000000E-01     -1.106367000000000E+02      1.860352000000000E-01      1.524062000000000E+02
5460000000.000000      4.936981000000000E-01     -1.118633000000000E+02      1.747513000000000E-01      1.227266000000000E+02
5480000000.000000      5.013123000000000E-01     -1.137422000000000E+02      1.697617000000000E-01      9.103907000000000E+01
5500000000.000000      5.029602000000000E-01     -1.161797000000000E+02      1.685638000000000E-01      5.856640000000000E+01
5520000000.000000      4.988861000000000E-01     -1.184297000000000E+02      1.703033000000000E-01      2.584082000000000E+01
5540000000.000000      4.920654000000000E-01     -1.204531000000000E+02      1.731567000000000E-01     -5.787109000000000E+00
5560000000.000000      4.845734000000000E-01     -1.221992000000000E+02      1.802063000000000E-01     -3.408398000000000E+01
5580000000.000000      4.761505000000000E-01     -1.235976000000000E+02      1.914902000000000E-01     -6.208202000000000E+01
5600000000.000000      4.704285000000000E-01     -1.245391000000000E+02      1.974716000000000E-01     -8.905077000000000E+01
5620000000.000000      4.658966000000000E-01     -1.253516000000000E+02      2.029266000000000E-01     -1.146836000000000E+02
5640000000.000000      4.621887000000000E-01     -1.257773000000000E+02      2.038116000000000E-01     -1.403359000000000E+02
5660000000.000000      4.606934000000000E-01     -1.260586000000000E+02      1.996536000000000E-01     -1.651875000000000E+02
5680000000.000000      4.654388000000000E-01     -1.259414000000000E+02      1.935120000000000E-01      1.687500000000000E+02
5700000000.000000      4.752808000000000E-01     -1.268086000000000E+02      1.830750000000000E-01      1.423906000000000E+02
5720000000.000000      4.864655000000000E-01     -1.283437000000000E+02      1.722870000000000E-01      1.150352000000000E+02
5740000000.000000      4.948425000000000E-01     -1.311641000000000E+02      1.618805000000000E-01      8.430079000000000E+01
5760000000.000000      4.926910000000000E-01     -1.342266000000000E+02      1.506653000000000E-01      5.060547000000000E+01
5780000000.000000      4.816284000000000E-01     -1.369453000000000E+02      1.421432000000000E-01      1.614648000000000E+01
5800000000.000000      4.668121000000000E-01     -1.385078000000000E+02      1.405487000000000E-01     -1.683594000000000E+01
5820000000.000000      4.572296000000000E-01     -1.389688000000000E+02      1.500702000000000E-01     -4.874023000000000E+01
5840000000.000000      4.550629000000000E-01     -1.396250000000000E+02      1.635818000000000E-01     -8.056250000000000E+01
5860000000.000000      4.595642000000000E-01     -1.402578000000000E+02      1.749954000000000E-01     -1.093164000000000E+02
5880000000.000000      4.641266000000000E-01     -1.417969000000000E+02      1.847229000000000E-01     -1.362734000000000E+02
5900000000.000000      4.655914000000000E-01     -1.434922000000000E+02      1.926193000000000E-01     -1.620234000000000E+02
5920000000.000000      4.629517000000000E-01     -1.452188000000000E+02      1.964569000000000E-01      1.729141000000000E+02
5940000000.000000      4.586792000000000E-01     -1.465469000000000E+02      1.920700000000000E-01      1.473828000000000E+02
5960000000.000000      4.550934000000000E-01     -1.482578000000000E+02      1.813812000000000E-01      1.238008000000000E+02
5980000000.000000      4.491272000000000E-01     -1.499141000000000E+02      1.724243000000000E-01      9.866405000000000E+01
6000000000.000000      4.389801000000000E-01     -1.517812000000000E+02      1.576538000000000E-01      7.121875000000000E+01
6020000000.000000      4.229889000000000E-01     -1.532656000000000E+02      1.403656000000000E-01      4.193749000000000E+01
6040000000.000000      4.074554000000000E-01     -1.538594000000000E+02      1.211319000000000E-01      1.141992000000000E+01
6060000000.000000      3.961182000000000E-01     -1.537734000000000E+02      1.114426000000000E-01     -1.988183000000000E+01
6080000000.000000      3.934479000000000E-01     -1.527578000000000E+02      1.139717000000000E-01     -5.433594000000000E+01
