! Network Analyzer HP8722D
! Hewlett-Packard
! Data name: Linha com CNT
! Saver's name: Rodrigo Anjos
! Comments: Teste de deteccao de acetona 0-100ppm a partir de cilindro
! Time and date: 10/9/2025 17:13
!              Frequency                     S11                                                   S21                                                   S12                                                   S22
# HZ  S  MA R 50
3000000000.000000      4.714508000000000E-01      1.517480000000000E+01      2.322388000000000E-01      3.550586000000000E+01
3020000000.000000      4.798737000000000E-01      1.467041000000000E+01      2.366104000000000E-01      6.182373000000000E+00
3040000000.000000      4.871063000000000E-01      1.358984000000000E+01      2.368011000000000E-01     -2.312988000000000E+01
3060000000.000000      4.897614000000000E-01      1.174121000000000E+01      2.367020000000000E-01     -5.247460000000000E+01
3080000000.000000      4.889221000000000E-01      9.868164000000000E+00      2.328720000000000E-01     -8.135937000000000E+01
3100000000.000000      4.864807000000000E-01      8.600586000000000E+00      2.310638000000000E-01     -1.091016000000000E+02
3120000000.000000      4.837036000000000E-01      7.765869000000000E+00      2.309723000000000E-01     -1.377891000000000E+02
3140000000.000000      4.849854000000000E-01      6.789551000000000E+00      2.271347000000000E-01     -1.664375000000000E+02
3160000000.000000      4.863281000000000E-01      5.751221000000000E+00      2.238388000000000E-01      1.650781000000000E+02
3180000000.000000      4.819946000000000E-01      4.518066000000000E+00      2.181625000000000E-01      1.371641000000000E+02
3200000000.000000      4.726563000000000E-01      3.765503000000000E+00      2.141495000000000E-01      1.085469000000000E+02
3220000000.000000      4.615479000000000E-01      3.619995000000000E+00      2.048340000000000E-01      8.008204000000000E+01
3240000000.000000      4.558868000000000E-01      4.137695000000000E+00      1.984634000000000E-01      5.493164000000000E+01
3260000000.000000      4.555054000000000E-01      5.107178000000000E+00      2.073135000000000E-01      2.903320000000000E+01
3280000000.000000      4.651642000000000E-01      5.791016000000000E+00      2.152176000000000E-01     -2.348328000000000E-01
3300000000.000000      4.819946000000000E-01      5.435303000000000E+00      2.184830000000000E-01     -2.906641000000000E+01
3320000000.000000      4.986725000000000E-01      4.147217000000000E+00      2.261276000000000E-01     -5.795703000000000E+01
3340000000.000000      5.109558000000000E-01      2.217773000000000E+00      2.308960000000000E-01     -8.795702000000000E+01
3360000000.000000      5.155029000000000E-01      5.767822000000000E-02      2.333069000000000E-01     -1.175781000000000E+02
3380000000.000000      5.158691000000000E-01     -1.524353000000000E+00      2.329330000000000E-01     -1.470078000000000E+02
3400000000.000000      5.124817000000000E-01     -3.125610000000000E+00      2.323227000000000E-01     -1.757578000000000E+02
3420000000.000000      5.085754000000000E-01     -4.081543000000000E+00      2.303543000000000E-01      1.550625000000000E+02
3440000000.000000      5.038147000000000E-01     -5.401367000000000E+00      2.265167000000000E-01      1.269531000000000E+02
3460000000.000000      4.999847000000000E-01     -6.448975000000000E+00      2.264938000000000E-01      9.866405000000000E+01
3480000000.000000      4.998016000000000E-01     -7.470703000000000E+00      2.237091000000000E-01      6.966797000000000E+01
3500000000.000000      4.976044000000000E-01     -8.325195000000000E+00      2.217407000000000E-01      4.164063000000000E+01
3520000000.000000      4.981995000000000E-01     -9.210938000000000E+00      2.214127000000000E-01      1.264111000000000E+01
3540000000.000000      4.984283000000000E-01     -1.008691000000000E+01      2.173157000000000E-01     -1.576172000000000E+01
3560000000.000000      4.950867000000000E-01     -1.085352000000000E+01      2.187881000000000E-01     -4.392383000000000E+01
3580000000.000000      4.938507000000000E-01     -1.147412000000000E+01      2.184372000000000E-01     -7.268749000000000E+01
3600000000.000000      4.913177000000000E-01     -1.210693000000000E+01      2.181244000000000E-01     -1.000117000000000E+02
3620000000.000000      4.907837000000000E-01     -1.268115000000000E+01      2.225037000000000E-01     -1.283828000000000E+02
3640000000.000000      4.946899000000000E-01     -1.353125000000000E+01      2.239227000000000E-01     -1.568906000000000E+02
3660000000.000000      4.971771000000000E-01     -1.481934000000000E+01      2.251816000000000E-01      1.746641000000000E+02
3680000000.000000      4.982910000000000E-01     -1.624609000000000E+01      2.232361000000000E-01      1.462734000000000E+02
3700000000.000000      4.944916000000000E-01     -1.756640000000000E+01      2.220612000000000E-01      1.190156000000000E+02
3720000000.000000      4.895477000000000E-01     -1.845019000000000E+01      2.235184000000000E-01      9.060938000000000E+01
3740000000.000000      4.893341000000000E-01     -1.864746000000000E+01      2.189713000000000E-01      6.242969000000000E+01
3760000000.000000      4.905243000000000E-01     -1.888769000000000E+01      2.186127000000000E-01      3.524414000000000E+01
3780000000.000000      4.945984000000000E-01     -1.962305000000000E+01      2.209320000000000E-01      6.749512000000000E+00
3800000000.000000      5.005493000000000E-01     -2.092773000000000E+01      2.197113000000000E-01     -2.248535000000000E+01
3820000000.000000      4.993744000000000E-01     -2.277148000000000E+01      2.174530000000000E-01     -5.107226000000000E+01
3840000000.000000      4.954224000000000E-01     -2.407129000000000E+01      2.169876000000000E-01     -7.976171000000000E+01
3860000000.000000      4.910583000000000E-01     -2.499121000000000E+01      2.176132000000000E-01     -1.086250000000000E+02
3880000000.000000      4.894257000000000E-01     -2.540234000000000E+01      2.146683000000000E-01     -1.375391000000000E+02
3900000000.000000      4.935455000000000E-01     -2.601171000000000E+01      2.142029000000000E-01     -1.651484000000000E+02
3920000000.000000      4.985809000000000E-01     -2.716699000000000E+01      2.165985000000000E-01      1.664531000000000E+02
3940000000.000000      4.988861000000000E-01     -2.863672000000000E+01      2.164383000000000E-01      1.378828000000000E+02
3960000000.000000      4.926300000000000E-01     -3.006152000000000E+01      2.161407000000000E-01      1.096562000000000E+02
3980000000.000000      4.850922000000000E-01     -3.082910000000000E+01      2.106018000000000E-01      8.106249000000000E+01
4000000000.000000      4.795227000000000E-01     -3.101074000000000E+01      2.076187000000000E-01      5.549414000000000E+01
4020000000.000000      4.818115000000000E-01     -3.087109000000000E+01      2.159119000000000E-01      2.760839000000000E+01
4040000000.000000      4.951782000000000E-01     -3.133496000000000E+01      2.162781000000000E-01     -2.787842000000000E+00
4060000000.000000      5.077515000000000E-01     -3.287304000000000E+01      2.126083000000000E-01     -3.153711000000000E+01
4080000000.000000      5.166626000000000E-01     -3.568945000000000E+01      2.118225000000000E-01     -6.041210000000000E+01
4100000000.000000      5.103455000000000E-01     -3.809961000000000E+01      2.125397000000000E-01     -8.969530000000000E+01
4120000000.000000      4.994659000000000E-01     -4.007031000000000E+01      2.092972000000000E-01     -1.200781000000000E+02
4140000000.000000      4.886322000000000E-01     -4.112890000000000E+01      2.014771000000000E-01     -1.483750000000000E+02
4160000000.000000      4.826813000000000E-01     -4.148633000000000E+01      2.036285000000000E-01     -1.749609000000000E+02
4180000000.000000      4.812317000000000E-01     -4.189062000000000E+01      2.088394000000000E-01      1.558672000000000E+02
4200000000.000000      4.816437000000000E-01     -4.303124000000000E+01      2.058258000000000E-01      1.274023000000000E+02
4220000000.000000      4.810638000000000E-01     -4.411133000000000E+01      2.077866000000000E-01      9.912498000000000E+01
4240000000.000000      4.763336000000000E-01     -4.515429000000000E+01      2.033310000000000E-01      7.014062000000000E+01
4260000000.000000      4.729767000000000E-01     -4.538671000000000E+01      1.990204000000000E-01      4.322461000000000E+01
4280000000.000000      4.713440000000000E-01     -4.554296000000000E+01      2.001877000000000E-01      1.581738000000000E+01
4300000000.000000      4.753571000000000E-01     -4.579492000000000E+01      2.003021000000000E-01     -1.292285000000000E+01
4320000000.000000      4.832153000000000E-01     -4.693359000000000E+01      2.005539000000000E-01     -4.164258000000000E+01
4340000000.000000      4.874115000000000E-01     -4.842382000000000E+01      2.000732000000000E-01     -7.108593000000000E+01
4360000000.000000      4.857941000000000E-01     -5.008203000000000E+01      2.002716000000000E-01     -1.011484000000000E+02
4380000000.000000      4.822845000000000E-01     -5.133789000000000E+01      1.981125000000000E-01     -1.312578000000000E+02
4400000000.000000      4.810486000000000E-01     -5.201366000000000E+01      1.964874000000000E-01     -1.599062000000000E+02
4420000000.000000      4.832458000000000E-01     -5.262500000000000E+01      2.004776000000000E-01      1.712734000000000E+02
4440000000.000000      4.869232000000000E-01     -5.372460000000000E+01      2.022247000000000E-01      1.413984000000000E+02
4460000000.000000      4.883118000000000E-01     -5.525000000000000E+01      2.013702000000000E-01      1.120937000000000E+02
4480000000.000000      4.848938000000000E-01     -5.697851000000000E+01      1.997299000000000E-01      8.339453000000000E+01
4500000000.000000      4.783020000000000E-01     -5.832812000000000E+01      1.964569000000000E-01      5.535156000000000E+01
4520000000.000000      4.721985000000000E-01     -5.900781000000000E+01      1.939392000000000E-01      2.706738000000000E+01
4540000000.000000      4.710083000000000E-01     -5.898046000000000E+01      1.886215000000000E-01     -9.928894000000000E-01
4560000000.000000      4.762573000000000E-01     -5.939453000000000E+01      1.885300000000000E-01     -2.865039000000000E+01
4580000000.000000      4.851074000000000E-01     -6.046679000000000E+01      1.895905000000000E-01     -5.857226000000000E+01
4600000000.000000      4.915924000000000E-01     -6.189062000000000E+01      1.874924000000000E-01     -8.903906000000000E+01
4620000000.000000      4.920959000000000E-01     -6.334570000000000E+01      1.870117000000000E-01     -1.198984000000000E+02
4640000000.000000      4.947510000000000E-01     -6.448437000000000E+01      1.836166000000000E-01     -1.511562000000000E+02
4660000000.000000      4.969482000000000E-01     -6.575390000000000E+01      1.846466000000000E-01      1.797188000000000E+02
4680000000.000000      4.992523000000000E-01     -6.676171000000000E+01      1.896744000000000E-01      1.496250000000000E+02
4700000000.000000      5.044250000000000E-01     -6.832421000000000E+01      1.917572000000000E-01      1.195976000000000E+02
4720000000.000000      5.092163000000000E-01     -7.017968000000000E+01      1.949844000000000E-01      9.101954000000000E+01
4740000000.000000      5.109253000000000E-01     -7.204296000000000E+01      1.980133000000000E-01      6.230859000000000E+01
4760000000.000000      5.099182000000000E-01     -7.430469000000000E+01      1.967163000000000E-01      3.436328000000000E+01
4780000000.000000      5.064087000000000E-01     -7.614452000000000E+01      1.940231000000000E-01      6.216797000000000E+00
4800000000.000000      5.027466000000000E-01     -7.854297000000000E+01      1.870651000000000E-01     -2.157910000000000E+01
4820000000.000000      4.954529000000000E-01     -8.062891000000000E+01      1.771774000000000E-01     -4.950585000000000E+01
4840000000.000000      4.774475000000000E-01     -8.259766000000000E+01      1.669312000000000E-01     -7.661718000000000E+01
4860000000.000000      4.580383000000000E-01     -8.355469000000000E+01      1.593094000000000E-01     -1.054140000000000E+02
4880000000.000000      4.411926000000000E-01     -8.321484000000000E+01      1.453857000000000E-01     -1.350469000000000E+02
4900000000.000000      4.314575000000000E-01     -8.193359000000000E+01      1.326828000000000E-01     -1.605469000000000E+02
4920000000.000000      4.326172000000000E-01     -8.028906000000000E+01      1.371384000000000E-01      1.747031000000000E+02
4940000000.000000      4.463959000000000E-01     -7.901172000000000E+01      1.495209000000000E-01      1.447031000000000E+02
4960000000.000000      4.697723000000000E-01     -7.914453000000000E+01      1.579590000000000E-01      1.128047000000000E+02
4980000000.000000      4.918365000000000E-01     -8.115234000000000E+01      1.672516000000000E-01      8.289454000000000E+01
5000000000.000000      5.018311000000000E-01     -8.418749000000000E+01      1.783447000000000E-01      5.300976000000000E+01
5020000000.000000      4.992371000000000E-01     -8.707031000000000E+01      1.838379000000000E-01      2.326855000000000E+01
5040000000.000000      4.900208000000000E-01     -8.928514000000000E+01      1.857071000000000E-01     -3.481323000000000E+00
5060000000.000000      4.807281000000000E-01     -9.044922000000000E+01      1.910324000000000E-01     -2.878418000000000E+01
5080000000.000000      4.739990000000000E-01     -9.110155000000000E+01      1.966934000000000E-01     -5.576562000000000E+01
5100000000.000000      4.741821000000000E-01     -9.171484000000000E+01      1.943665000000000E-01     -8.292578000000000E+01
5120000000.000000      4.745331000000000E-01     -9.252344000000000E+01      1.931992000000000E-01     -1.097148000000000E+02
5140000000.000000      4.775543000000000E-01     -9.337891000000000E+01      1.892242000000000E-01     -1.380312000000000E+02
5160000000.000000      4.798737000000000E-01     -9.446484000000000E+01      1.838684000000000E-01     -1.667109000000000E+02
5180000000.000000      4.856415000000000E-01     -9.538280000000000E+01      1.794891000000000E-01      1.631797000000000E+02
5200000000.000000      4.920654000000000E-01     -9.658203000000000E+01      1.753082000000000E-01      1.323672000000000E+02
5220000000.000000      4.955902000000000E-01     -9.815233000000000E+01      1.759262000000000E-01      1.017031000000000E+02
5240000000.000000      4.971924000000000E-01     -9.972656000000000E+01      1.788254000000000E-01      7.037499000000000E+01
5260000000.000000      4.962463000000000E-01     -1.012461000000000E+02      1.831970000000000E-01      3.956055000000000E+01
5280000000.000000      4.926300000000000E-01     -1.026015000000000E+02      1.880875000000000E-01      9.803711000000000E+00
5300000000.000000      4.909363000000000E-01     -1.037695000000000E+02      1.918488000000000E-01     -1.752539000000000E+01
5320000000.000000      4.896545000000000E-01     -1.047852000000000E+02      1.999741000000000E-01     -4.420117000000000E+01
5340000000.000000      4.907227000000000E-01     -1.060430000000000E+02      2.038116000000000E-01     -7.171875000000000E+01
5360000000.000000      4.913788000000000E-01     -1.074141000000000E+02      2.035980000000000E-01     -9.798046000000000E+01
5380000000.000000      4.917145000000000E-01     -1.085664000000000E+02      2.018356000000000E-01     -1.242266000000000E+02
5400000000.000000      4.917908000000000E-01     -1.097461000000000E+02      1.959534000000000E-01     -1.507813000000000E+02
5420000000.000000      4.935608000000000E-01     -1.103203000000000E+02      1.908264000000000E-01     -1.777187000000000E+02
5440000000.000000      4.992371000000000E-01     -1.110547000000000E+02      1.842346000000000E-01      1.532734000000000E+02
5460000000.000000      5.060425000000000E-01     -1.122344000000000E+02      1.747284000000000E-01      1.237344000000000E+02
5480000000.000000      5.121460000000000E-01     -1.137383000000000E+02      1.706696000000000E-01      9.301561000000000E+01
5500000000.000000      5.138245000000000E-01     -1.160469000000000E+02      1.688309000000000E-01      6.115820000000000E+01
5520000000.000000      5.105591000000000E-01     -1.181680000000000E+02      1.696777000000000E-01      2.884375000000000E+01
5540000000.000000      5.054016000000000E-01     -1.201641000000000E+02      1.711121000000000E-01     -2.493896000000000E+00
5560000000.000000      4.990692000000000E-01     -1.218867000000000E+02      1.763153000000000E-01     -3.108593000000000E+01
5580000000.000000      4.914551000000000E-01     -1.234062000000000E+02      1.853104000000000E-01     -5.945117000000000E+01
5600000000.000000      4.870911000000000E-01     -1.242734000000000E+02      1.911240000000000E-01     -8.687500000000000E+01
5620000000.000000      4.828033000000000E-01     -1.251797000000000E+02      1.954651000000000E-01     -1.131250000000000E+02
5640000000.000000      4.790497000000000E-01     -1.257578000000000E+02      1.967392000000000E-01     -1.392656000000000E+02
5660000000.000000      4.776306000000000E-01     -1.259023000000000E+02      1.938248000000000E-01     -1.646641000000000E+02
5680000000.000000      4.810638000000000E-01     -1.261797000000000E+02      1.897888000000000E-01      1.692422000000000E+02
5700000000.000000      4.903412000000000E-01     -1.267656000000000E+02      1.818085000000000E-01      1.426719000000000E+02
5720000000.000000      5.004578000000000E-01     -1.281563000000000E+02      1.738052000000000E-01      1.151914000000000E+02
5740000000.000000      5.074768000000000E-01     -1.305859000000000E+02      1.662750000000000E-01      8.517969000000000E+01
5760000000.000000      5.079041000000000E-01     -1.334297000000000E+02      1.567993000000000E-01      5.252734000000000E+01
5780000000.000000      4.997559000000000E-01     -1.358047000000000E+02      1.485901000000000E-01      1.932617000000000E+01
5800000000.000000      4.885864000000000E-01     -1.374063000000000E+02      1.449203000000000E-01     -1.213477000000000E+01
5820000000.000000      4.808197000000000E-01     -1.380156000000000E+02      1.519775000000000E-01     -4.353320000000000E+01
5840000000.000000      4.799347000000000E-01     -1.388516000000000E+02      1.620560000000000E-01     -7.542187000000000E+01
5860000000.000000      4.843292000000000E-01     -1.397266000000000E+02      1.702042000000000E-01     -1.046641000000000E+02
5880000000.000000      4.894257000000000E-01     -1.413672000000000E+02      1.775208000000000E-01     -1.325703000000000E+02
5900000000.000000      4.911652000000000E-01     -1.431797000000000E+02      1.839600000000000E-01     -1.594375000000000E+02
5920000000.000000      4.888611000000000E-01     -1.450391000000000E+02      1.865768000000000E-01      1.744219000000000E+02
5940000000.000000      4.846497000000000E-01     -1.463125000000000E+02      1.824493000000000E-01      1.478437000000000E+02
5960000000.000000      4.816132000000000E-01     -1.477578000000000E+02      1.738815000000000E-01      1.232500000000000E+02
5980000000.000000      4.770966000000000E-01     -1.492344000000000E+02      1.679153000000000E-01      9.711718000000000E+01
6000000000.000000      4.702454000000000E-01     -1.510313000000000E+02      1.570892000000000E-01      6.885547000000000E+01
6020000000.000000      4.565430000000000E-01     -1.527109000000000E+02      1.433105000000000E-01      3.913281000000000E+01
6040000000.000000      4.439697000000000E-01     -1.537891000000000E+02      1.281967000000000E-01      8.752930000000000E+00
6060000000.000000      4.332886000000000E-01     -1.543516000000000E+02      1.205750000000000E-01     -2.134961000000000E+01
6080000000.000000      4.283600000000000E-01     -1.539844000000000E+02      1.244087000000000E-01     -5.348046000000000E+01
