! Network Analyzer HP8722D
! Hewlett-Packard
! Data name: Linha com CNT
! Saver's name: Rodrigo Anjos
! Comments: Teste de deteccao de acetona 0-100ppm a partir de cilindro
! Time and date: 10/9/2025 18:42
!              Frequency                     S11                                                   S21                                                   S12                                                   S22
# HZ  S  MA R 50
3000000000.000000      8.214188000000000E-02      9.082811000000000E+01      4.544983000000000E-01      2.483301000000000E+01
3020000000.000000      9.661102000000000E-02      7.634766000000000E+01      4.551392000000000E-01     -4.106201000000000E+00
3040000000.000000      9.594345000000000E-02      6.060741000000000E+01      4.557648000000000E-01     -3.282617000000000E+01
3060000000.000000      8.292007000000000E-02      4.651172000000000E+01      4.532623000000000E-01     -6.141796000000000E+01
3080000000.000000      6.167603000000000E-02      3.744336000000000E+01      4.530945000000000E-01     -9.000391000000000E+01
3100000000.000000      4.456329000000000E-02      4.095117000000000E+01      4.517822000000000E-01     -1.185117000000000E+02
3120000000.000000      3.970718000000000E-02      5.413086000000000E+01      4.497986000000000E-01     -1.470937000000000E+02
3140000000.000000      3.960419000000000E-02      5.825390000000000E+01      4.456940000000000E-01     -1.754766000000000E+02
3160000000.000000      3.116417000000000E-02      6.046679000000000E+01      4.412842000000000E-01      1.561719000000000E+02
3180000000.000000      2.227879000000000E-02      1.074023000000000E+02      4.404449000000000E-01      1.274414000000000E+02
3200000000.000000      5.439377000000000E-02      1.424609000000000E+02      4.357910000000000E-01      9.801170000000000E+01
3220000000.000000      1.053047000000000E-01      1.361250000000000E+02      4.222870000000000E-01      6.869141000000000E+01
3240000000.000000      1.561890000000000E-01      1.214883000000000E+02      4.114075000000000E-01      4.135742000000000E+01
3260000000.000000      1.975479000000000E-01      1.050781000000000E+02      4.160004000000000E-01      1.397852000000000E+01
3280000000.000000      2.238388000000000E-01      8.840624000000000E+01      4.197998000000000E-01     -1.553467000000000E+01
3300000000.000000      2.326736000000000E-01      7.193359000000000E+01      4.152222000000000E-01     -4.407422000000000E+01
3320000000.000000      2.266159000000000E-01      5.698632000000000E+01      4.181061000000000E-01     -7.182422000000000E+01
3340000000.000000      2.101517000000000E-01      4.468359000000000E+01      4.227142000000000E-01     -1.004648000000000E+02
3360000000.000000      1.863632000000000E-01      3.539648000000000E+01      4.229584000000000E-01     -1.289141000000000E+02
3380000000.000000      1.627579000000000E-01      3.058398000000000E+01      4.285278000000000E-01     -1.569219000000000E+02
3400000000.000000      1.432343000000000E-01      2.874023000000000E+01      4.314728000000000E-01      1.741172000000000E+02
3420000000.000000      1.289673000000000E-01      2.879590000000000E+01      4.321289000000000E-01      1.455547000000000E+02
3440000000.000000      1.163673000000000E-01      2.894433000000000E+01      4.304352000000000E-01      1.169102000000000E+02
3460000000.000000      1.055603000000000E-01      3.088574000000000E+01      4.275208000000000E-01      8.847265000000000E+01
3480000000.000000      9.903717000000000E-02      3.388672000000000E+01      4.288635000000000E-01      5.967187000000000E+01
3500000000.000000      9.591293000000000E-02      3.703320000000000E+01      4.239655000000000E-01      3.046972000000000E+01
3520000000.000000      9.460068000000000E-02      3.986914000000000E+01      4.217987000000000E-01      2.312622000000000E+00
3540000000.000000      9.497833000000000E-02      4.327929000000000E+01      4.243469000000000E-01     -2.606445000000000E+01
3560000000.000000      9.792709000000000E-02      4.871875000000000E+01      4.258118000000000E-01     -5.523242000000000E+01
3580000000.000000      1.064568000000000E-01      5.372851000000000E+01      4.245300000000000E-01     -8.418360000000000E+01
3600000000.000000      1.206703000000000E-01      5.433788000000000E+01      4.253845000000000E-01     -1.121367000000000E+02
3620000000.000000      1.343307000000000E-01      5.113476000000000E+01      4.264221000000000E-01     -1.404687000000000E+02
3640000000.000000      1.393280000000000E-01      4.462110000000000E+01      4.253845000000000E-01     -1.688516000000000E+02
3660000000.000000      1.334229000000000E-01      3.798242000000000E+01      4.241486000000000E-01      1.633750000000000E+02
3680000000.000000      1.201057000000000E-01      3.509961000000000E+01      4.293213000000000E-01      1.356172000000000E+02
3700000000.000000      1.078987000000000E-01      3.871484000000000E+01      4.293518000000000E-01      1.070820000000000E+02
3720000000.000000      1.101761000000000E-01      4.719336000000000E+01      4.274139000000000E-01      7.852734000000000E+01
3740000000.000000      1.290894000000000E-01      5.034961000000000E+01      4.225311000000000E-01      5.004883000000000E+01
3760000000.000000      1.476059000000000E-01      4.655078000000000E+01      4.159088000000000E-01      2.217090000000000E+01
3780000000.000000      1.539536000000000E-01      3.892969000000000E+01      4.145813000000000E-01     -5.513916000000000E+00
3800000000.000000      1.452637000000000E-01      3.163086000000000E+01      4.177551000000000E-01     -3.386133000000000E+01
3820000000.000000      1.257553000000000E-01      2.908886000000000E+01      4.170074000000000E-01     -6.270312000000000E+01
3840000000.000000      1.118660000000000E-01      3.479492000000000E+01      4.152832000000000E-01     -9.187891000000000E+01
3860000000.000000      1.184235000000000E-01      4.262109000000000E+01      4.153137000000000E-01     -1.206523000000000E+02
3880000000.000000      1.371384000000000E-01      4.367578000000000E+01      4.116669000000000E-01     -1.499766000000000E+02
3900000000.000000      1.511383000000000E-01      3.740039000000000E+01      4.040070000000000E-01     -1.784688000000000E+02
3920000000.000000      1.483459000000000E-01      2.990332000000000E+01      4.051514000000000E-01      1.545547000000000E+02
3940000000.000000      1.303406000000000E-01      2.645996000000000E+01      4.138641000000000E-01      1.260547000000000E+02
3960000000.000000      1.129646000000000E-01      3.291211000000000E+01      4.130859000000000E-01      9.653906000000000E+01
3980000000.000000      1.200333000000000E-01      4.576172000000000E+01      4.051514000000000E-01      6.816796000000000E+01
4000000000.000000      1.515808000000000E-01      4.854687000000000E+01      3.983459000000000E-01      4.108203000000000E+01
4020000000.000000      1.834488000000000E-01      4.124219000000000E+01      4.037170000000000E-01      1.347314000000000E+01
4040000000.000000      2.006454000000000E-01      2.875488000000000E+01      4.047546000000000E-01     -1.662598000000000E+01
4060000000.000000      1.936646000000000E-01      1.494824000000000E+01      3.904724000000000E-01     -4.552343000000000E+01
4080000000.000000      1.643143000000000E-01      2.257690000000000E+00      3.898163000000000E-01     -7.227734000000000E+01
4100000000.000000      1.182442000000000E-01     -4.354736000000000E+00      4.011993000000000E-01     -1.009844000000000E+02
4120000000.000000      7.820129000000000E-02      7.815186000000000E+00      3.984833000000000E-01     -1.309453000000000E+02
4140000000.000000      7.846832000000000E-02      3.526367000000000E+01      3.933563000000000E-01     -1.598438000000000E+02
4160000000.000000      1.026077000000000E-01      4.331055000000000E+01      3.949890000000000E-01      1.722891000000000E+02
4180000000.000000      1.200485000000000E-01      4.024023000000000E+01      4.026337000000000E-01      1.435781000000000E+02
4200000000.000000      1.223793000000000E-01      3.742773000000000E+01      4.028320000000000E-01      1.137773000000000E+02
4220000000.000000      1.214218000000000E-01      3.911523000000000E+01      3.972015000000000E-01      8.438280000000000E+01
4240000000.000000      1.313095000000000E-01      4.490430000000000E+01      3.895874000000000E-01      5.600390000000000E+01
4260000000.000000      1.558838000000000E-01      4.616015000000000E+01      3.856049000000000E-01      2.806543000000000E+01
4280000000.000000      1.815109000000000E-01      4.141406000000000E+01      3.862305000000000E-01     -2.925110000000000E-01
4300000000.000000      1.962509000000000E-01      3.342968000000000E+01      3.832092000000000E-01     -2.926562000000000E+01
4320000000.000000      1.955338000000000E-01      2.566797000000000E+01      3.795319000000000E-01     -5.789648000000000E+01
4340000000.000000      1.817627000000000E-01      2.026367000000000E+01      3.784943000000000E-01     -8.657812000000000E+01
4360000000.000000      1.689835000000000E-01      1.972265000000000E+01      3.777466000000000E-01     -1.159101000000000E+02
4380000000.000000      1.682892000000000E-01      2.206152000000000E+01      3.747864000000000E-01     -1.455078000000000E+02
4400000000.000000      1.790695000000000E-01      2.162598000000000E+01      3.710632000000000E-01     -1.746484000000000E+02
4420000000.000000      1.885223000000000E-01      1.739062000000000E+01      3.721619000000000E-01      1.565156000000000E+02
4440000000.000000      1.848450000000000E-01      1.164404000000000E+01      3.746948000000000E-01      1.266445000000000E+02
4460000000.000000      1.690369000000000E-01      8.890625000000000E+00      3.686218000000000E-01      9.716015000000000E+01
4480000000.000000      1.515579000000000E-01      1.259424000000000E+01      3.644104000000000E-01      6.885156000000000E+01
4500000000.000000      1.543732000000000E-01      2.097558000000000E+01      3.650513000000000E-01      4.006836000000000E+01
4520000000.000000      1.793747000000000E-01      2.483789000000000E+01      3.609467000000000E-01      1.044092000000000E+01
4540000000.000000      2.093048000000000E-01      2.070508000000000E+01      3.524780000000000E-01     -1.894043000000000E+01
4560000000.000000      2.281952000000000E-01      1.293213000000000E+01      3.465118000000000E-01     -4.711133000000000E+01
4580000000.000000      2.331085000000000E-01      4.309326000000000E+00      3.492889000000000E-01     -7.629687000000000E+01
4600000000.000000      2.258148000000000E-01     -2.532349000000000E+00      3.436737000000000E-01     -1.065898000000000E+02
4620000000.000000      2.149048000000000E-01     -6.988770000000000E+00      3.387451000000000E-01     -1.360312000000000E+02
4640000000.000000      2.091293000000000E-01     -9.462402000000000E+00      3.395844000000000E-01     -1.653906000000000E+02
4660000000.000000      2.086029000000000E-01     -1.253857000000000E+01      3.385162000000000E-01      1.655547000000000E+02
4680000000.000000      2.075958000000000E-01     -1.752734000000000E+01      3.406830000000000E-01      1.365703000000000E+02
4700000000.000000      1.996460000000000E-01     -2.392773000000000E+01      3.426056000000000E-01      1.069102000000000E+02
4720000000.000000      1.831818000000000E-01     -3.057910000000000E+01      3.374023000000000E-01      7.878515000000000E+01
4740000000.000000      1.625061000000000E-01     -3.637890000000000E+01      3.442841000000000E-01      5.080273000000000E+01
4760000000.000000      1.386032000000000E-01     -4.112695000000000E+01      3.451080000000000E-01      2.233887000000000E+01
4780000000.000000      1.133041000000000E-01     -4.534375000000000E+01      3.415833000000000E-01     -6.250000000000000E+00
4800000000.000000      8.122253000000000E-02     -4.905273000000000E+01      3.386536000000000E-01     -3.470312000000000E+01
4820000000.000000      3.882408000000000E-02     -4.040235000000000E+01      3.310089000000000E-01     -6.375000000000000E+01
4840000000.000000      3.987122000000000E-02      5.010742000000000E+01      3.249817000000000E-01     -9.279688000000000E+01
4860000000.000000      1.060829000000000E-01      5.832617000000000E+01      3.189240000000000E-01     -1.234062000000000E+02
4880000000.000000      1.761780000000000E-01      4.701757000000000E+01      2.987366000000000E-01     -1.542969000000000E+02
4900000000.000000      2.362976000000000E-01      3.177051000000000E+01      2.763214000000000E-01      1.780859000000000E+02
4920000000.000000      2.781982000000000E-01      1.585449000000000E+01      2.768097000000000E-01      1.527734000000000E+02
4940000000.000000      2.977448000000000E-01      2.760315000000000E-01      2.889252000000000E-01      1.242188000000000E+02
4960000000.000000      2.952118000000000E-01     -1.459424000000000E+01      2.924805000000000E-01      9.445704000000000E+01
4980000000.000000      2.696228000000000E-01     -2.782910000000000E+01      2.969055000000000E-01      6.719140000000000E+01
5000000000.000000      2.266464000000000E-01     -3.758203000000000E+01      3.106537000000000E-01      3.968945000000000E+01
5020000000.000000      1.794357000000000E-01     -3.993555000000000E+01      3.212738000000000E-01      1.134473000000000E+01
5040000000.000000      1.503143000000000E-01     -3.317187000000000E+01      3.288879000000000E-01     -1.592090000000000E+01
5060000000.000000      1.515579000000000E-01     -2.376953000000000E+01      3.374176000000000E-01     -4.342382000000000E+01
5080000000.000000      1.676636000000000E-01     -2.082129000000000E+01      3.427734000000000E-01     -7.187500000000000E+01
5100000000.000000      1.814804000000000E-01     -2.313867000000000E+01      3.374329000000000E-01     -1.005508000000000E+02
5120000000.000000      1.870346000000000E-01     -2.708008000000000E+01      3.327179000000000E-01     -1.279453000000000E+02
5140000000.000000      1.878433000000000E-01     -3.023438000000000E+01      3.314667000000000E-01     -1.561484000000000E+02
5160000000.000000      1.891098000000000E-01     -3.304101000000000E+01      3.292542000000000E-01      1.745000000000000E+02
5180000000.000000      1.911240000000000E-01     -3.629492000000000E+01      3.260803000000000E-01      1.448906000000000E+02
5200000000.000000      1.920700000000000E-01     -4.040429000000000E+01      3.240662000000000E-01      1.151484000000000E+02
5220000000.000000      1.869202000000000E-01     -4.433398000000000E+01      3.238678000000000E-01      8.551952000000000E+01
5240000000.000000      1.790924000000000E-01     -4.662499000000000E+01      3.283234000000000E-01      5.595703000000000E+01
5260000000.000000      1.720505000000000E-01     -4.673633000000000E+01      3.318787000000000E-01      2.630176000000000E+01
5280000000.000000      1.702118000000000E-01     -4.575976000000000E+01      3.361664000000000E-01     -2.642212000000000E+00
5300000000.000000      1.746750000000000E-01     -4.623242000000000E+01      3.380585000000000E-01     -3.094336000000000E+01
5320000000.000000      1.779099000000000E-01     -4.870703000000000E+01      3.423920000000000E-01     -5.807422000000000E+01
5340000000.000000      1.755295000000000E-01     -5.239843000000000E+01      3.464050000000000E-01     -8.596483000000000E+01
5360000000.000000      1.688690000000000E-01     -5.556835000000000E+01      3.407288000000000E-01     -1.135859000000000E+02
5380000000.000000      1.621170000000000E-01     -5.665039000000000E+01      3.375092000000000E-01     -1.400547000000000E+02
5400000000.000000      1.615601000000000E-01     -5.617188000000000E+01      3.371429000000000E-01     -1.676563000000000E+02
5420000000.000000      1.701126000000000E-01     -5.618945000000000E+01      3.311005000000000E-01      1.639219000000000E+02
5440000000.000000      1.806946000000000E-01     -5.905859000000000E+01      3.268890000000000E-01      1.350625000000000E+02
5460000000.000000      1.865387000000000E-01     -6.464844000000000E+01      3.168793000000000E-01      1.055391000000000E+02
5480000000.000000      1.821213000000000E-01     -7.123437000000000E+01      3.117218000000000E-01      7.619531000000000E+01
5500000000.000000      1.662827000000000E-01     -7.660546000000000E+01      3.134766000000000E-01      4.676758000000000E+01
5520000000.000000      1.448975000000000E-01     -7.964844000000000E+01      3.141022000000000E-01      1.670605000000000E+01
5540000000.000000      1.266937000000000E-01     -7.876953000000000E+01      3.177643000000000E-01     -1.285010000000000E+01
5560000000.000000      1.146698000000000E-01     -7.530468000000000E+01      3.234100000000000E-01     -4.196094000000000E+01
5580000000.000000      1.084900000000000E-01     -7.083984000000000E+01      3.289948000000000E-01     -7.066796000000000E+01
5600000000.000000      1.062965000000000E-01     -6.589844000000000E+01      3.328400000000000E-01     -9.861328000000000E+01
5620000000.000000      1.096611000000000E-01     -5.918359000000000E+01      3.350372000000000E-01     -1.266211000000000E+02
5640000000.000000      1.241035000000000E-01     -5.307031000000000E+01      3.331146000000000E-01     -1.544219000000000E+02
5660000000.000000      1.486664000000000E-01     -5.255077000000000E+01      3.280792000000000E-01      1.782891000000000E+02
5680000000.000000      1.749496000000000E-01     -5.768945000000000E+01      3.212585000000000E-01      1.502500000000000E+02
5700000000.000000      1.932983000000000E-01     -6.711328000000000E+01      3.109283000000000E-01      1.219492000000000E+02
5720000000.000000      1.962585000000000E-01     -7.858984000000000E+01      2.988892000000000E-01      9.441406000000000E+01
5740000000.000000      1.824341000000000E-01     -8.959375000000000E+01      2.951660000000000E-01      6.591406000000000E+01
5760000000.000000      1.555176000000000E-01     -9.827343000000000E+01      2.922821000000000E-01      3.538476000000000E+01
5780000000.000000      1.265411000000000E-01     -9.951172000000000E+01      2.879639000000000E-01      5.207520000000000E+00
5800000000.000000      1.112328000000000E-01     -9.267187000000000E+01      2.891693000000000E-01     -2.475683000000000E+01
5820000000.000000      1.153107000000000E-01     -8.682812000000000E+01      2.938080000000000E-01     -5.468359000000000E+01
5840000000.000000      1.255264000000000E-01     -8.942968000000000E+01      3.014984000000000E-01     -8.493359000000000E+01
5860000000.000000      1.276779000000000E-01     -9.706249000000000E+01      3.005066000000000E-01     -1.141055000000000E+02
5880000000.000000      1.179199000000000E-01     -1.068633000000000E+02      3.015442000000000E-01     -1.416797000000000E+02
5900000000.000000      9.802628000000000E-02     -1.127773000000000E+02      3.101807000000000E-01     -1.688672000000000E+02
5920000000.000000      7.855988000000000E-02     -1.113242000000000E+02      3.137207000000000E-01      1.627500000000000E+02
5940000000.000000      7.037354000000000E-02     -1.018594000000000E+02      3.084412000000000E-01      1.338359000000000E+02
5960000000.000000      6.954956000000000E-02     -9.640234000000000E+01      2.965698000000000E-01      1.059727000000000E+02
5980000000.000000      6.384659000000000E-02     -9.563671000000000E+01      2.886810000000000E-01      7.855859000000000E+01
6000000000.000000      4.887009000000000E-02     -8.773829000000000E+01      2.855682000000000E-01      4.894921000000000E+01
6020000000.000000      4.032707000000000E-02     -5.386328000000000E+01      2.757111000000000E-01      1.802930000000000E+01
6040000000.000000      6.457138000000000E-02     -2.950586000000000E+01      2.642670000000000E-01     -1.182031000000000E+01
6060000000.000000      9.888840000000000E-02     -3.198339000000000E+01      2.611084000000000E-01     -4.160937000000000E+01
6080000000.000000      1.274338000000000E-01     -4.260938000000000E+01      2.664490000000000E-01     -7.193749000000000E+01
