! Network Analyzer HP8722D
! Hewlett-Packard
! Data name: Linha com CNT
! Saver's name: Rodrigo Anjos
! Comments: Teste de deteccao de acetona 0-100ppm a partir de cilindro
! Time and date: 10/9/2025 16:08
!              Frequency                     S11                                                   S21                                                   S12                                                   S22
# HZ  S  MA R 50
3000000000.000000      4.496918000000000E-01      1.545459000000000E+01      2.446518000000000E-01      3.396875000000000E+01
3020000000.000000      4.572601000000000E-01      1.486426000000000E+01      2.489548000000000E-01      4.552246000000000E+00
3040000000.000000      4.647217000000000E-01      1.379297000000000E+01      2.497635000000000E-01     -2.466992000000000E+01
3060000000.000000      4.688873000000000E-01      1.196240000000000E+01      2.486649000000000E-01     -5.396679000000000E+01
3080000000.000000      4.675751000000000E-01      1.014404000000000E+01      2.451706000000000E-01     -8.282421000000000E+01
3100000000.000000      4.643402000000000E-01      8.809570000000000E+00      2.431641000000000E-01     -1.105664000000000E+02
3120000000.000000      4.621887000000000E-01      7.782227000000000E+00      2.432632000000000E-01     -1.392969000000000E+02
3140000000.000000      4.624329000000000E-01      6.885498000000000E+00      2.394180000000000E-01     -1.679297000000000E+02
3160000000.000000      4.634705000000000E-01      5.693604000000000E+00      2.353745000000000E-01      1.636562000000000E+02
3180000000.000000      4.581757000000000E-01      4.596191000000000E+00      2.292862000000000E-01      1.354609000000000E+02
3200000000.000000      4.490051000000000E-01      3.895996000000000E+00      2.257385000000000E-01      1.070469000000000E+02
3220000000.000000      4.382629000000000E-01      3.832764000000000E+00      2.160263000000000E-01      7.835155000000000E+01
3240000000.000000      4.313049000000000E-01      4.621094000000000E+00      2.095108000000000E-01      5.327343000000000E+01
3260000000.000000      4.331818000000000E-01      5.910645000000000E+00      2.184830000000000E-01      2.722949000000000E+01
3280000000.000000      4.436188000000000E-01      6.643799000000000E+00      2.267303000000000E-01     -2.315430000000000E+00
3300000000.000000      4.618225000000000E-01      6.369141000000000E+00      2.292023000000000E-01     -3.095703000000000E+01
3320000000.000000      4.800262000000000E-01      4.901123000000000E+00      2.372055000000000E-01     -5.975780000000000E+01
3340000000.000000      4.917145000000000E-01      2.691650000000000E+00      2.418594000000000E-01     -8.967968000000000E+01
3360000000.000000      4.968567000000000E-01      3.446960000000000E-01      2.440033000000000E-01     -1.193398000000000E+02
3380000000.000000      4.959564000000000E-01     -1.354065000000000E+00      2.437973000000000E-01     -1.485625000000000E+02
3400000000.000000      4.909821000000000E-01     -2.947144000000000E+00      2.431717000000000E-01     -1.773828000000000E+02
3420000000.000000      4.873047000000000E-01     -4.034912000000000E+00      2.416687000000000E-01      1.533359000000000E+02
3440000000.000000      4.824524000000000E-01     -5.272217000000000E+00      2.369232000000000E-01      1.252461000000000E+02
3460000000.000000      4.786224000000000E-01     -6.328125000000000E+00      2.376022000000000E-01      9.708202000000000E+01
3480000000.000000      4.766693000000000E-01     -7.348633000000000E+00      2.344437000000000E-01      6.798828000000000E+01
3500000000.000000      4.750671000000000E-01     -8.090332000000000E+00      2.323914000000000E-01      4.000977000000000E+01
3520000000.000000      4.746399000000000E-01     -9.197266000000000E+00      2.329407000000000E-01      1.108350000000000E+01
3540000000.000000      4.739227000000000E-01     -9.970215000000000E+00      2.280807000000000E-01     -1.750293000000000E+01
3560000000.000000      4.732056000000000E-01     -1.062549000000000E+01      2.298737000000000E-01     -4.566796000000000E+01
3580000000.000000      4.707947000000000E-01     -1.120215000000000E+01      2.293320000000000E-01     -7.439453000000000E+01
3600000000.000000      4.696198000000000E-01     -1.175977000000000E+01      2.293549000000000E-01     -1.018906000000000E+02
3620000000.000000      4.714050000000000E-01     -1.228027000000000E+01      2.338257000000000E-01     -1.301250000000000E+02
3640000000.000000      4.736786000000000E-01     -1.311523000000000E+01      2.347794000000000E-01     -1.586562000000000E+02
3660000000.000000      4.755402000000000E-01     -1.457617000000000E+01      2.362823000000000E-01      1.730391000000000E+02
3680000000.000000      4.763031000000000E-01     -1.598926000000000E+01      2.344437000000000E-01      1.445234000000000E+02
3700000000.000000      4.723358000000000E-01     -1.720410000000000E+01      2.325134000000000E-01      1.172070000000000E+02
3720000000.000000      4.679260000000000E-01     -1.793262000000000E+01      2.343521000000000E-01      8.885546000000000E+01
3740000000.000000      4.670258000000000E-01     -1.821973000000000E+01      2.293472000000000E-01      6.057422000000000E+01
3760000000.000000      4.698029000000000E-01     -1.832129000000000E+01      2.285614000000000E-01      3.340820000000000E+01
3780000000.000000      4.737701000000000E-01     -1.907422000000000E+01      2.311020000000000E-01      4.870850000000000E+00
3800000000.000000      4.794006000000000E-01     -2.048144000000000E+01      2.295532000000000E-01     -2.436523000000000E+01
3820000000.000000      4.779510000000000E-01     -2.220410000000000E+01      2.278976000000000E-01     -5.294335000000000E+01
3840000000.000000      4.743347000000000E-01     -2.367871000000000E+01      2.275467000000000E-01     -8.149609000000000E+01
3860000000.000000      4.709930000000000E-01     -2.457129000000000E+01      2.281876000000000E-01     -1.106289000000000E+02
3880000000.000000      4.683685000000000E-01     -2.493164000000000E+01      2.250900000000000E-01     -1.393906000000000E+02
3900000000.000000      4.726563000000000E-01     -2.546582000000000E+01      2.239838000000000E-01     -1.669844000000000E+02
3920000000.000000      4.776917000000000E-01     -2.665039000000000E+01      2.272110000000000E-01      1.645937000000000E+02
3940000000.000000      4.776611000000000E-01     -2.822461000000000E+01      2.262726000000000E-01      1.361250000000000E+02
3960000000.000000      4.727936000000000E-01     -2.949316000000000E+01      2.267227000000000E-01      1.078242000000000E+02
3980000000.000000      4.639282000000000E-01     -3.024609000000000E+01      2.203674000000000E-01      7.923437000000000E+01
4000000000.000000      4.592438000000000E-01     -3.025097000000000E+01      2.177734000000000E-01      5.365624000000000E+01
4020000000.000000      4.628601000000000E-01     -3.013476000000000E+01      2.256241000000000E-01      2.590429000000000E+01
4040000000.000000      4.756012000000000E-01     -3.058887000000000E+01      2.258224000000000E-01     -4.722900000000000E+00
4060000000.000000      4.898376000000000E-01     -3.233007000000000E+01      2.212906000000000E-01     -3.338476000000000E+01
4080000000.000000      4.976044000000000E-01     -3.527344000000000E+01      2.211380000000000E-01     -6.230663000000000E+01
4100000000.000000      4.918060000000000E-01     -3.780468000000000E+01      2.218475000000000E-01     -9.168749000000000E+01
4120000000.000000      4.801636000000000E-01     -3.993359000000000E+01      2.191162000000000E-01     -1.220391000000000E+02
4140000000.000000      4.682007000000000E-01     -4.051367000000000E+01      2.110138000000000E-01     -1.503047000000000E+02
4160000000.000000      4.617767000000000E-01     -4.087304000000000E+01      2.133942000000000E-01     -1.768125000000000E+02
4180000000.000000      4.604797000000000E-01     -4.133594000000000E+01      2.188568000000000E-01      1.539297000000000E+02
4200000000.000000      4.606171000000000E-01     -4.230078000000000E+01      2.156982000000000E-01      1.254609000000000E+02
4220000000.000000      4.608307000000000E-01     -4.340039000000000E+01      2.172699000000000E-01      9.726563000000000E+01
4240000000.000000      4.554291000000000E-01     -4.430273000000000E+01      2.132339000000000E-01      6.819530000000000E+01
4260000000.000000      4.540558000000000E-01     -4.480273000000000E+01      2.077484000000000E-01      4.118750000000000E+01
4280000000.000000      4.517975000000000E-01     -4.469531000000000E+01      2.093353000000000E-01      1.377100000000000E+01
4300000000.000000      4.561768000000000E-01     -4.486524000000000E+01      2.086258000000000E-01     -1.499268000000000E+01
4320000000.000000      4.627075000000000E-01     -4.574804000000000E+01      2.086182000000000E-01     -4.382226000000000E+01
4340000000.000000      4.677277000000000E-01     -4.754296000000000E+01      2.087250000000000E-01     -7.325390000000000E+01
4360000000.000000      4.679718000000000E-01     -4.918359000000000E+01      2.089081000000000E-01     -1.032656000000000E+02
4380000000.000000      4.632874000000000E-01     -5.047070000000000E+01      2.066574000000000E-01     -1.334922000000000E+02
4400000000.000000      4.616699000000000E-01     -5.113476000000000E+01      2.047501000000000E-01     -1.621172000000000E+02
4420000000.000000      4.641113000000000E-01     -5.171875000000000E+01      2.094498000000000E-01      1.688984000000000E+02
4440000000.000000      4.682312000000000E-01     -5.284180000000000E+01      2.108688000000000E-01      1.391875000000000E+02
4460000000.000000      4.703827000000000E-01     -5.423437000000000E+01      2.097549000000000E-01      1.100430000000000E+02
4480000000.000000      4.680481000000000E-01     -5.620312000000000E+01      2.081909000000000E-01      8.121485000000000E+01
4500000000.000000      4.600067000000000E-01     -5.758398000000000E+01      2.045517000000000E-01      5.333984000000000E+01
4520000000.000000      4.524384000000000E-01     -5.798046000000000E+01      2.020950000000000E-01      2.495312000000000E+01
4540000000.000000      4.530029000000000E-01     -5.796679000000000E+01      1.961212000000000E-01     -3.232788000000000E+00
4560000000.000000      4.591217000000000E-01     -5.839844000000000E+01      1.958008000000000E-01     -3.067285000000000E+01
4580000000.000000      4.694977000000000E-01     -5.926367000000000E+01      1.966171000000000E-01     -6.075781000000000E+01
4600000000.000000      4.748230000000000E-01     -6.075000000000000E+01      1.943436000000000E-01     -9.112890000000000E+01
4620000000.000000      4.774170000000000E-01     -6.251367000000000E+01      1.938553000000000E-01     -1.222227000000000E+02
4640000000.000000      4.776764000000000E-01     -6.366211000000000E+01      1.903229000000000E-01     -1.536016000000000E+02
4660000000.000000      4.806976000000000E-01     -6.473046000000000E+01      1.908646000000000E-01      1.774219000000000E+02
4680000000.000000      4.826202000000000E-01     -6.578515000000000E+01      1.971130000000000E-01      1.471328000000000E+02
4700000000.000000      4.895630000000000E-01     -6.747265000000000E+01      1.992111000000000E-01      1.174023000000000E+02
4720000000.000000      4.922180000000000E-01     -6.926171000000000E+01      2.027283000000000E-01      8.906250000000000E+01
4740000000.000000      4.940643000000000E-01     -7.159374000000000E+01      2.067337000000000E-01      6.025000000000000E+01
4760000000.000000      4.923859000000000E-01     -7.364452000000000E+01      2.054672000000000E-01      3.240234000000000E+01
4780000000.000000      4.888458000000000E-01     -7.577343000000000E+01      2.019196000000000E-01      4.416504000000000E+00
4800000000.000000      4.838867000000000E-01     -7.818359000000000E+01      1.951523000000000E-01     -2.318945000000000E+01
4820000000.000000      4.740143000000000E-01     -8.030468000000000E+01      1.844559000000000E-01     -5.116211000000000E+01
4840000000.000000      4.562836000000000E-01     -8.205469000000000E+01      1.741028000000000E-01     -7.851563000000000E+01
4860000000.000000      4.367828000000000E-01     -8.287889000000000E+01      1.655807000000000E-01     -1.072344000000000E+02
4880000000.000000      4.190521000000000E-01     -8.212500000000000E+01      1.507492000000000E-01     -1.369922000000000E+02
4900000000.000000      4.093628000000000E-01     -8.044922000000000E+01      1.369095000000000E-01     -1.629141000000000E+02
4920000000.000000      4.131165000000000E-01     -7.840234000000000E+01      1.414032000000000E-01      1.722734000000000E+02
4940000000.000000      4.290771000000000E-01     -7.700781000000000E+01      1.542206000000000E-01      1.419375000000000E+02
4960000000.000000      4.542236000000000E-01     -7.732812000000000E+01      1.632080000000000E-01      1.102422000000000E+02
4980000000.000000      4.766693000000000E-01     -7.984765000000000E+01      1.724701000000000E-01      8.042969000000000E+01
5000000000.000000      4.865875000000000E-01     -8.293749000000000E+01      1.846237000000000E-01      5.056445000000000E+01
5020000000.000000      4.832153000000000E-01     -8.618750000000000E+01      1.909943000000000E-01      2.123730000000000E+01
5040000000.000000      4.720459000000000E-01     -8.829687000000000E+01      1.931381000000000E-01     -5.469971000000000E+00
5060000000.000000      4.618530000000000E-01     -8.923437000000000E+01      1.988907000000000E-01     -3.074609000000000E+01
5080000000.000000      4.554138000000000E-01     -8.986328000000000E+01      2.042007000000000E-01     -5.766406000000000E+01
5100000000.000000      4.552612000000000E-01     -9.029297000000000E+01      2.021332000000000E-01     -8.487499000000000E+01
5120000000.000000      4.568024000000000E-01     -9.111719000000000E+01      2.005844000000000E-01     -1.115781000000000E+02
5140000000.000000      4.600830000000000E-01     -9.194530000000000E+01      1.957245000000000E-01     -1.401172000000000E+02
5160000000.000000      4.624634000000000E-01     -9.298046000000000E+01      1.897049000000000E-01     -1.687969000000000E+02
5180000000.000000      4.685822000000000E-01     -9.386328000000000E+01      1.855774000000000E-01      1.611562000000000E+02
5200000000.000000      4.751434000000000E-01     -9.510937000000000E+01      1.812057000000000E-01      1.303125000000000E+02
5220000000.000000      4.792023000000000E-01     -9.669531000000000E+01      1.816254000000000E-01      9.938671000000000E+01
5240000000.000000      4.811249000000000E-01     -9.836718000000000E+01      1.846848000000000E-01      6.812109000000000E+01
5260000000.000000      4.795227000000000E-01     -1.000312000000000E+02      1.895142000000000E-01      3.733007000000000E+01
5280000000.000000      4.760132000000000E-01     -1.013359000000000E+02      1.942596000000000E-01      7.581787000000000E+00
5300000000.000000      4.727936000000000E-01     -1.024297000000000E+02      1.985321000000000E-01     -1.985254000000000E+01
5320000000.000000      4.724884000000000E-01     -1.034219000000000E+02      2.071381000000000E-01     -4.625000000000000E+01
5340000000.000000      4.731140000000000E-01     -1.046406000000000E+02      2.119370000000000E-01     -7.375000000000000E+01
5360000000.000000      4.729309000000000E-01     -1.059883000000000E+02      2.115402000000000E-01     -9.956640000000000E+01
5380000000.000000      4.747009000000000E-01     -1.071875000000000E+02      2.096252000000000E-01     -1.262539000000000E+02
5400000000.000000      4.744415000000000E-01     -1.083125000000000E+02      2.024155000000000E-01     -1.525156000000000E+02
5420000000.000000      4.765320000000000E-01     -1.089063000000000E+02      1.977005000000000E-01     -1.794609000000000E+02
5440000000.000000      4.822998000000000E-01     -1.095430000000000E+02      1.905899000000000E-01      1.512031000000000E+02
5460000000.000000      4.895172000000000E-01     -1.107930000000000E+02      1.798172000000000E-01      1.216836000000000E+02
5480000000.000000      4.964142000000000E-01     -1.124883000000000E+02      1.757584000000000E-01      9.092968000000000E+01
5500000000.000000      4.977875000000000E-01     -1.149726000000000E+02      1.739655000000000E-01      5.888085000000000E+01
5520000000.000000      4.930878000000000E-01     -1.171641000000000E+02      1.752777000000000E-01      2.653125000000000E+01
5540000000.000000      4.860535000000000E-01     -1.191094000000000E+02      1.772156000000000E-01     -4.812012000000000E+00
5560000000.000000      4.787140000000000E-01     -1.207969000000000E+02      1.825638000000000E-01     -3.330664000000000E+01
5580000000.000000      4.711304000000000E-01     -1.220742000000000E+02      1.928558000000000E-01     -6.161718000000000E+01
5600000000.000000      4.666901000000000E-01     -1.231211000000000E+02      1.987762000000000E-01     -8.894531000000000E+01
5620000000.000000      4.601135000000000E-01     -1.239063000000000E+02      2.038651000000000E-01     -1.149101000000000E+02
5640000000.000000      4.576111000000000E-01     -1.242617000000000E+02      2.043457000000000E-01     -1.410547000000000E+02
5660000000.000000      4.571838000000000E-01     -1.245039000000000E+02      2.013550000000000E-01     -1.664453000000000E+02
5680000000.000000      4.609528000000000E-01     -1.245313000000000E+02      1.962128000000000E-01      1.677109000000000E+02
5700000000.000000      4.714203000000000E-01     -1.251953000000000E+02      1.868591000000000E-01      1.407891000000000E+02
5720000000.000000      4.832306000000000E-01     -1.266406000000000E+02      1.774597000000000E-01      1.135586000000000E+02
5740000000.000000      4.899902000000000E-01     -1.293359000000000E+02      1.687851000000000E-01      8.342188000000000E+01
5760000000.000000      4.888611000000000E-01     -1.323594000000000E+02      1.586990000000000E-01      5.061913000000000E+01
5780000000.000000      4.787292000000000E-01     -1.348672000000000E+02      1.505890000000000E-01      1.706543000000000E+01
5800000000.000000      4.656219000000000E-01     -1.362969000000000E+02      1.477127000000000E-01     -1.479346000000000E+01
5820000000.000000      4.573364000000000E-01     -1.367422000000000E+02      1.552658000000000E-01     -4.640234000000000E+01
5840000000.000000      4.568176000000000E-01     -1.373828000000000E+02      1.668625000000000E-01     -7.812500000000000E+01
5860000000.000000      4.619141000000000E-01     -1.381953000000000E+02      1.760330000000000E-01     -1.074726000000000E+02
5880000000.000000      4.675140000000000E-01     -1.398984000000000E+02      1.844330000000000E-01     -1.352500000000000E+02
5900000000.000000      4.681244000000000E-01     -1.418125000000000E+02      1.905670000000000E-01     -1.615469000000000E+02
5920000000.000000      4.650879000000000E-01     -1.436094000000000E+02      1.940918000000000E-01      1.727344000000000E+02
5940000000.000000      4.611664000000000E-01     -1.449687000000000E+02      1.900940000000000E-01      1.463125000000000E+02
5960000000.000000      4.572144000000000E-01     -1.463359000000000E+02      1.813202000000000E-01      1.219414000000000E+02
5980000000.000000      4.514313000000000E-01     -1.477422000000000E+02      1.743393000000000E-01      9.614061000000000E+01
6000000000.000000      4.430847000000000E-01     -1.496172000000000E+02      1.626740000000000E-01      6.825781000000000E+01
6020000000.000000      4.297943000000000E-01     -1.512734000000000E+02      1.475372000000000E-01      3.838281000000000E+01
6040000000.000000      4.140320000000000E-01     -1.520625000000000E+02      1.308975000000000E-01      8.084473000000000E+00
6060000000.000000      4.048157000000000E-01     -1.520469000000000E+02      1.225052000000000E-01     -2.225586000000000E+01
6080000000.000000      4.007263000000000E-01     -1.513203000000000E+02      1.253510000000000E-01     -5.491405000000000E+01
