! Network Analyzer HP8722D
! Hewlett-Packard
! Data name: Linha com CNT
! Saver's name: Rodrigo Anjos
! Comments: Teste de deteccao de acetona 0-100ppm a partir de cilindro
! Time and date: 10/9/2025 16:08
!              Frequency                     S11                                                   S21                                                   S12                                                   S22
# HZ  S  MA R 50
3000000000.000000      4.228058000000000E-01      1.626660000000000E+01      2.579651000000000E-01      3.284765000000000E+01
3020000000.000000      4.307861000000000E-01      1.575146000000000E+01      2.619019000000000E-01      3.416748000000000E+00
3040000000.000000      4.396362000000000E-01      1.459766000000000E+01      2.618256000000000E-01     -2.578808000000000E+01
3060000000.000000      4.435883000000000E-01      1.255859000000000E+01      2.617950000000000E-01     -5.503711000000000E+01
3080000000.000000      4.411621000000000E-01      1.065918000000000E+01      2.582855000000000E-01     -8.405077000000000E+01
3100000000.000000      4.371643000000000E-01      9.323242000000000E+00      2.561646000000000E-01     -1.117773000000000E+02
3120000000.000000      4.349365000000000E-01      8.389160000000000E+00      2.553711000000000E-01     -1.403359000000000E+02
3140000000.000000      4.350128000000000E-01      7.416992000000000E+00      2.518768000000000E-01     -1.689375000000000E+02
3160000000.000000      4.354248000000000E-01      6.215332000000000E+00      2.484360000000000E-01      1.624063000000000E+02
3180000000.000000      4.297180000000000E-01      5.041260000000000E+00      2.417374000000000E-01      1.342969000000000E+02
3200000000.000000      4.191437000000000E-01      4.472656000000000E+00      2.381973000000000E-01      1.058203000000000E+02
3220000000.000000      4.064941000000000E-01      4.715820000000000E+00      2.279282000000000E-01      7.711719000000000E+01
3240000000.000000      4.008636000000000E-01      5.957275000000000E+00      2.208862000000000E-01      5.172070000000000E+01
3260000000.000000      4.042969000000000E-01      7.569580000000000E+00      2.300644000000000E-01      2.556055000000000E+01
3280000000.000000      4.170685000000000E-01      8.525391000000000E+00      2.381744000000000E-01     -3.831543000000000E+00
3300000000.000000      4.376526000000000E-01      8.144531000000000E+00      2.407913000000000E-01     -3.250000000000000E+01
3320000000.000000      4.574280000000000E-01      6.395264000000000E+00      2.484131000000000E-01     -6.126171000000000E+01
3340000000.000000      4.695740000000000E-01      3.990723000000000E+00      2.531891000000000E-01     -9.098827000000000E+01
3360000000.000000      4.738922000000000E-01      1.381531000000000E+00      2.560272000000000E-01     -1.206016000000000E+02
3380000000.000000      4.713135000000000E-01     -5.424500000000000E-01      2.557373000000000E-01     -1.498984000000000E+02
3400000000.000000      4.667664000000000E-01     -2.132813000000000E+00      2.548065000000000E-01     -1.786875000000000E+02
3420000000.000000      4.627838000000000E-01     -3.188843000000000E+00      2.535858000000000E-01      1.521016000000000E+02
3440000000.000000      4.578094000000000E-01     -4.420654000000000E+00      2.489471000000000E-01      1.239453000000000E+02
3460000000.000000      4.537048000000000E-01     -5.480957000000000E+00      2.493439000000000E-01      9.574610000000000E+01
3480000000.000000      4.510040000000000E-01     -6.543945000000000E+00      2.467728000000000E-01      6.670312000000000E+01
3500000000.000000      4.499969000000000E-01     -7.349854000000000E+00      2.442169000000000E-01      3.864843000000000E+01
3520000000.000000      4.489441000000000E-01     -8.308594000000000E+00      2.443390000000000E-01      9.536133000000000E+00
3540000000.000000      4.481812000000000E-01     -9.121582000000000E+00      2.401657000000000E-01     -1.883496000000000E+01
3560000000.000000      4.466553000000000E-01     -9.669434000000000E+00      2.418518000000000E-01     -4.700391000000000E+01
3580000000.000000      4.438629000000000E-01     -1.018750000000000E+01      2.409897000000000E-01     -7.578906000000000E+01
3600000000.000000      4.433441000000000E-01     -1.062256000000000E+01      2.411728000000000E-01     -1.033164000000000E+02
3620000000.000000      4.453125000000000E-01     -1.113232000000000E+01      2.457428000000000E-01     -1.316015000000000E+02
3640000000.000000      4.482574000000000E-01     -1.193848000000000E+01      2.463226000000000E-01     -1.599844000000000E+02
3660000000.000000      4.504242000000000E-01     -1.347363000000000E+01      2.478333000000000E-01      1.716563000000000E+02
3680000000.000000      4.501038000000000E-01     -1.494873000000000E+01      2.462387000000000E-01      1.431094000000000E+02
3700000000.000000      4.463196000000000E-01     -1.629590000000000E+01      2.441101000000000E-01      1.159805000000000E+02
3720000000.000000      4.410858000000000E-01     -1.690722000000000E+01      2.458191000000000E-01      8.750780000000000E+01
3740000000.000000      4.409332000000000E-01     -1.705859000000000E+01      2.409058000000000E-01      5.908984000000000E+01
3760000000.000000      4.436951000000000E-01     -1.693848000000000E+01      2.397308000000000E-01      3.200586000000000E+01
3780000000.000000      4.495087000000000E-01     -1.785156000000000E+01      2.425003000000000E-01      3.405762000000000E+00
3800000000.000000      4.546051000000000E-01     -1.930859000000000E+01      2.409286000000000E-01     -2.570313000000000E+01
3820000000.000000      4.526367000000000E-01     -2.114551000000000E+01      2.390137000000000E-01     -5.440624000000000E+01
3840000000.000000      4.481659000000000E-01     -2.259277000000000E+01      2.386780000000000E-01     -8.309374000000000E+01
3860000000.000000      4.433594000000000E-01     -2.332422000000000E+01      2.393570000000000E-01     -1.120078000000000E+02
3880000000.000000      4.422607000000000E-01     -2.366113000000000E+01      2.362900000000000E-01     -1.408672000000000E+02
3900000000.000000      4.469910000000000E-01     -2.413769000000000E+01      2.350159000000000E-01     -1.684219000000000E+02
3920000000.000000      4.523163000000000E-01     -2.538574000000000E+01      2.378693000000000E-01      1.631797000000000E+02
3940000000.000000      4.526367000000000E-01     -2.703125000000000E+01      2.375412000000000E-01      1.344531000000000E+02
3960000000.000000      4.464417000000000E-01     -2.837402000000000E+01      2.380447000000000E-01      1.062773000000000E+02
3980000000.000000      4.369354000000000E-01     -2.904297000000000E+01      2.312164000000000E-01      7.765625000000000E+01
4000000000.000000      4.328308000000000E-01     -2.877344000000000E+01      2.281265000000000E-01      5.204492000000000E+01
4020000000.000000      4.373627000000000E-01     -2.851660000000000E+01      2.364273000000000E-01      2.418359000000000E+01
4040000000.000000      4.517975000000000E-01     -2.893555000000000E+01      2.361450000000000E-01     -6.277344000000000E+00
4060000000.000000      4.672394000000000E-01     -3.094629000000000E+01      2.313843000000000E-01     -3.507031000000000E+01
4080000000.000000      4.735565000000000E-01     -3.407812000000000E+01      2.315826000000000E-01     -6.378515000000000E+01
4100000000.000000      4.674530000000000E-01     -3.699609000000000E+01      2.321548000000000E-01     -9.306250000000000E+01
4120000000.000000      4.535370000000000E-01     -3.896875000000000E+01      2.300415000000000E-01     -1.234180000000000E+02
4140000000.000000      4.404449000000000E-01     -3.966992000000000E+01      2.218323000000000E-01     -1.517891000000000E+02
4160000000.000000      4.339752000000000E-01     -3.975000000000000E+01      2.242737000000000E-01     -1.783203000000000E+02
4180000000.000000      4.337158000000000E-01     -4.007813000000000E+01      2.291260000000000E-01      1.524922000000000E+02
4200000000.000000      4.335327000000000E-01     -4.093946000000000E+01      2.267380000000000E-01      1.236484000000000E+02
4220000000.000000      4.335785000000000E-01     -4.202734000000000E+01      2.275848000000000E-01      9.567577000000000E+01
4240000000.000000      4.278412000000000E-01     -4.291992000000000E+01      2.235947000000000E-01      6.643359000000000E+01
4260000000.000000      4.245758000000000E-01     -4.311328000000000E+01      2.180328000000000E-01      3.942968000000000E+01
4280000000.000000      4.249878000000000E-01     -4.298437000000000E+01      2.193375000000000E-01      1.193896000000000E+01
4300000000.000000      4.317017000000000E-01     -4.321485000000000E+01      2.189713000000000E-01     -1.678711000000000E+01
4320000000.000000      4.385529000000000E-01     -4.411523000000000E+01      2.183838000000000E-01     -4.560156000000000E+01
4340000000.000000      4.427185000000000E-01     -4.590039000000000E+01      2.187576000000000E-01     -7.505859000000000E+01
4360000000.000000      4.423523000000000E-01     -4.766992000000000E+01      2.189331000000000E-01     -1.050195000000000E+02
4380000000.000000      4.380493000000000E-01     -4.880273000000000E+01      2.165985000000000E-01     -1.351094000000000E+02
4400000000.000000      4.360046000000000E-01     -4.946875000000000E+01      2.146225000000000E-01     -1.638125000000000E+02
4420000000.000000      4.389954000000000E-01     -4.997851000000000E+01      2.188797000000000E-01      1.674453000000000E+02
4440000000.000000      4.430695000000000E-01     -5.112695000000000E+01      2.206268000000000E-01      1.374844000000000E+02
4460000000.000000      4.467621000000000E-01     -5.283203000000000E+01      2.192917000000000E-01      1.084492000000000E+02
4480000000.000000      4.432068000000000E-01     -5.478516000000000E+01      2.172318000000000E-01      7.966406000000000E+01
4500000000.000000      4.332275000000000E-01     -5.576953000000000E+01      2.142715000000000E-01      5.159180000000000E+01
4520000000.000000      4.264069000000000E-01     -5.627539000000000E+01      2.111969000000000E-01      2.315918000000000E+01
4540000000.000000      4.272614000000000E-01     -5.606640000000000E+01      2.049637000000000E-01     -5.048340000000000E+00
4560000000.000000      4.341278000000000E-01     -5.638085000000000E+01      2.042465000000000E-01     -3.264648000000000E+01
4580000000.000000      4.449463000000000E-01     -5.741211000000000E+01      2.057266000000000E-01     -6.274609000000000E+01
4600000000.000000      4.516754000000000E-01     -5.901562000000000E+01      2.031860000000000E-01     -9.308203000000000E+01
4620000000.000000      4.550476000000000E-01     -6.081055000000000E+01      2.026291000000000E-01     -1.240898000000000E+02
4640000000.000000      4.551239000000000E-01     -6.187695000000000E+01      1.992569000000000E-01     -1.553672000000000E+02
4660000000.000000      4.572144000000000E-01     -6.301367000000000E+01      2.000580000000000E-01      1.757969000000000E+02
4680000000.000000      4.597473000000000E-01     -6.428124000000000E+01      2.060547000000000E-01      1.457109000000000E+02
4700000000.000000      4.657745000000000E-01     -6.588281000000000E+01      2.079239000000000E-01      1.159258000000000E+02
4720000000.000000      4.699707000000000E-01     -6.798046000000000E+01      2.108917000000000E-01      8.749609000000000E+01
4740000000.000000      4.709167000000000E-01     -7.046875000000000E+01      2.139435000000000E-01      5.908203000000000E+01
4760000000.000000      4.696960000000000E-01     -7.266796000000000E+01      2.134476000000000E-01      3.098926000000000E+01
4780000000.000000      4.648438000000000E-01     -7.494531000000000E+01      2.101746000000000E-01      2.953857000000000E+00
4800000000.000000      4.577332000000000E-01     -7.729687000000000E+01      2.033539000000000E-01     -2.486621000000000E+01
4820000000.000000      4.461823000000000E-01     -7.966797000000000E+01      1.925735000000000E-01     -5.292187000000000E+01
4840000000.000000      4.262848000000000E-01     -8.133984000000000E+01      1.819382000000000E-01     -8.011719000000000E+01
4860000000.000000      4.060211000000000E-01     -8.188280000000000E+01      1.738586000000000E-01     -1.093320000000000E+02
4880000000.000000      3.871307000000000E-01     -8.064062000000000E+01      1.579666000000000E-01     -1.392969000000000E+02
4900000000.000000      3.798523000000000E-01     -7.818359000000000E+01      1.443176000000000E-01     -1.652344000000000E+02
4920000000.000000      3.860779000000000E-01     -7.567577000000000E+01      1.488037000000000E-01      1.698906000000000E+02
4940000000.000000      4.060059000000000E-01     -7.424609000000000E+01      1.620407000000000E-01      1.397266000000000E+02
4960000000.000000      4.339600000000000E-01     -7.494531000000000E+01      1.703491000000000E-01      1.082109000000000E+02
4980000000.000000      4.570007000000000E-01     -7.769531000000000E+01      1.807861000000000E-01      7.875781000000000E+01
5000000000.000000      4.651794000000000E-01     -8.145702000000000E+01      1.925354000000000E-01      4.910937000000000E+01
5020000000.000000      4.597473000000000E-01     -8.464844000000000E+01      1.989517000000000E-01      1.981152000000000E+01
5040000000.000000      4.472046000000000E-01     -8.683594000000000E+01      2.009277000000000E-01     -7.127441000000000E+00
5060000000.000000      4.365997000000000E-01     -8.767969000000000E+01      2.065659000000000E-01     -3.248632000000000E+01
5080000000.000000      4.308167000000000E-01     -8.808985000000000E+01      2.124863000000000E-01     -5.960546000000000E+01
5100000000.000000      4.311218000000000E-01     -8.851954000000000E+01      2.094193000000000E-01     -8.664843000000000E+01
5120000000.000000      4.337311000000000E-01     -8.942577000000000E+01      2.078705000000000E-01     -1.136094000000000E+02
5140000000.000000      4.363861000000000E-01     -9.021093000000000E+01      2.029343000000000E-01     -1.418594000000000E+02
5160000000.000000      4.398499000000000E-01     -9.120312000000000E+01      1.975784000000000E-01     -1.708984000000000E+02
5180000000.000000      4.456177000000000E-01     -9.214453000000000E+01      1.930695000000000E-01      1.590625000000000E+02
5200000000.000000      4.521179000000000E-01     -9.342968000000000E+01      1.890411000000000E-01      1.282656000000000E+02
5220000000.000000      4.564362000000000E-01     -9.511328000000000E+01      1.898346000000000E-01      9.769531000000000E+01
5240000000.000000      4.576569000000000E-01     -9.683983000000000E+01      1.932449000000000E-01      6.644921000000000E+01
5260000000.000000      4.561768000000000E-01     -9.858593000000000E+01      1.984024000000000E-01      3.560351000000000E+01
5280000000.000000      4.514313000000000E-01     -9.991014000000000E+01      2.028809000000000E-01      5.892578000000000E+00
5300000000.000000      4.490662000000000E-01     -1.009180000000000E+02      2.066422000000000E-01     -2.138379000000000E+01
5320000000.000000      4.487457000000000E-01     -1.018437000000000E+02      2.149277000000000E-01     -4.783789000000000E+01
5340000000.000000      4.497833000000000E-01     -1.031562000000000E+02      2.192688000000000E-01     -7.522655000000000E+01
5360000000.000000      4.500732000000000E-01     -1.044180000000000E+02      2.186890000000000E-01     -1.015117000000000E+02
5380000000.000000      4.507599000000000E-01     -1.056367000000000E+02      2.163925000000000E-01     -1.279375000000000E+02
5400000000.000000      4.505920000000000E-01     -1.068125000000000E+02      2.098007000000000E-01     -1.544844000000000E+02
5420000000.000000      4.535828000000000E-01     -1.073242000000000E+02      2.037735000000000E-01      1.785000000000000E+02
5440000000.000000      4.599152000000000E-01     -1.080430000000000E+02      1.973572000000000E-01      1.492578000000000E+02
5460000000.000000      4.673462000000000E-01     -1.092500000000000E+02      1.866226000000000E-01      1.196016000000000E+02
5480000000.000000      4.747772000000000E-01     -1.111914000000000E+02      1.831818000000000E-01      8.890234000000000E+01
5500000000.000000      4.750977000000000E-01     -1.137422000000000E+02      1.816559000000000E-01      5.704687000000000E+01
5520000000.000000      4.695892000000000E-01     -1.160234000000000E+02      1.834564000000000E-01      2.479199000000000E+01
5540000000.000000      4.620819000000000E-01     -1.180117000000000E+02      1.853256000000000E-01     -6.210205000000000E+00
5560000000.000000      4.532623000000000E-01     -1.196680000000000E+02      1.906738000000000E-01     -3.477734000000000E+01
5580000000.000000      4.468689000000000E-01     -1.208633000000000E+02      2.006454000000000E-01     -6.297656000000000E+01
5600000000.000000      4.410706000000000E-01     -1.218008000000000E+02      2.060699000000000E-01     -9.038671000000000E+01
5620000000.000000      4.355164000000000E-01     -1.224219000000000E+02      2.110977000000000E-01     -1.165430000000000E+02
5640000000.000000      4.326782000000000E-01     -1.229453000000000E+02      2.116623000000000E-01     -1.429766000000000E+02
5660000000.000000      4.322205000000000E-01     -1.226758000000000E+02      2.075272000000000E-01     -1.683359000000000E+02
5680000000.000000      4.377594000000000E-01     -1.227109000000000E+02      2.020569000000000E-01      1.655469000000000E+02
5700000000.000000      4.490662000000000E-01     -1.233672000000000E+02      1.930695000000000E-01      1.387031000000000E+02
5720000000.000000      4.615936000000000E-01     -1.249687000000000E+02      1.837158000000000E-01      1.111289000000000E+02
5740000000.000000      4.685059000000000E-01     -1.280391000000000E+02      1.754837000000000E-01      8.108984000000000E+01
5760000000.000000      4.667053000000000E-01     -1.312109000000000E+02      1.660690000000000E-01      4.837109000000000E+01
5780000000.000000      4.544525000000000E-01     -1.338438000000000E+02      1.579132000000000E-01      1.512793000000000E+01
5800000000.000000      4.409637000000000E-01     -1.351641000000000E+02      1.549683000000000E-01     -1.680859000000000E+01
5820000000.000000      4.329376000000000E-01     -1.355781000000000E+02      1.628876000000000E-01     -4.795703000000000E+01
5840000000.000000      4.330292000000000E-01     -1.360781000000000E+02      1.746674000000000E-01     -7.956640000000000E+01
5860000000.000000      4.390564000000000E-01     -1.369375000000000E+02      1.833496000000000E-01     -1.086172000000000E+02
5880000000.000000      4.445648000000000E-01     -1.388281000000000E+02      1.912613000000000E-01     -1.364766000000000E+02
5900000000.000000      4.447327000000000E-01     -1.408047000000000E+02      1.974792000000000E-01     -1.626953000000000E+02
5920000000.000000      4.408264000000000E-01     -1.426719000000000E+02      2.009125000000000E-01      1.712734000000000E+02
5940000000.000000      4.365387000000000E-01     -1.439375000000000E+02      1.962357000000000E-01      1.446094000000000E+02
5960000000.000000      4.325562000000000E-01     -1.453438000000000E+02      1.868286000000000E-01      1.199844000000000E+02
5980000000.000000      4.260712000000000E-01     -1.468594000000000E+02      1.796036000000000E-01      9.407421000000000E+01
6000000000.000000      4.177704000000000E-01     -1.487500000000000E+02      1.678619000000000E-01      6.583202000000000E+01
6020000000.000000      4.026184000000000E-01     -1.501641000000000E+02      1.537247000000000E-01      3.583008000000000E+01
6040000000.000000      3.870087000000000E-01     -1.508906000000000E+02      1.371689000000000E-01      5.326904000000000E+00
6060000000.000000      3.773041000000000E-01     -1.505938000000000E+02      1.288071000000000E-01     -2.502148000000000E+01
6080000000.000000      3.753052000000000E-01     -1.495391000000000E+02      1.329880000000000E-01     -5.731445000000000E+01
