! Network Analyzer HP8722D
! Hewlett-Packard
! Data name: Linha com CNT
! Saver's name: Rodrigo Anjos
! Comments: Teste de deteccao de acetona 0-100ppm a partir de cilindro
! Time and date: 10/9/2025 18:52
!              Frequency                     S11                                                   S21                                                   S12                                                   S22
# HZ  S  MA R 50
3000000000.000000      8.208084000000000E-02      9.096094000000000E+01      4.543610000000000E-01      2.484375000000000E+01
3020000000.000000      9.650803000000000E-02      7.621094000000000E+01      4.551086000000000E-01     -3.997681000000000E+00
3040000000.000000      9.598923000000000E-02      6.040234000000000E+01      4.543610000000000E-01     -3.280273000000000E+01
3060000000.000000      8.255386000000000E-02      4.633203000000000E+01      4.533844000000000E-01     -6.141406000000000E+01
3080000000.000000      6.164932000000000E-02      3.763086000000000E+01      4.522858000000000E-01     -9.013672000000000E+01
3100000000.000000      4.466248000000000E-02      4.168164000000000E+01      4.525909000000000E-01     -1.184101000000000E+02
3120000000.000000      4.017067000000000E-02      5.420312000000000E+01      4.497528000000000E-01     -1.469531000000000E+02
3140000000.000000      3.953362000000000E-02      5.812500000000000E+01      4.450073000000000E-01     -1.755781000000000E+02
3160000000.000000      3.121185000000000E-02      6.078711000000000E+01      4.422455000000000E-01      1.560078000000000E+02
3180000000.000000      2.211380000000000E-02      1.074414000000000E+02      4.413605000000000E-01      1.274297000000000E+02
3200000000.000000      5.427551000000000E-02      1.425234000000000E+02      4.359283000000000E-01      9.778515000000000E+01
3220000000.000000      1.055031000000000E-01      1.361562000000000E+02      4.223480000000000E-01      6.871484000000000E+01
3240000000.000000      1.563492000000000E-01      1.214961000000000E+02      4.106293000000000E-01      4.116406000000000E+01
3260000000.000000      1.978683000000000E-01      1.050352000000000E+02      4.152985000000000E-01      1.383008000000000E+01
3280000000.000000      2.240829000000000E-01      8.824610000000000E+01      4.199219000000000E-01     -1.554053000000000E+01
3300000000.000000      2.330704000000000E-01      7.185547000000000E+01      4.139862000000000E-01     -4.407227000000000E+01
3320000000.000000      2.264175000000000E-01      5.700781000000000E+01      4.179382000000000E-01     -7.181250000000000E+01
3340000000.000000      2.098694000000000E-01      4.456055000000000E+01      4.238434000000000E-01     -1.004219000000000E+02
3360000000.000000      1.864624000000000E-01      3.551953000000000E+01      4.240723000000000E-01     -1.290547000000000E+02
3380000000.000000      1.629486000000000E-01      3.068554000000000E+01      4.281158000000000E-01     -1.570469000000000E+02
3400000000.000000      1.434097000000000E-01      2.887207000000000E+01      4.303589000000000E-01      1.741250000000000E+02
3420000000.000000      1.291351000000000E-01      2.875781000000000E+01      4.317932000000000E-01      1.454297000000000E+02
3440000000.000000      1.164932000000000E-01      2.915820000000000E+01      4.303589000000000E-01      1.164180000000000E+02
3460000000.000000      1.055794000000000E-01      3.089550000000000E+01      4.278259000000000E-01      8.834375000000000E+01
3480000000.000000      9.904861000000000E-02      3.359570000000000E+01      4.290466000000000E-01      5.946875000000000E+01
3500000000.000000      9.644699000000000E-02      3.690234000000000E+01      4.241486000000000E-01      3.027832000000000E+01
3520000000.000000      9.491730000000000E-02      3.992383000000000E+01      4.217224000000000E-01      2.283691000000000E+00
3540000000.000000      9.477615000000000E-02      4.321094000000000E+01      4.252625000000000E-01     -2.632519000000000E+01
3560000000.000000      9.744263000000000E-02      4.882813000000000E+01      4.264984000000000E-01     -5.543163000000000E+01
3580000000.000000      1.066017000000000E-01      5.367969000000000E+01      4.256287000000000E-01     -8.419140000000000E+01
3600000000.000000      1.209335000000000E-01      5.445507000000000E+01      4.245300000000000E-01     -1.123789000000000E+02
3620000000.000000      1.349335000000000E-01      5.092187000000000E+01      4.272461000000000E-01     -1.404766000000000E+02
3640000000.000000      1.393738000000000E-01      4.463281000000000E+01      4.272766000000000E-01     -1.687891000000000E+02
3660000000.000000      1.335831000000000E-01      3.774805000000000E+01      4.246674000000000E-01      1.633047000000000E+02
3680000000.000000      1.200371000000000E-01      3.504492000000000E+01      4.287262000000000E-01      1.356016000000000E+02
3700000000.000000      1.082535000000000E-01      3.877344000000000E+01      4.297638000000000E-01      1.069570000000000E+02
3720000000.000000      1.104622000000000E-01      4.722461000000000E+01      4.280243000000000E-01      7.839062000000000E+01
3740000000.000000      1.289902000000000E-01      5.028710000000000E+01      4.219971000000000E-01      5.000390000000000E+01
3760000000.000000      1.473923000000000E-01      4.630273000000000E+01      4.158173000000000E-01      2.198047000000000E+01
3780000000.000000      1.538696000000000E-01      3.885742000000000E+01      4.156494000000000E-01     -5.483643000000000E+00
3800000000.000000      1.454163000000000E-01      3.159765000000000E+01      4.165497000000000E-01     -3.418945000000000E+01
3820000000.000000      1.256943000000000E-01      2.917383000000000E+01      4.160767000000000E-01     -6.301758000000000E+01
3840000000.000000      1.125755000000000E-01      3.466406000000000E+01      4.167023000000000E-01     -9.200781000000000E+01
3860000000.000000      1.183205000000000E-01      4.288086000000000E+01      4.150696000000000E-01     -1.209062000000000E+02
3880000000.000000      1.375198000000000E-01      4.350976000000000E+01      4.125366000000000E-01     -1.499531000000000E+02
3900000000.000000      1.515274000000000E-01      3.732422000000000E+01      4.044342000000000E-01     -1.782734000000000E+02
3920000000.000000      1.483536000000000E-01      2.980566000000000E+01      4.059601000000000E-01      1.544531000000000E+02
3940000000.000000      1.303787000000000E-01      2.649902000000000E+01      4.139862000000000E-01      1.258047000000000E+02
3960000000.000000      1.127892000000000E-01      3.308203000000000E+01      4.127808000000000E-01      9.661718000000000E+01
3980000000.000000      1.202278000000000E-01      4.565625000000000E+01      4.048920000000000E-01      6.795703000000000E+01
4000000000.000000      1.519775000000000E-01      4.865624000000000E+01      3.989716000000000E-01      4.087110000000000E+01
4020000000.000000      1.837845000000000E-01      4.130273000000000E+01      4.044342000000000E-01      1.319141000000000E+01
4040000000.000000      2.009277000000000E-01      2.869629000000000E+01      4.063416000000000E-01     -1.677246000000000E+01
4060000000.000000      1.932220000000000E-01      1.502100000000000E+01      3.902283000000000E-01     -4.552734000000000E+01
4080000000.000000      1.638031000000000E-01      2.164307000000000E+00      3.905792000000000E-01     -7.228516000000000E+01
4100000000.000000      1.182289000000000E-01     -4.218750000000000E+00      3.990631000000000E-01     -1.010195000000000E+02
4120000000.000000      7.828903000000000E-02      7.835938000000000E+00      4.000549000000000E-01     -1.310937000000000E+02
4140000000.000000      7.898331000000000E-02      3.506640000000000E+01      3.939514000000000E-01     -1.598672000000000E+02
4160000000.000000      1.029739000000000E-01      4.341016000000000E+01      3.944092000000000E-01      1.721484000000000E+02
4180000000.000000      1.204071000000000E-01      4.015234000000000E+01      4.017029000000000E-01      1.433984000000000E+02
4200000000.000000      1.224289000000000E-01      3.717578000000000E+01      4.022827000000000E-01      1.136328000000000E+02
4220000000.000000      1.214867000000000E-01      3.930273000000000E+01      3.947906000000000E-01      8.440233000000000E+01
4240000000.000000      1.313400000000000E-01      4.496094000000000E+01      3.894806000000000E-01      5.575585000000000E+01
4260000000.000000      1.561203000000000E-01      4.626172000000000E+01      3.865051000000000E-01      2.795801000000000E+01
4280000000.000000      1.817627000000000E-01      4.137304000000000E+01      3.864136000000000E-01     -4.641724000000000E-01
4300000000.000000      1.964264000000000E-01      3.352734000000000E+01      3.822632000000000E-01     -2.930078000000000E+01
4320000000.000000      1.952133000000000E-01      2.563477000000000E+01      3.791962000000000E-01     -5.794335000000000E+01
4340000000.000000      1.816864000000000E-01      2.030078000000000E+01      3.785248000000000E-01     -8.676172000000000E+01
4360000000.000000      1.683502000000000E-01      1.983105000000000E+01      3.760986000000000E-01     -1.161914000000000E+02
4380000000.000000      1.682587000000000E-01      2.211914000000000E+01      3.748932000000000E-01     -1.455859000000000E+02
4400000000.000000      1.791840000000000E-01      2.169043000000000E+01      3.697815000000000E-01     -1.748516000000000E+02
4420000000.000000      1.889191000000000E-01      1.736621000000000E+01      3.730316000000000E-01      1.563672000000000E+02
4440000000.000000      1.847382000000000E-01      1.172217000000000E+01      3.739471000000000E-01      1.267422000000000E+02
4460000000.000000      1.687622000000000E-01      8.935547000000000E+00      3.679962000000000E-01      9.725389000000000E+01
4480000000.000000      1.514893000000000E-01      1.254736000000000E+01      3.650055000000000E-01      6.863671000000000E+01
4500000000.000000      1.544342000000000E-01      2.095410000000000E+01      3.657837000000000E-01      3.996875000000000E+01
4520000000.000000      1.796417000000000E-01      2.468164000000000E+01      3.620453000000000E-01      1.028564000000000E+01
4540000000.000000      2.093887000000000E-01      2.081543000000000E+01      3.524170000000000E-01     -1.894531000000000E+01
4560000000.000000      2.284698000000000E-01      1.303760000000000E+01      3.463593000000000E-01     -4.727148000000000E+01
4580000000.000000      2.336349000000000E-01      4.377930000000000E+00      3.481750000000000E-01     -7.652734000000000E+01
4600000000.000000      2.260361000000000E-01     -2.650513000000000E+00      3.449707000000000E-01     -1.068984000000000E+02
4620000000.000000      2.145844000000000E-01     -6.958496000000000E+00      3.381042000000000E-01     -1.359766000000000E+02
4640000000.000000      2.088470000000000E-01     -9.414063000000000E+00      3.379822000000000E-01     -1.653594000000000E+02
4660000000.000000      2.082825000000000E-01     -1.249316000000000E+01      3.390656000000000E-01      1.654766000000000E+02
4680000000.000000      2.075500000000000E-01     -1.743457000000000E+01      3.412018000000000E-01      1.364141000000000E+02
4700000000.000000      1.993866000000000E-01     -2.392773000000000E+01      3.408356000000000E-01      1.066602000000000E+02
4720000000.000000      1.830597000000000E-01     -3.047558000000000E+01      3.372040000000000E-01      7.883984000000000E+01
4740000000.000000      1.624069000000000E-01     -3.648438000000000E+01      3.438263000000000E-01      5.072656000000000E+01
4760000000.000000      1.388092000000000E-01     -4.132813000000000E+01      3.450928000000000E-01      2.217090000000000E+01
4780000000.000000      1.136513000000000E-01     -4.537695000000000E+01      3.417053000000000E-01     -6.383057000000000E+00
4800000000.000000      8.154297000000000E-02     -4.893749000000000E+01      3.382874000000000E-01     -3.480469000000000E+01
4820000000.000000      3.897476000000000E-02     -3.938086000000000E+01      3.307800000000000E-01     -6.400000000000000E+01
4840000000.000000      4.012108000000000E-02      5.029491000000000E+01      3.252716000000000E-01     -9.288280000000000E+01
4860000000.000000      1.059456000000000E-01      5.858007000000000E+01      3.191681000000000E-01     -1.235898000000000E+02
4880000000.000000      1.762390000000000E-01      4.675781000000000E+01      2.989960000000000E-01     -1.545312000000000E+02
4900000000.000000      2.361069000000000E-01      3.153809000000000E+01      2.766418000000000E-01      1.780469000000000E+02
4920000000.000000      2.776337000000000E-01      1.573340000000000E+01      2.761230000000000E-01      1.526250000000000E+02
4940000000.000000      2.986298000000000E-01      3.392029000000000E-01      2.894440000000000E-01      1.240586000000000E+02
4960000000.000000      2.953033000000000E-01     -1.462305000000000E+01      2.930450000000000E-01      9.420702000000000E+01
4980000000.000000      2.694855000000000E-01     -2.789355000000000E+01      2.976074000000000E-01      6.715625000000000E+01
5000000000.000000      2.265930000000000E-01     -3.749414000000000E+01      3.107452000000000E-01      3.952929000000000E+01
5020000000.000000      1.796341000000000E-01     -4.017383000000000E+01      3.213959000000000E-01      1.128418000000000E+01
5040000000.000000      1.502151000000000E-01     -3.314844000000000E+01      3.286133000000000E-01     -1.607910000000000E+01
5060000000.000000      1.518250000000000E-01     -2.365820000000000E+01      3.370972000000000E-01     -4.364062000000000E+01
5080000000.000000      1.677704000000000E-01     -2.079394000000000E+01      3.433075000000000E-01     -7.205859000000000E+01
5100000000.000000      1.818466000000000E-01     -2.313867000000000E+01      3.376160000000000E-01     -1.005898000000000E+02
5120000000.000000      1.866760000000000E-01     -2.694726000000000E+01      3.327942000000000E-01     -1.279375000000000E+02
5140000000.000000      1.884689000000000E-01     -3.025000000000000E+01      3.319855000000000E-01     -1.563203000000000E+02
5160000000.000000      1.890869000000000E-01     -3.308594000000000E+01      3.292236000000000E-01      1.742891000000000E+02
5180000000.000000      1.910706000000000E-01     -3.628515000000000E+01      3.254547000000000E-01      1.447344000000000E+02
5200000000.000000      1.921234000000000E-01     -4.055078000000000E+01      3.242493000000000E-01      1.148594000000000E+02
5220000000.000000      1.869431000000000E-01     -4.442968000000000E+01      3.238373000000000E-01      8.552343000000000E+01
5240000000.000000      1.788101000000000E-01     -4.662695000000000E+01      3.272858000000000E-01      5.582812000000000E+01
5260000000.000000      1.719284000000000E-01     -4.679492000000000E+01      3.320923000000000E-01      2.630664000000000E+01
5280000000.000000      1.701126000000000E-01     -4.568749000000000E+01      3.356781000000000E-01     -2.750732000000000E+00
5300000000.000000      1.744080000000000E-01     -4.606445000000000E+01      3.380890000000000E-01     -3.104883000000000E+01
5320000000.000000      1.784210000000000E-01     -4.877539000000000E+01      3.421021000000000E-01     -5.825390000000000E+01
5340000000.000000      1.757813000000000E-01     -5.245898000000000E+01      3.456726000000000E-01     -8.614843000000000E+01
5360000000.000000      1.690063000000000E-01     -5.557422000000000E+01      3.409729000000000E-01     -1.136758000000000E+02
5380000000.000000      1.624527000000000E-01     -5.651953000000000E+01      3.372498000000000E-01     -1.401406000000000E+02
5400000000.000000      1.617737000000000E-01     -5.607812000000000E+01      3.373566000000000E-01     -1.678281000000000E+02
5420000000.000000      1.704178000000000E-01     -5.608984000000000E+01      3.307800000000000E-01      1.637812000000000E+02
5440000000.000000      1.807327000000000E-01     -5.904101000000000E+01      3.269348000000000E-01      1.348203000000000E+02
5460000000.000000      1.868896000000000E-01     -6.471484000000000E+01      3.167725000000000E-01      1.054453000000000E+02
5480000000.000000      1.821899000000000E-01     -7.093359000000000E+01      3.113556000000000E-01      7.609375000000000E+01
5500000000.000000      1.665802000000000E-01     -7.664063000000000E+01      3.132935000000000E-01      4.664063000000000E+01
5520000000.000000      1.450958000000000E-01     -7.945313000000000E+01      3.142700000000000E-01      1.630469000000000E+01
5540000000.000000      1.267929000000000E-01     -7.881249000000000E+01      3.180084000000000E-01     -1.314551000000000E+01
5560000000.000000      1.146889000000000E-01     -7.540625000000000E+01      3.235016000000000E-01     -4.214257000000000E+01
5580000000.000000      1.086731000000000E-01     -7.083984000000000E+01      3.285980000000000E-01     -7.080468000000000E+01
5600000000.000000      1.062927000000000E-01     -6.598437000000000E+01      3.326416000000000E-01     -9.895311000000000E+01
5620000000.000000      1.099663000000000E-01     -5.887890000000000E+01      3.349762000000000E-01     -1.266992000000000E+02
5640000000.000000      1.243744000000000E-01     -5.291797000000000E+01      3.330688000000000E-01     -1.546016000000000E+02
5660000000.000000      1.490631000000000E-01     -5.253124000000000E+01      3.281860000000000E-01      1.780469000000000E+02
5680000000.000000      1.748505000000000E-01     -5.772655000000000E+01      3.211060000000000E-01      1.501953000000000E+02
5700000000.000000      1.929321000000000E-01     -6.719531000000000E+01      3.105927000000000E-01      1.219336000000000E+02
5720000000.000000      1.963120000000000E-01     -7.856640000000000E+01      2.990570000000000E-01      9.424999000000000E+01
5740000000.000000      1.822968000000000E-01     -8.974609000000000E+01      2.954102000000000E-01      6.567577000000000E+01
5760000000.000000      1.558533000000000E-01     -9.814453000000000E+01      2.924500000000000E-01      3.521289000000000E+01
5780000000.000000      1.267776000000000E-01     -9.950390000000000E+01      2.886353000000000E-01      5.097656000000000E+00
5800000000.000000      1.109314000000000E-01     -9.262890000000000E+01      2.890167000000000E-01     -2.479785000000000E+01
5820000000.000000      1.154404000000000E-01     -8.680468000000000E+01      2.941284000000000E-01     -5.492188000000000E+01
5840000000.000000      1.255875000000000E-01     -8.951563000000000E+01      3.011932000000000E-01     -8.512110000000000E+01
5860000000.000000      1.276245000000000E-01     -9.691015000000000E+01      3.011932000000000E-01     -1.144336000000000E+02
5880000000.000000      1.176491000000000E-01     -1.068086000000000E+02      3.009033000000000E-01     -1.417734000000000E+02
5900000000.000000      9.803009000000000E-02     -1.133359000000000E+02      3.099060000000000E-01     -1.690000000000000E+02
5920000000.000000      7.860184000000000E-02     -1.113828000000000E+02      3.134766000000000E-01      1.624687000000000E+02
5940000000.000000      7.066345000000000E-02     -1.018945000000000E+02      3.084412000000000E-01      1.337734000000000E+02
5960000000.000000      6.973267000000000E-02     -9.650780000000000E+01      2.962036000000000E-01      1.057734000000000E+02
5980000000.000000      6.444931000000000E-02     -9.566015000000000E+01      2.888031000000000E-01      7.833593000000000E+01
6000000000.000000      4.834366000000000E-02     -8.789454000000000E+01      2.853241000000000E-01      4.881640000000000E+01
6020000000.000000      4.061890000000000E-02     -5.383594000000000E+01      2.753448000000000E-01      1.772461000000000E+01
6040000000.000000      6.554794000000000E-02     -2.966113000000000E+01      2.639618000000000E-01     -1.219385000000000E+01
6060000000.000000      9.903717000000000E-02     -3.185644000000000E+01      2.605286000000000E-01     -4.176367000000000E+01
6080000000.000000      1.271515000000000E-01     -4.289648000000000E+01      2.666626000000000E-01     -7.209374000000000E+01
