! Network Analyzer HP8722D
! Hewlett-Packard
! Data name: Linha com CNT
! Saver's name: Rodrigo Anjos
! Comments: Teste de deteccao de acetona 0-100ppm a partir de cilindro
! Time and date: 10/9/2025 15:50
!              Frequency                     S11                                                   S21                                                   S12                                                   S22
# HZ  S  MA R 50
3000000000.000000      4.655914000000000E-01      1.439893000000000E+01      2.328568000000000E-01      3.504883000000000E+01
3020000000.000000      4.731445000000000E-01      1.370264000000000E+01      2.367630000000000E-01      5.592041000000000E+00
3040000000.000000      4.814148000000000E-01      1.288135000000000E+01      2.366562000000000E-01     -2.366504000000000E+01
3060000000.000000      4.837952000000000E-01      1.094482000000000E+01      2.371216000000000E-01     -5.295507000000000E+01
3080000000.000000      4.826202000000000E-01      9.453613000000000E+00      2.326431000000000E-01     -8.194921000000000E+01
3100000000.000000      4.804535000000000E-01      8.042969000000000E+00      2.311020000000000E-01     -1.095391000000000E+02
3120000000.000000      4.785156000000000E-01      7.039307000000000E+00      2.310028000000000E-01     -1.382109000000000E+02
3140000000.000000      4.796448000000000E-01      6.113770000000000E+00      2.277527000000000E-01     -1.667891000000000E+02
3160000000.000000      4.801178000000000E-01      4.912109000000000E+00      2.235947000000000E-01      1.645078000000000E+02
3180000000.000000      4.755249000000000E-01      3.801270000000000E+00      2.178345000000000E-01      1.366328000000000E+02
3200000000.000000      4.670105000000000E-01      3.012939000000000E+00      2.140427000000000E-01      1.082969000000000E+02
3220000000.000000      4.566345000000000E-01      2.807007000000000E+00      2.051163000000000E-01      7.954687000000000E+01
3240000000.000000      4.497223000000000E-01      3.396118000000000E+00      1.988297000000000E-01      5.444530000000000E+01
3260000000.000000      4.502258000000000E-01      4.437012000000000E+00      2.078705000000000E-01      2.858203000000000E+01
3280000000.000000      4.592896000000000E-01      5.142822000000000E+00      2.156601000000000E-01     -9.187317000000000E-01
3300000000.000000      4.760895000000000E-01      4.857178000000000E+00      2.187653000000000E-01     -2.963086000000000E+01
3320000000.000000      4.929352000000000E-01      3.527954000000000E+00      2.265091000000000E-01     -5.860742000000000E+01
3340000000.000000      5.056763000000000E-01      1.610840000000000E+00      2.310715000000000E-01     -8.840235000000000E+01
3360000000.000000      5.101929000000000E-01     -6.069946000000000E-01      2.334061000000000E-01     -1.181875000000000E+02
3380000000.000000      5.093994000000000E-01     -2.330566000000000E+00      2.325745000000000E-01     -1.476797000000000E+02
3400000000.000000      5.055542000000000E-01     -3.727173000000000E+00      2.321167000000000E-01     -1.763359000000000E+02
3420000000.000000      5.023499000000000E-01     -4.923340000000000E+00      2.302170000000000E-01      1.544375000000000E+02
3440000000.000000      4.980774000000000E-01     -6.104492000000000E+00      2.257767000000000E-01      1.263359000000000E+02
3460000000.000000      4.938049000000000E-01     -7.123291000000000E+00      2.267532000000000E-01      9.823828000000000E+01
3480000000.000000      4.921722000000000E-01     -8.159180000000000E+00      2.235641000000000E-01      6.910156000000000E+01
3500000000.000000      4.909973000000000E-01     -8.920898000000000E+00      2.216263000000000E-01      4.105078000000000E+01
3520000000.000000      4.898529000000000E-01     -9.945801000000000E+00      2.217712000000000E-01      1.212451000000000E+01
3540000000.000000      4.895325000000000E-01     -1.081787000000000E+01      2.171555000000000E-01     -1.637793000000000E+01
3560000000.000000      4.890747000000000E-01     -1.154004000000000E+01      2.188263000000000E-01     -4.441602000000000E+01
3580000000.000000      4.862976000000000E-01     -1.213721000000000E+01      2.186356000000000E-01     -7.309375000000000E+01
3600000000.000000      4.845428000000000E-01     -1.271143000000000E+01      2.185211000000000E-01     -1.005820000000000E+02
3620000000.000000      4.867249000000000E-01     -1.328809000000000E+01      2.229462000000000E-01     -1.289687000000000E+02
3640000000.000000      4.886169000000000E-01     -1.406982000000000E+01      2.242889000000000E-01     -1.574375000000000E+02
3660000000.000000      4.902954000000000E-01     -1.549219000000000E+01      2.256927000000000E-01      1.742422000000000E+02
3680000000.000000      4.905548000000000E-01     -1.686816000000000E+01      2.236099000000000E-01      1.457734000000000E+02
3700000000.000000      4.874115000000000E-01     -1.812793000000000E+01      2.213974000000000E-01      1.184531000000000E+02
3720000000.000000      4.828033000000000E-01     -1.893164000000000E+01      2.234802000000000E-01      9.013281000000000E+01
3740000000.000000      4.821167000000000E-01     -1.922266000000000E+01      2.186890000000000E-01      6.190820000000000E+01
3760000000.000000      4.851685000000000E-01     -1.937304000000000E+01      2.184525000000000E-01      3.482812000000000E+01
3780000000.000000      4.893036000000000E-01     -2.007422000000000E+01      2.205353000000000E-01      6.205811000000000E+00
3800000000.000000      4.945984000000000E-01     -2.139648000000000E+01      2.191696000000000E-01     -2.305078000000000E+01
3820000000.000000      4.934235000000000E-01     -2.314160000000000E+01      2.170639000000000E-01     -5.162890000000000E+01
3840000000.000000      4.890289000000000E-01     -2.443945000000000E+01      2.171707000000000E-01     -8.018358000000000E+01
3860000000.000000      4.857330000000000E-01     -2.536914000000000E+01      2.177505000000000E-01     -1.092969000000000E+02
3880000000.000000      4.833374000000000E-01     -2.585254000000000E+01      2.152481000000000E-01     -1.382500000000000E+02
3900000000.000000      4.881897000000000E-01     -2.644140000000000E+01      2.145920000000000E-01     -1.656719000000000E+02
3920000000.000000      4.925232000000000E-01     -2.759570000000000E+01      2.172394000000000E-01      1.658672000000000E+02
3940000000.000000      4.934387000000000E-01     -2.908496000000000E+01      2.162247000000000E-01      1.372969000000000E+02
3960000000.000000      4.881439000000000E-01     -3.037109000000000E+01      2.163696000000000E-01      1.091992000000000E+02
3980000000.000000      4.799347000000000E-01     -3.114941000000000E+01      2.101440000000000E-01      8.066797000000000E+01
4000000000.000000      4.751434000000000E-01     -3.127050000000000E+01      2.077942000000000E-01      5.512304000000000E+01
4020000000.000000      4.779510000000000E-01     -3.116699000000000E+01      2.154999000000000E-01      2.732422000000000E+01
4040000000.000000      4.900360000000000E-01     -3.165527000000000E+01      2.159424000000000E-01     -3.276733000000000E+00
4060000000.000000      5.037537000000000E-01     -3.319726000000000E+01      2.123642000000000E-01     -3.216406000000000E+01
4080000000.000000      5.112000000000000E-01     -3.593164000000000E+01      2.120972000000000E-01     -6.116796000000000E+01
4100000000.000000      5.061646000000000E-01     -3.842187000000000E+01      2.120132000000000E-01     -9.042578000000000E+01
4120000000.000000      4.963074000000000E-01     -4.048242000000000E+01      2.094116000000000E-01     -1.208789000000000E+02
4140000000.000000      4.847565000000000E-01     -4.134179000000000E+01      2.018967000000000E-01     -1.492344000000000E+02
4160000000.000000      4.790649000000000E-01     -4.171094000000000E+01      2.043991000000000E-01     -1.755781000000000E+02
4180000000.000000      4.772797000000000E-01     -4.222265000000000E+01      2.092438000000000E-01      1.552656000000000E+02
4200000000.000000      4.776154000000000E-01     -4.322656000000000E+01      2.064285000000000E-01      1.268398000000000E+02
4220000000.000000      4.779510000000000E-01     -4.427148000000000E+01      2.080765000000000E-01      9.887108000000000E+01
4240000000.000000      4.723969000000000E-01     -4.525586000000000E+01      2.039719000000000E-01      6.971874000000000E+01
4260000000.000000      4.691620000000000E-01     -4.559766000000000E+01      1.992035000000000E-01      4.279687000000000E+01
4280000000.000000      4.698944000000000E-01     -4.559960000000000E+01      2.006989000000000E-01      1.536816000000000E+01
4300000000.000000      4.732513000000000E-01     -4.589257000000000E+01      1.998138000000000E-01     -1.332373000000000E+01
4320000000.000000      4.790802000000000E-01     -4.709180000000000E+01      1.997147000000000E-01     -4.220899000000000E+01
4340000000.000000      4.822388000000000E-01     -4.875586000000000E+01      1.999664000000000E-01     -7.183594000000000E+01
4360000000.000000      4.831238000000000E-01     -5.028125000000000E+01      1.999130000000000E-01     -1.017851000000000E+02
4380000000.000000      4.793549000000000E-01     -5.150195000000000E+01      1.977158000000000E-01     -1.319922000000000E+02
4400000000.000000      4.775391000000000E-01     -5.219336000000000E+01      1.963348000000000E-01     -1.607031000000000E+02
4420000000.000000      4.798279000000000E-01     -5.289844000000000E+01      2.006226000000000E-01      1.703906000000000E+02
4440000000.000000      4.856567000000000E-01     -5.391015000000000E+01      2.024155000000000E-01      1.405625000000000E+02
4460000000.000000      4.868927000000000E-01     -5.547070000000000E+01      2.016449000000000E-01      1.114453000000000E+02
4480000000.000000      4.828339000000000E-01     -5.730859000000000E+01      2.003250000000000E-01      8.267187000000000E+01
4500000000.000000      4.766235000000000E-01     -5.859765000000000E+01      1.970291000000000E-01      5.474023000000000E+01
4520000000.000000      4.688721000000000E-01     -5.904101000000000E+01      1.943130000000000E-01      2.656836000000000E+01
4540000000.000000      4.697571000000000E-01     -5.941015000000000E+01      1.885986000000000E-01     -1.553223000000000E+00
4560000000.000000      4.739075000000000E-01     -5.963281000000000E+01      1.884613000000000E-01     -2.904590000000000E+01
4580000000.000000      4.841614000000000E-01     -6.061328000000000E+01      1.892929000000000E-01     -5.927539000000000E+01
4600000000.000000      4.890747000000000E-01     -6.207421000000000E+01      1.863403000000000E-01     -8.949610000000000E+01
4620000000.000000      4.914398000000000E-01     -6.347265000000000E+01      1.862717000000000E-01     -1.207265000000000E+02
4640000000.000000      4.921265000000000E-01     -6.475780000000000E+01      1.828766000000000E-01     -1.521719000000000E+02
4660000000.000000      4.948273000000000E-01     -6.585938000000000E+01      1.835861000000000E-01      1.786641000000000E+02
4680000000.000000      4.982605000000000E-01     -6.694530000000000E+01      1.896667000000000E-01      1.485312000000000E+02
4700000000.000000      5.016785000000000E-01     -6.834374000000000E+01      1.917419000000000E-01      1.185117000000000E+02
4720000000.000000      5.070496000000000E-01     -7.010547000000000E+01      1.955185000000000E-01      9.012110000000000E+01
4740000000.000000      5.097046000000000E-01     -7.244922000000000E+01      1.985397000000000E-01      6.145312000000000E+01
4760000000.000000      5.082703000000000E-01     -7.449219000000000E+01      1.981735000000000E-01      3.366015000000000E+01
4780000000.000000      5.045166000000000E-01     -7.662499000000000E+01      1.952209000000000E-01      5.543945000000000E+00
4800000000.000000      5.015564000000000E-01     -7.885937000000000E+01      1.878967000000000E-01     -2.194043000000000E+01
4820000000.000000      4.918060000000000E-01     -8.127733000000000E+01      1.774063000000000E-01     -4.961523000000000E+01
4840000000.000000      4.740906000000000E-01     -8.275000000000000E+01      1.664047000000000E-01     -7.672656000000000E+01
4860000000.000000      4.557648000000000E-01     -8.376562000000000E+01      1.583328000000000E-01     -1.053047000000000E+02
4880000000.000000      4.375458000000000E-01     -8.337109000000000E+01      1.439972000000000E-01     -1.351563000000000E+02
4900000000.000000      4.273376000000000E-01     -8.197266000000000E+01      1.306000000000000E-01     -1.608047000000000E+02
4920000000.000000      4.294281000000000E-01     -8.022655000000000E+01      1.352844000000000E-01      1.741250000000000E+02
4940000000.000000      4.434204000000000E-01     -7.896093000000000E+01      1.478500000000000E-01      1.436719000000000E+02
4960000000.000000      4.671021000000000E-01     -7.909374000000000E+01      1.562576000000000E-01      1.116836000000000E+02
4980000000.000000      4.886475000000000E-01     -8.121485000000000E+01      1.665649000000000E-01      8.158983000000000E+01
5000000000.000000      4.992828000000000E-01     -8.434374000000000E+01      1.780243000000000E-01      5.176171000000000E+01
5020000000.000000      4.968719000000000E-01     -8.718359000000000E+01      1.852493000000000E-01      2.209179000000000E+01
5040000000.000000      4.881592000000000E-01     -8.937891000000000E+01      1.870804000000000E-01     -4.417969000000000E+00
5060000000.000000      4.779358000000000E-01     -9.044922000000000E+01      1.924362000000000E-01     -2.954687000000000E+01
5080000000.000000      4.707489000000000E-01     -9.115234000000000E+01      1.981583000000000E-01     -5.641406000000000E+01
5100000000.000000      4.710846000000000E-01     -9.173046000000000E+01      1.957855000000000E-01     -8.345312000000000E+01
5120000000.000000      4.714203000000000E-01     -9.242579000000000E+01      1.940994000000000E-01     -1.099062000000000E+02
5140000000.000000      4.747772000000000E-01     -9.317186000000000E+01      1.888962000000000E-01     -1.382422000000000E+02
5160000000.000000      4.772949000000000E-01     -9.423046000000000E+01      1.829987000000000E-01     -1.670703000000000E+02
5180000000.000000      4.827271000000000E-01     -9.517187000000000E+01      1.780548000000000E-01      1.628594000000000E+02
5200000000.000000      4.891815000000000E-01     -9.632421000000000E+01      1.743317000000000E-01      1.319453000000000E+02
5220000000.000000      4.930878000000000E-01     -9.796484000000000E+01      1.744919000000000E-01      1.009101000000000E+02
5240000000.000000      4.952850000000000E-01     -9.957031000000000E+01      1.775742000000000E-01      6.916797000000000E+01
5260000000.000000      4.940643000000000E-01     -1.012305000000000E+02      1.823425000000000E-01      3.831445000000000E+01
5280000000.000000      4.899139000000000E-01     -1.025859000000000E+02      1.876450000000000E-01      8.458008000000000E+00
5300000000.000000      4.882202000000000E-01     -1.037461000000000E+02      1.921158000000000E-01     -1.886719000000000E+01
5320000000.000000      4.870605000000000E-01     -1.048125000000000E+02      2.011719000000000E-01     -4.539258000000000E+01
5340000000.000000      4.869843000000000E-01     -1.059687000000000E+02      2.058029000000000E-01     -7.250781000000000E+01
5360000000.000000      4.870758000000000E-01     -1.072617000000000E+02      2.054901000000000E-01     -9.842968000000000E+01
5380000000.000000      4.887543000000000E-01     -1.084219000000000E+02      2.032623000000000E-01     -1.247227000000000E+02
5400000000.000000      4.885254000000000E-01     -1.094883000000000E+02      1.963882000000000E-01     -1.509453000000000E+02
5420000000.000000      4.913483000000000E-01     -1.101836000000000E+02      1.912384000000000E-01     -1.778047000000000E+02
5440000000.000000      4.967346000000000E-01     -1.108828000000000E+02      1.837692000000000E-01      1.531484000000000E+02
5460000000.000000      5.032654000000000E-01     -1.120625000000000E+02      1.737366000000000E-01      1.234922000000000E+02
5480000000.000000      5.095215000000000E-01     -1.136953000000000E+02      1.691666000000000E-01      9.242579000000000E+01
5500000000.000000      5.123291000000000E-01     -1.160781000000000E+02      1.669083000000000E-01      6.009570000000000E+01
5520000000.000000      5.077515000000000E-01     -1.182734000000000E+02      1.674042000000000E-01      2.753711000000000E+01
5540000000.000000      5.014648000000000E-01     -1.202383000000000E+02      1.696396000000000E-01     -4.169434000000000E+00
5560000000.000000      4.942627000000000E-01     -1.219414000000000E+02      1.760254000000000E-01     -3.251562000000000E+01
5580000000.000000      4.865112000000000E-01     -1.234101000000000E+02      1.864624000000000E-01     -6.085742000000000E+01
5600000000.000000      4.816284000000000E-01     -1.244180000000000E+02      1.925201000000000E-01     -8.805079000000000E+01
5620000000.000000      4.759521000000000E-01     -1.252109000000000E+02      1.974640000000000E-01     -1.139961000000000E+02
5640000000.000000      4.735260000000000E-01     -1.257461000000000E+02      1.996689000000000E-01     -1.399453000000000E+02
5660000000.000000      4.730530000000000E-01     -1.258945000000000E+02      1.958847000000000E-01     -1.651719000000000E+02
5680000000.000000      4.756622000000000E-01     -1.260390000000000E+02      1.911774000000000E-01      1.691641000000000E+02
5700000000.000000      4.849091000000000E-01     -1.267305000000000E+02      1.823120000000000E-01      1.425937000000000E+02
5720000000.000000      4.961395000000000E-01     -1.282422000000000E+02      1.726990000000000E-01      1.153828000000000E+02
5740000000.000000      5.033264000000000E-01     -1.306797000000000E+02      1.633606000000000E-01      8.505468000000000E+01
5760000000.000000      5.021057000000000E-01     -1.336172000000000E+02      1.522675000000000E-01      5.216797000000000E+01
5780000000.000000      4.921417000000000E-01     -1.361250000000000E+02      1.430054000000000E-01      1.851563000000000E+01
5800000000.000000      4.791870000000000E-01     -1.377109000000000E+02      1.402969000000000E-01     -1.410400000000000E+01
5820000000.000000      4.707642000000000E-01     -1.382578000000000E+02      1.480331000000000E-01     -4.582227000000000E+01
5840000000.000000      4.697266000000000E-01     -1.389297000000000E+02      1.595154000000000E-01     -7.796875000000000E+01
5860000000.000000      4.736938000000000E-01     -1.396172000000000E+02      1.691895000000000E-01     -1.071680000000000E+02
5880000000.000000      4.793091000000000E-01     -1.412578000000000E+02      1.792450000000000E-01     -1.348828000000000E+02
5900000000.000000      4.811096000000000E-01     -1.430547000000000E+02      1.862564000000000E-01     -1.610625000000000E+02
5920000000.000000      4.778900000000000E-01     -1.448281000000000E+02      1.897659000000000E-01      1.732344000000000E+02
5940000000.000000      4.740143000000000E-01     -1.463047000000000E+02      1.858292000000000E-01      1.473281000000000E+02
5960000000.000000      4.709015000000000E-01     -1.476641000000000E+02      1.774597000000000E-01      1.232383000000000E+02
5980000000.000000      4.659271000000000E-01     -1.493359000000000E+02      1.699600000000000E-01      9.768358000000000E+01
6000000000.000000      4.551697000000000E-01     -1.511484000000000E+02      1.579895000000000E-01      7.007421000000000E+01
6020000000.000000      4.422913000000000E-01     -1.526953000000000E+02      1.423340000000000E-01      4.092187000000000E+01
6040000000.000000      4.270935000000000E-01     -1.535625000000000E+02      1.248283000000000E-01      1.041504000000000E+01
6060000000.000000      4.170685000000000E-01     -1.537344000000000E+02      1.156044000000000E-01     -1.987500000000000E+01
6080000000.000000      4.134979000000000E-01     -1.531250000000000E+02      1.185684000000000E-01     -5.345508000000000E+01
