! Network Analyzer HP8722D
! Hewlett-Packard
! Data name: Linha com CNT
! Saver's name: Rodrigo Anjos
! Comments: Teste de deteccao de acetona 0-100ppm a partir de cilindro
! Time and date: 10/9/2025 15:28
!              Frequency                     S11                                                   S21                                                   S12                                                   S22
# HZ  S  MA R 50
3000000000.000000      5.420837000000000E-01      1.221240000000000E+01      2.070618000000000E-01      3.824023000000000E+01
3020000000.000000      5.485840000000000E-01      1.160156000000000E+01      2.114410000000000E-01      8.643066000000000E+00
3040000000.000000      5.570374000000000E-01      1.084326000000000E+01      2.117538000000000E-01     -2.051856000000000E+01
3060000000.000000      5.604553000000000E-01      9.327148000000000E+00      2.116623000000000E-01     -4.993750000000000E+01
3080000000.000000      5.596313000000000E-01      7.651855000000000E+00      2.077713000000000E-01     -7.883984000000000E+01
3100000000.000000      5.590210000000000E-01      6.472168000000000E+00      2.063141000000000E-01     -1.064922000000000E+02
3120000000.000000      5.556946000000000E-01      5.469727000000000E+00      2.057953000000000E-01     -1.350547000000000E+02
3140000000.000000      5.581055000000000E-01      4.792725000000000E+00      2.030106000000000E-01     -1.637266000000000E+02
3160000000.000000      5.584717000000000E-01      3.492188000000000E+00      1.993408000000000E-01      1.677109000000000E+02
3180000000.000000      5.566101000000000E-01      2.393555000000000E+00      1.931534000000000E-01      1.398594000000000E+02
3200000000.000000      5.486755000000000E-01      1.392517000000000E+00      1.902390000000000E-01      1.115664000000000E+02
3220000000.000000      5.396423000000000E-01      6.935120000000000E-01      1.812210000000000E-01      8.317577000000000E+01
3240000000.000000      5.345764000000000E-01      5.204773000000000E-01      1.759262000000000E-01      5.825781000000000E+01
3260000000.000000      5.309143000000000E-01      8.761597000000000E-01      1.846619000000000E-01      3.269140000000000E+01
3280000000.000000      5.343628000000000E-01      9.393311000000000E-01      1.924667000000000E-01      3.041748000000000E+00
3300000000.000000      5.468140000000000E-01      8.665466000000000E-01      1.959152000000000E-01     -2.578808000000000E+01
3320000000.000000      5.601807000000000E-01      1.785278000000000E-02      2.037048000000000E-01     -5.474218000000000E+01
3340000000.000000      5.705261000000000E-01     -1.495544000000000E+00      2.084198000000000E-01     -8.476171000000000E+01
3360000000.000000      5.777893000000000E-01     -3.275391000000000E+00      2.104111000000000E-01     -1.148789000000000E+02
3380000000.000000      5.758057000000000E-01     -4.772217000000000E+00      2.090149000000000E-01     -1.443125000000000E+02
3400000000.000000      5.734863000000000E-01     -6.013672000000000E+00      2.086563000000000E-01     -1.730312000000000E+02
3420000000.000000      5.705566000000000E-01     -7.013428000000000E+00      2.064590000000000E-01      1.577422000000000E+02
3440000000.000000      5.669556000000000E-01     -8.406250000000000E+00      2.025986000000000E-01      1.297578000000000E+02
3460000000.000000      5.626221000000000E-01     -9.373047000000000E+00      2.030106000000000E-01      1.016914000000000E+02
3480000000.000000      5.614624000000000E-01     -1.040820000000000E+01      1.997757000000000E-01      7.250781000000000E+01
3500000000.000000      5.632324000000000E-01     -1.118701000000000E+01      1.983185000000000E-01      4.473242000000000E+01
3520000000.000000      5.603638000000000E-01     -1.216064000000000E+01      1.984024000000000E-01      1.561426000000000E+01
3540000000.000000      5.615234000000000E-01     -1.297656000000000E+01      1.941757000000000E-01     -1.292969000000000E+01
3560000000.000000      5.596924000000000E-01     -1.375781000000000E+01      1.960144000000000E-01     -4.078906000000000E+01
3580000000.000000      5.589905000000000E-01     -1.465332000000000E+01      1.958008000000000E-01     -6.957031000000000E+01
3600000000.000000      5.545044000000000E-01     -1.533008000000000E+01      1.951675000000000E-01     -9.687109000000000E+01
3620000000.000000      5.558472000000000E-01     -1.605469000000000E+01      1.995239000000000E-01     -1.252734000000000E+02
3640000000.000000      5.554504000000000E-01     -1.685644000000000E+01      2.008514000000000E-01     -1.536406000000000E+02
3660000000.000000      5.566101000000000E-01     -1.797852000000000E+01      2.024612000000000E-01      1.779219000000000E+02
3680000000.000000      5.588684000000000E-01     -1.932031000000000E+01      2.004318000000000E-01      1.492578000000000E+02
3700000000.000000      5.560913000000000E-01     -2.069824000000000E+01      1.979828000000000E-01      1.223320000000000E+02
3720000000.000000      5.522461000000000E-01     -2.156933000000000E+01      2.002029000000000E-01      9.402735000000000E+01
3740000000.000000      5.512695000000000E-01     -2.194140000000000E+01      1.960373000000000E-01      6.584765000000000E+01
3760000000.000000      5.515747000000000E-01     -2.229004000000000E+01      1.959915000000000E-01      3.874414000000000E+01
3780000000.000000      5.542297000000000E-01     -2.288184000000000E+01      1.982193000000000E-01      1.003711000000000E+01
3800000000.000000      5.588989000000000E-01     -2.402441000000000E+01      1.968689000000000E-01     -1.952344000000000E+01
3820000000.000000      5.580750000000000E-01     -2.548340000000000E+01      1.950378000000000E-01     -4.804882000000000E+01
3840000000.000000      5.569153000000000E-01     -2.685840000000000E+01      1.947250000000000E-01     -7.635937000000000E+01
3860000000.000000      5.537109000000000E-01     -2.789746000000000E+01      1.956406000000000E-01     -1.055586000000000E+02
3880000000.000000      5.520935000000000E-01     -2.841113000000000E+01      1.931992000000000E-01     -1.343984000000000E+02
3900000000.000000      5.551147000000000E-01     -2.940918000000000E+01      1.935043000000000E-01     -1.616250000000000E+02
3920000000.000000      5.587769000000000E-01     -3.025000000000000E+01      1.960678000000000E-01      1.696640000000000E+02
3940000000.000000      5.584717000000000E-01     -3.158496000000000E+01      1.946411000000000E-01      1.412891000000000E+02
3960000000.000000      5.554199000000000E-01     -3.282031000000000E+01      1.952133000000000E-01      1.131016000000000E+02
3980000000.000000      5.493164000000000E-01     -3.365429000000000E+01      1.896362000000000E-01      8.466015000000000E+01
4000000000.000000      5.435181000000000E-01     -3.423047000000000E+01      1.868286000000000E-01      5.954687000000000E+01
4020000000.000000      5.438538000000000E-01     -3.450781000000000E+01      1.948242000000000E-01      3.159765000000000E+01
4040000000.000000      5.529480000000000E-01     -3.496875000000000E+01      1.944351000000000E-01      1.009338000000000E+00
4060000000.000000      5.654907000000000E-01     -3.628711000000000E+01      1.920929000000000E-01     -2.800879000000000E+01
4080000000.000000      5.733337000000000E-01     -3.832031000000000E+01      1.914063000000000E-01     -5.732812000000000E+01
4100000000.000000      5.717468000000000E-01     -4.048047000000000E+01      1.911621000000000E-01     -8.683985000000000E+01
4120000000.000000      5.650940000000000E-01     -4.226953000000000E+01      1.885223000000000E-01     -1.171289000000000E+02
4140000000.000000      5.566101000000000E-01     -4.333398000000000E+01      1.814728000000000E-01     -1.452266000000000E+02
4160000000.000000      5.520630000000000E-01     -4.395898000000000E+01      1.841736000000000E-01     -1.715625000000000E+02
4180000000.000000      5.473328000000000E-01     -4.487695000000000E+01      1.886368000000000E-01      1.592656000000000E+02
4200000000.000000      5.470886000000000E-01     -4.594531000000000E+01      1.862640000000000E-01      1.309297000000000E+02
4220000000.000000      5.497742000000000E-01     -4.687500000000000E+01      1.885757000000000E-01      1.029453000000000E+02
4240000000.000000      5.441589000000000E-01     -4.817968000000000E+01      1.847916000000000E-01      7.397655000000000E+01
4260000000.000000      5.404968000000000E-01     -4.885937000000000E+01      1.797943000000000E-01      4.725781000000000E+01
4280000000.000000      5.385437000000000E-01     -4.921484000000000E+01      1.814499000000000E-01      2.010449000000000E+01
4300000000.000000      5.404358000000000E-01     -4.974218000000000E+01      1.801682000000000E-01     -8.730469000000000E+00
4320000000.000000      5.456543000000000E-01     -5.068749000000000E+01      1.802444000000000E-01     -3.753320000000000E+01
4340000000.000000      5.482788000000000E-01     -5.215625000000000E+01      1.802673000000000E-01     -6.726171000000000E+01
4360000000.000000      5.501404000000000E-01     -5.368359000000000E+01      1.802979000000000E-01     -9.762108000000000E+01
4380000000.000000      5.478516000000000E-01     -5.497265000000000E+01      1.784058000000000E-01     -1.280078000000000E+02
4400000000.000000      5.445862000000000E-01     -5.577734000000000E+01      1.775055000000000E-01     -1.564687000000000E+02
4420000000.000000      5.443115000000000E-01     -5.632813000000000E+01      1.826630000000000E-01      1.744375000000000E+02
4440000000.000000      5.488892000000000E-01     -5.740820000000000E+01      1.845322000000000E-01      1.447109000000000E+02
4460000000.000000      5.509644000000000E-01     -5.889062000000000E+01      1.845322000000000E-01      1.157265000000000E+02
4480000000.000000      5.498047000000000E-01     -6.049805000000000E+01      1.833801000000000E-01      8.710546000000000E+01
4500000000.000000      5.437012000000000E-01     -6.183984000000000E+01      1.800766000000000E-01      5.942577000000000E+01
4520000000.000000      5.388489000000000E-01     -6.285156000000000E+01      1.775970000000000E-01      3.141602000000000E+01
4540000000.000000      5.369263000000000E-01     -6.339844000000000E+01      1.718979000000000E-01      3.633667000000000E+00
4560000000.000000      5.378113000000000E-01     -6.401953000000000E+01      1.715012000000000E-01     -2.357324000000000E+01
4580000000.000000      5.454407000000000E-01     -6.491015000000000E+01      1.718369000000000E-01     -5.403710000000000E+01
4600000000.000000      5.479126000000000E-01     -6.608593000000000E+01      1.686630000000000E-01     -8.455469000000000E+01
4620000000.000000      5.523376000000000E-01     -6.748437000000000E+01      1.686783000000000E-01     -1.163086000000000E+02
4640000000.000000      5.532532000000000E-01     -6.858593000000000E+01      1.646118000000000E-01     -1.481172000000000E+02
4660000000.000000      5.531921000000000E-01     -6.979687000000000E+01      1.659088000000000E-01     -1.773359000000000E+02
4680000000.000000      5.563660000000000E-01     -7.063281000000000E+01      1.726532000000000E-01      1.520313000000000E+02
4700000000.000000      5.586548000000000E-01     -7.177734000000000E+01      1.757355000000000E-01      1.221328000000000E+02
4720000000.000000      5.649719000000000E-01     -7.339453000000000E+01      1.806564000000000E-01      9.363672000000000E+01
4740000000.000000      5.671997000000000E-01     -7.514843000000000E+01      1.842804000000000E-01      6.519531000000000E+01
4760000000.000000      5.684204000000000E-01     -7.703125000000000E+01      1.836700000000000E-01      3.746484000000000E+01
4780000000.000000      5.674744000000000E-01     -7.887109000000000E+01      1.808548000000000E-01      9.625000000000000E+00
4800000000.000000      5.640259000000000E-01     -8.105469000000000E+01      1.731644000000000E-01     -1.730371000000000E+01
4820000000.000000      5.611572000000000E-01     -8.306641000000000E+01      1.624908000000000E-01     -4.454492000000000E+01
4840000000.000000      5.476990000000000E-01     -8.499218000000000E+01      1.511765000000000E-01     -7.108593000000000E+01
4860000000.000000      5.333862000000000E-01     -8.622656000000000E+01      1.423645000000000E-01     -9.916016000000000E+01
4880000000.000000      5.146179000000000E-01     -8.662889000000000E+01      1.277924000000000E-01     -1.288047000000000E+02
4900000000.000000      5.033875000000000E-01     -8.642969000000000E+01      1.152306000000000E-01     -1.546406000000000E+02
4920000000.000000      4.988251000000000E-01     -8.567577000000000E+01      1.189117000000000E-01     -1.798437000000000E+02
4940000000.000000      5.049133000000000E-01     -8.476954000000000E+01      1.310577000000000E-01      1.491328000000000E+02
4960000000.000000      5.221863000000000E-01     -8.457031000000000E+01      1.404877000000000E-01      1.165000000000000E+02
4980000000.000000      5.410767000000000E-01     -8.592188000000000E+01      1.513901000000000E-01      8.555079000000000E+01
5000000000.000000      5.537415000000000E-01     -8.815624000000000E+01      1.629639000000000E-01      5.510547000000000E+01
5020000000.000000      5.552979000000000E-01     -9.060156000000000E+01      1.705627000000000E-01      2.529980000000000E+01
5040000000.000000      5.475159000000000E-01     -9.269922000000000E+01      1.725235000000000E-01     -9.049988000000000E-01
5060000000.000000      5.417480000000000E-01     -9.403124000000000E+01      1.786194000000000E-01     -2.540234000000000E+01
5080000000.000000      5.337219000000000E-01     -9.506639000000000E+01      1.847839000000000E-01     -5.187695000000000E+01
5100000000.000000      5.310974000000000E-01     -9.571875000000000E+01      1.828156000000000E-01     -7.846093000000000E+01
5120000000.000000      5.314941000000000E-01     -9.657030000000000E+01      1.811371000000000E-01     -1.045508000000000E+02
5140000000.000000      5.332642000000000E-01     -9.736717000000000E+01      1.752472000000000E-01     -1.324766000000000E+02
5160000000.000000      5.355835000000000E-01     -9.830858000000000E+01      1.684647000000000E-01     -1.610156000000000E+02
5180000000.000000      5.399475000000000E-01     -9.912109000000000E+01      1.633377000000000E-01      1.688281000000000E+02
5200000000.000000      5.465698000000000E-01     -1.001641000000000E+02      1.579514000000000E-01      1.374063000000000E+02
5220000000.000000      5.515747000000000E-01     -1.016640000000000E+02      1.579971000000000E-01      1.059101000000000E+02
5240000000.000000      5.544128000000000E-01     -1.031719000000000E+02      1.608353000000000E-01      7.348437000000000E+01
5260000000.000000      5.542603000000000E-01     -1.047695000000000E+02      1.663055000000000E-01      4.203321000000000E+01
5280000000.000000      5.515137000000000E-01     -1.063281000000000E+02      1.717377000000000E-01      1.193115000000000E+01
5300000000.000000      5.491638000000000E-01     -1.075781000000000E+02      1.770248000000000E-01     -1.525879000000000E+01
5320000000.000000      5.471802000000000E-01     -1.086250000000000E+02      1.870728000000000E-01     -4.141211000000000E+01
5340000000.000000      5.455627000000000E-01     -1.097344000000000E+02      1.926651000000000E-01     -6.841015000000000E+01
5360000000.000000      5.464478000000000E-01     -1.110430000000000E+02      1.934052000000000E-01     -9.389843000000000E+01
5380000000.000000      5.476685000000000E-01     -1.120625000000000E+02      1.917801000000000E-01     -1.200586000000000E+02
5400000000.000000      5.474243000000000E-01     -1.132148000000000E+02      1.840591000000000E-01     -1.456016000000000E+02
5420000000.000000      5.494690000000000E-01     -1.138867000000000E+02      1.787949000000000E-01     -1.719063000000000E+02
5440000000.000000      5.542908000000000E-01     -1.145742000000000E+02      1.701889000000000E-01      1.591328000000000E+02
5460000000.000000      5.609741000000000E-01     -1.157422000000000E+02      1.592560000000000E-01      1.293750000000000E+02
5480000000.000000      5.676575000000000E-01     -1.173047000000000E+02      1.535034000000000E-01      9.752342000000000E+01
5500000000.000000      5.709839000000000E-01     -1.193789000000000E+02      1.503525000000000E-01      6.454687000000000E+01
5520000000.000000      5.686951000000000E-01     -1.214609000000000E+02      1.512070000000000E-01      3.110840000000000E+01
5540000000.000000      5.639954000000000E-01     -1.233984000000000E+02      1.541290000000000E-01     -1.137085000000000E+00
5560000000.000000      5.576477000000000E-01     -1.251797000000000E+02      1.607971000000000E-01     -2.959668000000000E+01
5580000000.000000      5.509033000000000E-01     -1.267344000000000E+02      1.728287000000000E-01     -5.772851000000000E+01
5600000000.000000      5.445251000000000E-01     -1.278477000000000E+02      1.802597000000000E-01     -8.484375000000000E+01
5620000000.000000      5.403137000000000E-01     -1.289687000000000E+02      1.866837000000000E-01     -1.099531000000000E+02
5640000000.000000      5.364075000000000E-01     -1.296719000000000E+02      1.889572000000000E-01     -1.353359000000000E+02
5660000000.000000      5.347290000000000E-01     -1.301484000000000E+02      1.862640000000000E-01     -1.599531000000000E+02
5680000000.000000      5.355835000000000E-01     -1.306484000000000E+02      1.812592000000000E-01      1.748359000000000E+02
5700000000.000000      5.428162000000000E-01     -1.312969000000000E+02      1.712723000000000E-01      1.491172000000000E+02
5720000000.000000      5.515747000000000E-01     -1.323516000000000E+02      1.607666000000000E-01      1.219258000000000E+02
5740000000.000000      5.585022000000000E-01     -1.345937000000000E+02      1.488190000000000E-01      9.155859000000000E+01
5760000000.000000      5.588074000000000E-01     -1.372500000000000E+02      1.357040000000000E-01      5.793163000000000E+01
5780000000.000000      5.507507000000000E-01     -1.397031000000000E+02      1.248245000000000E-01      2.299511000000000E+01
5800000000.000000      5.375061000000000E-01     -1.414063000000000E+02      1.215019000000000E-01     -1.077783000000000E+01
5820000000.000000      5.279846000000000E-01     -1.422500000000000E+02      1.309509000000000E-01     -4.391797000000000E+01
5840000000.000000      5.236511000000000E-01     -1.430938000000000E+02      1.450882000000000E-01     -7.627734000000000E+01
5860000000.000000      5.255432000000000E-01     -1.436563000000000E+02      1.572495000000000E-01     -1.053867000000000E+02
5880000000.000000      5.298462000000000E-01     -1.448203000000000E+02      1.690598000000000E-01     -1.328672000000000E+02
5900000000.000000      5.328674000000000E-01     -1.461953000000000E+02      1.772003000000000E-01     -1.584453000000000E+02
5920000000.000000      5.318604000000000E-01     -1.478672000000000E+02      1.827698000000000E-01      1.768359000000000E+02
5940000000.000000      5.299683000000000E-01     -1.493281000000000E+02      1.798096000000000E-01      1.518828000000000E+02
5960000000.000000      5.246582000000000E-01     -1.507187000000000E+02      1.704788000000000E-01      1.287734000000000E+02
5980000000.000000      5.190735000000000E-01     -1.523906000000000E+02      1.622314000000000E-01      1.044492000000000E+02
6000000000.000000      5.109253000000000E-01     -1.542578000000000E+02      1.479568000000000E-01      7.802734000000000E+01
6020000000.000000      4.968872000000000E-01     -1.557344000000000E+02      1.302795000000000E-01      5.006054000000000E+01
6040000000.000000      4.846802000000000E-01     -1.567188000000000E+02      1.105537000000000E-01      2.044140000000000E+01
6060000000.000000      4.745331000000000E-01     -1.572656000000000E+02      9.873581000000000E-02     -1.048096000000000E+01
6080000000.000000      4.678802000000000E-01     -1.569297000000000E+02      9.903717000000000E-02     -4.546679000000000E+01
