! Network Analyzer HP8722D
! Hewlett-Packard
! Data name: Linha com CNT
! Saver's name: Rodrigo Anjos
! Comments: Teste de deteccao de acetona 0-100ppm a partir de cilindro
! Time and date: 10/9/2025 18:47
!              Frequency                     S11                                                   S21                                                   S12                                                   S22
# HZ  S  MA R 50
3000000000.000000      8.233261000000000E-02      9.109375000000000E+01      4.531403000000000E-01      2.494922000000000E+01
3020000000.000000      9.626770000000000E-02      7.623437000000000E+01      4.551239000000000E-01     -3.944092000000000E+00
3040000000.000000      9.604263000000000E-02      6.050976000000000E+01      4.548492000000000E-01     -3.290820000000000E+01
3060000000.000000      8.255386000000000E-02      4.626367000000000E+01      4.527893000000000E-01     -6.143555000000000E+01
3080000000.000000      6.130981000000000E-02      3.779492000000000E+01      4.537811000000000E-01     -8.982031000000000E+01
3100000000.000000      4.484749000000000E-02      4.063281000000000E+01      4.514618000000000E-01     -1.184219000000000E+02
3120000000.000000      4.009056000000000E-02      5.429296000000000E+01      4.495392000000000E-01     -1.468437000000000E+02
3140000000.000000      3.954315000000000E-02      5.841406000000000E+01      4.451447000000000E-01     -1.755391000000000E+02
3160000000.000000      3.132629000000000E-02      6.132813000000000E+01      4.431458000000000E-01      1.563437000000000E+02
3180000000.000000      2.214050000000000E-02      1.075430000000000E+02      4.412231000000000E-01      1.274687000000000E+02
3200000000.000000      5.423927000000000E-02      1.425156000000000E+02      4.346771000000000E-01      9.797264000000000E+01
3220000000.000000      1.052818000000000E-01      1.360391000000000E+02      4.232025000000000E-01      6.866405000000000E+01
3240000000.000000      1.558151000000000E-01      1.214063000000000E+02      4.115295000000000E-01      4.132617000000000E+01
3260000000.000000      1.975479000000000E-01      1.050039000000000E+02      4.147186000000000E-01      1.377393000000000E+01
3280000000.000000      2.235413000000000E-01      8.836329000000000E+01      4.196930000000000E-01     -1.523975000000000E+01
3300000000.000000      2.324677000000000E-01      7.189843000000000E+01      4.136047000000000E-01     -4.391992000000000E+01
3320000000.000000      2.268219000000000E-01      5.707617000000000E+01      4.176636000000000E-01     -7.171875000000000E+01
3340000000.000000      2.103500000000000E-01      4.451953000000000E+01      4.227448000000000E-01     -1.003203000000000E+02
3360000000.000000      1.863022000000000E-01      3.549805000000000E+01      4.243622000000000E-01     -1.288047000000000E+02
3380000000.000000      1.631470000000000E-01      3.080371000000000E+01      4.285736000000000E-01     -1.569922000000000E+02
3400000000.000000      1.433716000000000E-01      2.879297000000000E+01      4.317780000000000E-01      1.742344000000000E+02
3420000000.000000      1.287842000000000E-01      2.868164000000000E+01      4.309998000000000E-01      1.455469000000000E+02
3440000000.000000      1.162224000000000E-01      2.913574000000000E+01      4.315948000000000E-01      1.167305000000000E+02
3460000000.000000      1.056023000000000E-01      3.085840000000000E+01      4.296112000000000E-01      8.845703000000000E+01
3480000000.000000      9.886551000000000E-02      3.383594000000000E+01      4.295349000000000E-01      5.969531000000000E+01
3500000000.000000      9.600067000000000E-02      3.714648000000000E+01      4.237366000000000E-01      3.045898000000000E+01
3520000000.000000      9.476852000000000E-02      3.970703000000000E+01      4.214325000000000E-01      2.418335000000000E+00
3540000000.000000      9.523392000000000E-02      4.343163000000000E+01      4.246063000000000E-01     -2.611816000000000E+01
3560000000.000000      9.753036000000000E-02      4.855078000000000E+01      4.268951000000000E-01     -5.526172000000000E+01
3580000000.000000      1.065788000000000E-01      5.370117000000000E+01      4.247437000000000E-01     -8.403906000000000E+01
3600000000.000000      1.209412000000000E-01      5.457812000000000E+01      4.255219000000000E-01     -1.121953000000000E+02
3620000000.000000      1.346207000000000E-01      5.104492000000000E+01      4.254761000000000E-01     -1.404844000000000E+02
3640000000.000000      1.394730000000000E-01      4.483398000000000E+01      4.257202000000000E-01     -1.688047000000000E+02
3660000000.000000      1.337051000000000E-01      3.794140000000000E+01      4.243622000000000E-01      1.632578000000000E+02
3680000000.000000      1.200905000000000E-01      3.510742000000000E+01      4.277039000000000E-01      1.356875000000000E+02
3700000000.000000      1.079521000000000E-01      3.877539000000000E+01      4.286957000000000E-01      1.070547000000000E+02
3720000000.000000      1.104393000000000E-01      4.734765000000000E+01      4.283142000000000E-01      7.852734000000000E+01
3740000000.000000      1.288910000000000E-01      5.035937000000000E+01      4.214478000000000E-01      4.990234000000000E+01
3760000000.000000      1.476288000000000E-01      4.645508000000000E+01      4.161530000000000E-01      2.217578000000000E+01
3780000000.000000      1.537323000000000E-01      3.889648000000000E+01      4.152985000000000E-01     -5.357422000000000E+00
3800000000.000000      1.453323000000000E-01      3.164160000000000E+01      4.168549000000000E-01     -3.397070000000000E+01
3820000000.000000      1.256256000000000E-01      2.900586000000000E+01      4.176025000000000E-01     -6.281054000000000E+01
3840000000.000000      1.121483000000000E-01      3.462500000000000E+01      4.157867000000000E-01     -9.173437000000000E+01
3860000000.000000      1.184502000000000E-01      4.260742000000000E+01      4.151001000000000E-01     -1.205859000000000E+02
3880000000.000000      1.372147000000000E-01      4.349023000000000E+01      4.117432000000000E-01     -1.498359000000000E+02
3900000000.000000      1.512833000000000E-01      3.739453000000000E+01      4.030151000000000E-01     -1.782656000000000E+02
3920000000.000000      1.482849000000000E-01      2.966113000000000E+01      4.061127000000000E-01      1.545625000000000E+02
3940000000.000000      1.305771000000000E-01      2.646582000000000E+01      4.133759000000000E-01      1.259609000000000E+02
3960000000.000000      1.127663000000000E-01      3.307617000000000E+01      4.140167000000000E-01      9.688280000000000E+01
3980000000.000000      1.209373000000000E-01      4.591601000000000E+01      4.062653000000000E-01      6.832812000000000E+01
4000000000.000000      1.519241000000000E-01      4.875000000000000E+01      3.987885000000000E-01      4.110937000000000E+01
4020000000.000000      1.835785000000000E-01      4.131640000000000E+01      4.047852000000000E-01      1.354199000000000E+01
4040000000.000000      2.006454000000000E-01      2.870019000000000E+01      4.066925000000000E-01     -1.681348000000000E+01
4060000000.000000      1.935425000000000E-01      1.499463000000000E+01      3.915253000000000E-01     -4.537499000000000E+01
4080000000.000000      1.638947000000000E-01      2.231567000000000E+00      3.905792000000000E-01     -7.214844000000000E+01
4100000000.000000      1.183586000000000E-01     -4.165283000000000E+00      4.009399000000000E-01     -1.009766000000000E+02
4120000000.000000      7.841110000000000E-02      7.873047000000000E+00      3.990936000000000E-01     -1.308281000000000E+02
4140000000.000000      7.904053000000000E-02      3.493750000000000E+01      3.960266000000000E-01     -1.598281000000000E+02
4160000000.000000      1.029091000000000E-01      4.343359000000000E+01      3.945313000000000E-01      1.723828000000000E+02
4180000000.000000      1.197929000000000E-01      4.044726000000000E+01      4.019318000000000E-01      1.436641000000000E+02
4200000000.000000      1.221161000000000E-01      3.731836000000000E+01      4.028015000000000E-01      1.138008000000000E+02
4220000000.000000      1.212234000000000E-01      3.936718000000000E+01      3.939667000000000E-01      8.448828000000000E+01
4240000000.000000      1.314468000000000E-01      4.481835000000000E+01      3.890381000000000E-01      5.608984000000000E+01
4260000000.000000      1.562729000000000E-01      4.604101000000000E+01      3.855591000000000E-01      2.796679000000000E+01
4280000000.000000      1.814651000000000E-01      4.146289000000000E+01      3.852844000000000E-01     -2.609253000000000E-01
4300000000.000000      1.962433000000000E-01      3.357422000000000E+01      3.832703000000000E-01     -2.911523000000000E+01
4320000000.000000      1.953659000000000E-01      2.575195000000000E+01      3.802948000000000E-01     -5.789648000000000E+01
4340000000.000000      1.814728000000000E-01      2.038086000000000E+01      3.789978000000000E-01     -8.675781000000000E+01
4360000000.000000      1.686172000000000E-01      1.971875000000000E+01      3.763123000000000E-01     -1.160352000000000E+02
4380000000.000000      1.685638000000000E-01      2.211133000000000E+01      3.740997000000000E-01     -1.452656000000000E+02
4400000000.000000      1.788483000000000E-01      2.164160000000000E+01      3.706207000000000E-01     -1.744219000000000E+02
4420000000.000000      1.884995000000000E-01      1.742773000000000E+01      3.718719000000000E-01      1.567031000000000E+02
4440000000.000000      1.848679000000000E-01      1.165234000000000E+01      3.734589000000000E-01      1.269648000000000E+02
4460000000.000000      1.691666000000000E-01      8.862793000000000E+00      3.673096000000000E-01      9.723436000000000E+01
4480000000.000000      1.515198000000000E-01      1.268066000000000E+01      3.654022000000000E-01      6.880859000000000E+01
4500000000.000000      1.545410000000000E-01      2.113476000000000E+01      3.654785000000000E-01      4.007421000000000E+01
4520000000.000000      1.795731000000000E-01      2.481250000000000E+01      3.618927000000000E-01      1.049463000000000E+01
4540000000.000000      2.094727000000000E-01      2.078027000000000E+01      3.517609000000000E-01     -1.891504000000000E+01
4560000000.000000      2.286072000000000E-01      1.296387000000000E+01      3.465729000000000E-01     -4.712304000000000E+01
4580000000.000000      2.338104000000000E-01      4.453369000000000E+00      3.492126000000000E-01     -7.637109000000000E+01
4600000000.000000      2.258987000000000E-01     -2.651855000000000E+00      3.446655000000000E-01     -1.066250000000000E+02
4620000000.000000      2.146988000000000E-01     -6.981934000000000E+00      3.383636000000000E-01     -1.357812000000000E+02
4640000000.000000      2.090607000000000E-01     -9.543457000000000E+00      3.387299000000000E-01     -1.652500000000000E+02
4660000000.000000      2.083588000000000E-01     -1.243262000000000E+01      3.378601000000000E-01      1.656172000000000E+02
4680000000.000000      2.074890000000000E-01     -1.739844000000000E+01      3.407898000000000E-01      1.367031000000000E+02
4700000000.000000      1.995010000000000E-01     -2.389551000000000E+01      3.413849000000000E-01      1.067539000000000E+02
4720000000.000000      1.829605000000000E-01     -3.057422000000000E+01      3.376617000000000E-01      7.885547000000000E+01
4740000000.000000      1.627731000000000E-01     -3.635156000000000E+01      3.438110000000000E-01      5.104492000000000E+01
4760000000.000000      1.394958000000000E-01     -4.117578000000000E+01      3.442841000000000E-01      2.235156000000000E+01
4780000000.000000      1.136246000000000E-01     -4.563086000000000E+01      3.414001000000000E-01     -6.170410000000000E+00
4800000000.000000      8.183289000000000E-02     -4.910351000000000E+01      3.383636000000000E-01     -3.461328000000000E+01
4820000000.000000      3.912735000000000E-02     -4.054688000000000E+01      3.313141000000000E-01     -6.386328000000000E+01
4840000000.000000      3.993988000000000E-02      4.983788000000000E+01      3.253021000000000E-01     -9.271875000000000E+01
4860000000.000000      1.058464000000000E-01      5.815430000000000E+01      3.188324000000000E-01     -1.233711000000000E+02
4880000000.000000      1.757965000000000E-01      4.674218000000000E+01      2.992554000000000E-01     -1.543828000000000E+02
4900000000.000000      2.361908000000000E-01      3.174219000000000E+01      2.766876000000000E-01      1.780859000000000E+02
4920000000.000000      2.782288000000000E-01      1.588184000000000E+01      2.762756000000000E-01      1.527187000000000E+02
4940000000.000000      2.991333000000000E-01      5.053711000000000E-01      2.891998000000000E-01      1.243203000000000E+02
4960000000.000000      2.951965000000000E-01     -1.451709000000000E+01      2.926483000000000E-01      9.449610000000000E+01
4980000000.000000      2.695160000000000E-01     -2.780957000000000E+01      2.976074000000000E-01      6.733593000000000E+01
5000000000.000000      2.265854000000000E-01     -3.755273000000000E+01      3.115845000000000E-01      3.970898000000000E+01
5020000000.000000      1.799393000000000E-01     -4.014844000000000E+01      3.215942000000000E-01      1.158203000000000E+01
5040000000.000000      1.507797000000000E-01     -3.317773000000000E+01      3.288879000000000E-01     -1.596338000000000E+01
5060000000.000000      1.517258000000000E-01     -2.370117000000000E+01      3.373108000000000E-01     -4.346875000000000E+01
5080000000.000000      1.678467000000000E-01     -2.075098000000000E+01      3.429413000000000E-01     -7.186328000000000E+01
5100000000.000000      1.823044000000000E-01     -2.306347000000000E+01      3.373871000000000E-01     -1.005000000000000E+02
5120000000.000000      1.867752000000000E-01     -2.679883000000000E+01      3.329926000000000E-01     -1.278242000000000E+02
5140000000.000000      1.879349000000000E-01     -3.022558000000000E+01      3.316956000000000E-01     -1.560937000000000E+02
5160000000.000000      1.890793000000000E-01     -3.312891000000000E+01      3.296204000000000E-01      1.743984000000000E+02
5180000000.000000      1.910477000000000E-01     -3.639843000000000E+01      3.256531000000000E-01      1.449609000000000E+02
5200000000.000000      1.919098000000000E-01     -4.048633000000000E+01      3.240662000000000E-01      1.151641000000000E+02
5220000000.000000      1.870041000000000E-01     -4.435547000000000E+01      3.239136000000000E-01      8.564453000000000E+01
5240000000.000000      1.780243000000000E-01     -4.667188000000000E+01      3.271484000000000E-01      5.605469000000000E+01
5260000000.000000      1.719437000000000E-01     -4.686328000000000E+01      3.325195000000000E-01      2.652441000000000E+01
5280000000.000000      1.701126000000000E-01     -4.577929000000000E+01      3.369141000000000E-01     -2.694458000000000E+00
5300000000.000000      1.744156000000000E-01     -4.617773000000000E+01      3.386383000000000E-01     -3.090820000000000E+01
5320000000.000000      1.781311000000000E-01     -4.878320000000000E+01      3.415527000000000E-01     -5.803320000000000E+01
5340000000.000000      1.754684000000000E-01     -5.239843000000000E+01      3.458405000000000E-01     -8.600389000000000E+01
5360000000.000000      1.690674000000000E-01     -5.550586000000000E+01      3.410950000000000E-01     -1.133711000000000E+02
5380000000.000000      1.618958000000000E-01     -5.668945000000000E+01      3.378906000000000E-01     -1.400000000000000E+02
5400000000.000000      1.612778000000000E-01     -5.617188000000000E+01      3.379822000000000E-01     -1.676094000000000E+02
5420000000.000000      1.701889000000000E-01     -5.601171000000000E+01      3.315125000000000E-01      1.638906000000000E+02
5440000000.000000      1.804962000000000E-01     -5.907617000000000E+01      3.269348000000000E-01      1.351563000000000E+02
5460000000.000000      1.865692000000000E-01     -6.460938000000000E+01      3.162994000000000E-01      1.055391000000000E+02
5480000000.000000      1.817093000000000E-01     -7.105859000000000E+01      3.112946000000000E-01      7.637500000000000E+01
5500000000.000000      1.663666000000000E-01     -7.658593000000000E+01      3.133850000000000E-01      4.676562000000000E+01
5520000000.000000      1.449356000000000E-01     -7.978516000000000E+01      3.145752000000000E-01      1.668262000000000E+01
5540000000.000000      1.269226000000000E-01     -7.853516000000000E+01      3.176880000000000E-01     -1.282520000000000E+01
5560000000.000000      1.146126000000000E-01     -7.553515000000000E+01      3.230438000000000E-01     -4.189453000000000E+01
5580000000.000000      1.086655000000000E-01     -7.086719000000000E+01      3.291016000000000E-01     -7.051952000000000E+01
5600000000.000000      1.056786000000000E-01     -6.579687000000000E+01      3.332062000000000E-01     -9.869921000000000E+01
5620000000.000000      1.099396000000000E-01     -5.906445000000000E+01      3.347473000000000E-01     -1.265859000000000E+02
5640000000.000000      1.244583000000000E-01     -5.311718000000000E+01      3.329010000000000E-01     -1.543047000000000E+02
5660000000.000000      1.481476000000000E-01     -5.239452000000000E+01      3.278961000000000E-01      1.783203000000000E+02
5680000000.000000      1.748810000000000E-01     -5.774023000000000E+01      3.214417000000000E-01      1.503047000000000E+02
5700000000.000000      1.930695000000000E-01     -6.717578000000000E+01      3.107300000000000E-01      1.220742000000000E+02
5720000000.000000      1.958618000000000E-01     -7.852344000000000E+01      2.992249000000000E-01      9.446093000000000E+01
5740000000.000000      1.826172000000000E-01     -8.971094000000000E+01      2.954865000000000E-01      6.602344000000000E+01
5760000000.000000      1.558990000000000E-01     -9.801561000000000E+01      2.926788000000000E-01      3.540234000000000E+01
5780000000.000000      1.267548000000000E-01     -9.969921000000000E+01      2.882538000000000E-01      5.248535000000000E+00
5800000000.000000      1.108742000000000E-01     -9.295702000000000E+01      2.897339000000000E-01     -2.460058000000000E+01
5820000000.000000      1.152573000000000E-01     -8.694139000000000E+01      2.942200000000000E-01     -5.457226000000000E+01
5840000000.000000      1.259308000000000E-01     -8.956640000000000E+01      3.014832000000000E-01     -8.489061000000000E+01
5860000000.000000      1.278152000000000E-01     -9.725780000000000E+01      3.010406000000000E-01     -1.142773000000000E+02
5880000000.000000      1.174240000000000E-01     -1.068320000000000E+02      3.014069000000000E-01     -1.415000000000000E+02
5900000000.000000      9.778976000000000E-02     -1.131250000000000E+02      3.096619000000000E-01     -1.688437000000000E+02
5920000000.000000      7.830429000000000E-02     -1.114453000000000E+02      3.138428000000000E-01      1.628359000000000E+02
5940000000.000000      7.030869000000000E-02     -1.021211000000000E+02      3.084869000000000E-01      1.337969000000000E+02
5960000000.000000      7.004547000000000E-02     -9.639452000000000E+01      2.962952000000000E-01      1.058867000000000E+02
5980000000.000000      6.407166000000000E-02     -9.575781000000000E+01      2.888489000000000E-01      7.855078000000000E+01
6000000000.000000      4.898834000000000E-02     -8.802734000000000E+01      2.855072000000000E-01      4.912109000000000E+01
6020000000.000000      4.039574000000000E-02     -5.429882000000000E+01      2.757568000000000E-01      1.814648000000000E+01
6040000000.000000      6.492996000000000E-02     -2.977246000000000E+01      2.638550000000000E-01     -1.199170000000000E+01
6060000000.000000      9.847260000000000E-02     -3.176074000000000E+01      2.607269000000000E-01     -4.151953000000000E+01
6080000000.000000      1.272583000000000E-01     -4.273828000000000E+01      2.667542000000000E-01     -7.182812000000000E+01
