! Network Analyzer HP8722D
! Hewlett-Packard
! Data name: Linha com CNT
! Saver's name: Rodrigo Anjos
! Comments: Teste de deteccao de acetona 0-100ppm a partir de cilindro
! Time and date: 10/9/2025 18:43
!              Frequency                     S11                                                   S21                                                   S12                                                   S22
# HZ  S  MA R 50
3000000000.000000      8.187103000000000E-02      9.092968000000000E+01      4.546661000000000E-01      2.475879000000000E+01
3020000000.000000      9.631348000000000E-02      7.632421000000000E+01      4.550781000000000E-01     -3.837036000000000E+00
3040000000.000000      9.599686000000000E-02      6.058788000000000E+01      4.536133000000000E-01     -3.283984000000000E+01
3060000000.000000      8.239746000000000E-02      4.643945000000000E+01      4.530029000000000E-01     -6.140820000000000E+01
3080000000.000000      6.161308000000000E-02      3.767969000000000E+01      4.527130000000000E-01     -9.004686000000000E+01
3100000000.000000      4.455185000000000E-02      4.123242000000000E+01      4.524078000000000E-01     -1.184492000000000E+02
3120000000.000000      3.979874000000000E-02      5.389453000000000E+01      4.501190000000000E-01     -1.469063000000000E+02
3140000000.000000      3.949547000000000E-02      5.803124000000000E+01      4.451447000000000E-01     -1.755156000000000E+02
3160000000.000000      3.098488000000000E-02      6.077343000000000E+01      4.433746000000000E-01      1.561875000000000E+02
3180000000.000000      2.239418000000000E-02      1.068125000000000E+02      4.412994000000000E-01      1.274141000000000E+02
3200000000.000000      5.445290000000000E-02      1.426641000000000E+02      4.355927000000000E-01      9.797655000000000E+01
3220000000.000000      1.054916000000000E-01      1.360703000000000E+02      4.226227000000000E-01      6.873437000000000E+01
3240000000.000000      1.563187000000000E-01      1.214336000000000E+02      4.118652000000000E-01      4.125586000000000E+01
3260000000.000000      1.975861000000000E-01      1.049883000000000E+02      4.140320000000000E-01      1.379443000000000E+01
3280000000.000000      2.236023000000000E-01      8.837109000000000E+01      4.192200000000000E-01     -1.541943000000000E+01
3300000000.000000      2.329407000000000E-01      7.186718000000000E+01      4.136353000000000E-01     -4.401953000000000E+01
3320000000.000000      2.269745000000000E-01      5.707226000000000E+01      4.165955000000000E-01     -7.169140000000000E+01
3340000000.000000      2.102051000000000E-01      4.455078000000000E+01      4.216461000000000E-01     -1.004883000000000E+02
3360000000.000000      1.862946000000000E-01      3.544140000000000E+01      4.249420000000000E-01     -1.289453000000000E+02
3380000000.000000      1.627045000000000E-01      3.055078000000000E+01      4.289246000000000E-01     -1.571719000000000E+02
3400000000.000000      1.436768000000000E-01      2.880566000000000E+01      4.310150000000000E-01      1.741094000000000E+02
3420000000.000000      1.289444000000000E-01      2.870019000000000E+01      4.315491000000000E-01      1.454687000000000E+02
3440000000.000000      1.164589000000000E-01      2.919531000000000E+01      4.300995000000000E-01      1.166875000000000E+02
3460000000.000000      1.057320000000000E-01      3.098535000000000E+01      4.282532000000000E-01      8.836718000000000E+01
3480000000.000000      9.892654000000000E-02      3.359961000000000E+01      4.280090000000000E-01      5.941601000000000E+01
3500000000.000000      9.592438000000000E-02      3.717773000000000E+01      4.245148000000000E-01      3.033008000000000E+01
3520000000.000000      9.462357000000000E-02      3.973242000000000E+01      4.220428000000000E-01      2.418335000000000E+00
3540000000.000000      9.493256000000000E-02      4.325585000000000E+01      4.245453000000000E-01     -2.601367000000000E+01
3560000000.000000      9.781265000000000E-02      4.867969000000000E+01      4.261322000000000E-01     -5.518945000000000E+01
3580000000.000000      1.062050000000000E-01      5.361523000000000E+01      4.245758000000000E-01     -8.395702000000000E+01
3600000000.000000      1.207809000000000E-01      5.443554000000000E+01      4.244232000000000E-01     -1.122109000000000E+02
3620000000.000000      1.342316000000000E-01      5.104687000000000E+01      4.255066000000000E-01     -1.405937000000000E+02
3640000000.000000      1.393967000000000E-01      4.460156000000000E+01      4.264679000000000E-01     -1.688125000000000E+02
3660000000.000000      1.335678000000000E-01      3.795117000000000E+01      4.248810000000000E-01      1.632266000000000E+02
3680000000.000000      1.203957000000000E-01      3.509961000000000E+01      4.272308000000000E-01      1.356562000000000E+02
3700000000.000000      1.080284000000000E-01      3.892969000000000E+01      4.292755000000000E-01      1.070195000000000E+02
3720000000.000000      1.103706000000000E-01      4.721289000000000E+01      4.271088000000000E-01      7.856250000000000E+01
3740000000.000000      1.289825000000000E-01      5.021289000000000E+01      4.213409000000000E-01      5.002148000000000E+01
3760000000.000000      1.469421000000000E-01      4.641015000000000E+01      4.151459000000000E-01      2.220019000000000E+01
3780000000.000000      1.536560000000000E-01      3.893555000000000E+01      4.155273000000000E-01     -5.490479000000000E+00
3800000000.000000      1.453247000000000E-01      3.165430000000000E+01      4.165344000000000E-01     -3.397851000000000E+01
3820000000.000000      1.257401000000000E-01      2.896875000000000E+01      4.172058000000000E-01     -6.301367000000000E+01
3840000000.000000      1.121559000000000E-01      3.486328000000000E+01      4.163513000000000E-01     -9.195313000000000E+01
3860000000.000000      1.181793000000000E-01      4.263476000000000E+01      4.141083000000000E-01     -1.208008000000000E+02
3880000000.000000      1.375504000000000E-01      4.342187000000000E+01      4.123840000000000E-01     -1.498906000000000E+02
3900000000.000000      1.513901000000000E-01      3.730859000000000E+01      4.040527000000000E-01     -1.784062000000000E+02
3920000000.000000      1.482773000000000E-01      2.983691000000000E+01      4.055481000000000E-01      1.545234000000000E+02
3940000000.000000      1.303864000000000E-01      2.631836000000000E+01      4.141083000000000E-01      1.259844000000000E+02
3960000000.000000      1.130333000000000E-01      3.305078000000000E+01      4.132843000000000E-01      9.674608000000000E+01
3980000000.000000      1.199913000000000E-01      4.562696000000000E+01      4.058380000000000E-01      6.822656000000000E+01
4000000000.000000      1.515656000000000E-01      4.871094000000000E+01      3.989563000000000E-01      4.121094000000000E+01
4020000000.000000      1.833115000000000E-01      4.131640000000000E+01      4.058228000000000E-01      1.330273000000000E+01
4040000000.000000      2.011871000000000E-01      2.882910000000000E+01      4.054565000000000E-01     -1.673535000000000E+01
4060000000.000000      1.935120000000000E-01      1.507422000000000E+01      3.905945000000000E-01     -4.519336000000000E+01
4080000000.000000      1.635895000000000E-01      2.452637000000000E+00      3.903656000000000E-01     -7.197656000000000E+01
4100000000.000000      1.181908000000000E-01     -4.216064000000000E+00      4.001007000000000E-01     -1.010664000000000E+02
4120000000.000000      7.834625000000000E-02      7.558594000000000E+00      3.993835000000000E-01     -1.308750000000000E+02
4140000000.000000      7.878113000000000E-02      3.490039000000000E+01      3.943481000000000E-01     -1.597891000000000E+02
4160000000.000000      1.028786000000000E-01      4.352539000000000E+01      3.950958000000000E-01      1.722344000000000E+02
4180000000.000000      1.201935000000000E-01      4.045703000000000E+01      4.032288000000000E-01      1.434219000000000E+02
4200000000.000000      1.224594000000000E-01      3.718750000000000E+01      4.026642000000000E-01      1.137930000000000E+02
4220000000.000000      1.215439000000000E-01      3.937891000000000E+01      3.957672000000000E-01      8.458984000000000E+01
4240000000.000000      1.314850000000000E-01      4.491601000000000E+01      3.908081000000000E-01      5.600195000000000E+01
4260000000.000000      1.560364000000000E-01      4.614843000000000E+01      3.862915000000000E-01      2.801562000000000E+01
4280000000.000000      1.813431000000000E-01      4.146484000000000E+01      3.861084000000000E-01     -3.913879000000000E-01
4300000000.000000      1.962204000000000E-01      3.352734000000000E+01      3.828583000000000E-01     -2.906933000000000E+01
4320000000.000000      1.955185000000000E-01      2.571972000000000E+01      3.795929000000000E-01     -5.803905000000000E+01
4340000000.000000      1.822662000000000E-01      2.041797000000000E+01      3.793182000000000E-01     -8.673046000000000E+01
4360000000.000000      1.686172000000000E-01      1.969531000000000E+01      3.760376000000000E-01     -1.161211000000000E+02
4380000000.000000      1.684265000000000E-01      2.205078000000000E+01      3.739624000000000E-01     -1.454844000000000E+02
4400000000.000000      1.791840000000000E-01      2.167383000000000E+01      3.721161000000000E-01     -1.745000000000000E+02
4420000000.000000      1.882172000000000E-01      1.740039000000000E+01      3.726654000000000E-01      1.565391000000000E+02
4440000000.000000      1.852341000000000E-01      1.159424000000000E+01      3.743591000000000E-01      1.267656000000000E+02
4460000000.000000      1.686935000000000E-01      8.882324000000000E+00      3.675690000000000E-01      9.733202000000000E+01
4480000000.000000      1.513443000000000E-01      1.262451000000000E+01      3.648529000000000E-01      6.884766000000000E+01
4500000000.000000      1.541748000000000E-01      2.101660000000000E+01      3.650970000000000E-01      3.988476000000000E+01
4520000000.000000      1.794739000000000E-01      2.482129000000000E+01      3.614349000000000E-01      1.053955000000000E+01
4540000000.000000      2.091370000000000E-01      2.087793000000000E+01      3.529053000000000E-01     -1.890429000000000E+01
4560000000.000000      2.283096000000000E-01      1.296777000000000E+01      3.470154000000000E-01     -4.716601000000000E+01
4580000000.000000      2.333679000000000E-01      4.409424000000000E+00      3.472443000000000E-01     -7.638672000000000E+01
4600000000.000000      2.259140000000000E-01     -2.543335000000000E+00      3.442383000000000E-01     -1.065156000000000E+02
4620000000.000000      2.148361000000000E-01     -6.995605000000000E+00      3.381042000000000E-01     -1.358672000000000E+02
4640000000.000000      2.091675000000000E-01     -9.460938000000000E+00      3.385468000000000E-01     -1.654219000000000E+02
4660000000.000000      2.082367000000000E-01     -1.249170000000000E+01      3.372650000000000E-01      1.656484000000000E+02
4680000000.000000      2.075119000000000E-01     -1.747656000000000E+01      3.408813000000000E-01      1.365547000000000E+02
4700000000.000000      1.995316000000000E-01     -2.404297000000000E+01      3.404846000000000E-01      1.067422000000000E+02
4720000000.000000      1.835556000000000E-01     -3.060059000000000E+01      3.384857000000000E-01      7.875781000000000E+01
4740000000.000000      1.626053000000000E-01     -3.641406000000000E+01      3.439636000000000E-01      5.083593000000000E+01
4760000000.000000      1.391296000000000E-01     -4.132421000000000E+01      3.446655000000000E-01      2.230078000000000E+01
4780000000.000000      1.132851000000000E-01     -4.547656000000000E+01      3.418121000000000E-01     -6.204590000000000E+00
4800000000.000000      8.162308000000000E-02     -4.889062000000000E+01      3.384857000000000E-01     -3.477344000000000E+01
4820000000.000000      3.920364000000000E-02     -4.030078000000000E+01      3.306274000000000E-01     -6.366211000000000E+01
4840000000.000000      3.976631000000000E-02      4.984179000000000E+01      3.250122000000000E-01     -9.267187000000000E+01
4860000000.000000      1.061172000000000E-01      5.835351000000000E+01      3.190460000000000E-01     -1.233398000000000E+02
4880000000.000000      1.762009000000000E-01      4.677148000000000E+01      2.993317000000000E-01     -1.543281000000000E+02
4900000000.000000      2.358475000000000E-01      3.177637000000000E+01      2.770996000000000E-01      1.780469000000000E+02
4920000000.000000      2.779694000000000E-01      1.583252000000000E+01      2.761536000000000E-01      1.526875000000000E+02
4940000000.000000      2.982941000000000E-01      4.243469000000000E-01      2.891693000000000E-01      1.242266000000000E+02
4960000000.000000      2.954559000000000E-01     -1.456006000000000E+01      2.918701000000000E-01      9.440233000000000E+01
4980000000.000000      2.696991000000000E-01     -2.777344000000000E+01      2.975922000000000E-01      6.725780000000000E+01
5000000000.000000      2.267761000000000E-01     -3.753906000000000E+01      3.111572000000000E-01      3.965234000000000E+01
5020000000.000000      1.798325000000000E-01     -3.998632000000000E+01      3.209534000000000E-01      1.142285000000000E+01
5040000000.000000      1.504135000000000E-01     -3.329883000000000E+01      3.285370000000000E-01     -1.593750000000000E+01
5060000000.000000      1.516037000000000E-01     -2.385352000000000E+01      3.370056000000000E-01     -4.349023000000000E+01
5080000000.000000      1.675797000000000E-01     -2.064258000000000E+01      3.425751000000000E-01     -7.194921000000000E+01
5100000000.000000      1.815338000000000E-01     -2.309668000000000E+01      3.374329000000000E-01     -1.004297000000000E+02
5120000000.000000      1.869354000000000E-01     -2.692676000000000E+01      3.326111000000000E-01     -1.279453000000000E+02
5140000000.000000      1.878281000000000E-01     -3.024023000000000E+01      3.318024000000000E-01     -1.561484000000000E+02
5160000000.000000      1.893082000000000E-01     -3.320313000000000E+01      3.287201000000000E-01      1.744062000000000E+02
5180000000.000000      1.909943000000000E-01     -3.633008000000000E+01      3.260193000000000E-01      1.449609000000000E+02
5200000000.000000      1.919556000000000E-01     -4.045312000000000E+01      3.241119000000000E-01      1.150781000000000E+02
5220000000.000000      1.872635000000000E-01     -4.426367000000000E+01      3.237000000000000E-01      8.550390000000000E+01
5240000000.000000      1.790390000000000E-01     -4.662890000000000E+01      3.278503000000000E-01      5.590038000000000E+01
5260000000.000000      1.721191000000000E-01     -4.667578000000000E+01      3.316040000000000E-01      2.645605000000000E+01
5280000000.000000      1.700211000000000E-01     -4.567578000000000E+01      3.363647000000000E-01     -2.599731000000000E+00
5300000000.000000      1.747131000000000E-01     -4.614062000000000E+01      3.384399000000000E-01     -3.086133000000000E+01
5320000000.000000      1.778107000000000E-01     -4.881249000000000E+01      3.425598000000000E-01     -5.801562000000000E+01
5340000000.000000      1.759644000000000E-01     -5.237109000000000E+01      3.462219000000000E-01     -8.605860000000000E+01
5360000000.000000      1.687469000000000E-01     -5.550195000000000E+01      3.406067000000000E-01     -1.135078000000000E+02
5380000000.000000      1.622238000000000E-01     -5.668554000000000E+01      3.378143000000000E-01     -1.400078000000000E+02
5400000000.000000      1.616821000000000E-01     -5.621875000000000E+01      3.372498000000000E-01     -1.676797000000000E+02
5420000000.000000      1.699524000000000E-01     -5.612109000000000E+01      3.316498000000000E-01      1.639141000000000E+02
5440000000.000000      1.808395000000000E-01     -5.895702000000000E+01      3.268127000000000E-01      1.350781000000000E+02
5460000000.000000      1.864929000000000E-01     -6.466015000000000E+01      3.170929000000000E-01      1.054531000000000E+02
5480000000.000000      1.816940000000000E-01     -7.107812000000000E+01      3.116608000000000E-01      7.615234000000000E+01
5500000000.000000      1.661530000000000E-01     -7.669922000000000E+01      3.133698000000000E-01      4.672071000000000E+01
5520000000.000000      1.447830000000000E-01     -7.969921000000000E+01      3.146057000000000E-01      1.652344000000000E+01
5540000000.000000      1.265488000000000E-01     -7.899609000000000E+01      3.174896000000000E-01     -1.285986000000000E+01
5560000000.000000      1.147385000000000E-01     -7.544531000000000E+01      3.232422000000000E-01     -4.197851000000000E+01
5580000000.000000      1.090088000000000E-01     -7.111328000000000E+01      3.292389000000000E-01     -7.071094000000000E+01
5600000000.000000      1.062241000000000E-01     -6.597265000000000E+01      3.327637000000000E-01     -9.870312000000000E+01
5620000000.000000      1.098480000000000E-01     -5.895702000000000E+01      3.348083000000000E-01     -1.265391000000000E+02
5640000000.000000      1.243401000000000E-01     -5.321679000000000E+01      3.330994000000000E-01     -1.543906000000000E+02
5660000000.000000      1.488495000000000E-01     -5.258007000000000E+01      3.277130000000000E-01      1.783437000000000E+02
5680000000.000000      1.743851000000000E-01     -5.776562000000000E+01      3.205414000000000E-01      1.502656000000000E+02
5700000000.000000      1.931686000000000E-01     -6.719921000000000E+01      3.106689000000000E-01      1.221094000000000E+02
5720000000.000000      1.964264000000000E-01     -7.855859000000000E+01      2.994843000000000E-01      9.445313000000000E+01
5740000000.000000      1.825714000000000E-01     -8.963671000000000E+01      2.958374000000000E-01      6.595312000000000E+01
5760000000.000000      1.555481000000000E-01     -9.824608000000000E+01      2.921448000000000E-01      3.534961000000000E+01
5780000000.000000      1.267242000000000E-01     -9.964453000000000E+01      2.889404000000000E-01      5.326904000000000E+00
5800000000.000000      1.110115000000000E-01     -9.286718000000000E+01      2.892609000000000E-01     -2.477344000000000E+01
5820000000.000000      1.152344000000000E-01     -8.689062000000000E+01      2.943878000000000E-01     -5.467578000000000E+01
5840000000.000000      1.253052000000000E-01     -8.942577000000000E+01      3.015442000000000E-01     -8.488281000000000E+01
5860000000.000000      1.274033000000000E-01     -9.728516000000000E+01      3.006744000000000E-01     -1.142109000000000E+02
5880000000.000000      1.180458000000000E-01     -1.067695000000000E+02      3.016510000000000E-01     -1.415390000000000E+02
5900000000.000000      9.815598000000000E-02     -1.130000000000000E+02      3.099823000000000E-01     -1.687656000000000E+02
5920000000.000000      7.860947000000000E-02     -1.115039000000000E+02      3.140717000000000E-01      1.626328000000000E+02
5940000000.000000      7.030869000000000E-02     -1.016758000000000E+02      3.080750000000000E-01      1.338516000000000E+02
5960000000.000000      6.965637000000000E-02     -9.642187000000000E+01      2.957611000000000E-01      1.058047000000000E+02
5980000000.000000      6.445694000000000E-02     -9.570313000000000E+01      2.891083000000000E-01      7.849609000000000E+01
6000000000.000000      4.858398000000000E-02     -8.787109000000000E+01      2.854156000000000E-01      4.884570000000000E+01
6020000000.000000      4.033279000000000E-02     -5.334179000000000E+01      2.756958000000000E-01      1.815039000000000E+01
6040000000.000000      6.488800000000000E-02     -2.962207000000000E+01      2.644196000000000E-01     -1.196289000000000E+01
6060000000.000000      9.894180000000000E-02     -3.142675000000000E+01      2.608032000000000E-01     -4.161328000000000E+01
6080000000.000000      1.270523000000000E-01     -4.275781000000000E+01      2.664642000000000E-01     -7.195703000000000E+01
