! Network Analyzer HP8722D
! Hewlett-Packard
! Data name: Linha com CNT
! Saver's name: Rodrigo Anjos
! Comments: Teste de deteccao de acetona 0-100ppm a partir de cilindro
! Time and date: 10/9/2025 18:14
!              Frequency                     S11                                                   S21                                                   S12                                                   S22
# HZ  S  MA R 50
3000000000.000000      8.216476000000000E-02      9.083984000000000E+01      4.545898000000000E-01      2.475000000000000E+01
3020000000.000000      9.656143000000000E-02      7.603906000000000E+01      4.554291000000000E-01     -4.117188000000000E+00
3040000000.000000      9.582138000000000E-02      6.035742000000000E+01      4.556885000000000E-01     -3.306641000000000E+01
3060000000.000000      8.260727000000000E-02      4.646680000000000E+01      4.517365000000000E-01     -6.157617000000000E+01
3080000000.000000      6.160736000000000E-02      3.748632000000000E+01      4.534912000000000E-01     -9.021484000000000E+01
3100000000.000000      4.478073000000000E-02      4.092382000000000E+01      4.514618000000000E-01     -1.185390000000000E+02
3120000000.000000      4.013634000000000E-02      5.357226000000000E+01      4.496307000000000E-01     -1.470859000000000E+02
3140000000.000000      3.994751000000000E-02      5.795898000000000E+01      4.446564000000000E-01     -1.755078000000000E+02
3160000000.000000      3.169632000000000E-02      6.032617000000000E+01      4.422150000000000E-01      1.558516000000000E+02
3180000000.000000      2.192593000000000E-02      1.073906000000000E+02      4.410400000000000E-01      1.272500000000000E+02
3200000000.000000      5.416870000000000E-02      1.421953000000000E+02      4.360352000000000E-01      9.768358000000000E+01
3220000000.000000      1.051178000000000E-01      1.358125000000000E+02      4.218292000000000E-01      6.866015000000000E+01
3240000000.000000      1.559448000000000E-01      1.212773000000000E+02      4.121552000000000E-01      4.111328000000000E+01
3260000000.000000      1.972275000000000E-01      1.048789000000000E+02      4.146729000000000E-01      1.379443000000000E+01
3280000000.000000      2.233353000000000E-01      8.795702000000000E+01      4.185944000000000E-01     -1.558594000000000E+01
3300000000.000000      2.329712000000000E-01      7.164453000000000E+01      4.140778000000000E-01     -4.422071000000000E+01
3320000000.000000      2.268677000000000E-01      5.675976000000000E+01      4.172058000000000E-01     -7.174999000000000E+01
3340000000.000000      2.098694000000000E-01      4.450585000000000E+01      4.238281000000000E-01     -1.006992000000000E+02
3360000000.000000      1.865311000000000E-01      3.537304000000000E+01      4.238586000000000E-01     -1.289141000000000E+02
3380000000.000000      1.627502000000000E-01      3.046972000000000E+01      4.290771000000000E-01     -1.571328000000000E+02
3400000000.000000      1.438446000000000E-01      2.863574000000000E+01      4.308472000000000E-01      1.739687000000000E+02
3420000000.000000      1.289902000000000E-01      2.848047000000000E+01      4.325714000000000E-01      1.453516000000000E+02
3440000000.000000      1.166344000000000E-01      2.891016000000000E+01      4.311676000000000E-01      1.165547000000000E+02
3460000000.000000      1.060219000000000E-01      3.075195000000000E+01      4.277649000000000E-01      8.832811000000000E+01
3480000000.000000      9.931564000000000E-02      3.365234000000000E+01      4.288483000000000E-01      5.936718000000000E+01
3500000000.000000      9.659576000000000E-02      3.671679000000000E+01      4.236603000000000E-01      3.020605000000000E+01
3520000000.000000      9.474182000000000E-02      3.976171000000000E+01      4.219055000000000E-01      2.169800000000000E+00
3540000000.000000      9.512711000000000E-02      4.286914000000000E+01      4.244385000000000E-01     -2.621973000000000E+01
3560000000.000000      9.750748000000000E-02      4.844531000000000E+01      4.267273000000000E-01     -5.564648000000000E+01
3580000000.000000      1.066895000000000E-01      5.337304000000000E+01      4.249420000000000E-01     -8.432421000000000E+01
3600000000.000000      1.209564000000000E-01      5.410351000000000E+01      4.243469000000000E-01     -1.123711000000000E+02
3620000000.000000      1.345444000000000E-01      5.089062000000000E+01      4.250488000000000E-01     -1.406875000000000E+02
3640000000.000000      1.394196000000000E-01      4.450000000000000E+01      4.252014000000000E-01     -1.691094000000000E+02
3660000000.000000      1.334305000000000E-01      3.793554000000000E+01      4.247589000000000E-01      1.631719000000000E+02
3680000000.000000      1.201248000000000E-01      3.488281000000000E+01      4.268341000000000E-01      1.355625000000000E+02
3700000000.000000      1.079826000000000E-01      3.845898000000000E+01      4.289246000000000E-01      1.070664000000000E+02
3720000000.000000      1.103249000000000E-01      4.698828000000000E+01      4.278870000000000E-01      7.850390000000000E+01
3740000000.000000      1.290207000000000E-01      5.002930000000000E+01      4.219208000000000E-01      4.983788000000000E+01
3760000000.000000      1.473618000000000E-01      4.624219000000000E+01      4.158630000000000E-01      2.189551000000000E+01
3780000000.000000      1.536179000000000E-01      3.861133000000000E+01      4.152832000000000E-01     -5.678711000000000E+00
3800000000.000000      1.454773000000000E-01      3.133496000000000E+01      4.163361000000000E-01     -3.433984000000000E+01
3820000000.000000      1.258850000000000E-01      2.899805000000000E+01      4.175873000000000E-01     -6.313867000000000E+01
3840000000.000000      1.121712000000000E-01      3.456055000000000E+01      4.158630000000000E-01     -9.210546000000000E+01
3860000000.000000      1.185303000000000E-01      4.256640000000000E+01      4.155426000000000E-01     -1.209922000000000E+02
3880000000.000000      1.372604000000000E-01      4.331055000000000E+01      4.123535000000000E-01     -1.499844000000000E+02
3900000000.000000      1.513443000000000E-01      3.725000000000000E+01      4.050293000000000E-01     -1.784141000000000E+02
3920000000.000000      1.480713000000000E-01      2.970508000000000E+01      4.049988000000000E-01      1.544453000000000E+02
3940000000.000000      1.303024000000000E-01      2.629395000000000E+01      4.141846000000000E-01      1.257734000000000E+02
3960000000.000000      1.128883000000000E-01      3.281054000000000E+01      4.127502000000000E-01      9.653124000000000E+01
3980000000.000000      1.203499000000000E-01      4.552930000000000E+01      4.049988000000000E-01      6.784765000000000E+01
4000000000.000000      1.516724000000000E-01      4.843945000000000E+01      3.986511000000000E-01      4.086914000000000E+01
4020000000.000000      1.834030000000000E-01      4.116015000000000E+01      4.057007000000000E-01      1.308057000000000E+01
4040000000.000000      2.008438000000000E-01      2.866015000000000E+01      4.045868000000000E-01     -1.708789000000000E+01
4060000000.000000      1.932831000000000E-01      1.479980000000000E+01      3.914032000000000E-01     -4.547071000000000E+01
4080000000.000000      1.635513000000000E-01      1.977539000000000E+00      3.911743000000000E-01     -7.248047000000000E+01
4100000000.000000      1.180840000000000E-01     -4.405518000000000E+00      4.004211000000000E-01     -1.011172000000000E+02
4120000000.000000      7.876968000000000E-02      7.378662000000000E+00      3.991852000000000E-01     -1.311797000000000E+02
4140000000.000000      7.886505000000000E-02      3.519336000000000E+01      3.942261000000000E-01     -1.597734000000000E+02
4160000000.000000      1.029053000000000E-01      4.286523000000000E+01      3.937225000000000E-01      1.720859000000000E+02
4180000000.000000      1.201820000000000E-01      4.021484000000000E+01      4.012451000000000E-01      1.431328000000000E+02
4200000000.000000      1.222649000000000E-01      3.704883000000000E+01      4.031067000000000E-01      1.133242000000000E+02
4220000000.000000      1.211472000000000E-01      3.912304000000000E+01      3.946991000000000E-01      8.425781000000000E+01
4240000000.000000      1.309814000000000E-01      4.474805000000000E+01      3.898621000000000E-01      5.583202000000000E+01
4260000000.000000      1.555176000000000E-01      4.591992000000000E+01      3.859406000000000E-01      2.768359000000000E+01
4280000000.000000      1.814117000000000E-01      4.124219000000000E+01      3.848877000000000E-01     -6.756592000000000E-01
4300000000.000000      1.962433000000000E-01      3.329297000000000E+01      3.825684000000000E-01     -2.947168000000000E+01
4320000000.000000      1.953125000000000E-01      2.550976000000000E+01      3.798370000000000E-01     -5.794335000000000E+01
4340000000.000000      1.820145000000000E-01      2.017773000000000E+01      3.778076000000000E-01     -8.697266000000000E+01
4360000000.000000      1.688766000000000E-01      1.963574000000000E+01      3.766937000000000E-01     -1.161875000000000E+02
4380000000.000000      1.685867000000000E-01      2.193262000000000E+01      3.748016000000000E-01     -1.458203000000000E+02
4400000000.000000      1.791229000000000E-01      2.143359000000000E+01      3.705750000000000E-01     -1.747031000000000E+02
4420000000.000000      1.883545000000000E-01      1.724414000000000E+01      3.720093000000000E-01      1.564531000000000E+02
4440000000.000000      1.848145000000000E-01      1.138428000000000E+01      3.755188000000000E-01      1.265430000000000E+02
4460000000.000000      1.685181000000000E-01      8.665039000000000E+00      3.677979000000000E-01      9.697266000000000E+01
4480000000.000000      1.518173000000000E-01      1.249512000000000E+01      3.652954000000000E-01      6.861718000000000E+01
4500000000.000000      1.547241000000000E-01      2.094922000000000E+01      3.650970000000000E-01      3.967382000000000E+01
4520000000.000000      1.799469000000000E-01      2.455957000000000E+01      3.620758000000000E-01      1.024463000000000E+01
4540000000.000000      2.092514000000000E-01      2.062891000000000E+01      3.524933000000000E-01     -1.914551000000000E+01
4560000000.000000      2.285461000000000E-01      1.276611000000000E+01      3.451691000000000E-01     -4.743945000000000E+01
4580000000.000000      2.332840000000000E-01      4.163818000000000E+00      3.486328000000000E-01     -7.662109000000000E+01
4600000000.000000      2.259903000000000E-01     -2.752075000000000E+00      3.444214000000000E-01     -1.066367000000000E+02
4620000000.000000      2.144547000000000E-01     -7.100098000000000E+00      3.387756000000000E-01     -1.360703000000000E+02
4640000000.000000      2.090149000000000E-01     -9.584473000000000E+00      3.394623000000000E-01     -1.655781000000000E+02
4660000000.000000      2.087250000000000E-01     -1.268555000000000E+01      3.382263000000000E-01      1.654297000000000E+02
4680000000.000000      2.077103000000000E-01     -1.768945000000000E+01      3.412933000000000E-01      1.361641000000000E+02
4700000000.000000      1.999283000000000E-01     -2.408496000000000E+01      3.412018000000000E-01      1.066328000000000E+02
4720000000.000000      1.831665000000000E-01     -3.069238000000000E+01      3.368378000000000E-01      7.862890000000000E+01
4740000000.000000      1.629257000000000E-01     -3.660351000000000E+01      3.439331000000000E-01      5.089844000000000E+01
4760000000.000000      1.396790000000000E-01     -4.140821000000000E+01      3.447266000000000E-01      2.207520000000000E+01
4780000000.000000      1.139946000000000E-01     -4.558007000000000E+01      3.412476000000000E-01     -6.407959000000000E+00
4800000000.000000      8.164978000000000E-02     -4.933984000000000E+01      3.382416000000000E-01     -3.491015000000000E+01
4820000000.000000      3.940773000000000E-02     -4.089257000000000E+01      3.305664000000000E-01     -6.394921000000000E+01
4840000000.000000      3.941917000000000E-02      4.905078000000000E+01      3.242950000000000E-01     -9.306641000000000E+01
4860000000.000000      1.058693000000000E-01      5.815430000000000E+01      3.183289000000000E-01     -1.236445000000000E+02
4880000000.000000      1.765366000000000E-01      4.669141000000000E+01      2.991943000000000E-01     -1.546875000000000E+02
4900000000.000000      2.361298000000000E-01      3.142187000000000E+01      2.762909000000000E-01      1.777266000000000E+02
4920000000.000000      2.780762000000000E-01      1.550146000000000E+01      2.764282000000000E-01      1.524297000000000E+02
4940000000.000000      2.975464000000000E-01      1.620483000000000E-01      2.889862000000000E-01      1.239648000000000E+02
4960000000.000000      2.950134000000000E-01     -1.472461000000000E+01      2.919769000000000E-01      9.427343000000000E+01
4980000000.000000      2.692871000000000E-01     -2.809765000000000E+01      2.973022000000000E-01      6.700390000000000E+01
5000000000.000000      2.265701000000000E-01     -3.778906000000000E+01      3.105774000000000E-01      3.945117000000000E+01
5020000000.000000      1.799240000000000E-01     -4.026757000000000E+01      3.208008000000000E-01      1.109473000000000E+01
5040000000.000000      1.504822000000000E-01     -3.329687000000000E+01      3.287354000000000E-01     -1.620215000000000E+01
5060000000.000000      1.520004000000000E-01     -2.369824000000000E+01      3.367157000000000E-01     -4.362109000000000E+01
5080000000.000000      1.680908000000000E-01     -2.081836000000000E+01      3.421478000000000E-01     -7.208984000000000E+01
5100000000.000000      1.818237000000000E-01     -2.327343000000000E+01      3.374023000000000E-01     -1.007422000000000E+02
5120000000.000000      1.868668000000000E-01     -2.696191000000000E+01      3.320160000000000E-01     -1.281797000000000E+02
5140000000.000000      1.884155000000000E-01     -3.051660000000000E+01      3.315430000000000E-01     -1.563672000000000E+02
5160000000.000000      1.891327000000000E-01     -3.321875000000000E+01      3.290253000000000E-01      1.742266000000000E+02
5180000000.000000      1.908417000000000E-01     -3.654492000000000E+01      3.251343000000000E-01      1.446406000000000E+02
5200000000.000000      1.919937000000000E-01     -4.066211000000000E+01      3.236694000000000E-01      1.148867000000000E+02
5220000000.000000      1.870728000000000E-01     -4.449804000000000E+01      3.238373000000000E-01      8.530468000000000E+01
5240000000.000000      1.787720000000000E-01     -4.668164000000000E+01      3.274841000000000E-01      5.568945000000000E+01
5260000000.000000      1.720657000000000E-01     -4.690820000000000E+01      3.311615000000000E-01      2.613867000000000E+01
5280000000.000000      1.700211000000000E-01     -4.578711000000000E+01      3.358612000000000E-01     -2.978760000000000E+00
5300000000.000000      1.749039000000000E-01     -4.642187000000000E+01      3.382721000000000E-01     -3.122363000000000E+01
5320000000.000000      1.782150000000000E-01     -4.897655000000000E+01      3.422089000000000E-01     -5.838867000000000E+01
5340000000.000000      1.757202000000000E-01     -5.255859000000000E+01      3.463593000000000E-01     -8.639843000000000E+01
5360000000.000000      1.692581000000000E-01     -5.571484000000000E+01      3.410034000000000E-01     -1.136719000000000E+02
5380000000.000000      1.621399000000000E-01     -5.673828000000000E+01      3.376007000000000E-01     -1.402578000000000E+02
5400000000.000000      1.618500000000000E-01     -5.631836000000000E+01      3.371124000000000E-01     -1.679453000000000E+02
5420000000.000000      1.702042000000000E-01     -5.621094000000000E+01      3.313599000000000E-01      1.637266000000000E+02
5440000000.000000      1.808319000000000E-01     -5.916016000000000E+01      3.265076000000000E-01      1.347188000000000E+02
5460000000.000000      1.867905000000000E-01     -6.478125000000000E+01      3.168335000000000E-01      1.052266000000000E+02
5480000000.000000      1.820908000000000E-01     -7.127734000000000E+01      3.114471000000000E-01      7.595703000000000E+01
5500000000.000000      1.665039000000000E-01     -7.681250000000000E+01      3.127136000000000E-01      4.651367000000000E+01
5520000000.000000      1.451035000000000E-01     -7.980078000000000E+01      3.142548000000000E-01      1.635547000000000E+01
5540000000.000000      1.270752000000000E-01     -7.893359000000000E+01      3.179626000000000E-01     -1.322656000000000E+01
5560000000.000000      1.147957000000000E-01     -7.550781000000000E+01      3.232574000000000E-01     -4.220508000000000E+01
5580000000.000000      1.087532000000000E-01     -7.099218000000000E+01      3.278961000000000E-01     -7.077343000000000E+01
5600000000.000000      1.063004000000000E-01     -6.608984000000000E+01      3.321533000000000E-01     -9.898046000000000E+01
5620000000.000000      1.096992000000000E-01     -5.938281000000000E+01      3.344727000000000E-01     -1.266992000000000E+02
5640000000.000000      1.244507000000000E-01     -5.329102000000000E+01      3.326874000000000E-01     -1.547344000000000E+02
5660000000.000000      1.489105000000000E-01     -5.270898000000000E+01      3.281403000000000E-01      1.781719000000000E+02
5680000000.000000      1.748657000000000E-01     -5.793554000000000E+01      3.211060000000000E-01      1.500391000000000E+02
5700000000.000000      1.934891000000000E-01     -6.754296000000000E+01      3.100128000000000E-01      1.219141000000000E+02
5720000000.000000      1.963806000000000E-01     -7.870703000000000E+01      2.986450000000000E-01      9.406250000000000E+01
5740000000.000000      1.825409000000000E-01     -8.996874000000000E+01      2.955170000000000E-01      6.566015000000000E+01
5760000000.000000      1.554947000000000E-01     -9.833593000000000E+01      2.920685000000000E-01      3.508594000000000E+01
5780000000.000000      1.265411000000000E-01     -9.963671000000000E+01      2.885284000000000E-01      4.962891000000000E+00
5800000000.000000      1.111031000000000E-01     -9.298046000000000E+01      2.889404000000000E-01     -2.500683000000000E+01
5820000000.000000      1.151924000000000E-01     -8.721094000000000E+01      2.937622000000000E-01     -5.502539000000000E+01
5840000000.000000      1.259918000000000E-01     -8.964844000000000E+01      3.013458000000000E-01     -8.533203000000000E+01
5860000000.000000      1.278687000000000E-01     -9.704296000000000E+01      3.008423000000000E-01     -1.146133000000000E+02
5880000000.000000      1.175041000000000E-01     -1.070273000000000E+02      3.010864000000000E-01     -1.417813000000000E+02
5900000000.000000      9.804535000000000E-02     -1.131094000000000E+02      3.098602000000000E-01     -1.691719000000000E+02
5920000000.000000      7.837677000000000E-02     -1.113750000000000E+02      3.131866000000000E-01      1.623906000000000E+02
5940000000.000000      7.061005000000000E-02     -1.015781000000000E+02      3.078918000000000E-01      1.335469000000000E+02
5960000000.000000      6.988525000000000E-02     -9.664452000000000E+01      2.960358000000000E-01      1.057813000000000E+02
5980000000.000000      6.430054000000000E-02     -9.575781000000000E+01      2.883606000000000E-01      7.818359000000000E+01
6000000000.000000      4.869270000000000E-02     -8.835938000000000E+01      2.852020000000000E-01      4.864843000000000E+01
6020000000.000000      4.093361000000000E-02     -5.414844000000000E+01      2.753601000000000E-01      1.778906000000000E+01
6040000000.000000      6.478882000000000E-02     -2.999609000000000E+01      2.637634000000000E-01     -1.215527000000000E+01
6060000000.000000      9.871292000000000E-02     -3.231054000000000E+01      2.602386000000000E-01     -4.185937000000000E+01
6080000000.000000      1.272049000000000E-01     -4.308203000000000E+01      2.667236000000000E-01     -7.227344000000000E+01
