! Network Analyzer HP8722D
! Hewlett-Packard
! Data name: Linha com CNT
! Saver's name: Rodrigo Anjos
! Comments: Teste de deteccao de acetona 0-100ppm a partir de cilindro
! Time and date: 10/9/2025 15:08
!              Frequency                     S11                                                   S21                                                   S12                                                   S22
# HZ  S  MA R 50
3000000000.000000      6.417236000000000E-01      1.054688000000000E+01      1.579514000000000E-01      4.826366000000000E+01
3020000000.000000      6.459045000000000E-01      9.796875000000000E+00      1.615067000000000E-01      1.825976000000000E+01
3040000000.000000      6.510620000000000E-01      8.996094000000000E+00      1.622391000000000E-01     -1.102246000000000E+01
3060000000.000000      6.558533000000000E-01      7.743896000000000E+00      1.627274000000000E-01     -4.057813000000000E+01
3080000000.000000      6.557922000000000E-01      6.395264000000000E+00      1.585999000000000E-01     -6.961328000000000E+01
3100000000.000000      6.568909000000000E-01      5.379150000000000E+00      1.584778000000000E-01     -9.670702000000000E+01
3120000000.000000      6.563416000000000E-01      4.292725000000000E+00      1.584396000000000E-01     -1.254805000000000E+02
3140000000.000000      6.571045000000000E-01      3.418091000000000E+00      1.560059000000000E-01     -1.539219000000000E+02
3160000000.000000      6.596680000000000E-01      2.311157000000000E+00      1.528320000000000E-01      1.774844000000000E+02
3180000000.000000      6.582642000000000E-01      1.237305000000000E+00      1.475677000000000E-01      1.499375000000000E+02
3200000000.000000      6.562195000000000E-01      1.908875000000000E-01      1.448669000000000E-01      1.220976000000000E+02
3220000000.000000      6.495056000000000E-01     -8.610535000000000E-01      1.381149000000000E-01      9.387890000000000E+01
3240000000.000000      6.456604000000000E-01     -1.653442000000000E+00      1.335602000000000E-01      6.964844000000000E+01
3260000000.000000      6.404724000000000E-01     -2.116333000000000E+00      1.421738000000000E-01      4.424024000000000E+01
3280000000.000000      6.377258000000000E-01     -2.374512000000000E+00      1.491852000000000E-01      1.442627000000000E+01
3300000000.000000      6.451416000000000E-01     -2.907349000000000E+00      1.529312000000000E-01     -1.439648000000000E+01
3320000000.000000      6.525879000000000E-01     -3.528076000000000E+00      1.597900000000000E-01     -4.384766000000000E+01
3340000000.000000      6.593018000000000E-01     -4.555420000000000E+00      1.635361000000000E-01     -7.427734000000000E+01
3360000000.000000      6.647949000000000E-01     -5.840820000000000E+00      1.665573000000000E-01     -1.048242000000000E+02
3380000000.000000      6.671143000000000E-01     -7.065674000000000E+00      1.645126000000000E-01     -1.345312000000000E+02
3400000000.000000      6.645203000000000E-01     -8.201660000000000E+00      1.637192000000000E-01     -1.630312000000000E+02
3420000000.000000      6.635132000000000E-01     -9.158691000000000E+00      1.617966000000000E-01      1.676172000000000E+02
3440000000.000000      6.615601000000000E-01     -1.046631000000000E+01      1.581650000000000E-01      1.401562000000000E+02
3460000000.000000      6.604919000000000E-01     -1.138086000000000E+01      1.595993000000000E-01      1.119414000000000E+02
3480000000.000000      6.579590000000000E-01     -1.241895000000000E+01      1.566620000000000E-01      8.296875000000000E+01
3500000000.000000      6.592407000000000E-01     -1.323047000000000E+01      1.559753000000000E-01      5.538476000000000E+01
3520000000.000000      6.592407000000000E-01     -1.450098000000000E+01      1.566467000000000E-01      2.597363000000000E+01
3540000000.000000      6.589966000000000E-01     -1.533447000000000E+01      1.518173000000000E-01     -2.528320000000000E+00
3560000000.000000      6.590271000000000E-01     -1.621875000000000E+01      1.533432000000000E-01     -3.010742000000000E+01
3580000000.000000      6.583252000000000E-01     -1.705664000000000E+01      1.533737000000000E-01     -5.904297000000000E+01
3600000000.000000      6.546936000000000E-01     -1.799902000000000E+01      1.531830000000000E-01     -8.624609000000000E+01
3620000000.000000      6.559143000000000E-01     -1.876758000000000E+01      1.575699000000000E-01     -1.145937000000000E+02
3640000000.000000      6.546021000000000E-01     -1.979199000000000E+01      1.591415000000000E-01     -1.432031000000000E+02
3660000000.000000      6.554260000000000E-01     -2.085644000000000E+01      1.607895000000000E-01     -1.717266000000000E+02
3680000000.000000      6.568909000000000E-01     -2.192871000000000E+01      1.577301000000000E-01      1.596250000000000E+02
3700000000.000000      6.548462000000000E-01     -2.297852000000000E+01      1.565170000000000E-01      1.330547000000000E+02
3720000000.000000      6.531677000000000E-01     -2.404394000000000E+01      1.588058000000000E-01      1.049141000000000E+02
3740000000.000000      6.509399000000000E-01     -2.483105000000000E+01      1.549149000000000E-01      7.680469000000000E+01
3760000000.000000      6.520996000000000E-01     -2.545019000000000E+01      1.561890000000000E-01      5.007813000000000E+01
3780000000.000000      6.527100000000000E-01     -2.630859000000000E+01      1.579819000000000E-01      2.063183000000000E+01
3800000000.000000      6.553650000000000E-01     -2.704883000000000E+01      1.559525000000000E-01     -8.712402000000000E+00
3820000000.000000      6.577454000000000E-01     -2.833105000000000E+01      1.544189000000000E-01     -3.749218000000000E+01
3840000000.000000      6.563721000000000E-01     -2.961816000000000E+01      1.545334000000000E-01     -6.573047000000000E+01
3860000000.000000      6.572876000000000E-01     -3.075488000000000E+01      1.557617000000000E-01     -9.497656000000000E+01
3880000000.000000      6.528015000000000E-01     -3.163281000000000E+01      1.542130000000000E-01     -1.236758000000000E+02
3900000000.000000      6.539612000000000E-01     -3.258984000000000E+01      1.550980000000000E-01     -1.509766000000000E+02
3920000000.000000      6.579285000000000E-01     -3.364258000000000E+01      1.574554000000000E-01     -1.798359000000000E+02
3940000000.000000      6.596680000000000E-01     -3.459375000000000E+01      1.557922000000000E-01      1.518281000000000E+02
3960000000.000000      6.581116000000000E-01     -3.578711000000000E+01      1.567230000000000E-01      1.241992000000000E+02
3980000000.000000      6.520081000000000E-01     -3.692383000000000E+01      1.521759000000000E-01      9.596874000000000E+01
4000000000.000000      6.470642000000000E-01     -3.789063000000000E+01      1.508408000000000E-01      7.112890000000000E+01
4020000000.000000      6.455994000000000E-01     -3.842773000000000E+01      1.581573000000000E-01      4.343554000000000E+01
4040000000.000000      6.503601000000000E-01     -3.905664000000000E+01      1.581650000000000E-01      1.246240000000000E+01
4060000000.000000      6.581116000000000E-01     -3.992188000000000E+01      1.559982000000000E-01     -1.653613000000000E+01
4080000000.000000      6.680603000000000E-01     -4.156446000000000E+01      1.555405000000000E-01     -4.663476000000000E+01
4100000000.000000      6.685791000000000E-01     -4.309960000000000E+01      1.531372000000000E-01     -7.625390000000000E+01
4120000000.000000      6.648254000000000E-01     -4.481054000000000E+01      1.502686000000000E-01     -1.066367000000000E+02
4140000000.000000      6.596985000000000E-01     -4.591992000000000E+01      1.443405000000000E-01     -1.348594000000000E+02
4160000000.000000      6.570740000000000E-01     -4.708593000000000E+01      1.479721000000000E-01     -1.608359000000000E+02
4180000000.000000      6.546021000000000E-01     -4.807422000000000E+01      1.514740000000000E-01      1.697813000000000E+02
4200000000.000000      6.516724000000000E-01     -4.913280000000000E+01      1.497879000000000E-01      1.421250000000000E+02
4220000000.000000      6.540527000000000E-01     -5.017187000000000E+01      1.538696000000000E-01      1.144765000000000E+02
4240000000.000000      6.495361000000000E-01     -5.152734000000000E+01      1.505814000000000E-01      8.543360000000000E+01
4260000000.000000      6.489563000000000E-01     -5.239843000000000E+01      1.465683000000000E-01      5.908398000000000E+01
4280000000.000000      6.454468000000000E-01     -5.328320000000000E+01      1.482773000000000E-01      3.209961000000000E+01
4300000000.000000      6.446533000000000E-01     -5.398438000000000E+01      1.475754000000000E-01      3.567749000000000E+00
4320000000.000000      6.474609000000000E-01     -5.489258000000000E+01      1.475449000000000E-01     -2.537988000000000E+01
4340000000.000000      6.481323000000000E-01     -5.606640000000000E+01      1.467285000000000E-01     -5.513672000000000E+01
4360000000.000000      6.524048000000000E-01     -5.747460000000000E+01      1.465454000000000E-01     -8.574999000000000E+01
4380000000.000000      6.487427000000000E-01     -5.881249000000000E+01      1.444321000000000E-01     -1.164609000000000E+02
4400000000.000000      6.479797000000000E-01     -5.980273000000000E+01      1.440201000000000E-01     -1.452578000000000E+02
4420000000.000000      6.455994000000000E-01     -6.068554000000000E+01      1.489487000000000E-01     -1.745703000000000E+02
4440000000.000000      6.490173000000000E-01     -6.155663000000000E+01      1.513367000000000E-01      1.554922000000000E+02
4460000000.000000      6.520996000000000E-01     -6.268945000000000E+01      1.535568000000000E-01      1.265820000000000E+02
4480000000.000000      6.514282000000000E-01     -6.433594000000000E+01      1.535492000000000E-01      9.775391000000000E+01
4500000000.000000      6.474609000000000E-01     -6.555859000000000E+01      1.507645000000000E-01      7.059765000000000E+01
4520000000.000000      6.438293000000000E-01     -6.690234000000000E+01      1.493988000000000E-01      4.297852000000000E+01
4540000000.000000      6.413269000000000E-01     -6.785156000000000E+01      1.450500000000000E-01      1.593408000000000E+01
4560000000.000000      6.410522000000000E-01     -6.862890000000000E+01      1.447983000000000E-01     -1.086035000000000E+01
4580000000.000000      6.428833000000000E-01     -6.967187000000000E+01      1.437149000000000E-01     -4.099805000000000E+01
4600000000.000000      6.445618000000000E-01     -7.074609000000000E+01      1.400757000000000E-01     -7.125000000000000E+01
4620000000.000000      6.464844000000000E-01     -7.174999000000000E+01      1.388779000000000E-01     -1.036445000000000E+02
4640000000.000000      6.477051000000000E-01     -7.291797000000000E+01      1.339493000000000E-01     -1.359766000000000E+02
4660000000.000000      6.462097000000000E-01     -7.384766000000000E+01      1.349869000000000E-01     -1.659062000000000E+02
4680000000.000000      6.463013000000000E-01     -7.475780000000000E+01      1.408234000000000E-01      1.624453000000000E+02
4700000000.000000      6.488647000000000E-01     -7.578125000000000E+01      1.450882000000000E-01      1.319141000000000E+02
4720000000.000000      6.542053000000000E-01     -7.698828000000000E+01      1.512070000000000E-01      1.026563000000000E+02
4740000000.000000      6.571655000000000E-01     -7.854687000000000E+01      1.560059000000000E-01      7.338281000000000E+01
4760000000.000000      6.611328000000000E-01     -8.003124000000000E+01      1.567535000000000E-01      4.636132000000000E+01
4780000000.000000      6.632080000000000E-01     -8.166016000000000E+01      1.553268000000000E-01      1.888476000000000E+01
4800000000.000000      6.621399000000000E-01     -8.341406000000000E+01      1.489944000000000E-01     -7.617676000000000E+00
4820000000.000000      6.608582000000000E-01     -8.529688000000000E+01      1.397476000000000E-01     -3.351171000000000E+01
4840000000.000000      6.571655000000000E-01     -8.683985000000000E+01      1.300049000000000E-01     -5.821875000000000E+01
4860000000.000000      6.455383000000000E-01     -8.881250000000000E+01      1.223831000000000E-01     -8.466406000000000E+01
4880000000.000000      6.336670000000000E-01     -8.985546000000000E+01      1.090660000000000E-01     -1.129922000000000E+02
4900000000.000000      6.208496000000000E-01     -9.054688000000000E+01      9.696198000000000E-02     -1.372578000000000E+02
4920000000.000000      6.115417000000000E-01     -9.083593000000000E+01      9.903717000000000E-02     -1.623047000000000E+02
4940000000.000000      6.084290000000000E-01     -9.066406000000000E+01      1.078720000000000E-01      1.648438000000000E+02
4960000000.000000      6.170044000000000E-01     -9.046875000000000E+01      1.151619000000000E-01      1.303203000000000E+02
4980000000.000000      6.298828000000000E-01     -9.126171000000000E+01      1.249313000000000E-01      9.714844000000000E+01
5000000000.000000      6.423950000000000E-01     -9.255859000000000E+01      1.352539000000000E-01      6.487890000000000E+01
5020000000.000000      6.466064000000000E-01     -9.438280000000000E+01      1.422729000000000E-01      3.427148000000000E+01
5040000000.000000      6.447449000000000E-01     -9.639452000000000E+01      1.450958000000000E-01      7.881104000000000E+00
5060000000.000000      6.397705000000000E-01     -9.783983000000000E+01      1.521988000000000E-01     -1.593018000000000E+01
5080000000.000000      6.339722000000000E-01     -9.915234000000000E+01      1.600952000000000E-01     -4.205859000000000E+01
5100000000.000000      6.312256000000000E-01     -1.001328000000000E+02      1.605606000000000E-01     -6.753124000000000E+01
5120000000.000000      6.306763000000000E-01     -1.009297000000000E+02      1.610947000000000E-01     -9.305859000000000E+01
5140000000.000000      6.303406000000000E-01     -1.018828000000000E+02      1.565018000000000E-01     -1.204570000000000E+02
5160000000.000000      6.303406000000000E-01     -1.027305000000000E+02      1.496124000000000E-01     -1.481172000000000E+02
5180000000.000000      6.355286000000000E-01     -1.035508000000000E+02      1.429749000000000E-01     -1.780313000000000E+02
5200000000.000000      6.393738000000000E-01     -1.046055000000000E+02      1.358185000000000E-01      1.508281000000000E+02
5220000000.000000      6.422729000000000E-01     -1.059180000000000E+02      1.335373000000000E-01      1.187500000000000E+02
5240000000.000000      6.494446000000000E-01     -1.072187000000000E+02      1.335754000000000E-01      8.522264000000000E+01
5260000000.000000      6.485291000000000E-01     -1.087617000000000E+02      1.369629000000000E-01      5.254687000000000E+01
5280000000.000000      6.474304000000000E-01     -1.103477000000000E+02      1.422195000000000E-01      2.140625000000000E+01
5300000000.000000      6.438904000000000E-01     -1.116094000000000E+02      1.490250000000000E-01     -6.000000000000000E+00
5320000000.000000      6.428223000000000E-01     -1.129766000000000E+02      1.608734000000000E-01     -3.253320000000000E+01
5340000000.000000      6.387634000000000E-01     -1.140937000000000E+02      1.671524000000000E-01     -5.937890000000000E+01
5360000000.000000      6.403503000000000E-01     -1.152656000000000E+02      1.711121000000000E-01     -8.417187000000000E+01
5380000000.000000      6.409302000000000E-01     -1.161484000000000E+02      1.727600000000000E-01     -1.101172000000000E+02
5400000000.000000      6.405029000000000E-01     -1.174258000000000E+02      1.664124000000000E-01     -1.349062000000000E+02
5420000000.000000      6.425476000000000E-01     -1.181562000000000E+02      1.621399000000000E-01     -1.603672000000000E+02
5440000000.000000      6.454163000000000E-01     -1.189648000000000E+02      1.535339000000000E-01      1.712031000000000E+02
5460000000.000000      6.495972000000000E-01     -1.199844000000000E+02      1.416779000000000E-01      1.425390000000000E+02
5480000000.000000      6.550293000000000E-01     -1.213203000000000E+02      1.334076000000000E-01      1.110898000000000E+02
5500000000.000000      6.616821000000000E-01     -1.231719000000000E+02      1.265640000000000E-01      7.718359000000000E+01
5520000000.000000      6.592712000000000E-01     -1.250664000000000E+02      1.243439000000000E-01      4.250390000000000E+01
5540000000.000000      6.591187000000000E-01     -1.269648000000000E+02      1.253204000000000E-01      8.651367000000000E+00
5560000000.000000      6.526184000000000E-01     -1.286562000000000E+02      1.327209000000000E-01     -2.060840000000000E+01
5580000000.000000      6.463623000000000E-01     -1.301406000000000E+02      1.454010000000000E-01     -4.981445000000000E+01
5600000000.000000      6.438599000000000E-01     -1.315000000000000E+02      1.551056000000000E-01     -7.683203000000000E+01
5620000000.000000      6.352234000000000E-01     -1.327031000000000E+02      1.650620000000000E-01     -1.016875000000000E+02
5640000000.000000      6.316223000000000E-01     -1.336016000000000E+02      1.702652000000000E-01     -1.268867000000000E+02
5660000000.000000      6.289673000000000E-01     -1.344063000000000E+02      1.704865000000000E-01     -1.506016000000000E+02
5680000000.000000      6.284485000000000E-01     -1.353203000000000E+02      1.676788000000000E-01     -1.750937000000000E+02
5700000000.000000      6.305847000000000E-01     -1.359531000000000E+02      1.599579000000000E-01      1.601875000000000E+02
5720000000.000000      6.372070000000000E-01     -1.369375000000000E+02      1.502762000000000E-01      1.344297000000000E+02
5740000000.000000      6.412354000000000E-01     -1.387344000000000E+02      1.360550000000000E-01      1.051680000000000E+02
5760000000.000000      6.445923000000000E-01     -1.407891000000000E+02      1.190605000000000E-01      7.320313000000000E+01
5780000000.000000      6.373901000000000E-01     -1.429453000000000E+02      1.036034000000000E-01      3.860352000000000E+01
5800000000.000000      6.258545000000000E-01     -1.448047000000000E+02      9.599304000000000E-02      3.595215000000000E+00
5820000000.000000      6.150208000000000E-01     -1.457578000000000E+02      1.017456000000000E-01     -3.206250000000000E+01
5840000000.000000      6.085510000000000E-01     -1.467422000000000E+02      1.152802000000000E-01     -6.735937000000000E+01
5860000000.000000      6.080322000000000E-01     -1.470547000000000E+02      1.296844000000000E-01     -9.822266000000000E+01
5880000000.000000      6.133423000000000E-01     -1.482578000000000E+02      1.449356000000000E-01     -1.271367000000000E+02
5900000000.000000      6.174927000000000E-01     -1.492578000000000E+02      1.552277000000000E-01     -1.530859000000000E+02
5920000000.000000      6.187744000000000E-01     -1.506172000000000E+02      1.632156000000000E-01     -1.773438000000000E+02
5940000000.000000      6.191711000000000E-01     -1.520156000000000E+02      1.630173000000000E-01      1.584063000000000E+02
5960000000.000000      6.152649000000000E-01     -1.534531000000000E+02      1.586304000000000E-01      1.367344000000000E+02
5980000000.000000      6.118164000000000E-01     -1.549297000000000E+02      1.537323000000000E-01      1.135938000000000E+02
6000000000.000000      6.050720000000000E-01     -1.566406000000000E+02      1.409988000000000E-01      8.915625000000000E+01
6020000000.000000      5.932312000000000E-01     -1.579375000000000E+02      1.248016000000000E-01      6.377343000000000E+01
6040000000.000000      5.819092000000000E-01     -1.595469000000000E+02      1.050186000000000E-01      3.694531000000000E+01
6060000000.000000      5.721130000000000E-01     -1.603594000000000E+02      9.060287000000000E-02      8.711914000000000E+00
6080000000.000000      5.670471000000000E-01     -1.606797000000000E+02      8.610153000000000E-02     -2.612988000000000E+01
