! Network Analyzer HP8722D
! Hewlett-Packard
! Data name: Linha com CNT
! Saver's name: Rodrigo Anjos
! Comments: Teste de deteccao de acetona 0-100ppm a partir de cilindro
! Time and date: 10/9/2025 16:11
!              Frequency                     S11                                                   S21                                                   S12                                                   S22
# HZ  S  MA R 50
3000000000.000000      4.151459000000000E-01      1.654883000000000E+01      2.533875000000000E-01      3.317968000000000E+01
3020000000.000000      4.238129000000000E-01      1.602832000000000E+01      2.579651000000000E-01      3.733887000000000E+00
3040000000.000000      4.318695000000000E-01      1.486279000000000E+01      2.582550000000000E-01     -2.541211000000000E+01
3060000000.000000      4.362183000000000E-01      1.274658000000000E+01      2.581940000000000E-01     -5.466210000000000E+01
3080000000.000000      4.333496000000000E-01      1.088184000000000E+01      2.541962000000000E-01     -8.365625000000000E+01
3100000000.000000      4.291229000000000E-01      9.452148000000000E+00      2.522430000000000E-01     -1.112812000000000E+02
3120000000.000000      4.269409000000000E-01      8.483887000000000E+00      2.521515000000000E-01     -1.400781000000000E+02
3140000000.000000      4.273834000000000E-01      7.565430000000000E+00      2.483597000000000E-01     -1.686484000000000E+02
3160000000.000000      4.266205000000000E-01      6.422852000000000E+00      2.446823000000000E-01      1.627656000000000E+02
3180000000.000000      4.210968000000000E-01      5.185547000000000E+00      2.385330000000000E-01      1.346016000000000E+02
3200000000.000000      4.107056000000000E-01      4.626465000000000E+00      2.343521000000000E-01      1.061445000000000E+02
3220000000.000000      3.975983000000000E-01      4.957520000000000E+00      2.247391000000000E-01      7.746484000000000E+01
3240000000.000000      3.922882000000000E-01      6.366455000000000E+00      2.176666000000000E-01      5.221289000000000E+01
3260000000.000000      3.956757000000000E-01      8.083008000000000E+00      2.270889000000000E-01      2.610840000000000E+01
3280000000.000000      4.097443000000000E-01      9.156738000000000E+00      2.346039000000000E-01     -3.401733000000000E+00
3300000000.000000      4.311523000000000E-01      8.683105000000000E+00      2.375107000000000E-01     -3.200976000000000E+01
3320000000.000000      4.510651000000000E-01      6.826416000000000E+00      2.449799000000000E-01     -6.081640000000000E+01
3340000000.000000      4.629517000000000E-01      4.261230000000000E+00      2.500763000000000E-01     -9.054688000000000E+01
3360000000.000000      4.674988000000000E-01      1.649292000000000E+00      2.523956000000000E-01     -1.201641000000000E+02
3380000000.000000      4.648132000000000E-01     -2.485657000000000E-01      2.518768000000000E-01     -1.496562000000000E+02
3400000000.000000      4.591217000000000E-01     -1.792175000000000E+00      2.514801000000000E-01     -1.782891000000000E+02
3420000000.000000      4.561005000000000E-01     -2.971802000000000E+00      2.500458000000000E-01      1.526250000000000E+02
3440000000.000000      4.502563000000000E-01     -4.221680000000000E+00      2.457123000000000E-01      1.243828000000000E+02
3460000000.000000      4.460754000000000E-01     -5.307861000000000E+00      2.458344000000000E-01      9.617968000000000E+01
3480000000.000000      4.439850000000000E-01     -6.333740000000000E+00      2.433853000000000E-01      6.710938000000000E+01
3500000000.000000      4.421539000000000E-01     -6.988770000000000E+00      2.407990000000000E-01      3.908203000000000E+01
3520000000.000000      4.403687000000000E-01     -8.005371000000000E+00      2.405396000000000E-01      1.003418000000000E+01
3540000000.000000      4.401855000000000E-01     -8.813965000000000E+00      2.364044000000000E-01     -1.846191000000000E+01
3560000000.000000      4.390411000000000E-01     -9.393555000000000E+00      2.382736000000000E-01     -4.654492000000000E+01
3580000000.000000      4.368134000000000E-01     -9.917969000000000E+00      2.380295000000000E-01     -7.527734000000000E+01
3600000000.000000      4.356232000000000E-01     -1.034229000000000E+01      2.376862000000000E-01     -1.027422000000000E+02
3620000000.000000      4.381256000000000E-01     -1.075586000000000E+01      2.422333000000000E-01     -1.312500000000000E+02
3640000000.000000      4.408875000000000E-01     -1.161816000000000E+01      2.430954000000000E-01     -1.596094000000000E+02
3660000000.000000      4.431763000000000E-01     -1.310693000000000E+01      2.444992000000000E-01      1.720469000000000E+02
3680000000.000000      4.437714000000000E-01     -1.465869000000000E+01      2.428589000000000E-01      1.436797000000000E+02
3700000000.000000      4.393158000000000E-01     -1.601269000000000E+01      2.409515000000000E-01      1.162500000000000E+02
3720000000.000000      4.340057000000000E-01     -1.665430000000000E+01      2.427521000000000E-01      8.793360000000000E+01
3740000000.000000      4.335938000000000E-01     -1.659668000000000E+01      2.377014000000000E-01      5.953711000000000E+01
3760000000.000000      4.365540000000000E-01     -1.666699000000000E+01      2.368011000000000E-01      3.237305000000000E+01
3780000000.000000      4.422455000000000E-01     -1.739551000000000E+01      2.392426000000000E-01      3.905640000000000E+00
3800000000.000000      4.477692000000000E-01     -1.894238000000000E+01      2.371979000000000E-01     -2.527734000000000E+01
3820000000.000000      4.465179000000000E-01     -2.092090000000000E+01      2.357559000000000E-01     -5.383789000000000E+01
3840000000.000000      4.407349000000000E-01     -2.226465000000000E+01      2.354050000000000E-01     -8.251562000000000E+01
3860000000.000000      4.360199000000000E-01     -2.301856000000000E+01      2.358627000000000E-01     -1.115156000000000E+02
3880000000.000000      4.347992000000000E-01     -2.322558000000000E+01      2.328339000000000E-01     -1.404844000000000E+02
3900000000.000000      4.399719000000000E-01     -2.375195000000000E+01      2.322693000000000E-01     -1.679609000000000E+02
3920000000.000000      4.453125000000000E-01     -2.502344000000000E+01      2.349854000000000E-01      1.635781000000000E+02
3940000000.000000      4.454956000000000E-01     -2.670117000000000E+01      2.344971000000000E-01      1.352187000000000E+02
3960000000.000000      4.388885000000000E-01     -2.809961000000000E+01      2.343140000000000E-01      1.067539000000000E+02
3980000000.000000      4.296570000000000E-01     -2.863476000000000E+01      2.281494000000000E-01      7.821484000000000E+01
4000000000.000000      4.253387000000000E-01     -2.834473000000000E+01      2.249451000000000E-01      5.246875000000000E+01
4020000000.000000      4.301605000000000E-01     -2.794238000000000E+01      2.335129000000000E-01      2.461133000000000E+01
4040000000.000000      4.447174000000000E-01     -2.847265000000000E+01      2.331085000000000E-01     -5.787109000000000E+00
4060000000.000000      4.598694000000000E-01     -3.051660000000000E+01      2.285385000000000E-01     -3.463281000000000E+01
4080000000.000000      4.673615000000000E-01     -3.374804000000000E+01      2.287064000000000E-01     -6.330859000000000E+01
4100000000.000000      4.602814000000000E-01     -3.677343000000000E+01      2.293854000000000E-01     -9.274218000000000E+01
4120000000.000000      4.459534000000000E-01     -3.873242000000000E+01      2.267914000000000E-01     -1.230039000000000E+02
4140000000.000000      4.321899000000000E-01     -3.925586000000000E+01      2.189407000000000E-01     -1.513438000000000E+02
4160000000.000000      4.268036000000000E-01     -3.938281000000000E+01      2.209244000000000E-01     -1.778672000000000E+02
4180000000.000000      4.256287000000000E-01     -3.966211000000000E+01      2.268906000000000E-01      1.528594000000000E+02
4200000000.000000      4.264374000000000E-01     -4.064258000000000E+01      2.236328000000000E-01      1.242305000000000E+02
4220000000.000000      4.259644000000000E-01     -4.170898000000000E+01      2.246475000000000E-01      9.607811000000000E+01
4240000000.000000      4.200287000000000E-01     -4.253125000000000E+01      2.202148000000000E-01      6.700000000000000E+01
4260000000.000000      4.174652000000000E-01     -4.255273000000000E+01      2.153778000000000E-01      3.996094000000000E+01
4280000000.000000      4.180756000000000E-01     -4.233594000000000E+01      2.168579000000000E-01      1.241553000000000E+01
4300000000.000000      4.239044000000000E-01     -4.240624000000000E+01      2.156906000000000E-01     -1.617969000000000E+01
4320000000.000000      4.317169000000000E-01     -4.358203000000000E+01      2.156296000000000E-01     -4.495507000000000E+01
4340000000.000000      4.356995000000000E-01     -4.540429000000000E+01      2.156906000000000E-01     -7.446875000000000E+01
4360000000.000000      4.352264000000000E-01     -4.722265000000000E+01      2.156525000000000E-01     -1.044805000000000E+02
4380000000.000000      4.307251000000000E-01     -4.844921000000000E+01      2.137680000000000E-01     -1.345781000000000E+02
4400000000.000000      4.290161000000000E-01     -4.899609000000000E+01      2.121582000000000E-01     -1.632187000000000E+02
4420000000.000000      4.327698000000000E-01     -4.946875000000000E+01      2.161407000000000E-01      1.678125000000000E+02
4440000000.000000      4.373627000000000E-01     -5.056054000000000E+01      2.178574000000000E-01      1.380859000000000E+02
4460000000.000000      4.399414000000000E-01     -5.259570000000000E+01      2.164688000000000E-01      1.089609000000000E+02
4480000000.000000      4.344482000000000E-01     -5.447266000000000E+01      2.149277000000000E-01      8.024609000000000E+01
4500000000.000000      4.259644000000000E-01     -5.547656000000000E+01      2.117004000000000E-01      5.203125000000000E+01
4520000000.000000      4.201965000000000E-01     -5.562304000000000E+01      2.085419000000000E-01      2.370117000000000E+01
4540000000.000000      4.203796000000000E-01     -5.548828000000000E+01      2.024231000000000E-01     -4.534668000000000E+00
4560000000.000000      4.282227000000000E-01     -5.576953000000000E+01      2.018280000000000E-01     -3.199414000000000E+01
4580000000.000000      4.388580000000000E-01     -5.685351000000000E+01      2.027054000000000E-01     -6.208789000000000E+01
4600000000.000000      4.459076000000000E-01     -5.849414000000000E+01      2.004929000000000E-01     -9.251562000000000E+01
4620000000.000000      4.481506000000000E-01     -6.009960000000000E+01      2.002869000000000E-01     -1.235078000000000E+02
4640000000.000000      4.490662000000000E-01     -6.158984000000000E+01      1.964874000000000E-01     -1.546797000000000E+02
4660000000.000000      4.507904000000000E-01     -6.256249000000000E+01      1.974182000000000E-01      1.764453000000000E+02
4680000000.000000      4.550781000000000E-01     -6.365234000000000E+01      2.034302000000000E-01      1.461328000000000E+02
4700000000.000000      4.610901000000000E-01     -6.549218000000000E+01      2.052689000000000E-01      1.163867000000000E+02
4720000000.000000      4.642029000000000E-01     -6.775781000000000E+01      2.085114000000000E-01      8.801172000000000E+01
4740000000.000000      4.647522000000000E-01     -7.019531000000000E+01      2.124100000000000E-01      5.942968000000000E+01
4760000000.000000      4.627991000000000E-01     -7.247265000000000E+01      2.113190000000000E-01      3.144922000000000E+01
4780000000.000000      4.573364000000000E-01     -7.476171000000000E+01      2.081757000000000E-01      3.419434000000000E+00
4800000000.000000      4.514008000000000E-01     -7.713281000000000E+01      2.013245000000000E-01     -2.443554000000000E+01
4820000000.000000      4.385834000000000E-01     -7.952343000000000E+01      1.903229000000000E-01     -5.239258000000000E+01
4840000000.000000      4.187622000000000E-01     -8.116405000000000E+01      1.793671000000000E-01     -7.968750000000000E+01
4860000000.000000      3.979797000000000E-01     -8.165625000000000E+01      1.714706000000000E-01     -1.086562000000000E+02
4880000000.000000      3.784027000000000E-01     -8.021093000000000E+01      1.563339000000000E-01     -1.386641000000000E+02
4900000000.000000      3.716278000000000E-01     -7.753124000000000E+01      1.419144000000000E-01     -1.643828000000000E+02
4920000000.000000      3.793488000000000E-01     -7.491796000000000E+01      1.463470000000000E-01      1.704766000000000E+02
4940000000.000000      4.001312000000000E-01     -7.343750000000000E+01      1.597366000000000E-01      1.404063000000000E+02
4960000000.000000      4.285126000000000E-01     -7.423828000000000E+01      1.683044000000000E-01      1.087852000000000E+02
4980000000.000000      4.513855000000000E-01     -7.720703000000000E+01      1.782761000000000E-01      7.915234000000000E+01
5000000000.000000      4.596100000000000E-01     -8.101171000000000E+01      1.899643000000000E-01      4.941601000000000E+01
5020000000.000000      4.540558000000000E-01     -8.432032000000000E+01      1.966400000000000E-01      2.012109000000000E+01
5040000000.000000      4.414520000000000E-01     -8.642969000000000E+01      1.986847000000000E-01     -6.501221000000000E+00
5060000000.000000      4.303589000000000E-01     -8.719921000000000E+01      2.043152000000000E-01     -3.186621000000000E+01
5080000000.000000      4.250336000000000E-01     -8.768749000000000E+01      2.104645000000000E-01     -5.900391000000000E+01
5100000000.000000      4.247589000000000E-01     -8.808203000000000E+01      2.076416000000000E-01     -8.633204000000000E+01
5120000000.000000      4.271698000000000E-01     -8.878124000000000E+01      2.057571000000000E-01     -1.129375000000000E+02
5140000000.000000      4.300842000000000E-01     -8.969530000000000E+01      2.014084000000000E-01     -1.413125000000000E+02
5160000000.000000      4.332886000000000E-01     -9.064453000000000E+01      1.952820000000000E-01     -1.700469000000000E+02
5180000000.000000      4.394989000000000E-01     -9.164843000000000E+01      1.907501000000000E-01      1.597422000000000E+02
5200000000.000000      4.462128000000000E-01     -9.289843000000000E+01      1.868134000000000E-01      1.288125000000000E+02
5220000000.000000      4.506073000000000E-01     -9.469921000000000E+01      1.872177000000000E-01      9.824219000000000E+01
5240000000.000000      4.515533000000000E-01     -9.638281000000000E+01      1.906891000000000E-01      6.692968000000000E+01
5260000000.000000      4.493713000000000E-01     -9.811718000000000E+01      1.955948000000000E-01      3.628320000000000E+01
5280000000.000000      4.448853000000000E-01     -9.946093000000000E+01      2.005997000000000E-01      6.280029000000000E+00
5300000000.000000      4.425049000000000E-01     -1.004062000000000E+02      2.049026000000000E-01     -2.088379000000000E+01
5320000000.000000      4.431610000000000E-01     -1.013437000000000E+02      2.130585000000000E-01     -4.744336000000000E+01
5340000000.000000      4.434204000000000E-01     -1.026445000000000E+02      2.172699000000000E-01     -7.476563000000000E+01
5360000000.000000      4.440002000000000E-01     -1.040195000000000E+02      2.167587000000000E-01     -1.008516000000000E+02
5380000000.000000      4.445496000000000E-01     -1.052578000000000E+02      2.142105000000000E-01     -1.274180000000000E+02
5400000000.000000      4.446564000000000E-01     -1.063437000000000E+02      2.075958000000000E-01     -1.540781000000000E+02
5420000000.000000      4.474335000000000E-01     -1.068047000000000E+02      2.017441000000000E-01      1.791328000000000E+02
5440000000.000000      4.530792000000000E-01     -1.075508000000000E+02      1.956177000000000E-01      1.498672000000000E+02
5460000000.000000      4.616089000000000E-01     -1.088633000000000E+02      1.851349000000000E-01      1.202891000000000E+02
5480000000.000000      4.682312000000000E-01     -1.108359000000000E+02      1.808853000000000E-01      8.936718000000000E+01
5500000000.000000      4.689636000000000E-01     -1.133281000000000E+02      1.794205000000000E-01      5.759179000000000E+01
5520000000.000000      4.630432000000000E-01     -1.156445000000000E+02      1.811981000000000E-01      2.537500000000000E+01
5540000000.000000      4.552460000000000E-01     -1.176445000000000E+02      1.827621000000000E-01     -5.894287000000000E+00
5560000000.000000      4.471436000000000E-01     -1.192930000000000E+02      1.881332000000000E-01     -3.418945000000000E+01
5580000000.000000      4.400787000000000E-01     -1.205430000000000E+02      1.984711000000000E-01     -6.261132000000000E+01
5600000000.000000      4.343262000000000E-01     -1.214609000000000E+02      2.041626000000000E-01     -9.006639000000000E+01
5620000000.000000      4.289703000000000E-01     -1.220937000000000E+02      2.088699000000000E-01     -1.161172000000000E+02
5640000000.000000      4.257355000000000E-01     -1.223594000000000E+02      2.098389000000000E-01     -1.425000000000000E+02
5660000000.000000      4.255524000000000E-01     -1.221094000000000E+02      2.055511000000000E-01     -1.676797000000000E+02
5680000000.000000      4.321136000000000E-01     -1.221836000000000E+02      1.999969000000000E-01      1.660859000000000E+02
5700000000.000000      4.428253000000000E-01     -1.229766000000000E+02      1.912003000000000E-01      1.392500000000000E+02
5720000000.000000      4.556885000000000E-01     -1.246992000000000E+02      1.820068000000000E-01      1.118750000000000E+02
5740000000.000000      4.632111000000000E-01     -1.275703000000000E+02      1.736526000000000E-01      8.182032000000000E+01
5760000000.000000      4.603271000000000E-01     -1.308203000000000E+02      1.642532000000000E-01      4.898046000000000E+01
5780000000.000000      4.486542000000000E-01     -1.334297000000000E+02      1.563492000000000E-01      1.569775000000000E+01
5800000000.000000      4.349823000000000E-01     -1.348750000000000E+02      1.533356000000000E-01     -1.604980000000000E+01
5820000000.000000      4.272461000000000E-01     -1.351875000000000E+02      1.610260000000000E-01     -4.736524000000000E+01
5840000000.000000      4.273834000000000E-01     -1.357109000000000E+02      1.723175000000000E-01     -7.921093000000000E+01
5860000000.000000      4.327087000000000E-01     -1.365547000000000E+02      1.811295000000000E-01     -1.082148000000000E+02
5880000000.000000      4.384766000000000E-01     -1.384922000000000E+02      1.896973000000000E-01     -1.359219000000000E+02
5900000000.000000      4.389343000000000E-01     -1.405469000000000E+02      1.953506000000000E-01     -1.622266000000000E+02
5920000000.000000      4.342194000000000E-01     -1.423437000000000E+02      1.989517000000000E-01      1.716328000000000E+02
5940000000.000000      4.296265000000000E-01     -1.436406000000000E+02      1.945801000000000E-01      1.452891000000000E+02
5960000000.000000      4.256439000000000E-01     -1.450156000000000E+02      1.855164000000000E-01      1.205586000000000E+02
5980000000.000000      4.205017000000000E-01     -1.465547000000000E+02      1.780472000000000E-01      9.462891000000000E+01
6000000000.000000      4.111786000000000E-01     -1.484453000000000E+02      1.668015000000000E-01      6.644140000000000E+01
6020000000.000000      3.962708000000000E-01     -1.498672000000000E+02      1.519470000000000E-01      3.666406000000000E+01
6040000000.000000      3.800964000000000E-01     -1.504297000000000E+02      1.352386000000000E-01      6.054688000000000E+00
6060000000.000000      3.699341000000000E-01     -1.501719000000000E+02      1.271744000000000E-01     -2.415625000000000E+01
6080000000.000000      3.677979000000000E-01     -1.489766000000000E+02      1.308365000000000E-01     -5.673633000000000E+01
