! Network Analyzer HP8722D
! Hewlett-Packard
! Data name: Linha com CNT
! Saver's name: Rodrigo Anjos
! Comments: Teste de deteccao de acetona 0-100ppm a partir de cilindro
! Time and date: 10/9/2025 18:39
!              Frequency                     S11                                                   S21                                                   S12                                                   S22
# HZ  S  MA R 50
3000000000.000000      8.187485000000000E-02      9.088671000000000E+01      4.547424000000000E-01      2.479980000000000E+01
3020000000.000000      9.658432000000000E-02      7.629687000000000E+01      4.561310000000000E-01     -4.003174000000000E+00
3040000000.000000      9.626389000000000E-02      6.031445000000000E+01      4.552307000000000E-01     -3.291406000000000E+01
3060000000.000000      8.224869000000000E-02      4.640234000000000E+01      4.528046000000000E-01     -6.136719000000000E+01
3080000000.000000      6.146812000000000E-02      3.788281000000000E+01      4.528961000000000E-01     -8.982031000000000E+01
3100000000.000000      4.473495000000000E-02      4.079492000000000E+01      4.524994000000000E-01     -1.183945000000000E+02
3120000000.000000      3.973770000000000E-02      5.409180000000000E+01      4.486389000000000E-01     -1.469063000000000E+02
3140000000.000000      3.959274000000000E-02      5.816992000000000E+01      4.452209000000000E-01     -1.754453000000000E+02
3160000000.000000      3.101254000000000E-02      6.091210000000000E+01      4.422913000000000E-01      1.561328000000000E+02
3180000000.000000      2.221584000000000E-02      1.078320000000000E+02      4.397736000000000E-01      1.274609000000000E+02
3200000000.000000      5.428696000000000E-02      1.425234000000000E+02      4.361572000000000E-01      9.788671000000000E+01
3220000000.000000      1.052170000000000E-01      1.361094000000000E+02      4.232788000000000E-01      6.874609000000000E+01
3240000000.000000      1.558762000000000E-01      1.212070000000000E+02      4.117737000000000E-01      4.136914000000000E+01
3260000000.000000      1.977005000000000E-01      1.049844000000000E+02      4.145660000000000E-01      1.391553000000000E+01
3280000000.000000      2.231750000000000E-01      8.827343000000000E+01      4.192047000000000E-01     -1.554980000000000E+01
3300000000.000000      2.330170000000000E-01      7.176171000000000E+01      4.141998000000000E-01     -4.399219000000000E+01
3320000000.000000      2.265854000000000E-01      5.702734000000000E+01      4.171600000000000E-01     -7.167187000000000E+01
3340000000.000000      2.100143000000000E-01      4.458008000000000E+01      4.223633000000000E-01     -1.005195000000000E+02
3360000000.000000      1.864853000000000E-01      3.551367000000000E+01      4.236603000000000E-01     -1.288125000000000E+02
3380000000.000000      1.628494000000000E-01      3.062012000000000E+01      4.282379000000000E-01     -1.571250000000000E+02
3400000000.000000      1.433563000000000E-01      2.874512000000000E+01      4.312744000000000E-01      1.742109000000000E+02
3420000000.000000      1.291580000000000E-01      2.847851000000000E+01      4.324341000000000E-01      1.454609000000000E+02
3440000000.000000      1.164207000000000E-01      2.883594000000000E+01      4.305573000000000E-01      1.166250000000000E+02
3460000000.000000      1.054611000000000E-01      3.080371000000000E+01      4.272766000000000E-01      8.830858000000000E+01
3480000000.000000      9.898376000000000E-02      3.371484000000000E+01      4.297028000000000E-01      5.941796000000000E+01
3500000000.000000      9.635925000000000E-02      3.705273000000000E+01      4.245605000000000E-01      3.043750000000000E+01
3520000000.000000      9.486389000000000E-02      3.993555000000000E+01      4.213257000000000E-01      2.096924000000000E+00
3540000000.000000      9.492874000000000E-02      4.331445000000000E+01      4.243164000000000E-01     -2.613965000000000E+01
3560000000.000000      9.749603000000000E-02      4.861718000000000E+01      4.259033000000000E-01     -5.529882000000000E+01
3580000000.000000      1.066399000000000E-01      5.370117000000000E+01      4.253845000000000E-01     -8.404688000000000E+01
3600000000.000000      1.207924000000000E-01      5.429492000000000E+01      4.245453000000000E-01     -1.123398000000000E+02
3620000000.000000      1.343765000000000E-01      5.090234000000000E+01      4.252319000000000E-01     -1.404922000000000E+02
3640000000.000000      1.394196000000000E-01      4.472656000000000E+01      4.256287000000000E-01     -1.688359000000000E+02
3660000000.000000      1.334763000000000E-01      3.787500000000000E+01      4.247589000000000E-01      1.634844000000000E+02
3680000000.000000      1.201630000000000E-01      3.504297000000000E+01      4.284515000000000E-01      1.355469000000000E+02
3700000000.000000      1.075745000000000E-01      3.882813000000000E+01      4.290314000000000E-01      1.073398000000000E+02
3720000000.000000      1.099472000000000E-01      4.725586000000000E+01      4.281769000000000E-01      7.868359000000000E+01
3740000000.000000      1.290894000000000E-01      5.025781000000000E+01      4.212036000000000E-01      5.000390000000000E+01
3760000000.000000      1.477509000000000E-01      4.634961000000000E+01      4.150543000000000E-01      2.231640000000000E+01
3780000000.000000      1.539688000000000E-01      3.884570000000000E+01      4.135437000000000E-01     -5.560547000000000E+00
3800000000.000000      1.453934000000000E-01      3.161230000000000E+01      4.177551000000000E-01     -3.411133000000000E+01
3820000000.000000      1.257706000000000E-01      2.904492000000000E+01      4.168701000000000E-01     -6.298046000000000E+01
3840000000.000000      1.121445000000000E-01      3.469336000000000E+01      4.158936000000000E-01     -9.189062000000000E+01
3860000000.000000      1.183815000000000E-01      4.248828000000000E+01      4.148865000000000E-01     -1.207930000000000E+02
3880000000.000000      1.373672000000000E-01      4.336523000000000E+01      4.129181000000000E-01     -1.499141000000000E+02
3900000000.000000      1.513138000000000E-01      3.726171000000000E+01      4.040527000000000E-01     -1.782500000000000E+02
3920000000.000000      1.484756000000000E-01      2.982715000000000E+01      4.053650000000000E-01      1.544141000000000E+02
3940000000.000000      1.304550000000000E-01      2.645020000000000E+01      4.138031000000000E-01      1.259375000000000E+02
3960000000.000000      1.127510000000000E-01      3.301562000000000E+01      4.127960000000000E-01      9.663280000000000E+01
3980000000.000000      1.204643000000000E-01      4.576367000000000E+01      4.061279000000000E-01      6.816796000000000E+01
4000000000.000000      1.516724000000000E-01      4.853516000000000E+01      3.988495000000000E-01      4.116406000000000E+01
4020000000.000000      1.834793000000000E-01      4.139648000000000E+01      4.047394000000000E-01      1.329443000000000E+01
4040000000.000000      2.008514000000000E-01      2.864355000000000E+01      4.048462000000000E-01     -1.672070000000000E+01
4060000000.000000      1.934509000000000E-01      1.498633000000000E+01      3.909302000000000E-01     -4.541406000000000E+01
4080000000.000000      1.635437000000000E-01      2.066772000000000E+00      3.908844000000000E-01     -7.221484000000000E+01
4100000000.000000      1.180344000000000E-01     -4.151611000000000E+00      4.001007000000000E-01     -1.011406000000000E+02
4120000000.000000      7.815170000000000E-02      7.594238000000000E+00      3.996887000000000E-01     -1.310313000000000E+02
4140000000.000000      7.892227000000000E-02      3.517578000000000E+01      3.934174000000000E-01     -1.596797000000000E+02
4160000000.000000      1.028862000000000E-01      4.349999000000000E+01      3.940887000000000E-01      1.722422000000000E+02
4180000000.000000      1.201515000000000E-01      4.035937000000000E+01      4.012604000000000E-01      1.435625000000000E+02
4200000000.000000      1.224213000000000E-01      3.722265000000000E+01      4.017639000000000E-01      1.135430000000000E+02
4220000000.000000      1.216621000000000E-01      3.922656000000000E+01      3.957062000000000E-01      8.456640000000000E+01
4240000000.000000      1.313171000000000E-01      4.468750000000000E+01      3.904266000000000E-01      5.607031000000000E+01
4260000000.000000      1.555481000000000E-01      4.603516000000000E+01      3.862000000000000E-01      2.779785000000000E+01
4280000000.000000      1.815109000000000E-01      4.137891000000000E+01      3.868713000000000E-01     -2.471924000000000E-01
4300000000.000000      1.963730000000000E-01      3.363476000000000E+01      3.826599000000000E-01     -2.913769000000000E+01
4320000000.000000      1.949997000000000E-01      2.574316000000000E+01      3.794861000000000E-01     -5.800781000000000E+01
4340000000.000000      1.819992000000000E-01      2.026562000000000E+01      3.786926000000000E-01     -8.688280000000000E+01
4360000000.000000      1.686783000000000E-01      1.981445000000000E+01      3.770599000000000E-01     -1.161836000000000E+02
4380000000.000000      1.686630000000000E-01      2.202734000000000E+01      3.752747000000000E-01     -1.455703000000000E+02
4400000000.000000      1.792068000000000E-01      2.162793000000000E+01      3.712463000000000E-01     -1.745859000000000E+02
4420000000.000000      1.884689000000000E-01      1.741308000000000E+01      3.722076000000000E-01      1.567266000000000E+02
4440000000.000000      1.851654000000000E-01      1.170020000000000E+01      3.747101000000000E-01      1.268203000000000E+02
4460000000.000000      1.687469000000000E-01      8.994629000000000E+00      3.675079000000000E-01      9.726952000000000E+01
4480000000.000000      1.513672000000000E-01      1.244580000000000E+01      3.647919000000000E-01      6.885547000000000E+01
4500000000.000000      1.541214000000000E-01      2.090234000000000E+01      3.652802000000000E-01      4.002343000000000E+01
4520000000.000000      1.795959000000000E-01      2.470117000000000E+01      3.614502000000000E-01      1.044482000000000E+01
4540000000.000000      2.093964000000000E-01      2.073437000000000E+01      3.524780000000000E-01     -1.893262000000000E+01
4560000000.000000      2.287369000000000E-01      1.305420000000000E+01      3.457184000000000E-01     -4.699804000000000E+01
4580000000.000000      2.333832000000000E-01      4.307861000000000E+00      3.490448000000000E-01     -7.631640000000000E+01
4600000000.000000      2.256088000000000E-01     -2.658691000000000E+00      3.449860000000000E-01     -1.066602000000000E+02
4620000000.000000      2.147217000000000E-01     -6.891357000000000E+00      3.379517000000000E-01     -1.359062000000000E+02
4640000000.000000      2.092361000000000E-01     -9.532227000000000E+00      3.391113000000000E-01     -1.655078000000000E+02
4660000000.000000      2.081146000000000E-01     -1.251221000000000E+01      3.375244000000000E-01      1.655234000000000E+02
4680000000.000000      2.073517000000000E-01     -1.756933000000000E+01      3.414612000000000E-01      1.363750000000000E+02
4700000000.000000      1.999130000000000E-01     -2.395606000000000E+01      3.399963000000000E-01      1.069258000000000E+02
4720000000.000000      1.831970000000000E-01     -3.057714000000000E+01      3.383026000000000E-01      7.891796000000000E+01
4740000000.000000      1.628036000000000E-01     -3.640234000000000E+01      3.439331000000000E-01      5.084179000000000E+01
4760000000.000000      1.390305000000000E-01     -4.131836000000000E+01      3.449097000000000E-01      2.218066000000000E+01
4780000000.000000      1.135025000000000E-01     -4.544141000000000E+01      3.412018000000000E-01     -6.175781000000000E+00
4800000000.000000      8.176422000000000E-02     -4.939453000000000E+01      3.387604000000000E-01     -3.479101000000000E+01
4820000000.000000      3.949738000000000E-02     -4.037890000000000E+01      3.310242000000000E-01     -6.373828000000000E+01
4840000000.000000      3.988075000000000E-02      5.046875000000000E+01      3.245392000000000E-01     -9.268749000000000E+01
4860000000.000000      1.054726000000000E-01      5.838476000000000E+01      3.190308000000000E-01     -1.235039000000000E+02
4880000000.000000      1.754303000000000E-01      4.661718000000000E+01      2.992096000000000E-01     -1.544765000000000E+02
4900000000.000000      2.357941000000000E-01      3.162793000000000E+01      2.762604000000000E-01      1.780859000000000E+02
4920000000.000000      2.774963000000000E-01      1.563037000000000E+01      2.765350000000000E-01      1.527187000000000E+02
4940000000.000000      2.980957000000000E-01      3.076172000000000E-01      2.896118000000000E-01      1.242578000000000E+02
4960000000.000000      2.952576000000000E-01     -1.466162000000000E+01      2.928619000000000E-01      9.452343000000000E+01
4980000000.000000      2.695160000000000E-01     -2.780176000000000E+01      2.972717000000000E-01      6.721484000000000E+01
5000000000.000000      2.266006000000000E-01     -3.769140000000000E+01      3.111267000000000E-01      3.955078000000000E+01
5020000000.000000      1.794815000000000E-01     -3.994531000000000E+01      3.214417000000000E-01      1.130762000000000E+01
5040000000.000000      1.506653000000000E-01     -3.329883000000000E+01      3.284149000000000E-01     -1.599512000000000E+01
5060000000.000000      1.518402000000000E-01     -2.353613000000000E+01      3.369446000000000E-01     -4.351171000000000E+01
5080000000.000000      1.678696000000000E-01     -2.070801000000000E+01      3.422089000000000E-01     -7.193359000000000E+01
5100000000.000000      1.816101000000000E-01     -2.302246000000000E+01      3.371429000000000E-01     -1.005117000000000E+02
5120000000.000000      1.868057000000000E-01     -2.709375000000000E+01      3.326416000000000E-01     -1.278984000000000E+02
5140000000.000000      1.881714000000000E-01     -3.024316000000000E+01      3.315277000000000E-01     -1.562891000000000E+02
5160000000.000000      1.893692000000000E-01     -3.316406000000000E+01      3.289795000000000E-01      1.743515000000000E+02
5180000000.000000      1.914063000000000E-01     -3.651172000000000E+01      3.256073000000000E-01      1.449766000000000E+02
5200000000.000000      1.919250000000000E-01     -4.050977000000000E+01      3.242035000000000E-01      1.150898000000000E+02
5220000000.000000      1.867371000000000E-01     -4.440430000000000E+01      3.235474000000000E-01      8.556250000000000E+01
5240000000.000000      1.788254000000000E-01     -4.669141000000000E+01      3.276672000000000E-01      5.591210000000000E+01
5260000000.000000      1.720352000000000E-01     -4.684375000000000E+01      3.319092000000000E-01      2.628808000000000E+01
5280000000.000000      1.702957000000000E-01     -4.584374000000000E+01      3.360291000000000E-01     -2.785034000000000E+00
5300000000.000000      1.747513000000000E-01     -4.602735000000000E+01      3.382721000000000E-01     -3.095215000000000E+01
5320000000.000000      1.779938000000000E-01     -4.880664000000000E+01      3.417816000000000E-01     -5.821484000000000E+01
5340000000.000000      1.755981000000000E-01     -5.247070000000000E+01      3.460541000000000E-01     -8.616014000000000E+01
5360000000.000000      1.690674000000000E-01     -5.548046000000000E+01      3.412933000000000E-01     -1.135039000000000E+02
5380000000.000000      1.623993000000000E-01     -5.650585000000000E+01      3.374176000000000E-01     -1.400312000000000E+02
5400000000.000000      1.615906000000000E-01     -5.625586000000000E+01      3.374939000000000E-01     -1.677187000000000E+02
5420000000.000000      1.701889000000000E-01     -5.614062000000000E+01      3.312683000000000E-01      1.638984000000000E+02
5440000000.000000      1.810989000000000E-01     -5.916406000000000E+01      3.263092000000000E-01      1.349844000000000E+02
5460000000.000000      1.866226000000000E-01     -6.462891000000000E+01      3.162842000000000E-01      1.053164000000000E+02
5480000000.000000      1.819687000000000E-01     -7.103125000000000E+01      3.114624000000000E-01      7.618359000000000E+01
5500000000.000000      1.658630000000000E-01     -7.669140000000000E+01      3.131104000000000E-01      4.674805000000000E+01
5520000000.000000      1.447830000000000E-01     -7.973827000000000E+01      3.143005000000000E-01      1.655078000000000E+01
5540000000.000000      1.265869000000000E-01     -7.875000000000000E+01      3.180847000000000E-01     -1.291602000000000E+01
5560000000.000000      1.147308000000000E-01     -7.548046000000000E+01      3.232269000000000E-01     -4.194531000000000E+01
5580000000.000000      1.088715000000000E-01     -7.094140000000000E+01      3.286896000000000E-01     -7.063281000000000E+01
5600000000.000000      1.062546000000000E-01     -6.600390000000000E+01      3.330078000000000E-01     -9.882421000000000E+01
5620000000.000000      1.096382000000000E-01     -5.921679000000000E+01      3.344421000000000E-01     -1.266289000000000E+02
5640000000.000000      1.244011000000000E-01     -5.299414000000000E+01      3.331909000000000E-01     -1.544062000000000E+02
5660000000.000000      1.488495000000000E-01     -5.250781000000000E+01      3.277588000000000E-01      1.782344000000000E+02
5680000000.000000      1.749496000000000E-01     -5.768945000000000E+01      3.214417000000000E-01      1.502187000000000E+02
5700000000.000000      1.931839000000000E-01     -6.714453000000000E+01      3.101654000000000E-01      1.220195000000000E+02
5720000000.000000      1.959839000000000E-01     -7.863671000000000E+01      2.989655000000000E-01      9.441015000000000E+01
5740000000.000000      1.822052000000000E-01     -8.973436000000000E+01      2.955170000000000E-01      6.594531000000000E+01
5760000000.000000      1.555405000000000E-01     -9.810936000000000E+01      2.925873000000000E-01      3.540039000000000E+01
5780000000.000000      1.267395000000000E-01     -9.970703000000000E+01      2.881622000000000E-01      5.332275000000000E+00
5800000000.000000      1.106186000000000E-01     -9.299608000000000E+01      2.890015000000000E-01     -2.487793000000000E+01
5820000000.000000      1.153297000000000E-01     -8.699999000000000E+01      2.942963000000000E-01     -5.470117000000000E+01
5840000000.000000      1.252136000000000E-01     -8.957031000000000E+01      3.009644000000000E-01     -8.509766000000000E+01
5860000000.000000      1.279755000000000E-01     -9.744530000000000E+01      3.010712000000000E-01     -1.143750000000000E+02
5880000000.000000      1.174889000000000E-01     -1.067851000000000E+02      3.007813000000000E-01     -1.415469000000000E+02
5900000000.000000      9.811020000000000E-02     -1.133203000000000E+02      3.099976000000000E-01     -1.689219000000000E+02
5920000000.000000      7.877731000000000E-02     -1.116836000000000E+02      3.133545000000000E-01      1.626641000000000E+02
5940000000.000000      7.046890000000000E-02     -1.017656000000000E+02      3.084106000000000E-01      1.338672000000000E+02
5960000000.000000      6.983948000000000E-02     -9.665625000000000E+01      2.967834000000000E-01      1.059805000000000E+02
5980000000.000000      6.426239000000000E-02     -9.561718000000000E+01      2.888336000000000E-01      7.843359000000000E+01
6000000000.000000      4.874992000000000E-02     -8.833202000000000E+01      2.852173000000000E-01      4.896093000000000E+01
6020000000.000000      4.061508000000000E-02     -5.423633000000000E+01      2.757263000000000E-01      1.795410000000000E+01
6040000000.000000      6.485748000000000E-02     -2.960840000000000E+01      2.639923000000000E-01     -1.204248000000000E+01
6060000000.000000      9.870148000000000E-02     -3.191601000000000E+01      2.610168000000000E-01     -4.175390000000000E+01
6080000000.000000      1.275253000000000E-01     -4.298828000000000E+01      2.662354000000000E-01     -7.195703000000000E+01
