! Network Analyzer HP8722D
! Hewlett-Packard
! Data name: Linha com CNT
! Saver's name: Rodrigo Anjos
! Comments: Teste de deteccao de acetona 0-100ppm a partir de cilindro
! Time and date: 10/9/2025 15:19
!              Frequency                     S11                                                   S21                                                   S12                                                   S22
# HZ  S  MA R 50
3000000000.000000      6.456299000000000E-01      1.062500000000000E+01      1.543503000000000E-01      5.054296000000000E+01
3020000000.000000      6.510010000000000E-01      9.681641000000000E+00      1.584930000000000E-01      2.049414000000000E+01
3040000000.000000      6.532593000000000E-01      9.092285000000000E+00      1.591644000000000E-01     -8.573730000000000E+00
3060000000.000000      6.587219000000000E-01      7.748047000000000E+00      1.598969000000000E-01     -3.818750000000000E+01
3080000000.000000      6.584778000000000E-01      6.571045000000000E+00      1.562653000000000E-01     -6.711328000000000E+01
3100000000.000000      6.595154000000000E-01      5.549316000000000E+00      1.554184000000000E-01     -9.441797000000000E+01
3120000000.000000      6.599121000000000E-01      4.410889000000000E+00      1.557083000000000E-01     -1.231094000000000E+02
3140000000.000000      6.621399000000000E-01      3.220337000000000E+00      1.532211000000000E-01     -1.515000000000000E+02
3160000000.000000      6.642456000000000E-01      2.324951000000000E+00      1.502228000000000E-01     -1.799922000000000E+02
3180000000.000000      6.647339000000000E-01      1.333435000000000E+00      1.453018000000000E-01      1.522734000000000E+02
3200000000.000000      6.613159000000000E-01      1.606750000000000E-01      1.426773000000000E-01      1.244805000000000E+02
3220000000.000000      6.572266000000000E-01     -9.365845000000000E-01      1.356583000000000E-01      9.612499000000000E+01
3240000000.000000      6.519165000000000E-01     -1.730347000000000E+00      1.313324000000000E-01      7.219140000000000E+01
3260000000.000000      6.464844000000000E-01     -2.318115000000000E+00      1.392212000000000E-01      4.691602000000000E+01
3280000000.000000      6.456909000000000E-01     -2.735596000000000E+00      1.465683000000000E-01      1.693652000000000E+01
3300000000.000000      6.513367000000000E-01     -3.228638000000000E+00      1.503601000000000E-01     -1.173340000000000E+01
3320000000.000000      6.580200000000000E-01     -3.823242000000000E+00      1.573792000000000E-01     -4.136328000000000E+01
3340000000.000000      6.659546000000000E-01     -4.687256000000000E+00      1.612320000000000E-01     -7.183984000000000E+01
3360000000.000000      6.716003000000000E-01     -6.034424000000000E+00      1.636581000000000E-01     -1.022930000000000E+02
3380000000.000000      6.733093000000000E-01     -7.274414000000000E+00      1.616135000000000E-01     -1.321172000000000E+02
3400000000.000000      6.735840000000000E-01     -8.569336000000000E+00      1.611862000000000E-01     -1.605937000000000E+02
3420000000.000000      6.710205000000000E-01     -9.438965000000000E+00      1.597137000000000E-01      1.701406000000000E+02
3440000000.000000      6.685486000000000E-01     -1.062109000000000E+01      1.556396000000000E-01      1.423281000000000E+02
3460000000.000000      6.668091000000000E-01     -1.167578000000000E+01      1.573029000000000E-01      1.143203000000000E+02
3480000000.000000      6.664429000000000E-01     -1.271826000000000E+01      1.545334000000000E-01      8.529297000000000E+01
3500000000.000000      6.660156000000000E-01     -1.359033000000000E+01      1.537628000000000E-01      5.790429000000000E+01
3520000000.000000      6.656189000000000E-01     -1.464648000000000E+01      1.541290000000000E-01      2.843457000000000E+01
3540000000.000000      6.675720000000000E-01     -1.561035000000000E+01      1.496735000000000E-01     -1.112366000000000E-01
3560000000.000000      6.670227000000000E-01     -1.649512000000000E+01      1.510010000000000E-01     -2.773438000000000E+01
3580000000.000000      6.654053000000000E-01     -1.737305000000000E+01      1.506424000000000E-01     -5.662890000000000E+01
3600000000.000000      6.632385000000000E-01     -1.831640000000000E+01      1.512604000000000E-01     -8.371485000000000E+01
3620000000.000000      6.633301000000000E-01     -1.919336000000000E+01      1.551895000000000E-01     -1.123203000000000E+02
3640000000.000000      6.626282000000000E-01     -2.015039000000000E+01      1.564865000000000E-01     -1.406328000000000E+02
3660000000.000000      6.630249000000000E-01     -2.125879000000000E+01      1.581116000000000E-01     -1.693281000000000E+02
3680000000.000000      6.649170000000000E-01     -2.228516000000000E+01      1.558609000000000E-01      1.620703000000000E+02
3700000000.000000      6.646729000000000E-01     -2.342480000000000E+01      1.538620000000000E-01      1.356406000000000E+02
3720000000.000000      6.616516000000000E-01     -2.454004000000000E+01      1.567459000000000E-01      1.072773000000000E+02
3740000000.000000      6.627502000000000E-01     -2.531152000000000E+01      1.527328000000000E-01      7.921875000000000E+01
3760000000.000000      6.619568000000000E-01     -2.583887000000000E+01      1.540146000000000E-01      5.257226000000000E+01
3780000000.000000      6.614990000000000E-01     -2.664746000000000E+01      1.561584000000000E-01      2.348535000000000E+01
3800000000.000000      6.651306000000000E-01     -2.759375000000000E+01      1.541519000000000E-01     -6.182617000000000E+00
3820000000.000000      6.655579000000000E-01     -2.875586000000000E+01      1.527023000000000E-01     -3.481445000000000E+01
3840000000.000000      6.658936000000000E-01     -3.013476000000000E+01      1.525421000000000E-01     -6.323828000000000E+01
3860000000.000000      6.660767000000000E-01     -3.131543000000000E+01      1.534882000000000E-01     -9.234766000000000E+01
3880000000.000000      6.625671000000000E-01     -3.210938000000000E+01      1.516647000000000E-01     -1.211484000000000E+02
3900000000.000000      6.645203000000000E-01     -3.313477000000000E+01      1.526031000000000E-01     -1.483047000000000E+02
3920000000.000000      6.647339000000000E-01     -3.409375000000000E+01      1.561661000000000E-01     -1.772812000000000E+02
3940000000.000000      6.683960000000000E-01     -3.506836000000000E+01      1.538467000000000E-01      1.544141000000000E+02
3960000000.000000      6.670837000000000E-01     -3.629492000000000E+01      1.547394000000000E-01      1.266484000000000E+02
3980000000.000000      6.654663000000000E-01     -3.737695000000000E+01      1.500244000000000E-01      9.840624000000000E+01
4000000000.000000      6.581116000000000E-01     -3.837891000000000E+01      1.485748000000000E-01      7.364452000000000E+01
4020000000.000000      6.557312000000000E-01     -3.900000000000000E+01      1.561966000000000E-01      4.589257000000000E+01
4040000000.000000      6.578674000000000E-01     -3.965820000000000E+01      1.557770000000000E-01      1.519238000000000E+01
4060000000.000000      6.680298000000000E-01     -4.049805000000000E+01      1.536865000000000E-01     -1.390771000000000E+01
4080000000.000000      6.757813000000000E-01     -4.200585000000000E+01      1.533508000000000E-01     -4.393359000000000E+01
4100000000.000000      6.784363000000000E-01     -4.354297000000000E+01      1.513672000000000E-01     -7.362109000000000E+01
4120000000.000000      6.759338000000000E-01     -4.540235000000000E+01      1.486053000000000E-01     -1.042851000000000E+02
4140000000.000000      6.695862000000000E-01     -4.660742000000000E+01      1.422882000000000E-01     -1.322891000000000E+02
4160000000.000000      6.679382000000000E-01     -4.750977000000000E+01      1.451950000000000E-01     -1.580937000000000E+02
4180000000.000000      6.647339000000000E-01     -4.852734000000000E+01      1.500778000000000E-01      1.724219000000000E+02
4200000000.000000      6.638184000000000E-01     -4.963672000000000E+01      1.481552000000000E-01      1.446640000000000E+02
4220000000.000000      6.642456000000000E-01     -5.066992000000000E+01      1.518173000000000E-01      1.172109000000000E+02
4240000000.000000      6.616821000000000E-01     -5.196679000000000E+01      1.490784000000000E-01      8.807032000000000E+01
4260000000.000000      6.607971000000000E-01     -5.300586000000000E+01      1.450653000000000E-01      6.183984000000000E+01
4280000000.000000      6.561890000000000E-01     -5.371288000000000E+01      1.467590000000000E-01      3.494336000000000E+01
4300000000.000000      6.550598000000000E-01     -5.448242000000000E+01      1.460953000000000E-01      6.310059000000000E+00
4320000000.000000      6.568298000000000E-01     -5.538867000000000E+01      1.461487000000000E-01     -2.255566000000000E+01
4340000000.000000      6.592407000000000E-01     -5.652148000000000E+01      1.451721000000000E-01     -5.221680000000000E+01
4360000000.000000      6.629639000000000E-01     -5.793554000000000E+01      1.450653000000000E-01     -8.299219000000000E+01
4380000000.000000      6.605835000000000E-01     -5.935156000000000E+01      1.425095000000000E-01     -1.138008000000000E+02
4400000000.000000      6.571655000000000E-01     -6.027538000000000E+01      1.422501000000000E-01     -1.422500000000000E+02
4420000000.000000      6.569824000000000E-01     -6.131445000000000E+01      1.469955000000000E-01     -1.716797000000000E+02
4440000000.000000      6.578064000000000E-01     -6.213867000000000E+01      1.498947000000000E-01      1.583516000000000E+02
4460000000.000000      6.616516000000000E-01     -6.339648000000000E+01      1.517181000000000E-01      1.292422000000000E+02
4480000000.000000      6.610413000000000E-01     -6.472656000000000E+01      1.514511000000000E-01      1.004258000000000E+02
4500000000.000000      6.591187000000000E-01     -6.616405000000000E+01      1.492996000000000E-01      7.322266000000000E+01
4520000000.000000      6.550293000000000E-01     -6.739062000000000E+01      1.481400000000000E-01      4.586328000000000E+01
4540000000.000000      6.499939000000000E-01     -6.840625000000000E+01      1.437759000000000E-01      1.887305000000000E+01
4560000000.000000      6.501770000000000E-01     -6.919531000000000E+01      1.436005000000000E-01     -7.903320000000000E+00
4580000000.000000      6.536865000000000E-01     -7.010156000000000E+01      1.427994000000000E-01     -3.824609000000000E+01
4600000000.000000      6.543274000000000E-01     -7.119141000000000E+01      1.392517000000000E-01     -6.847656000000000E+01
4620000000.000000      6.556702000000000E-01     -7.232031000000000E+01      1.378250000000000E-01     -1.006562000000000E+02
4640000000.000000      6.568909000000000E-01     -7.337891000000000E+01      1.327133000000000E-01     -1.330312000000000E+02
4660000000.000000      6.554260000000000E-01     -7.443359000000000E+01      1.336136000000000E-01     -1.629531000000000E+02
4680000000.000000      6.566162000000000E-01     -7.541016000000000E+01      1.398697000000000E-01      1.652969000000000E+02
4700000000.000000      6.581726000000000E-01     -7.627734000000000E+01      1.433258000000000E-01      1.347500000000000E+02
4720000000.000000      6.641235000000000E-01     -7.753906000000000E+01      1.500168000000000E-01      1.055273000000000E+02
4740000000.000000      6.675110000000000E-01     -7.912499000000000E+01      1.539688000000000E-01      7.638672000000000E+01
4760000000.000000      6.720886000000000E-01     -8.054688000000000E+01      1.554871000000000E-01      4.912109000000000E+01
4780000000.000000      6.737976000000000E-01     -8.180859000000000E+01      1.539154000000000E-01      2.152344000000000E+01
4800000000.000000      6.737061000000000E-01     -8.393749000000000E+01      1.481628000000000E-01     -4.799805000000000E+00
4820000000.000000      6.711731000000000E-01     -8.554688000000000E+01      1.391983000000000E-01     -3.073242000000000E+01
4840000000.000000      6.656189000000000E-01     -8.723436000000000E+01      1.297455000000000E-01     -5.553320000000000E+01
4860000000.000000      6.587219000000000E-01     -8.897264000000000E+01      1.212578000000000E-01     -8.235155000000000E+01
4880000000.000000      6.459351000000000E-01     -9.017969000000000E+01      1.078110000000000E-01     -1.102461000000000E+02
4900000000.000000      6.325073000000000E-01     -9.103516000000000E+01      9.574127000000000E-02     -1.341484000000000E+02
4920000000.000000      6.222229000000000E-01     -9.146484000000000E+01      9.746170000000000E-02     -1.591016000000000E+02
4940000000.000000      6.187744000000000E-01     -9.142187000000000E+01      1.065788000000000E-01      1.682812000000000E+02
4960000000.000000      6.257324000000000E-01     -9.114843000000000E+01      1.137657000000000E-01      1.339062000000000E+02
4980000000.000000      6.385498000000000E-01     -9.182032000000000E+01      1.233597000000000E-01      1.004648000000000E+02
5000000000.000000      6.499329000000000E-01     -9.310938000000000E+01      1.338806000000000E-01      6.795703000000000E+01
5020000000.000000      6.564941000000000E-01     -9.491014000000000E+01      1.406860000000000E-01      3.718554000000000E+01
5040000000.000000      6.539612000000000E-01     -9.671093000000000E+01      1.432800000000000E-01      1.073633000000000E+01
5060000000.000000      6.490784000000000E-01     -9.819530000000000E+01      1.509094000000000E-01     -1.322656000000000E+01
5080000000.000000      6.447449000000000E-01     -9.942577000000000E+01      1.588898000000000E-01     -3.901562000000000E+01
5100000000.000000      6.387024000000000E-01     -1.005195000000000E+02      1.595306000000000E-01     -6.473827000000000E+01
5120000000.000000      6.365356000000000E-01     -1.016016000000000E+02      1.602783000000000E-01     -9.025782000000000E+01
5140000000.000000      6.380615000000000E-01     -1.022969000000000E+02      1.556168000000000E-01     -1.176523000000000E+02
5160000000.000000      6.394653000000000E-01     -1.032930000000000E+02      1.493607000000000E-01     -1.451953000000000E+02
5180000000.000000      6.416321000000000E-01     -1.040820000000000E+02      1.424408000000000E-01     -1.750078000000000E+02
5200000000.000000      6.491089000000000E-01     -1.051055000000000E+02      1.359253000000000E-01      1.540625000000000E+02
5220000000.000000      6.542053000000000E-01     -1.062969000000000E+02      1.330948000000000E-01      1.219805000000000E+02
5240000000.000000      6.561584000000000E-01     -1.077109000000000E+02      1.329956000000000E-01      8.843750000000000E+01
5260000000.000000      6.573181000000000E-01     -1.092344000000000E+02      1.364059000000000E-01      5.559375000000000E+01
5280000000.000000      6.557617000000000E-01     -1.107383000000000E+02      1.409836000000000E-01      2.448144000000000E+01
5300000000.000000      6.539612000000000E-01     -1.119805000000000E+02      1.476364000000000E-01     -2.811157000000000E+00
5320000000.000000      6.503296000000000E-01     -1.133594000000000E+02      1.591568000000000E-01     -2.922168000000000E+01
5340000000.000000      6.484070000000000E-01     -1.142969000000000E+02      1.662521000000000E-01     -5.625977000000000E+01
5360000000.000000      6.488342000000000E-01     -1.155039000000000E+02      1.703720000000000E-01     -8.125391000000000E+01
5380000000.000000      6.487427000000000E-01     -1.166797000000000E+02      1.709213000000000E-01     -1.072539000000000E+02
5400000000.000000      6.493225000000000E-01     -1.178477000000000E+02      1.655960000000000E-01     -1.322031000000000E+02
5420000000.000000      6.507568000000000E-01     -1.184727000000000E+02      1.615067000000000E-01     -1.572344000000000E+02
5440000000.000000      6.529236000000000E-01     -1.194765000000000E+02      1.533356000000000E-01      1.743750000000000E+02
5460000000.000000      6.576538000000000E-01     -1.204102000000000E+02      1.415253000000000E-01      1.457578000000000E+02
5480000000.000000      6.622314000000000E-01     -1.217148000000000E+02      1.330338000000000E-01      1.142188000000000E+02
5500000000.000000      6.698608000000000E-01     -1.234570000000000E+02      1.263809000000000E-01      8.068750000000000E+01
5520000000.000000      6.688232000000000E-01     -1.252226000000000E+02      1.238632000000000E-01      4.591992000000000E+01
5540000000.000000      6.667786000000000E-01     -1.269844000000000E+02      1.242256000000000E-01      1.224951000000000E+01
5560000000.000000      6.618652000000000E-01     -1.289297000000000E+02      1.310043000000000E-01     -1.736328000000000E+01
5580000000.000000      6.578369000000000E-01     -1.304141000000000E+02      1.442871000000000E-01     -4.647265000000000E+01
5600000000.000000      6.518860000000000E-01     -1.317656000000000E+02      1.543503000000000E-01     -7.372265000000000E+01
5620000000.000000      6.469116000000000E-01     -1.330469000000000E+02      1.635437000000000E-01     -9.881248000000000E+01
5640000000.000000      6.431580000000000E-01     -1.340312000000000E+02      1.689377000000000E-01     -1.239922000000000E+02
5660000000.000000      6.362000000000000E-01     -1.350000000000000E+02      1.695175000000000E-01     -1.478047000000000E+02
5680000000.000000      6.347046000000000E-01     -1.356562000000000E+02      1.669846000000000E-01     -1.721953000000000E+02
5700000000.000000      6.381836000000000E-01     -1.362422000000000E+02      1.598892000000000E-01      1.628984000000000E+02
5720000000.000000      6.458740000000000E-01     -1.373281000000000E+02      1.501770000000000E-01      1.372734000000000E+02
5740000000.000000      6.517334000000000E-01     -1.389062000000000E+02      1.367111000000000E-01      1.083633000000000E+02
5760000000.000000      6.526489000000000E-01     -1.409219000000000E+02      1.199417000000000E-01      7.632813000000000E+01
5780000000.000000      6.484680000000000E-01     -1.433125000000000E+02      1.038933000000000E-01      4.177148000000000E+01
5800000000.000000      6.343689000000000E-01     -1.449687000000000E+02      9.629059000000000E-02      7.252197000000000E+00
5820000000.000000      6.266479000000000E-01     -1.459141000000000E+02      1.016731000000000E-01     -2.832617000000000E+01
5840000000.000000      6.203003000000000E-01     -1.471875000000000E+02      1.149330000000000E-01     -6.379101000000000E+01
5860000000.000000      6.193237000000000E-01     -1.476406000000000E+02      1.289291000000000E-01     -9.488281000000000E+01
5880000000.000000      6.238708000000000E-01     -1.484531000000000E+02      1.432648000000000E-01     -1.237031000000000E+02
5900000000.000000      6.265564000000000E-01     -1.495859000000000E+02      1.544724000000000E-01     -1.494531000000000E+02
5920000000.000000      6.287231000000000E-01     -1.510000000000000E+02      1.623840000000000E-01     -1.742188000000000E+02
5940000000.000000      6.289368000000000E-01     -1.524609000000000E+02      1.619644000000000E-01      1.616328000000000E+02
5960000000.000000      6.257019000000000E-01     -1.539453000000000E+02      1.572037000000000E-01      1.398125000000000E+02
5980000000.000000      6.228027000000000E-01     -1.555000000000000E+02      1.523132000000000E-01      1.167226000000000E+02
6000000000.000000      6.146240000000000E-01     -1.568359000000000E+02      1.406097000000000E-01      9.232813000000000E+01
6020000000.000000      6.078491000000000E-01     -1.585391000000000E+02      1.247787000000000E-01      6.671093000000000E+01
6040000000.000000      5.945740000000000E-01     -1.601016000000000E+02      1.048622000000000E-01      3.990234000000000E+01
6060000000.000000      5.841064000000000E-01     -1.611797000000000E+02      9.000015000000000E-02      1.192822000000000E+01
6080000000.000000      5.780029000000000E-01     -1.613828000000000E+02      8.499146000000000E-02     -2.250195000000000E+01
