! Network Analyzer HP8722D
! Hewlett-Packard
! Data name: Linha com CNT
! Saver's name: Rodrigo Anjos
! Comments: Teste de deteccao de acetona 0-100ppm a partir de cilindro
! Time and date: 10/9/2025 16:33
!              Frequency                     S11                                                   S21                                                   S12                                                   S22
# HZ  S  MA R 50
3000000000.000000      4.424744000000000E-01      1.571826000000000E+01      2.473984000000000E-01      3.371875000000000E+01
3020000000.000000      4.507294000000000E-01      1.516504000000000E+01      2.524872000000000E-01      4.342285000000000E+00
3040000000.000000      4.578094000000000E-01      1.417480000000000E+01      2.522888000000000E-01     -2.475976000000000E+01
3060000000.000000      4.621429000000000E-01      1.230322000000000E+01      2.523041000000000E-01     -5.406836000000000E+01
3080000000.000000      4.595032000000000E-01      1.046143000000000E+01      2.481308000000000E-01     -8.308203000000000E+01
3100000000.000000      4.566803000000000E-01      9.085449000000000E+00      2.463760000000000E-01     -1.109101000000000E+02
3120000000.000000      4.545288000000000E-01      8.155762000000000E+00      2.457886000000000E-01     -1.395313000000000E+02
3140000000.000000      4.550171000000000E-01      7.199951000000000E+00      2.426605000000000E-01     -1.680938000000000E+02
3160000000.000000      4.550018000000000E-01      6.043701000000000E+00      2.388992000000000E-01      1.633281000000000E+02
3180000000.000000      4.501343000000000E-01      4.807861000000000E+00      2.330017000000000E-01      1.352890000000000E+02
3200000000.000000      4.397125000000000E-01      4.268066000000000E+00      2.289505000000000E-01      1.068359000000000E+02
3220000000.000000      4.277954000000000E-01      4.274902000000000E+00      2.195969000000000E-01      7.808984000000000E+01
3240000000.000000      4.227142000000000E-01      5.266357000000000E+00      2.127304000000000E-01      5.291016000000000E+01
3260000000.000000      4.240723000000000E-01      6.654785000000000E+00      2.217865000000000E-01      2.699023000000000E+01
3280000000.000000      4.362793000000000E-01      7.496582000000000E+00      2.295609000000000E-01     -2.621704000000000E+00
3300000000.000000      4.547424000000000E-01      7.135498000000000E+00      2.320862000000000E-01     -3.120117000000000E+01
3320000000.000000      4.736023000000000E-01      5.568604000000000E+00      2.401199000000000E-01     -6.014648000000000E+01
3340000000.000000      4.859009000000000E-01      3.352173000000000E+00      2.447281000000000E-01     -8.987890000000000E+01
3360000000.000000      4.903259000000000E-01      9.489441000000000E-01      2.471008000000000E-01     -1.194102000000000E+02
3380000000.000000      4.894562000000000E-01     -7.608032000000000E-01      2.465668000000000E-01     -1.488359000000000E+02
3400000000.000000      4.854279000000000E-01     -2.301636000000000E+00      2.465820000000000E-01     -1.775391000000000E+02
3420000000.000000      4.810333000000000E-01     -3.493652000000000E+00      2.444229000000000E-01      1.532266000000000E+02
3440000000.000000      4.762573000000000E-01     -4.699463000000000E+00      2.406158000000000E-01      1.249219000000000E+02
3460000000.000000      4.718323000000000E-01     -5.750000000000000E+00      2.406082000000000E-01      9.692186000000000E+01
3480000000.000000      4.702148000000000E-01     -6.764893000000000E+00      2.385483000000000E-01      6.773046000000000E+01
3500000000.000000      4.685059000000000E-01     -7.543701000000000E+00      2.360535000000000E-01      3.969336000000000E+01
3520000000.000000      4.679565000000000E-01     -8.524414000000000E+00      2.361908000000000E-01      1.074463000000000E+01
3540000000.000000      4.674988000000000E-01     -9.420898000000000E+00      2.314987000000000E-01     -1.774609000000000E+01
3560000000.000000      4.658966000000000E-01     -1.005127000000000E+01      2.327499000000000E-01     -4.591406000000000E+01
3580000000.000000      4.638519000000000E-01     -1.060059000000000E+01      2.325516000000000E-01     -7.461328000000000E+01
3600000000.000000      4.626160000000000E-01     -1.111133000000000E+01      2.325439000000000E-01     -1.020703000000000E+02
3620000000.000000      4.649200000000000E-01     -1.160059000000000E+01      2.370071000000000E-01     -1.305703000000000E+02
3640000000.000000      4.673157000000000E-01     -1.242188000000000E+01      2.377701000000000E-01     -1.588828000000000E+02
3660000000.000000      4.694061000000000E-01     -1.388281000000000E+01      2.393417000000000E-01      1.727734000000000E+02
3680000000.000000      4.696808000000000E-01     -1.535498000000000E+01      2.379913000000000E-01      1.442891000000000E+02
3700000000.000000      4.659424000000000E-01     -1.669043000000000E+01      2.359924000000000E-01      1.168828000000000E+02
3720000000.000000      4.614410000000000E-01     -1.747656000000000E+01      2.375565000000000E-01      8.864843000000000E+01
3740000000.000000      4.602203000000000E-01     -1.754980000000000E+01      2.329330000000000E-01      6.029687000000000E+01
3760000000.000000      4.632111000000000E-01     -1.765527000000000E+01      2.322769000000000E-01      3.317578000000000E+01
3780000000.000000      4.683533000000000E-01     -1.838476000000000E+01      2.343826000000000E-01      4.604492000000000E+00
3800000000.000000      4.729462000000000E-01     -1.996582000000000E+01      2.331619000000000E-01     -2.458203000000000E+01
3820000000.000000      4.711456000000000E-01     -2.176953000000000E+01      2.308121000000000E-01     -5.319726000000000E+01
3840000000.000000      4.672089000000000E-01     -2.311426000000000E+01      2.302017000000000E-01     -8.162500000000000E+01
3860000000.000000      4.624329000000000E-01     -2.397363000000000E+01      2.309723000000000E-01     -1.108203000000000E+02
3880000000.000000      4.605560000000000E-01     -2.429004000000000E+01      2.281265000000000E-01     -1.397422000000000E+02
3900000000.000000      4.655762000000000E-01     -2.478516000000000E+01      2.273407000000000E-01     -1.673750000000000E+02
3920000000.000000      4.702911000000000E-01     -2.603027000000000E+01      2.299423000000000E-01      1.642500000000000E+02
3940000000.000000      4.703369000000000E-01     -2.766797000000000E+01      2.295380000000000E-01      1.356641000000000E+02
3960000000.000000      4.648590000000000E-01     -2.906738000000000E+01      2.297363000000000E-01      1.074141000000000E+02
3980000000.000000      4.561768000000000E-01     -2.974218000000000E+01      2.235336000000000E-01      7.886328000000000E+01
4000000000.000000      4.506226000000000E-01     -2.967968000000000E+01      2.204056000000000E-01      5.320313000000000E+01
4020000000.000000      4.550781000000000E-01     -2.939160000000000E+01      2.289124000000000E-01      2.536426000000000E+01
4040000000.000000      4.677887000000000E-01     -2.991308000000000E+01      2.294159000000000E-01     -5.093750000000000E+00
4060000000.000000      4.827271000000000E-01     -3.178027000000000E+01      2.248154000000000E-01     -3.378320000000000E+01
4080000000.000000      4.900360000000000E-01     -3.468554000000000E+01      2.247314000000000E-01     -6.252734000000000E+01
4100000000.000000      4.837189000000000E-01     -3.749804000000000E+01      2.253265000000000E-01     -9.203125000000000E+01
4120000000.000000      4.707642000000000E-01     -3.944726000000000E+01      2.222824000000000E-01     -1.222148000000000E+02
4140000000.000000      4.592743000000000E-01     -4.011328000000000E+01      2.144165000000000E-01     -1.505469000000000E+02
4160000000.000000      4.528656000000000E-01     -4.039844000000000E+01      2.163239000000000E-01     -1.771172000000000E+02
4180000000.000000      4.517365000000000E-01     -4.082812000000000E+01      2.214584000000000E-01      1.536016000000000E+02
4200000000.000000      4.522552000000000E-01     -4.180469000000000E+01      2.187424000000000E-01      1.250234000000000E+02
4220000000.000000      4.514923000000000E-01     -4.284570000000000E+01      2.198410000000000E-01      9.700781000000000E+01
4240000000.000000      4.458160000000000E-01     -4.371484000000000E+01      2.161331000000000E-01      6.774609000000000E+01
4260000000.000000      4.445038000000000E-01     -4.401757000000000E+01      2.109451000000000E-01      4.076367000000000E+01
4280000000.000000      4.434662000000000E-01     -4.401367000000000E+01      2.126389000000000E-01      1.316016000000000E+01
4300000000.000000      4.473877000000000E-01     -4.426171000000000E+01      2.119522000000000E-01     -1.548145000000000E+01
4320000000.000000      4.543304000000000E-01     -4.516015000000000E+01      2.119370000000000E-01     -4.426367000000000E+01
4340000000.000000      4.587402000000000E-01     -4.696679000000000E+01      2.120361000000000E-01     -7.362499000000000E+01
4360000000.000000      4.583435000000000E-01     -4.859765000000000E+01      2.119904000000000E-01     -1.036328000000000E+02
4380000000.000000      4.542694000000000E-01     -4.983203000000000E+01      2.098160000000000E-01     -1.336172000000000E+02
4400000000.000000      4.531403000000000E-01     -5.044140000000000E+01      2.079468000000000E-01     -1.622890000000000E+02
4420000000.000000      4.551697000000000E-01     -5.102344000000000E+01      2.122192000000000E-01      1.689062000000000E+02
4440000000.000000      4.605255000000000E-01     -5.223046000000000E+01      2.135086000000000E-01      1.390312000000000E+02
4460000000.000000      4.625244000000000E-01     -5.389257000000000E+01      2.123108000000000E-01      1.096992000000000E+02
4480000000.000000      4.585419000000000E-01     -5.579687000000000E+01      2.106323000000000E-01      8.088671000000000E+01
4500000000.000000      4.493103000000000E-01     -5.685741000000000E+01      2.071991000000000E-01      5.285351000000000E+01
4520000000.000000      4.427795000000000E-01     -5.714453000000000E+01      2.046661000000000E-01      2.430957000000000E+01
4540000000.000000      4.444580000000000E-01     -5.745703000000000E+01      1.989365000000000E-01     -3.799927000000000E+00
4560000000.000000      4.497528000000000E-01     -5.767968000000000E+01      1.991425000000000E-01     -3.122070000000000E+01
4580000000.000000      4.598846000000000E-01     -5.859961000000000E+01      2.001495000000000E-01     -6.138672000000000E+01
4600000000.000000      4.664001000000000E-01     -6.028515000000000E+01      1.979446000000000E-01     -9.167578000000000E+01
4620000000.000000      4.688873000000000E-01     -6.161718000000000E+01      1.972427000000000E-01     -1.226172000000000E+02
4640000000.000000      4.689636000000000E-01     -6.316406000000000E+01      1.943283000000000E-01     -1.536094000000000E+02
4660000000.000000      4.722595000000000E-01     -6.414844000000000E+01      1.947327000000000E-01      1.771250000000000E+02
4680000000.000000      4.764557000000000E-01     -6.536718000000000E+01      2.002945000000000E-01      1.471484000000000E+02
4700000000.000000      4.813995000000000E-01     -6.701172000000000E+01      2.022095000000000E-01      1.173633000000000E+02
4720000000.000000      4.838257000000000E-01     -6.888281000000000E+01      2.047501000000000E-01      8.882030000000000E+01
4740000000.000000      4.862976000000000E-01     -7.120703000000000E+01      2.075348000000000E-01      6.028710000000000E+01
4760000000.000000      4.837341000000000E-01     -7.328906000000000E+01      2.069168000000000E-01      3.219727000000000E+01
4780000000.000000      4.803772000000000E-01     -7.555078000000000E+01      2.033997000000000E-01      3.792969000000000E+00
4800000000.000000      4.747009000000000E-01     -7.809765000000000E+01      1.968307000000000E-01     -2.409375000000000E+01
4820000000.000000      4.648285000000000E-01     -8.012499000000000E+01      1.869888000000000E-01     -5.185547000000000E+01
4840000000.000000      4.461212000000000E-01     -8.193359000000000E+01      1.764221000000000E-01     -7.946875000000000E+01
4860000000.000000      4.273071000000000E-01     -8.270702000000000E+01      1.690216000000000E-01     -1.081914000000000E+02
4880000000.000000      4.081879000000000E-01     -8.189453000000000E+01      1.545029000000000E-01     -1.382422000000000E+02
4900000000.000000      3.996582000000000E-01     -7.985937000000000E+01      1.411514000000000E-01     -1.636875000000000E+02
4920000000.000000      4.040680000000000E-01     -7.775781000000000E+01      1.457977000000000E-01      1.715469000000000E+02
4940000000.000000      4.212341000000000E-01     -7.635156000000000E+01      1.587830000000000E-01      1.414063000000000E+02
4960000000.000000      4.471130000000000E-01     -7.682812000000000E+01      1.669998000000000E-01      1.098281000000000E+02
4980000000.000000      4.695282000000000E-01     -7.932031000000000E+01      1.763763000000000E-01      8.035156000000000E+01
5000000000.000000      4.792175000000000E-01     -8.270702000000000E+01      1.876526000000000E-01      5.058984000000000E+01
5020000000.000000      4.763336000000000E-01     -8.571484000000000E+01      1.935349000000000E-01      2.123047000000000E+01
5040000000.000000      4.639435000000000E-01     -8.799608000000000E+01      1.950912000000000E-01     -5.722656000000000E+00
5060000000.000000      4.536438000000000E-01     -8.900391000000000E+01      2.005844000000000E-01     -3.117871000000000E+01
5080000000.000000      4.471436000000000E-01     -8.956249000000000E+01      2.059555000000000E-01     -5.834961000000000E+01
5100000000.000000      4.470673000000000E-01     -9.009766000000000E+01      2.038193000000000E-01     -8.565233000000000E+01
5120000000.000000      4.487915000000000E-01     -9.091406000000000E+01      2.018585000000000E-01     -1.124453000000000E+02
5140000000.000000      4.524384000000000E-01     -9.172266000000000E+01      1.979370000000000E-01     -1.409922000000000E+02
5160000000.000000      4.555359000000000E-01     -9.282812000000000E+01      1.930771000000000E-01     -1.698516000000000E+02
5180000000.000000      4.606781000000000E-01     -9.373047000000000E+01      1.883774000000000E-01      1.601406000000000E+02
5200000000.000000      4.668732000000000E-01     -9.501953000000000E+01      1.846924000000000E-01      1.295078000000000E+02
5220000000.000000      4.705353000000000E-01     -9.662889000000000E+01      1.854706000000000E-01      9.880077000000000E+01
5240000000.000000      4.722595000000000E-01     -9.823437000000000E+01      1.888428000000000E-01      6.773828000000000E+01
5260000000.000000      4.708557000000000E-01     -9.983202000000000E+01      1.929932000000000E-01      3.715234000000000E+01
5280000000.000000      4.674683000000000E-01     -1.011719000000000E+02      1.980972000000000E-01      7.532471000000000E+00
5300000000.000000      4.648895000000000E-01     -1.021914000000000E+02      2.012939000000000E-01     -1.998047000000000E+01
5320000000.000000      4.648895000000000E-01     -1.032851000000000E+02      2.090225000000000E-01     -4.642383000000000E+01
5340000000.000000      4.647522000000000E-01     -1.044727000000000E+02      2.126312000000000E-01     -7.406640000000000E+01
5360000000.000000      4.656677000000000E-01     -1.058906000000000E+02      2.119675000000000E-01     -1.002773000000000E+02
5380000000.000000      4.666595000000000E-01     -1.071484000000000E+02      2.101746000000000E-01     -1.269141000000000E+02
5400000000.000000      4.661407000000000E-01     -1.083164000000000E+02      2.047958000000000E-01     -1.535156000000000E+02
5420000000.000000      4.689026000000000E-01     -1.087969000000000E+02      1.986694000000000E-01      1.793906000000000E+02
5440000000.000000      4.739685000000000E-01     -1.095313000000000E+02      1.925507000000000E-01      1.502266000000000E+02
5460000000.000000      4.816589000000000E-01     -1.106836000000000E+02      1.831131000000000E-01      1.206680000000000E+02
5480000000.000000      4.869537000000000E-01     -1.125391000000000E+02      1.791534000000000E-01      9.006639000000000E+01
5500000000.000000      4.894104000000000E-01     -1.148086000000000E+02      1.782303000000000E-01      5.852539000000000E+01
5520000000.000000      4.846497000000000E-01     -1.171250000000000E+02      1.787872000000000E-01      2.643555000000000E+01
5540000000.000000      4.785767000000000E-01     -1.190117000000000E+02      1.804276000000000E-01     -4.725586000000000E+00
5560000000.000000      4.707794000000000E-01     -1.207227000000000E+02      1.854095000000000E-01     -3.317383000000000E+01
5580000000.000000      4.633942000000000E-01     -1.221250000000000E+02      1.948090000000000E-01     -6.153125000000000E+01
5600000000.000000      4.592133000000000E-01     -1.230586000000000E+02      2.000961000000000E-01     -8.901562000000000E+01
5620000000.000000      4.536285000000000E-01     -1.238672000000000E+02      2.040710000000000E-01     -1.152656000000000E+02
5640000000.000000      4.514771000000000E-01     -1.242226000000000E+02      2.052612000000000E-01     -1.416719000000000E+02
5660000000.000000      4.490662000000000E-01     -1.242891000000000E+02      2.013931000000000E-01     -1.672344000000000E+02
5680000000.000000      4.539642000000000E-01     -1.244180000000000E+02      1.970062000000000E-01      1.663672000000000E+02
5700000000.000000      4.643707000000000E-01     -1.250391000000000E+02      1.886826000000000E-01      1.397578000000000E+02
5720000000.000000      4.759064000000000E-01     -1.264766000000000E+02      1.808014000000000E-01      1.120391000000000E+02
5740000000.000000      4.838257000000000E-01     -1.292578000000000E+02      1.729279000000000E-01      8.202343000000000E+01
5760000000.000000      4.825745000000000E-01     -1.321719000000000E+02      1.645889000000000E-01      4.957812000000000E+01
5780000000.000000      4.735413000000000E-01     -1.346719000000000E+02      1.568069000000000E-01      1.660840000000000E+01
5800000000.000000      4.615021000000000E-01     -1.361484000000000E+02      1.540680000000000E-01     -1.483887000000000E+01
5820000000.000000      4.539642000000000E-01     -1.367578000000000E+02      1.608810000000000E-01     -4.578515000000000E+01
5840000000.000000      4.536743000000000E-01     -1.374453000000000E+02      1.714172000000000E-01     -7.760156000000000E+01
5860000000.000000      4.592133000000000E-01     -1.383672000000000E+02      1.784592000000000E-01     -1.065625000000000E+02
5880000000.000000      4.637604000000000E-01     -1.401641000000000E+02      1.856537000000000E-01     -1.347188000000000E+02
5900000000.000000      4.653473000000000E-01     -1.421328000000000E+02      1.913910000000000E-01     -1.612500000000000E+02
5920000000.000000      4.615021000000000E-01     -1.439609000000000E+02      1.939697000000000E-01      1.722734000000000E+02
5940000000.000000      4.576721000000000E-01     -1.452344000000000E+02      1.893539000000000E-01      1.455703000000000E+02
5960000000.000000      4.527740000000000E-01     -1.466875000000000E+02      1.805725000000000E-01      1.206797000000000E+02
5980000000.000000      4.491272000000000E-01     -1.482188000000000E+02      1.745987000000000E-01      9.438671000000000E+01
6000000000.000000      4.409180000000000E-01     -1.500469000000000E+02      1.634674000000000E-01      6.590625000000000E+01
6020000000.000000      4.268646000000000E-01     -1.516641000000000E+02      1.501465000000000E-01      3.587500000000000E+01
6040000000.000000      4.126892000000000E-01     -1.526562000000000E+02      1.355743000000000E-01      5.168945000000000E+00
6060000000.000000      4.021606000000000E-01     -1.527578000000000E+02      1.279449000000000E-01     -2.483398000000000E+01
6080000000.000000      3.987122000000000E-01     -1.521484000000000E+02      1.327057000000000E-01     -5.685351000000000E+01
