! Network Analyzer HP8722D
! Hewlett-Packard
! Data name: Linha com CNT
! Saver's name: Rodrigo Anjos
! Comments: Teste de deteccao de acetona 0-100ppm a partir de cilindro
! Time and date: 10/9/2025 15:14
!              Frequency                     S11                                                   S21                                                   S12                                                   S22
# HZ  S  MA R 50
3000000000.000000      3.179321000000000E-01      1.969629000000000E+01      1.855392000000000E-01      4.176953000000000E+01
3020000000.000000      3.427734000000000E-01      1.837793000000000E+01      1.893463000000000E-01      1.223730000000000E+01
3040000000.000000      3.522644000000000E-01      1.682226000000000E+01      1.898346000000000E-01     -1.690332000000000E+01
3060000000.000000      3.538818000000000E-01      1.399756000000000E+01      1.899414000000000E-01     -4.651757000000000E+01
3080000000.000000      3.410339000000000E-01      1.195166000000000E+01      1.863708000000000E-01     -7.516015000000000E+01
3100000000.000000      3.399963000000000E-01      1.062061000000000E+01      1.859055000000000E-01     -1.031562000000000E+02
3120000000.000000      3.334045000000000E-01      9.604492000000000E+00      1.852493000000000E-01     -1.317969000000000E+02
3140000000.000000      3.306427000000000E-01      8.708008000000000E+00      1.853485000000000E-01     -1.608594000000000E+02
3160000000.000000      3.241730000000000E-01      7.349854000000000E+00      1.847305000000000E-01      1.691797000000000E+02
3180000000.000000      3.115845000000000E-01      6.480469000000000E+00      1.807938000000000E-01      1.409531000000000E+02
3200000000.000000      2.965088000000000E-01      6.502441000000000E+00      1.773376000000000E-01      1.126836000000000E+02
3220000000.000000      2.720642000000000E-01      9.020996000000000E+00      1.697845000000000E-01      8.487890000000000E+01
3240000000.000000      2.611694000000000E-01      1.506738000000000E+01      1.647034000000000E-01      6.037695000000000E+01
3260000000.000000      2.783508000000000E-01      1.878906000000000E+01      1.732330000000000E-01      3.454102000000000E+01
3280000000.000000      3.021088000000000E-01      2.004590000000000E+01      1.806259000000000E-01      5.195068000000000E+00
3300000000.000000      3.335114000000000E-01      1.858301000000000E+01      1.851120000000000E-01     -2.362793000000000E+01
3320000000.000000      3.550568000000000E-01      1.487549000000000E+01      1.925049000000000E-01     -5.306835000000000E+01
3340000000.000000      3.633118000000000E-01      1.102295000000000E+01      1.969986000000000E-01     -8.347656000000000E+01
3360000000.000000      3.608093000000000E-01      6.863525000000000E+00      1.994400000000000E-01     -1.142773000000000E+02
3380000000.000000      3.492584000000000E-01      4.052490000000000E+00      1.975250000000000E-01     -1.439453000000000E+02
3400000000.000000      3.409424000000000E-01      2.015991000000000E+00      1.967392000000000E-01     -1.728906000000000E+02
3420000000.000000      3.317413000000000E-01      5.163574000000000E-01      1.963806000000000E-01      1.581328000000000E+02
3440000000.000000      3.268280000000000E-01     -7.278442000000000E-02      1.942673000000000E-01      1.298125000000000E+02
3460000000.000000      3.254242000000000E-01     -1.461182000000000E+00      1.963654000000000E-01      1.009609000000000E+02
3480000000.000000      3.215179000000000E-01     -2.433472000000000E+00      1.938324000000000E-01      7.143359000000000E+01
3500000000.000000      3.260040000000000E-01     -2.948486000000000E+00      1.927872000000000E-01      4.357812000000000E+01
3520000000.000000      3.277283000000000E-01     -4.772217000000000E+00      1.937027000000000E-01      1.340186000000000E+01
3540000000.000000      3.331451000000000E-01     -5.421875000000000E+00      1.924362000000000E-01     -1.580957000000000E+01
3560000000.000000      3.399200000000000E-01     -5.814697000000000E+00      1.938629000000000E-01     -4.382421000000000E+01
3580000000.000000      3.376160000000000E-01     -6.041260000000000E+00      1.942825000000000E-01     -7.287499000000000E+01
3600000000.000000      3.399963000000000E-01     -5.751465000000000E+00      1.941910000000000E-01     -1.004375000000000E+02
3620000000.000000      3.459930000000000E-01     -6.267822000000000E+00      1.970825000000000E-01     -1.286953000000000E+02
3640000000.000000      3.514252000000000E-01     -7.371826000000000E+00      1.992493000000000E-01     -1.572031000000000E+02
3660000000.000000      3.546600000000000E-01     -9.506348000000000E+00      2.019272000000000E-01      1.740625000000000E+02
3680000000.000000      3.523254000000000E-01     -1.149902000000000E+01      2.028046000000000E-01      1.454297000000000E+02
3700000000.000000      3.481445000000000E-01     -1.221582000000000E+01      2.069778000000000E-01      1.169570000000000E+02
3720000000.000000      3.443146000000000E-01     -1.279541000000000E+01      2.173691000000000E-01      8.692186000000000E+01
3740000000.000000      3.436890000000000E-01     -1.211963000000000E+01      2.240677000000000E-01      5.673046000000000E+01
3760000000.000000      3.504944000000000E-01     -1.175293000000000E+01      2.348328000000000E-01      2.780762000000000E+01
3780000000.000000      3.544006000000000E-01     -1.298486000000000E+01      2.422409000000000E-01     -1.577942000000000E+00
3800000000.000000      3.539734000000000E-01     -1.459961000000000E+01      2.435074000000000E-01     -3.116894000000000E+01
3820000000.000000      3.441620000000000E-01     -1.612597000000000E+01      2.460327000000000E-01     -6.057422000000000E+01
3840000000.000000      3.318024000000000E-01     -1.654980000000000E+01      2.459717000000000E-01     -8.941797000000000E+01
3860000000.000000      3.228912000000000E-01     -1.610644000000000E+01      2.468033000000000E-01     -1.187891000000000E+02
3880000000.000000      3.216705000000000E-01     -1.539209000000000E+01      2.430801000000000E-01     -1.478594000000000E+02
3900000000.000000      3.318024000000000E-01     -1.725976000000000E+01      2.415543000000000E-01     -1.756875000000000E+02
3920000000.000000      3.262482000000000E-01     -2.057129000000000E+01      2.443695000000000E-01      1.560313000000000E+02
3940000000.000000      3.102570000000000E-01     -2.117090000000000E+01      2.443695000000000E-01      1.272422000000000E+02
3960000000.000000      3.001404000000000E-01     -2.069824000000000E+01      2.440109000000000E-01      9.858202000000000E+01
3980000000.000000      2.964630000000000E-01     -1.839258000000000E+01      2.359695000000000E-01      6.997265000000000E+01
4000000000.000000      3.080750000000000E-01     -1.695117000000000E+01      2.305908000000000E-01      4.444921000000000E+01
4020000000.000000      3.155823000000000E-01     -1.847168000000000E+01      2.353363000000000E-01      1.699414000000000E+01
4040000000.000000      3.239594000000000E-01     -1.877344000000000E+01      2.281799000000000E-01     -1.243408000000000E+01
4060000000.000000      3.410187000000000E-01     -2.227930000000000E+01      2.183990000000000E-01     -4.073047000000000E+01
4080000000.000000      3.434601000000000E-01     -2.726953000000000E+01      2.156982000000000E-01     -6.965625000000000E+01
4100000000.000000      3.316040000000000E-01     -3.115625000000000E+01      2.140274000000000E-01     -9.932030000000000E+01
4120000000.000000      3.136444000000000E-01     -3.416992000000000E+01      2.105255000000000E-01     -1.302578000000000E+02
4140000000.000000      2.961273000000000E-01     -3.416797000000000E+01      1.999435000000000E-01     -1.582813000000000E+02
4160000000.000000      2.922516000000000E-01     -3.330273000000000E+01      1.989594000000000E-01      1.752344000000000E+02
4180000000.000000      2.930145000000000E-01     -3.287695000000000E+01      2.010269000000000E-01      1.461406000000000E+02
4200000000.000000      2.958832000000000E-01     -3.214844000000000E+01      1.965027000000000E-01      1.174141000000000E+02
4220000000.000000      3.041534000000000E-01     -3.248828000000000E+01      1.940079000000000E-01      8.957031000000000E+01
4240000000.000000      3.040009000000000E-01     -3.383398000000000E+01      1.835403000000000E-01      6.097656000000000E+01
4260000000.000000      3.056335000000000E-01     -3.395703000000000E+01      1.731033000000000E-01      3.472265000000000E+01
4280000000.000000      3.057098000000000E-01     -3.396289000000000E+01      1.711273000000000E-01      7.463623000000000E+00
4300000000.000000      3.068542000000000E-01     -3.391211000000000E+01      1.678696000000000E-01     -2.104492000000000E+01
4320000000.000000      3.121338000000000E-01     -3.356640000000000E+01      1.650543000000000E-01     -4.982226000000000E+01
4340000000.000000      3.268127000000000E-01     -3.486523000000000E+01      1.615448000000000E-01     -7.931250000000000E+01
4360000000.000000      3.347626000000000E-01     -3.713476000000000E+01      1.577988000000000E-01     -1.091484000000000E+02
4380000000.000000      3.291626000000000E-01     -4.002734000000000E+01      1.520538000000000E-01     -1.388359000000000E+02
4400000000.000000      3.213654000000000E-01     -4.165429000000000E+01      1.481094000000000E-01     -1.668125000000000E+02
4420000000.000000      3.179321000000000E-01     -4.087110000000000E+01      1.492767000000000E-01      1.648281000000000E+02
4440000000.000000      3.204346000000000E-01     -4.112305000000000E+01      1.480179000000000E-01      1.355625000000000E+02
4460000000.000000      3.237762000000000E-01     -4.060156000000000E+01      1.459351000000000E-01      1.069844000000000E+02
4480000000.000000      3.684540000000000E-01     -4.725781000000000E+01      1.424866000000000E-01      7.883984000000000E+01
4500000000.000000      3.897247000000000E-01     -5.209374000000000E+01      1.384964000000000E-01      5.211328000000000E+01
4520000000.000000      3.888092000000000E-01     -5.463281000000000E+01      1.349182000000000E-01      2.501269000000000E+01
4540000000.000000      3.787842000000000E-01     -5.389648000000000E+01      1.303787000000000E-01     -1.716614000000000E+00
4560000000.000000      3.912506000000000E-01     -5.295703000000000E+01      1.286316000000000E-01     -2.827148000000000E+01
4580000000.000000      4.039612000000000E-01     -5.412109000000000E+01      1.277008000000000E-01     -5.758007000000000E+01
4600000000.000000      4.131775000000000E-01     -5.592382000000000E+01      1.256104000000000E-01     -8.783594000000000E+01
4620000000.000000      4.201813000000000E-01     -5.824609000000000E+01      1.231232000000000E-01     -1.187266000000000E+02
4640000000.000000      4.198608000000000E-01     -6.012695000000000E+01      1.205177000000000E-01     -1.492578000000000E+02
4660000000.000000      4.234924000000000E-01     -6.156445000000000E+01      1.224937000000000E-01     -1.784531000000000E+02
4680000000.000000      4.315491000000000E-01     -6.284961000000000E+01      1.270676000000000E-01      1.513125000000000E+02
4700000000.000000      4.387207000000000E-01     -6.466406000000000E+01      1.305771000000000E-01      1.214531000000000E+02
4720000000.000000      4.769135000000000E-01     -6.893749000000000E+01      1.315155000000000E-01      9.357813000000000E+01
4740000000.000000      4.738312000000000E-01     -7.114062000000000E+01      1.345596000000000E-01      6.591797000000000E+01
4760000000.000000      4.694824000000000E-01     -7.333593000000000E+01      1.375046000000000E-01      3.853125000000000E+01
4780000000.000000      4.635773000000000E-01     -7.550390000000000E+01      1.385498000000000E-01      1.166846000000000E+01
4800000000.000000      4.551697000000000E-01     -7.802734000000000E+01      1.372223000000000E-01     -1.483057000000000E+01
4820000000.000000      4.424133000000000E-01     -8.032421000000000E+01      1.369553000000000E-01     -4.274610000000000E+01
4840000000.000000      4.217072000000000E-01     -8.178514000000000E+01      1.351929000000000E-01     -7.064062000000000E+01
4860000000.000000      4.023285000000000E-01     -8.214062000000000E+01      1.370316000000000E-01     -1.012305000000000E+02
4880000000.000000      3.836060000000000E-01     -8.096483000000000E+01      1.270523000000000E-01     -1.305938000000000E+02
4900000000.000000      3.851929000000000E-01     -7.904687000000000E+01      1.203346000000000E-01     -1.577891000000000E+02
4920000000.000000      3.951263000000000E-01     -7.740234000000000E+01      1.272430000000000E-01      1.753984000000000E+02
4940000000.000000      4.185944000000000E-01     -7.607031000000000E+01      1.413269000000000E-01      1.445859000000000E+02
4960000000.000000      4.514618000000000E-01     -7.673828000000000E+01      1.518707000000000E-01      1.118164000000000E+02
4980000000.000000      4.782257000000000E-01     -7.975390000000000E+01      1.605835000000000E-01      8.144140000000000E+01
5000000000.000000      4.886627000000000E-01     -8.381250000000000E+01      1.719055000000000E-01      5.035546000000000E+01
5020000000.000000      4.796753000000000E-01     -8.728516000000000E+01      1.839142000000000E-01      1.871191000000000E+01
5040000000.000000      4.589539000000000E-01     -8.916016000000000E+01      1.928101000000000E-01     -8.340332000000000E+00
5060000000.000000      4.455566000000000E-01     -8.919531000000000E+01      2.019119000000000E-01     -3.381836000000000E+01
5080000000.000000      4.414673000000000E-01     -8.883984000000000E+01      2.081299000000000E-01     -6.077343000000000E+01
5100000000.000000      4.388275000000000E-01     -8.838671000000000E+01      2.065048000000000E-01     -8.787889000000000E+01
5120000000.000000      4.268951000000000E-01     -8.905077000000000E+01      2.038727000000000E-01     -1.143984000000000E+02
5140000000.000000      4.194489000000000E-01     -8.915625000000000E+01      1.995773000000000E-01     -1.424375000000000E+02
5160000000.000000      4.036407000000000E-01     -8.858202000000000E+01      1.935043000000000E-01     -1.715000000000000E+02
5180000000.000000      3.981476000000000E-01     -8.867188000000000E+01      1.884613000000000E-01      1.583672000000000E+02
5200000000.000000      3.853455000000000E-01     -8.806641000000000E+01      1.852341000000000E-01      1.272734000000000E+02
5220000000.000000      3.329163000000000E-01     -8.397655000000000E+01      1.848145000000000E-01      9.617188000000000E+01
5240000000.000000      3.050842000000000E-01     -8.344921000000000E+01      1.881485000000000E-01      6.460155000000000E+01
5260000000.000000      2.555389000000000E-01     -7.869141000000000E+01      1.928329000000000E-01      3.376367000000000E+01
5280000000.000000      1.651688000000000E-01     -5.256445000000000E+01      1.980362000000000E-01      4.555176000000000E+00
5300000000.000000      1.673126000000000E-01     -4.648046000000000E+01      2.020416000000000E-01     -2.264160000000000E+01
5320000000.000000      1.741638000000000E-01     -5.084179000000000E+01      2.075195000000000E-01     -4.889062000000000E+01
5340000000.000000      1.692352000000000E-01     -5.385547000000000E+01      2.112885000000000E-01     -7.546484000000000E+01
5360000000.000000      1.703110000000000E-01     -5.713476000000000E+01      2.102585000000000E-01     -1.016133000000000E+02
5380000000.000000      1.583633000000000E-01     -6.097461000000000E+01      1.987991000000000E-01     -1.267773000000000E+02
5400000000.000000      1.535873000000000E-01     -5.762500000000000E+01      1.898880000000000E-01     -1.503438000000000E+02
5420000000.000000      1.677933000000000E-01     -5.780663000000000E+01      1.834412000000000E-01     -1.770156000000000E+02
5440000000.000000      1.746902000000000E-01     -6.145508000000000E+01      1.767349000000000E-01      1.538672000000000E+02
5460000000.000000      1.838455000000000E-01     -6.626171000000000E+01      1.666489000000000E-01      1.236328000000000E+02
5480000000.000000      1.845551000000000E-01     -7.473046000000000E+01      1.608200000000000E-01      9.222265000000000E+01
5500000000.000000      1.652908000000000E-01     -8.132813000000000E+01      1.592941000000000E-01      6.003320000000000E+01
5520000000.000000      1.450577000000000E-01     -8.620312000000000E+01      1.603775000000000E-01      2.728027000000000E+01
5540000000.000000      1.130829000000000E-01     -8.591406000000000E+01      1.637878000000000E-01     -4.006104000000000E+00
5560000000.000000      1.034508000000000E-01     -7.764062000000000E+01      1.705933000000000E-01     -3.290039000000000E+01
5580000000.000000      1.015091000000000E-01     -7.539844000000000E+01      1.800919000000000E-01     -6.101367000000000E+01
5600000000.000000      9.401321000000000E-02     -6.912890000000000E+01      1.869888000000000E-01     -8.785547000000000E+01
5620000000.000000      1.017151000000000E-01     -6.143555000000000E+01      1.918640000000000E-01     -1.138789000000000E+02
5640000000.000000      1.124153000000000E-01     -5.690820000000000E+01      1.931686000000000E-01     -1.402422000000000E+02
5660000000.000000      1.342239000000000E-01     -5.473633000000000E+01      1.906357000000000E-01     -1.655000000000000E+02
5680000000.000000      1.622162000000000E-01     -5.958202000000000E+01      1.899033000000000E-01      1.682734000000000E+02
5700000000.000000      1.841736000000000E-01     -6.921484000000000E+01      1.793213000000000E-01      1.428750000000000E+02
5720000000.000000      1.910095000000000E-01     -8.229687000000000E+01      1.657791000000000E-01      1.166719000000000E+02
5740000000.000000      1.743088000000000E-01     -9.555468000000000E+01      1.523514000000000E-01      8.797655000000000E+01
5760000000.000000      1.446533000000000E-01     -1.050859000000000E+02      1.374359000000000E-01      5.597656000000000E+01
5780000000.000000      1.086426000000000E-01     -1.086875000000000E+02      1.250381000000000E-01      2.257324000000000E+01
5800000000.000000      8.784866000000000E-02     -9.592188000000000E+01      1.201553000000000E-01     -1.073096000000000E+01
5820000000.000000      9.815598000000000E-02     -8.796484000000000E+01      1.270828000000000E-01     -4.416797000000000E+01
5840000000.000000      1.078186000000000E-01     -9.115234000000000E+01      1.397934000000000E-01     -7.708202000000000E+01
5860000000.000000      1.178741000000000E-01     -9.918749000000000E+01      1.518250000000000E-01     -1.071250000000000E+02
5880000000.000000      1.115150000000000E-01     -1.137226000000000E+02      1.626511000000000E-01     -1.345859000000000E+02
5900000000.000000      8.604050000000000E-02     -1.217851000000000E+02      1.716614000000000E-01     -1.602031000000000E+02
5920000000.000000      6.758118000000000E-02     -1.189023000000000E+02      1.765366000000000E-01      1.750547000000000E+02
5940000000.000000      5.599022000000000E-02     -1.080547000000000E+02      1.777649000000000E-01      1.487500000000000E+02
5960000000.000000      5.826950000000000E-02     -9.860546000000000E+01      1.800308000000000E-01      1.204297000000000E+02
5980000000.000000      5.266190000000000E-02     -1.063477000000000E+02      1.764297000000000E-01      9.388281000000000E+01
6000000000.000000      2.650261000000000E-02     -9.697266000000000E+01      1.712418000000000E-01      6.334179000000000E+01
6020000000.000000      2.588272000000000E-02     -2.898535000000000E+01      1.584702000000000E-01      3.315039000000000E+01
6040000000.000000      5.877876000000000E-02     -8.989746000000000E+00      1.415405000000000E-01      2.878418000000000E+00
6060000000.000000      1.010132000000000E-01     -2.138086000000000E+01      1.323624000000000E-01     -2.807617000000000E+01
6080000000.000000      1.271286000000000E-01     -3.978125000000000E+01      1.353531000000000E-01     -6.139453000000000E+01
