! Network Analyzer HP8722D
! Hewlett-Packard
! Data name: Linha com CNT
! Saver's name: Rodrigo Anjos
! Comments: Teste de deteccao de acetona 0-100ppm a partir de cilindro
! Time and date: 10/9/2025 18:02
!              Frequency                     S11                                                   S21                                                   S12                                                   S22
# HZ  S  MA R 50
3000000000.000000      8.167267000000000E-02      9.056250000000000E+01      4.542694000000000E-01      2.476367000000000E+01
3020000000.000000      9.646225000000000E-02      7.600780000000000E+01      4.543762000000000E-01     -3.979858000000000E+00
3040000000.000000      9.639359000000000E-02      6.030078000000000E+01      4.548035000000000E-01     -3.304296000000000E+01
3060000000.000000      8.233261000000000E-02      4.607812000000000E+01      4.527588000000000E-01     -6.153515000000000E+01
3080000000.000000      6.150246000000000E-02      3.751562000000000E+01      4.534149000000000E-01     -9.023046000000000E+01
3100000000.000000      4.488182000000000E-02      4.117383000000000E+01      4.508057000000000E-01     -1.185742000000000E+02
3120000000.000000      4.034424000000000E-02      5.386328000000000E+01      4.478760000000000E-01     -1.470391000000000E+02
3140000000.000000      3.990173000000000E-02      5.784374000000000E+01      4.448700000000000E-01     -1.756484000000000E+02
3160000000.000000      3.139496000000000E-02      6.058594000000000E+01      4.411621000000000E-01      1.558125000000000E+02
3180000000.000000      2.201653000000000E-02      1.069141000000000E+02      4.409943000000000E-01      1.273047000000000E+02
3200000000.000000      5.424500000000000E-02      1.421953000000000E+02      4.358063000000000E-01      9.769920000000000E+01
3220000000.000000      1.047478000000000E-01      1.357656000000000E+02      4.239197000000000E-01      6.835546000000000E+01
3240000000.000000      1.560364000000000E-01      1.211641000000000E+02      4.114838000000000E-01      4.103125000000000E+01
3260000000.000000      1.974869000000000E-01      1.047461000000000E+02      4.149475000000000E-01      1.379736000000000E+01
3280000000.000000      2.237244000000000E-01      8.810156000000000E+01      4.187469000000000E-01     -1.557080000000000E+01
3300000000.000000      2.322769000000000E-01      7.170312000000000E+01      4.141541000000000E-01     -4.418750000000000E+01
3320000000.000000      2.270279000000000E-01      5.671288000000000E+01      4.166260000000000E-01     -7.186328000000000E+01
3340000000.000000      2.100601000000000E-01      4.438477000000000E+01      4.225616000000000E-01     -1.008047000000000E+02
3360000000.000000      1.866226000000000E-01      3.536914000000000E+01      4.239197000000000E-01     -1.289844000000000E+02
3380000000.000000      1.628952000000000E-01      3.054688000000000E+01      4.272461000000000E-01     -1.573281000000000E+02
3400000000.000000      1.441116000000000E-01      2.859961000000000E+01      4.296112000000000E-01      1.739531000000000E+02
3420000000.000000      1.294250000000000E-01      2.843750000000000E+01      4.320679000000000E-01      1.454531000000000E+02
3440000000.000000      1.170845000000000E-01      2.874707000000000E+01      4.306641000000000E-01      1.164063000000000E+02
3460000000.000000      1.055870000000000E-01      3.070117000000000E+01      4.278870000000000E-01      8.801172000000000E+01
3480000000.000000      9.898376000000000E-02      3.381054000000000E+01      4.287262000000000E-01      5.941406000000000E+01
3500000000.000000      9.645462000000000E-02      3.684765000000000E+01      4.241333000000000E-01      3.019824000000000E+01
3520000000.000000      9.477234000000000E-02      3.959570000000000E+01      4.207001000000000E-01      2.385376000000000E+00
3540000000.000000      9.497833000000000E-02      4.316015000000000E+01      4.237671000000000E-01     -2.642285000000000E+01
3560000000.000000      9.797287000000000E-02      4.866211000000000E+01      4.259796000000000E-01     -5.539648000000000E+01
3580000000.000000      1.066475000000000E-01      5.334179000000000E+01      4.240723000000000E-01     -8.425781000000000E+01
3600000000.000000      1.211052000000000E-01      5.403320000000000E+01      4.230957000000000E-01     -1.124805000000000E+02
3620000000.000000      1.345062000000000E-01      5.073632000000000E+01      4.255219000000000E-01     -1.407422000000000E+02
3640000000.000000      1.397018000000000E-01      4.428124000000000E+01      4.249115000000000E-01     -1.689766000000000E+02
3660000000.000000      1.333084000000000E-01      3.779297000000000E+01      4.227295000000000E-01      1.631641000000000E+02
3680000000.000000      1.201897000000000E-01      3.484179000000000E+01      4.275360000000000E-01      1.354375000000000E+02
3700000000.000000      1.079178000000000E-01      3.871289000000000E+01      4.294281000000000E-01      1.070313000000000E+02
3720000000.000000      1.103592000000000E-01      4.694140000000000E+01      4.279785000000000E-01      7.833984000000000E+01
3740000000.000000      1.290741000000000E-01      5.006054000000000E+01      4.225616000000000E-01      4.978516000000000E+01
3760000000.000000      1.474762000000000E-01      4.621289000000000E+01      4.152832000000000E-01      2.191406000000000E+01
3780000000.000000      1.540604000000000E-01      3.852148000000000E+01      4.163666000000000E-01     -5.745850000000000E+00
3800000000.000000      1.449432000000000E-01      3.138769000000000E+01      4.163971000000000E-01     -3.423633000000000E+01
3820000000.000000      1.261520000000000E-01      2.898926000000000E+01      4.163055000000000E-01     -6.296288000000000E+01
3840000000.000000      1.122093000000000E-01      3.456250000000000E+01      4.163055000000000E-01     -9.208984000000000E+01
3860000000.000000      1.183815000000000E-01      4.240820000000000E+01      4.140472000000000E-01     -1.209023000000000E+02
3880000000.000000      1.374283000000000E-01      4.316406000000000E+01      4.120026000000000E-01     -1.500391000000000E+02
3900000000.000000      1.512222000000000E-01      3.710351000000000E+01      4.040222000000000E-01     -1.783984000000000E+02
3920000000.000000      1.482468000000000E-01      2.952832000000000E+01      4.050446000000000E-01      1.542031000000000E+02
3940000000.000000      1.305313000000000E-01      2.609472000000000E+01      4.137268000000000E-01      1.259492000000000E+02
3960000000.000000      1.128616000000000E-01      3.266602000000000E+01      4.131775000000000E-01      9.666796000000000E+01
3980000000.000000      1.205673000000000E-01      4.531446000000000E+01      4.053955000000000E-01      6.799999000000000E+01
4000000000.000000      1.520157000000000E-01      4.837109000000000E+01      3.982849000000000E-01      4.103125000000000E+01
4020000000.000000      1.836700000000000E-01      4.092969000000000E+01      4.047546000000000E-01      1.308984000000000E+01
4040000000.000000      2.007065000000000E-01      2.858593000000000E+01      4.065399000000000E-01     -1.689160000000000E+01
4060000000.000000      1.932526000000000E-01      1.475830000000000E+01      3.900452000000000E-01     -4.554296000000000E+01
4080000000.000000      1.634445000000000E-01      1.951416000000000E+00      3.887634000000000E-01     -7.245703000000000E+01
4100000000.000000      1.181374000000000E-01     -4.515381000000000E+00      3.999023000000000E-01     -1.011914000000000E+02
4120000000.000000      7.852173000000000E-02      7.261963000000000E+00      3.982697000000000E-01     -1.313906000000000E+02
4140000000.000000      7.890701000000000E-02      3.470117000000000E+01      3.940582000000000E-01     -1.601328000000000E+02
4160000000.000000      1.029625000000000E-01      4.287499000000000E+01      3.948822000000000E-01      1.719922000000000E+02
4180000000.000000      1.200180000000000E-01      3.991796000000000E+01      4.011841000000000E-01      1.433516000000000E+02
4200000000.000000      1.220169000000000E-01      3.713867000000000E+01      4.008331000000000E-01      1.134101000000000E+02
4220000000.000000      1.213913000000000E-01      3.901953000000000E+01      3.952332000000000E-01      8.429688000000000E+01
4240000000.000000      1.311111000000000E-01      4.466601000000000E+01      3.895721000000000E-01      5.581445000000000E+01
4260000000.000000      1.558304000000000E-01      4.581640000000000E+01      3.852997000000000E-01      2.780566000000000E+01
4280000000.000000      1.811142000000000E-01      4.121484000000000E+01      3.856354000000000E-01     -5.259705000000000E-01
4300000000.000000      1.959457000000000E-01      3.313086000000000E+01      3.818817000000000E-01     -2.930664000000000E+01
4320000000.000000      1.956024000000000E-01      2.535645000000000E+01      3.798523000000000E-01     -5.792578000000000E+01
4340000000.000000      1.817093000000000E-01      2.018847000000000E+01      3.787842000000000E-01     -8.695313000000000E+01
4360000000.000000      1.685791000000000E-01      1.956250000000000E+01      3.762360000000000E-01     -1.161836000000000E+02
4380000000.000000      1.683807000000000E-01      2.193262000000000E+01      3.738556000000000E-01     -1.456328000000000E+02
4400000000.000000      1.789474000000000E-01      2.142969000000000E+01      3.697815000000000E-01     -1.746953000000000E+02
4420000000.000000      1.880035000000000E-01      1.713867000000000E+01      3.720551000000000E-01      1.563672000000000E+02
4440000000.000000      1.847458000000000E-01      1.149170000000000E+01      3.732605000000000E-01      1.264375000000000E+02
4460000000.000000      1.688232000000000E-01      8.649902000000000E+00      3.679962000000000E-01      9.703905000000000E+01
4480000000.000000      1.516800000000000E-01      1.228955000000000E+01      3.648529000000000E-01      6.852734000000000E+01
4500000000.000000      1.545334000000000E-01      2.078320000000000E+01      3.641052000000000E-01      3.959179000000000E+01
4520000000.000000      1.797791000000000E-01      2.457617000000000E+01      3.611145000000000E-01      1.027051000000000E+01
4540000000.000000      2.093735000000000E-01      2.058105000000000E+01      3.520966000000000E-01     -1.922656000000000E+01
4560000000.000000      2.287064000000000E-01      1.273438000000000E+01      3.449097000000000E-01     -4.742773000000000E+01
4580000000.000000      2.333069000000000E-01      4.204834000000000E+00      3.479614000000000E-01     -7.665625000000000E+01
4600000000.000000      2.260590000000000E-01     -2.789185000000000E+00      3.440704000000000E-01     -1.065625000000000E+02
4620000000.000000      2.148666000000000E-01     -7.105469000000000E+00      3.379517000000000E-01     -1.359844000000000E+02
4640000000.000000      2.092590000000000E-01     -9.732910000000000E+00      3.386688000000000E-01     -1.655078000000000E+02
4660000000.000000      2.083359000000000E-01     -1.278711000000000E+01      3.373108000000000E-01      1.653359000000000E+02
4680000000.000000      2.073898000000000E-01     -1.765918000000000E+01      3.417053000000000E-01      1.361016000000000E+02
4700000000.000000      1.999435000000000E-01     -2.414941000000000E+01      3.404846000000000E-01      1.067109000000000E+02
4720000000.000000      1.835632000000000E-01     -3.069921000000000E+01      3.370819000000000E-01      7.853906000000000E+01
4740000000.000000      1.627884000000000E-01     -3.650000000000000E+01      3.442535000000000E-01      5.075195000000000E+01
4760000000.000000      1.392136000000000E-01     -4.133398000000000E+01      3.445587000000000E-01      2.205761000000000E+01
4780000000.000000      1.140137000000000E-01     -4.578125000000000E+01      3.410645000000000E-01     -6.442139000000000E+00
4800000000.000000      8.206177000000000E-02     -4.933594000000000E+01      3.378143000000000E-01     -3.498047000000000E+01
4820000000.000000      3.923035000000000E-02     -4.061523000000000E+01      3.307800000000000E-01     -6.404687000000000E+01
4840000000.000000      3.968239000000000E-02      4.930664000000000E+01      3.246918000000000E-01     -9.304688000000000E+01
4860000000.000000      1.058846000000000E-01      5.808594000000000E+01      3.178864000000000E-01     -1.236992000000000E+02
4880000000.000000      1.762924000000000E-01      4.644336000000000E+01      2.987061000000000E-01     -1.547031000000000E+02
4900000000.000000      2.356339000000000E-01      3.145215000000000E+01      2.758026000000000E-01      1.779063000000000E+02
4920000000.000000      2.778168000000000E-01      1.550537000000000E+01      2.756653000000000E-01      1.525938000000000E+02
4940000000.000000      2.979736000000000E-01      2.636719000000000E-01      2.889252000000000E-01      1.240625000000000E+02
4960000000.000000      2.948608000000000E-01     -1.489502000000000E+01      2.922058000000000E-01      9.407812000000000E+01
4980000000.000000      2.691040000000000E-01     -2.797949000000000E+01      2.965851000000000E-01      6.692577000000000E+01
5000000000.000000      2.260818000000000E-01     -3.774414000000000E+01      3.100433000000000E-01      3.945898000000000E+01
5020000000.000000      1.794662000000000E-01     -4.017187000000000E+01      3.208160000000000E-01      1.118945000000000E+01
5040000000.000000      1.506958000000000E-01     -3.325195000000000E+01      3.280182000000000E-01     -1.626758000000000E+01
5060000000.000000      1.520157000000000E-01     -2.383301000000000E+01      3.368683000000000E-01     -4.366992000000000E+01
5080000000.000000      1.680603000000000E-01     -2.086230000000000E+01      3.421783000000000E-01     -7.208593000000000E+01
5100000000.000000      1.817703000000000E-01     -2.317090000000000E+01      3.374329000000000E-01     -1.007305000000000E+02
5120000000.000000      1.869431000000000E-01     -2.714258000000000E+01      3.321991000000000E-01     -1.281406000000000E+02
5140000000.000000      1.882553000000000E-01     -3.044043000000000E+01      3.309784000000000E-01     -1.564766000000000E+02
5160000000.000000      1.893539000000000E-01     -3.338476000000000E+01      3.288116000000000E-01      1.741875000000000E+02
5180000000.000000      1.916199000000000E-01     -3.654687000000000E+01      3.254395000000000E-01      1.446563000000000E+02
5200000000.000000      1.918564000000000E-01     -4.073632000000000E+01      3.237000000000000E-01      1.148125000000000E+02
5220000000.000000      1.874161000000000E-01     -4.450195000000000E+01      3.233643000000000E-01      8.526171000000000E+01
5240000000.000000      1.782227000000000E-01     -4.682617000000000E+01      3.275146000000000E-01      5.573047000000000E+01
5260000000.000000      1.722031000000000E-01     -4.696485000000000E+01      3.314514000000000E-01      2.597363000000000E+01
5280000000.000000      1.699982000000000E-01     -4.601563000000000E+01      3.363037000000000E-01     -2.881226000000000E+00
5300000000.000000      1.745453000000000E-01     -4.632813000000000E+01      3.380432000000000E-01     -3.118750000000000E+01
5320000000.000000      1.782303000000000E-01     -4.901172000000000E+01      3.421173000000000E-01     -5.841210000000000E+01
5340000000.000000      1.759491000000000E-01     -5.263866000000000E+01      3.455811000000000E-01     -8.626171000000000E+01
5360000000.000000      1.688156000000000E-01     -5.578125000000000E+01      3.407440000000000E-01     -1.137656000000000E+02
5380000000.000000      1.620483000000000E-01     -5.665234000000000E+01      3.373566000000000E-01     -1.403125000000000E+02
5400000000.000000      1.617661000000000E-01     -5.627148000000000E+01      3.370361000000000E-01     -1.679844000000000E+02
5420000000.000000      1.699677000000000E-01     -5.628320000000000E+01      3.308411000000000E-01      1.636562000000000E+02
5440000000.000000      1.813049000000000E-01     -5.926952000000000E+01      3.250122000000000E-01      1.348438000000000E+02
5460000000.000000      1.867905000000000E-01     -6.483984000000000E+01      3.165283000000000E-01      1.051758000000000E+02
5480000000.000000      1.821289000000000E-01     -7.131640000000000E+01      3.114471000000000E-01      7.584765000000000E+01
5500000000.000000      1.665802000000000E-01     -7.692187000000000E+01      3.124084000000000E-01      4.635351000000000E+01
5520000000.000000      1.450348000000000E-01     -7.992188000000000E+01      3.141937000000000E-01      1.645703000000000E+01
5540000000.000000      1.267624000000000E-01     -7.896874000000000E+01      3.175659000000000E-01     -1.326074000000000E+01
5560000000.000000      1.147461000000000E-01     -7.560156000000000E+01      3.223572000000000E-01     -4.228516000000000E+01
5580000000.000000      1.088524000000000E-01     -7.107422000000000E+01      3.282776000000000E-01     -7.097656000000000E+01
5600000000.000000      1.064682000000000E-01     -6.612499000000000E+01      3.320313000000000E-01     -9.888672000000000E+01
5620000000.000000      1.092110000000000E-01     -5.918750000000000E+01      3.343658000000000E-01     -1.268945000000000E+02
5640000000.000000      1.240883000000000E-01     -5.338281000000000E+01      3.326263000000000E-01     -1.546797000000000E+02
5660000000.000000      1.490631000000000E-01     -5.286523000000000E+01      3.277130000000000E-01      1.780313000000000E+02
5680000000.000000      1.754608000000000E-01     -5.805859000000000E+01      3.207703000000000E-01      1.500937000000000E+02
5700000000.000000      1.936340000000000E-01     -6.741796000000000E+01      3.095551000000000E-01      1.216992000000000E+02
5720000000.000000      1.966553000000000E-01     -7.875000000000000E+01      2.988586000000000E-01      9.417578000000000E+01
5740000000.000000      1.823120000000000E-01     -8.994921000000000E+01      2.948914000000000E-01      6.565624000000000E+01
5760000000.000000      1.557770000000000E-01     -9.827343000000000E+01      2.918549000000000E-01      3.491796000000000E+01
5780000000.000000      1.266556000000000E-01     -9.988670000000000E+01      2.874756000000000E-01      4.840820000000000E+00
5800000000.000000      1.112137000000000E-01     -9.290625000000000E+01      2.886505000000000E-01     -2.504101000000000E+01
5820000000.000000      1.153984000000000E-01     -8.748047000000000E+01      2.937622000000000E-01     -5.505468000000000E+01
5840000000.000000      1.253967000000000E-01     -8.989061000000000E+01      3.014526000000000E-01     -8.535547000000000E+01
5860000000.000000      1.277847000000000E-01     -9.740234000000000E+01      3.006134000000000E-01     -1.145273000000000E+02
5880000000.000000      1.177902000000000E-01     -1.070469000000000E+02      3.014374000000000E-01     -1.420469000000000E+02
5900000000.000000      9.843445000000000E-02     -1.131328000000000E+02      3.095245000000000E-01     -1.691328000000000E+02
5920000000.000000      7.822037000000000E-02     -1.114414000000000E+02      3.134155000000000E-01      1.623594000000000E+02
5940000000.000000      7.045746000000000E-02     -1.018906000000000E+02      3.080139000000000E-01      1.336328000000000E+02
5960000000.000000      6.998825000000000E-02     -9.676952000000000E+01      2.959900000000000E-01      1.054726000000000E+02
5980000000.000000      6.435776000000000E-02     -9.613281000000000E+01      2.884674000000000E-01      7.817968000000000E+01
6000000000.000000      4.866409000000000E-02     -8.799999000000000E+01      2.846680000000000E-01      4.859375000000000E+01
6020000000.000000      4.080391000000000E-02     -5.471874000000000E+01      2.754059000000000E-01      1.775879000000000E+01
6040000000.000000      6.460190000000000E-02     -3.010839000000000E+01      2.639008000000000E-01     -1.227197000000000E+01
6060000000.000000      9.894562000000000E-02     -3.208789000000000E+01      2.598419000000000E-01     -4.198632000000000E+01
6080000000.000000      1.274109000000000E-01     -4.327734000000000E+01      2.661438000000000E-01     -7.227734000000000E+01
