! Network Analyzer HP8722D
! Hewlett-Packard
! Data name: Linha com CNT
! Saver's name: Rodrigo Anjos
! Comments: Teste de deteccao de acetona 0-100ppm a partir de cilindro
! Time and date: 10/9/2025 15:35
!              Frequency                     S11                                                   S21                                                   S12                                                   S22
# HZ  S  MA R 50
3000000000.000000      5.220337000000000E-01      1.310254000000000E+01      2.097015000000000E-01      3.790234000000000E+01
3020000000.000000      5.270386000000000E-01      1.254346000000000E+01      2.144623000000000E-01      8.295898000000000E+00
3040000000.000000      5.328369000000000E-01      1.157666000000000E+01      2.142563000000000E-01     -2.101074000000000E+01
3060000000.000000      5.369568000000000E-01      1.015234000000000E+01      2.148972000000000E-01     -5.028515000000000E+01
3080000000.000000      5.380249000000000E-01      8.764160000000000E+00      2.105560000000000E-01     -7.917187000000000E+01
3100000000.000000      5.344543000000000E-01      7.423828000000000E+00      2.094574000000000E-01     -1.070195000000000E+02
3120000000.000000      5.331726000000000E-01      6.229248000000000E+00      2.089386000000000E-01     -1.355469000000000E+02
3140000000.000000      5.330811000000000E-01      5.427246000000000E+00      2.056732000000000E-01     -1.640781000000000E+02
3160000000.000000      5.353394000000000E-01      4.030518000000000E+00      2.022095000000000E-01      1.672266000000000E+02
3180000000.000000      5.311279000000000E-01      3.180542000000000E+00      1.964493000000000E-01      1.393437000000000E+02
3200000000.000000      5.253906000000000E-01      2.125854000000000E+00      1.927185000000000E-01      1.111133000000000E+02
3220000000.000000      5.139465000000000E-01      1.672668000000000E+00      1.842194000000000E-01      8.276171000000000E+01
3240000000.000000      5.094910000000000E-01      1.701477000000000E+00      1.785202000000000E-01      5.774414000000000E+01
3260000000.000000      5.086975000000000E-01      2.199951000000000E+00      1.871033000000000E-01      3.223633000000000E+01
3280000000.000000      5.128174000000000E-01      2.533691000000000E+00      1.947937000000000E-01      2.551514000000000E+00
3300000000.000000      5.261230000000000E-01      2.083252000000000E+00      1.984787000000000E-01     -2.613379000000000E+01
3320000000.000000      5.408020000000000E-01      1.157654000000000E+00      2.062988000000000E-01     -5.525391000000000E+01
3340000000.000000      5.513000000000000E-01     -3.872681000000000E-01      2.106857000000000E-01     -8.536718000000000E+01
3360000000.000000      5.560303000000000E-01     -2.047607000000000E+00      2.128372000000000E-01     -1.151836000000000E+02
3380000000.000000      5.555115000000000E-01     -3.703857000000000E+00      2.115784000000000E-01     -1.447734000000000E+02
3400000000.000000      5.527954000000000E-01     -5.048340000000000E+00      2.111664000000000E-01     -1.734375000000000E+02
3420000000.000000      5.500793000000000E-01     -6.114014000000000E+00      2.091370000000000E-01      1.572500000000000E+02
3440000000.000000      5.475464000000000E-01     -7.300537000000000E+00      2.051086000000000E-01      1.293359000000000E+02
3460000000.000000      5.438538000000000E-01     -8.109375000000000E+00      2.059631000000000E-01      1.012891000000000E+02
3480000000.000000      5.401611000000000E-01     -9.283691000000000E+00      2.028961000000000E-01      7.226171000000000E+01
3500000000.000000      5.400085000000000E-01     -1.026709000000000E+01      2.013931000000000E-01      4.422461000000000E+01
3520000000.000000      5.395508000000000E-01     -1.115967000000000E+01      2.016602000000000E-01      1.513086000000000E+01
3540000000.000000      5.394592000000000E-01     -1.221826000000000E+01      1.971130000000000E-01     -1.336377000000000E+01
3560000000.000000      5.399170000000000E-01     -1.280322000000000E+01      1.986237000000000E-01     -4.135156000000000E+01
3580000000.000000      5.372925000000000E-01     -1.369336000000000E+01      1.985092000000000E-01     -7.005077000000000E+01
3600000000.000000      5.357056000000000E-01     -1.432617000000000E+01      1.983261000000000E-01     -9.731249000000000E+01
3620000000.000000      5.361633000000000E-01     -1.492920000000000E+01      2.031174000000000E-01     -1.257187000000000E+02
3640000000.000000      5.367737000000000E-01     -1.574902000000000E+01      2.036362000000000E-01     -1.543516000000000E+02
3660000000.000000      5.391235000000000E-01     -1.702344000000000E+01      2.051544000000000E-01      1.772656000000000E+02
3680000000.000000      5.403748000000000E-01     -1.827929000000000E+01      2.029724000000000E-01      1.487422000000000E+02
3700000000.000000      5.353699000000000E-01     -1.956152000000000E+01      2.014465000000000E-01      1.217812000000000E+02
3720000000.000000      5.331421000000000E-01     -2.030566000000000E+01      2.033005000000000E-01      9.344530000000000E+01
3740000000.000000      5.320740000000000E-01     -2.092383000000000E+01      1.989975000000000E-01      6.526562000000000E+01
3760000000.000000      5.315247000000000E-01     -2.127930000000000E+01      1.989517000000000E-01      3.820898000000000E+01
3780000000.000000      5.361633000000000E-01     -2.185351000000000E+01      2.011185000000000E-01      9.621094000000000E+00
3800000000.000000      5.420227000000000E-01     -2.296777000000000E+01      1.994095000000000E-01     -1.985254000000000E+01
3820000000.000000      5.401917000000000E-01     -2.465137000000000E+01      1.976166000000000E-01     -4.846093000000000E+01
3840000000.000000      5.376587000000000E-01     -2.588867000000000E+01      1.976395000000000E-01     -7.715234000000000E+01
3860000000.000000      5.352173000000000E-01     -2.689648000000000E+01      1.987228000000000E-01     -1.059766000000000E+02
3880000000.000000      5.338440000000000E-01     -2.755957000000000E+01      1.955261000000000E-01     -1.349609000000000E+02
3900000000.000000      5.366821000000000E-01     -2.830859000000000E+01      1.961212000000000E-01     -1.622656000000000E+02
3920000000.000000      5.395508000000000E-01     -2.938769000000000E+01      1.984406000000000E-01      1.691875000000000E+02
3940000000.000000      5.422363000000000E-01     -3.073437000000000E+01      1.972656000000000E-01      1.406797000000000E+02
3960000000.000000      5.358887000000000E-01     -3.191406000000000E+01      1.979828000000000E-01      1.125391000000000E+02
3980000000.000000      5.300293000000000E-01     -3.274805000000000E+01      1.915970000000000E-01      8.411327000000000E+01
4000000000.000000      5.249329000000000E-01     -3.327539000000000E+01      1.896057000000000E-01      5.870898000000000E+01
4020000000.000000      5.252686000000000E-01     -3.349218000000000E+01      1.979370000000000E-01      3.093554000000000E+01
4040000000.000000      5.340881000000000E-01     -3.395703000000000E+01      1.975555000000000E-01      4.174805000000000E-01
4060000000.000000      5.462646000000000E-01     -3.525000000000000E+01      1.941757000000000E-01     -2.852539000000000E+01
4080000000.000000      5.551453000000000E-01     -3.742383000000000E+01      1.941071000000000E-01     -5.776367000000000E+01
4100000000.000000      5.549011000000000E-01     -3.969922000000000E+01      1.934204000000000E-01     -8.729687000000000E+01
4120000000.000000      5.444946000000000E-01     -4.173047000000000E+01      1.911545000000000E-01     -1.175898000000000E+02
4140000000.000000      5.356140000000000E-01     -4.251953000000000E+01      1.834488000000000E-01     -1.458828000000000E+02
4160000000.000000      5.281067000000000E-01     -4.334570000000000E+01      1.860428000000000E-01     -1.720937000000000E+02
4180000000.000000      5.275879000000000E-01     -4.393359000000000E+01      1.911392000000000E-01      1.586797000000000E+02
4200000000.000000      5.267029000000000E-01     -4.497266000000000E+01      1.885757000000000E-01      1.301797000000000E+02
4220000000.000000      5.277405000000000E-01     -4.611133000000000E+01      1.906891000000000E-01      1.023281000000000E+02
4240000000.000000      5.230103000000000E-01     -4.720312000000000E+01      1.871033000000000E-01      7.329296000000000E+01
4260000000.000000      5.204773000000000E-01     -4.780859000000000E+01      1.817780000000000E-01      4.654492000000000E+01
4280000000.000000      5.178528000000000E-01     -4.819336000000000E+01      1.834488000000000E-01      1.929980000000000E+01
4300000000.000000      5.203247000000000E-01     -4.870703000000000E+01      1.829910000000000E-01     -9.474609000000000E+00
4320000000.000000      5.261841000000000E-01     -4.949413000000000E+01      1.826859000000000E-01     -3.826562000000000E+01
4340000000.000000      5.306396000000000E-01     -5.104492000000000E+01      1.831818000000000E-01     -6.796093000000000E+01
4360000000.000000      5.299988000000000E-01     -5.240234000000000E+01      1.831436000000000E-01     -9.809765000000000E+01
4380000000.000000      5.274963000000000E-01     -5.375781000000000E+01      1.809082000000000E-01     -1.284297000000000E+02
4400000000.000000      5.235901000000000E-01     -5.467968000000000E+01      1.798019000000000E-01     -1.570937000000000E+02
4420000000.000000      5.268860000000000E-01     -5.528125000000000E+01      1.842651000000000E-01      1.740000000000000E+02
4440000000.000000      5.286865000000000E-01     -5.632813000000000E+01      1.862030000000000E-01      1.440703000000000E+02
4460000000.000000      5.332642000000000E-01     -5.786523000000000E+01      1.862259000000000E-01      1.150078000000000E+02
4480000000.000000      5.302124000000000E-01     -5.938671000000000E+01      1.847763000000000E-01      8.625780000000000E+01
4500000000.000000      5.245056000000000E-01     -6.085351000000000E+01      1.820831000000000E-01      5.858398000000000E+01
4520000000.000000      5.176086000000000E-01     -6.170703000000000E+01      1.792679000000000E-01      3.051660000000000E+01
4540000000.000000      5.151978000000000E-01     -6.222265000000000E+01      1.744461000000000E-01      2.721802000000000E+00
4560000000.000000      5.189819000000000E-01     -6.263672000000000E+01      1.738129000000000E-01     -2.445605000000000E+01
4580000000.000000      5.246887000000000E-01     -6.362499000000000E+01      1.741867000000000E-01     -5.481640000000000E+01
4600000000.000000      5.297546000000000E-01     -6.482031000000000E+01      1.713867000000000E-01     -8.514843000000000E+01
4620000000.000000      5.333557000000000E-01     -6.633203000000000E+01      1.711807000000000E-01     -1.167734000000000E+02
4640000000.000000      5.329895000000000E-01     -6.733984000000000E+01      1.672516000000000E-01     -1.483516000000000E+02
4660000000.000000      5.344543000000000E-01     -6.835546000000000E+01      1.678543000000000E-01     -1.775625000000000E+02
4680000000.000000      5.372925000000000E-01     -6.946484000000000E+01      1.743546000000000E-01      1.518594000000000E+02
4700000000.000000      5.427856000000000E-01     -7.075781000000000E+01      1.768646000000000E-01      1.218125000000000E+02
4720000000.000000      5.461121000000000E-01     -7.225390000000000E+01      1.816788000000000E-01      9.319530000000000E+01
4740000000.000000      5.507202000000000E-01     -7.431641000000000E+01      1.850357000000000E-01      6.459374000000000E+01
4760000000.000000      5.501404000000000E-01     -7.610937000000000E+01      1.848145000000000E-01      3.684375000000000E+01
4780000000.000000      5.507507000000000E-01     -7.816406000000000E+01      1.816711000000000E-01      8.957520000000000E+00
4800000000.000000      5.470276000000000E-01     -8.020311000000000E+01      1.748734000000000E-01     -1.847265000000000E+01
4820000000.000000      5.377197000000000E-01     -8.244141000000000E+01      1.644211000000000E-01     -4.595508000000000E+01
4840000000.000000      5.249023000000000E-01     -8.410936000000000E+01      1.539841000000000E-01     -7.244141000000000E+01
4860000000.000000      5.088501000000000E-01     -8.540625000000000E+01      1.457901000000000E-01     -1.005469000000000E+02
4880000000.000000      4.920807000000000E-01     -8.555079000000000E+01      1.317291000000000E-01     -1.301328000000000E+02
4900000000.000000      4.808197000000000E-01     -8.508593000000000E+01      1.192055000000000E-01     -1.554531000000000E+02
4920000000.000000      4.787598000000000E-01     -8.406250000000000E+01      1.227303000000000E-01      1.798437000000000E+02
4940000000.000000      4.867249000000000E-01     -8.299999000000000E+01      1.345291000000000E-01      1.489063000000000E+02
4960000000.000000      5.066833000000000E-01     -8.293749000000000E+01      1.433411000000000E-01      1.163477000000000E+02
4980000000.000000      5.263672000000000E-01     -8.453125000000000E+01      1.529617000000000E-01      8.558594000000000E+01
5000000000.000000      5.375977000000000E-01     -8.705858000000000E+01      1.648712000000000E-01      5.498047000000000E+01
5020000000.000000      5.377502000000000E-01     -8.955078000000000E+01      1.707306000000000E-01      2.534765000000000E+01
5040000000.000000      5.299988000000000E-01     -9.180079000000000E+01      1.733704000000000E-01     -1.205750000000000E+00
5060000000.000000      5.212708000000000E-01     -9.302734000000000E+01      1.788864000000000E-01     -2.593945000000000E+01
5080000000.000000      5.153809000000000E-01     -9.381250000000000E+01      1.852036000000000E-01     -5.268749000000000E+01
5100000000.000000      5.132446000000000E-01     -9.448828000000000E+01      1.833038000000000E-01     -7.937109000000000E+01
5120000000.000000      5.136414000000000E-01     -9.536327000000000E+01      1.824951000000000E-01     -1.056797000000000E+02
5140000000.000000      5.167847000000000E-01     -9.624609000000000E+01      1.775742000000000E-01     -1.338594000000000E+02
5160000000.000000      5.191956000000000E-01     -9.724998000000000E+01      1.717529000000000E-01     -1.623437000000000E+02
5180000000.000000      5.230103000000000E-01     -9.809374000000000E+01      1.661911000000000E-01      1.674844000000000E+02
5200000000.000000      5.298767000000000E-01     -9.920311000000000E+01      1.621246000000000E-01      1.365859000000000E+02
5220000000.000000      5.342712000000000E-01     -1.006797000000000E+02      1.611481000000000E-01      1.052344000000000E+02
5240000000.000000      5.365906000000000E-01     -1.022695000000000E+02      1.641312000000000E-01      7.331640000000000E+01
5260000000.000000      5.356140000000000E-01     -1.039219000000000E+02      1.684418000000000E-01      4.214063000000000E+01
5280000000.000000      5.322876000000000E-01     -1.052773000000000E+02      1.728058000000000E-01      1.187744000000000E+01
5300000000.000000      5.296631000000000E-01     -1.064726000000000E+02      1.777573000000000E-01     -1.538818000000000E+01
5320000000.000000      5.285034000000000E-01     -1.075703000000000E+02      1.874466000000000E-01     -4.183594000000000E+01
5340000000.000000      5.290833000000000E-01     -1.087461000000000E+02      1.929855000000000E-01     -6.899219000000000E+01
5360000000.000000      5.296936000000000E-01     -1.099648000000000E+02      1.932144000000000E-01     -9.470703000000000E+01
5380000000.000000      5.304871000000000E-01     -1.111445000000000E+02      1.917419000000000E-01     -1.211016000000000E+02
5400000000.000000      5.306702000000000E-01     -1.123320000000000E+02      1.851807000000000E-01     -1.471484000000000E+02
5420000000.000000      5.312805000000000E-01     -1.129492000000000E+02      1.800995000000000E-01     -1.734297000000000E+02
5440000000.000000      5.368958000000000E-01     -1.137148000000000E+02      1.730118000000000E-01      1.575703000000000E+02
5460000000.000000      5.438232000000000E-01     -1.149023000000000E+02      1.620178000000000E-01      1.280937000000000E+02
5480000000.000000      5.503845000000000E-01     -1.164375000000000E+02      1.571198000000000E-01      9.691015000000000E+01
5500000000.000000      5.528870000000000E-01     -1.185938000000000E+02      1.539841000000000E-01      6.442577000000000E+01
5520000000.000000      5.499268000000000E-01     -1.206758000000000E+02      1.544266000000000E-01      3.136425000000000E+01
5540000000.000000      5.444031000000000E-01     -1.225703000000000E+02      1.559296000000000E-01     -6.454468000000000E-01
5560000000.000000      5.382080000000000E-01     -1.242773000000000E+02      1.622925000000000E-01     -2.932422000000000E+01
5580000000.000000      5.312195000000000E-01     -1.257813000000000E+02      1.724625000000000E-01     -5.759766000000000E+01
5600000000.000000      5.263977000000000E-01     -1.270117000000000E+02      1.802139000000000E-01     -8.500000000000000E+01
5620000000.000000      5.217285000000000E-01     -1.278555000000000E+02      1.853561000000000E-01     -1.107031000000000E+02
5640000000.000000      5.188904000000000E-01     -1.286719000000000E+02      1.880951000000000E-01     -1.364453000000000E+02
5660000000.000000      5.166321000000000E-01     -1.290625000000000E+02      1.857147000000000E-01     -1.612344000000000E+02
5680000000.000000      5.190125000000000E-01     -1.294219000000000E+02      1.813889000000000E-01      1.734062000000000E+02
5700000000.000000      5.255432000000000E-01     -1.300156000000000E+02      1.728668000000000E-01      1.471328000000000E+02
5720000000.000000      5.355225000000000E-01     -1.312344000000000E+02      1.633301000000000E-01      1.201680000000000E+02
5740000000.000000      5.426636000000000E-01     -1.333984000000000E+02      1.534500000000000E-01      9.007030000000000E+01
5760000000.000000      5.424500000000000E-01     -1.360781000000000E+02      1.413956000000000E-01      5.700195000000000E+01
5780000000.000000      5.340576000000000E-01     -1.384844000000000E+02      1.311035000000000E-01      2.319824000000000E+01
5800000000.000000      5.224915000000000E-01     -1.400469000000000E+02      1.274338000000000E-01     -9.819336000000000E+00
5820000000.000000      5.136108000000000E-01     -1.408594000000000E+02      1.344070000000000E-01     -4.201367000000000E+01
5840000000.000000      5.125122000000000E-01     -1.417031000000000E+02      1.468353000000000E-01     -7.464453000000000E+01
5860000000.000000      5.159912000000000E-01     -1.423437000000000E+02      1.580811000000000E-01     -1.042305000000000E+02
5880000000.000000      5.216370000000000E-01     -1.438047000000000E+02      1.672592000000000E-01     -1.320391000000000E+02
5900000000.000000      5.231628000000000E-01     -1.452734000000000E+02      1.744003000000000E-01     -1.582187000000000E+02
5920000000.000000      5.216370000000000E-01     -1.470312000000000E+02      1.791306000000000E-01      1.763359000000000E+02
5940000000.000000      5.181274000000000E-01     -1.485234000000000E+02      1.760483000000000E-01      1.506016000000000E+02
5960000000.000000      5.151062000000000E-01     -1.498437000000000E+02      1.684036000000000E-01      1.267773000000000E+02
5980000000.000000      5.103149000000000E-01     -1.513515000000000E+02      1.616058000000000E-01      1.019570000000000E+02
6000000000.000000      5.030518000000000E-01     -1.531719000000000E+02      1.499557000000000E-01      7.481250000000000E+01
6020000000.000000      4.911194000000000E-01     -1.548672000000000E+02      1.339188000000000E-01      4.622851000000000E+01
6040000000.000000      4.788666000000000E-01     -1.559375000000000E+02      1.170044000000000E-01      1.635937000000000E+01
6060000000.000000      4.669037000000000E-01     -1.564844000000000E+02      1.059990000000000E-01     -1.361768000000000E+01
6080000000.000000      4.622040000000000E-01     -1.562578000000000E+02      1.079674000000000E-01     -4.741992000000000E+01
