! Network Analyzer HP8722D
! Hewlett-Packard
! Data name: Linha com CNT
! Saver's name: Rodrigo Anjos
! Comments: Teste de deteccao de acetona 0-100ppm a partir de cilindro
! Time and date: 10/9/2025 17:20
!              Frequency                     S11                                                   S21                                                   S12                                                   S22
# HZ  S  MA R 50
3000000000.000000      4.572144000000000E-01      1.537256000000000E+01      2.348557000000000E-01      3.542383000000000E+01
3020000000.000000      4.653473000000000E-01      1.492334000000000E+01      2.385864000000000E-01      5.994385000000000E+00
3040000000.000000      4.727173000000000E-01      1.378760000000000E+01      2.384567000000000E-01     -2.328320000000000E+01
3060000000.000000      4.763184000000000E-01      1.209570000000000E+01      2.385101000000000E-01     -5.257421000000000E+01
3080000000.000000      4.755554000000000E-01      1.023779000000000E+01      2.346878000000000E-01     -8.147655000000000E+01
3100000000.000000      4.715424000000000E-01      8.946777000000000E+00      2.330475000000000E-01     -1.093633000000000E+02
3120000000.000000      4.698334000000000E-01      8.058105000000000E+00      2.328415000000000E-01     -1.379844000000000E+02
3140000000.000000      4.705048000000000E-01      7.116211000000000E+00      2.291031000000000E-01     -1.665703000000000E+02
3160000000.000000      4.709625000000000E-01      6.119385000000000E+00      2.256699000000000E-01      1.648828000000000E+02
3180000000.000000      4.673004000000000E-01      4.784424000000000E+00      2.198868000000000E-01      1.369141000000000E+02
3200000000.000000      4.571686000000000E-01      4.093750000000000E+00      2.159576000000000E-01      1.084375000000000E+02
3220000000.000000      4.448700000000000E-01      4.019531000000000E+00      2.068100000000000E-01      7.987499000000000E+01
3240000000.000000      4.391785000000000E-01      4.699219000000000E+00      2.004547000000000E-01      5.474609000000000E+01
3260000000.000000      4.401245000000000E-01      5.939453000000000E+00      2.091980000000000E-01      2.889941000000000E+01
3280000000.000000      4.508362000000000E-01      6.701660000000000E+00      2.170486000000000E-01     -6.646729000000000E-01
3300000000.000000      4.688721000000000E-01      6.344482000000000E+00      2.202301000000000E-01     -2.924609000000000E+01
3320000000.000000      4.864044000000000E-01      4.929932000000000E+00      2.279739000000000E-01     -5.817968000000000E+01
3340000000.000000      4.985962000000000E-01      2.859131000000000E+00      2.325363000000000E-01     -8.804688000000000E+01
3360000000.000000      5.034790000000000E-01      5.905151000000000E-01      2.351913000000000E-01     -1.178477000000000E+02
3380000000.000000      5.022278000000000E-01     -1.045105000000000E+00      2.342148000000000E-01     -1.471094000000000E+02
3400000000.000000      4.993591000000000E-01     -2.647705000000000E+00      2.338715000000000E-01     -1.759687000000000E+02
3420000000.000000      4.947357000000000E-01     -3.731323000000000E+00      2.321854000000000E-01      1.548516000000000E+02
3440000000.000000      4.911804000000000E-01     -5.062012000000000E+00      2.277832000000000E-01      1.266680000000000E+02
3460000000.000000      4.868317000000000E-01     -5.995850000000000E+00      2.283020000000000E-01      9.864061000000000E+01
3480000000.000000      4.852600000000000E-01     -7.072510000000000E+00      2.256470000000000E-01      6.953515000000000E+01
3500000000.000000      4.835663000000000E-01     -7.873291000000000E+00      2.235107000000000E-01      4.143359000000000E+01
3520000000.000000      4.826813000000000E-01     -8.827637000000000E+00      2.233047000000000E-01      1.229736000000000E+01
3540000000.000000      4.828339000000000E-01     -9.661133000000000E+00      2.189102000000000E-01     -1.601465000000000E+01
3560000000.000000      4.811401000000000E-01     -1.037695000000000E+01      2.208862000000000E-01     -4.410352000000000E+01
3580000000.000000      4.781799000000000E-01     -1.099365000000000E+01      2.201614000000000E-01     -7.278515000000000E+01
3600000000.000000      4.772186000000000E-01     -1.160156000000000E+01      2.201004000000000E-01     -1.002851000000000E+02
3620000000.000000      4.788361000000000E-01     -1.200537000000000E+01      2.242584000000000E-01     -1.285312000000000E+02
3640000000.000000      4.814301000000000E-01     -1.293945000000000E+01      2.254181000000000E-01     -1.569844000000000E+02
3660000000.000000      4.833374000000000E-01     -1.431934000000000E+01      2.271500000000000E-01      1.745625000000000E+02
3680000000.000000      4.848175000000000E-01     -1.575342000000000E+01      2.260284000000000E-01      1.461016000000000E+02
3700000000.000000      4.805450000000000E-01     -1.708594000000000E+01      2.233887000000000E-01      1.186836000000000E+02
3720000000.000000      4.752960000000000E-01     -1.789746000000000E+01      2.255402000000000E-01      9.043360000000000E+01
3740000000.000000      4.751129000000000E-01     -1.802344000000000E+01      2.208633000000000E-01      6.224023000000000E+01
3760000000.000000      4.766693000000000E-01     -1.824023000000000E+01      2.202148000000000E-01      3.515429000000000E+01
3780000000.000000      4.816742000000000E-01     -1.896973000000000E+01      2.223892000000000E-01      6.598633000000000E+00
3800000000.000000      4.872284000000000E-01     -2.037695000000000E+01      2.212982000000000E-01     -2.251172000000000E+01
3820000000.000000      4.859619000000000E-01     -2.219043000000000E+01      2.190628000000000E-01     -5.140625000000000E+01
3840000000.000000      4.811554000000000E-01     -2.357031000000000E+01      2.185211000000000E-01     -7.984375000000000E+01
3860000000.000000      4.768524000000000E-01     -2.440918000000000E+01      2.191162000000000E-01     -1.088008000000000E+02
3880000000.000000      4.757996000000000E-01     -2.478320000000000E+01      2.165298000000000E-01     -1.377812000000000E+02
3900000000.000000      4.796600000000000E-01     -2.536816000000000E+01      2.159195000000000E-01     -1.653984000000000E+02
3920000000.000000      4.843445000000000E-01     -2.649511000000000E+01      2.184525000000000E-01      1.661719000000000E+02
3940000000.000000      4.848785000000000E-01     -2.810937000000000E+01      2.176666000000000E-01      1.376484000000000E+02
3960000000.000000      4.789734000000000E-01     -2.949512000000000E+01      2.179184000000000E-01      1.093906000000000E+02
3980000000.000000      4.705200000000000E-01     -3.023438000000000E+01      2.121201000000000E-01      8.073828000000000E+01
4000000000.000000      4.654236000000000E-01     -3.028418000000000E+01      2.093277000000000E-01      5.535351000000000E+01
4020000000.000000      4.686737000000000E-01     -3.012109000000000E+01      2.181091000000000E-01      2.757813000000000E+01
4040000000.000000      4.812317000000000E-01     -3.055859000000000E+01      2.179337000000000E-01     -2.890869000000000E+00
4060000000.000000      4.958649000000000E-01     -3.227734000000000E+01      2.139511000000000E-01     -3.176758000000000E+01
4080000000.000000      5.025635000000000E-01     -3.493359000000000E+01      2.143860000000000E-01     -6.081249000000000E+01
4100000000.000000      4.963379000000000E-01     -3.761328000000000E+01      2.143173000000000E-01     -9.002733000000000E+01
4120000000.000000      4.842224000000000E-01     -3.959765000000000E+01      2.112503000000000E-01     -1.204336000000000E+02
4140000000.000000      4.751129000000000E-01     -4.020898000000000E+01      2.035675000000000E-01     -1.486484000000000E+02
4160000000.000000      4.676819000000000E-01     -4.086914000000000E+01      2.056122000000000E-01     -1.751406000000000E+02
4180000000.000000      4.667969000000000E-01     -4.127343000000000E+01      2.100754000000000E-01      1.556562000000000E+02
4200000000.000000      4.672089000000000E-01     -4.233788000000000E+01      2.074966000000000E-01      1.271758000000000E+02
4220000000.000000      4.665070000000000E-01     -4.341797000000000E+01      2.088470000000000E-01      9.900780000000000E+01
4240000000.000000      4.613037000000000E-01     -4.426367000000000E+01      2.053146000000000E-01      6.991796000000000E+01
4260000000.000000      4.589996000000000E-01     -4.461328000000000E+01      2.007294000000000E-01      4.283399000000000E+01
4280000000.000000      4.577637000000000E-01     -4.462500000000000E+01      2.018890000000000E-01      1.554932000000000E+01
4300000000.000000      4.616699000000000E-01     -4.499219000000000E+01      2.015457000000000E-01     -1.315479000000000E+01
4320000000.000000      4.679413000000000E-01     -4.589844000000000E+01      2.018738000000000E-01     -4.199414000000000E+01
4340000000.000000      4.710083000000000E-01     -4.736718000000000E+01      2.012711000000000E-01     -7.147265000000000E+01
4360000000.000000      4.721985000000000E-01     -4.931250000000000E+01      2.018585000000000E-01     -1.013594000000000E+02
4380000000.000000      4.684448000000000E-01     -5.049218000000000E+01      1.994858000000000E-01     -1.315703000000000E+02
4400000000.000000      4.668274000000000E-01     -5.115039000000000E+01      1.981354000000000E-01     -1.601016000000000E+02
4420000000.000000      4.690857000000000E-01     -5.178711000000000E+01      2.021484000000000E-01      1.709844000000000E+02
4440000000.000000      4.745789000000000E-01     -5.291601000000000E+01      2.038269000000000E-01      1.411016000000000E+02
4460000000.000000      4.764709000000000E-01     -5.456445000000000E+01      2.026367000000000E-01      1.120351000000000E+02
4480000000.000000      4.727631000000000E-01     -5.624218000000000E+01      2.010345000000000E-01      8.310938000000000E+01
4500000000.000000      4.650269000000000E-01     -5.750000000000000E+01      1.979446000000000E-01      5.502539000000000E+01
4520000000.000000      4.574127000000000E-01     -5.799999000000000E+01      1.951904000000000E-01      2.667969000000000E+01
4540000000.000000      4.576569000000000E-01     -5.826366000000000E+01      1.901245000000000E-01     -1.498291000000000E+00
4560000000.000000      4.619751000000000E-01     -5.835351000000000E+01      1.896744000000000E-01     -2.879199000000000E+01
4580000000.000000      4.720612000000000E-01     -5.956836000000000E+01      1.906815000000000E-01     -5.883594000000000E+01
4600000000.000000      4.786530000000000E-01     -6.087500000000000E+01      1.884689000000000E-01     -8.914063000000000E+01
4620000000.000000      4.803314000000000E-01     -6.250195000000000E+01      1.884155000000000E-01     -1.201953000000000E+02
4640000000.000000      4.828644000000000E-01     -6.373632000000000E+01      1.849365000000000E-01     -1.513359000000000E+02
4660000000.000000      4.853363000000000E-01     -6.494922000000000E+01      1.855774000000000E-01      1.795703000000000E+02
4680000000.000000      4.885406000000000E-01     -6.598827000000000E+01      1.915131000000000E-01      1.492109000000000E+02
4700000000.000000      4.928894000000000E-01     -6.742188000000000E+01      1.929245000000000E-01      1.194297000000000E+02
4720000000.000000      4.965820000000000E-01     -6.935156000000000E+01      1.959076000000000E-01      9.101954000000000E+01
4740000000.000000      4.991760000000000E-01     -7.159374000000000E+01      1.996918000000000E-01      6.228710000000000E+01
4760000000.000000      4.975433000000000E-01     -7.383594000000000E+01      1.980591000000000E-01      3.421289000000000E+01
4780000000.000000      4.943695000000000E-01     -7.579296000000000E+01      1.949387000000000E-01      5.979248000000000E+00
4800000000.000000      4.910736000000000E-01     -7.821875000000000E+01      1.885529000000000E-01     -2.181641000000000E+01
4820000000.000000      4.794617000000000E-01     -8.039063000000000E+01      1.788406000000000E-01     -4.981835000000000E+01
4840000000.000000      4.615936000000000E-01     -8.217968000000000E+01      1.678162000000000E-01     -7.682031000000000E+01
4860000000.000000      4.435272000000000E-01     -8.309374000000000E+01      1.606293000000000E-01     -1.055937000000000E+02
4880000000.000000      4.250031000000000E-01     -8.247656000000000E+01      1.469650000000000E-01     -1.354453000000000E+02
4900000000.000000      4.156189000000000E-01     -8.087500000000000E+01      1.337280000000000E-01     -1.608281000000000E+02
4920000000.000000      4.185486000000000E-01     -7.901562000000000E+01      1.376190000000000E-01      1.743828000000000E+02
4940000000.000000      4.338226000000000E-01     -7.762500000000000E+01      1.511612000000000E-01      1.441797000000000E+02
4960000000.000000      4.586334000000000E-01     -7.796093000000000E+01      1.590424000000000E-01      1.124453000000000E+02
4980000000.000000      4.809418000000000E-01     -8.016405000000000E+01      1.680145000000000E-01      8.265234000000000E+01
5000000000.000000      4.910889000000000E-01     -8.343359000000000E+01      1.798782000000000E-01      5.263476000000000E+01
5020000000.000000      4.883575000000000E-01     -8.639452000000000E+01      1.853485000000000E-01      2.322461000000000E+01
5040000000.000000      4.776459000000000E-01     -8.855860000000000E+01      1.862793000000000E-01     -3.602173000000000E+00
5060000000.000000      4.674835000000000E-01     -8.977343000000000E+01      1.919250000000000E-01     -2.888867000000000E+01
5080000000.000000      4.611664000000000E-01     -9.029688000000000E+01      1.977158000000000E-01     -5.592187000000000E+01
5100000000.000000      4.604492000000000E-01     -9.092968000000000E+01      1.954727000000000E-01     -8.312500000000000E+01
5120000000.000000      4.617462000000000E-01     -9.179688000000000E+01      1.943817000000000E-01     -1.098945000000000E+02
5140000000.000000      4.655304000000000E-01     -9.257813000000000E+01      1.902390000000000E-01     -1.382578000000000E+02
5160000000.000000      4.678345000000000E-01     -9.357422000000000E+01      1.845322000000000E-01     -1.671328000000000E+02
5180000000.000000      4.733276000000000E-01     -9.454296000000000E+01      1.805344000000000E-01      1.628359000000000E+02
5200000000.000000      4.796753000000000E-01     -9.572657000000000E+01      1.769714000000000E-01      1.320391000000000E+02
5220000000.000000      4.832764000000000E-01     -9.736717000000000E+01      1.773529000000000E-01      1.014570000000000E+02
5240000000.000000      4.851685000000000E-01     -9.896873000000000E+01      1.800613000000000E-01      7.023828000000000E+01
5260000000.000000      4.841766000000000E-01     -1.005039000000000E+02      1.845627000000000E-01      3.930859000000000E+01
5280000000.000000      4.801941000000000E-01     -1.018164000000000E+02      1.890030000000000E-01      9.581055000000000E+00
5300000000.000000      4.786072000000000E-01     -1.029648000000000E+02      1.925964000000000E-01     -1.780371000000000E+01
5320000000.000000      4.769745000000000E-01     -1.040273000000000E+02      2.010651000000000E-01     -4.431641000000000E+01
5340000000.000000      4.784546000000000E-01     -1.053633000000000E+02      2.049332000000000E-01     -7.174999000000000E+01
5360000000.000000      4.783630000000000E-01     -1.066523000000000E+02      2.046890000000000E-01     -9.795311000000000E+01
5380000000.000000      4.787445000000000E-01     -1.078242000000000E+02      2.030716000000000E-01     -1.245117000000000E+02
5400000000.000000      4.801636000000000E-01     -1.090273000000000E+02      1.970139000000000E-01     -1.510859000000000E+02
5420000000.000000      4.820862000000000E-01     -1.096016000000000E+02      1.921387000000000E-01     -1.779844000000000E+02
5440000000.000000      4.875641000000000E-01     -1.101719000000000E+02      1.853867000000000E-01      1.527812000000000E+02
5460000000.000000      4.942474000000000E-01     -1.115078000000000E+02      1.754227000000000E-01      1.235664000000000E+02
5480000000.000000      4.998169000000000E-01     -1.132070000000000E+02      1.723251000000000E-01      9.266405000000000E+01
5500000000.000000      5.018005000000000E-01     -1.154258000000000E+02      1.703720000000000E-01      6.101757000000000E+01
5520000000.000000      4.977722000000000E-01     -1.176445000000000E+02      1.706390000000000E-01      2.854199000000000E+01
5540000000.000000      4.923248000000000E-01     -1.195625000000000E+02      1.725159000000000E-01     -2.607910000000000E+00
5560000000.000000      4.852142000000000E-01     -1.213515000000000E+02      1.770630000000000E-01     -3.110254000000000E+01
5580000000.000000      4.785156000000000E-01     -1.227656000000000E+02      1.867828000000000E-01     -5.971093000000000E+01
5600000000.000000      4.741516000000000E-01     -1.237305000000000E+02      1.921921000000000E-01     -8.705078000000000E+01
5620000000.000000      4.687347000000000E-01     -1.245039000000000E+02      1.965408000000000E-01     -1.131562000000000E+02
5640000000.000000      4.656219000000000E-01     -1.249570000000000E+02      1.981277000000000E-01     -1.395078000000000E+02
5660000000.000000      4.639893000000000E-01     -1.250703000000000E+02      1.948395000000000E-01     -1.648125000000000E+02
5680000000.000000      4.683838000000000E-01     -1.252773000000000E+02      1.899033000000000E-01      1.688516000000000E+02
5700000000.000000      4.770050000000000E-01     -1.258945000000000E+02      1.823120000000000E-01      1.421875000000000E+02
5720000000.000000      4.885254000000000E-01     -1.273476000000000E+02      1.747742000000000E-01      1.148086000000000E+02
5740000000.000000      4.963837000000000E-01     -1.299297000000000E+02      1.666412000000000E-01      8.473827000000000E+01
5760000000.000000      4.960327000000000E-01     -1.327812000000000E+02      1.579590000000000E-01      5.215625000000000E+01
5780000000.000000      4.881134000000000E-01     -1.352266000000000E+02      1.500473000000000E-01      1.908594000000000E+01
5800000000.000000      4.758301000000000E-01     -1.367266000000000E+02      1.459351000000000E-01     -1.227490000000000E+01
5820000000.000000      4.685669000000000E-01     -1.374219000000000E+02      1.533203000000000E-01     -4.376953000000000E+01
5840000000.000000      4.671478000000000E-01     -1.381328000000000E+02      1.634598000000000E-01     -7.568749000000000E+01
5860000000.000000      4.723663000000000E-01     -1.389688000000000E+02      1.710052000000000E-01     -1.048750000000000E+02
5880000000.000000      4.770660000000000E-01     -1.407812000000000E+02      1.786652000000000E-01     -1.329141000000000E+02
5900000000.000000      4.788818000000000E-01     -1.426484000000000E+02      1.849823000000000E-01     -1.595859000000000E+02
5920000000.000000      4.758148000000000E-01     -1.445078000000000E+02      1.873169000000000E-01      1.742188000000000E+02
5940000000.000000      4.717407000000000E-01     -1.458594000000000E+02      1.830521000000000E-01      1.478281000000000E+02
5960000000.000000      4.690247000000000E-01     -1.473359000000000E+02      1.750641000000000E-01      1.228867000000000E+02
5980000000.000000      4.646149000000000E-01     -1.487344000000000E+02      1.684723000000000E-01      9.720312000000000E+01
6000000000.000000      4.547119000000000E-01     -1.506562000000000E+02      1.578522000000000E-01      6.859765000000000E+01
6020000000.000000      4.424896000000000E-01     -1.522187000000000E+02      1.445236000000000E-01      3.885156000000000E+01
6040000000.000000      4.285431000000000E-01     -1.534062000000000E+02      1.293793000000000E-01      8.374023000000000E+00
6060000000.000000      4.182892000000000E-01     -1.536875000000000E+02      1.210670000000000E-01     -2.159668000000000E+01
6080000000.000000      4.138489000000000E-01     -1.531719000000000E+02      1.255798000000000E-01     -5.395702000000000E+01
