! Network Analyzer HP8722D
! Hewlett-Packard
! Data name: Linha com CNT
! Saver's name: Rodrigo Anjos
! Comments: Teste de deteccao de acetona 0-100ppm a partir de cilindro
! Time and date: 10/9/2025 17:33
!              Frequency                     S11                                                   S21                                                   S12                                                   S22
# HZ  S  MA R 50
3000000000.000000      4.538727000000000E-01      1.554541000000000E+01      2.419815000000000E-01      3.464453000000000E+01
3020000000.000000      4.617615000000000E-01      1.513916000000000E+01      2.461853000000000E-01      5.199219000000000E+00
3040000000.000000      4.697571000000000E-01      1.397314000000000E+01      2.466965000000000E-01     -2.401953000000000E+01
3060000000.000000      4.734192000000000E-01      1.221680000000000E+01      2.459793000000000E-01     -5.335742000000000E+01
3080000000.000000      4.723206000000000E-01      1.041895000000000E+01      2.423630000000000E-01     -8.225000000000000E+01
3100000000.000000      4.683838000000000E-01      8.980957000000000E+00      2.406921000000000E-01     -1.100234000000000E+02
3120000000.000000      4.655151000000000E-01      8.091309000000000E+00      2.402344000000000E-01     -1.387187000000000E+02
3140000000.000000      4.670105000000000E-01      7.248047000000000E+00      2.365799000000000E-01     -1.673437000000000E+02
3160000000.000000      4.681091000000000E-01      6.106934000000000E+00      2.330627000000000E-01      1.640703000000000E+02
3180000000.000000      4.632416000000000E-01      4.810547000000000E+00      2.274246000000000E-01      1.360781000000000E+02
3200000000.000000      4.531250000000000E-01      4.169189000000000E+00      2.234955000000000E-01      1.075937000000000E+02
3220000000.000000      4.419556000000000E-01      4.177490000000000E+00      2.138672000000000E-01      7.911718000000000E+01
3240000000.000000      4.358215000000000E-01      4.924561000000000E+00      2.071152000000000E-01      5.386719000000000E+01
3260000000.000000      4.368896000000000E-01      6.139893000000000E+00      2.159271000000000E-01      2.786816000000000E+01
3280000000.000000      4.476776000000000E-01      6.917236000000000E+00      2.242889000000000E-01     -1.679565000000000E+00
3300000000.000000      4.660187000000000E-01      6.538086000000000E+00      2.270508000000000E-01     -3.024219000000000E+01
3320000000.000000      4.839172000000000E-01      5.130615000000000E+00      2.347031000000000E-01     -5.908203000000000E+01
3340000000.000000      4.962616000000000E-01      3.023926000000000E+00      2.398376000000000E-01     -8.892187000000000E+01
3360000000.000000      5.010071000000000E-01      7.333374000000000E-01      2.421341000000000E-01     -1.186211000000000E+02
3380000000.000000      5.000610000000000E-01     -9.022522000000000E-01      2.417221000000000E-01     -1.480078000000000E+02
3400000000.000000      4.956818000000000E-01     -2.466431000000000E+00      2.410812000000000E-01     -1.767266000000000E+02
3420000000.000000      4.920807000000000E-01     -3.674927000000000E+00      2.393951000000000E-01      1.540000000000000E+02
3440000000.000000      4.878845000000000E-01     -4.866943000000000E+00      2.353363000000000E-01      1.258047000000000E+02
3460000000.000000      4.832764000000000E-01     -5.929932000000000E+00      2.353439000000000E-01      9.767967000000000E+01
3480000000.000000      4.816437000000000E-01     -6.946289000000000E+00      2.330627000000000E-01      6.867188000000000E+01
3500000000.000000      4.801483000000000E-01     -7.757813000000000E+00      2.305908000000000E-01      4.055469000000000E+01
3520000000.000000      4.794006000000000E-01     -8.664551000000000E+00      2.300186000000000E-01      1.154492000000000E+01
3540000000.000000      4.797516000000000E-01     -9.599609000000000E+00      2.259445000000000E-01     -1.681738000000000E+01
3560000000.000000      4.775696000000000E-01     -1.027539000000000E+01      2.275543000000000E-01     -4.505273000000000E+01
3580000000.000000      4.747772000000000E-01     -1.085059000000000E+01      2.272873000000000E-01     -7.378124000000000E+01
3600000000.000000      4.736938000000000E-01     -1.144678000000000E+01      2.273102000000000E-01     -1.010938000000000E+02
3620000000.000000      4.758453000000000E-01     -1.194385000000000E+01      2.313614000000000E-01     -1.294688000000000E+02
3640000000.000000      4.783325000000000E-01     -1.275146000000000E+01      2.327499000000000E-01     -1.580000000000000E+02
3660000000.000000      4.805908000000000E-01     -1.413965000000000E+01      2.338943000000000E-01      1.737109000000000E+02
3680000000.000000      4.814148000000000E-01     -1.560791000000000E+01      2.326889000000000E-01      1.452344000000000E+02
3700000000.000000      4.774170000000000E-01     -1.696094000000000E+01      2.306747000000000E-01      1.179297000000000E+02
3720000000.000000      4.722900000000000E-01     -1.776953000000000E+01      2.325745000000000E-01      8.948046000000000E+01
3740000000.000000      4.720917000000000E-01     -1.790527000000000E+01      2.276001000000000E-01      6.131836000000000E+01
3760000000.000000      4.732513000000000E-01     -1.802637000000000E+01      2.269669000000000E-01      3.416992000000000E+01
3780000000.000000      4.781189000000000E-01     -1.881348000000000E+01      2.290649000000000E-01      5.660645000000000E+00
3800000000.000000      4.842682000000000E-01     -2.018555000000000E+01      2.280045000000000E-01     -2.355664000000000E+01
3820000000.000000      4.824219000000000E-01     -2.210059000000000E+01      2.263947000000000E-01     -5.226953000000000E+01
3840000000.000000      4.778290000000000E-01     -2.344238000000000E+01      2.253952000000000E-01     -8.078125000000000E+01
3860000000.000000      4.742889000000000E-01     -2.421582000000000E+01      2.261505000000000E-01     -1.098164000000000E+02
3880000000.000000      4.723969000000000E-01     -2.460254000000000E+01      2.232742000000000E-01     -1.386875000000000E+02
3900000000.000000      4.764709000000000E-01     -2.517675000000000E+01      2.228088000000000E-01     -1.662891000000000E+02
3920000000.000000      4.813080000000000E-01     -2.627539000000000E+01      2.249756000000000E-01      1.653516000000000E+02
3940000000.000000      4.825745000000000E-01     -2.797461000000000E+01      2.247009000000000E-01      1.365781000000000E+02
3960000000.000000      4.758301000000000E-01     -2.932129000000000E+01      2.245102000000000E-01      1.084062000000000E+02
3980000000.000000      4.673309000000000E-01     -3.006738000000000E+01      2.187958000000000E-01      7.978125000000000E+01
4000000000.000000      4.620819000000000E-01     -3.009863000000000E+01      2.153854000000000E-01      5.424414000000000E+01
4020000000.000000      4.658051000000000E-01     -2.985449000000000E+01      2.238159000000000E-01      2.645898000000000E+01
4040000000.000000      4.787903000000000E-01     -3.034472000000000E+01      2.250824000000000E-01     -3.988037000000000E+00
4060000000.000000      4.922028000000000E-01     -3.213476000000000E+01      2.204514000000000E-01     -3.274609000000000E+01
4080000000.000000      5.001221000000000E-01     -3.485742000000000E+01      2.199707000000000E-01     -6.150976000000000E+01
4100000000.000000      4.927216000000000E-01     -3.751172000000000E+01      2.205124000000000E-01     -9.091406000000000E+01
4120000000.000000      4.828491000000000E-01     -3.926562000000000E+01      2.175598000000000E-01     -1.212656000000000E+02
4140000000.000000      4.708252000000000E-01     -4.036133000000000E+01      2.097702000000000E-01     -1.496641000000000E+02
4160000000.000000      4.639435000000000E-01     -4.076953000000000E+01      2.118301000000000E-01     -1.761172000000000E+02
4180000000.000000      4.634094000000000E-01     -4.108203000000000E+01      2.166595000000000E-01      1.547109000000000E+02
4200000000.000000      4.646301000000000E-01     -4.221289000000000E+01      2.142715000000000E-01      1.260039000000000E+02
4220000000.000000      4.628754000000000E-01     -4.326757000000000E+01      2.154083000000000E-01      9.794140000000000E+01
4240000000.000000      4.571838000000000E-01     -4.403906000000000E+01      2.112198000000000E-01      6.883594000000000E+01
4260000000.000000      4.552612000000000E-01     -4.420507000000000E+01      2.066422000000000E-01      4.173242000000000E+01
4280000000.000000      4.541168000000000E-01     -4.459180000000000E+01      2.082672000000000E-01      1.435498000000000E+01
4300000000.000000      4.582062000000000E-01     -4.448438000000000E+01      2.075500000000000E-01     -1.427539000000000E+01
4320000000.000000      4.656677000000000E-01     -4.561132000000000E+01      2.075806000000000E-01     -4.314258000000000E+01
4340000000.000000      4.684906000000000E-01     -4.742773000000000E+01      2.075195000000000E-01     -7.267187000000000E+01
4360000000.000000      4.692078000000000E-01     -4.910937000000000E+01      2.079468000000000E-01     -1.025039000000000E+02
4380000000.000000      4.648285000000000E-01     -5.028320000000000E+01      2.057114000000000E-01     -1.326328000000000E+02
4400000000.000000      4.640503000000000E-01     -5.095117000000000E+01      2.039795000000000E-01     -1.613203000000000E+02
4420000000.000000      4.657745000000000E-01     -5.152148000000000E+01      2.080154000000000E-01      1.698672000000000E+02
4440000000.000000      4.708405000000000E-01     -5.259570000000000E+01      2.093430000000000E-01      1.400234000000000E+02
4460000000.000000      4.738007000000000E-01     -5.419335000000000E+01      2.084732000000000E-01      1.107539000000000E+02
4480000000.000000      4.683838000000000E-01     -5.602344000000000E+01      2.060699000000000E-01      8.203516000000000E+01
4500000000.000000      4.611816000000000E-01     -5.709179000000000E+01      2.029953000000000E-01      5.389257000000000E+01
4520000000.000000      4.545898000000000E-01     -5.768359000000000E+01      2.005081000000000E-01      2.546289000000000E+01
4540000000.000000      4.534760000000000E-01     -5.797265000000000E+01      1.954880000000000E-01     -2.634033000000000E+00
4560000000.000000      4.599915000000000E-01     -5.832812000000000E+01      1.951294000000000E-01     -3.006152000000000E+01
4580000000.000000      4.696198000000000E-01     -5.917187000000000E+01      1.960602000000000E-01     -6.021289000000000E+01
4600000000.000000      4.761047000000000E-01     -6.050586000000000E+01      1.940002000000000E-01     -9.041407000000000E+01
4620000000.000000      4.776611000000000E-01     -6.219531000000000E+01      1.935959000000000E-01     -1.214961000000000E+02
4640000000.000000      4.789734000000000E-01     -6.338476000000000E+01      1.903381000000000E-01     -1.525156000000000E+02
4660000000.000000      4.813080000000000E-01     -6.447266000000000E+01      1.909637000000000E-01      1.784609000000000E+02
4680000000.000000      4.857635000000000E-01     -6.566015000000000E+01      1.968536000000000E-01      1.483359000000000E+02
4700000000.000000      4.898071000000000E-01     -6.737499000000000E+01      1.980362000000000E-01      1.183867000000000E+02
4720000000.000000      4.937439000000000E-01     -6.916797000000000E+01      2.010422000000000E-01      8.995703000000000E+01
4740000000.000000      4.960022000000000E-01     -7.146484000000000E+01      2.039719000000000E-01      6.126758000000000E+01
4760000000.000000      4.953613000000000E-01     -7.350780000000000E+01      2.030869000000000E-01      3.306445000000000E+01
4780000000.000000      4.910431000000000E-01     -7.559765000000000E+01      2.004547000000000E-01      5.074219000000000E+00
4800000000.000000      4.868774000000000E-01     -7.810156000000000E+01      1.933670000000000E-01     -2.273633000000000E+01
4820000000.000000      4.758606000000000E-01     -8.014843000000000E+01      1.833725000000000E-01     -5.087500000000000E+01
4840000000.000000      4.586945000000000E-01     -8.207422000000000E+01      1.728745000000000E-01     -7.810937000000000E+01
4860000000.000000      4.395447000000000E-01     -8.287500000000000E+01      1.648407000000000E-01     -1.069765000000000E+02
4880000000.000000      4.213715000000000E-01     -8.233202000000000E+01      1.512451000000000E-01     -1.369297000000000E+02
4900000000.000000      4.125366000000000E-01     -8.057812000000000E+01      1.374893000000000E-01     -1.623047000000000E+02
4920000000.000000      4.150238000000000E-01     -7.867969000000000E+01      1.423340000000000E-01      1.728047000000000E+02
4940000000.000000      4.309387000000000E-01     -7.729687000000000E+01      1.552048000000000E-01      1.427500000000000E+02
4960000000.000000      4.563293000000000E-01     -7.766406000000000E+01      1.635132000000000E-01      1.111601000000000E+02
4980000000.000000      4.780579000000000E-01     -8.004297000000000E+01      1.729202000000000E-01      8.155077000000000E+01
5000000000.000000      4.879761000000000E-01     -8.317577000000000E+01      1.843338000000000E-01      5.159374000000000E+01
5020000000.000000      4.853516000000000E-01     -8.626953000000000E+01      1.902008000000000E-01      2.223437000000000E+01
5040000000.000000      4.745941000000000E-01     -8.848047000000000E+01      1.916199000000000E-01     -4.530518000000000E+00
5060000000.000000      4.643707000000000E-01     -8.962109000000000E+01      1.972122000000000E-01     -3.013184000000000E+01
5080000000.000000      4.581299000000000E-01     -9.009766000000000E+01      2.023621000000000E-01     -5.709765000000000E+01
5100000000.000000      4.570923000000000E-01     -9.067577000000000E+01      1.997604000000000E-01     -8.460938000000000E+01
5120000000.000000      4.584351000000000E-01     -9.153124000000000E+01      1.986694000000000E-01     -1.111758000000000E+02
5140000000.000000      4.624634000000000E-01     -9.223047000000000E+01      1.947784000000000E-01     -1.396328000000000E+02
5160000000.000000      4.651337000000000E-01     -9.328125000000000E+01      1.892014000000000E-01     -1.685469000000000E+02
5180000000.000000      4.701843000000000E-01     -9.428905000000000E+01      1.853104000000000E-01      1.614375000000000E+02
5200000000.000000      4.769440000000000E-01     -9.553905000000000E+01      1.814346000000000E-01      1.306641000000000E+02
5220000000.000000      4.806213000000000E-01     -9.717968000000000E+01      1.818848000000000E-01      1.002461000000000E+02
5240000000.000000      4.821320000000000E-01     -9.872656000000000E+01      1.847534000000000E-01      6.898438000000000E+01
5260000000.000000      4.812012000000000E-01     -1.003281000000000E+02      1.893616000000000E-01      3.824023000000000E+01
5280000000.000000      4.770355000000000E-01     -1.015742000000000E+02      1.938019000000000E-01      8.648926000000000E+00
5300000000.000000      4.754791000000000E-01     -1.027344000000000E+02      1.974869000000000E-01     -1.879004000000000E+01
5320000000.000000      4.749451000000000E-01     -1.038086000000000E+02      2.056961000000000E-01     -4.547071000000000E+01
5340000000.000000      4.749451000000000E-01     -1.050469000000000E+02      2.092590000000000E-01     -7.289844000000000E+01
5360000000.000000      4.750366000000000E-01     -1.064414000000000E+02      2.092514000000000E-01     -9.918358000000000E+01
5380000000.000000      4.761810000000000E-01     -1.076758000000000E+02      2.077713000000000E-01     -1.257305000000000E+02
5400000000.000000      4.772339000000000E-01     -1.087578000000000E+02      2.010498000000000E-01     -1.522500000000000E+02
5420000000.000000      4.789886000000000E-01     -1.093516000000000E+02      1.961517000000000E-01     -1.793047000000000E+02
5440000000.000000      4.841309000000000E-01     -1.100820000000000E+02      1.895981000000000E-01      1.514844000000000E+02
5460000000.000000      4.918365000000000E-01     -1.113008000000000E+02      1.801910000000000E-01      1.222617000000000E+02
5480000000.000000      4.969177000000000E-01     -1.128945000000000E+02      1.759720000000000E-01      9.137499000000000E+01
5500000000.000000      4.996185000000000E-01     -1.152734000000000E+02      1.749649000000000E-01      5.968554000000000E+01
5520000000.000000      4.947968000000000E-01     -1.174609000000000E+02      1.756668000000000E-01      2.746777000000000E+01
5540000000.000000      4.896851000000000E-01     -1.193555000000000E+02      1.772919000000000E-01     -3.705200000000000E+00
5560000000.000000      4.824371000000000E-01     -1.211719000000000E+02      1.820984000000000E-01     -3.223437000000000E+01
5580000000.000000      4.754486000000000E-01     -1.225859000000000E+02      1.916275000000000E-01     -6.052343000000000E+01
5600000000.000000      4.704895000000000E-01     -1.235312000000000E+02      1.966095000000000E-01     -8.807812000000000E+01
5620000000.000000      4.666595000000000E-01     -1.243750000000000E+02      2.008362000000000E-01     -1.141523000000000E+02
5640000000.000000      4.624786000000000E-01     -1.246758000000000E+02      2.023468000000000E-01     -1.405313000000000E+02
5660000000.000000      4.608307000000000E-01     -1.247344000000000E+02      1.987000000000000E-01     -1.661016000000000E+02
5680000000.000000      4.649048000000000E-01     -1.249531000000000E+02      1.943665000000000E-01      1.674687000000000E+02
5700000000.000000      4.747162000000000E-01     -1.257656000000000E+02      1.860809000000000E-01      1.407500000000000E+02
5720000000.000000      4.862366000000000E-01     -1.271328000000000E+02      1.779175000000000E-01      1.135390000000000E+02
5740000000.000000      4.937134000000000E-01     -1.296953000000000E+02      1.710205000000000E-01      8.335546000000000E+01
5760000000.000000      4.935760000000000E-01     -1.325312000000000E+02      1.622849000000000E-01      5.084961000000000E+01
5780000000.000000      4.849396000000000E-01     -1.350625000000000E+02      1.538162000000000E-01      1.789063000000000E+01
5800000000.000000      4.731598000000000E-01     -1.365703000000000E+02      1.508102000000000E-01     -1.366992000000000E+01
5820000000.000000      4.650116000000000E-01     -1.372422000000000E+02      1.578827000000000E-01     -4.485156000000000E+01
5840000000.000000      4.650574000000000E-01     -1.379297000000000E+02      1.679916000000000E-01     -7.657031000000000E+01
5860000000.000000      4.689026000000000E-01     -1.388359000000000E+02      1.755447000000000E-01     -1.058555000000000E+02
5880000000.000000      4.746094000000000E-01     -1.406250000000000E+02      1.828690000000000E-01     -1.336641000000000E+02
5900000000.000000      4.759521000000000E-01     -1.425547000000000E+02      1.885910000000000E-01     -1.602890000000000E+02
5920000000.000000      4.727478000000000E-01     -1.443750000000000E+02      1.915436000000000E-01      1.733516000000000E+02
5940000000.000000      4.698944000000000E-01     -1.456953000000000E+02      1.870575000000000E-01      1.467734000000000E+02
5960000000.000000      4.668579000000000E-01     -1.469922000000000E+02      1.784439000000000E-01      1.218398000000000E+02
5980000000.000000      4.606171000000000E-01     -1.485469000000000E+02      1.717758000000000E-01      9.560156000000000E+01
6000000000.000000      4.528961000000000E-01     -1.502891000000000E+02      1.613846000000000E-01      6.707031000000000E+01
6020000000.000000      4.400482000000000E-01     -1.519375000000000E+02      1.477127000000000E-01      3.708593000000000E+01
6040000000.000000      4.251404000000000E-01     -1.531406000000000E+02      1.330643000000000E-01      6.566895000000000E+00
6060000000.000000      4.152374000000000E-01     -1.535234000000000E+02      1.255798000000000E-01     -2.350976000000000E+01
6080000000.000000      4.109650000000000E-01     -1.530547000000000E+02      1.294250000000000E-01     -5.549609000000000E+01
