! Network Analyzer HP8722D
! Hewlett-Packard
! Data name: Linha com CNT
! Saver's name: Rodrigo Anjos
! Comments: Teste de deteccao de acetona 0-100ppm a partir de cilindro
! Time and date: 10/9/2025 17:39
!              Frequency                     S11                                                   S21                                                   S12                                                   S22
# HZ  S  MA R 50
3000000000.000000      4.051514000000000E-01      1.706250000000000E+01      2.665710000000000E-01      3.241211000000000E+01
3020000000.000000      4.155884000000000E-01      1.688672000000000E+01      2.698975000000000E-01      3.126953000000000E+00
3040000000.000000      4.248810000000000E-01      1.544531000000000E+01      2.705078000000000E-01     -2.604101000000000E+01
3060000000.000000      4.279480000000000E-01      1.342529000000000E+01      2.700348000000000E-01     -5.542773000000000E+01
3080000000.000000      4.260254000000000E-01      1.125098000000000E+01      2.668304000000000E-01     -8.408983000000000E+01
3100000000.000000      4.192505000000000E-01      9.692383000000000E+00      2.652588000000000E-01     -1.122148000000000E+02
3120000000.000000      4.162445000000000E-01      9.088379000000000E+00      2.636719000000000E-01     -1.409297000000000E+02
3140000000.000000      4.178772000000000E-01      8.232422000000000E+00      2.597656000000000E-01     -1.694453000000000E+02
3160000000.000000      4.192047000000000E-01      7.149170000000000E+00      2.558594000000000E-01      1.621562000000000E+02
3180000000.000000      4.138184000000000E-01      5.587891000000000E+00      2.507172000000000E-01      1.339062000000000E+02
3200000000.000000      3.992462000000000E-01      5.196533000000000E+00      2.463760000000000E-01      1.051172000000000E+02
3220000000.000000      3.878326000000000E-01      6.056152000000000E+00      2.357864000000000E-01      7.666406000000000E+01
3240000000.000000      3.831482000000000E-01      7.109375000000000E+00      2.294998000000000E-01      5.129101000000000E+01
3260000000.000000      3.849945000000000E-01      9.361328000000000E+00      2.376022000000000E-01      2.490137000000000E+01
3280000000.000000      4.026642000000000E-01      1.059180000000000E+01      2.457733000000000E-01     -4.365723000000000E+00
3300000000.000000      4.248047000000000E-01      9.814453000000000E+00      2.484055000000000E-01     -3.289453000000000E+01
3320000000.000000      4.448242000000000E-01      7.862061000000000E+00      2.560577000000000E-01     -6.158984000000000E+01
3340000000.000000      4.564514000000000E-01      5.179932000000000E+00      2.617188000000000E-01     -9.149609000000000E+01
3360000000.000000      4.595947000000000E-01      2.632568000000000E+00      2.633362000000000E-01     -1.211211000000000E+02
3380000000.000000      4.590759000000000E-01      7.182312000000000E-01      2.633362000000000E-01     -1.500391000000000E+02
3400000000.000000      4.533234000000000E-01     -1.018982000000000E+00      2.630310000000000E-01     -1.791094000000000E+02
3420000000.000000      4.492493000000000E-01     -2.054443000000000E+00      2.610779000000000E-01      1.520078000000000E+02
3440000000.000000      4.448853000000000E-01     -3.707886000000000E+00      2.578430000000000E-01      1.236172000000000E+02
3460000000.000000      4.373932000000000E-01     -4.470215000000000E+00      2.570801000000000E-01      9.534765000000000E+01
3480000000.000000      4.375000000000000E-01     -5.465820000000000E+00      2.549591000000000E-01      6.640625000000000E+01
3500000000.000000      4.334106000000000E-01     -6.391357000000000E+00      2.526550000000000E-01      3.792383000000000E+01
3520000000.000000      4.325104000000000E-01     -6.810303000000000E+00      2.516022000000000E-01      9.215820000000000E+00
3540000000.000000      4.348450000000000E-01     -7.910156000000000E+00      2.484589000000000E-01     -1.911523000000000E+01
3560000000.000000      4.310150000000000E-01     -8.657227000000000E+00      2.498474000000000E-01     -4.743360000000000E+01
3580000000.000000      4.279785000000000E-01     -8.955566000000000E+00      2.490387000000000E-01     -7.611328000000000E+01
3600000000.000000      4.267426000000000E-01     -9.500488000000000E+00      2.494202000000000E-01     -1.037344000000000E+02
3620000000.000000      4.293671000000000E-01     -9.689941000000000E+00      2.528534000000000E-01     -1.320625000000000E+02
3640000000.000000      4.339600000000000E-01     -1.060498000000000E+01      2.543793000000000E-01     -1.604219000000000E+02
3660000000.000000      4.354553000000000E-01     -1.209082000000000E+01      2.549744000000000E-01      1.711875000000000E+02
3680000000.000000      4.376373000000000E-01     -1.355859000000000E+01      2.541351000000000E-01      1.429688000000000E+02
3700000000.000000      4.314880000000000E-01     -1.537305000000000E+01      2.532501000000000E-01      1.153203000000000E+02
3720000000.000000      4.244232000000000E-01     -1.572852000000000E+01      2.541962000000000E-01      8.683985000000000E+01
3740000000.000000      4.254761000000000E-01     -1.556250000000000E+01      2.489471000000000E-01      5.864062000000000E+01
3760000000.000000      4.273987000000000E-01     -1.564600000000000E+01      2.474442000000000E-01      3.142090000000000E+01
3780000000.000000      4.349213000000000E-01     -1.622363000000000E+01      2.492981000000000E-01      3.048706000000000E+00
3800000000.000000      4.418335000000000E-01     -1.795801000000000E+01      2.490463000000000E-01     -2.595800000000000E+01
3820000000.000000      4.392853000000000E-01     -2.017090000000000E+01      2.475204000000000E-01     -5.479297000000000E+01
3840000000.000000      4.316864000000000E-01     -2.168750000000000E+01      2.469025000000000E-01     -8.357813000000000E+01
3860000000.000000      4.259338000000000E-01     -2.201172000000000E+01      2.469025000000000E-01     -1.124219000000000E+02
3880000000.000000      4.270782000000000E-01     -2.220703000000000E+01      2.439651000000000E-01     -1.411875000000000E+02
3900000000.000000      4.310913000000000E-01     -2.283301000000000E+01      2.428284000000000E-01     -1.690391000000000E+02
3920000000.000000      4.369202000000000E-01     -2.382031000000000E+01      2.444992000000000E-01      1.628281000000000E+02
3940000000.000000      4.389343000000000E-01     -2.595019000000000E+01      2.459946000000000E-01      1.342734000000000E+02
3960000000.000000      4.284210000000000E-01     -2.745410000000000E+01      2.457809000000000E-01      1.056250000000000E+02
3980000000.000000      4.195557000000000E-01     -2.777148000000000E+01      2.390366000000000E-01      7.712109000000000E+01
4000000000.000000      4.150696000000000E-01     -2.748828000000000E+01      2.352905000000000E-01      5.125977000000000E+01
4020000000.000000      4.205322000000000E-01     -2.660840000000000E+01      2.436752000000000E-01      2.357324000000000E+01
4040000000.000000      4.394226000000000E-01     -2.737109000000000E+01      2.445297000000000E-01     -6.677002000000000E+00
4060000000.000000      4.526825000000000E-01     -2.974218000000000E+01      2.397308000000000E-01     -3.575000000000000E+01
4080000000.000000      4.584503000000000E-01     -3.289453000000000E+01      2.391434000000000E-01     -6.422265000000000E+01
4100000000.000000      4.501038000000000E-01     -3.614648000000000E+01      2.407150000000000E-01     -9.351171000000000E+01
4120000000.000000      4.335480000000000E-01     -3.783984000000000E+01      2.368698000000000E-01     -1.237891000000000E+02
4140000000.000000      4.227448000000000E-01     -3.843359000000000E+01      2.299576000000000E-01     -1.521797000000000E+02
4160000000.000000      4.148102000000000E-01     -3.859961000000000E+01      2.316513000000000E-01     -1.789063000000000E+02
4180000000.000000      4.164886000000000E-01     -3.854297000000000E+01      2.367096000000000E-01      1.521875000000000E+02
4200000000.000000      4.184113000000000E-01     -4.001953000000000E+01      2.351227000000000E-01      1.233008000000000E+02
4220000000.000000      4.129791000000000E-01     -4.113281000000000E+01      2.350159000000000E-01      9.475389000000000E+01
4240000000.000000      4.077606000000000E-01     -4.127734000000000E+01      2.294388000000000E-01      6.585155000000000E+01
4260000000.000000      4.073944000000000E-01     -4.151757000000000E+01      2.252884000000000E-01      3.886914000000000E+01
4280000000.000000      4.071503000000000E-01     -4.113867000000000E+01      2.266922000000000E-01      1.120020000000000E+01
4300000000.000000      4.143372000000000E-01     -4.130664000000000E+01      2.265930000000000E-01     -1.748535000000000E+01
4320000000.000000      4.220886000000000E-01     -4.258985000000000E+01      2.260666000000000E-01     -4.619336000000000E+01
4340000000.000000      4.256439000000000E-01     -4.446289000000000E+01      2.266388000000000E-01     -7.576953000000000E+01
4360000000.000000      4.234924000000000E-01     -4.623437000000000E+01      2.257156000000000E-01     -1.055703000000000E+02
4380000000.000000      4.204559000000000E-01     -4.724805000000000E+01      2.239456000000000E-01     -1.354219000000000E+02
4400000000.000000      4.198151000000000E-01     -4.785546000000000E+01      2.219849000000000E-01     -1.642266000000000E+02
4420000000.000000      4.229126000000000E-01     -4.830664000000000E+01      2.255020000000000E-01      1.670312000000000E+02
4440000000.000000      4.281006000000000E-01     -4.959570000000000E+01      2.278748000000000E-01      1.371094000000000E+02
4460000000.000000      4.298096000000000E-01     -5.173437000000000E+01      2.261810000000000E-01      1.076172000000000E+02
4480000000.000000      4.219666000000000E-01     -5.341797000000000E+01      2.232742000000000E-01      7.903906000000000E+01
4500000000.000000      4.151917000000000E-01     -5.416016000000000E+01      2.202225000000000E-01      5.072266000000000E+01
4520000000.000000      4.083710000000000E-01     -5.461719000000000E+01      2.172165000000000E-01      2.237695000000000E+01
4540000000.000000      4.100647000000000E-01     -5.437109000000000E+01      2.121811000000000E-01     -6.038574000000000E+00
4560000000.000000      4.171906000000000E-01     -5.462891000000000E+01      2.110825000000000E-01     -3.361719000000000E+01
4580000000.000000      4.290924000000000E-01     -5.562695000000000E+01      2.129974000000000E-01     -6.356054000000000E+01
4600000000.000000      4.356995000000000E-01     -5.757813000000000E+01      2.107315000000000E-01     -9.414063000000000E+01
4620000000.000000      4.371948000000000E-01     -5.899804000000000E+01      2.096252000000000E-01     -1.246445000000000E+02
4640000000.000000      4.408112000000000E-01     -6.022851000000000E+01      2.072067000000000E-01     -1.553516000000000E+02
4660000000.000000      4.430695000000000E-01     -6.178515000000000E+01      2.074432000000000E-01      1.754609000000000E+02
4680000000.000000      4.484406000000000E-01     -6.286133000000000E+01      2.129288000000000E-01      1.455781000000000E+02
4700000000.000000      4.521790000000000E-01     -6.484765000000000E+01      2.148132000000000E-01      1.156211000000000E+02
4720000000.000000      4.522400000000000E-01     -6.697656000000000E+01      2.158890000000000E-01      8.719141000000000E+01
4740000000.000000      4.543304000000000E-01     -6.925781000000000E+01      2.194977000000000E-01      5.882617000000000E+01
4760000000.000000      4.522400000000000E-01     -7.186328000000000E+01      2.184296000000000E-01      3.051953000000000E+01
4780000000.000000      4.465179000000000E-01     -7.405468000000000E+01      2.150116000000000E-01      2.276855000000000E+00
4800000000.000000      4.417267000000000E-01     -7.653125000000000E+01      2.087860000000000E-01     -2.580078000000000E+01
4820000000.000000      4.272156000000000E-01     -7.910937000000000E+01      1.985855000000000E-01     -5.389257000000000E+01
4840000000.000000      4.066772000000000E-01     -8.067186000000000E+01      1.882324000000000E-01     -8.168749000000000E+01
4860000000.000000      3.839874000000000E-01     -8.113281000000000E+01      1.802444000000000E-01     -1.108789000000000E+02
4880000000.000000      3.652191000000000E-01     -7.908593000000000E+01      1.654968000000000E-01     -1.407031000000000E+02
4900000000.000000      3.608093000000000E-01     -7.650391000000000E+01      1.515503000000000E-01     -1.666953000000000E+02
4920000000.000000      3.687134000000000E-01     -7.376562000000000E+01      1.559753000000000E-01      1.685625000000000E+02
4940000000.000000      3.914185000000000E-01     -7.221874000000000E+01      1.696625000000000E-01      1.388281000000000E+02
4960000000.000000      4.206848000000000E-01     -7.327343000000000E+01      1.778870000000000E-01      1.076641000000000E+02
4980000000.000000      4.422913000000000E-01     -7.649219000000000E+01      1.867981000000000E-01      7.825781000000000E+01
5000000000.000000      4.499817000000000E-01     -8.025391000000000E+01      1.981125000000000E-01      4.891796000000000E+01
5020000000.000000      4.451141000000000E-01     -8.358593000000000E+01      2.043457000000000E-01      1.959180000000000E+01
5040000000.000000      4.320679000000000E-01     -8.588282000000000E+01      2.064514000000000E-01     -7.325195000000000E+00
5060000000.000000      4.220276000000000E-01     -8.683203000000000E+01      2.123947000000000E-01     -3.295507000000000E+01
5080000000.000000      4.143677000000000E-01     -8.698437000000000E+01      2.176361000000000E-01     -6.044531000000000E+01
5100000000.000000      4.154053000000000E-01     -8.753124000000000E+01      2.146378000000000E-01     -8.780859000000000E+01
5120000000.000000      4.167938000000000E-01     -8.822657000000000E+01      2.125092000000000E-01     -1.147031000000000E+02
5140000000.000000      4.207001000000000E-01     -8.885157000000000E+01      2.087555000000000E-01     -1.431250000000000E+02
5160000000.000000      4.248505000000000E-01     -9.013672000000000E+01      2.035828000000000E-01     -1.723359000000000E+02
5180000000.000000      4.303284000000000E-01     -9.119532000000000E+01      1.995621000000000E-01      1.576797000000000E+02
5200000000.000000      4.373627000000000E-01     -9.260937000000000E+01      1.967468000000000E-01      1.272266000000000E+02
5220000000.000000      4.404297000000000E-01     -9.437891000000000E+01      1.973038000000000E-01      9.668358000000000E+01
5240000000.000000      4.411316000000000E-01     -9.599609000000000E+01      2.003937000000000E-01      6.598046000000000E+01
5260000000.000000      4.389954000000000E-01     -9.757030000000000E+01      2.050781000000000E-01      3.548437000000000E+01
5280000000.000000      4.362488000000000E-01     -9.878124000000000E+01      2.093048000000000E-01      6.003906000000000E+00
5300000000.000000      4.349670000000000E-01     -9.995312000000000E+01      2.136459000000000E-01     -2.163086000000000E+01
5320000000.000000      4.328613000000000E-01     -1.010312000000000E+02      2.206116000000000E-01     -4.827538000000000E+01
5340000000.000000      4.350281000000000E-01     -1.022656000000000E+02      2.241669000000000E-01     -7.583984000000000E+01
5360000000.000000      4.349976000000000E-01     -1.038515000000000E+02      2.230301000000000E-01     -1.024375000000000E+02
5380000000.000000      4.337311000000000E-01     -1.048867000000000E+02      2.202606000000000E-01     -1.288594000000000E+02
5400000000.000000      4.361115000000000E-01     -1.061055000000000E+02      2.149811000000000E-01     -1.556641000000000E+02
5420000000.000000      4.387665000000000E-01     -1.065820000000000E+02      2.098465000000000E-01      1.770703000000000E+02
5440000000.000000      4.450836000000000E-01     -1.070625000000000E+02      2.029800000000000E-01      1.479375000000000E+02
5460000000.000000      4.531250000000000E-01     -1.085859000000000E+02      1.944580000000000E-01      1.183437000000000E+02
5480000000.000000      4.566345000000000E-01     -1.105195000000000E+02      1.903763000000000E-01      8.776562000000000E+01
5500000000.000000      4.579468000000000E-01     -1.129102000000000E+02      1.896286000000000E-01      5.633203000000000E+01
5520000000.000000      4.527130000000000E-01     -1.153086000000000E+02      1.908340000000000E-01      2.472656000000000E+01
5540000000.000000      4.469147000000000E-01     -1.171523000000000E+02      1.928940000000000E-01     -5.983643000000000E+00
5560000000.000000      4.395447000000000E-01     -1.191602000000000E+02      1.978683000000000E-01     -3.482031000000000E+01
5580000000.000000      4.305573000000000E-01     -1.204414000000000E+02      2.061539000000000E-01     -6.312500000000000E+01
5600000000.000000      4.262543000000000E-01     -1.211367000000000E+02      2.107239000000000E-01     -9.042969000000000E+01
5620000000.000000      4.201050000000000E-01     -1.219102000000000E+02      2.147293000000000E-01     -1.171953000000000E+02
5640000000.000000      4.161682000000000E-01     -1.219648000000000E+02      2.150650000000000E-01     -1.437109000000000E+02
5660000000.000000      4.178467000000000E-01     -1.217461000000000E+02      2.112885000000000E-01     -1.693125000000000E+02
5680000000.000000      4.237061000000000E-01     -1.216133000000000E+02      2.065353000000000E-01      1.639297000000000E+02
5700000000.000000      4.353333000000000E-01     -1.226015000000000E+02      1.985931000000000E-01      1.370078000000000E+02
5720000000.000000      4.474030000000000E-01     -1.244297000000000E+02      1.897812000000000E-01      1.092500000000000E+02
5740000000.000000      4.539948000000000E-01     -1.273281000000000E+02      1.826553000000000E-01      7.937109000000000E+01
5760000000.000000      4.534302000000000E-01     -1.304922000000000E+02      1.747513000000000E-01      4.692187000000000E+01
5780000000.000000      4.428864000000000E-01     -1.330156000000000E+02      1.678848000000000E-01      1.463623000000000E+01
5800000000.000000      4.309082000000000E-01     -1.344687000000000E+02      1.660461000000000E-01     -1.683984000000000E+01
5820000000.000000      4.233551000000000E-01     -1.349219000000000E+02      1.721954000000000E-01     -4.775781000000000E+01
5840000000.000000      4.242249000000000E-01     -1.355234000000000E+02      1.829376000000000E-01     -7.909374000000000E+01
5860000000.000000      4.288940000000000E-01     -1.367500000000000E+02      1.891556000000000E-01     -1.083945000000000E+02
5880000000.000000      4.328003000000000E-01     -1.386016000000000E+02      1.953201000000000E-01     -1.359375000000000E+02
5900000000.000000      4.341278000000000E-01     -1.405859000000000E+02      2.011948000000000E-01     -1.624687000000000E+02
5920000000.000000      4.298553000000000E-01     -1.426328000000000E+02      2.034302000000000E-01      1.706953000000000E+02
5940000000.000000      4.260406000000000E-01     -1.438281000000000E+02      1.989975000000000E-01      1.437422000000000E+02
5960000000.000000      4.220581000000000E-01     -1.454531000000000E+02      1.894913000000000E-01      1.183281000000000E+02
5980000000.000000      4.151917000000000E-01     -1.468750000000000E+02      1.821823000000000E-01      9.205469000000000E+01
6000000000.000000      4.073944000000000E-01     -1.484844000000000E+02      1.720963000000000E-01      6.306445000000000E+01
6020000000.000000      3.920288000000000E-01     -1.502187000000000E+02      1.592331000000000E-01      3.267773000000000E+01
6040000000.000000      3.768768000000000E-01     -1.508437000000000E+02      1.450729000000000E-01      2.150513000000000E+00
6060000000.000000      3.677979000000000E-01     -1.508906000000000E+02      1.385422000000000E-01     -2.827343000000000E+01
6080000000.000000      3.642731000000000E-01     -1.499922000000000E+02      1.430817000000000E-01     -5.967578000000000E+01
