! Network Analyzer HP8722D
! Hewlett-Packard
! Data name: Linha com CNT
! Saver's name: Rodrigo Anjos
! Comments: Teste de deteccao de acetona 0-100ppm a partir de cilindro
! Time and date: 10/9/2025 17:42
!              Frequency                     S11                                                   S21                                                   S12                                                   S22
# HZ  S  MA R 50
3000000000.000000      9.764099000000000E-02      6.419531000000000E+01      4.474945000000000E-01      2.490723000000000E+01
3020000000.000000      1.180916000000000E-01      5.649023000000000E+01      4.491119000000000E-01     -4.228516000000000E+00
3040000000.000000      1.250763000000000E-01      4.503906000000000E+01      4.487610000000000E-01     -3.313477000000000E+01
3060000000.000000      1.174126000000000E-01      3.441406000000000E+01      4.462280000000000E-01     -6.161133000000000E+01
3080000000.000000      1.007957000000000E-01      2.677441000000000E+01      4.465027000000000E-01     -9.011328000000000E+01
3100000000.000000      8.479691000000000E-02      2.559179000000000E+01      4.451904000000000E-01     -1.185625000000000E+02
3120000000.000000      7.740402000000000E-02      3.043262000000000E+01      4.418182000000000E-01     -1.472344000000000E+02
3140000000.000000      7.622528000000000E-02      3.136230000000000E+01      4.385376000000000E-01     -1.758750000000000E+02
3160000000.000000      6.929779000000000E-02      2.865429000000000E+01      4.357452000000000E-01      1.558828000000000E+02
3180000000.000000      4.897308000000000E-02      3.254687000000000E+01      4.322510000000000E-01      1.273320000000000E+02
3200000000.000000      3.740311000000000E-02      7.780468000000000E+01      4.279480000000000E-01      9.766014000000000E+01
3220000000.000000      7.526779000000000E-02      1.059961000000000E+02      4.156952000000000E-01      6.852344000000000E+01
3240000000.000000      1.271591000000000E-01      1.018555000000000E+02      4.042053000000000E-01      4.109961000000000E+01
3260000000.000000      1.765366000000000E-01      9.028906000000000E+01      4.084320000000000E-01      1.386719000000000E+01
3280000000.000000      2.126312000000000E-01      7.588672000000000E+01      4.140472000000000E-01     -1.549219000000000E+01
3300000000.000000      2.323761000000000E-01      6.141602000000000E+01      4.090881000000000E-01     -4.423633000000000E+01
3320000000.000000      2.370224000000000E-01      4.800976000000000E+01      4.102631000000000E-01     -7.187890000000000E+01
3340000000.000000      2.284012000000000E-01      3.669531000000000E+01      4.170227000000000E-01     -1.006836000000000E+02
3360000000.000000      2.102661000000000E-01      2.841601000000000E+01      4.188538000000000E-01     -1.290234000000000E+02
3380000000.000000      1.911316000000000E-01      2.351465000000000E+01      4.229431000000000E-01     -1.573281000000000E+02
3400000000.000000      1.736069000000000E-01      2.109863000000000E+01      4.259186000000000E-01      1.739687000000000E+02
3420000000.000000      1.606750000000000E-01      2.034082000000000E+01      4.259186000000000E-01      1.452812000000000E+02
3440000000.000000      1.492081000000000E-01      1.945801000000000E+01      4.233398000000000E-01      1.163555000000000E+02
3460000000.000000      1.379776000000000E-01      2.017773000000000E+01      4.221039000000000E-01      8.799219000000000E+01
3480000000.000000      1.314850000000000E-01      2.086524000000000E+01      4.223328000000000E-01      5.922852000000000E+01
3500000000.000000      1.270294000000000E-01      2.274121000000000E+01      4.174652000000000E-01      3.028027000000000E+01
3520000000.000000      1.247444000000000E-01      2.421484000000000E+01      4.165497000000000E-01      2.171143000000000E+00
3540000000.000000      1.234398000000000E-01      2.557617000000000E+01      4.182434000000000E-01     -2.641894000000000E+01
3560000000.000000      1.223755000000000E-01      2.922558000000000E+01      4.185181000000000E-01     -5.568164000000000E+01
3580000000.000000      1.267929000000000E-01      3.374414000000000E+01      4.186401000000000E-01     -8.445704000000000E+01
3600000000.000000      1.378021000000000E-01      3.605273000000000E+01      4.177399000000000E-01     -1.125742000000000E+02
3620000000.000000      1.517258000000000E-01      3.484961000000000E+01      4.201355000000000E-01     -1.406094000000000E+02
3640000000.000000      1.583023000000000E-01      3.022949000000000E+01      4.195862000000000E-01     -1.690938000000000E+02
3660000000.000000      1.559296000000000E-01      2.448242000000000E+01      4.181824000000000E-01      1.631719000000000E+02
3680000000.000000      1.459961000000000E-01      2.087207000000000E+01      4.203186000000000E-01      1.354375000000000E+02
3700000000.000000      1.321564000000000E-01      2.187695000000000E+01      4.215088000000000E-01      1.068711000000000E+02
3720000000.000000      1.291733000000000E-01      2.822656000000000E+01      4.215088000000000E-01      7.821484000000000E+01
3740000000.000000      1.435852000000000E-01      3.239843000000000E+01      4.160919000000000E-01      4.981835000000000E+01
3760000000.000000      1.616898000000000E-01      3.111523000000000E+01      4.093933000000000E-01      2.181152000000000E+01
3780000000.000000      1.715393000000000E-01      2.541504000000000E+01      4.093781000000000E-01     -5.739014000000000E+00
3800000000.000000      1.673431000000000E-01      1.899121000000000E+01      4.107056000000000E-01     -3.419922000000000E+01
3820000000.000000      1.506042000000000E-01      1.513086000000000E+01      4.109497000000000E-01     -6.305078000000000E+01
3840000000.000000      1.345673000000000E-01      1.776562000000000E+01      4.093323000000000E-01     -9.210546000000000E+01
3860000000.000000      1.356201000000000E-01      2.408203000000000E+01      4.089355000000000E-01     -1.211875000000000E+02
3880000000.000000      1.511383000000000E-01      2.633203000000000E+01      4.064941000000000E-01     -1.502344000000000E+02
3900000000.000000      1.655579000000000E-01      2.273535000000000E+01      3.997345000000000E-01     -1.783906000000000E+02
3920000000.000000      1.679611000000000E-01      1.645117000000000E+01      3.990936000000000E-01      1.543750000000000E+02
3940000000.000000      1.529388000000000E-01      1.170703000000000E+01      4.080200000000000E-01      1.259922000000000E+02
3960000000.000000      1.330948000000000E-01      1.511719000000000E+01      4.069519000000000E-01      9.666796000000000E+01
3980000000.000000      1.314163000000000E-01      2.544531000000000E+01      3.988342000000000E-01      6.792969000000000E+01
4000000000.000000      1.550751000000000E-01      3.129785000000000E+01      3.937531000000000E-01      4.087500000000000E+01
4020000000.000000      1.882095000000000E-01      2.765918000000000E+01      3.989716000000000E-01      1.307764000000000E+01
4040000000.000000      2.114944000000000E-01      1.758594000000000E+01      4.004822000000000E-01     -1.687500000000000E+01
4060000000.000000      2.120285000000000E-01      5.539795000000000E+00      3.867340000000000E-01     -4.547265000000000E+01
4080000000.000000      1.903000000000000E-01     -6.042480000000000E+00      3.846283000000000E-01     -7.249609000000000E+01
4100000000.000000      1.514359000000000E-01     -1.334033000000000E+01      3.950806000000000E-01     -1.014648000000000E+02
4120000000.000000      1.115189000000000E-01     -9.111816000000000E+00      3.939362000000000E-01     -1.312266000000000E+02
4140000000.000000      9.928131000000000E-02      7.561279000000000E+00      3.865509000000000E-01     -1.600469000000000E+02
4160000000.000000      1.119652000000000E-01      1.830664000000000E+01      3.880768000000000E-01      1.719766000000000E+02
4180000000.000000      1.280441000000000E-01      1.869141000000000E+01      3.948669000000000E-01      1.432578000000000E+02
4200000000.000000      1.304245000000000E-01      1.618652000000000E+01      3.947906000000000E-01      1.135859000000000E+02
4220000000.000000      1.269073000000000E-01      1.795410000000000E+01      3.897247000000000E-01      8.436327000000000E+01
4240000000.000000      1.315460000000000E-01      2.379004000000000E+01      3.837433000000000E-01      5.591797000000000E+01
4260000000.000000      1.508026000000000E-01      2.744238000000000E+01      3.795929000000000E-01      2.762012000000000E+01
4280000000.000000      1.755676000000000E-01      2.588183000000000E+01      3.801727000000000E-01     -4.435730000000000E-01
4300000000.000000      1.942139000000000E-01      1.943945000000000E+01      3.775177000000000E-01     -2.937207000000000E+01
4320000000.000000      1.979370000000000E-01      1.256934000000000E+01      3.742218000000000E-01     -5.814062000000000E+01
4340000000.000000      1.883469000000000E-01      6.995361000000000E+00      3.725281000000000E-01     -8.694139000000000E+01
4360000000.000000      1.766815000000000E-01      5.668945000000000E+00      3.706512000000000E-01     -1.164023000000000E+02
4380000000.000000      1.744461000000000E-01      7.290771000000000E+00      3.681793000000000E-01     -1.457344000000000E+02
4400000000.000000      1.834946000000000E-01      7.638184000000000E+00      3.657837000000000E-01     -1.747734000000000E+02
4420000000.000000      1.939774000000000E-01      4.520752000000000E+00      3.666077000000000E-01      1.564062000000000E+02
4440000000.000000      1.939468000000000E-01     -9.159851000000000E-01      3.685150000000000E-01      1.266484000000000E+02
4460000000.000000      1.805420000000000E-01     -4.303955000000000E+00      3.633881000000000E-01      9.691795000000000E+01
4480000000.000000      1.625061000000000E-01     -2.749390000000000E+00      3.600159000000000E-01      6.862499000000000E+01
4500000000.000000      1.587143000000000E-01      4.239258000000000E+00      3.605957000000000E-01      3.986328000000000E+01
4520000000.000000      1.768265000000000E-01      9.603027000000000E+00      3.555756000000000E-01      1.037500000000000E+01
4540000000.000000      2.044525000000000E-01      7.774170000000000E+00      3.464203000000000E-01     -1.915137000000000E+01
4560000000.000000      2.262650000000000E-01      1.706970000000000E+00      3.413239000000000E-01     -4.711523000000000E+01
4580000000.000000      2.366714000000000E-01     -5.708984000000000E+00      3.424988000000000E-01     -7.670312000000000E+01
4600000000.000000      2.334595000000000E-01     -1.222510000000000E+01      3.397675000000000E-01     -1.068672000000000E+02
4620000000.000000      2.257385000000000E-01     -1.639941000000000E+01      3.345337000000000E-01     -1.362031000000000E+02
4640000000.000000      2.220993000000000E-01     -1.908008000000000E+01      3.346558000000000E-01     -1.657344000000000E+02
4660000000.000000      2.223892000000000E-01     -2.189063000000000E+01      3.332214000000000E-01      1.653828000000000E+02
4680000000.000000      2.243500000000000E-01     -2.631250000000000E+01      3.359833000000000E-01      1.363516000000000E+02
4700000000.000000      2.197723000000000E-01     -3.215039000000000E+01      3.359222000000000E-01      1.065117000000000E+02
4720000000.000000      2.070923000000000E-01     -3.835742000000000E+01      3.336487000000000E-01      7.855469000000000E+01
4740000000.000000      1.911850000000000E-01     -4.375390000000000E+01      3.397064000000000E-01      5.071484000000000E+01
4760000000.000000      1.709824000000000E-01     -4.879883000000000E+01      3.400269000000000E-01      2.199121000000000E+01
4780000000.000000      1.480484000000000E-01     -5.334765000000000E+01      3.368225000000000E-01     -6.536865000000000E+00
4800000000.000000      1.203728000000000E-01     -5.814648000000000E+01      3.332062000000000E-01     -3.500977000000000E+01
4820000000.000000      8.054352000000000E-02     -5.943164000000000E+01      3.254852000000000E-01     -6.415234000000000E+01
4840000000.000000      4.060555000000000E-02     -2.818164000000000E+01      3.186340000000000E-01     -9.301952000000000E+01
4860000000.000000      7.091522000000000E-02      3.046777000000000E+01      3.124695000000000E-01     -1.236406000000000E+02
4880000000.000000      1.383667000000000E-01      3.071582000000000E+01      2.937012000000000E-01     -1.547188000000000E+02
4900000000.000000      2.015457000000000E-01      1.948340000000000E+01      2.712860000000000E-01      1.779063000000000E+02
4920000000.000000      2.507019000000000E-01      5.730713000000000E+00      2.714233000000000E-01      1.525938000000000E+02
4940000000.000000      2.820892000000000E-01     -8.403320000000000E+00      2.847290000000000E-01      1.240977000000000E+02
4960000000.000000      2.904663000000000E-01     -2.255176000000000E+01      2.883911000000000E-01      9.424219000000000E+01
4980000000.000000      2.759247000000000E-01     -3.525195000000000E+01      2.933197000000000E-01      6.706249000000000E+01
5000000000.000000      2.416306000000000E-01     -4.526172000000000E+01      3.072357000000000E-01      3.930273000000000E+01
5020000000.000000      2.003708000000000E-01     -4.923046000000000E+01      3.171234000000000E-01      1.111523000000000E+01
5040000000.000000      1.703949000000000E-01     -4.558398000000000E+01      3.238220000000000E-01     -1.630664000000000E+01
5060000000.000000      1.645966000000000E-01     -3.824414000000000E+01      3.321991000000000E-01     -4.365234000000000E+01
5080000000.000000      1.762772000000000E-01     -3.448242000000000E+01      3.379364000000000E-01     -7.208984000000000E+01
5100000000.000000      1.890945000000000E-01     -3.564062000000000E+01      3.328247000000000E-01     -1.007617000000000E+02
5120000000.000000      1.948929000000000E-01     -3.870508000000000E+01      3.274689000000000E-01     -1.281328000000000E+02
5140000000.000000      1.989288000000000E-01     -4.162109000000000E+01      3.264160000000000E-01     -1.564687000000000E+02
5160000000.000000      2.007370000000000E-01     -4.432226000000000E+01      3.242950000000000E-01      1.741641000000000E+02
5180000000.000000      2.043076000000000E-01     -4.697461000000000E+01      3.207092000000000E-01      1.445781000000000E+02
5200000000.000000      2.067871000000000E-01     -5.084179000000000E+01      3.191528000000000E-01      1.148789000000000E+02
5220000000.000000      2.039566000000000E-01     -5.454296000000000E+01      3.186188000000000E-01      8.521484000000000E+01
5240000000.000000      1.967926000000000E-01     -5.699804000000000E+01      3.232574000000000E-01      5.555078000000000E+01
5260000000.000000      1.904221000000000E-01     -5.773828000000000E+01      3.274231000000000E-01      2.603808000000000E+01
5280000000.000000      1.875916000000000E-01     -5.720898000000000E+01      3.315430000000000E-01     -3.117432000000000E+00
5300000000.000000      1.906128000000000E-01     -5.776757000000000E+01      3.334351000000000E-01     -3.118750000000000E+01
5320000000.000000      1.943130000000000E-01     -5.960546000000000E+01      3.376007000000000E-01     -5.844336000000000E+01
5340000000.000000      1.937408000000000E-01     -6.283593000000000E+01      3.410950000000000E-01     -8.632030000000000E+01
5360000000.000000      1.883392000000000E-01     -6.585546000000000E+01      3.367615000000000E-01     -1.137734000000000E+02
5380000000.000000      1.829071000000000E-01     -6.694530000000000E+01      3.329315000000000E-01     -1.402578000000000E+02
5400000000.000000      1.821365000000000E-01     -6.718359000000000E+01      3.323212000000000E-01     -1.680000000000000E+02
5420000000.000000      1.896820000000000E-01     -6.699609000000000E+01      3.256378000000000E-01      1.637500000000000E+02
5440000000.000000      2.005692000000000E-01     -6.908203000000000E+01      3.211670000000000E-01      1.347734000000000E+02
5460000000.000000      2.082138000000000E-01     -7.383203000000000E+01      3.117218000000000E-01      1.051094000000000E+02
5480000000.000000      2.060471000000000E-01     -7.937500000000000E+01      3.068390000000000E-01      7.583202000000000E+01
5500000000.000000      1.935349000000000E-01     -8.478125000000000E+01      3.081818000000000E-01      4.629687000000000E+01
5520000000.000000      1.744080000000000E-01     -8.805468000000000E+01      3.100433000000000E-01      1.611914000000000E+01
5540000000.000000      1.573029000000000E-01     -8.864061000000000E+01      3.137360000000000E-01     -1.351318000000000E+01
5560000000.000000      1.443710000000000E-01     -8.773829000000000E+01      3.181000000000000E-01     -4.244531000000000E+01
5580000000.000000      1.363907000000000E-01     -8.503124000000000E+01      3.235016000000000E-01     -7.110156000000000E+01
5600000000.000000      1.310730000000000E-01     -8.225389000000000E+01      3.275909000000000E-01     -9.904297000000000E+01
5620000000.000000      1.302719000000000E-01     -7.709765000000000E+01      3.300781000000000E-01     -1.269258000000000E+02
5640000000.000000      1.394882000000000E-01     -7.107031000000000E+01      3.285828000000000E-01     -1.546875000000000E+02
5660000000.000000      1.597595000000000E-01     -6.831640000000000E+01      3.228760000000000E-01      1.778750000000000E+02
5680000000.000000      1.858749000000000E-01     -7.094531000000000E+01      3.160553000000000E-01      1.499141000000000E+02
5700000000.000000      2.075272000000000E-01     -7.832812000000000E+01      3.063660000000000E-01      1.217656000000000E+02
5720000000.000000      2.153702000000000E-01     -8.775391000000000E+01      2.943268000000000E-01      9.414454000000000E+01
5740000000.000000      2.071609000000000E-01     -9.751953000000000E+01      2.908325000000000E-01      6.560547000000000E+01
5760000000.000000      1.845932000000000E-01     -1.052500000000000E+02      2.875977000000000E-01      3.512500000000000E+01
5780000000.000000      1.583099000000000E-01     -1.078750000000000E+02      2.838745000000000E-01      4.711670000000000E+00
5800000000.000000      1.417618000000000E-01     -1.043086000000000E+02      2.844391000000000E-01     -2.518555000000000E+01
5820000000.000000      1.420441000000000E-01     -1.001758000000000E+02      2.895813000000000E-01     -5.518164000000000E+01
5840000000.000000      1.519012000000000E-01     -1.012852000000000E+02      2.967224000000000E-01     -8.557032000000000E+01
5860000000.000000      1.565323000000000E-01     -1.072227000000000E+02      2.965851000000000E-01     -1.147383000000000E+02
5880000000.000000      1.500626000000000E-01     -1.149258000000000E+02      2.971497000000000E-01     -1.422031000000000E+02
5900000000.000000      1.348038000000000E-01     -1.204102000000000E+02      3.055725000000000E-01     -1.693203000000000E+02
5920000000.000000      1.163368000000000E-01     -1.211680000000000E+02      3.088379000000000E-01      1.621875000000000E+02
5940000000.000000      1.070747000000000E-01     -1.168555000000000E+02      3.040314000000000E-01      1.334453000000000E+02
5960000000.000000      1.041908000000000E-01     -1.150430000000000E+02      2.921448000000000E-01      1.057891000000000E+02
5980000000.000000      9.703827000000000E-02     -1.157734000000000E+02      2.842102000000000E-01      7.815234000000000E+01
6000000000.000000      8.087921000000000E-02     -1.162226000000000E+02      2.805023000000000E-01      4.843945000000000E+01
6020000000.000000      5.929184000000000E-02     -1.046680000000000E+02      2.709656000000000E-01      1.775195000000000E+01
6040000000.000000      5.827904000000000E-02     -7.557422000000000E+01      2.584534000000000E-01     -1.238867000000000E+01
6060000000.000000      8.321762000000000E-02     -6.247265000000000E+01      2.554626000000000E-01     -4.205468000000000E+01
6080000000.000000      1.136475000000000E-01     -6.548828000000000E+01      2.612000000000000E-01     -7.230078000000000E+01
