! Network Analyzer HP8722D
! Hewlett-Packard
! Data name: Linha com CNT
! Saver's name: Rodrigo Anjos
! Comments: Teste de deteccao de acetona 0-100ppm a partir de cilindro
! Time and date: 10/9/2025 17:24
!              Frequency                     S11                                                   S21                                                   S12                                                   S22
# HZ  S  MA R 50
3000000000.000000      4.109650000000000E-01      1.689941000000000E+01      2.584991000000000E-01      3.283398000000000E+01
3020000000.000000      4.203186000000000E-01      1.651758000000000E+01      2.622528000000000E-01      3.532104000000000E+00
3040000000.000000      4.295044000000000E-01      1.522803000000000E+01      2.625427000000000E-01     -2.555371000000000E+01
3060000000.000000      4.326630000000000E-01      1.320557000000000E+01      2.625885000000000E-01     -5.477539000000000E+01
3080000000.000000      4.299927000000000E-01      1.113037000000000E+01      2.586517000000000E-01     -8.364452000000000E+01
3100000000.000000      4.249573000000000E-01      9.695313000000000E+00      2.569122000000000E-01     -1.116680000000000E+02
3120000000.000000      4.228668000000000E-01      8.926270000000000E+00      2.563477000000000E-01     -1.401562000000000E+02
3140000000.000000      4.239502000000000E-01      8.020020000000000E+00      2.523193000000000E-01     -1.687109000000000E+02
3160000000.000000      4.238586000000000E-01      6.929443000000000E+00      2.483978000000000E-01      1.626484000000000E+02
3180000000.000000      4.181519000000000E-01      5.543945000000000E+00      2.432861000000000E-01      1.345781000000000E+02
3200000000.000000      4.053802000000000E-01      5.041260000000000E+00      2.390747000000000E-01      1.058789000000000E+02
3220000000.000000      3.935547000000000E-01      5.641357000000000E+00      2.290955000000000E-01      7.727734000000000E+01
3240000000.000000      3.883820000000000E-01      6.974854000000000E+00      2.221451000000000E-01      5.193945000000000E+01
3260000000.000000      3.914795000000000E-01      8.946777000000000E+00      2.307129000000000E-01      2.582812000000000E+01
3280000000.000000      4.064026000000000E-01      1.005762000000000E+01      2.384186000000000E-01     -3.588501000000000E+00
3300000000.000000      4.284668000000000E-01      9.402832000000000E+00      2.416763000000000E-01     -3.223242000000000E+01
3320000000.000000      4.484253000000000E-01      7.606445000000000E+00      2.492828000000000E-01     -6.105663000000000E+01
3340000000.000000      4.607239000000000E-01      4.973877000000000E+00      2.545929000000000E-01     -9.074219000000000E+01
3360000000.000000      4.644165000000000E-01      2.404541000000000E+00      2.561035000000000E-01     -1.203555000000000E+02
3380000000.000000      4.633179000000000E-01      4.023743000000000E-01      2.562714000000000E-01     -1.496328000000000E+02
3400000000.000000      4.578857000000000E-01     -1.218140000000000E+00      2.561493000000000E-01     -1.783437000000000E+02
3420000000.000000      4.538879000000000E-01     -2.340088000000000E+00      2.543945000000000E-01      1.524609000000000E+02
3440000000.000000      4.483032000000000E-01     -3.714844000000000E+00      2.498779000000000E-01      1.242109000000000E+02
3460000000.000000      4.426727000000000E-01     -4.632324000000000E+00      2.505951000000000E-01      9.586329000000000E+01
3480000000.000000      4.418182000000000E-01     -5.654053000000000E+00      2.480621000000000E-01      6.692968000000000E+01
3500000000.000000      4.390411000000000E-01     -6.510986000000000E+00      2.454453000000000E-01      3.871875000000000E+01
3520000000.000000      4.375610000000000E-01     -7.280029000000000E+00      2.450180000000000E-01      9.891602000000000E+00
3540000000.000000      4.388123000000000E-01     -8.113770000000000E+00      2.414780000000000E-01     -1.848730000000000E+01
3560000000.000000      4.362488000000000E-01     -8.798828000000000E+00      2.424088000000000E-01     -4.663281000000000E+01
3580000000.000000      4.333038000000000E-01     -9.199707000000000E+00      2.421188000000000E-01     -7.547265000000000E+01
3600000000.000000      4.322662000000000E-01     -9.642090000000000E+00      2.420425000000000E-01     -1.029922000000000E+02
3620000000.000000      4.348907000000000E-01     -9.989746000000000E+00      2.462311000000000E-01     -1.313984000000000E+02
3640000000.000000      4.380951000000000E-01     -1.089990000000000E+01      2.470474000000000E-01     -1.597891000000000E+02
3660000000.000000      4.410400000000000E-01     -1.244092000000000E+01      2.487793000000000E-01      1.720000000000000E+02
3680000000.000000      4.420776000000000E-01     -1.395850000000000E+01      2.471848000000000E-01      1.434219000000000E+02
3700000000.000000      4.361572000000000E-01     -1.544141000000000E+01      2.460327000000000E-01      1.161601000000000E+02
3720000000.000000      4.293213000000000E-01     -1.595801000000000E+01      2.472153000000000E-01      8.762499000000000E+01
3740000000.000000      4.294586000000000E-01     -1.597021000000000E+01      2.419128000000000E-01      5.937304000000000E+01
3760000000.000000      4.328003000000000E-01     -1.589893000000000E+01      2.411118000000000E-01      3.222656000000000E+01
3780000000.000000      4.388428000000000E-01     -1.660352000000000E+01      2.435150000000000E-01      3.746338000000000E+00
3800000000.000000      4.455414000000000E-01     -1.828320000000000E+01      2.420425000000000E-01     -2.534961000000000E+01
3820000000.000000      4.425659000000000E-01     -2.039258000000000E+01      2.403030000000000E-01     -5.406250000000000E+01
3840000000.000000      4.370270000000000E-01     -2.171093000000000E+01      2.396240000000000E-01     -8.273438000000000E+01
3860000000.000000      4.320374000000000E-01     -2.236426000000000E+01      2.398529000000000E-01     -1.117031000000000E+02
3880000000.000000      4.315643000000000E-01     -2.256934000000000E+01      2.370682000000000E-01     -1.404219000000000E+02
3900000000.000000      4.368134000000000E-01     -2.310059000000000E+01      2.360535000000000E-01     -1.682500000000000E+02
3920000000.000000      4.417877000000000E-01     -2.431055000000000E+01      2.388916000000000E-01      1.634844000000000E+02
3940000000.000000      4.428711000000000E-01     -2.619629000000000E+01      2.385864000000000E-01      1.349531000000000E+02
3960000000.000000      4.344330000000000E-01     -2.761230000000000E+01      2.390976000000000E-01      1.063750000000000E+02
3980000000.000000      4.247131000000000E-01     -2.804492000000000E+01      2.324142000000000E-01      7.782031000000000E+01
4000000000.000000      4.210205000000000E-01     -2.773730000000000E+01      2.290802000000000E-01      5.215038000000000E+01
4020000000.000000      4.263916000000000E-01     -2.720996000000000E+01      2.374115000000000E-01      2.436035000000000E+01
4040000000.000000      4.428101000000000E-01     -2.784570000000000E+01      2.376328000000000E-01     -5.984863000000000E+00
4060000000.000000      4.564362000000000E-01     -3.000683000000000E+01      2.335587000000000E-01     -3.477344000000000E+01
4080000000.000000      4.626160000000000E-01     -3.316992000000000E+01      2.333221000000000E-01     -6.356445000000000E+01
4100000000.000000      4.548035000000000E-01     -3.626367000000000E+01      2.339096000000000E-01     -9.279297000000000E+01
4120000000.000000      4.395294000000000E-01     -3.822461000000000E+01      2.309723000000000E-01     -1.230430000000000E+02
4140000000.000000      4.275208000000000E-01     -3.871094000000000E+01      2.234955000000000E-01     -1.513828000000000E+02
4160000000.000000      4.203491000000000E-01     -3.883984000000000E+01      2.249069000000000E-01     -1.781953000000000E+02
4180000000.000000      4.211731000000000E-01     -3.897656000000000E+01      2.300644000000000E-01      1.527656000000000E+02
4200000000.000000      4.221344000000000E-01     -4.017187000000000E+01      2.276993000000000E-01      1.238906000000000E+02
4220000000.000000      4.193420000000000E-01     -4.117969000000000E+01      2.285919000000000E-01      9.587500000000000E+01
4240000000.000000      4.138489000000000E-01     -4.176758000000000E+01      2.238770000000000E-01      6.668750000000000E+01
4260000000.000000      4.120178000000000E-01     -4.184570000000000E+01      2.189713000000000E-01      3.971484000000000E+01
4280000000.000000      4.119873000000000E-01     -4.157227000000000E+01      2.209930000000000E-01      1.201074000000000E+01
4300000000.000000      4.182892000000000E-01     -4.176758000000000E+01      2.202530000000000E-01     -1.664160000000000E+01
4320000000.000000      4.264069000000000E-01     -4.290820000000000E+01      2.197876000000000E-01     -4.548242000000000E+01
4340000000.000000      4.295197000000000E-01     -4.483788000000000E+01      2.205505000000000E-01     -7.486328000000000E+01
4360000000.000000      4.293365000000000E-01     -4.661914000000000E+01      2.201004000000000E-01     -1.046133000000000E+02
4380000000.000000      4.250183000000000E-01     -4.770703000000000E+01      2.178955000000000E-01     -1.347344000000000E+02
4400000000.000000      4.238281000000000E-01     -4.829687000000000E+01      2.156296000000000E-01     -1.633672000000000E+02
4420000000.000000      4.278870000000000E-01     -4.877734000000000E+01      2.198944000000000E-01      1.676484000000000E+02
4440000000.000000      4.340973000000000E-01     -4.995117000000000E+01      2.216187000000000E-01      1.378438000000000E+02
4460000000.000000      4.346008000000000E-01     -5.188867000000000E+01      2.197723000000000E-01      1.086172000000000E+02
4480000000.000000      4.284973000000000E-01     -5.364452000000000E+01      2.177505000000000E-01      7.991015000000000E+01
4500000000.000000      4.191132000000000E-01     -5.495703000000000E+01      2.148514000000000E-01      5.183007000000000E+01
4520000000.000000      4.132996000000000E-01     -5.500781000000000E+01      2.116623000000000E-01      2.330273000000000E+01
4540000000.000000      4.145813000000000E-01     -5.483007000000000E+01      2.064285000000000E-01     -5.051025000000000E+00
4560000000.000000      4.217529000000000E-01     -5.503124000000000E+01      2.058868000000000E-01     -3.265820000000000E+01
4580000000.000000      4.332733000000000E-01     -5.616405000000000E+01      2.073135000000000E-01     -6.265234000000000E+01
4600000000.000000      4.399414000000000E-01     -5.787499000000000E+01      2.051849000000000E-01     -9.310938000000000E+01
4620000000.000000      4.429932000000000E-01     -5.949413000000000E+01      2.047882000000000E-01     -1.237226000000000E+02
4640000000.000000      4.440155000000000E-01     -6.074804000000000E+01      2.016449000000000E-01     -1.546484000000000E+02
4660000000.000000      4.464264000000000E-01     -6.206249000000000E+01      2.023544000000000E-01      1.764219000000000E+02
4680000000.000000      4.525909000000000E-01     -6.305469000000000E+01      2.075424000000000E-01      1.464609000000000E+02
4700000000.000000      4.569244000000000E-01     -6.505859000000000E+01      2.090836000000000E-01      1.164961000000000E+02
4720000000.000000      4.580994000000000E-01     -6.721484000000000E+01      2.117157000000000E-01      8.799219000000000E+01
4740000000.000000      4.589233000000000E-01     -6.959765000000000E+01      2.146225000000000E-01      5.945703000000000E+01
4760000000.000000      4.577332000000000E-01     -7.197656000000000E+01      2.137527000000000E-01      3.124316000000000E+01
4780000000.000000      4.521942000000000E-01     -7.432812000000000E+01      2.104034000000000E-01      3.021240000000000E+00
4800000000.000000      4.449615000000000E-01     -7.689843000000000E+01      2.033539000000000E-01     -2.500683000000000E+01
4820000000.000000      4.321136000000000E-01     -7.916797000000000E+01      1.936188000000000E-01     -5.300390000000000E+01
4840000000.000000      4.126434000000000E-01     -8.098436000000000E+01      1.828232000000000E-01     -8.058203000000000E+01
4860000000.000000      3.905487000000000E-01     -8.120703000000000E+01      1.752090000000000E-01     -1.097070000000000E+02
4880000000.000000      3.721924000000000E-01     -7.971093000000000E+01      1.607208000000000E-01     -1.396875000000000E+02
4900000000.000000      3.654785000000000E-01     -7.698437000000000E+01      1.470795000000000E-01     -1.652891000000000E+02
4920000000.000000      3.737030000000000E-01     -7.434765000000000E+01      1.518021000000000E-01      1.699062000000000E+02
4940000000.000000      3.952026000000000E-01     -7.287109000000000E+01      1.647568000000000E-01      1.400625000000000E+02
4960000000.000000      4.243774000000000E-01     -7.374218000000000E+01      1.732712000000000E-01      1.086914000000000E+02
4980000000.000000      4.466553000000000E-01     -7.677734000000000E+01      1.825562000000000E-01      7.921875000000000E+01
5000000000.000000      4.547272000000000E-01     -8.064062000000000E+01      1.931686000000000E-01      4.978906000000000E+01
5020000000.000000      4.489594000000000E-01     -8.401953000000000E+01      1.999664000000000E-01      2.026269000000000E+01
5040000000.000000      4.370117000000000E-01     -8.613281000000000E+01      2.016220000000000E-01     -6.608398000000000E+00
5060000000.000000      4.254456000000000E-01     -8.716406000000000E+01      2.071228000000000E-01     -3.221094000000000E+01
5080000000.000000      4.188843000000000E-01     -8.750000000000000E+01      2.125244000000000E-01     -5.949804000000000E+01
5100000000.000000      4.193268000000000E-01     -8.790625000000000E+01      2.092285000000000E-01     -8.691015000000000E+01
5120000000.000000      4.216003000000000E-01     -8.853907000000000E+01      2.080154000000000E-01     -1.137734000000000E+02
5140000000.000000      4.262238000000000E-01     -8.942968000000000E+01      2.041473000000000E-01     -1.421484000000000E+02
5160000000.000000      4.288177000000000E-01     -9.056250000000000E+01      1.988449000000000E-01     -1.712109000000000E+02
5180000000.000000      4.339600000000000E-01     -9.154688000000000E+01      1.948776000000000E-01      1.587656000000000E+02
5200000000.000000      4.414368000000000E-01     -9.297655000000000E+01      1.915283000000000E-01      1.281953000000000E+02
5220000000.000000      4.449463000000000E-01     -9.466797000000000E+01      1.921158000000000E-01      9.764452000000000E+01
5240000000.000000      4.455261000000000E-01     -9.633593000000000E+01      1.954498000000000E-01      6.669140000000000E+01
5260000000.000000      4.436493000000000E-01     -9.794922000000000E+01      2.001419000000000E-01      3.620508000000000E+01
5280000000.000000      4.403229000000000E-01     -9.917969000000000E+01      2.044907000000000E-01      6.790771000000000E+00
5300000000.000000      4.385376000000000E-01     -1.002773000000000E+02      2.084122000000000E-01     -2.087305000000000E+01
5320000000.000000      4.382782000000000E-01     -1.013320000000000E+02      2.160110000000000E-01     -4.761328000000000E+01
5340000000.000000      4.391937000000000E-01     -1.025859000000000E+02      2.197037000000000E-01     -7.515625000000000E+01
5360000000.000000      4.391022000000000E-01     -1.041875000000000E+02      2.188263000000000E-01     -1.012852000000000E+02
5380000000.000000      4.395752000000000E-01     -1.052344000000000E+02      2.165985000000000E-01     -1.280547000000000E+02
5400000000.000000      4.403992000000000E-01     -1.063789000000000E+02      2.107925000000000E-01     -1.547344000000000E+02
5420000000.000000      4.426117000000000E-01     -1.068516000000000E+02      2.048874000000000E-01      1.781328000000000E+02
5440000000.000000      4.489441000000000E-01     -1.075586000000000E+02      1.986084000000000E-01      1.490156000000000E+02
5460000000.000000      4.560547000000000E-01     -1.089297000000000E+02      1.894455000000000E-01      1.193125000000000E+02
5480000000.000000      4.618073000000000E-01     -1.108516000000000E+02      1.859131000000000E-01      8.874218000000000E+01
5500000000.000000      4.631500000000000E-01     -1.133008000000000E+02      1.848679000000000E-01      5.730273000000000E+01
5520000000.000000      4.573517000000000E-01     -1.156133000000000E+02      1.858826000000000E-01      2.539063000000000E+01
5540000000.000000      4.509125000000000E-01     -1.175937000000000E+02      1.876297000000000E-01     -5.397217000000000E+00
5560000000.000000      4.435883000000000E-01     -1.193672000000000E+02      1.924973000000000E-01     -3.400781000000000E+01
5580000000.000000      4.356079000000000E-01     -1.206406000000000E+02      2.012634000000000E-01     -6.246484000000000E+01
5600000000.000000      4.307098000000000E-01     -1.215469000000000E+02      2.064285000000000E-01     -8.999218000000000E+01
5620000000.000000      4.261169000000000E-01     -1.222227000000000E+02      2.102280000000000E-01     -1.162969000000000E+02
5640000000.000000      4.217834000000000E-01     -1.223906000000000E+02      2.109680000000000E-01     -1.427422000000000E+02
5660000000.000000      4.221497000000000E-01     -1.222930000000000E+02      2.072830000000000E-01     -1.685234000000000E+02
5680000000.000000      4.279938000000000E-01     -1.221641000000000E+02      2.023926000000000E-01      1.650078000000000E+02
5700000000.000000      4.389496000000000E-01     -1.229062000000000E+02      1.938782000000000E-01      1.379219000000000E+02
5720000000.000000      4.515533000000000E-01     -1.247227000000000E+02      1.856308000000000E-01      1.103750000000000E+02
5740000000.000000      4.587708000000000E-01     -1.275312000000000E+02      1.786880000000000E-01      8.056641000000000E+01
5760000000.000000      4.578247000000000E-01     -1.307969000000000E+02      1.706696000000000E-01      4.810937000000000E+01
5780000000.000000      4.469299000000000E-01     -1.333516000000000E+02      1.637344000000000E-01      1.551807000000000E+01
5800000000.000000      4.349365000000000E-01     -1.347109000000000E+02      1.607742000000000E-01     -1.604590000000000E+01
5820000000.000000      4.275513000000000E-01     -1.352266000000000E+02      1.673584000000000E-01     -4.688281000000000E+01
5840000000.000000      4.279327000000000E-01     -1.357891000000000E+02      1.783371000000000E-01     -7.835546000000000E+01
5860000000.000000      4.330139000000000E-01     -1.369453000000000E+02      1.845856000000000E-01     -1.073516000000000E+02
5880000000.000000      4.382324000000000E-01     -1.389297000000000E+02      1.915817000000000E-01     -1.352656000000000E+02
5900000000.000000      4.387054000000000E-01     -1.409297000000000E+02      1.967621000000000E-01     -1.620469000000000E+02
5920000000.000000      4.346466000000000E-01     -1.428516000000000E+02      1.995087000000000E-01      1.714219000000000E+02
5940000000.000000      4.299774000000000E-01     -1.441172000000000E+02      1.942444000000000E-01      1.446640000000000E+02
5960000000.000000      4.258881000000000E-01     -1.455391000000000E+02      1.858444000000000E-01      1.196680000000000E+02
5980000000.000000      4.208679000000000E-01     -1.471250000000000E+02      1.784515000000000E-01      9.290234000000000E+01
6000000000.000000      4.123077000000000E-01     -1.488359000000000E+02      1.687851000000000E-01      6.417578000000000E+01
6020000000.000000      3.981323000000000E-01     -1.505234000000000E+02      1.552887000000000E-01      3.400781000000000E+01
6040000000.000000      3.823700000000000E-01     -1.512500000000000E+02      1.404800000000000E-01      3.302734000000000E+00
6060000000.000000      3.721619000000000E-01     -1.511875000000000E+02      1.337280000000000E-01     -2.689062000000000E+01
6080000000.000000      3.689728000000000E-01     -1.502109000000000E+02      1.385956000000000E-01     -5.845898000000000E+01
