! Network Analyzer HP8722D
! Hewlett-Packard
! Data name: Linha com CNT
! Saver's name: Rodrigo Anjos
! Comments: Teste de deteccao de acetona 0-100ppm a partir de cilindro
! Time and date: 10/9/2025 16:04
!              Frequency                     S11                                                   S21                                                   S12                                                   S22
# HZ  S  MA R 50
3000000000.000000      2.915955000000000E-01      2.204785000000000E+01      3.148804000000000E-01      2.899511000000000E+01
3020000000.000000      3.049774000000000E-01      2.167969000000000E+01      3.186035000000000E-01     -4.229736000000000E-01
3040000000.000000      3.164215000000000E-01      1.956445000000000E+01      3.189697000000000E-01     -2.949316000000000E+01
3060000000.000000      3.190002000000000E-01      1.635644000000000E+01      3.178711000000000E-01     -5.847461000000000E+01
3080000000.000000      3.124542000000000E-01      1.352930000000000E+01      3.151245000000000E-01     -8.732813000000000E+01
3100000000.000000      3.052216000000000E-01      1.196094000000000E+01      3.130341000000000E-01     -1.154140000000000E+02
3120000000.000000      3.006287000000000E-01      1.134473000000000E+01      3.121185000000000E-01     -1.440547000000000E+02
3140000000.000000      3.004456000000000E-01      1.059863000000000E+01      3.077545000000000E-01     -1.726563000000000E+02
3160000000.000000      2.983856000000000E-01      9.183105000000000E+00      3.040466000000000E-01      1.587578000000000E+02
3180000000.000000      2.885132000000000E-01      7.897705000000000E+00      2.983551000000000E-01      1.303984000000000E+02
3200000000.000000      2.715302000000000E-01      8.221680000000000E+00      2.940521000000000E-01      1.016289000000000E+02
3220000000.000000      2.566528000000000E-01      1.145313000000000E+01      2.826233000000000E-01      7.287499000000000E+01
3240000000.000000      2.559814000000000E-01      1.648144000000000E+01      2.740479000000000E-01      4.673437000000000E+01
3260000000.000000      2.719421000000000E-01      2.093945000000000E+01      2.827911000000000E-01      2.044922000000000E+01
3280000000.000000      3.003540000000000E-01      2.219433000000000E+01      2.911072000000000E-01     -9.170898000000000E+00
3300000000.000000      3.321381000000000E-01      2.017578000000000E+01      2.920074000000000E-01     -3.782227000000000E+01
3320000000.000000      3.557587000000000E-01      1.601758000000000E+01      2.989197000000000E-01     -6.620312000000000E+01
3340000000.000000      3.671722000000000E-01      1.144775000000000E+01      3.043671000000000E-01     -9.553514000000000E+01
3360000000.000000      3.672333000000000E-01      7.305908000000000E+00      3.062897000000000E-01     -1.249453000000000E+02
3380000000.000000      3.604126000000000E-01      4.647217000000000E+00      3.073273000000000E-01     -1.537969000000000E+02
3400000000.000000      3.516846000000000E-01      2.785034000000000E+00      3.069305000000000E-01      1.774609000000000E+02
3420000000.000000      3.447723000000000E-01      1.404846000000000E+00      3.059845000000000E-01      1.484531000000000E+02
3440000000.000000      3.383636000000000E-01      2.993774000000000E-01      3.020630000000000E-01      1.199609000000000E+02
3460000000.000000      3.318176000000000E-01     -8.802795000000000E-01      3.014832000000000E-01      9.177343000000000E+01
3480000000.000000      3.269806000000000E-01     -1.652100000000000E+00      2.993164000000000E-01      6.263672000000000E+01
3500000000.000000      3.240967000000000E-01     -2.257690000000000E+00      2.965698000000000E-01      3.425195000000000E+01
3520000000.000000      3.221588000000000E-01     -3.032227000000000E+00      2.962952000000000E-01      5.597412000000000E+00
3540000000.000000      3.209534000000000E-01     -3.523926000000000E+00      2.929688000000000E-01     -2.307129000000000E+01
3560000000.000000      3.187256000000000E-01     -3.738159000000000E+00      2.945862000000000E-01     -5.136913000000000E+01
3580000000.000000      3.169098000000000E-01     -3.583008000000000E+00      2.940979000000000E-01     -8.014843000000000E+01
3600000000.000000      3.181610000000000E-01     -3.334351000000000E+00      2.942047000000000E-01     -1.078906000000000E+02
3620000000.000000      3.228302000000000E-01     -3.455200000000000E+00      2.978516000000000E-01     -1.361172000000000E+02
3640000000.000000      3.277435000000000E-01     -4.486572000000000E+00      2.985229000000000E-01     -1.646016000000000E+02
3660000000.000000      3.308563000000000E-01     -6.655029000000000E+00      2.993317000000000E-01      1.672969000000000E+02
3680000000.000000      3.286896000000000E-01     -8.709473000000000E+00      2.992554000000000E-01      1.389531000000000E+02
3700000000.000000      3.212433000000000E-01     -9.966309000000000E+00      2.974548000000000E-01      1.114219000000000E+02
3720000000.000000      3.145447000000000E-01     -1.005420000000000E+01      2.984772000000000E-01      8.285936000000000E+01
3740000000.000000      3.158264000000000E-01     -9.084473000000000E+00      2.928619000000000E-01      5.448437000000000E+01
3760000000.000000      3.238373000000000E-01     -8.538086000000000E+00      2.908478000000000E-01      2.710644000000000E+01
3780000000.000000      3.323822000000000E-01     -9.675293000000000E+00      2.924957000000000E-01     -1.248352000000000E+00
3800000000.000000      3.372192000000000E-01     -1.197412000000000E+01      2.918091000000000E-01     -3.021289000000000E+01
3820000000.000000      3.327179000000000E-01     -1.460645000000000E+01      2.901917000000000E-01     -5.889257000000000E+01
3840000000.000000      3.235779000000000E-01     -1.597021000000000E+01      2.894287000000000E-01     -8.755468000000000E+01
3860000000.000000      3.174591000000000E-01     -1.610644000000000E+01      2.905579000000000E-01     -1.166406000000000E+02
3880000000.000000      3.182678000000000E-01     -1.529053000000000E+01      2.868958000000000E-01     -1.456640000000000E+02
3900000000.000000      3.276062000000000E-01     -1.568994000000000E+01      2.846069000000000E-01     -1.734688000000000E+02
3920000000.000000      3.342743000000000E-01     -1.761816000000000E+01      2.871399000000000E-01      1.587656000000000E+02
3940000000.000000      3.320160000000000E-01     -1.998437000000000E+01      2.879944000000000E-01      1.299687000000000E+02
3960000000.000000      3.213348000000000E-01     -2.142969000000000E+01      2.880554000000000E-01      1.013125000000000E+02
3980000000.000000      3.093109000000000E-01     -2.085156000000000E+01      2.804718000000000E-01      7.276172000000000E+01
4000000000.000000      3.081055000000000E-01     -1.880176000000000E+01      2.765656000000000E-01      4.661718000000000E+01
4020000000.000000      3.209076000000000E-01     -1.761035000000000E+01      2.849274000000000E-01      1.881250000000000E+01
4040000000.000000      3.433838000000000E-01     -1.896191000000000E+01      2.852020000000000E-01     -1.155762000000000E+01
4060000000.000000      3.598938000000000E-01     -2.284375000000000E+01      2.778015000000000E-01     -4.019921000000000E+01
4080000000.000000      3.624725000000000E-01     -2.799316000000000E+01      2.780914000000000E-01     -6.849609000000000E+01
4100000000.000000      3.471069000000000E-01     -3.214648000000000E+01      2.808838000000000E-01     -9.751953000000000E+01
4120000000.000000      3.238983000000000E-01     -3.417773000000000E+01      2.787476000000000E-01     -1.277930000000000E+02
4140000000.000000      3.069611000000000E-01     -3.345508000000000E+01      2.707062000000000E-01     -1.562813000000000E+02
4160000000.000000      3.008423000000000E-01     -3.194433000000000E+01      2.725067000000000E-01      1.766875000000000E+02
4180000000.000000      3.035431000000000E-01     -3.157227000000000E+01      2.785492000000000E-01      1.476328000000000E+02
4200000000.000000      3.050995000000000E-01     -3.235156000000000E+01      2.763214000000000E-01      1.185547000000000E+02
4220000000.000000      3.034363000000000E-01     -3.338476000000000E+01      2.751770000000000E-01      9.003515000000000E+01
4240000000.000000      2.964478000000000E-01     -3.354687000000000E+01      2.706451000000000E-01      6.127734000000000E+01
4260000000.000000      2.949371000000000E-01     -3.222070000000000E+01      2.644806000000000E-01      3.387500000000000E+01
4280000000.000000      3.013611000000000E-01     -3.086230000000000E+01      2.660828000000000E-01      5.976563000000000E+00
4300000000.000000      3.134003000000000E-01     -3.084863000000000E+01      2.645416000000000E-01     -2.273438000000000E+01
4320000000.000000      3.247375000000000E-01     -3.266797000000000E+01      2.639465000000000E-01     -5.160156000000000E+01
4340000000.000000      3.278961000000000E-01     -3.548828000000000E+01      2.641296000000000E-01     -8.072266000000000E+01
4360000000.000000      3.243256000000000E-01     -3.771484000000000E+01      2.635803000000000E-01     -1.105820000000000E+02
4380000000.000000      3.184357000000000E-01     -3.852930000000000E+01      2.619629000000000E-01     -1.404375000000000E+02
4400000000.000000      3.184967000000000E-01     -3.862109000000000E+01      2.594910000000000E-01     -1.693672000000000E+02
4420000000.000000      3.247375000000000E-01     -3.906054000000000E+01      2.632446000000000E-01      1.619922000000000E+02
4440000000.000000      3.316040000000000E-01     -4.080274000000000E+01      2.644501000000000E-01      1.320859000000000E+02
4460000000.000000      3.309784000000000E-01     -4.333984000000000E+01      2.614746000000000E-01      1.027461000000000E+02
4480000000.000000      3.217621000000000E-01     -4.536718000000000E+01      2.596283000000000E-01      7.426952000000000E+01
4500000000.000000      3.103180000000000E-01     -4.555078000000000E+01      2.561798000000000E-01      4.575781000000000E+01
4520000000.000000      3.050537000000000E-01     -4.422461000000000E+01      2.528229000000000E-01      1.699707000000000E+01
4540000000.000000      3.122101000000000E-01     -4.288476000000000E+01      2.459335000000000E-01     -1.158789000000000E+01
4560000000.000000      3.271942000000000E-01     -4.322070000000000E+01      2.442703000000000E-01     -3.933008000000000E+01
4580000000.000000      3.424835000000000E-01     -4.526172000000000E+01      2.461853000000000E-01     -6.929688000000000E+01
4600000000.000000      3.501282000000000E-01     -4.804101000000000E+01      2.435837000000000E-01     -9.968750000000000E+01
4620000000.000000      3.516998000000000E-01     -5.054296000000000E+01      2.424011000000000E-01     -1.300781000000000E+02
4640000000.000000      3.520203000000000E-01     -5.208398000000000E+01      2.391968000000000E-01     -1.606250000000000E+02
4660000000.000000      3.545074000000000E-01     -5.343750000000000E+01      2.401123000000000E-01      1.703516000000000E+02
4680000000.000000      3.604584000000000E-01     -5.517773000000000E+01      2.457809000000000E-01      1.407187000000000E+02
4700000000.000000      3.650665000000000E-01     -5.769726000000000E+01      2.467880000000000E-01      1.109648000000000E+02
4720000000.000000      3.656464000000000E-01     -6.086914000000000E+01      2.481689000000000E-01      8.282812000000000E+01
4740000000.000000      3.619080000000000E-01     -6.433203000000000E+01      2.523193000000000E-01      5.446875000000000E+01
4760000000.000000      3.546600000000000E-01     -6.731640000000000E+01      2.508850000000000E-01      2.629395000000000E+01
4780000000.000000      3.447571000000000E-01     -7.021093000000000E+01      2.475662000000000E-01     -2.090210000000000E+00
4800000000.000000      3.332520000000000E-01     -7.333202000000000E+01      2.406235000000000E-01     -3.023242000000000E+01
4820000000.000000      3.116150000000000E-01     -7.606250000000000E+01      2.307129000000000E-01     -5.867382000000000E+01
4840000000.000000      2.828064000000000E-01     -7.704687000000000E+01      2.200851000000000E-01     -8.673046000000000E+01
4860000000.000000      2.552032000000000E-01     -7.451562000000000E+01      2.120514000000000E-01     -1.164336000000000E+02
4880000000.000000      2.379379000000000E-01     -6.808594000000000E+01      1.955338000000000E-01     -1.468594000000000E+02
4900000000.000000      2.461777000000000E-01     -6.029882000000000E+01      1.789322000000000E-01     -1.733125000000000E+02
4920000000.000000      2.758789000000000E-01     -5.599023000000000E+01      1.833649000000000E-01      1.618203000000000E+02
4940000000.000000      3.144073000000000E-01     -5.613476000000000E+01      1.974564000000000E-01      1.324844000000000E+02
4960000000.000000      3.505249000000000E-01     -6.015234000000000E+01      2.058258000000000E-01      1.015781000000000E+02
4980000000.000000      3.702545000000000E-01     -6.622656000000000E+01      2.145615000000000E-01      7.281640000000000E+01
5000000000.000000      3.697968000000000E-01     -7.218750000000000E+01      2.269592000000000E-01      4.403320000000000E+01
5020000000.000000      3.541718000000000E-01     -7.657421000000000E+01      2.349777000000000E-01      1.508789000000000E+01
5040000000.000000      3.339844000000000E-01     -7.846484000000000E+01      2.373505000000000E-01     -1.185156000000000E+01
5060000000.000000      3.206177000000000E-01     -7.798828000000000E+01      2.431259000000000E-01     -3.788476000000000E+01
5080000000.000000      3.171387000000000E-01     -7.743359000000000E+01      2.488480000000000E-01     -6.557031000000000E+01
5100000000.000000      3.208618000000000E-01     -7.743750000000000E+01      2.450714000000000E-01     -9.328125000000000E+01
5120000000.000000      3.254089000000000E-01     -7.821094000000000E+01      2.424164000000000E-01     -1.202539000000000E+02
5140000000.000000      3.302765000000000E-01     -7.937500000000000E+01      2.381897000000000E-01     -1.487734000000000E+02
5160000000.000000      3.343353000000000E-01     -8.052343000000000E+01      2.331924000000000E-01     -1.779140000000000E+02
5180000000.000000      3.409576000000000E-01     -8.174219000000000E+01      2.294312000000000E-01      1.520234000000000E+02
5200000000.000000      3.480225000000000E-01     -8.343359000000000E+01      2.266083000000000E-01      1.214570000000000E+02
5220000000.000000      3.509369000000000E-01     -8.582031000000000E+01      2.276459000000000E-01      9.134766000000000E+01
5240000000.000000      3.501892000000000E-01     -8.796875000000000E+01      2.315140000000000E-01      6.068749000000000E+01
5260000000.000000      3.457184000000000E-01     -8.970703000000000E+01      2.365265000000000E-01      3.065527000000000E+01
5280000000.000000      3.401184000000000E-01     -9.079296000000000E+01      2.413940000000000E-01      1.017578000000000E+00
5300000000.000000      3.392334000000000E-01     -9.132813000000000E+01      2.441940000000000E-01     -2.660254000000000E+01
5320000000.000000      3.411407000000000E-01     -9.237890000000000E+01      2.518768000000000E-01     -5.315430000000000E+01
5340000000.000000      3.429108000000000E-01     -9.396093000000000E+01      2.555237000000000E-01     -8.061327000000000E+01
5360000000.000000      3.428955000000000E-01     -9.563671000000000E+01      2.534943000000000E-01     -1.073711000000000E+02
5380000000.000000      3.421936000000000E-01     -9.695313000000000E+01      2.504425000000000E-01     -1.340391000000000E+02
5400000000.000000      3.403778000000000E-01     -9.794531000000000E+01      2.445755000000000E-01     -1.611250000000000E+02
5420000000.000000      3.446503000000000E-01     -9.820313000000000E+01      2.386856000000000E-01      1.714219000000000E+02
5440000000.000000      3.529663000000000E-01     -9.893358000000000E+01      2.318268000000000E-01      1.421172000000000E+02
5460000000.000000      3.626404000000000E-01     -1.006719000000000E+02      2.219162000000000E-01      1.124922000000000E+02
5480000000.000000      3.685455000000000E-01     -1.035000000000000E+02      2.184143000000000E-01      8.202343000000000E+01
5500000000.000000      3.664856000000000E-01     -1.067930000000000E+02      2.189941000000000E-01      5.099999000000000E+01
5520000000.000000      3.564148000000000E-01     -1.096562000000000E+02      2.207184000000000E-01      1.963476000000000E+01
5540000000.000000      3.445892000000000E-01     -1.116094000000000E+02      2.224808000000000E-01     -1.077783000000000E+01
5560000000.000000      3.341675000000000E-01     -1.129688000000000E+02      2.281723000000000E-01     -3.931250000000000E+01
5580000000.000000      3.258057000000000E-01     -1.137773000000000E+02      2.370529000000000E-01     -6.753515000000000E+01
5600000000.000000      3.195648000000000E-01     -1.142031000000000E+02      2.425156000000000E-01     -9.514843000000000E+01
5620000000.000000      3.146820000000000E-01     -1.142226000000000E+02      2.454681000000000E-01     -1.217930000000000E+02
5640000000.000000      3.121490000000000E-01     -1.134492000000000E+02      2.449341000000000E-01     -1.485937000000000E+02
5660000000.000000      3.161621000000000E-01     -1.121641000000000E+02      2.391052000000000E-01     -1.748750000000000E+02
5680000000.000000      3.295898000000000E-01     -1.118242000000000E+02      2.331390000000000E-01      1.583437000000000E+02
5700000000.000000      3.453979000000000E-01     -1.129492000000000E+02      2.228165000000000E-01      1.310313000000000E+02
5720000000.000000      3.607788000000000E-01     -1.159844000000000E+02      2.131729000000000E-01      1.031484000000000E+02
5740000000.000000      3.665619000000000E-01     -1.205430000000000E+02      2.064514000000000E-01      7.345312000000000E+01
5760000000.000000      3.583527000000000E-01     -1.248867000000000E+02      1.995163000000000E-01      4.124023000000000E+01
5780000000.000000      3.410339000000000E-01     -1.278633000000000E+02      1.931305000000000E-01      8.994629000000000E+00
5800000000.000000      3.245850000000000E-01     -1.285938000000000E+02      1.921310000000000E-01     -2.214746000000000E+01
5820000000.000000      3.190002000000000E-01     -1.281797000000000E+02      1.997910000000000E-01     -5.265234000000000E+01
5840000000.000000      3.226929000000000E-01     -1.284062000000000E+02      2.108459000000000E-01     -8.369532000000000E+01
5860000000.000000      3.308105000000000E-01     -1.298437000000000E+02      2.167358000000000E-01     -1.126094000000000E+02
5880000000.000000      3.339691000000000E-01     -1.327891000000000E+02      2.220688000000000E-01     -1.400625000000000E+02
5900000000.000000      3.302307000000000E-01     -1.354922000000000E+02      2.289810000000000E-01     -1.667969000000000E+02
5920000000.000000      3.212280000000000E-01     -1.374375000000000E+02      2.312775000000000E-01      1.664453000000000E+02
5940000000.000000      3.143158000000000E-01     -1.383516000000000E+02      2.261734000000000E-01      1.391562000000000E+02
5960000000.000000      3.096008000000000E-01     -1.393906000000000E+02      2.146988000000000E-01      1.133555000000000E+02
5980000000.000000      3.038025000000000E-01     -1.412734000000000E+02      2.068024000000000E-01      8.672655000000000E+01
6000000000.000000      2.911530000000000E-01     -1.433281000000000E+02      1.970825000000000E-01      5.786718000000000E+01
6020000000.000000      2.724609000000000E-01     -1.443828000000000E+02      1.833801000000000E-01      2.714844000000000E+01
6040000000.000000      2.551422000000000E-01     -1.435313000000000E+02      1.681213000000000E-01     -3.685913000000000E+00
6060000000.000000      2.460022000000000E-01     -1.405391000000000E+02      1.614151000000000E-01     -3.397656000000000E+01
6080000000.000000      2.516937000000000E-01     -1.373359000000000E+02      1.670837000000000E-01     -6.538280000000000E+01
