! Network Analyzer HP8722D
! Hewlett-Packard
! Data name: Linha com CNT
! Saver's name: Rodrigo Anjos
! Comments: Teste de deteccao de acetona 0-100ppm a partir de cilindro
! Time and date: 10/9/2025 16:25
!              Frequency                     S11                                                   S21                                                   S12                                                   S22
# HZ  S  MA R 50
3000000000.000000      4.602661000000000E-01      1.500439000000000E+01      2.454910000000000E-01      3.403711000000000E+01
3020000000.000000      4.687958000000000E-01      1.468311000000000E+01      2.495193000000000E-01      4.468506000000000E+00
3040000000.000000      4.777069000000000E-01      1.345654000000000E+01      2.499924000000000E-01     -2.453027000000000E+01
3060000000.000000      4.830475000000000E-01      1.177002000000000E+01      2.494354000000000E-01     -5.385937000000000E+01
3080000000.000000      4.793396000000000E-01      1.014160000000000E+01      2.455978000000000E-01     -8.287500000000000E+01
3100000000.000000      4.763641000000000E-01      8.605957000000000E+00      2.440567000000000E-01     -1.106289000000000E+02
3120000000.000000      4.744873000000000E-01      7.765869000000000E+00      2.436066000000000E-01     -1.393672000000000E+02
3140000000.000000      4.744873000000000E-01      6.829346000000000E+00      2.403183000000000E-01     -1.678047000000000E+02
3160000000.000000      4.756165000000000E-01      5.740234000000000E+00      2.360535000000000E-01      1.635469000000000E+02
3180000000.000000      4.715424000000000E-01      4.465820000000000E+00      2.305450000000000E-01      1.353750000000000E+02
3200000000.000000      4.611969000000000E-01      3.722900000000000E+00      2.267914000000000E-01      1.070351000000000E+02
3220000000.000000      4.504700000000000E-01      3.669434000000000E+00      2.169037000000000E-01      7.845703000000000E+01
3240000000.000000      4.446411000000000E-01      4.270752000000000E+00      2.103958000000000E-01      5.326172000000000E+01
3260000000.000000      4.444733000000000E-01      5.424316000000000E+00      2.191849000000000E-01      2.716699000000000E+01
3280000000.000000      4.550629000000000E-01      6.229248000000000E+00      2.272339000000000E-01     -2.216553000000000E+00
3300000000.000000      4.727936000000000E-01      5.852783000000000E+00      2.302475000000000E-01     -3.084277000000000E+01
3320000000.000000      4.903259000000000E-01      4.490479000000000E+00      2.375946000000000E-01     -5.977929000000000E+01
3340000000.000000      5.021057000000000E-01      2.427979000000000E+00      2.429276000000000E-01     -8.966406000000000E+01
3360000000.000000      5.062866000000000E-01      2.513123000000000E-01      2.446518000000000E-01     -1.193008000000000E+02
3380000000.000000      5.058289000000000E-01     -1.430969000000000E+00      2.444611000000000E-01     -1.486094000000000E+02
3400000000.000000      5.024719000000000E-01     -2.944336000000000E+00      2.439880000000000E-01     -1.773594000000000E+02
3420000000.000000      5.000000000000000E-01     -4.042969000000000E+00      2.425842000000000E-01      1.534531000000000E+02
3440000000.000000      4.958038000000000E-01     -5.325684000000000E+00      2.389069000000000E-01      1.252656000000000E+02
3460000000.000000      4.902496000000000E-01     -6.262207000000000E+00      2.384567000000000E-01      9.703125000000000E+01
3480000000.000000      4.894257000000000E-01     -7.321045000000000E+00      2.358322000000000E-01      6.791406000000000E+01
3500000000.000000      4.873199000000000E-01     -8.171387000000000E+00      2.336121000000000E-01      3.993359000000000E+01
3520000000.000000      4.873505000000000E-01     -9.176758000000000E+00      2.332306000000000E-01      1.106299000000000E+01
3540000000.000000      4.876709000000000E-01     -1.003223000000000E+01      2.290421000000000E-01     -1.756445000000000E+01
3560000000.000000      4.855347000000000E-01     -1.079150000000000E+01      2.303238000000000E-01     -4.551562000000000E+01
3580000000.000000      4.830933000000000E-01     -1.139990000000000E+01      2.303467000000000E-01     -7.431250000000000E+01
3600000000.000000      4.812622000000000E-01     -1.199609000000000E+01      2.304535000000000E-01     -1.016953000000000E+02
3620000000.000000      4.833527000000000E-01     -1.241748000000000E+01      2.348785000000000E-01     -1.301797000000000E+02
3640000000.000000      4.859772000000000E-01     -1.323877000000000E+01      2.357483000000000E-01     -1.586641000000000E+02
3660000000.000000      4.873199000000000E-01     -1.463965000000000E+01      2.369232000000000E-01      1.729219000000000E+02
3680000000.000000      4.895630000000000E-01     -1.604492000000000E+01      2.357559000000000E-01      1.445781000000000E+02
3700000000.000000      4.855042000000000E-01     -1.746484000000000E+01      2.339478000000000E-01      1.171758000000000E+02
3720000000.000000      4.803162000000000E-01     -1.821582000000000E+01      2.354813000000000E-01      8.885157000000000E+01
3740000000.000000      4.796600000000000E-01     -1.847852000000000E+01      2.308731000000000E-01      6.055859000000000E+01
3760000000.000000      4.819794000000000E-01     -1.862207000000000E+01      2.300110000000000E-01      3.353320000000000E+01
3780000000.000000      4.862518000000000E-01     -1.928418000000000E+01      2.315750000000000E-01      4.906738000000000E+00
3800000000.000000      4.922180000000000E-01     -2.070605000000000E+01      2.310410000000000E-01     -2.418457000000000E+01
3820000000.000000      4.903259000000000E-01     -2.255273000000000E+01      2.291107000000000E-01     -5.289844000000000E+01
3840000000.000000      4.858246000000000E-01     -2.394141000000000E+01      2.284927000000000E-01     -8.144140000000000E+01
3860000000.000000      4.817047000000000E-01     -2.471582000000000E+01      2.284164000000000E-01     -1.104844000000000E+02
3880000000.000000      4.804077000000000E-01     -2.515820000000000E+01      2.259903000000000E-01     -1.393906000000000E+02
3900000000.000000      4.841461000000000E-01     -2.575781000000000E+01      2.253647000000000E-01     -1.670391000000000E+02
3920000000.000000      4.891815000000000E-01     -2.686621000000000E+01      2.277832000000000E-01      1.646094000000000E+02
3940000000.000000      4.901428000000000E-01     -2.851171000000000E+01      2.275009000000000E-01      1.360312000000000E+02
3960000000.000000      4.844971000000000E-01     -2.990527000000000E+01      2.279434000000000E-01      1.076484000000000E+02
3980000000.000000      4.757385000000000E-01     -3.062304000000000E+01      2.213440000000000E-01      7.917578000000000E+01
4000000000.000000      4.705048000000000E-01     -3.076172000000000E+01      2.186356000000000E-01      5.340429000000000E+01
4020000000.000000      4.732361000000000E-01     -3.051074000000000E+01      2.273102000000000E-01      2.580371000000000E+01
4040000000.000000      4.874115000000000E-01     -3.111914000000000E+01      2.272415000000000E-01     -4.644531000000000E+00
4060000000.000000      4.997711000000000E-01     -3.271484000000000E+01      2.230530000000000E-01     -3.355859000000000E+01
4080000000.000000      5.061951000000000E-01     -3.546484000000000E+01      2.226486000000000E-01     -6.238086000000000E+01
4100000000.000000      5.017700000000000E-01     -3.811523000000000E+01      2.232742000000000E-01     -9.160936000000000E+01
4120000000.000000      4.911652000000000E-01     -4.012109000000000E+01      2.195282000000000E-01     -1.219961000000000E+02
4140000000.000000      4.813538000000000E-01     -4.085156000000000E+01      2.125397000000000E-01     -1.502500000000000E+02
4160000000.000000      4.725647000000000E-01     -4.128711000000000E+01      2.144470000000000E-01     -1.769140000000000E+02
4180000000.000000      4.723969000000000E-01     -4.166211000000000E+01      2.193680000000000E-01      1.539297000000000E+02
4200000000.000000      4.725800000000000E-01     -4.284375000000000E+01      2.166595000000000E-01      1.253672000000000E+02
4220000000.000000      4.717255000000000E-01     -4.393750000000000E+01      2.180862000000000E-01      9.708984000000000E+01
4240000000.000000      4.661713000000000E-01     -4.470117000000000E+01      2.134933000000000E-01      6.808594000000000E+01
4260000000.000000      4.642792000000000E-01     -4.500781000000000E+01      2.086792000000000E-01      4.097070000000000E+01
4280000000.000000      4.636688000000000E-01     -4.525586000000000E+01      2.108536000000000E-01      1.349512000000000E+01
4300000000.000000      4.659576000000000E-01     -4.550586000000000E+01      2.097015000000000E-01     -1.501318000000000E+01
4320000000.000000      4.730225000000000E-01     -4.649414000000000E+01      2.100143000000000E-01     -4.389648000000000E+01
4340000000.000000      4.775543000000000E-01     -4.812109000000000E+01      2.103424000000000E-01     -7.336719000000000E+01
4360000000.000000      4.768372000000000E-01     -4.974999000000000E+01      2.097473000000000E-01     -1.033476000000000E+02
4380000000.000000      4.736023000000000E-01     -5.093163000000000E+01      2.077866000000000E-01     -1.333516000000000E+02
4400000000.000000      4.720764000000000E-01     -5.165234000000000E+01      2.063293000000000E-01     -1.620234000000000E+02
4420000000.000000      4.734344000000000E-01     -5.216210000000000E+01      2.101059000000000E-01      1.690469000000000E+02
4440000000.000000      4.790344000000000E-01     -5.346093000000000E+01      2.119980000000000E-01      1.392109000000000E+02
4460000000.000000      4.807587000000000E-01     -5.511719000000000E+01      2.106018000000000E-01      1.099726000000000E+02
4480000000.000000      4.765320000000000E-01     -5.676952000000000E+01      2.088013000000000E-01      8.115625000000000E+01
4500000000.000000      4.700623000000000E-01     -5.791992000000000E+01      2.052307000000000E-01      5.314062000000000E+01
4520000000.000000      4.636993000000000E-01     -5.858984000000000E+01      2.026825000000000E-01      2.479980000000000E+01
4540000000.000000      4.628448000000000E-01     -5.868945000000000E+01      1.974792000000000E-01     -3.463501000000000E+00
4560000000.000000      4.683685000000000E-01     -5.905663000000000E+01      1.971054000000000E-01     -3.104004000000000E+01
4580000000.000000      4.767456000000000E-01     -6.003711000000000E+01      1.984634000000000E-01     -6.105273000000000E+01
4600000000.000000      4.836731000000000E-01     -6.148632000000000E+01      1.961975000000000E-01     -9.129686000000000E+01
4620000000.000000      4.847107000000000E-01     -6.307226000000000E+01      1.959305000000000E-01     -1.222305000000000E+02
4640000000.000000      4.864197000000000E-01     -6.403125000000000E+01      1.924820000000000E-01     -1.532656000000000E+02
4660000000.000000      4.897003000000000E-01     -6.525000000000000E+01      1.925278000000000E-01      1.776953000000000E+02
4680000000.000000      4.930420000000000E-01     -6.638672000000000E+01      1.985474000000000E-01      1.475625000000000E+02
4700000000.000000      4.979706000000000E-01     -6.785937000000000E+01      2.001648000000000E-01      1.177617000000000E+02
4720000000.000000      4.996490000000000E-01     -6.983593000000000E+01      2.030411000000000E-01      8.912889000000000E+01
4740000000.000000      5.036621000000000E-01     -7.191015000000000E+01      2.066727000000000E-01      6.057031000000000E+01
4760000000.000000      5.009766000000000E-01     -7.421875000000000E+01      2.052994000000000E-01      3.238476000000000E+01
4780000000.000000      4.993439000000000E-01     -7.609375000000000E+01      2.020874000000000E-01      4.195313000000000E+00
4800000000.000000      4.951782000000000E-01     -7.854687000000000E+01      1.956940000000000E-01     -2.378711000000000E+01
4820000000.000000      4.855347000000000E-01     -8.073046000000000E+01      1.850357000000000E-01     -5.156250000000000E+01
4840000000.000000      4.678192000000000E-01     -8.252344000000000E+01      1.751251000000000E-01     -7.914844000000000E+01
4860000000.000000      4.493866000000000E-01     -8.347656000000000E+01      1.674805000000000E-01     -1.078906000000000E+02
4880000000.000000      4.306488000000000E-01     -8.282421000000000E+01      1.531906000000000E-01     -1.377031000000000E+02
4900000000.000000      4.221649000000000E-01     -8.140625000000000E+01      1.397400000000000E-01     -1.631953000000000E+02
4920000000.000000      4.240723000000000E-01     -7.961328000000000E+01      1.445465000000000E-01      1.718828000000000E+02
4940000000.000000      4.389954000000000E-01     -7.832812000000000E+01      1.573410000000000E-01      1.419609000000000E+02
4960000000.000000      4.635925000000000E-01     -7.855469000000000E+01      1.656342000000000E-01      1.103242000000000E+02
4980000000.000000      4.844513000000000E-01     -8.074219000000000E+01      1.752090000000000E-01      8.065233000000000E+01
5000000000.000000      4.944153000000000E-01     -8.382421000000000E+01      1.859970000000000E-01      5.086328000000000E+01
5020000000.000000      4.926453000000000E-01     -8.674999000000000E+01      1.915131000000000E-01      2.133105000000000E+01
5040000000.000000      4.818115000000000E-01     -8.898438000000000E+01      1.933136000000000E-01     -5.343506000000000E+00
5060000000.000000      4.720459000000000E-01     -9.008984000000000E+01      1.990585000000000E-01     -3.091601000000000E+01
5080000000.000000      4.662323000000000E-01     -9.074219000000000E+01      2.046204000000000E-01     -5.800390000000000E+01
5100000000.000000      4.652863000000000E-01     -9.142969000000000E+01      2.018890000000000E-01     -8.542578000000000E+01
5120000000.000000      4.662323000000000E-01     -9.210155000000000E+01      2.005234000000000E-01     -1.121289000000000E+02
5140000000.000000      4.699402000000000E-01     -9.288280000000000E+01      1.969376000000000E-01     -1.406094000000000E+02
5160000000.000000      4.724579000000000E-01     -9.406641000000000E+01      1.913376000000000E-01     -1.694062000000000E+02
5180000000.000000      4.776001000000000E-01     -9.494921000000000E+01      1.869888000000000E-01      1.605156000000000E+02
5200000000.000000      4.845886000000000E-01     -9.616014000000000E+01      1.837845000000000E-01      1.297734000000000E+02
5220000000.000000      4.879150000000000E-01     -9.780077000000000E+01      1.837845000000000E-01      9.924608000000000E+01
5240000000.000000      4.895782000000000E-01     -9.933594000000000E+01      1.867065000000000E-01      6.810937000000000E+01
5260000000.000000      4.882507000000000E-01     -1.009531000000000E+02      1.914444000000000E-01      3.760937000000000E+01
5280000000.000000      4.846344000000000E-01     -1.022734000000000E+02      1.958389000000000E-01      7.867432000000000E+00
5300000000.000000      4.828339000000000E-01     -1.034336000000000E+02      1.996384000000000E-01     -1.959082000000000E+01
5320000000.000000      4.823456000000000E-01     -1.045313000000000E+02      2.074585000000000E-01     -4.615234000000000E+01
5340000000.000000      4.822998000000000E-01     -1.055781000000000E+02      2.116699000000000E-01     -7.377734000000000E+01
5360000000.000000      4.828186000000000E-01     -1.071016000000000E+02      2.113190000000000E-01     -1.000234000000000E+02
5380000000.000000      4.838409000000000E-01     -1.080937000000000E+02      2.085800000000000E-01     -1.265586000000000E+02
5400000000.000000      4.836426000000000E-01     -1.092461000000000E+02      2.026367000000000E-01     -1.530703000000000E+02
5420000000.000000      4.864197000000000E-01     -1.098867000000000E+02      1.975937000000000E-01      1.797578000000000E+02
5440000000.000000      4.911194000000000E-01     -1.105820000000000E+02      1.913223000000000E-01      1.506953000000000E+02
5460000000.000000      4.985962000000000E-01     -1.118164000000000E+02      1.818161000000000E-01      1.211719000000000E+02
5480000000.000000      5.041809000000000E-01     -1.135859000000000E+02      1.777267000000000E-01      9.048828000000000E+01
5500000000.000000      5.062561000000000E-01     -1.157305000000000E+02      1.763916000000000E-01      5.882226000000000E+01
5520000000.000000      5.021667000000000E-01     -1.179492000000000E+02      1.776123000000000E-01      2.674707000000000E+01
5540000000.000000      4.969635000000000E-01     -1.198320000000000E+02      1.789093000000000E-01     -4.406982000000000E+00
5560000000.000000      4.900970000000000E-01     -1.216250000000000E+02      1.839218000000000E-01     -3.287695000000000E+01
5580000000.000000      4.825439000000000E-01     -1.230625000000000E+02      1.931763000000000E-01     -6.127539000000000E+01
5600000000.000000      4.773865000000000E-01     -1.239687000000000E+02      1.985245000000000E-01     -8.878906000000000E+01
5620000000.000000      4.736938000000000E-01     -1.248398000000000E+02      2.025452000000000E-01     -1.150078000000000E+02
5640000000.000000      4.696655000000000E-01     -1.253008000000000E+02      2.034302000000000E-01     -1.413750000000000E+02
5660000000.000000      4.698792000000000E-01     -1.254961000000000E+02      2.001572000000000E-01     -1.668750000000000E+02
5680000000.000000      4.720154000000000E-01     -1.255937000000000E+02      1.953583000000000E-01      1.668984000000000E+02
5700000000.000000      4.822693000000000E-01     -1.262734000000000E+02      1.877365000000000E-01      1.398672000000000E+02
5720000000.000000      4.921570000000000E-01     -1.277930000000000E+02      1.794510000000000E-01      1.125742000000000E+02
5740000000.000000      4.998169000000000E-01     -1.301719000000000E+02      1.717148000000000E-01      8.232422000000000E+01
5760000000.000000      4.993439000000000E-01     -1.329922000000000E+02      1.629181000000000E-01      4.978710000000000E+01
5780000000.000000      4.906158000000000E-01     -1.355000000000000E+02      1.556244000000000E-01      1.700391000000000E+01
5800000000.000000      4.793243000000000E-01     -1.370078000000000E+02      1.525192000000000E-01     -1.441162000000000E+01
5820000000.000000      4.712067000000000E-01     -1.376562000000000E+02      1.593475000000000E-01     -4.554492000000000E+01
5840000000.000000      4.712677000000000E-01     -1.383281000000000E+02      1.696777000000000E-01     -7.719921000000000E+01
5860000000.000000      4.755249000000000E-01     -1.392578000000000E+02      1.770477000000000E-01     -1.065117000000000E+02
5880000000.000000      4.804382000000000E-01     -1.409922000000000E+02      1.843109000000000E-01     -1.344375000000000E+02
5900000000.000000      4.822693000000000E-01     -1.427500000000000E+02      1.895142000000000E-01     -1.609297000000000E+02
5920000000.000000      4.792023000000000E-01     -1.446953000000000E+02      1.925507000000000E-01      1.726172000000000E+02
5940000000.000000      4.758606000000000E-01     -1.459766000000000E+02      1.883926000000000E-01      1.459609000000000E+02
5960000000.000000      4.723053000000000E-01     -1.474453000000000E+02      1.797714000000000E-01      1.207695000000000E+02
5980000000.000000      4.662933000000000E-01     -1.490234000000000E+02      1.729355000000000E-01      9.471874000000000E+01
6000000000.000000      4.593506000000000E-01     -1.507656000000000E+02      1.625900000000000E-01      6.631249000000000E+01
6020000000.000000      4.445496000000000E-01     -1.524141000000000E+02      1.494370000000000E-01      3.626953000000000E+01
6040000000.000000      4.326630000000000E-01     -1.534297000000000E+02      1.343155000000000E-01      5.550781000000000E+00
6060000000.000000      4.229431000000000E-01     -1.537656000000000E+02      1.267700000000000E-01     -2.449414000000000E+01
6080000000.000000      4.180908000000000E-01     -1.533750000000000E+02      1.314697000000000E-01     -5.616405000000000E+01
