! Network Analyzer HP8722D
! Hewlett-Packard
! Data name: Linha com CNT
! Saver's name: Rodrigo Anjos
! Comments: Teste de deteccao de acetona 0-100ppm a partir de cilindro
! Time and date: 10/9/2025 16:20
!              Frequency                     S11                                                   S21                                                   S12                                                   S22
# HZ  S  MA R 50
3000000000.000000      4.896393000000000E-01      1.443164000000000E+01      2.235489000000000E-01      3.645508000000000E+01
3020000000.000000      4.968719000000000E-01      1.366113000000000E+01      2.279587000000000E-01      6.943359000000000E+00
3040000000.000000      5.030212000000000E-01      1.280273000000000E+01      2.283249000000000E-01     -2.234961000000000E+01
3060000000.000000      5.067139000000000E-01      1.135400000000000E+01      2.283325000000000E-01     -5.163280000000000E+01
3080000000.000000      5.057068000000000E-01      9.515137000000000E+00      2.246323000000000E-01     -8.065624000000000E+01
3100000000.000000      5.029297000000000E-01      8.196777000000000E+00      2.231979000000000E-01     -1.083867000000000E+02
3120000000.000000      5.017395000000000E-01      7.231689000000000E+00      2.225494000000000E-01     -1.371016000000000E+02
3140000000.000000      5.023193000000000E-01      6.374756000000000E+00      2.192383000000000E-01     -1.655078000000000E+02
3160000000.000000      5.034485000000000E-01      5.296631000000000E+00      2.156677000000000E-01      1.659141000000000E+02
3180000000.000000      5.000305000000000E-01      4.007080000000000E+00      2.096100000000000E-01      1.379688000000000E+02
3200000000.000000      4.910889000000000E-01      3.191528000000000E+00      2.063446000000000E-01      1.094219000000000E+02
3220000000.000000      4.806671000000000E-01      2.958008000000000E+00      1.970367000000000E-01      8.100780000000000E+01
3240000000.000000      4.745483000000000E-01      3.199707000000000E+00      1.910172000000000E-01      5.608398000000000E+01
3260000000.000000      4.736328000000000E-01      4.023682000000000E+00      1.999359000000000E-01      3.025879000000000E+01
3280000000.000000      4.820709000000000E-01      4.586670000000000E+00      2.078857000000000E-01      7.429504000000000E-01
3300000000.000000      4.973145000000000E-01      4.261230000000000E+00      2.106857000000000E-01     -2.797266000000000E+01
3320000000.000000      5.132446000000000E-01      3.088501000000000E+00      2.186508000000000E-01     -5.681835000000000E+01
3340000000.000000      5.248108000000000E-01      1.263428000000000E+00      2.231445000000000E-01     -8.691015000000000E+01
3360000000.000000      5.297546000000000E-01     -7.237244000000000E-01      2.254868000000000E-01     -1.168398000000000E+02
3380000000.000000      5.307007000000000E-01     -2.336060000000000E+00      2.248764000000000E-01     -1.461953000000000E+02
3400000000.000000      5.261230000000000E-01     -3.857666000000000E+00      2.245560000000000E-01     -1.749922000000000E+02
3420000000.000000      5.231934000000000E-01     -4.982422000000000E+00      2.224808000000000E-01      1.559062000000000E+02
3440000000.000000      5.189819000000000E-01     -6.079590000000000E+00      2.181244000000000E-01      1.277617000000000E+02
3460000000.000000      5.145264000000000E-01     -6.976318000000000E+00      2.188034000000000E-01      9.956640000000000E+01
3480000000.000000      5.147095000000000E-01     -8.132813000000000E+00      2.163467000000000E-01      7.068749000000000E+01
3500000000.000000      5.142517000000000E-01     -8.837402000000000E+00      2.142410000000000E-01      4.245507000000000E+01
3520000000.000000      5.121460000000000E-01     -9.880859000000000E+00      2.142715000000000E-01      1.353076000000000E+01
3540000000.000000      5.146790000000000E-01     -1.086035000000000E+01      2.096786000000000E-01     -1.488281000000000E+01
3560000000.000000      5.128479000000000E-01     -1.155762000000000E+01      2.108917000000000E-01     -4.294335000000000E+01
3580000000.000000      5.092773000000000E-01     -1.211670000000000E+01      2.105484000000000E-01     -7.176562000000000E+01
3600000000.000000      5.059509000000000E-01     -1.305469000000000E+01      2.107239000000000E-01     -9.904686000000000E+01
3620000000.000000      5.080872000000000E-01     -1.357520000000000E+01      2.149963000000000E-01     -1.274844000000000E+02
3640000000.000000      5.110168000000000E-01     -1.413428000000000E+01      2.164841000000000E-01     -1.560234000000000E+02
3660000000.000000      5.135803000000000E-01     -1.562256000000000E+01      2.179871000000000E-01      1.756562000000000E+02
3680000000.000000      5.144348000000000E-01     -1.696094000000000E+01      2.164764000000000E-01      1.470469000000000E+02
3700000000.000000      5.129395000000000E-01     -1.819824000000000E+01      2.142181000000000E-01      1.200508000000000E+02
3720000000.000000      5.061646000000000E-01     -1.920703000000000E+01      2.160873000000000E-01      9.150391000000000E+01
3740000000.000000      5.064392000000000E-01     -1.952344000000000E+01      2.112732000000000E-01      6.345508000000000E+01
3760000000.000000      5.073547000000000E-01     -1.977148000000000E+01      2.116318000000000E-01      3.626562000000000E+01
3780000000.000000      5.106201000000000E-01     -2.062207000000000E+01      2.135468000000000E-01      7.779541000000000E+00
3800000000.000000      5.166321000000000E-01     -2.183008000000000E+01      2.118530000000000E-01     -2.132519000000000E+01
3820000000.000000      5.159302000000000E-01     -2.352637000000000E+01      2.103424000000000E-01     -5.016015000000000E+01
3840000000.000000      5.117188000000000E-01     -2.494043000000000E+01      2.097855000000000E-01     -7.875390000000000E+01
3860000000.000000      5.076904000000000E-01     -2.581152000000000E+01      2.103653000000000E-01     -1.077695000000000E+02
3880000000.000000      5.067139000000000E-01     -2.630566000000000E+01      2.073746000000000E-01     -1.365547000000000E+02
3900000000.000000      5.088806000000000E-01     -2.707520000000000E+01      2.071991000000000E-01     -1.641875000000000E+02
3920000000.000000      5.146790000000000E-01     -2.801953000000000E+01      2.093811000000000E-01      1.673437000000000E+02
3940000000.000000      5.148926000000000E-01     -2.950000000000000E+01      2.088242000000000E-01      1.388438000000000E+02
3960000000.000000      5.106812000000000E-01     -3.087793000000000E+01      2.095947000000000E-01      1.104961000000000E+02
3980000000.000000      5.030823000000000E-01     -3.185156000000000E+01      2.035980000000000E-01      8.211329000000000E+01
4000000000.000000      4.974060000000000E-01     -3.199707000000000E+01      2.013092000000000E-01      5.664453000000000E+01
4020000000.000000      4.991455000000000E-01     -3.195996000000000E+01      2.091980000000000E-01      2.889941000000000E+01
4040000000.000000      5.103760000000000E-01     -3.249609000000000E+01      2.094193000000000E-01     -1.577942000000000E+00
4060000000.000000      5.220337000000000E-01     -3.391211000000000E+01      2.058563000000000E-01     -3.037890000000000E+01
4080000000.000000      5.314941000000000E-01     -3.639062000000000E+01      2.055969000000000E-01     -5.957812000000000E+01
4100000000.000000      5.276794000000000E-01     -3.905468000000000E+01      2.055435000000000E-01     -8.889452000000000E+01
4120000000.000000      5.156555000000000E-01     -4.084961000000000E+01      2.023621000000000E-01     -1.192266000000000E+02
4140000000.000000      5.049133000000000E-01     -4.164063000000000E+01      1.947174000000000E-01     -1.475703000000000E+02
4160000000.000000      5.013733000000000E-01     -4.234961000000000E+01      1.972504000000000E-01     -1.739297000000000E+02
4180000000.000000      4.987793000000000E-01     -4.274804000000000E+01      2.017288000000000E-01      1.570078000000000E+02
4200000000.000000      4.999695000000000E-01     -4.391211000000000E+01      1.994171000000000E-01      1.283437000000000E+02
4220000000.000000      4.989014000000000E-01     -4.503125000000000E+01      2.008362000000000E-01      1.001406000000000E+02
4240000000.000000      4.914398000000000E-01     -4.591210000000000E+01      1.966324000000000E-01      7.119531000000000E+01
4260000000.000000      4.909210000000000E-01     -4.644140000000000E+01      1.923676000000000E-01      4.430469000000000E+01
4280000000.000000      4.893341000000000E-01     -4.672071000000000E+01      1.942673000000000E-01      1.689355000000000E+01
4300000000.000000      4.922028000000000E-01     -4.715625000000000E+01      1.934662000000000E-01     -1.176807000000000E+01
4320000000.000000      4.985657000000000E-01     -4.794335000000000E+01      1.937027000000000E-01     -4.050977000000000E+01
4340000000.000000      5.041504000000000E-01     -4.970312000000000E+01      1.937180000000000E-01     -7.001953000000000E+01
4360000000.000000      5.021362000000000E-01     -5.106054000000000E+01      1.937943000000000E-01     -9.993750000000000E+01
4380000000.000000      4.989929000000000E-01     -5.241601000000000E+01      1.916428000000000E-01     -1.302344000000000E+02
4400000000.000000      4.976501000000000E-01     -5.309765000000000E+01      1.900330000000000E-01     -1.588516000000000E+02
4420000000.000000      4.992981000000000E-01     -5.375390000000000E+01      1.943665000000000E-01      1.722500000000000E+02
4440000000.000000      5.037537000000000E-01     -5.491211000000000E+01      1.957169000000000E-01      1.422656000000000E+02
4460000000.000000      5.061951000000000E-01     -5.639453000000000E+01      1.951447000000000E-01      1.131719000000000E+02
4480000000.000000      5.016479000000000E-01     -5.820117000000000E+01      1.934814000000000E-01      8.439062000000000E+01
4500000000.000000      4.969635000000000E-01     -5.918163000000000E+01      1.904602000000000E-01      5.631054000000000E+01
4520000000.000000      4.886932000000000E-01     -6.002148000000000E+01      1.880875000000000E-01      2.819336000000000E+01
4540000000.000000      4.874878000000000E-01     -6.046484000000000E+01      1.830444000000000E-01      2.156067000000000E-01
4560000000.000000      4.922485000000000E-01     -6.088476000000000E+01      1.829224000000000E-01     -2.721680000000000E+01
4580000000.000000      4.997101000000000E-01     -6.169726000000000E+01      1.836090000000000E-01     -5.738867000000000E+01
4600000000.000000      5.056152000000000E-01     -6.316601000000000E+01      1.816406000000000E-01     -8.767187000000000E+01
4620000000.000000      5.082397000000000E-01     -6.439843000000000E+01      1.812820000000000E-01     -1.187656000000000E+02
4640000000.000000      5.105896000000000E-01     -6.559765000000000E+01      1.780319000000000E-01     -1.500234000000000E+02
4660000000.000000      5.126648000000000E-01     -6.676952000000000E+01      1.782913000000000E-01     -1.790859000000000E+02
4680000000.000000      5.145874000000000E-01     -6.781250000000000E+01      1.841507000000000E-01      1.506250000000000E+02
4700000000.000000      5.201721000000000E-01     -6.925781000000000E+01      1.862869000000000E-01      1.205508000000000E+02
4720000000.000000      5.230408000000000E-01     -7.105469000000000E+01      1.892776000000000E-01      9.201563000000000E+01
4740000000.000000      5.262146000000000E-01     -7.302343000000000E+01      1.920776000000000E-01      6.339844000000000E+01
4760000000.000000      5.249023000000000E-01     -7.516406000000000E+01      1.915741000000000E-01      3.520898000000000E+01
4780000000.000000      5.238037000000000E-01     -7.690234000000000E+01      1.885910000000000E-01      7.218018000000000E+00
4800000000.000000      5.214539000000000E-01     -7.929688000000000E+01      1.822128000000000E-01     -2.060937000000000E+01
4820000000.000000      5.121460000000000E-01     -8.139843000000000E+01      1.720276000000000E-01     -4.832226000000000E+01
4840000000.000000      4.963074000000000E-01     -8.323828000000000E+01      1.621399000000000E-01     -7.528906000000000E+01
4860000000.000000      4.800110000000000E-01     -8.429296000000000E+01      1.549377000000000E-01     -1.037969000000000E+02
4880000000.000000      4.621429000000000E-01     -8.419531000000000E+01      1.407394000000000E-01     -1.335312000000000E+02
4900000000.000000      4.515839000000000E-01     -8.320704000000000E+01      1.283798000000000E-01     -1.588828000000000E+02
4920000000.000000      4.514618000000000E-01     -8.188280000000000E+01      1.323318000000000E-01      1.765078000000000E+02
4940000000.000000      4.629059000000000E-01     -8.067968000000000E+01      1.445007000000000E-01      1.462422000000000E+02
4960000000.000000      4.845581000000000E-01     -8.074999000000000E+01      1.530685000000000E-01      1.142656000000000E+02
4980000000.000000      5.048828000000000E-01     -8.258204000000000E+01      1.622925000000000E-01      8.400000000000000E+01
5000000000.000000      5.153503000000000E-01     -8.535156000000000E+01      1.729660000000000E-01      5.398242000000000E+01
5020000000.000000      5.150452000000000E-01     -8.811327000000000E+01      1.783066000000000E-01      2.430859000000000E+01
5040000000.000000      5.070190000000000E-01     -9.018749000000000E+01      1.800461000000000E-01     -2.591431000000000E+00
5060000000.000000      4.974365000000000E-01     -9.142969000000000E+01      1.859589000000000E-01     -2.762109000000000E+01
5080000000.000000      4.906158000000000E-01     -9.219921000000000E+01      1.917191000000000E-01     -5.480663000000000E+01
5100000000.000000      4.897614000000000E-01     -9.276171000000000E+01      1.896896000000000E-01     -8.174608000000000E+01
5120000000.000000      4.900208000000000E-01     -9.368750000000000E+01      1.887894000000000E-01     -1.085352000000000E+02
5140000000.000000      4.928741000000000E-01     -9.453516000000000E+01      1.846695000000000E-01     -1.367578000000000E+02
5160000000.000000      4.959717000000000E-01     -9.558985000000000E+01      1.788864000000000E-01     -1.653984000000000E+02
5180000000.000000      5.012817000000000E-01     -9.646873000000000E+01      1.747665000000000E-01      1.644375000000000E+02
5200000000.000000      5.075684000000000E-01     -9.766405000000000E+01      1.705551000000000E-01      1.336250000000000E+02
5220000000.000000      5.106506000000000E-01     -9.925390000000000E+01      1.709595000000000E-01      1.028789000000000E+02
5240000000.000000      5.125427000000000E-01     -1.007344000000000E+02      1.735306000000000E-01      7.144921000000000E+01
5260000000.000000      5.113220000000000E-01     -1.022422000000000E+02      1.776428000000000E-01      4.068749000000000E+01
5280000000.000000      5.081787000000000E-01     -1.035898000000000E+02      1.823425000000000E-01      1.080762000000000E+01
5300000000.000000      5.063477000000000E-01     -1.047969000000000E+02      1.858368000000000E-01     -1.674219000000000E+01
5320000000.000000      5.052185000000000E-01     -1.058945000000000E+02      1.945038000000000E-01     -4.323632000000000E+01
5340000000.000000      5.064392000000000E-01     -1.070508000000000E+02      1.984558000000000E-01     -7.072656000000000E+01
5360000000.000000      5.067444000000000E-01     -1.084531000000000E+02      1.992264000000000E-01     -9.676170000000000E+01
5380000000.000000      5.068665000000000E-01     -1.094765000000000E+02      1.973953000000000E-01     -1.232617000000000E+02
5400000000.000000      5.078430000000000E-01     -1.107148000000000E+02      1.913910000000000E-01     -1.496172000000000E+02
5420000000.000000      5.092773000000000E-01     -1.113828000000000E+02      1.862106000000000E-01     -1.763594000000000E+02
5440000000.000000      5.142822000000000E-01     -1.120195000000000E+02      1.799545000000000E-01      1.546250000000000E+02
5460000000.000000      5.209351000000000E-01     -1.130976000000000E+02      1.701584000000000E-01      1.252930000000000E+02
5480000000.000000      5.263367000000000E-01     -1.147500000000000E+02      1.655502000000000E-01      9.416016000000000E+01
5500000000.000000      5.290527000000000E-01     -1.169102000000000E+02      1.639709000000000E-01      6.227344000000000E+01
5520000000.000000      5.253906000000000E-01     -1.190195000000000E+02      1.644058000000000E-01      2.998828000000000E+01
5540000000.000000      5.206299000000000E-01     -1.208828000000000E+02      1.656723000000000E-01     -1.388428000000000E+00
5560000000.000000      5.141907000000000E-01     -1.226836000000000E+02      1.706314000000000E-01     -3.008398000000000E+01
5580000000.000000      5.076294000000000E-01     -1.241250000000000E+02      1.800537000000000E-01     -5.863476000000000E+01
5600000000.000000      5.036011000000000E-01     -1.252187000000000E+02      1.855698000000000E-01     -8.604296000000000E+01
5620000000.000000      4.968719000000000E-01     -1.261055000000000E+02      1.909637000000000E-01     -1.119336000000000E+02
5640000000.000000      4.939728000000000E-01     -1.266367000000000E+02      1.928101000000000E-01     -1.381797000000000E+02
5660000000.000000      4.935608000000000E-01     -1.268984000000000E+02      1.893845000000000E-01     -1.635625000000000E+02
5680000000.000000      4.962616000000000E-01     -1.271836000000000E+02      1.855469000000000E-01      1.704609000000000E+02
5700000000.000000      5.039978000000000E-01     -1.278867000000000E+02      1.780090000000000E-01      1.440781000000000E+02
5720000000.000000      5.139160000000000E-01     -1.292109000000000E+02      1.694336000000000E-01      1.165391000000000E+02
5740000000.000000      5.210876000000000E-01     -1.315156000000000E+02      1.618500000000000E-01      8.663280000000000E+01
5760000000.000000      5.215149000000000E-01     -1.341328000000000E+02      1.523514000000000E-01      5.408593000000000E+01
5780000000.000000      5.134888000000000E-01     -1.364922000000000E+02      1.432114000000000E-01      2.093848000000000E+01
5800000000.000000      5.026855000000000E-01     -1.381328000000000E+02      1.400146000000000E-01     -1.106348000000000E+01
5820000000.000000      4.948730000000000E-01     -1.388438000000000E+02      1.462097000000000E-01     -4.251758000000000E+01
5840000000.000000      4.936066000000000E-01     -1.395703000000000E+02      1.564255000000000E-01     -7.446484000000000E+01
5860000000.000000      4.983978000000000E-01     -1.404375000000000E+02      1.646500000000000E-01     -1.040078000000000E+02
5880000000.000000      5.033875000000000E-01     -1.420781000000000E+02      1.730194000000000E-01     -1.321172000000000E+02
5900000000.000000      5.054321000000000E-01     -1.437734000000000E+02      1.789627000000000E-01     -1.585234000000000E+02
5920000000.000000      5.032043000000000E-01     -1.455469000000000E+02      1.820755000000000E-01      1.752734000000000E+02
5940000000.000000      5.005493000000000E-01     -1.469453000000000E+02      1.785736000000000E-01      1.488203000000000E+02
5960000000.000000      4.957733000000000E-01     -1.484219000000000E+02      1.704712000000000E-01      1.242578000000000E+02
5980000000.000000      4.915161000000000E-01     -1.498906000000000E+02      1.647949000000000E-01      9.872265000000000E+01
6000000000.000000      4.844360000000000E-01     -1.515625000000000E+02      1.537476000000000E-01      7.025000000000000E+01
6020000000.000000      4.724274000000000E-01     -1.533750000000000E+02      1.403275000000000E-01      4.087695000000000E+01
6040000000.000000      4.592743000000000E-01     -1.543906000000000E+02      1.250153000000000E-01      1.067041000000000E+01
6060000000.000000      4.486542000000000E-01     -1.551328000000000E+02      1.166725000000000E-01     -1.930371000000000E+01
6080000000.000000      4.441986000000000E-01     -1.548672000000000E+02      1.204033000000000E-01     -5.182617000000000E+01
