! Network Analyzer HP8722D
! Hewlett-Packard
! Data name: Linha com CNT
! Saver's name: Rodrigo Anjos
! Comments: Teste de deteccao de acetona 0-100ppm a partir de cilindro
! Time and date: 10/9/2025 18:07
!              Frequency                     S11                                                   S21                                                   S12                                                   S22
# HZ  S  MA R 50
3000000000.000000      9.589005000000000E-02      6.624609000000000E+01      4.340668000000000E-01      2.514453000000000E+01
3020000000.000000      1.152458000000000E-01      5.806641000000000E+01      4.362488000000000E-01     -3.809570000000000E+00
3040000000.000000      1.219368000000000E-01      4.641406000000000E+01      4.359894000000000E-01     -3.283008000000000E+01
3060000000.000000      1.139755000000000E-01      3.525781000000000E+01      4.338684000000000E-01     -6.112499000000000E+01
3080000000.000000      9.674454000000000E-02      2.749707000000000E+01      4.329376000000000E-01     -8.989843000000000E+01
3100000000.000000      8.107758000000000E-02      2.666894000000000E+01      4.325562000000000E-01     -1.182617000000000E+02
3120000000.000000      7.423019000000000E-02      3.146973000000000E+01      4.292908000000000E-01     -1.468125000000000E+02
3140000000.000000      7.281113000000000E-02      3.255468000000000E+01      4.259491000000000E-01     -1.754688000000000E+02
3160000000.000000      6.507874000000000E-02      2.987011000000000E+01      4.216766000000000E-01      1.562187000000000E+02
3180000000.000000      4.511642000000000E-02      3.547266000000000E+01      4.198608000000000E-01      1.275820000000000E+02
3200000000.000000      3.627586000000000E-02      8.413671000000000E+01      4.136963000000000E-01      9.826952000000000E+01
3220000000.000000      7.618332000000000E-02      1.099258000000000E+02      4.016876000000000E-01      6.900391000000000E+01
3240000000.000000      1.292877000000000E-01      1.040820000000000E+02      3.910065000000000E-01      4.153906000000000E+01
3260000000.000000      1.774979000000000E-01      9.167187000000000E+01      3.950500000000000E-01      1.455127000000000E+01
3280000000.000000      2.128830000000000E-01      7.708984000000000E+01      4.019012000000000E-01     -1.475342000000000E+01
3300000000.000000      2.326279000000000E-01      6.249023000000000E+01      3.966370000000000E-01     -4.340625000000000E+01
3320000000.000000      2.359695000000000E-01      4.882030000000000E+01      4.009094000000000E-01     -7.142578000000000E+01
3340000000.000000      2.265167000000000E-01      3.749218000000000E+01      4.057922000000000E-01     -1.002344000000000E+02
3360000000.000000      2.089157000000000E-01      2.902246000000000E+01      4.069977000000000E-01     -1.286953000000000E+02
3380000000.000000      1.889954000000000E-01      2.416113000000000E+01      4.116211000000000E-01     -1.571640000000000E+02
3400000000.000000      1.713181000000000E-01      2.178027000000000E+01      4.138336000000000E-01      1.742500000000000E+02
3420000000.000000      1.578751000000000E-01      2.079102000000000E+01      4.141541000000000E-01      1.453906000000000E+02
3440000000.000000      1.459122000000000E-01      2.025879000000000E+01      4.111633000000000E-01      1.168672000000000E+02
3460000000.000000      1.354294000000000E-01      2.066113000000000E+01      4.103241000000000E-01      8.850000000000000E+01
3480000000.000000      1.281433000000000E-01      2.182617000000000E+01      4.102325000000000E-01      5.970117000000000E+01
3500000000.000000      1.243019000000000E-01      2.383301000000000E+01      4.061584000000000E-01      3.051953000000000E+01
3520000000.000000      1.215973000000000E-01      2.518555000000000E+01      4.041138000000000E-01      2.458130000000000E+00
3540000000.000000      1.200294000000000E-01      2.709473000000000E+01      4.052582000000000E-01     -2.612011000000000E+01
3560000000.000000      1.195908000000000E-01      3.096680000000000E+01      4.066925000000000E-01     -5.503320000000000E+01
3580000000.000000      1.242218000000000E-01      3.542383000000000E+01      4.066315000000000E-01     -8.399609000000000E+01
3600000000.000000      1.358643000000000E-01      3.755078000000000E+01      4.050598000000000E-01     -1.121172000000000E+02
3620000000.000000      1.496353000000000E-01      3.617969000000000E+01      4.073944000000000E-01     -1.400391000000000E+02
3640000000.000000      1.563950000000000E-01      3.133691000000000E+01      4.074249000000000E-01     -1.685156000000000E+02
3660000000.000000      1.538467000000000E-01      2.551270000000000E+01      4.068451000000000E-01      1.636406000000000E+02
3680000000.000000      1.428680000000000E-01      2.192285000000000E+01      4.104462000000000E-01      1.356562000000000E+02
3700000000.000000      1.296844000000000E-01      2.328906000000000E+01      4.101257000000000E-01      1.074531000000000E+02
3720000000.000000      1.272507000000000E-01      2.951855000000000E+01      4.092712000000000E-01      7.891796000000000E+01
3740000000.000000      1.418304000000000E-01      3.395117000000000E+01      4.033966000000000E-01      5.037695000000000E+01
3760000000.000000      1.598587000000000E-01      3.243164000000000E+01      3.977966000000000E-01      2.238281000000000E+01
3780000000.000000      1.691284000000000E-01      2.652148000000000E+01      3.980865000000000E-01     -5.434326000000000E+00
3800000000.000000      1.646423000000000E-01      2.001269000000000E+01      3.982086000000000E-01     -3.400781000000000E+01
3820000000.000000      1.482544000000000E-01      1.632617000000000E+01      3.989716000000000E-01     -6.274219000000000E+01
3840000000.000000      1.328888000000000E-01      1.898535000000000E+01      3.977051000000000E-01     -9.155468000000000E+01
3860000000.000000      1.333084000000000E-01      2.538476000000000E+01      3.974609000000000E-01     -1.205195000000000E+02
3880000000.000000      1.487579000000000E-01      2.783984000000000E+01      3.958740000000000E-01     -1.496094000000000E+02
3900000000.000000      1.646805000000000E-01      2.400781000000000E+01      3.864594000000000E-01     -1.780156000000000E+02
3920000000.000000      1.658630000000000E-01      1.748144000000000E+01      3.884277000000000E-01      1.546797000000000E+02
3940000000.000000      1.507339000000000E-01      1.321240000000000E+01      3.964081000000000E-01      1.260742000000000E+02
3960000000.000000      1.314850000000000E-01      1.645801000000000E+01      3.943024000000000E-01      9.708593000000000E+01
3980000000.000000      1.299591000000000E-01      2.698925000000000E+01      3.867645000000000E-01      6.820703000000000E+01
4000000000.000000      1.545715000000000E-01      3.276367000000000E+01      3.803558000000000E-01      4.151172000000000E+01
4020000000.000000      1.870728000000000E-01      2.875879000000000E+01      3.879547000000000E-01      1.367627000000000E+01
4040000000.000000      2.095566000000000E-01      1.864453000000000E+01      3.885193000000000E-01     -1.636621000000000E+01
4060000000.000000      2.106705000000000E-01      6.588867000000000E+00      3.749695000000000E-01     -4.508594000000000E+01
4080000000.000000      1.884308000000000E-01     -5.457520000000000E+00      3.743591000000000E-01     -7.207812000000000E+01
4100000000.000000      1.487732000000000E-01     -1.252197000000000E+01      3.828278000000000E-01     -1.007383000000000E+02
4120000000.000000      1.088142000000000E-01     -8.340332000000000E+00      3.821411000000000E-01     -1.308359000000000E+02
4140000000.000000      9.667206000000000E-02      9.261230000000000E+00      3.757629000000000E-01     -1.598750000000000E+02
4160000000.000000      1.107140000000000E-01      2.014062000000000E+01      3.757172000000000E-01      1.725391000000000E+02
4180000000.000000      1.259995000000000E-01      2.043945000000000E+01      3.827515000000000E-01      1.437187000000000E+02
4200000000.000000      1.294785000000000E-01      1.817871000000000E+01      3.841095000000000E-01      1.138555000000000E+02
4220000000.000000      1.265717000000000E-01      1.959375000000000E+01      3.780823000000000E-01      8.480860000000000E+01
4240000000.000000      1.306000000000000E-01      2.523828000000000E+01      3.720856000000000E-01      5.636132000000000E+01
4260000000.000000      1.500320000000000E-01      2.931641000000000E+01      3.682556000000000E-01      2.824902000000000E+01
4280000000.000000      1.756287000000000E-01      2.722461000000000E+01      3.679047000000000E-01      1.647949000000000E-01
4300000000.000000      1.932755000000000E-01      2.102051000000000E+01      3.653870000000000E-01     -2.855371000000000E+01
4320000000.000000      1.976852000000000E-01      1.376172000000000E+01      3.637848000000000E-01     -5.744922000000000E+01
4340000000.000000      1.880417000000000E-01      8.339844000000000E+00      3.622131000000000E-01     -8.647264000000000E+01
4360000000.000000      1.761856000000000E-01      6.755127000000000E+00      3.602905000000000E-01     -1.154922000000000E+02
4380000000.000000      1.734695000000000E-01      8.504395000000000E+00      3.576965000000000E-01     -1.451328000000000E+02
4400000000.000000      1.827927000000000E-01      8.830078000000000E+00      3.547821000000000E-01     -1.742578000000000E+02
4420000000.000000      1.927338000000000E-01      5.597412000000000E+00      3.560944000000000E-01      1.568672000000000E+02
4440000000.000000      1.931686000000000E-01      1.812744000000000E-01      3.587952000000000E-01      1.270664000000000E+02
4460000000.000000      1.795959000000000E-01     -3.184692000000000E+00      3.519135000000000E-01      9.745312000000000E+01
4480000000.000000      1.613617000000000E-01     -1.587524000000000E+00      3.495789000000000E-01      6.924609000000000E+01
4500000000.000000      1.574783000000000E-01      5.671631000000000E+00      3.488312000000000E-01      4.033008000000000E+01
4520000000.000000      1.764145000000000E-01      1.090088000000000E+01      3.463135000000000E-01      1.085303000000000E+01
4540000000.000000      2.043381000000000E-01      8.985352000000000E+00      3.361969000000000E-01     -1.833301000000000E+01
4560000000.000000      2.263184000000000E-01      2.834473000000000E+00      3.315125000000000E-01     -4.671679000000000E+01
4580000000.000000      2.357025000000000E-01     -4.764160000000000E+00      3.331299000000000E-01     -7.587891000000000E+01
4600000000.000000      2.329788000000000E-01     -1.133105000000000E+01      3.305054000000000E-01     -1.060781000000000E+02
4620000000.000000      2.245026000000000E-01     -1.567480000000000E+01      3.255005000000000E-01     -1.355781000000000E+02
4640000000.000000      2.205276000000000E-01     -1.827246000000000E+01      3.251038000000000E-01     -1.651641000000000E+02
4660000000.000000      2.213745000000000E-01     -2.107324000000000E+01      3.248444000000000E-01      1.658906000000000E+02
4680000000.000000      2.223587000000000E-01     -2.544434000000000E+01      3.277740000000000E-01      1.364766000000000E+02
4700000000.000000      2.179031000000000E-01     -3.146289000000000E+01      3.279724000000000E-01      1.070273000000000E+02
4720000000.000000      2.053680000000000E-01     -3.757031000000000E+01      3.256073000000000E-01      7.902734000000000E+01
4740000000.000000      1.884842000000000E-01     -4.327344000000000E+01      3.305511000000000E-01      5.102539000000000E+01
4760000000.000000      1.677246000000000E-01     -4.817383000000000E+01      3.313446000000000E-01      2.247168000000000E+01
4780000000.000000      1.453705000000000E-01     -5.260156000000000E+01      3.280487000000000E-01     -5.986328000000000E+00
4800000000.000000      1.164513000000000E-01     -5.755468000000000E+01      3.239136000000000E-01     -3.467578000000000E+01
4820000000.000000      7.730865000000000E-02     -5.848242000000000E+01      3.157959000000000E-01     -6.365624000000000E+01
4840000000.000000      3.778076000000000E-02     -2.270215000000000E+01      3.095093000000000E-01     -9.257421000000000E+01
4860000000.000000      7.274246000000000E-02      3.314258000000000E+01      3.026123000000000E-01     -1.230391000000000E+02
4880000000.000000      1.400909000000000E-01      3.238672000000000E+01      2.837219000000000E-01     -1.539297000000000E+02
4900000000.000000      2.033920000000000E-01      2.100293000000000E+01      2.619324000000000E-01      1.787344000000000E+02
4920000000.000000      2.531433000000000E-01      6.749512000000000E+00      2.626953000000000E-01      1.534609000000000E+02
4940000000.000000      2.833252000000000E-01     -7.462646000000000E+00      2.763824000000000E-01      1.249766000000000E+02
4960000000.000000      2.912140000000000E-01     -2.175781000000000E+01      2.801056000000000E-01      9.503906000000000E+01
4980000000.000000      2.756500000000000E-01     -3.456055000000000E+01      2.854462000000000E-01      6.767968000000000E+01
5000000000.000000      2.407913000000000E-01     -4.458398000000000E+01      2.989197000000000E-01      3.983007000000000E+01
5020000000.000000      1.985931000000000E-01     -4.854492000000000E+01      3.087158000000000E-01      1.146826000000000E+01
5040000000.000000      1.682510000000000E-01     -4.482422000000000E+01      3.152008000000000E-01     -1.585889000000000E+01
5060000000.000000      1.633148000000000E-01     -3.695508000000000E+01      3.234100000000000E-01     -4.306054000000000E+01
5080000000.000000      1.751480000000000E-01     -3.353125000000000E+01      3.292542000000000E-01     -7.142578000000000E+01
5100000000.000000      1.881027000000000E-01     -3.456445000000000E+01      3.237457000000000E-01     -9.984375000000000E+01
5120000000.000000      1.945801000000000E-01     -3.766406000000000E+01      3.193512000000000E-01     -1.273945000000000E+02
5140000000.000000      1.974945000000000E-01     -4.065820000000000E+01      3.182373000000000E-01     -1.558047000000000E+02
5160000000.000000      1.998978000000000E-01     -4.328125000000000E+01      3.152924000000000E-01      1.748828000000000E+02
5180000000.000000      2.027359000000000E-01     -4.612109000000000E+01      3.123016000000000E-01      1.452812000000000E+02
5200000000.000000      2.057495000000000E-01     -5.006445000000000E+01      3.100128000000000E-01      1.154023000000000E+02
5220000000.000000      2.023087000000000E-01     -5.374023000000000E+01      3.102570000000000E-01      8.587109000000000E+01
5240000000.000000      1.952972000000000E-01     -5.626758000000000E+01      3.141937000000000E-01      5.605469000000000E+01
5260000000.000000      1.889954000000000E-01     -5.685741000000000E+01      3.181152000000000E-01      2.659570000000000E+01
5280000000.000000      1.855469000000000E-01     -5.638866000000000E+01      3.226471000000000E-01     -2.574951000000000E+00
5300000000.000000      1.891251000000000E-01     -5.670116000000000E+01      3.248596000000000E-01     -3.075781000000000E+01
5320000000.000000      1.926804000000000E-01     -5.884570000000000E+01      3.292389000000000E-01     -5.798242000000000E+01
5340000000.000000      1.918945000000000E-01     -6.197851000000000E+01      3.328552000000000E-01     -8.576172000000000E+01
5360000000.000000      1.869736000000000E-01     -6.506249000000000E+01      3.285522000000000E-01     -1.131133000000000E+02
5380000000.000000      1.811752000000000E-01     -6.641406000000000E+01      3.253784000000000E-01     -1.396797000000000E+02
5400000000.000000      1.801834000000000E-01     -6.637109000000000E+01      3.234100000000000E-01     -1.674453000000000E+02
5420000000.000000      1.876678000000000E-01     -6.623437000000000E+01      3.174744000000000E-01      1.643203000000000E+02
5440000000.000000      1.987000000000000E-01     -6.827343000000000E+01      3.123474000000000E-01      1.354063000000000E+02
5460000000.000000      2.064362000000000E-01     -7.303905000000000E+01      3.028412000000000E-01      1.059258000000000E+02
5480000000.000000      2.044907000000000E-01     -7.861718000000000E+01      2.982788000000000E-01      7.655078000000000E+01
5500000000.000000      1.913452000000000E-01     -8.416407000000000E+01      3.001251000000000E-01      4.682617000000000E+01
5520000000.000000      1.719589000000000E-01     -8.767969000000000E+01      3.013916000000000E-01      1.667090000000000E+01
5540000000.000000      1.545944000000000E-01     -8.798437000000000E+01      3.043060000000000E-01     -1.304248000000000E+01
5560000000.000000      1.419296000000000E-01     -8.673046000000000E+01      3.100739000000000E-01     -4.204102000000000E+01
5580000000.000000      1.334152000000000E-01     -8.433985000000000E+01      3.159943000000000E-01     -7.064843000000000E+01
5600000000.000000      1.290512000000000E-01     -8.092188000000000E+01      3.200989000000000E-01     -9.850389000000000E+01
5620000000.000000      1.286240000000000E-01     -7.570313000000000E+01      3.211975000000000E-01     -1.265000000000000E+02
5640000000.000000      1.376801000000000E-01     -6.980859000000000E+01      3.197021000000000E-01     -1.541016000000000E+02
5660000000.000000      1.583099000000000E-01     -6.719531000000000E+01      3.145752000000000E-01      1.785391000000000E+02
5680000000.000000      1.846848000000000E-01     -6.999218000000000E+01      3.083649000000000E-01      1.507656000000000E+02
5700000000.000000      2.059860000000000E-01     -7.725780000000000E+01      2.976532000000000E-01      1.225469000000000E+02
5720000000.000000      2.139130000000000E-01     -8.691406000000000E+01      2.867126000000000E-01      9.508984000000000E+01
5740000000.000000      2.052765000000000E-01     -9.689062000000000E+01      2.829590000000000E-01      6.629296000000000E+01
5760000000.000000      1.826477000000000E-01     -1.048555000000000E+02      2.794189000000000E-01      3.554883000000000E+01
5780000000.000000      1.558685000000000E-01     -1.074101000000000E+02      2.756348000000000E-01      5.195068000000000E+00
5800000000.000000      1.386261000000000E-01     -1.035508000000000E+02      2.758484000000000E-01     -2.482715000000000E+01
5820000000.000000      1.400604000000000E-01     -9.919140000000000E+01      2.813568000000000E-01     -5.481640000000000E+01
5840000000.000000      1.489182000000000E-01     -1.003125000000000E+02      2.888336000000000E-01     -8.517187000000000E+01
5860000000.000000      1.542969000000000E-01     -1.062148000000000E+02      2.892303000000000E-01     -1.144922000000000E+02
5880000000.000000      1.481171000000000E-01     -1.143437000000000E+02      2.901917000000000E-01     -1.418672000000000E+02
5900000000.000000      1.318665000000000E-01     -1.201015000000000E+02      2.978210000000000E-01     -1.690156000000000E+02
5920000000.000000      1.137009000000000E-01     -1.206758000000000E+02      3.010712000000000E-01      1.626406000000000E+02
5940000000.000000      1.036377000000000E-01     -1.162226000000000E+02      2.953033000000000E-01      1.340781000000000E+02
5960000000.000000      1.006012000000000E-01     -1.136992000000000E+02      2.832794000000000E-01      1.062578000000000E+02
5980000000.000000      9.460068000000000E-02     -1.149219000000000E+02      2.762146000000000E-01      7.887109000000000E+01
6000000000.000000      7.784271000000000E-02     -1.144922000000000E+02      2.719269000000000E-01      4.939453000000000E+01
6020000000.000000      5.656433000000000E-02     -1.021562000000000E+02      2.617950000000000E-01      1.842871000000000E+01
6040000000.000000      5.703354000000000E-02     -7.173046000000000E+01      2.500763000000000E-01     -1.174463000000000E+01
6060000000.000000      8.369064000000000E-02     -5.913280000000000E+01      2.466507000000000E-01     -4.144140000000000E+01
6080000000.000000      1.138496000000000E-01     -6.352734000000000E+01      2.522736000000000E-01     -7.180469000000000E+01
