! Network Analyzer HP8722D
! Hewlett-Packard
! Data name: Linha com CNT
! Saver's name: Rodrigo Anjos
! Comments: Teste de deteccao de acetona 0-100ppm a partir de cilindro
! Time and date: 10/9/2025 17:03
!              Frequency                     S11                                                   S21                                                   S12                                                   S22
# HZ  S  MA R 50
3000000000.000000      2.307281000000000E-01      2.731054000000000E+01      3.528595000000000E-01      2.700293000000000E+01
3020000000.000000      2.472153000000000E-01      2.668359000000000E+01      3.546600000000000E-01     -1.925354000000000E+00
3040000000.000000      2.587585000000000E-01      2.345410000000000E+01      3.554535000000000E-01     -3.107910000000000E+01
3060000000.000000      2.593842000000000E-01      1.934668000000000E+01      3.548431000000000E-01     -6.001562000000000E+01
3080000000.000000      2.514954000000000E-01      1.579004000000000E+01      3.523712000000000E-01     -8.865234000000000E+01
3100000000.000000      2.417603000000000E-01      1.420361000000000E+01      3.492126000000000E-01     -1.167695000000000E+02
3120000000.000000      2.364349000000000E-01      1.408154000000000E+01      3.492889000000000E-01     -1.455234000000000E+02
3140000000.000000      2.359390000000000E-01      1.333154000000000E+01      3.441010000000000E-01     -1.739453000000000E+02
3160000000.000000      2.322693000000000E-01      1.161914000000000E+01      3.406219000000000E-01      1.573750000000000E+02
3180000000.000000      2.194138000000000E-01      1.034766000000000E+01      3.359833000000000E-01      1.287891000000000E+02
3200000000.000000      1.997910000000000E-01      1.223291000000000E+01      3.310242000000000E-01      9.983984000000000E+01
3220000000.000000      1.845703000000000E-01      1.908789000000000E+01      3.200378000000000E-01      7.119141000000000E+01
3240000000.000000      1.917343000000000E-01      2.827051000000000E+01      3.089142000000000E-01      4.469140000000000E+01
3260000000.000000      2.188797000000000E-01      3.392383000000000E+01      3.171997000000000E-01      1.788281000000000E+01
3280000000.000000      2.561951000000000E-01      3.379101000000000E+01      3.254395000000000E-01     -1.145068000000000E+01
3300000000.000000      2.907410000000000E-01      2.940625000000000E+01      3.251648000000000E-01     -4.005078000000000E+01
3320000000.000000      3.134613000000000E-01      2.327441000000000E+01      3.313141000000000E-01     -6.828125000000000E+01
3340000000.000000      3.221588000000000E-01      1.717773000000000E+01      3.371582000000000E-01     -9.755468000000000E+01
3360000000.000000      3.190002000000000E-01      1.205566000000000E+01      3.387756000000000E-01     -1.265430000000000E+02
3380000000.000000      3.091431000000000E-01      8.743652000000000E+00      3.406525000000000E-01     -1.552500000000000E+02
3400000000.000000      2.992554000000000E-01      6.665771000000000E+00      3.414154000000000E-01      1.759687000000000E+02
3420000000.000000      2.910461000000000E-01      5.208740000000000E+00      3.409882000000000E-01      1.469844000000000E+02
3440000000.000000      2.826538000000000E-01      3.989380000000000E+00      3.369598000000000E-01      1.184336000000000E+02
3460000000.000000      2.746429000000000E-01      3.015747000000000E+00      3.362885000000000E-01      9.012110000000000E+01
3480000000.000000      2.696381000000000E-01      2.396362000000000E+00      3.349304000000000E-01      6.111133000000000E+01
3500000000.000000      2.664948000000000E-01      2.095581000000000E+00      3.310394000000000E-01      3.260937000000000E+01
3520000000.000000      2.636871000000000E-01      1.488647000000000E+00      3.303375000000000E-01      4.104736000000000E+00
3540000000.000000      2.619629000000000E-01      1.192017000000000E+00      3.288574000000000E-01     -2.457031000000000E+01
3560000000.000000      2.590179000000000E-01      1.562805000000000E+00      3.295593000000000E-01     -5.307812000000000E+01
3580000000.000000      2.567596000000000E-01      2.294678000000000E+00      3.290558000000000E-01     -8.191015000000000E+01
3600000000.000000      2.601166000000000E-01      3.210693000000000E+00      3.286285000000000E-01     -1.096680000000000E+02
3620000000.000000      2.675171000000000E-01      3.250488000000000E+00      3.320313000000000E-01     -1.380703000000000E+02
3640000000.000000      2.744598000000000E-01      1.796265000000000E+00      3.329163000000000E-01     -1.664141000000000E+02
3660000000.000000      2.765350000000000E-01     -9.997559000000000E-01      3.334503000000000E-01      1.655547000000000E+02
3680000000.000000      2.728729000000000E-01     -3.497803000000000E+00      3.342743000000000E-01      1.374219000000000E+02
3700000000.000000      2.632751000000000E-01     -4.689941000000000E+00      3.330536000000000E-01      1.094805000000000E+02
3720000000.000000      2.565765000000000E-01     -3.945557000000000E+00      3.332062000000000E-01      8.096094000000000E+01
3740000000.000000      2.591248000000000E-01     -2.169800000000000E+00      3.273773000000000E-01      5.253515000000000E+01
3760000000.000000      2.696991000000000E-01     -1.426880000000000E+00      3.247223000000000E-01      2.502539000000000E+01
3780000000.000000      2.804413000000000E-01     -3.087158000000000E+00      3.261414000000000E-01     -3.132568000000000E+00
3800000000.000000      2.842102000000000E-01     -6.229248000000000E+00      3.258667000000000E-01     -3.195996000000000E+01
3820000000.000000      2.762451000000000E-01     -9.228516000000000E+00      3.245392000000000E-01     -6.066796000000000E+01
3840000000.000000      2.645264000000000E-01     -1.032031000000000E+01      3.234863000000000E-01     -8.946484000000000E+01
3860000000.000000      2.584839000000000E-01     -9.471680000000000E+00      3.240509000000000E-01     -1.184570000000000E+02
3880000000.000000      2.623901000000000E-01     -8.066895000000000E+00      3.200531000000000E-01     -1.474609000000000E+02
3900000000.000000      2.737885000000000E-01     -8.741211000000000E+00      3.168793000000000E-01     -1.754922000000000E+02
3920000000.000000      2.806244000000000E-01     -1.137500000000000E+01      3.189850000000000E-01      1.567500000000000E+02
3940000000.000000      2.756042000000000E-01     -1.430176000000000E+01      3.222351000000000E-01      1.281797000000000E+02
3960000000.000000      2.613983000000000E-01     -1.550195000000000E+01      3.215485000000000E-01      9.942186000000000E+01
3980000000.000000      2.492142000000000E-01     -1.357520000000000E+01      3.139648000000000E-01      7.063281000000000E+01
4000000000.000000      2.514954000000000E-01     -1.009131000000000E+01      3.094940000000000E-01      4.437500000000000E+01
4020000000.000000      2.707367000000000E-01     -8.709473000000000E+00      3.173523000000000E-01      1.658203000000000E+01
4040000000.000000      2.965546000000000E-01     -1.129004000000000E+01      3.182831000000000E-01     -1.377588000000000E+01
4060000000.000000      3.118134000000000E-01     -1.670703000000000E+01      3.092346000000000E-01     -4.238086000000000E+01
4080000000.000000      3.095551000000000E-01     -2.340723000000000E+01      3.095093000000000E-01     -7.017187000000000E+01
4100000000.000000      2.885437000000000E-01     -2.848145000000000E+01      3.133392000000000E-01     -9.928905000000000E+01
4120000000.000000      2.606049000000000E-01     -3.020312000000000E+01      3.109131000000000E-01     -1.293828000000000E+02
4140000000.000000      2.413025000000000E-01     -2.785058000000000E+01      3.036499000000000E-01     -1.579453000000000E+02
4160000000.000000      2.376328000000000E-01     -2.501465000000000E+01      3.047180000000000E-01      1.747344000000000E+02
4180000000.000000      2.424164000000000E-01     -2.387695000000000E+01      3.113251000000000E-01      1.457578000000000E+02
4200000000.000000      2.443848000000000E-01     -2.484082000000000E+01      3.092651000000000E-01      1.163203000000000E+02
4220000000.000000      2.412109000000000E-01     -2.562304000000000E+01      3.068695000000000E-01      8.785156000000000E+01
4240000000.000000      2.347717000000000E-01     -2.475390000000000E+01      3.024445000000000E-01      5.893555000000000E+01
4260000000.000000      2.365341000000000E-01     -2.212109000000000E+01      2.971039000000000E-01      3.131836000000000E+01
4280000000.000000      2.471237000000000E-01     -2.021679000000000E+01      2.978210000000000E-01      3.295898000000000E+00
4300000000.000000      2.631226000000000E-01     -2.074707000000000E+01      2.962799000000000E-01     -2.552734000000000E+01
4320000000.000000      2.743988000000000E-01     -2.347851000000000E+01      2.953491000000000E-01     -5.408789000000000E+01
4340000000.000000      2.763214000000000E-01     -2.711914000000000E+01      2.953491000000000E-01     -8.326563000000000E+01
4360000000.000000      2.705078000000000E-01     -2.939844000000000E+01      2.945099000000000E-01     -1.128633000000000E+02
4380000000.000000      2.648926000000000E-01     -2.980664000000000E+01      2.919617000000000E-01     -1.425156000000000E+02
4400000000.000000      2.670288000000000E-01     -2.947363000000000E+01      2.893219000000000E-01     -1.714687000000000E+02
4420000000.000000      2.755432000000000E-01     -3.030371000000000E+01      2.925873000000000E-01      1.598203000000000E+02
4440000000.000000      2.815704000000000E-01     -3.274023000000000E+01      2.939758000000000E-01      1.299062000000000E+02
4460000000.000000      2.787476000000000E-01     -3.569531000000000E+01      2.899780000000000E-01      1.006406000000000E+02
4480000000.000000      2.661133000000000E-01     -3.769726000000000E+01      2.875671000000000E-01      7.180469000000000E+01
4500000000.000000      2.540283000000000E-01     -3.682812000000000E+01      2.855988000000000E-01      4.323632000000000E+01
4520000000.000000      2.516327000000000E-01     -3.400976000000000E+01      2.817841000000000E-01      1.417334000000000E+01
4540000000.000000      2.639008000000000E-01     -3.230664000000000E+01      2.745972000000000E-01     -1.464355000000000E+01
4560000000.000000      2.830353000000000E-01     -3.320898000000000E+01      2.721100000000000E-01     -4.258398000000000E+01
4580000000.000000      2.993622000000000E-01     -3.631054000000000E+01      2.739563000000000E-01     -7.225390000000000E+01
4600000000.000000      3.063507000000000E-01     -3.990820000000000E+01      2.712097000000000E-01     -1.023476000000000E+02
4620000000.000000      3.061676000000000E-01     -4.287305000000000E+01      2.692719000000000E-01     -1.324141000000000E+02
4640000000.000000      3.058929000000000E-01     -4.477929000000000E+01      2.674866000000000E-01     -1.627266000000000E+02
4660000000.000000      3.093414000000000E-01     -4.643555000000000E+01      2.673950000000000E-01      1.683437000000000E+02
4680000000.000000      3.142853000000000E-01     -4.876758000000000E+01      2.719269000000000E-01      1.390234000000000E+02
4700000000.000000      3.175507000000000E-01     -5.217187000000000E+01      2.731476000000000E-01      1.092461000000000E+02
4720000000.000000      3.151855000000000E-01     -5.608007000000000E+01      2.731476000000000E-01      8.121485000000000E+01
4740000000.000000      3.081360000000000E-01     -5.991405000000000E+01      2.770844000000000E-01      5.287695000000000E+01
4760000000.000000      2.983093000000000E-01     -6.342968000000000E+01      2.759705000000000E-01      2.428711000000000E+01
4780000000.000000      2.864532000000000E-01     -6.677734000000000E+01      2.722473000000000E-01     -4.216064000000000E+00
4800000000.000000      2.691040000000000E-01     -7.057422000000000E+01      2.664948000000000E-01     -3.259570000000000E+01
4820000000.000000      2.435303000000000E-01     -7.334374000000000E+01      2.563934000000000E-01     -6.145898000000000E+01
4840000000.000000      2.091293000000000E-01     -7.328906000000000E+01      2.474823000000000E-01     -8.975000000000000E+01
4860000000.000000      1.791916000000000E-01     -6.695703000000000E+01      2.401733000000000E-01     -1.196992000000000E+02
4880000000.000000      1.708145000000000E-01     -5.359765000000000E+01      2.232056000000000E-01     -1.502656000000000E+02
4900000000.000000      1.955338000000000E-01     -4.279882000000000E+01      2.054367000000000E-01     -1.767187000000000E+02
4920000000.000000      2.398605000000000E-01     -4.026367000000000E+01      2.096176000000000E-01      1.583047000000000E+02
4940000000.000000      2.849426000000000E-01     -4.362500000000000E+01      2.238388000000000E-01      1.292891000000000E+02
4960000000.000000      3.193970000000000E-01     -5.052343000000000E+01      2.302704000000000E-01      9.875389000000000E+01
4980000000.000000      3.341675000000000E-01     -5.868750000000000E+01      2.385788000000000E-01      7.077734000000000E+01
5000000000.000000      3.267212000000000E-01     -6.616405000000000E+01      2.506866000000000E-01      4.227539000000000E+01
5020000000.000000      3.041382000000000E-01     -7.098827000000000E+01      2.588043000000000E-01      1.348291000000000E+01
5040000000.000000      2.802124000000000E-01     -7.237890000000000E+01      2.616119000000000E-01     -1.369336000000000E+01
5060000000.000000      2.664642000000000E-01     -7.101563000000000E+01      2.682648000000000E-01     -4.028710000000000E+01
5080000000.000000      2.655945000000000E-01     -6.946875000000000E+01      2.735443000000000E-01     -6.823047000000000E+01
5100000000.000000      2.718201000000000E-01     -6.924609000000000E+01      2.696228000000000E-01     -9.645311000000000E+01
5120000000.000000      2.776489000000000E-01     -7.039453000000000E+01      2.663879000000000E-01     -1.236680000000000E+02
5140000000.000000      2.829590000000000E-01     -7.184765000000000E+01      2.636719000000000E-01     -1.522109000000000E+02
5160000000.000000      2.873383000000000E-01     -7.333593000000000E+01      2.595062000000000E-01      1.784922000000000E+02
5180000000.000000      2.926483000000000E-01     -7.491015000000000E+01      2.564850000000000E-01      1.486719000000000E+02
5200000000.000000      2.988739000000000E-01     -7.702343000000000E+01      2.536774000000000E-01      1.185703000000000E+02
5220000000.000000      3.007813000000000E-01     -7.961719000000000E+01      2.543945000000000E-01      8.866405000000000E+01
5240000000.000000      2.986908000000000E-01     -8.182421000000000E+01      2.584991000000000E-01      5.845117000000000E+01
5260000000.000000      2.939453000000000E-01     -8.346094000000000E+01      2.631226000000000E-01      2.857812000000000E+01
5280000000.000000      2.893219000000000E-01     -8.423437000000000E+01      2.675934000000000E-01     -6.921387000000000E-01
5300000000.000000      2.890778000000000E-01     -8.485937000000000E+01      2.695770000000000E-01     -2.834765000000000E+01
5320000000.000000      2.913971000000000E-01     -8.597656000000000E+01      2.758026000000000E-01     -5.532617000000000E+01
5340000000.000000      2.932892000000000E-01     -8.784374000000000E+01      2.790833000000000E-01     -8.311327000000000E+01
5360000000.000000      2.921906000000000E-01     -8.996094000000000E+01      2.763367000000000E-01     -1.101680000000000E+02
5380000000.000000      2.901917000000000E-01     -9.144922000000000E+01      2.732391000000000E-01     -1.368984000000000E+02
5400000000.000000      2.886200000000000E-01     -9.209764000000000E+01      2.692413000000000E-01     -1.643047000000000E+02
5420000000.000000      2.942352000000000E-01     -9.229296000000000E+01      2.629852000000000E-01      1.678984000000000E+02
5440000000.000000      3.027649000000000E-01     -9.314844000000000E+01      2.573395000000000E-01      1.386484000000000E+02
5460000000.000000      3.121643000000000E-01     -9.533594000000000E+01      2.480774000000000E-01      1.091406000000000E+02
5480000000.000000      3.162689000000000E-01     -9.856249000000000E+01      2.447205000000000E-01      7.939062000000000E+01
5500000000.000000      3.119202000000000E-01     -1.024336000000000E+02      2.456665000000000E-01      4.888085000000000E+01
5520000000.000000      3.008728000000000E-01     -1.055312000000000E+02      2.476273000000000E-01      1.807031000000000E+01
5540000000.000000      2.881165000000000E-01     -1.073633000000000E+02      2.499161000000000E-01     -1.204102000000000E+01
5560000000.000000      2.769928000000000E-01     -1.087656000000000E+02      2.540588000000000E-01     -4.065234000000000E+01
5580000000.000000      2.681580000000000E-01     -1.092305000000000E+02      2.617493000000000E-01     -6.907812000000000E+01
5600000000.000000      2.612457000000000E-01     -1.091914000000000E+02      2.657928000000000E-01     -9.676170000000000E+01
5620000000.000000      2.561493000000000E-01     -1.085195000000000E+02      2.680817000000000E-01     -1.240703000000000E+02
5640000000.000000      2.550964000000000E-01     -1.068125000000000E+02      2.668762000000000E-01     -1.512891000000000E+02
5660000000.000000      2.617340000000000E-01     -1.048047000000000E+02      2.615204000000000E-01     -1.781172000000000E+02
5680000000.000000      2.782593000000000E-01     -1.040859000000000E+02      2.551880000000000E-01      1.545625000000000E+02
5700000000.000000      2.981567000000000E-01     -1.059961000000000E+02      2.459106000000000E-01      1.268672000000000E+02
5720000000.000000      3.139038000000000E-01     -1.102773000000000E+02      2.368698000000000E-01      9.904686000000000E+01
5740000000.000000      3.163452000000000E-01     -1.156289000000000E+02      2.323608000000000E-01      6.964453000000000E+01
5760000000.000000      3.071136000000000E-01     -1.209570000000000E+02      2.268753000000000E-01      3.801758000000000E+01
5780000000.000000      2.888641000000000E-01     -1.239609000000000E+02      2.221222000000000E-01      6.819580000000000E+00
5800000000.000000      2.723389000000000E-01     -1.243320000000000E+02      2.216873000000000E-01     -2.365918000000000E+01
5820000000.000000      2.671204000000000E-01     -1.234336000000000E+02      2.280197000000000E-01     -5.371484000000000E+01
5840000000.000000      2.732086000000000E-01     -1.237578000000000E+02      2.363358000000000E-01     -8.449610000000000E+01
5860000000.000000      2.802582000000000E-01     -1.260078000000000E+02      2.402191000000000E-01     -1.134492000000000E+02
5880000000.000000      2.824707000000000E-01     -1.296797000000000E+02      2.437057000000000E-01     -1.410938000000000E+02
5900000000.000000      2.752533000000000E-01     -1.330391000000000E+02      2.498322000000000E-01     -1.682188000000000E+02
5920000000.000000      2.645111000000000E-01     -1.350156000000000E+02      2.513733000000000E-01      1.641719000000000E+02
5940000000.000000      2.566986000000000E-01     -1.354297000000000E+02      2.454910000000000E-01      1.362578000000000E+02
5960000000.000000      2.519836000000000E-01     -1.361875000000000E+02      2.342758000000000E-01      1.097422000000000E+02
5980000000.000000      2.459717000000000E-01     -1.379062000000000E+02      2.268753000000000E-01      8.238672000000000E+01
6000000000.000000      2.337570000000000E-01     -1.402266000000000E+02      2.200623000000000E-01      5.276367000000000E+01
6020000000.000000      2.130737000000000E-01     -1.410000000000000E+02      2.079926000000000E-01      2.195313000000000E+01
6040000000.000000      1.944580000000000E-01     -1.388359000000000E+02      1.951370000000000E-01     -8.660156000000000E+00
6060000000.000000      1.878586000000000E-01     -1.339766000000000E+02      1.900940000000000E-01     -3.849609000000000E+01
6080000000.000000      1.969452000000000E-01     -1.291563000000000E+02      1.964493000000000E-01     -6.909765000000000E+01
