! Network Analyzer HP8722D
! Hewlett-Packard
! Data name: Linha com CNT
! Saver's name: Rodrigo Anjos
! Comments: Teste de deteccao de acetona 0-100ppm a partir de cilindro
! Time and date: 10/9/2025 16:47
!              Frequency                     S11                                                   S21                                                   S12                                                   S22
# HZ  S  MA R 50
3000000000.000000      4.251099000000000E-01      1.636328000000000E+01      2.572327000000000E-01      3.289844000000000E+01
3020000000.000000      4.343872000000000E-01      1.589697000000000E+01      2.618713000000000E-01      3.451050000000000E+00
3040000000.000000      4.420013000000000E-01      1.472168000000000E+01      2.621460000000000E-01     -2.574121000000000E+01
3060000000.000000      4.463043000000000E-01      1.277002000000000E+01      2.617035000000000E-01     -5.500195000000000E+01
3080000000.000000      4.434204000000000E-01      1.081299000000000E+01      2.583466000000000E-01     -8.391405000000000E+01
3100000000.000000      4.396973000000000E-01      9.515137000000000E+00      2.560120000000000E-01     -1.117930000000000E+02
3120000000.000000      4.372864000000000E-01      8.576172000000000E+00      2.560577000000000E-01     -1.403906000000000E+02
3140000000.000000      4.379730000000000E-01      7.687500000000000E+00      2.518463000000000E-01     -1.690312000000000E+02
3160000000.000000      4.375153000000000E-01      6.496826000000000E+00      2.480316000000000E-01      1.624063000000000E+02
3180000000.000000      4.324646000000000E-01      5.255371000000000E+00      2.423096000000000E-01      1.341250000000000E+02
3200000000.000000      4.215698000000000E-01      4.680176000000000E+00      2.383804000000000E-01      1.057227000000000E+02
3220000000.000000      4.090118000000000E-01      4.951904000000000E+00      2.285690000000000E-01      7.703515000000000E+01
3240000000.000000      4.041901000000000E-01      6.223633000000000E+00      2.216949000000000E-01      5.163280000000000E+01
3260000000.000000      4.067688000000000E-01      7.910156000000000E+00      2.303848000000000E-01      2.564062000000000E+01
3280000000.000000      4.197235000000000E-01      8.831543000000000E+00      2.384262000000000E-01     -3.801270000000000E+00
3300000000.000000      4.403687000000000E-01      8.392090000000000E+00      2.415237000000000E-01     -3.244141000000000E+01
3320000000.000000      4.600983000000000E-01      6.702881000000000E+00      2.486343000000000E-01     -6.116992000000000E+01
3340000000.000000      4.719849000000000E-01      4.237793000000000E+00      2.532959000000000E-01     -9.088282000000000E+01
3360000000.000000      4.760437000000000E-01      1.726196000000000E+00      2.560425000000000E-01     -1.205859000000000E+02
3380000000.000000      4.741364000000000E-01     -6.317139000000000E-02      2.560883000000000E-01     -1.497734000000000E+02
3400000000.000000      4.694214000000000E-01     -1.730347000000000E+00      2.551880000000000E-01     -1.785859000000000E+02
3420000000.000000      4.655304000000000E-01     -2.905884000000000E+00      2.536774000000000E-01      1.523516000000000E+02
3440000000.000000      4.611664000000000E-01     -4.183105000000000E+00      2.493973000000000E-01      1.240039000000000E+02
3460000000.000000      4.560089000000000E-01     -5.235107000000000E+00      2.494965000000000E-01      9.574219000000000E+01
3480000000.000000      4.546051000000000E-01     -6.234863000000000E+00      2.475052000000000E-01      6.671093000000000E+01
3500000000.000000      4.523315000000000E-01     -6.917480000000000E+00      2.450180000000000E-01      3.866211000000000E+01
3520000000.000000      4.519348000000000E-01     -7.907471000000000E+00      2.446136000000000E-01      9.741699000000000E+00
3540000000.000000      4.514923000000000E-01     -8.730469000000000E+00      2.400360000000000E-01     -1.883398000000000E+01
3560000000.000000      4.497375000000000E-01     -9.383789000000000E+00      2.414856000000000E-01     -4.689258000000000E+01
3580000000.000000      4.469604000000000E-01     -9.876953000000000E+00      2.413940000000000E-01     -7.576172000000000E+01
3600000000.000000      4.458466000000000E-01     -1.029297000000000E+01      2.413025000000000E-01     -1.032891000000000E+02
3620000000.000000      4.485474000000000E-01     -1.075732000000000E+01      2.456818000000000E-01     -1.315938000000000E+02
3640000000.000000      4.513702000000000E-01     -1.160596000000000E+01      2.471542000000000E-01     -1.600859000000000E+02
3660000000.000000      4.539337000000000E-01     -1.312598000000000E+01      2.483902000000000E-01      1.716640000000000E+02
3680000000.000000      4.542389000000000E-01     -1.461084000000000E+01      2.468567000000000E-01      1.431953000000000E+02
3700000000.000000      4.498596000000000E-01     -1.591406000000000E+01      2.451706000000000E-01      1.156289000000000E+02
3720000000.000000      4.443359000000000E-01     -1.669922000000000E+01      2.467651000000000E-01      8.745312000000000E+01
3740000000.000000      4.440460000000000E-01     -1.668359000000000E+01      2.414551000000000E-01      5.913086000000000E+01
3760000000.000000      4.466248000000000E-01     -1.679297000000000E+01      2.404480000000000E-01      3.197070000000000E+01
3780000000.000000      4.521179000000000E-01     -1.758008000000000E+01      2.431107000000000E-01      3.504639000000000E+00
3800000000.000000      4.579010000000000E-01     -1.904004000000000E+01      2.415466000000000E-01     -2.571582000000000E+01
3820000000.000000      4.550781000000000E-01     -2.106640000000000E+01      2.398682000000000E-01     -5.429882000000000E+01
3840000000.000000      4.506989000000000E-01     -2.232617000000000E+01      2.390137000000000E-01     -8.291407000000000E+01
3860000000.000000      4.458313000000000E-01     -2.305566000000000E+01      2.398224000000000E-01     -1.120859000000000E+02
3880000000.000000      4.446106000000000E-01     -2.337695000000000E+01      2.369003000000000E-01     -1.408203000000000E+02
3900000000.000000      4.498901000000000E-01     -2.387890000000000E+01      2.356644000000000E-01     -1.685234000000000E+02
3920000000.000000      4.550171000000000E-01     -2.510839000000000E+01      2.385101000000000E-01      1.631562000000000E+02
3940000000.000000      4.552765000000000E-01     -2.685351000000000E+01      2.377167000000000E-01      1.346172000000000E+02
3960000000.000000      4.484711000000000E-01     -2.819238000000000E+01      2.383423000000000E-01      1.061797000000000E+02
3980000000.000000      4.388123000000000E-01     -2.883301000000000E+01      2.318039000000000E-01      7.754687000000000E+01
4000000000.000000      4.346466000000000E-01     -2.862500000000000E+01      2.283707000000000E-01      5.186913000000000E+01
4020000000.000000      4.392090000000000E-01     -2.825684000000000E+01      2.366180000000000E-01      2.412109000000000E+01
4040000000.000000      4.537964000000000E-01     -2.879980000000000E+01      2.372665000000000E-01     -6.229248000000000E+00
4060000000.000000      4.676056000000000E-01     -3.080761000000000E+01      2.331924000000000E-01     -3.518750000000000E+01
4080000000.000000      4.749146000000000E-01     -3.391406000000000E+01      2.326965000000000E-01     -6.377343000000000E+01
4100000000.000000      4.670715000000000E-01     -3.679101000000000E+01      2.333984000000000E-01     -9.302343000000000E+01
4120000000.000000      4.535370000000000E-01     -3.877148000000000E+01      2.305298000000000E-01     -1.232578000000000E+02
4140000000.000000      4.417725000000000E-01     -3.932226000000000E+01      2.227783000000000E-01     -1.518281000000000E+02
4160000000.000000      4.351654000000000E-01     -3.954687000000000E+01      2.246933000000000E-01     -1.784141000000000E+02
4180000000.000000      4.345093000000000E-01     -3.987695000000000E+01      2.297363000000000E-01      1.524688000000000E+02
4200000000.000000      4.351044000000000E-01     -4.089648000000000E+01      2.269516000000000E-01      1.237031000000000E+02
4220000000.000000      4.344025000000000E-01     -4.197266000000000E+01      2.281036000000000E-01      9.558203000000000E+01
4240000000.000000      4.283600000000000E-01     -4.272461000000000E+01      2.236404000000000E-01      6.646484000000000E+01
4260000000.000000      4.253845000000000E-01     -4.287109000000000E+01      2.185135000000000E-01      3.920312000000000E+01
4280000000.000000      4.252014000000000E-01     -4.275586000000000E+01      2.202988000000000E-01      1.185400000000000E+01
4300000000.000000      4.318390000000000E-01     -4.268164000000000E+01      2.193604000000000E-01     -1.690722000000000E+01
4320000000.000000      4.407501000000000E-01     -4.391602000000000E+01      2.195206000000000E-01     -4.568555000000000E+01
4340000000.000000      4.425812000000000E-01     -4.580274000000000E+01      2.193604000000000E-01     -7.506640000000000E+01
4360000000.000000      4.422913000000000E-01     -4.754102000000000E+01      2.197037000000000E-01     -1.049297000000000E+02
4380000000.000000      4.381409000000000E-01     -4.867969000000000E+01      2.176971000000000E-01     -1.350703000000000E+02
4400000000.000000      4.369965000000000E-01     -4.931054000000000E+01      2.153702000000000E-01     -1.636641000000000E+02
4420000000.000000      4.395752000000000E-01     -4.986328000000000E+01      2.193756000000000E-01      1.674531000000000E+02
4440000000.000000      4.443817000000000E-01     -5.111718000000000E+01      2.209244000000000E-01      1.376406000000000E+02
4460000000.000000      4.457245000000000E-01     -5.283398000000000E+01      2.194290000000000E-01      1.083047000000000E+02
4480000000.000000      4.427032000000000E-01     -5.460938000000000E+01      2.173920000000000E-01      7.952343000000000E+01
4500000000.000000      4.321899000000000E-01     -5.561328000000000E+01      2.147141000000000E-01      5.125977000000000E+01
4520000000.000000      4.261627000000000E-01     -5.608007000000000E+01      2.115631000000000E-01      2.294726000000000E+01
4540000000.000000      4.274292000000000E-01     -5.595312000000000E+01      2.058029000000000E-01     -5.262451000000000E+00
4560000000.000000      4.341278000000000E-01     -5.625000000000000E+01      2.056122000000000E-01     -3.290820000000000E+01
4580000000.000000      4.446106000000000E-01     -5.732226000000000E+01      2.067337000000000E-01     -6.294726000000000E+01
4600000000.000000      4.515991000000000E-01     -5.887304000000000E+01      2.046356000000000E-01     -9.321484000000000E+01
4620000000.000000      4.533386000000000E-01     -6.051562000000000E+01      2.045059000000000E-01     -1.240195000000000E+02
4640000000.000000      4.558105000000000E-01     -6.171093000000000E+01      2.009430000000000E-01     -1.550078000000000E+02
4660000000.000000      4.580688000000000E-01     -6.279687000000000E+01      2.018051000000000E-01      1.759687000000000E+02
4680000000.000000      4.632416000000000E-01     -6.409374000000000E+01      2.073364000000000E-01      1.460078000000000E+02
4700000000.000000      4.674530000000000E-01     -6.585938000000000E+01      2.087021000000000E-01      1.160117000000000E+02
4720000000.000000      4.696045000000000E-01     -6.797265000000000E+01      2.111969000000000E-01      8.770311000000000E+01
4740000000.000000      4.711914000000000E-01     -7.038671000000000E+01      2.143173000000000E-01      5.910742000000000E+01
4760000000.000000      4.689789000000000E-01     -7.277734000000000E+01      2.130661000000000E-01      3.074609000000000E+01
4780000000.000000      4.639435000000000E-01     -7.480078000000000E+01      2.095337000000000E-01      2.616089000000000E+00
4800000000.000000      4.594727000000000E-01     -7.726171000000000E+01      2.031555000000000E-01     -2.526855000000000E+01
4820000000.000000      4.465027000000000E-01     -7.968359000000000E+01      1.928177000000000E-01     -5.348046000000000E+01
4840000000.000000      4.279022000000000E-01     -8.140625000000000E+01      1.825790000000000E-01     -8.093359000000000E+01
4860000000.000000      4.073334000000000E-01     -8.192577000000000E+01      1.748734000000000E-01     -1.099726000000000E+02
4880000000.000000      3.880005000000000E-01     -8.066797000000000E+01      1.602325000000000E-01     -1.400234000000000E+02
4900000000.000000      3.806610000000000E-01     -7.828125000000000E+01      1.466827000000000E-01     -1.656250000000000E+02
4920000000.000000      3.871613000000000E-01     -7.589062000000000E+01      1.511383000000000E-01      1.696094000000000E+02
4940000000.000000      4.068298000000000E-01     -7.448047000000000E+01      1.644669000000000E-01      1.396875000000000E+02
4960000000.000000      4.347229000000000E-01     -7.514843000000000E+01      1.728210000000000E-01      1.081836000000000E+02
4980000000.000000      4.571686000000000E-01     -7.801952000000000E+01      1.824646000000000E-01      7.885937000000000E+01
5000000000.000000      4.657898000000000E-01     -8.162889000000000E+01      1.930237000000000E-01      4.934179000000000E+01
5020000000.000000      4.607697000000000E-01     -8.485155000000000E+01      1.995163000000000E-01      1.997363000000000E+01
5040000000.000000      4.483795000000000E-01     -8.695313000000000E+01      2.015991000000000E-01     -6.797852000000000E+00
5060000000.000000      4.374237000000000E-01     -8.790625000000000E+01      2.063828000000000E-01     -3.239843000000000E+01
5080000000.000000      4.320679000000000E-01     -8.842577000000000E+01      2.116928000000000E-01     -5.974999000000000E+01
5100000000.000000      4.311523000000000E-01     -8.882813000000000E+01      2.096481000000000E-01     -8.712891000000000E+01
5120000000.000000      4.332123000000000E-01     -8.970312000000000E+01      2.075119000000000E-01     -1.140312000000000E+02
5140000000.000000      4.375458000000000E-01     -9.054688000000000E+01      2.038879000000000E-01     -1.425390000000000E+02
5160000000.000000      4.398651000000000E-01     -9.163280000000000E+01      1.983643000000000E-01     -1.715234000000000E+02
5180000000.000000      4.459076000000000E-01     -9.258204000000000E+01      1.944427000000000E-01      1.583828000000000E+02
5200000000.000000      4.524384000000000E-01     -9.387499000000000E+01      1.904984000000000E-01      1.278281000000000E+02
5220000000.000000      4.562988000000000E-01     -9.555079000000000E+01      1.915665000000000E-01      9.743359000000000E+01
5240000000.000000      4.573517000000000E-01     -9.721483000000000E+01      1.946182000000000E-01      6.640234000000000E+01
5260000000.000000      4.554138000000000E-01     -9.881639000000000E+01      1.996460000000000E-01      3.597070000000000E+01
5280000000.000000      4.519043000000000E-01     -1.002070000000000E+02      2.039871000000000E-01      6.222168000000000E+00
5300000000.000000      4.501190000000000E-01     -1.012383000000000E+02      2.074051000000000E-01     -2.119336000000000E+01
5320000000.000000      4.492950000000000E-01     -1.022109000000000E+02      2.155685000000000E-01     -4.780078000000000E+01
5340000000.000000      4.506531000000000E-01     -1.034883000000000E+02      2.185593000000000E-01     -7.536718000000000E+01
5360000000.000000      4.506531000000000E-01     -1.048164000000000E+02      2.180786000000000E-01     -1.018086000000000E+02
5380000000.000000      4.512024000000000E-01     -1.061172000000000E+02      2.163162000000000E-01     -1.283828000000000E+02
5400000000.000000      4.512482000000000E-01     -1.072187000000000E+02      2.100449000000000E-01     -1.551250000000000E+02
5420000000.000000      4.537506000000000E-01     -1.077539000000000E+02      2.045517000000000E-01      1.778047000000000E+02
5440000000.000000      4.604340000000000E-01     -1.084727000000000E+02      1.981277000000000E-01      1.486406000000000E+02
5460000000.000000      4.681091000000000E-01     -1.098750000000000E+02      1.887817000000000E-01      1.190820000000000E+02
5480000000.000000      4.728241000000000E-01     -1.116172000000000E+02      1.849289000000000E-01      8.844921000000000E+01
5500000000.000000      4.741821000000000E-01     -1.140195000000000E+02      1.844177000000000E-01      5.694336000000000E+01
5520000000.000000      4.696503000000000E-01     -1.163437000000000E+02      1.852264000000000E-01      2.486133000000000E+01
5540000000.000000      4.633484000000000E-01     -1.182969000000000E+02      1.874695000000000E-01     -6.028809000000000E+00
5560000000.000000      4.555817000000000E-01     -1.200078000000000E+02      1.920471000000000E-01     -3.442578000000000E+01
5580000000.000000      4.474945000000000E-01     -1.213008000000000E+02      2.005463000000000E-01     -6.277538000000000E+01
5600000000.000000      4.433746000000000E-01     -1.222305000000000E+02      2.065277000000000E-01     -9.044140000000000E+01
5620000000.000000      4.391174000000000E-01     -1.228945000000000E+02      2.096634000000000E-01     -1.164922000000000E+02
5640000000.000000      4.345551000000000E-01     -1.232891000000000E+02      2.104492000000000E-01     -1.432969000000000E+02
5660000000.000000      4.338531000000000E-01     -1.232773000000000E+02      2.066803000000000E-01     -1.689062000000000E+02
5680000000.000000      4.392395000000000E-01     -1.232422000000000E+02      2.021790000000000E-01      1.647031000000000E+02
5700000000.000000      4.504547000000000E-01     -1.240703000000000E+02      1.931915000000000E-01      1.378984000000000E+02
5720000000.000000      4.629364000000000E-01     -1.255703000000000E+02      1.850815000000000E-01      1.101289000000000E+02
5740000000.000000      4.698334000000000E-01     -1.283203000000000E+02      1.782684000000000E-01      8.011719000000000E+01
5760000000.000000      4.692841000000000E-01     -1.313828000000000E+02      1.705780000000000E-01      4.762109000000000E+01
5780000000.000000      4.591522000000000E-01     -1.340312000000000E+02      1.625748000000000E-01      1.504541000000000E+01
5800000000.000000      4.461060000000000E-01     -1.354531000000000E+02      1.602783000000000E-01     -1.634668000000000E+01
5820000000.000000      4.391785000000000E-01     -1.359219000000000E+02      1.676865000000000E-01     -4.736133000000000E+01
5840000000.000000      4.396515000000000E-01     -1.366328000000000E+02      1.774292000000000E-01     -7.879687000000000E+01
5860000000.000000      4.449615000000000E-01     -1.376719000000000E+02      1.843948000000000E-01     -1.078203000000000E+02
5880000000.000000      4.500427000000000E-01     -1.395156000000000E+02      1.913528000000000E-01     -1.358203000000000E+02
5900000000.000000      4.505920000000000E-01     -1.415547000000000E+02      1.970367000000000E-01     -1.623984000000000E+02
5920000000.000000      4.465332000000000E-01     -1.434219000000000E+02      1.991653000000000E-01      1.710859000000000E+02
5940000000.000000      4.418945000000000E-01     -1.447344000000000E+02      1.942978000000000E-01      1.442500000000000E+02
5960000000.000000      4.384766000000000E-01     -1.460547000000000E+02      1.851120000000000E-01      1.189648000000000E+02
5980000000.000000      4.330597000000000E-01     -1.476328000000000E+02      1.780548000000000E-01      9.254297000000000E+01
6000000000.000000      4.251099000000000E-01     -1.494844000000000E+02      1.684265000000000E-01      6.379296000000000E+01
6020000000.000000      4.105225000000000E-01     -1.510937000000000E+02      1.548004000000000E-01      3.359179000000000E+01
6040000000.000000      3.958740000000000E-01     -1.520703000000000E+02      1.406021000000000E-01      2.863281000000000E+00
6060000000.000000      3.851471000000000E-01     -1.520000000000000E+02      1.332169000000000E-01     -2.733398000000000E+01
6080000000.000000      3.825073000000000E-01     -1.511953000000000E+02      1.386185000000000E-01     -5.898438000000000E+01
