! Network Analyzer HP8722D
! Hewlett-Packard
! Data name: Linha com CNT
! Saver's name: Rodrigo Anjos
! Comments: Teste de deteccao de acetona 0-100ppm a partir de cilindro
! Time and date: 10/9/2025 16:12
!              Frequency                     S11                                                   S21                                                   S12                                                   S22
# HZ  S  MA R 50
3000000000.000000      4.875183000000000E-01      1.433008000000000E+01      2.172012000000000E-01      3.734375000000000E+01
3020000000.000000      4.945221000000000E-01      1.387158000000000E+01      2.216110000000000E-01      7.688965000000000E+00
3040000000.000000      5.010376000000000E-01      1.280713000000000E+01      2.219543000000000E-01     -2.146387000000000E+01
3060000000.000000      5.061951000000000E-01      1.127979000000000E+01      2.217178000000000E-01     -5.079102000000000E+01
3080000000.000000      5.023193000000000E-01      9.520996000000000E+00      2.176743000000000E-01     -7.968359000000000E+01
3100000000.000000      5.024719000000000E-01      8.194336000000000E+00      2.161560000000000E-01     -1.073711000000000E+02
3120000000.000000      5.006714000000000E-01      7.187744000000000E+00      2.158813000000000E-01     -1.360547000000000E+02
3140000000.000000      5.011597000000000E-01      6.256592000000000E+00      2.128372000000000E-01     -1.646719000000000E+02
3160000000.000000      5.021057000000000E-01      5.108643000000000E+00      2.092896000000000E-01      1.667656000000000E+02
3180000000.000000      4.980469000000000E-01      3.960571000000000E+00      2.033234000000000E-01      1.388516000000000E+02
3200000000.000000      4.900665000000000E-01      3.165405000000000E+00      1.999283000000000E-01      1.106016000000000E+02
3220000000.000000      4.804077000000000E-01      2.763062000000000E+00      1.909180000000000E-01      8.191797000000000E+01
3240000000.000000      4.740906000000000E-01      3.115967000000000E+00      1.846390000000000E-01      5.698632000000000E+01
3260000000.000000      4.728394000000000E-01      3.878174000000000E+00      1.938629000000000E-01      3.132715000000000E+01
3280000000.000000      4.810638000000000E-01      4.369629000000000E+00      2.013855000000000E-01      1.825073000000000E+00
3300000000.000000      4.958191000000000E-01      4.136230000000000E+00      2.047119000000000E-01     -2.688574000000000E+01
3320000000.000000      5.126343000000000E-01      2.947021000000000E+00      2.123337000000000E-01     -5.597461000000000E+01
3340000000.000000      5.244751000000000E-01      1.156311000000000E+00      2.171631000000000E-01     -8.587891000000000E+01
3360000000.000000      5.293274000000000E-01     -8.898926000000000E-01      2.191162000000000E-01     -1.157930000000000E+02
3380000000.000000      5.278931000000000E-01     -2.653198000000000E+00      2.185211000000000E-01     -1.452891000000000E+02
3400000000.000000      5.246277000000000E-01     -4.003174000000000E+00      2.179718000000000E-01     -1.740781000000000E+02
3420000000.000000      5.220337000000000E-01     -5.283203000000000E+00      2.163315000000000E-01      1.566641000000000E+02
3440000000.000000      5.180969000000000E-01     -6.421631000000000E+00      2.118988000000000E-01      1.287891000000000E+02
3460000000.000000      5.148621000000000E-01     -7.245605000000000E+00      2.123947000000000E-01      1.005156000000000E+02
3480000000.000000      5.124207000000000E-01     -8.362305000000000E+00      2.093582000000000E-01      7.155859000000000E+01
3500000000.000000      5.118408000000000E-01     -9.242676000000000E+00      2.077637000000000E-01      4.354688000000000E+01
3520000000.000000      5.099487000000000E-01     -1.020264000000000E+01      2.082443000000000E-01      1.446338000000000E+01
3540000000.000000      5.108643000000000E-01     -1.111133000000000E+01      2.031708000000000E-01     -1.402295000000000E+01
3560000000.000000      5.105896000000000E-01     -1.173486000000000E+01      2.047424000000000E-01     -4.187696000000000E+01
3580000000.000000      5.079651000000000E-01     -1.262061000000000E+01      2.042313000000000E-01     -7.079687000000000E+01
3600000000.000000      5.058594000000000E-01     -1.302588000000000E+01      2.042236000000000E-01     -9.814453000000000E+01
3620000000.000000      5.080566000000000E-01     -1.385938000000000E+01      2.089081000000000E-01     -1.266328000000000E+02
3640000000.000000      5.092163000000000E-01     -1.459814000000000E+01      2.102814000000000E-01     -1.549609000000000E+02
3660000000.000000      5.113220000000000E-01     -1.591943000000000E+01      2.116318000000000E-01      1.766328000000000E+02
3680000000.000000      5.108643000000000E-01     -1.719727000000000E+01      2.097702000000000E-01      1.481250000000000E+02
3700000000.000000      5.075684000000000E-01     -1.850098000000000E+01      2.072067000000000E-01      1.210000000000000E+02
3720000000.000000      5.053101000000000E-01     -1.929004000000000E+01      2.096100000000000E-01      9.281250000000000E+01
3740000000.000000      5.032043000000000E-01     -1.977051000000000E+01      2.051010000000000E-01      6.454687000000000E+01
3760000000.000000      5.058899000000000E-01     -1.997070000000000E+01      2.047043000000000E-01      3.750391000000000E+01
3780000000.000000      5.088501000000000E-01     -2.063965000000000E+01      2.074432000000000E-01      8.812012000000000E+00
3800000000.000000      5.131226000000000E-01     -2.188965000000000E+01      2.056580000000000E-01     -2.036816000000000E+01
3820000000.000000      5.130920000000000E-01     -2.358984000000000E+01      2.037964000000000E-01     -4.911718000000000E+01
3840000000.000000      5.108032000000000E-01     -2.497265000000000E+01      2.037354000000000E-01     -7.749218000000000E+01
3860000000.000000      5.069275000000000E-01     -2.589844000000000E+01      2.043762000000000E-01     -1.066640000000000E+02
3880000000.000000      5.049744000000000E-01     -2.646777000000000E+01      2.010040000000000E-01     -1.355703000000000E+02
3900000000.000000      5.095215000000000E-01     -2.712305000000000E+01      2.015228000000000E-01     -1.630625000000000E+02
3920000000.000000      5.137329000000000E-01     -2.829687000000000E+01      2.043228000000000E-01      1.683984000000000E+02
3940000000.000000      5.139771000000000E-01     -2.953320000000000E+01      2.031937000000000E-01      1.400469000000000E+02
3960000000.000000      5.090942000000000E-01     -3.086914000000000E+01      2.033005000000000E-01      1.117344000000000E+02
3980000000.000000      5.020752000000000E-01     -3.175488000000000E+01      1.976852000000000E-01      8.338282000000000E+01
4000000000.000000      4.962769000000000E-01     -3.206055000000000E+01      1.953354000000000E-01      5.790429000000000E+01
4020000000.000000      4.983063000000000E-01     -3.204883000000000E+01      2.030563000000000E-01      3.006640000000000E+01
4040000000.000000      5.089111000000000E-01     -3.247461000000000E+01      2.028809000000000E-01     -4.435730000000000E-01
4060000000.000000      5.230713000000000E-01     -3.409765000000000E+01      1.997299000000000E-01     -2.921972000000000E+01
4080000000.000000      5.301208000000000E-01     -3.651172000000000E+01      1.994705000000000E-01     -5.835546000000000E+01
4100000000.000000      5.265503000000000E-01     -3.918164000000000E+01      1.991043000000000E-01     -8.792187000000000E+01
4120000000.000000      5.171204000000000E-01     -4.088672000000000E+01      1.967926000000000E-01     -1.182617000000000E+02
4140000000.000000      5.065002000000000E-01     -4.180860000000000E+01      1.884766000000000E-01     -1.464844000000000E+02
4160000000.000000      5.016479000000000E-01     -4.249609000000000E+01      1.913681000000000E-01     -1.728047000000000E+02
4180000000.000000      4.989166000000000E-01     -4.289063000000000E+01      1.966019000000000E-01      1.580000000000000E+02
4200000000.000000      4.984131000000000E-01     -4.389453000000000E+01      1.935654000000000E-01      1.295703000000000E+02
4220000000.000000      4.992371000000000E-01     -4.493750000000000E+01      1.953812000000000E-01      1.017422000000000E+02
4240000000.000000      4.944000000000000E-01     -4.597265000000000E+01      1.920166000000000E-01      7.246875000000000E+01
4260000000.000000      4.905701000000000E-01     -4.651367000000000E+01      1.870499000000000E-01      4.570313000000000E+01
4280000000.000000      4.889221000000000E-01     -4.662499000000000E+01      1.887360000000000E-01      1.847070000000000E+01
4300000000.000000      4.925842000000000E-01     -4.701367000000000E+01      1.876755000000000E-01     -1.028467000000000E+01
4320000000.000000      5.003662000000000E-01     -4.801562000000000E+01      1.876297000000000E-01     -3.910547000000000E+01
4340000000.000000      5.039063000000000E-01     -4.958202000000000E+01      1.876678000000000E-01     -6.868750000000000E+01
4360000000.000000      5.028076000000000E-01     -5.121288000000000E+01      1.879959000000000E-01     -9.876171000000000E+01
4380000000.000000      4.989929000000000E-01     -5.227344000000000E+01      1.857071000000000E-01     -1.290703000000000E+02
4400000000.000000      4.974518000000000E-01     -5.316992000000000E+01      1.846161000000000E-01     -1.577422000000000E+02
4420000000.000000      4.988098000000000E-01     -5.400000000000000E+01      1.892395000000000E-01      1.732734000000000E+02
4440000000.000000      5.037842000000000E-01     -5.487109000000000E+01      1.903763000000000E-01      1.433984000000000E+02
4460000000.000000      5.065918000000000E-01     -5.643555000000000E+01      1.903992000000000E-01      1.143711000000000E+02
4480000000.000000      5.043640000000000E-01     -5.809765000000000E+01      1.891632000000000E-01      8.551172000000000E+01
4500000000.000000      4.962311000000000E-01     -5.927539000000000E+01      1.859970000000000E-01      5.774219000000000E+01
4520000000.000000      4.903564000000000E-01     -5.997656000000000E+01      1.835938000000000E-01      2.957031000000000E+01
4540000000.000000      4.892120000000000E-01     -6.031250000000000E+01      1.780090000000000E-01      1.748169000000000E+00
4560000000.000000      4.922333000000000E-01     -6.078515000000000E+01      1.783218000000000E-01     -2.551367000000000E+01
4580000000.000000      5.019226000000000E-01     -6.172852000000000E+01      1.785049000000000E-01     -5.568359000000000E+01
4600000000.000000      5.064697000000000E-01     -6.306641000000000E+01      1.761017000000000E-01     -8.596874000000000E+01
4620000000.000000      5.102539000000000E-01     -6.457421000000000E+01      1.759491000000000E-01     -1.174141000000000E+02
4640000000.000000      5.110168000000000E-01     -6.581640000000000E+01      1.718521000000000E-01     -1.491484000000000E+02
4660000000.000000      5.117798000000000E-01     -6.667578000000000E+01      1.724701000000000E-01     -1.783281000000000E+02
4680000000.000000      5.142212000000000E-01     -6.780859000000000E+01      1.787491000000000E-01      1.514062000000000E+02
4700000000.000000      5.194702000000000E-01     -6.913671000000000E+01      1.812668000000000E-01      1.214101000000000E+02
4720000000.000000      5.227966000000000E-01     -7.099609000000000E+01      1.854935000000000E-01      9.264063000000000E+01
4740000000.000000      5.264282000000000E-01     -7.312109000000000E+01      1.884918000000000E-01      6.408203000000000E+01
4760000000.000000      5.262756000000000E-01     -7.515234000000000E+01      1.882095000000000E-01      3.639257000000000E+01
4780000000.000000      5.232849000000000E-01     -7.689062000000000E+01      1.853027000000000E-01      8.308105000000000E+00
4800000000.000000      5.201111000000000E-01     -7.910546000000000E+01      1.787262000000000E-01     -1.917187000000000E+01
4820000000.000000      5.133972000000000E-01     -8.115625000000000E+01      1.685867000000000E-01     -4.666211000000000E+01
4840000000.000000      4.948273000000000E-01     -8.309765000000000E+01      1.580353000000000E-01     -7.327734000000000E+01
4860000000.000000      4.798279000000000E-01     -8.397264000000000E+01      1.497421000000000E-01     -1.015820000000000E+02
4880000000.000000      4.619598000000000E-01     -8.404688000000000E+01      1.351852000000000E-01     -1.311328000000000E+02
4900000000.000000      4.508514000000000E-01     -8.310156000000000E+01      1.222878000000000E-01     -1.566797000000000E+02
4920000000.000000      4.504089000000000E-01     -8.163671000000000E+01      1.265640000000000E-01      1.786016000000000E+02
4940000000.000000      4.620209000000000E-01     -8.037889000000000E+01      1.385880000000000E-01      1.478437000000000E+02
4960000000.000000      4.841919000000000E-01     -8.033594000000000E+01      1.467056000000000E-01      1.153711000000000E+02
4980000000.000000      5.049133000000000E-01     -8.225389000000000E+01      1.568604000000000E-01      8.492968000000000E+01
5000000000.000000      5.156250000000000E-01     -8.505077000000000E+01      1.679840000000000E-01      5.472656000000000E+01
5020000000.000000      5.160828000000000E-01     -8.783983000000000E+01      1.743851000000000E-01      2.501562000000000E+01
5040000000.000000      5.057068000000000E-01     -9.004686000000000E+01      1.762543000000000E-01     -1.693298000000000E+00
5060000000.000000      4.953766000000000E-01     -9.111328000000000E+01      1.820145000000000E-01     -2.657324000000000E+01
5080000000.000000      4.904327000000000E-01     -9.188671000000000E+01      1.884155000000000E-01     -5.332812000000000E+01
5100000000.000000      4.888306000000000E-01     -9.248827000000000E+01      1.869202000000000E-01     -7.996875000000000E+01
5120000000.000000      4.905090000000000E-01     -9.327343000000000E+01      1.856003000000000E-01     -1.065273000000000E+02
5140000000.000000      4.925995000000000E-01     -9.411718000000000E+01      1.808090000000000E-01     -1.347344000000000E+02
5160000000.000000      4.952698000000000E-01     -9.513672000000000E+01      1.743011000000000E-01     -1.631641000000000E+02
5180000000.000000      5.008850000000000E-01     -9.600000000000000E+01      1.694107000000000E-01      1.665156000000000E+02
5200000000.000000      5.067749000000000E-01     -9.714062000000000E+01      1.649628000000000E-01      1.358047000000000E+02
5220000000.000000      5.109863000000000E-01     -9.872656000000000E+01      1.649323000000000E-01      1.046055000000000E+02
5240000000.000000      5.137634000000000E-01     -1.003008000000000E+02      1.676407000000000E-01      7.275391000000000E+01
5260000000.000000      5.121460000000000E-01     -1.019023000000000E+02      1.724396000000000E-01      4.162890000000000E+01
5280000000.000000      5.085449000000000E-01     -1.032383000000000E+02      1.769638000000000E-01      1.152295000000000E+01
5300000000.000000      5.061340000000000E-01     -1.043281000000000E+02      1.813660000000000E-01     -1.582617000000000E+01
5320000000.000000      5.052490000000000E-01     -1.054766000000000E+02      1.902466000000000E-01     -4.215039000000000E+01
5340000000.000000      5.056458000000000E-01     -1.066523000000000E+02      1.954727000000000E-01     -6.956249000000000E+01
5360000000.000000      5.059204000000000E-01     -1.079180000000000E+02      1.965256000000000E-01     -9.529297000000000E+01
5380000000.000000      5.069580000000000E-01     -1.090664000000000E+02      1.948853000000000E-01     -1.216875000000000E+02
5400000000.000000      5.068359000000000E-01     -1.102422000000000E+02      1.881104000000000E-01     -1.477344000000000E+02
5420000000.000000      5.090332000000000E-01     -1.108008000000000E+02      1.825638000000000E-01     -1.741328000000000E+02
5440000000.000000      5.147705000000000E-01     -1.115469000000000E+02      1.761093000000000E-01      1.567969000000000E+02
5460000000.000000      5.209656000000000E-01     -1.126719000000000E+02      1.655121000000000E-01      1.274766000000000E+02
5480000000.000000      5.269470000000000E-01     -1.143281000000000E+02      1.600266000000000E-01      9.634375000000000E+01
5500000000.000000      5.298767000000000E-01     -1.165312000000000E+02      1.578903000000000E-01      6.384570000000000E+01
5520000000.000000      5.262146000000000E-01     -1.186484000000000E+02      1.583939000000000E-01      3.082031000000000E+01
5540000000.000000      5.205383000000000E-01     -1.205820000000000E+02      1.600876000000000E-01     -8.335876000000000E-01
5560000000.000000      5.134888000000000E-01     -1.222695000000000E+02      1.653366000000000E-01     -2.943848000000000E+01
5580000000.000000      5.060425000000000E-01     -1.236719000000000E+02      1.762772000000000E-01     -5.783789000000000E+01
5600000000.000000      5.017700000000000E-01     -1.247148000000000E+02      1.829147000000000E-01     -8.510937000000000E+01
5620000000.000000      4.968109000000000E-01     -1.256016000000000E+02      1.886749000000000E-01     -1.108008000000000E+02
5640000000.000000      4.934082000000000E-01     -1.262617000000000E+02      1.905060000000000E-01     -1.369375000000000E+02
5660000000.000000      4.924011000000000E-01     -1.265039000000000E+02      1.880341000000000E-01     -1.617812000000000E+02
5680000000.000000      4.951324000000000E-01     -1.266797000000000E+02      1.836853000000000E-01      1.725703000000000E+02
5700000000.000000      5.032349000000000E-01     -1.273789000000000E+02      1.751251000000000E-01      1.464141000000000E+02
5720000000.000000      5.127563000000000E-01     -1.286328000000000E+02      1.666641000000000E-01      1.193516000000000E+02
5740000000.000000      5.210876000000000E-01     -1.311172000000000E+02      1.566238000000000E-01      8.923046000000000E+01
5760000000.000000      5.206299000000000E-01     -1.338047000000000E+02      1.453476000000000E-01      5.641992000000000E+01
5780000000.000000      5.116272000000000E-01     -1.362813000000000E+02      1.353226000000000E-01      2.254101000000000E+01
5800000000.000000      4.984741000000000E-01     -1.378125000000000E+02      1.309052000000000E-01     -9.780762000000000E+00
5820000000.000000      4.903870000000000E-01     -1.384140000000000E+02      1.385269000000000E-01     -4.192383000000000E+01
5840000000.000000      4.886932000000000E-01     -1.391250000000000E+02      1.501541000000000E-01     -7.442968000000000E+01
5860000000.000000      4.937286000000000E-01     -1.397969000000000E+02      1.603851000000000E-01     -1.039922000000000E+02
5880000000.000000      4.988556000000000E-01     -1.413984000000000E+02      1.699829000000000E-01     -1.321250000000000E+02
5900000000.000000      5.010376000000000E-01     -1.431015000000000E+02      1.769409000000000E-01     -1.582813000000000E+02
5920000000.000000      4.987488000000000E-01     -1.448594000000000E+02      1.818008000000000E-01      1.760937000000000E+02
5940000000.000000      4.948578000000000E-01     -1.463281000000000E+02      1.778488000000000E-01      1.502500000000000E+02
5960000000.000000      4.910583000000000E-01     -1.476016000000000E+02      1.705475000000000E-01      1.265430000000000E+02
5980000000.000000      4.871826000000000E-01     -1.490469000000000E+02      1.639328000000000E-01      1.012500000000000E+02
6000000000.000000      4.786987000000000E-01     -1.509375000000000E+02      1.521378000000000E-01      7.386719000000000E+01
6020000000.000000      4.657288000000000E-01     -1.523828000000000E+02      1.371231000000000E-01      4.511719000000000E+01
6040000000.000000      4.521942000000000E-01     -1.534609000000000E+02      1.196632000000000E-01      1.514453000000000E+01
6060000000.000000      4.411011000000000E-01     -1.539609000000000E+02      1.098900000000000E-01     -1.489746000000000E+01
6080000000.000000      4.366608000000000E-01     -1.534297000000000E+02      1.120682000000000E-01     -4.808984000000000E+01
