! Network Analyzer HP8722D
! Hewlett-Packard
! Data name: Linha com CNT
! Saver's name: Rodrigo Anjos
! Comments: Teste de deteccao de acetona 0-100ppm a partir de cilindro
! Time and date: 10/9/2025 16:13
!              Frequency                     S11                                                   S21                                                   S12                                                   S22
# HZ  S  MA R 50
3000000000.000000      5.340881000000000E-01      1.328906000000000E+01      2.089005000000000E-01      3.841406000000000E+01
3020000000.000000      5.386963000000000E-01      1.266309000000000E+01      2.127762000000000E-01      8.906738000000000E+00
3040000000.000000      5.460815000000000E-01      1.197510000000000E+01      2.134323000000000E-01     -2.043067000000000E+01
3060000000.000000      5.505676000000000E-01      1.025391000000000E+01      2.133713000000000E-01     -4.975586000000000E+01
3080000000.000000      5.491028000000000E-01      8.768066000000000E+00      2.091827000000000E-01     -7.881640000000000E+01
3100000000.000000      5.478210000000000E-01      7.573486000000000E+00      2.081604000000000E-01     -1.064023000000000E+02
3120000000.000000      5.477600000000000E-01      6.451660000000000E+00      2.078400000000000E-01     -1.350547000000000E+02
3140000000.000000      5.474548000000000E-01      5.328369000000000E+00      2.046661000000000E-01     -1.635391000000000E+02
3160000000.000000      5.497742000000000E-01      4.518066000000000E+00      2.014465000000000E-01      1.678281000000000E+02
3180000000.000000      5.466309000000000E-01      3.449707000000000E+00      1.953354000000000E-01      1.399531000000000E+02
3200000000.000000      5.396423000000000E-01      2.573486000000000E+00      1.923065000000000E-01      1.116250000000000E+02
3220000000.000000      5.305481000000000E-01      1.693237000000000E+00      1.836319000000000E-01      8.300781000000000E+01
3240000000.000000      5.241699000000000E-01      1.643799000000000E+00      1.780777000000000E-01      5.835155000000000E+01
3260000000.000000      5.227661000000000E-01      1.932190000000000E+00      1.868134000000000E-01      3.255859000000000E+01
3280000000.000000      5.263062000000000E-01      2.322144000000000E+00      1.942139000000000E-01      3.104980000000000E+00
3300000000.000000      5.396118000000000E-01      1.947327000000000E+00      1.975174000000000E-01     -2.560547000000000E+01
3320000000.000000      5.533752000000000E-01      1.143921000000000E+00      2.053833000000000E-01     -5.460351000000000E+01
3340000000.000000      5.625000000000000E-01     -2.458191000000000E-01      2.102203000000000E-01     -8.461718000000000E+01
3360000000.000000      5.692749000000000E-01     -2.220703000000000E+00      2.124557000000000E-01     -1.146523000000000E+02
3380000000.000000      5.714111000000000E-01     -3.451172000000000E+00      2.111664000000000E-01     -1.441641000000000E+02
3400000000.000000      5.674438000000000E-01     -4.809326000000000E+00      2.105484000000000E-01     -1.729141000000000E+02
3420000000.000000      5.645447000000000E-01     -6.004150000000000E+00      2.085800000000000E-01      1.578516000000000E+02
3440000000.000000      5.599670000000000E-01     -7.215332000000000E+00      2.043304000000000E-01      1.298437000000000E+02
3460000000.000000      5.570068000000000E-01     -8.116211000000000E+00      2.053146000000000E-01      1.018125000000000E+02
3480000000.000000      5.581970000000000E-01     -9.360352000000000E+00      2.025604000000000E-01      7.267578000000000E+01
3500000000.000000      5.564575000000000E-01     -1.015430000000000E+01      2.008057000000000E-01      4.476758000000000E+01
3520000000.000000      5.565186000000000E-01     -1.116113000000000E+01      2.008286000000000E-01      1.577734000000000E+01
3540000000.000000      5.561523000000000E-01     -1.215381000000000E+01      1.965866000000000E-01     -1.287354000000000E+01
3560000000.000000      5.560608000000000E-01     -1.288037000000000E+01      1.978226000000000E-01     -4.065234000000000E+01
3580000000.000000      5.541077000000000E-01     -1.371094000000000E+01      1.974869000000000E-01     -6.943359000000000E+01
3600000000.000000      5.521545000000000E-01     -1.454346000000000E+01      1.978989000000000E-01     -9.686718000000000E+01
3620000000.000000      5.535278000000000E-01     -1.509814000000000E+01      2.018814000000000E-01     -1.252148000000000E+02
3640000000.000000      5.524902000000000E-01     -1.595947000000000E+01      2.034378000000000E-01     -1.536797000000000E+02
3660000000.000000      5.546875000000000E-01     -1.708105000000000E+01      2.049637000000000E-01      1.778437000000000E+02
3680000000.000000      5.572510000000000E-01     -1.845898000000000E+01      2.028122000000000E-01      1.492969000000000E+02
3700000000.000000      5.541382000000000E-01     -1.982715000000000E+01      2.003632000000000E-01      1.223086000000000E+02
3720000000.000000      5.513306000000000E-01     -2.063867000000000E+01      2.028503000000000E-01      9.395311000000000E+01
3740000000.000000      5.496521000000000E-01     -2.105957000000000E+01      1.985550000000000E-01      6.578515000000000E+01
3760000000.000000      5.501404000000000E-01     -2.155664000000000E+01      1.985931000000000E-01      3.884180000000000E+01
3780000000.000000      5.526733000000000E-01     -2.214355000000000E+01      2.009125000000000E-01      1.005371000000000E+01
3800000000.000000      5.571899000000000E-01     -2.344922000000000E+01      1.989059000000000E-01     -1.921875000000000E+01
3820000000.000000      5.577698000000000E-01     -2.495605000000000E+01      1.972122000000000E-01     -4.780859000000000E+01
3840000000.000000      5.552063000000000E-01     -2.630566000000000E+01      1.967239000000000E-01     -7.640625000000000E+01
3860000000.000000      5.520325000000000E-01     -2.743652000000000E+01      1.978531000000000E-01     -1.054414000000000E+02
3880000000.000000      5.488586000000000E-01     -2.808105000000000E+01      1.947174000000000E-01     -1.342266000000000E+02
3900000000.000000      5.519409000000000E-01     -2.875879000000000E+01      1.948624000000000E-01     -1.618281000000000E+02
3920000000.000000      5.558777000000000E-01     -2.981152000000000E+01      1.977158000000000E-01      1.696640000000000E+02
3940000000.000000      5.586243000000000E-01     -3.115918000000000E+01      1.962357000000000E-01      1.411719000000000E+02
3960000000.000000      5.535583000000000E-01     -3.234766000000000E+01      1.968002000000000E-01      1.129922000000000E+02
3980000000.000000      5.470581000000000E-01     -3.338476000000000E+01      1.914825000000000E-01      8.442968000000000E+01
4000000000.000000      5.415344000000000E-01     -3.390429000000000E+01      1.895294000000000E-01      5.910351000000000E+01
4020000000.000000      5.411377000000000E-01     -3.418359000000000E+01      1.973267000000000E-01      3.141113000000000E+01
4040000000.000000      5.502319000000000E-01     -3.468554000000000E+01      1.971512000000000E-01      8.775330000000000E-01
4060000000.000000      5.632629000000000E-01     -3.581640000000000E+01      1.942139000000000E-01     -2.791699000000000E+01
4080000000.000000      5.696716000000000E-01     -3.798633000000000E+01      1.941681000000000E-01     -5.718945000000000E+01
4100000000.000000      5.690918000000000E-01     -4.024414000000000E+01      1.931839000000000E-01     -8.657030000000000E+01
4120000000.000000      5.595398000000000E-01     -4.203906000000000E+01      1.901932000000000E-01     -1.170195000000000E+02
4140000000.000000      5.516968000000000E-01     -4.306250000000000E+01      1.828690000000000E-01     -1.452422000000000E+02
4160000000.000000      5.470276000000000E-01     -4.390429000000000E+01      1.853027000000000E-01     -1.714062000000000E+02
4180000000.000000      5.439758000000000E-01     -4.456445000000000E+01      1.897659000000000E-01      1.592734000000000E+02
4200000000.000000      5.447083000000000E-01     -4.567968000000000E+01      1.871338000000000E-01      1.308438000000000E+02
4220000000.000000      5.440674000000000E-01     -4.666797000000000E+01      1.895065000000000E-01      1.029844000000000E+02
4240000000.000000      5.385132000000000E-01     -4.772461000000000E+01      1.859055000000000E-01      7.376953000000000E+01
4260000000.000000      5.372314000000000E-01     -4.840820000000000E+01      1.813812000000000E-01      4.697851000000000E+01
4280000000.000000      5.349731000000000E-01     -4.888476000000000E+01      1.830673000000000E-01      1.969238000000000E+01
4300000000.000000      5.377502000000000E-01     -4.940624000000000E+01      1.827011000000000E-01     -8.947266000000000E+00
4320000000.000000      5.418091000000000E-01     -5.023828000000000E+01      1.826706000000000E-01     -3.788086000000000E+01
4340000000.000000      5.451355000000000E-01     -5.162109000000000E+01      1.830673000000000E-01     -6.726563000000000E+01
4360000000.000000      5.449829000000000E-01     -5.314062000000000E+01      1.827545000000000E-01     -9.743359000000000E+01
4380000000.000000      5.417786000000000E-01     -5.428515000000000E+01      1.803970000000000E-01     -1.276406000000000E+02
4400000000.000000      5.395203000000000E-01     -5.532421000000000E+01      1.788101000000000E-01     -1.562891000000000E+02
4420000000.000000      5.397949000000000E-01     -5.614452000000000E+01      1.829910000000000E-01      1.747734000000000E+02
4440000000.000000      5.455627000000000E-01     -5.704102000000000E+01      1.850967000000000E-01      1.448750000000000E+02
4460000000.000000      5.470886000000000E-01     -5.837891000000000E+01      1.847992000000000E-01      1.156914000000000E+02
4480000000.000000      5.449219000000000E-01     -6.007421000000000E+01      1.835403000000000E-01      8.677343000000000E+01
4500000000.000000      5.398560000000000E-01     -6.122265000000000E+01      1.804886000000000E-01      5.892187000000000E+01
4520000000.000000      5.336914000000000E-01     -6.239843000000000E+01      1.785812000000000E-01      3.086816000000000E+01
4540000000.000000      5.320740000000000E-01     -6.287499000000000E+01      1.736069000000000E-01      3.032227000000000E+00
4560000000.000000      5.337830000000000E-01     -6.365039000000000E+01      1.733932000000000E-01     -2.436426000000000E+01
4580000000.000000      5.403137000000000E-01     -6.421875000000000E+01      1.746674000000000E-01     -5.445507000000000E+01
4600000000.000000      5.446777000000000E-01     -6.552343000000000E+01      1.720886000000000E-01     -8.460938000000000E+01
4620000000.000000      5.463562000000000E-01     -6.674609000000000E+01      1.718521000000000E-01     -1.159062000000000E+02
4640000000.000000      5.490417000000000E-01     -6.791797000000000E+01      1.682129000000000E-01     -1.474922000000000E+02
4660000000.000000      5.498657000000000E-01     -6.894921000000000E+01      1.685791000000000E-01     -1.764609000000000E+02
4680000000.000000      5.548706000000000E-01     -7.002734000000000E+01      1.741409000000000E-01      1.528906000000000E+02
4700000000.000000      5.572205000000000E-01     -7.130077000000000E+01      1.759720000000000E-01      1.230312000000000E+02
4720000000.000000      5.609131000000000E-01     -7.261328000000000E+01      1.799850000000000E-01      9.421484000000000E+01
4740000000.000000      5.631409000000000E-01     -7.436328000000000E+01      1.830444000000000E-01      6.522655000000000E+01
4760000000.000000      5.663147000000000E-01     -7.659374000000000E+01      1.824722000000000E-01      3.735352000000000E+01
4780000000.000000      5.639954000000000E-01     -7.858203000000000E+01      1.796112000000000E-01      9.367188000000000E+00
4800000000.000000      5.630188000000000E-01     -8.035936000000000E+01      1.736679000000000E-01     -1.823535000000000E+01
4820000000.000000      5.558167000000000E-01     -8.234766000000000E+01      1.639023000000000E-01     -4.587110000000000E+01
4840000000.000000      5.416870000000000E-01     -8.427343000000000E+01      1.536713000000000E-01     -7.224999000000000E+01
4860000000.000000      5.301819000000000E-01     -8.571484000000000E+01      1.465912000000000E-01     -1.005508000000000E+02
4880000000.000000      5.124207000000000E-01     -8.627344000000000E+01      1.326141000000000E-01     -1.299297000000000E+02
4900000000.000000      5.014954000000000E-01     -8.574999000000000E+01      1.206627000000000E-01     -1.552187000000000E+02
4920000000.000000      4.973450000000000E-01     -8.507421000000000E+01      1.246185000000000E-01     -1.798437000000000E+02
4940000000.000000      5.038147000000000E-01     -8.411327000000000E+01      1.362991000000000E-01      1.493750000000000E+02
4960000000.000000      5.211182000000000E-01     -8.400782000000000E+01      1.445084000000000E-01      1.173242000000000E+02
4980000000.000000      5.393372000000000E-01     -8.538671000000000E+01      1.540375000000000E-01      8.692577000000000E+01
5000000000.000000      5.513611000000000E-01     -8.755859000000000E+01      1.639862000000000E-01      5.620703000000000E+01
5020000000.000000      5.529785000000000E-01     -9.008984000000000E+01      1.702118000000000E-01      2.640234000000000E+01
5040000000.000000      5.464783000000000E-01     -9.218359000000000E+01      1.712723000000000E-01     -2.774048000000000E-01
5060000000.000000      5.382385000000000E-01     -9.344921000000000E+01      1.766052000000000E-01     -2.541894000000000E+01
5080000000.000000      5.317383000000000E-01     -9.447657000000000E+01      1.830902000000000E-01     -5.218554000000000E+01
5100000000.000000      5.302734000000000E-01     -9.519140000000000E+01      1.819992000000000E-01     -7.898438000000000E+01
5120000000.000000      5.293579000000000E-01     -9.602343000000000E+01      1.809082000000000E-01     -1.056133000000000E+02
5140000000.000000      5.329285000000000E-01     -9.694921000000000E+01      1.768265000000000E-01     -1.337422000000000E+02
5160000000.000000      5.342407000000000E-01     -9.796484000000000E+01      1.710663000000000E-01     -1.623125000000000E+02
5180000000.000000      5.392151000000000E-01     -9.878906000000000E+01      1.664734000000000E-01      1.675547000000000E+02
5200000000.000000      5.448914000000000E-01     -9.996483000000000E+01      1.623840000000000E-01      1.367891000000000E+02
5220000000.000000      5.488281000000000E-01     -1.014258000000000E+02      1.621857000000000E-01      1.059531000000000E+02
5240000000.000000      5.504761000000000E-01     -1.027891000000000E+02      1.643066000000000E-01      7.438671000000000E+01
5260000000.000000      5.500183000000000E-01     -1.043516000000000E+02      1.684494000000000E-01      4.321485000000000E+01
5280000000.000000      5.473022000000000E-01     -1.056914000000000E+02      1.724930000000000E-01      1.306641000000000E+01
5300000000.000000      5.453796000000000E-01     -1.069922000000000E+02      1.772156000000000E-01     -1.428369000000000E+01
5320000000.000000      5.446167000000000E-01     -1.080742000000000E+02      1.857529000000000E-01     -4.087695000000000E+01
5340000000.000000      5.437622000000000E-01     -1.092344000000000E+02      1.905212000000000E-01     -6.831249000000000E+01
5360000000.000000      5.438843000000000E-01     -1.105351000000000E+02      1.913528000000000E-01     -9.401562000000000E+01
5380000000.000000      5.448608000000000E-01     -1.115586000000000E+02      1.906052000000000E-01     -1.206250000000000E+02
5400000000.000000      5.456238000000000E-01     -1.127070000000000E+02      1.839905000000000E-01     -1.467813000000000E+02
5420000000.000000      5.471497000000000E-01     -1.135273000000000E+02      1.790009000000000E-01     -1.733594000000000E+02
5440000000.000000      5.511780000000000E-01     -1.141484000000000E+02      1.731644000000000E-01      1.575703000000000E+02
5460000000.000000      5.571594000000000E-01     -1.153477000000000E+02      1.625748000000000E-01      1.284375000000000E+02
5480000000.000000      5.635071000000000E-01     -1.167500000000000E+02      1.584244000000000E-01      9.742968000000000E+01
5500000000.000000      5.662231000000000E-01     -1.187656000000000E+02      1.554718000000000E-01      6.516406000000000E+01
5520000000.000000      5.637207000000000E-01     -1.207500000000000E+02      1.552658000000000E-01      3.253515000000000E+01
5540000000.000000      5.601196000000000E-01     -1.225898000000000E+02      1.563721000000000E-01      8.308411000000000E-01
5560000000.000000      5.541382000000000E-01     -1.243789000000000E+02      1.612244000000000E-01     -2.764648000000000E+01
5580000000.000000      5.476074000000000E-01     -1.258906000000000E+02      1.715012000000000E-01     -5.646874000000000E+01
5600000000.000000      5.436401000000000E-01     -1.270508000000000E+02      1.773758000000000E-01     -8.380859000000000E+01
5620000000.000000      5.401306000000000E-01     -1.279648000000000E+02      1.827927000000000E-01     -1.096836000000000E+02
5640000000.000000      5.344238000000000E-01     -1.287266000000000E+02      1.857300000000000E-01     -1.358828000000000E+02
5660000000.000000      5.339966000000000E-01     -1.292891000000000E+02      1.833420000000000E-01     -1.608906000000000E+02
5680000000.000000      5.339966000000000E-01     -1.296562000000000E+02      1.796875000000000E-01      1.734062000000000E+02
5700000000.000000      5.408325000000000E-01     -1.302891000000000E+02      1.716614000000000E-01      1.470703000000000E+02
5720000000.000000      5.487366000000000E-01     -1.313594000000000E+02      1.640930000000000E-01      1.200039000000000E+02
5740000000.000000      5.565491000000000E-01     -1.334609000000000E+02      1.555557000000000E-01      8.989452000000000E+01
5760000000.000000      5.574341000000000E-01     -1.358750000000000E+02      1.449203000000000E-01      5.750781000000000E+01
5780000000.000000      5.511169000000000E-01     -1.381797000000000E+02      1.350632000000000E-01      2.414453000000000E+01
5800000000.000000      5.408630000000000E-01     -1.397969000000000E+02      1.309662000000000E-01     -7.797607000000000E+00
5820000000.000000      5.328064000000000E-01     -1.406094000000000E+02      1.375809000000000E-01     -3.972851000000000E+01
5840000000.000000      5.314026000000000E-01     -1.414063000000000E+02      1.478577000000000E-01     -7.217968000000000E+01
5860000000.000000      5.346069000000000E-01     -1.423203000000000E+02      1.567154000000000E-01     -1.019062000000000E+02
5880000000.000000      5.380859000000000E-01     -1.434297000000000E+02      1.652527000000000E-01     -1.301875000000000E+02
5900000000.000000      5.426636000000000E-01     -1.452109000000000E+02      1.718216000000000E-01     -1.568047000000000E+02
5920000000.000000      5.415344000000000E-01     -1.469609000000000E+02      1.754227000000000E-01      1.772109000000000E+02
5940000000.000000      5.386658000000000E-01     -1.483516000000000E+02      1.720428000000000E-01      1.511016000000000E+02
5960000000.000000      5.354309000000000E-01     -1.498125000000000E+02      1.655884000000000E-01      1.268828000000000E+02
5980000000.000000      5.310974000000000E-01     -1.513750000000000E+02      1.595535000000000E-01      1.013672000000000E+02
6000000000.000000      5.250244000000000E-01     -1.528984000000000E+02      1.492386000000000E-01      7.349218000000000E+01
6020000000.000000      5.140991000000000E-01     -1.547031000000000E+02      1.354065000000000E-01      4.453125000000000E+01
6040000000.000000      5.006714000000000E-01     -1.559141000000000E+02      1.198044000000000E-01      1.461572000000000E+01
6060000000.000000      4.934998000000000E-01     -1.566172000000000E+02      1.108551000000000E-01     -1.518896000000000E+01
6080000000.000000      4.860382000000000E-01     -1.568750000000000E+02      1.132393000000000E-01     -4.790625000000000E+01
