! Network Analyzer HP8722D
! Hewlett-Packard
! Data name: Linha com CNT
! Saver's name: Rodrigo Anjos
! Comments: Teste de deteccao de acetona 0-100ppm a partir de cilindro
! Time and date: 10/9/2025 17:06
!              Frequency                     S11                                                   S21                                                   S12                                                   S22
# HZ  S  MA R 50
3000000000.000000      3.946533000000000E-01      1.751855000000000E+01      2.698517000000000E-01      3.193262000000000E+01
3020000000.000000      4.040222000000000E-01      1.705469000000000E+01      2.737274000000000E-01      2.491089000000000E+00
3040000000.000000      4.128265000000000E-01      1.569775000000000E+01      2.739258000000000E-01     -2.657812000000000E+01
3060000000.000000      4.165192000000000E-01      1.350586000000000E+01      2.732544000000000E-01     -5.582812000000000E+01
3080000000.000000      4.128113000000000E-01      1.147656000000000E+01      2.695770000000000E-01     -8.466406000000000E+01
3100000000.000000      4.089203000000000E-01      1.005078000000000E+01      2.677155000000000E-01     -1.126367000000000E+02
3120000000.000000      4.062042000000000E-01      9.200684000000000E+00      2.675171000000000E-01     -1.411641000000000E+02
3140000000.000000      4.064026000000000E-01      8.407227000000000E+00      2.634888000000000E-01     -1.698281000000000E+02
3160000000.000000      4.059753000000000E-01      7.183594000000000E+00      2.593994000000000E-01      1.615078000000000E+02
3180000000.000000      3.992920000000000E-01      5.940674000000000E+00      2.534790000000000E-01      1.333359000000000E+02
3200000000.000000      3.872070000000000E-01      5.447754000000000E+00      2.498322000000000E-01      1.048555000000000E+02
3220000000.000000      3.742676000000000E-01      6.215332000000000E+00      2.395630000000000E-01      7.612109000000000E+01
3240000000.000000      3.691101000000000E-01      8.029297000000000E+00      2.321014000000000E-01      5.054101000000000E+01
3260000000.000000      3.748779000000000E-01      1.010840000000000E+01      2.410126000000000E-01      2.461328000000000E+01
3280000000.000000      3.909760000000000E-01      1.129102000000000E+01      2.494659000000000E-01     -4.874023000000000E+00
3300000000.000000      4.140167000000000E-01      1.066602000000000E+01      2.510681000000000E-01     -3.351367000000000E+01
3320000000.000000      4.346008000000000E-01      8.613281000000000E+00      2.590027000000000E-01     -6.222656000000000E+01
3340000000.000000      4.471741000000000E-01      5.870605000000000E+00      2.640381000000000E-01     -9.180468000000000E+01
3360000000.000000      4.509735000000000E-01      3.028076000000000E+00      2.666016000000000E-01     -1.214258000000000E+02
3380000000.000000      4.483643000000000E-01      9.736633000000000E-01      2.662811000000000E-01     -1.505859000000000E+02
3400000000.000000      4.425659000000000E-01     -6.921387000000000E-01      2.661285000000000E-01     -1.794297000000000E+02
3420000000.000000      4.382172000000000E-01     -1.848450000000000E+00      2.644806000000000E-01      1.514062000000000E+02
3440000000.000000      4.326935000000000E-01     -3.099609000000000E+00      2.599792000000000E-01      1.231406000000000E+02
3460000000.000000      4.282379000000000E-01     -4.172119000000000E+00      2.605591000000000E-01      9.499218000000000E+01
3480000000.000000      4.254913000000000E-01     -5.114258000000000E+00      2.579498000000000E-01      6.581249000000000E+01
3500000000.000000      4.233093000000000E-01     -5.853027000000000E+00      2.555237000000000E-01      3.763281000000000E+01
3520000000.000000      4.220123000000000E-01     -6.810303000000000E+00      2.552643000000000E-01      8.812012000000000E+00
3540000000.000000      4.217224000000000E-01     -7.645264000000000E+00      2.510681000000000E-01     -1.969531000000000E+01
3560000000.000000      4.194794000000000E-01     -8.153320000000000E+00      2.523499000000000E-01     -4.786718000000000E+01
3580000000.000000      4.167938000000000E-01     -8.570801000000000E+00      2.520905000000000E-01     -7.667969000000000E+01
3600000000.000000      4.160614000000000E-01     -8.812500000000000E+00      2.517242000000000E-01     -1.041719000000000E+02
3620000000.000000      4.189911000000000E-01     -9.242676000000000E+00      2.560272000000000E-01     -1.325312000000000E+02
3640000000.000000      4.229889000000000E-01     -1.011719000000000E+01      2.580261000000000E-01     -1.609766000000000E+02
3660000000.000000      4.255981000000000E-01     -1.171582000000000E+01      2.588501000000000E-01      1.706953000000000E+02
3680000000.000000      4.253845000000000E-01     -1.336230000000000E+01      2.571716000000000E-01      1.423203000000000E+02
3700000000.000000      4.201508000000000E-01     -1.470264000000000E+01      2.553864000000000E-01      1.147539000000000E+02
3720000000.000000      4.144135000000000E-01     -1.528760000000000E+01      2.572784000000000E-01      8.649218000000000E+01
3740000000.000000      4.138184000000000E-01     -1.516699000000000E+01      2.521515000000000E-01      5.810937000000000E+01
3760000000.000000      4.182281000000000E-01     -1.503662000000000E+01      2.510223000000000E-01      3.090527000000000E+01
3780000000.000000      4.243774000000000E-01     -1.596045000000000E+01      2.532654000000000E-01      2.478760000000000E+00
3800000000.000000      4.291382000000000E-01     -1.756348000000000E+01      2.518311000000000E-01     -2.668457000000000E+01
3820000000.000000      4.268799000000000E-01     -1.964648000000000E+01      2.498093000000000E-01     -5.528710000000000E+01
3840000000.000000      4.208221000000000E-01     -2.100195000000000E+01      2.494049000000000E-01     -8.387499000000000E+01
3860000000.000000      4.154205000000000E-01     -2.161719000000000E+01      2.501221000000000E-01     -1.129375000000000E+02
3880000000.000000      4.147797000000000E-01     -2.168164000000000E+01      2.470627000000000E-01     -1.419609000000000E+02
3900000000.000000      4.211578000000000E-01     -2.218848000000000E+01      2.453918000000000E-01     -1.696016000000000E+02
3920000000.000000      4.267578000000000E-01     -2.353320000000000E+01      2.483902000000000E-01      1.621094000000000E+02
3940000000.000000      4.256897000000000E-01     -2.537890000000000E+01      2.479248000000000E-01      1.336016000000000E+02
3960000000.000000      4.187317000000000E-01     -2.682617000000000E+01      2.487411000000000E-01      1.051758000000000E+02
3980000000.000000      4.086456000000000E-01     -2.720800000000000E+01      2.422104000000000E-01      7.651953000000000E+01
4000000000.000000      4.045715000000000E-01     -2.668945000000000E+01      2.381210000000000E-01      5.075000000000000E+01
4020000000.000000      4.109039000000000E-01     -2.622754000000000E+01      2.471008000000000E-01      2.294336000000000E+01
4040000000.000000      4.269714000000000E-01     -2.672656000000000E+01      2.470245000000000E-01     -7.369141000000000E+00
4060000000.000000      4.424591000000000E-01     -2.898828000000000E+01      2.419739000000000E-01     -3.626367000000000E+01
4080000000.000000      4.480896000000000E-01     -3.254297000000000E+01      2.424545000000000E-01     -6.485546000000000E+01
4100000000.000000      4.393616000000000E-01     -3.569726000000000E+01      2.430420000000000E-01     -9.402344000000000E+01
4120000000.000000      4.238892000000000E-01     -3.781836000000000E+01      2.403717000000000E-01     -1.242812000000000E+02
4140000000.000000      4.093323000000000E-01     -3.808203000000000E+01      2.323837000000000E-01     -1.527578000000000E+02
4160000000.000000      4.038086000000000E-01     -3.811523000000000E+01      2.341843000000000E-01     -1.793437000000000E+02
4180000000.000000      4.036255000000000E-01     -3.824219000000000E+01      2.392578000000000E-01      1.514609000000000E+02
4200000000.000000      4.043732000000000E-01     -3.917383000000000E+01      2.367630000000000E-01      1.225273000000000E+02
4220000000.000000      4.035034000000000E-01     -4.017968000000000E+01      2.376251000000000E-01      9.439844000000000E+01
4240000000.000000      3.970184000000000E-01     -4.096093000000000E+01      2.331543000000000E-01      6.543359000000000E+01
4260000000.000000      3.947906000000000E-01     -4.083789000000000E+01      2.281113000000000E-01      3.812500000000000E+01
4280000000.000000      3.953857000000000E-01     -4.039258000000000E+01      2.297668000000000E-01      1.054541000000000E+01
4300000000.000000      4.021301000000000E-01     -4.062109000000000E+01      2.287521000000000E-01     -1.824316000000000E+01
4320000000.000000      4.111938000000000E-01     -4.172656000000000E+01      2.279510000000000E-01     -4.680664000000000E+01
4340000000.000000      4.148712000000000E-01     -4.367773000000000E+01      2.284927000000000E-01     -7.636719000000000E+01
4360000000.000000      4.143524000000000E-01     -4.554492000000000E+01      2.290115000000000E-01     -1.061016000000000E+02
4380000000.000000      4.094849000000000E-01     -4.658399000000000E+01      2.263641000000000E-01     -1.360781000000000E+02
4400000000.000000      4.088745000000000E-01     -4.712891000000000E+01      2.244034000000000E-01     -1.647422000000000E+02
4420000000.000000      4.123230000000000E-01     -4.767968000000000E+01      2.284164000000000E-01      1.663047000000000E+02
4440000000.000000      4.174652000000000E-01     -4.890429000000000E+01      2.295151000000000E-01      1.364063000000000E+02
4460000000.000000      4.207001000000000E-01     -5.091210000000000E+01      2.280579000000000E-01      1.071836000000000E+02
4480000000.000000      4.129028000000000E-01     -5.258984000000000E+01      2.258835000000000E-01      7.841015000000000E+01
4500000000.000000      4.038391000000000E-01     -5.386913000000000E+01      2.230453000000000E-01      5.013281000000000E+01
4520000000.000000      3.969421000000000E-01     -5.370312000000000E+01      2.198410000000000E-01      2.168555000000000E+01
4540000000.000000      3.988953000000000E-01     -5.349804000000000E+01      2.139893000000000E-01     -6.711426000000000E+00
4560000000.000000      4.076691000000000E-01     -5.363671000000000E+01      2.131958000000000E-01     -3.436132000000000E+01
4580000000.000000      4.195557000000000E-01     -5.490429000000000E+01      2.148972000000000E-01     -6.428124000000000E+01
4600000000.000000      4.264679000000000E-01     -5.657617000000000E+01      2.127609000000000E-01     -9.457031000000000E+01
4620000000.000000      4.293060000000000E-01     -5.837109000000000E+01      2.123642000000000E-01     -1.252266000000000E+02
4640000000.000000      4.306335000000000E-01     -5.989062000000000E+01      2.089920000000000E-01     -1.561875000000000E+02
4660000000.000000      4.335632000000000E-01     -6.094336000000000E+01      2.096558000000000E-01      1.749453000000000E+02
4680000000.000000      4.375153000000000E-01     -6.231640000000000E+01      2.151718000000000E-01      1.449687000000000E+02
4700000000.000000      4.421082000000000E-01     -6.417187000000000E+01      2.161942000000000E-01      1.150898000000000E+02
4720000000.000000      4.452515000000000E-01     -6.647265000000000E+01      2.184601000000000E-01      8.692968000000000E+01
4740000000.000000      4.452667000000000E-01     -6.899219000000000E+01      2.218781000000000E-01      5.802539000000000E+01
4760000000.000000      4.425049000000000E-01     -7.139062000000000E+01      2.210846000000000E-01      2.989648000000000E+01
4780000000.000000      4.372559000000000E-01     -7.380077000000000E+01      2.170258000000000E-01      1.708374000000000E+00
4800000000.000000      4.293365000000000E-01     -7.635937000000000E+01      2.104111000000000E-01     -2.637695000000000E+01
4820000000.000000      4.159698000000000E-01     -7.883203000000000E+01      2.001495000000000E-01     -5.456836000000000E+01
4840000000.000000      3.936920000000000E-01     -8.041796000000000E+01      1.901932000000000E-01     -8.235155000000000E+01
4860000000.000000      3.716278000000000E-01     -8.044922000000000E+01      1.827011000000000E-01     -1.113672000000000E+02
4880000000.000000      3.531952000000000E-01     -7.861718000000000E+01      1.676788000000000E-01     -1.415469000000000E+02
4900000000.000000      3.471985000000000E-01     -7.532031000000000E+01      1.532211000000000E-01     -1.673672000000000E+02
4920000000.000000      3.586884000000000E-01     -7.231640000000000E+01      1.580353000000000E-01      1.677813000000000E+02
4940000000.000000      3.823242000000000E-01     -7.093750000000000E+01      1.714630000000000E-01      1.380547000000000E+02
4960000000.000000      4.124298000000000E-01     -7.208593000000000E+01      1.798630000000000E-01      1.068789000000000E+02
4980000000.000000      4.356995000000000E-01     -7.546484000000000E+01      1.896362000000000E-01      7.769921000000000E+01
5000000000.000000      4.427032000000000E-01     -7.959765000000000E+01      2.009430000000000E-01      4.826953000000000E+01
5020000000.000000      4.352264000000000E-01     -8.316406000000000E+01      2.067566000000000E-01      1.899805000000000E+01
5040000000.000000      4.211426000000000E-01     -8.532421000000000E+01      2.084045000000000E-01     -7.910156000000000E+00
5060000000.000000      4.097290000000000E-01     -8.605469000000000E+01      2.139206000000000E-01     -3.366796000000000E+01
5080000000.000000      4.037170000000000E-01     -8.639452000000000E+01      2.190247000000000E-01     -6.114452000000000E+01
5100000000.000000      4.053040000000000E-01     -8.660936000000000E+01      2.165756000000000E-01     -8.837891000000000E+01
5120000000.000000      4.077606000000000E-01     -8.747265000000000E+01      2.144089000000000E-01     -1.153945000000000E+02
5140000000.000000      4.111481000000000E-01     -8.831640000000000E+01      2.108765000000000E-01     -1.439687000000000E+02
5160000000.000000      4.151917000000000E-01     -8.944139000000000E+01      2.054291000000000E-01     -1.730078000000000E+02
5180000000.000000      4.204407000000000E-01     -9.048437000000000E+01      2.018204000000000E-01      1.568516000000000E+02
5200000000.000000      4.265442000000000E-01     -9.186718000000000E+01      1.982574000000000E-01      1.264453000000000E+02
5220000000.000000      4.306641000000000E-01     -9.362499000000000E+01      1.992722000000000E-01      9.592968000000000E+01
5240000000.000000      4.318085000000000E-01     -9.535547000000000E+01      2.025070000000000E-01      6.513672000000000E+01
5260000000.000000      4.298706000000000E-01     -9.704296000000000E+01      2.072372000000000E-01      3.482226000000000E+01
5280000000.000000      4.254150000000000E-01     -9.825781000000000E+01      2.117615000000000E-01      5.212891000000000E+00
5300000000.000000      4.230957000000000E-01     -9.931250000000000E+01      2.151413000000000E-01     -2.226855000000000E+01
5320000000.000000      4.234772000000000E-01     -1.002891000000000E+02      2.224655000000000E-01     -4.898046000000000E+01
5340000000.000000      4.251251000000000E-01     -1.016133000000000E+02      2.260742000000000E-01     -7.658984000000000E+01
5360000000.000000      4.251556000000000E-01     -1.030508000000000E+02      2.253113000000000E-01     -1.029961000000000E+02
5380000000.000000      4.252319000000000E-01     -1.043320000000000E+02      2.231064000000000E-01     -1.297500000000000E+02
5400000000.000000      4.248199000000000E-01     -1.054648000000000E+02      2.169342000000000E-01     -1.565703000000000E+02
5420000000.000000      4.285126000000000E-01     -1.059805000000000E+02      2.112427000000000E-01      1.764375000000000E+02
5440000000.000000      4.352264000000000E-01     -1.066211000000000E+02      2.049484000000000E-01      1.471094000000000E+02
5460000000.000000      4.429626000000000E-01     -1.079609000000000E+02      1.958466000000000E-01      1.175859000000000E+02
5480000000.000000      4.492188000000000E-01     -1.099648000000000E+02      1.924438000000000E-01      8.709375000000000E+01
5500000000.000000      4.489746000000000E-01     -1.125156000000000E+02      1.924057000000000E-01      5.565234000000000E+01
5520000000.000000      4.434357000000000E-01     -1.149101000000000E+02      1.932983000000000E-01      2.392188000000000E+01
5540000000.000000      4.358215000000000E-01     -1.169023000000000E+02      1.947937000000000E-01     -6.812988000000000E+00
5560000000.000000      4.278107000000000E-01     -1.185508000000000E+02      1.994705000000000E-01     -3.535156000000000E+01
5580000000.000000      4.204102000000000E-01     -1.198398000000000E+02      2.083740000000000E-01     -6.368750000000000E+01
5600000000.000000      4.147034000000000E-01     -1.207734000000000E+02      2.128296000000000E-01     -9.122656000000000E+01
5620000000.000000      4.102631000000000E-01     -1.211211000000000E+02      2.164612000000000E-01     -1.177656000000000E+02
5640000000.000000      4.072266000000000E-01     -1.213945000000000E+02      2.173004000000000E-01     -1.443672000000000E+02
5660000000.000000      4.068298000000000E-01     -1.209609000000000E+02      2.129822000000000E-01     -1.702109000000000E+02
5680000000.000000      4.135132000000000E-01     -1.209258000000000E+02      2.081299000000000E-01      1.632813000000000E+02
5700000000.000000      4.259186000000000E-01     -1.218867000000000E+02      1.991196000000000E-01      1.361328000000000E+02
5720000000.000000      4.383240000000000E-01     -1.235898000000000E+02      1.907425000000000E-01      1.085078000000000E+02
5740000000.000000      4.464111000000000E-01     -1.266406000000000E+02      1.844482000000000E-01      7.851563000000000E+01
5760000000.000000      4.441376000000000E-01     -1.300781000000000E+02      1.764374000000000E-01      4.610742000000000E+01
5780000000.000000      4.327545000000000E-01     -1.326953000000000E+02      1.699753000000000E-01      1.355420000000000E+01
5800000000.000000      4.194641000000000E-01     -1.340391000000000E+02      1.678085000000000E-01     -1.753222000000000E+01
5820000000.000000      4.124756000000000E-01     -1.343672000000000E+02      1.747742000000000E-01     -4.841406000000000E+01
5840000000.000000      4.139099000000000E-01     -1.350000000000000E+02      1.847153000000000E-01     -7.977734000000000E+01
5860000000.000000      4.196777000000000E-01     -1.359922000000000E+02      1.914291000000000E-01     -1.088008000000000E+02
5880000000.000000      4.245758000000000E-01     -1.382266000000000E+02      1.977997000000000E-01     -1.365781000000000E+02
5900000000.000000      4.239044000000000E-01     -1.404531000000000E+02      2.031174000000000E-01     -1.633125000000000E+02
5920000000.000000      4.189148000000000E-01     -1.422969000000000E+02      2.049637000000000E-01      1.701250000000000E+02
5940000000.000000      4.138336000000000E-01     -1.435469000000000E+02      1.998291000000000E-01      1.432031000000000E+02
5960000000.000000      4.097443000000000E-01     -1.447969000000000E+02      1.905670000000000E-01      1.177969000000000E+02
5980000000.000000      4.055023000000000E-01     -1.463047000000000E+02      1.841888000000000E-01      9.112890000000000E+01
6000000000.000000      3.963318000000000E-01     -1.481172000000000E+02      1.739731000000000E-01      6.209570000000000E+01
6020000000.000000      3.800049000000000E-01     -1.498125000000000E+02      1.610184000000000E-01      3.179688000000000E+01
6040000000.000000      3.650818000000000E-01     -1.505625000000000E+02      1.465225000000000E-01      1.056030000000000E+00
6060000000.000000      3.551636000000000E-01     -1.501328000000000E+02      1.395798000000000E-01     -2.888476000000000E+01
6080000000.000000      3.526611000000000E-01     -1.490781000000000E+02      1.454163000000000E-01     -6.044726000000000E+01
