! Network Analyzer HP8722D
! Hewlett-Packard
! Data name: Linha com CNT
! Saver's name: Rodrigo Anjos
! Comments: Teste de deteccao de acetona 0-100ppm a partir de cilindro
! Time and date: 10/9/2025 18:45
!              Frequency                     S11                                                   S21                                                   S12                                                   S22
# HZ  S  MA R 50
3000000000.000000      8.200836000000000E-02      9.106640000000000E+01      4.549713000000000E-01      2.492773000000000E+01
3020000000.000000      9.646606000000000E-02      7.633984000000000E+01      4.560699000000000E-01     -3.879639000000000E+00
3040000000.000000      9.589005000000000E-02      6.053320000000000E+01      4.553986000000000E-01     -3.282617000000000E+01
3060000000.000000      8.201599000000000E-02      4.636914000000000E+01      4.516296000000000E-01     -6.124218000000000E+01
3080000000.000000      6.185532000000000E-02      3.747265000000000E+01      4.538422000000000E-01     -9.003124000000000E+01
3100000000.000000      4.442024000000000E-02      4.121094000000000E+01      4.514771000000000E-01     -1.183594000000000E+02
3120000000.000000      4.014397000000000E-02      5.377734000000000E+01      4.486847000000000E-01     -1.468750000000000E+02
3140000000.000000      4.003525000000000E-02      5.853516000000000E+01      4.460297000000000E-01     -1.754219000000000E+02
3160000000.000000      3.111362000000000E-02      6.106250000000000E+01      4.423218000000000E-01      1.562031000000000E+02
3180000000.000000      2.186203000000000E-02      1.081172000000000E+02      4.413452000000000E-01      1.275234000000000E+02
3200000000.000000      5.444336000000000E-02      1.424453000000000E+02      4.346008000000000E-01      9.801952000000000E+01
3220000000.000000      1.054039000000000E-01      1.360391000000000E+02      4.231873000000000E-01      6.875390000000000E+01
3240000000.000000      1.561813000000000E-01      1.214766000000000E+02      4.115906000000000E-01      4.128320000000000E+01
3260000000.000000      1.971588000000000E-01      1.052187000000000E+02      4.147949000000000E-01      1.370361000000000E+01
3280000000.000000      2.235870000000000E-01      8.823046000000000E+01      4.200897000000000E-01     -1.548828000000000E+01
3300000000.000000      2.327194000000000E-01      7.192577000000000E+01      4.143219000000000E-01     -4.390429000000000E+01
3320000000.000000      2.268448000000000E-01      5.696875000000000E+01      4.169006000000000E-01     -7.169922000000000E+01
3340000000.000000      2.101440000000000E-01      4.453906000000000E+01      4.232025000000000E-01     -1.005312000000000E+02
3360000000.000000      1.865387000000000E-01      3.546289000000000E+01      4.237213000000000E-01     -1.288203000000000E+02
3380000000.000000      1.628265000000000E-01      3.070801000000000E+01      4.281311000000000E-01     -1.570781000000000E+02
3400000000.000000      1.429443000000000E-01      2.866601000000000E+01      4.302521000000000E-01      1.741875000000000E+02
3420000000.000000      1.289825000000000E-01      2.879980000000000E+01      4.320831000000000E-01      1.456016000000000E+02
3440000000.000000      1.163406000000000E-01      2.908398000000000E+01      4.302673000000000E-01      1.167344000000000E+02
3460000000.000000      1.057167000000000E-01      3.082031000000000E+01      4.269562000000000E-01      8.827343000000000E+01
3480000000.000000      9.897614000000000E-02      3.377148000000000E+01      4.294586000000000E-01      5.956836000000000E+01
3500000000.000000      9.570313000000000E-02      3.703711000000000E+01      4.240265000000000E-01      3.042089000000000E+01
3520000000.000000      9.486771000000000E-02      4.000390000000000E+01      4.223328000000000E-01      2.379883000000000E+00
3540000000.000000      9.511566000000000E-02      4.325391000000000E+01      4.251251000000000E-01     -2.605078000000000E+01
3560000000.000000      9.745026000000000E-02      4.881445000000000E+01      4.258881000000000E-01     -5.519726000000000E+01
3580000000.000000      1.061859000000000E-01      5.359375000000000E+01      4.253082000000000E-01     -8.404688000000000E+01
3600000000.000000      1.209984000000000E-01      5.451366000000000E+01      4.243011000000000E-01     -1.123125000000000E+02
3620000000.000000      1.346130000000000E-01      5.095117000000000E+01      4.258423000000000E-01     -1.403984000000000E+02
3640000000.000000      1.394424000000000E-01      4.477735000000000E+01      4.261169000000000E-01     -1.689062000000000E+02
3660000000.000000      1.334152000000000E-01      3.806641000000000E+01      4.246979000000000E-01      1.633828000000000E+02
3680000000.000000      1.200256000000000E-01      3.506250000000000E+01      4.282990000000000E-01      1.358125000000000E+02
3700000000.000000      1.076851000000000E-01      3.881836000000000E+01      4.295654000000000E-01      1.071406000000000E+02
3720000000.000000      1.102448000000000E-01      4.725390000000000E+01      4.274902000000000E-01      7.862499000000000E+01
3740000000.000000      1.289749000000000E-01      5.020312000000000E+01      4.229126000000000E-01      5.010156000000000E+01
3760000000.000000      1.471252000000000E-01      4.636328000000000E+01      4.161987000000000E-01      2.230273000000000E+01
3780000000.000000      1.538620000000000E-01      3.880859000000000E+01      4.152069000000000E-01     -5.441162000000000E+00
3800000000.000000      1.453705000000000E-01      3.172852000000000E+01      4.159088000000000E-01     -3.398242000000000E+01
3820000000.000000      1.255951000000000E-01      2.919434000000000E+01      4.167328000000000E-01     -6.286327000000000E+01
3840000000.000000      1.120415000000000E-01      3.480078000000000E+01      4.161377000000000E-01     -9.174999000000000E+01
3860000000.000000      1.183281000000000E-01      4.260351000000000E+01      4.146271000000000E-01     -1.206406000000000E+02
3880000000.000000      1.372452000000000E-01      4.345312000000000E+01      4.120026000000000E-01     -1.498516000000000E+02
3900000000.000000      1.514282000000000E-01      3.754492000000000E+01      4.046173000000000E-01     -1.781797000000000E+02
3920000000.000000      1.484604000000000E-01      2.991504000000000E+01      4.064026000000000E-01      1.545469000000000E+02
3940000000.000000      1.303024000000000E-01      2.651953000000000E+01      4.144897000000000E-01      1.260195000000000E+02
3960000000.000000      1.129532000000000E-01      3.299023000000000E+01      4.121552000000000E-01      9.670311000000000E+01
3980000000.000000      1.204147000000000E-01      4.598046000000000E+01      4.058380000000000E-01      6.814453000000000E+01
4000000000.000000      1.514282000000000E-01      4.873241000000000E+01      3.991547000000000E-01      4.116211000000000E+01
4020000000.000000      1.833878000000000E-01      4.122070000000000E+01      4.061279000000000E-01      1.319580000000000E+01
4040000000.000000      2.010727000000000E-01      2.873242000000000E+01      4.064636000000000E-01     -1.652832000000000E+01
4060000000.000000      1.936798000000000E-01      1.514453000000000E+01      3.909302000000000E-01     -4.516602000000000E+01
4080000000.000000      1.638412000000000E-01      2.142334000000000E+00      3.899841000000000E-01     -7.210546000000000E+01
4100000000.000000      1.181412000000000E-01     -4.240723000000000E+00      3.998566000000000E-01     -1.008906000000000E+02
4120000000.000000      7.859421000000000E-02      7.613525000000000E+00      3.993530000000000E-01     -1.309375000000000E+02
4140000000.000000      7.868958000000000E-02      3.516211000000000E+01      3.938904000000000E-01     -1.596484000000000E+02
4160000000.000000      1.028442000000000E-01      4.325195000000000E+01      3.941040000000000E-01      1.722812000000000E+02
4180000000.000000      1.200562000000000E-01      4.039844000000000E+01      4.022369000000000E-01      1.436953000000000E+02
4200000000.000000      1.223068000000000E-01      3.731836000000000E+01      4.032745000000000E-01      1.135352000000000E+02
4220000000.000000      1.214447000000000E-01      3.925390000000000E+01      3.953857000000000E-01      8.449219000000000E+01
4240000000.000000      1.311951000000000E-01      4.487890000000000E+01      3.887939000000000E-01      5.612695000000000E+01
4260000000.000000      1.559067000000000E-01      4.618164000000000E+01      3.851166000000000E-01      2.804590000000000E+01
4280000000.000000      1.813278000000000E-01      4.150781000000000E+01      3.855591000000000E-01     -1.840210000000000E-01
4300000000.000000      1.966934000000000E-01      3.367969000000000E+01      3.824463000000000E-01     -2.903711000000000E+01
4320000000.000000      1.957245000000000E-01      2.566113000000000E+01      3.798065000000000E-01     -5.782227000000000E+01
4340000000.000000      1.821289000000000E-01      2.039844000000000E+01      3.783264000000000E-01     -8.678514000000000E+01
4360000000.000000      1.688461000000000E-01      1.983789000000000E+01      3.771667000000000E-01     -1.158672000000000E+02
4380000000.000000      1.684036000000000E-01      2.201758000000000E+01      3.752289000000000E-01     -1.454766000000000E+02
4400000000.000000      1.792374000000000E-01      2.166894000000000E+01      3.704987000000000E-01     -1.744922000000000E+02
4420000000.000000      1.884689000000000E-01      1.733008000000000E+01      3.721008000000000E-01      1.565078000000000E+02
4440000000.000000      1.854935000000000E-01      1.161621000000000E+01      3.746338000000000E-01      1.267266000000000E+02
4460000000.000000      1.688843000000000E-01      8.950684000000000E+00      3.673706000000000E-01      9.712500000000000E+01
4480000000.000000      1.511078000000000E-01      1.273291000000000E+01      3.654327000000000E-01      6.898046000000000E+01
4500000000.000000      1.543274000000000E-01      2.095703000000000E+01      3.661499000000000E-01      3.996094000000000E+01
4520000000.000000      1.796494000000000E-01      2.485156000000000E+01      3.620300000000000E-01      1.069922000000000E+01
4540000000.000000      2.094727000000000E-01      2.086133000000000E+01      3.523102000000000E-01     -1.886523000000000E+01
4560000000.000000      2.284546000000000E-01      1.301855000000000E+01      3.460236000000000E-01     -4.699414000000000E+01
4580000000.000000      2.333679000000000E-01      4.361572000000000E+00      3.474579000000000E-01     -7.649609000000000E+01
4600000000.000000      2.261429000000000E-01     -2.585938000000000E+00      3.446655000000000E-01     -1.064648000000000E+02
4620000000.000000      2.147522000000000E-01     -6.927002000000000E+00      3.381042000000000E-01     -1.357812000000000E+02
4640000000.000000      2.089691000000000E-01     -9.425293000000000E+00      3.382111000000000E-01     -1.652031000000000E+02
4660000000.000000      2.084427000000000E-01     -1.251758000000000E+01      3.373566000000000E-01      1.653203000000000E+02
4680000000.000000      2.074280000000000E-01     -1.746777000000000E+01      3.407135000000000E-01      1.364453000000000E+02
4700000000.000000      1.996841000000000E-01     -2.389941000000000E+01      3.416443000000000E-01      1.068125000000000E+02
4720000000.000000      1.830978000000000E-01     -3.063867000000000E+01      3.375702000000000E-01      7.891406000000000E+01
4740000000.000000      1.628342000000000E-01     -3.633398000000000E+01      3.436432000000000E-01      5.103125000000000E+01
4760000000.000000      1.390381000000000E-01     -4.116601000000000E+01      3.449249000000000E-01      2.223731000000000E+01
4780000000.000000      1.138420000000000E-01     -4.551953000000000E+01      3.414917000000000E-01     -6.159424000000000E+00
4800000000.000000      8.121109000000000E-02     -4.912695000000000E+01      3.383789000000000E-01     -3.471094000000000E+01
4820000000.000000      3.927422000000000E-02     -4.014062000000000E+01      3.307495000000000E-01     -6.375586000000000E+01
4840000000.000000      3.949165000000000E-02      4.990429000000000E+01      3.249054000000000E-01     -9.267187000000000E+01
4860000000.000000      1.059189000000000E-01      5.845508000000000E+01      3.184814000000000E-01     -1.233867000000000E+02
4880000000.000000      1.758728000000000E-01      4.697070000000000E+01      2.993774000000000E-01     -1.544453000000000E+02
4900000000.000000      2.362518000000000E-01      3.172363000000000E+01      2.762604000000000E-01      1.781406000000000E+02
4920000000.000000      2.781219000000000E-01      1.577051000000000E+01      2.765808000000000E-01      1.528516000000000E+02
4940000000.000000      2.982483000000000E-01      4.078674000000000E-01      2.888947000000000E-01      1.243711000000000E+02
4960000000.000000      2.955475000000000E-01     -1.457910000000000E+01      2.923431000000000E-01      9.452734000000000E+01
4980000000.000000      2.694855000000000E-01     -2.777637000000000E+01      2.973938000000000E-01      6.713281000000000E+01
5000000000.000000      2.265854000000000E-01     -3.751953000000000E+01      3.112640000000000E-01      3.963086000000000E+01
5020000000.000000      1.798630000000000E-01     -3.995508000000000E+01      3.208008000000000E-01      1.148730000000000E+01
5040000000.000000      1.503448000000000E-01     -3.317187000000000E+01      3.288269000000000E-01     -1.595508000000000E+01
5060000000.000000      1.515121000000000E-01     -2.356934000000000E+01      3.369141000000000E-01     -4.343946000000000E+01
5080000000.000000      1.677170000000000E-01     -2.065430000000000E+01      3.423615000000000E-01     -7.194530000000000E+01
5100000000.000000      1.814957000000000E-01     -2.309375000000000E+01      3.374176000000000E-01     -1.005039000000000E+02
5120000000.000000      1.868668000000000E-01     -2.690430000000000E+01      3.329163000000000E-01     -1.278086000000000E+02
5140000000.000000      1.884766000000000E-01     -3.030468000000000E+01      3.314362000000000E-01     -1.561719000000000E+02
5160000000.000000      1.888962000000000E-01     -3.315820000000000E+01      3.288574000000000E-01      1.744453000000000E+02
5180000000.000000      1.910782000000000E-01     -3.638867000000000E+01      3.260651000000000E-01      1.449609000000000E+02
5200000000.000000      1.924057000000000E-01     -4.041797000000000E+01      3.244324000000000E-01      1.151250000000000E+02
5220000000.000000      1.868744000000000E-01     -4.426953000000000E+01      3.239288000000000E-01      8.565233000000000E+01
5240000000.000000      1.787949000000000E-01     -4.660156000000000E+01      3.278046000000000E-01      5.592187000000000E+01
5260000000.000000      1.722031000000000E-01     -4.677148000000000E+01      3.320465000000000E-01      2.636230000000000E+01
5280000000.000000      1.703262000000000E-01     -4.570898000000000E+01      3.363190000000000E-01     -2.640869000000000E+00
5300000000.000000      1.744995000000000E-01     -4.620703000000000E+01      3.383636000000000E-01     -3.086914000000000E+01
5320000000.000000      1.779709000000000E-01     -4.880468000000000E+01      3.420105000000000E-01     -5.807617000000000E+01
5340000000.000000      1.755981000000000E-01     -5.241211000000000E+01      3.459625000000000E-01     -8.574219000000000E+01
5360000000.000000      1.687393000000000E-01     -5.552539000000000E+01      3.409424000000000E-01     -1.134844000000000E+02
5380000000.000000      1.620941000000000E-01     -5.661327000000000E+01      3.374634000000000E-01     -1.400000000000000E+02
5400000000.000000      1.619415000000000E-01     -5.618554000000000E+01      3.369141000000000E-01     -1.676641000000000E+02
5420000000.000000      1.700058000000000E-01     -5.621094000000000E+01      3.312988000000000E-01      1.640000000000000E+02
5440000000.000000      1.809387000000000E-01     -5.899219000000000E+01      3.265991000000000E-01      1.350156000000000E+02
5460000000.000000      1.865921000000000E-01     -6.446484000000000E+01      3.172760000000000E-01      1.055351000000000E+02
5480000000.000000      1.819077000000000E-01     -7.110546000000000E+01      3.116760000000000E-01      7.629687000000000E+01
5500000000.000000      1.660995000000000E-01     -7.650781000000000E+01      3.130951000000000E-01      4.686719000000000E+01
5520000000.000000      1.449585000000000E-01     -7.978125000000000E+01      3.142090000000000E-01      1.670312000000000E+01
5540000000.000000      1.265106000000000E-01     -7.875390000000000E+01      3.176270000000000E-01     -1.280225000000000E+01
5560000000.000000      1.147652000000000E-01     -7.537499000000000E+01      3.231354000000000E-01     -4.193945000000000E+01
5580000000.000000      1.085739000000000E-01     -7.094531000000000E+01      3.289337000000000E-01     -7.067187000000000E+01
5600000000.000000      1.063843000000000E-01     -6.588672000000000E+01      3.332062000000000E-01     -9.857422000000000E+01
5620000000.000000      1.097794000000000E-01     -5.897070000000000E+01      3.347168000000000E-01     -1.266758000000000E+02
5640000000.000000      1.244354000000000E-01     -5.300781000000000E+01      3.337555000000000E-01     -1.543828000000000E+02
5660000000.000000      1.485672000000000E-01     -5.242969000000000E+01      3.279114000000000E-01      1.782500000000000E+02
5680000000.000000      1.748962000000000E-01     -5.761913000000000E+01      3.212433000000000E-01      1.502031000000000E+02
5700000000.000000      1.931610000000000E-01     -6.709765000000000E+01      3.100433000000000E-01      1.220937000000000E+02
5720000000.000000      1.961136000000000E-01     -7.846484000000000E+01      2.992249000000000E-01      9.448046000000000E+01
5740000000.000000      1.826172000000000E-01     -8.961718000000000E+01      2.959290000000000E-01      6.594531000000000E+01
5760000000.000000      1.557922000000000E-01     -9.807030000000000E+01      2.923279000000000E-01      3.535937000000000E+01
5780000000.000000      1.265030000000000E-01     -9.962109000000000E+01      2.882843000000000E-01      5.251465000000000E+00
5800000000.000000      1.104126000000000E-01     -9.272655000000000E+01      2.889709000000000E-01     -2.456738000000000E+01
5820000000.000000      1.152458000000000E-01     -8.696875000000000E+01      2.943115000000000E-01     -5.454687000000000E+01
5840000000.000000      1.252213000000000E-01     -8.929688000000000E+01      3.015137000000000E-01     -8.507421000000000E+01
5860000000.000000      1.278915000000000E-01     -9.713280000000000E+01      3.010864000000000E-01     -1.142773000000000E+02
5880000000.000000      1.172142000000000E-01     -1.068242000000000E+02      3.011169000000000E-01     -1.416094000000000E+02
5900000000.000000      9.774017000000000E-02     -1.132461000000000E+02      3.097992000000000E-01     -1.688047000000000E+02
5920000000.000000      7.842636000000000E-02     -1.115273000000000E+02      3.137054000000000E-01      1.626562000000000E+02
5940000000.000000      7.014847000000000E-02     -1.019844000000000E+02      3.079987000000000E-01      1.339297000000000E+02
5960000000.000000      6.962967000000000E-02     -9.653124000000000E+01      2.961273000000000E-01      1.060156000000000E+02
5980000000.000000      6.431198000000000E-02     -9.557032000000000E+01      2.885284000000000E-01      7.851171000000000E+01
6000000000.000000      4.879570000000000E-02     -8.825781000000000E+01      2.852173000000000E-01      4.893164000000000E+01
6020000000.000000      4.110718000000000E-02     -5.362695000000000E+01      2.756042000000000E-01      1.808984000000000E+01
6040000000.000000      6.468201000000000E-02     -2.965527000000000E+01      2.637787000000000E-01     -1.198486000000000E+01
6060000000.000000      9.862900000000000E-02     -3.159668000000000E+01      2.607422000000000E-01     -4.172071000000000E+01
6080000000.000000      1.270676000000000E-01     -4.281640000000000E+01      2.667084000000000E-01     -7.185156000000000E+01
