! Network Analyzer HP8722D
! Hewlett-Packard
! Data name: Linha com CNT
! Saver's name: Rodrigo Anjos
! Comments: Teste de deteccao de acetona 0-100ppm a partir de cilindro
! Time and date: 10/9/2025 16:10
!              Frequency                     S11                                                   S21                                                   S12                                                   S22
# HZ  S  MA R 50
3000000000.000000      4.754791000000000E-01      1.469678000000000E+01      2.283173000000000E-01      3.592968000000000E+01
3020000000.000000      4.816895000000000E-01      1.412402000000000E+01      2.322693000000000E-01      6.373291000000000E+00
3040000000.000000      4.891205000000000E-01      1.301563000000000E+01      2.324371000000000E-01     -2.291016000000000E+01
3060000000.000000      4.926300000000000E-01      1.147656000000000E+01      2.324753000000000E-01     -5.204883000000000E+01
3080000000.000000      4.904175000000000E-01      9.769531000000000E+00      2.280807000000000E-01     -8.105860000000000E+01
3100000000.000000      4.891815000000000E-01      8.364258000000000E+00      2.268219000000000E-01     -1.086406000000000E+02
3120000000.000000      4.874573000000000E-01      7.382813000000000E+00      2.265396000000000E-01     -1.374297000000000E+02
3140000000.000000      4.878235000000000E-01      6.421387000000000E+00      2.229538000000000E-01     -1.661250000000000E+02
3160000000.000000      4.878845000000000E-01      5.401123000000000E+00      2.193375000000000E-01      1.654609000000000E+02
3180000000.000000      4.850464000000000E-01      4.144531000000000E+00      2.132034000000000E-01      1.373437000000000E+02
3200000000.000000      4.764709000000000E-01      3.337036000000000E+00      2.096558000000000E-01      1.090430000000000E+02
3220000000.000000      4.658203000000000E-01      3.146118000000000E+00      2.005692000000000E-01      8.051172000000000E+01
3240000000.000000      4.592590000000000E-01      3.559570000000000E+00      1.944885000000000E-01      5.546484000000000E+01
3260000000.000000      4.594269000000000E-01      4.479492000000000E+00      2.035141000000000E-01      2.953906000000000E+01
3280000000.000000      4.679260000000000E-01      5.156494000000000E+00      2.113876000000000E-01      5.630493000000000E-02
3300000000.000000      4.840240000000000E-01      4.857178000000000E+00      2.142487000000000E-01     -2.856445000000000E+01
3320000000.000000      5.010071000000000E-01      3.548584000000000E+00      2.222214000000000E-01     -5.757617000000000E+01
3340000000.000000      5.130920000000000E-01      1.642456000000000E+00      2.265854000000000E-01     -8.753515000000000E+01
3360000000.000000      5.177917000000000E-01     -5.273438000000000E-01      2.289505000000000E-01     -1.173320000000000E+02
3380000000.000000      5.182800000000000E-01     -2.149292000000000E+00      2.283478000000000E-01     -1.466797000000000E+02
3400000000.000000      5.143738000000000E-01     -3.489624000000000E+00      2.275925000000000E-01     -1.753281000000000E+02
3420000000.000000      5.105896000000000E-01     -4.669189000000000E+00      2.260056000000000E-01      1.553594000000000E+02
3440000000.000000      5.054016000000000E-01     -5.960205000000000E+00      2.218704000000000E-01      1.271797000000000E+02
3460000000.000000      5.022278000000000E-01     -7.054688000000000E+00      2.222366000000000E-01      9.897655000000000E+01
3480000000.000000      5.009766000000000E-01     -8.104004000000000E+00      2.194824000000000E-01      6.994141000000000E+01
3500000000.000000      4.978943000000000E-01     -8.854004000000000E+00      2.174225000000000E-01      4.203906000000000E+01
3520000000.000000      4.987640000000000E-01     -9.632324000000000E+00      2.177963000000000E-01      1.294971000000000E+01
3540000000.000000      4.990540000000000E-01     -1.066260000000000E+01      2.131042000000000E-01     -1.562695000000000E+01
3560000000.000000      4.978485000000000E-01     -1.137500000000000E+01      2.140808000000000E-01     -4.350390000000000E+01
3580000000.000000      4.956818000000000E-01     -1.199609000000000E+01      2.141495000000000E-01     -7.221874000000000E+01
3600000000.000000      4.922180000000000E-01     -1.272656000000000E+01      2.145691000000000E-01     -9.975389000000000E+01
3620000000.000000      4.958038000000000E-01     -1.319629000000000E+01      2.186890000000000E-01     -1.279766000000000E+02
3640000000.000000      4.966125000000000E-01     -1.421631000000000E+01      2.195358000000000E-01     -1.564766000000000E+02
3660000000.000000      4.990082000000000E-01     -1.538086000000000E+01      2.215652000000000E-01      1.751406000000000E+02
3680000000.000000      4.999695000000000E-01     -1.685351000000000E+01      2.192535000000000E-01      1.465469000000000E+02
3700000000.000000      4.962158000000000E-01     -1.803027000000000E+01      2.173996000000000E-01      1.193711000000000E+02
3720000000.000000      4.929504000000000E-01     -1.892480000000000E+01      2.195206000000000E-01      9.109766000000000E+01
3740000000.000000      4.918060000000000E-01     -1.923730000000000E+01      2.143631000000000E-01      6.282617000000000E+01
3760000000.000000      4.941101000000000E-01     -1.937500000000000E+01      2.138596000000000E-01      3.576172000000000E+01
3780000000.000000      4.978790000000000E-01     -2.008203000000000E+01      2.167053000000000E-01      7.104004000000000E+00
3800000000.000000      5.028076000000000E-01     -2.142676000000000E+01      2.148743000000000E-01     -2.215625000000000E+01
3820000000.000000      5.014038000000000E-01     -2.307129000000000E+01      2.131958000000000E-01     -5.068749000000000E+01
3840000000.000000      4.984589000000000E-01     -2.449414000000000E+01      2.127533000000000E-01     -7.933594000000000E+01
3860000000.000000      4.940643000000000E-01     -2.545703000000000E+01      2.138214000000000E-01     -1.083828000000000E+02
3880000000.000000      4.919586000000000E-01     -2.595410000000000E+01      2.104797000000000E-01     -1.372422000000000E+02
3900000000.000000      4.951935000000000E-01     -2.652929000000000E+01      2.104416000000000E-01     -1.646250000000000E+02
3920000000.000000      5.008850000000000E-01     -2.763672000000000E+01      2.134781000000000E-01      1.667969000000000E+02
3940000000.000000      5.031738000000000E-01     -2.920312000000000E+01      2.123108000000000E-01      1.383203000000000E+02
3960000000.000000      4.955292000000000E-01     -3.050683000000000E+01      2.127151000000000E-01      1.101953000000000E+02
3980000000.000000      4.884796000000000E-01     -3.127344000000000E+01      2.068634000000000E-01      8.156641000000000E+01
4000000000.000000      4.832611000000000E-01     -3.148438000000000E+01      2.036438000000000E-01      5.602148000000000E+01
4020000000.000000      4.860840000000000E-01     -3.143945000000000E+01      2.120972000000000E-01      2.820996000000000E+01
4040000000.000000      4.971313000000000E-01     -3.187988000000000E+01      2.119141000000000E-01     -2.157471000000000E+00
4060000000.000000      5.105896000000000E-01     -3.334961000000000E+01      2.081146000000000E-01     -3.095898000000000E+01
4080000000.000000      5.189209000000000E-01     -3.601171000000000E+01      2.080231000000000E-01     -6.003711000000000E+01
4100000000.000000      5.143433000000000E-01     -3.850586000000000E+01      2.078171000000000E-01     -8.941797000000000E+01
4120000000.000000      5.039368000000000E-01     -4.039453000000000E+01      2.053070000000000E-01     -1.198203000000000E+02
4140000000.000000      4.925232000000000E-01     -4.138476000000000E+01      1.977921000000000E-01     -1.482031000000000E+02
4160000000.000000      4.869843000000000E-01     -4.180860000000000E+01      1.999588000000000E-01     -1.744609000000000E+02
4180000000.000000      4.857635000000000E-01     -4.237305000000000E+01      2.052002000000000E-01      1.562266000000000E+02
4200000000.000000      4.856262000000000E-01     -4.335938000000000E+01      2.024231000000000E-01      1.277656000000000E+02
4220000000.000000      4.856720000000000E-01     -4.442383000000000E+01      2.041092000000000E-01      9.977343000000000E+01
4240000000.000000      4.810791000000000E-01     -4.529297000000000E+01      1.998901000000000E-01      7.064453000000000E+01
4260000000.000000      4.778748000000000E-01     -4.585546000000000E+01      1.948242000000000E-01      4.396289000000000E+01
4280000000.000000      4.772339000000000E-01     -4.612500000000000E+01      1.965256000000000E-01      1.644336000000000E+01
4300000000.000000      4.813080000000000E-01     -4.636719000000000E+01      1.956940000000000E-01     -1.218945000000000E+01
4320000000.000000      4.868317000000000E-01     -4.732226000000000E+01      1.964417000000000E-01     -4.101953000000000E+01
4340000000.000000      4.900818000000000E-01     -4.898242000000000E+01      1.960831000000000E-01     -7.059765000000000E+01
4360000000.000000      4.911957000000000E-01     -5.055859000000000E+01      1.963654000000000E-01     -1.007109000000000E+02
4380000000.000000      4.868622000000000E-01     -5.175390000000000E+01      1.938171000000000E-01     -1.308672000000000E+02
4400000000.000000      4.848633000000000E-01     -5.245312000000000E+01      1.922455000000000E-01     -1.596016000000000E+02
4420000000.000000      4.866943000000000E-01     -5.315039000000000E+01      1.972275000000000E-01      1.715859000000000E+02
4440000000.000000      4.914551000000000E-01     -5.416797000000000E+01      1.987305000000000E-01      1.415937000000000E+02
4460000000.000000      4.943237000000000E-01     -5.568945000000000E+01      1.980820000000000E-01      1.124844000000000E+02
4480000000.000000      4.906006000000000E-01     -5.754687000000000E+01      1.966171000000000E-01      8.382030000000000E+01
4500000000.000000      4.839172000000000E-01     -5.866405000000000E+01      1.931152000000000E-01      5.593163000000000E+01
4520000000.000000      4.773712000000000E-01     -5.916601000000000E+01      1.905289000000000E-01      2.767578000000000E+01
4540000000.000000      4.754028000000000E-01     -5.945703000000000E+01      1.853333000000000E-01     -3.625488000000000E-01
4560000000.000000      4.812317000000000E-01     -5.997460000000000E+01      1.848068000000000E-01     -2.769824000000000E+01
4580000000.000000      4.897461000000000E-01     -6.105273000000000E+01      1.855621000000000E-01     -5.770312000000000E+01
4600000000.000000      4.959259000000000E-01     -6.228516000000000E+01      1.833649000000000E-01     -8.827734000000000E+01
4620000000.000000      4.979248000000000E-01     -6.382421000000000E+01      1.828079000000000E-01     -1.195937000000000E+02
4640000000.000000      4.985046000000000E-01     -6.501171000000000E+01      1.788559000000000E-01     -1.509453000000000E+02
4660000000.000000      4.997253000000000E-01     -6.614062000000000E+01      1.797104000000000E-01      1.799922000000000E+02
4680000000.000000      5.045471000000000E-01     -6.710938000000000E+01      1.858292000000000E-01      1.496250000000000E+02
4700000000.000000      5.079956000000000E-01     -6.844921000000000E+01      1.884155000000000E-01      1.195430000000000E+02
4720000000.000000      5.129700000000000E-01     -7.039453000000000E+01      1.919403000000000E-01      9.128515000000000E+01
4740000000.000000      5.144043000000000E-01     -7.258984000000000E+01      1.957016000000000E-01      6.255273000000000E+01
4760000000.000000      5.144043000000000E-01     -7.430859000000000E+01      1.953964000000000E-01      3.481836000000000E+01
4780000000.000000      5.119934000000000E-01     -7.643749000000000E+01      1.919327000000000E-01      6.609619000000000E+00
4800000000.000000      5.088806000000000E-01     -7.878515000000000E+01      1.847992000000000E-01     -2.093652000000000E+01
4820000000.000000      5.013428000000000E-01     -8.093750000000000E+01      1.745071000000000E-01     -4.843554000000000E+01
4840000000.000000      4.819641000000000E-01     -8.254686000000000E+01      1.639481000000000E-01     -7.533984000000000E+01
4860000000.000000      4.647675000000000E-01     -8.375780000000000E+01      1.555939000000000E-01     -1.040977000000000E+02
4880000000.000000      4.466095000000000E-01     -8.347656000000000E+01      1.414566000000000E-01     -1.337422000000000E+02
4900000000.000000      4.363556000000000E-01     -8.220703000000000E+01      1.279221000000000E-01     -1.593281000000000E+02
4920000000.000000      4.371796000000000E-01     -8.059374000000000E+01      1.322479000000000E-01      1.759609000000000E+02
4940000000.000000      4.505005000000000E-01     -7.926562000000000E+01      1.448669000000000E-01      1.453281000000000E+02
4960000000.000000      4.737701000000000E-01     -7.942187000000000E+01      1.527328000000000E-01      1.133906000000000E+02
4980000000.000000      4.948883000000000E-01     -8.150782000000000E+01      1.630478000000000E-01      8.317968000000000E+01
5000000000.000000      5.046692000000000E-01     -8.433203000000000E+01      1.743546000000000E-01      5.293359000000000E+01
5020000000.000000      5.046692000000000E-01     -8.725780000000000E+01      1.810150000000000E-01      2.348242000000000E+01
5040000000.000000      4.935760000000000E-01     -8.944139000000000E+01      1.825867000000000E-01     -3.260254000000000E+00
5060000000.000000      4.848175000000000E-01     -9.048437000000000E+01      1.885986000000000E-01     -2.824219000000000E+01
5080000000.000000      4.781494000000000E-01     -9.119921000000000E+01      1.944656000000000E-01     -5.521484000000000E+01
5100000000.000000      4.771576000000000E-01     -9.172655000000000E+01      1.926422000000000E-01     -8.205078000000000E+01
5120000000.000000      4.785919000000000E-01     -9.258204000000000E+01      1.911545000000000E-01     -1.084766000000000E+02
5140000000.000000      4.813995000000000E-01     -9.335155000000000E+01      1.865845000000000E-01     -1.368750000000000E+02
5160000000.000000      4.836426000000000E-01     -9.434765000000000E+01      1.801529000000000E-01     -1.655156000000000E+02
5180000000.000000      4.898376000000000E-01     -9.531250000000000E+01      1.757965000000000E-01      1.641328000000000E+02
5200000000.000000      4.961700000000000E-01     -9.644140000000000E+01      1.712265000000000E-01      1.333125000000000E+02
5220000000.000000      5.002747000000000E-01     -9.805859000000000E+01      1.713562000000000E-01      1.024726000000000E+02
5240000000.000000      5.021057000000000E-01     -9.958593000000000E+01      1.743546000000000E-01      7.071875000000000E+01
5260000000.000000      5.011292000000000E-01     -1.012305000000000E+02      1.791077000000000E-01      3.988281000000000E+01
5280000000.000000      4.973297000000000E-01     -1.026680000000000E+02      1.838226000000000E-01      9.728027000000000E+00
5300000000.000000      4.942169000000000E-01     -1.037852000000000E+02      1.883163000000000E-01     -1.742578000000000E+01
5320000000.000000      4.941406000000000E-01     -1.048438000000000E+02      1.968307000000000E-01     -4.395117000000000E+01
5340000000.000000      4.940491000000000E-01     -1.059492000000000E+02      2.019501000000000E-01     -7.119922000000000E+01
5360000000.000000      4.942474000000000E-01     -1.072422000000000E+02      2.018661000000000E-01     -9.711718000000000E+01
5380000000.000000      4.962006000000000E-01     -1.084297000000000E+02      2.004471000000000E-01     -1.235273000000000E+02
5400000000.000000      4.953003000000000E-01     -1.095469000000000E+02      1.933517000000000E-01     -1.498516000000000E+02
5420000000.000000      4.982910000000000E-01     -1.101601000000000E+02      1.884003000000000E-01     -1.763047000000000E+02
5440000000.000000      5.032959000000000E-01     -1.108320000000000E+02      1.812363000000000E-01      1.547344000000000E+02
5460000000.000000      5.104065000000000E-01     -1.120469000000000E+02      1.706619000000000E-01      1.251015000000000E+02
5480000000.000000      5.160217000000000E-01     -1.136992000000000E+02      1.658630000000000E-01      9.413280000000000E+01
5500000000.000000      5.191956000000000E-01     -1.159766000000000E+02      1.641235000000000E-01      6.179296000000000E+01
5520000000.000000      5.147705000000000E-01     -1.181641000000000E+02      1.643066000000000E-01      2.905566000000000E+01
5540000000.000000      5.090332000000000E-01     -1.200937000000000E+02      1.665115000000000E-01     -2.634033000000000E+00
5560000000.000000      5.015869000000000E-01     -1.217422000000000E+02      1.719208000000000E-01     -3.105469000000000E+01
5580000000.000000      4.946289000000000E-01     -1.231367000000000E+02      1.822662000000000E-01     -5.950976000000000E+01
5600000000.000000      4.887238000000000E-01     -1.242109000000000E+02      1.891937000000000E-01     -8.671093000000000E+01
5620000000.000000      4.849243000000000E-01     -1.250547000000000E+02      1.945572000000000E-01     -1.125312000000000E+02
5640000000.000000      4.813080000000000E-01     -1.255469000000000E+02      1.960373000000000E-01     -1.385859000000000E+02
5660000000.000000      4.793396000000000E-01     -1.257383000000000E+02      1.928787000000000E-01     -1.636250000000000E+02
5680000000.000000      4.837646000000000E-01     -1.260820000000000E+02      1.882019000000000E-01      1.705781000000000E+02
5700000000.000000      4.920349000000000E-01     -1.266523000000000E+02      1.793365000000000E-01      1.442344000000000E+02
5720000000.000000      5.035706000000000E-01     -1.280313000000000E+02      1.701965000000000E-01      1.171523000000000E+02
5740000000.000000      5.110474000000000E-01     -1.304609000000000E+02      1.613235000000000E-01      8.684374000000000E+01
5760000000.000000      5.095520000000000E-01     -1.333359000000000E+02      1.505661000000000E-01      5.413671000000000E+01
5780000000.000000      5.003357000000000E-01     -1.357969000000000E+02      1.409683000000000E-01      2.046582000000000E+01
5800000000.000000      4.865875000000000E-01     -1.373437000000000E+02      1.376724000000000E-01     -1.201514000000000E+01
5820000000.000000      4.794006000000000E-01     -1.379062000000000E+02      1.452026000000000E-01     -4.380273000000000E+01
5840000000.000000      4.777374000000000E-01     -1.385625000000000E+02      1.565857000000000E-01     -7.602734000000000E+01
5860000000.000000      4.827881000000000E-01     -1.393203000000000E+02      1.665802000000000E-01     -1.053633000000000E+02
5880000000.000000      4.880371000000000E-01     -1.409453000000000E+02      1.751328000000000E-01     -1.332500000000000E+02
5900000000.000000      4.899139000000000E-01     -1.427266000000000E+02      1.822510000000000E-01     -1.596328000000000E+02
5920000000.000000      4.871063000000000E-01     -1.444375000000000E+02      1.863785000000000E-01      1.747187000000000E+02
5940000000.000000      4.837494000000000E-01     -1.458203000000000E+02      1.828079000000000E-01      1.487031000000000E+02
5960000000.000000      4.800873000000000E-01     -1.471641000000000E+02      1.747589000000000E-01      1.245351000000000E+02
5980000000.000000      4.747162000000000E-01     -1.487578000000000E+02      1.675415000000000E-01      9.915625000000000E+01
6000000000.000000      4.659576000000000E-01     -1.504609000000000E+02      1.559906000000000E-01      7.145702000000000E+01
6020000000.000000      4.537506000000000E-01     -1.520703000000000E+02      1.407928000000000E-01      4.242188000000000E+01
6040000000.000000      4.391174000000000E-01     -1.530234000000000E+02      1.236038000000000E-01      1.238818000000000E+01
6060000000.000000      4.287262000000000E-01     -1.532578000000000E+02      1.146240000000000E-01     -1.790527000000000E+01
6080000000.000000      4.246826000000000E-01     -1.527891000000000E+02      1.172371000000000E-01     -5.113671000000000E+01
