! Network Analyzer HP8722D
! Hewlett-Packard
! Data name: Linha com CNT
! Saver's name: Rodrigo Anjos
! Comments: Teste de deteccao de acetona 0-100ppm a partir de cilindro
! Time and date: 10/9/2025 17:44
!              Frequency                     S11                                                   S21                                                   S12                                                   S22
# HZ  S  MA R 50
3000000000.000000      1.191788000000000E-01      5.070313000000000E+01      4.156036000000000E-01      2.541894000000000E+01
3020000000.000000      1.396484000000000E-01      4.644727000000000E+01      4.166870000000000E-01     -3.471680000000000E+00
3040000000.000000      1.496048000000000E-01      3.799609000000000E+01      4.177551000000000E-01     -3.259570000000000E+01
3060000000.000000      1.451797000000000E-01      2.921191000000000E+01      4.161682000000000E-01     -6.108984000000000E+01
3080000000.000000      1.302490000000000E-01      2.297461000000000E+01      4.153748000000000E-01     -8.984766000000000E+01
3100000000.000000      1.160507000000000E-01      2.145410000000000E+01      4.134369000000000E-01     -1.180469000000000E+02
3120000000.000000      1.093063000000000E-01      2.353808000000000E+01      4.125366000000000E-01     -1.467422000000000E+02
3140000000.000000      1.080170000000000E-01      2.376953000000000E+01      4.079132000000000E-01     -1.753438000000000E+02
3160000000.000000      1.011009000000000E-01      2.126953000000000E+01      4.030151000000000E-01      1.563828000000000E+02
3180000000.000000      8.226776000000000E-02      2.142285000000000E+01      4.009705000000000E-01      1.278828000000000E+02
3200000000.000000      6.044388000000000E-02      3.992188000000000E+01      3.972473000000000E-01      9.842968000000000E+01
3220000000.000000      7.288361000000000E-02      7.471484000000000E+01      3.824005000000000E-01      6.916016000000000E+01
3240000000.000000      1.188774000000000E-01      8.341406000000000E+01      3.740387000000000E-01      4.204492000000000E+01
3260000000.000000      1.694107000000000E-01      7.755077000000000E+01      3.780212000000000E-01      1.506738000000000E+01
3280000000.000000      2.106476000000000E-01      6.646484000000000E+01      3.851776000000000E-01     -1.424268000000000E+01
3300000000.000000      2.372131000000000E-01      5.398632000000000E+01      3.810425000000000E-01     -4.277148000000000E+01
3320000000.000000      2.478027000000000E-01      4.201367000000000E+01      3.844757000000000E-01     -7.069530000000000E+01
3340000000.000000      2.443161000000000E-01      3.176758000000000E+01      3.907928000000000E-01     -9.985155000000000E+01
3360000000.000000      2.310410000000000E-01      2.396582000000000E+01      3.916321000000000E-01     -1.283047000000000E+02
3380000000.000000      2.138672000000000E-01      1.943945000000000E+01      3.962402000000000E-01     -1.566406000000000E+02
3400000000.000000      1.981201000000000E-01      1.712012000000000E+01      3.967590000000000E-01      1.744609000000000E+02
3420000000.000000      1.854019000000000E-01      1.581201000000000E+01      3.982697000000000E-01      1.455859000000000E+02
3440000000.000000      1.747437000000000E-01      1.487256000000000E+01      3.950500000000000E-01      1.170976000000000E+02
3460000000.000000      1.642227000000000E-01      1.461572000000000E+01      3.935089000000000E-01      8.884375000000000E+01
3480000000.000000      1.573944000000000E-01      1.500586000000000E+01      3.940887000000000E-01      5.965038000000000E+01
3500000000.000000      1.533813000000000E-01      1.598486000000000E+01      3.887939000000000E-01      3.071289000000000E+01
3520000000.000000      1.508636000000000E-01      1.647656000000000E+01      3.865662000000000E-01      2.620239000000000E+00
3540000000.000000      1.485367000000000E-01      1.761426000000000E+01      3.885498000000000E-01     -2.600488000000000E+01
3560000000.000000      1.465836000000000E-01      2.023242000000000E+01      3.897705000000000E-01     -5.480859000000000E+01
3580000000.000000      1.477509000000000E-01      2.351563000000000E+01      3.896027000000000E-01     -8.367968000000000E+01
3600000000.000000      1.575623000000000E-01      2.597949000000000E+01      3.887024000000000E-01     -1.116211000000000E+02
3620000000.000000      1.697617000000000E-01      2.532617000000000E+01      3.916016000000000E-01     -1.400859000000000E+02
3640000000.000000      1.776505000000000E-01      2.181836000000000E+01      3.915253000000000E-01     -1.681406000000000E+02
3660000000.000000      1.768494000000000E-01      1.681152000000000E+01      3.901672000000000E-01      1.637578000000000E+02
3680000000.000000      1.684570000000000E-01      1.335352000000000E+01      3.929749000000000E-01      1.359297000000000E+02
3700000000.000000      1.556396000000000E-01      1.351318000000000E+01      3.934937000000000E-01      1.075391000000000E+02
3720000000.000000      1.504669000000000E-01      1.770117000000000E+01      3.928680000000000E-01      7.900391000000000E+01
3740000000.000000      1.611786000000000E-01      2.180762000000000E+01      3.865662000000000E-01      5.057422000000000E+01
3760000000.000000      1.776047000000000E-01      2.168359000000000E+01      3.823395000000000E-01      2.279883000000000E+01
3780000000.000000      1.888351000000000E-01      1.737890000000000E+01      3.815765000000000E-01     -5.060791000000000E+00
3800000000.000000      1.873703000000000E-01      1.174805000000000E+01      3.825684000000000E-01     -3.381054000000000E+01
3820000000.000000      1.726837000000000E-01      7.743896000000000E+00      3.820953000000000E-01     -6.232422000000000E+01
3840000000.000000      1.578293000000000E-01      8.887695000000000E+00      3.814392000000000E-01     -9.130468000000000E+01
3860000000.000000      1.552963000000000E-01      1.349902000000000E+01      3.791199000000000E-01     -1.204258000000000E+02
3880000000.000000      1.670990000000000E-01      1.628027000000000E+01      3.778839000000000E-01     -1.494375000000000E+02
3900000000.000000      1.824112000000000E-01      1.379883000000000E+01      3.713684000000000E-01     -1.776875000000000E+02
3920000000.000000      1.863251000000000E-01      8.405762000000000E+00      3.733215000000000E-01      1.549687000000000E+02
3940000000.000000      1.743546000000000E-01      4.185791000000000E+00      3.791351000000000E-01      1.263164000000000E+02
3960000000.000000      1.549911000000000E-01      5.229492000000000E+00      3.783875000000000E-01      9.721874000000000E+01
3980000000.000000      1.482010000000000E-01      1.319727000000000E+01      3.707275000000000E-01      6.868359000000000E+01
4000000000.000000      1.664200000000000E-01      1.955664000000000E+01      3.639832000000000E-01      4.183007000000000E+01
4020000000.000000      1.970901000000000E-01      1.812695000000000E+01      3.723450000000000E-01      1.400195000000000E+01
4040000000.000000      2.231827000000000E-01      1.034619000000000E+01      3.727875000000000E-01     -1.619433000000000E+01
4060000000.000000      2.296677000000000E-01     -2.059937000000000E-01      3.604584000000000E-01     -4.445508000000000E+01
4080000000.000000      2.130508000000000E-01     -1.076123000000000E+01      3.602142000000000E-01     -7.179688000000000E+01
4100000000.000000      1.781311000000000E-01     -1.790039000000000E+01      3.684845000000000E-01     -1.008047000000000E+02
4120000000.000000      1.403122000000000E-01     -1.660254000000000E+01      3.665161000000000E-01     -1.306953000000000E+02
4140000000.000000      1.230049000000000E-01     -5.596191000000000E+00      3.585052000000000E-01     -1.593828000000000E+02
4160000000.000000      1.300507000000000E-01      3.618530000000000E+00      3.608704000000000E-01      1.727031000000000E+02
4180000000.000000      1.427460000000000E-01      5.250000000000000E+00      3.676300000000000E-01      1.438359000000000E+02
4200000000.000000      1.459503000000000E-01      3.614502000000000E+00      3.673553000000000E-01      1.141484000000000E+02
4220000000.000000      1.427612000000000E-01      4.145752000000000E+00      3.619232000000000E-01      8.556641000000000E+01
4240000000.000000      1.418839000000000E-01      8.979492000000000E+00      3.563538000000000E-01      5.666016000000000E+01
4260000000.000000      1.558990000000000E-01      1.385059000000000E+01      3.524780000000000E-01      2.874707000000000E+01
4280000000.000000      1.787109000000000E-01      1.414063000000000E+01      3.521271000000000E-01      7.374573000000000E-01
4300000000.000000      1.984482000000000E-01      9.854492000000000E+00      3.492432000000000E-01     -2.813379000000000E+01
4320000000.000000      2.059784000000000E-01      3.655640000000000E+00      3.480530000000000E-01     -5.683788000000000E+01
4340000000.000000      2.002640000000000E-01     -1.852600000000000E+00      3.475037000000000E-01     -8.589844000000000E+01
4360000000.000000      1.892548000000000E-01     -3.938599000000000E+00      3.454285000000000E-01     -1.153789000000000E+02
4380000000.000000      1.853943000000000E-01     -2.675171000000000E+00      3.435822000000000E-01     -1.448281000000000E+02
4400000000.000000      1.927185000000000E-01     -2.047607000000000E+00      3.404083000000000E-01     -1.738281000000000E+02
4420000000.000000      2.033310000000000E-01     -4.508545000000000E+00      3.416901000000000E-01      1.572656000000000E+02
4440000000.000000      2.056122000000000E-01     -9.124512000000000E+00      3.432007000000000E-01      1.274336000000000E+02
4460000000.000000      1.949539000000000E-01     -1.275928000000000E+01      3.387451000000000E-01      9.799999000000000E+01
4480000000.000000      1.776581000000000E-01     -1.267041000000000E+01      3.369141000000000E-01      6.962109000000000E+01
4500000000.000000      1.694489000000000E-01     -7.314209000000000E+00      3.342896000000000E-01      4.059375000000000E+01
4520000000.000000      1.815796000000000E-01     -1.694641000000000E+00      3.298950000000000E-01      1.129248000000000E+01
4540000000.000000      2.075272000000000E-01     -1.733093000000000E+00      3.226776000000000E-01     -1.768066000000000E+01
4560000000.000000      2.303696000000000E-01     -6.351563000000000E+00      3.183899000000000E-01     -4.593359000000000E+01
4580000000.000000      2.432480000000000E-01     -1.282520000000000E+01      3.209229000000000E-01     -7.543359000000000E+01
4600000000.000000      2.433472000000000E-01     -1.888574000000000E+01      3.164063000000000E-01     -1.054219000000000E+02
4620000000.000000      2.376022000000000E-01     -2.300976000000000E+01      3.128204000000000E-01     -1.350859000000000E+02
4640000000.000000      2.347336000000000E-01     -2.554101000000000E+01      3.115234000000000E-01     -1.649219000000000E+02
4660000000.000000      2.360916000000000E-01     -2.797558000000000E+01      3.112640000000000E-01      1.661094000000000E+02
4680000000.000000      2.389832000000000E-01     -3.188672000000000E+01      3.162231000000000E-01      1.367500000000000E+02
4700000000.000000      2.368851000000000E-01     -3.714648000000000E+01      3.154755000000000E-01      1.072734000000000E+02
4720000000.000000      2.273178000000000E-01     -4.285742000000000E+01      3.137054000000000E-01      7.927343000000000E+01
4740000000.000000      2.137680000000000E-01     -4.817383000000000E+01      3.196411000000000E-01      5.124023000000000E+01
4760000000.000000      1.955795000000000E-01     -5.293945000000000E+01      3.186646000000000E-01      2.255566000000000E+01
4780000000.000000      1.755142000000000E-01     -5.739062000000000E+01      3.158569000000000E-01     -5.836670000000000E+00
4800000000.000000      1.506119000000000E-01     -6.210742000000000E+01      3.118744000000000E-01     -3.442578000000000E+01
4820000000.000000      1.132278000000000E-01     -6.449219000000000E+01      3.025513000000000E-01     -6.325390000000000E+01
4840000000.000000      6.996536000000000E-02     -5.275585000000000E+01      2.947388000000000E-01     -9.203905000000000E+01
4860000000.000000      6.529999000000000E-02     -5.355957000000000E+00      2.882843000000000E-01     -1.226797000000000E+02
4880000000.000000      1.190338000000000E-01      1.320410000000000E+01      2.701263000000000E-01     -1.534765000000000E+02
4900000000.000000      1.831741000000000E-01      8.194336000000000E+00      2.490005000000000E-01      1.794062000000000E+02
4920000000.000000      2.367859000000000E-01     -2.868896000000000E+00      2.505493000000000E-01      1.541484000000000E+02
4940000000.000000      2.744751000000000E-01     -1.526709000000000E+01      2.645416000000000E-01      1.254102000000000E+02
4960000000.000000      2.908783000000000E-01     -2.847168000000000E+01      2.691650000000000E-01      9.557032000000000E+01
4980000000.000000      2.837067000000000E-01     -4.065234000000000E+01      2.752838000000000E-01      6.801562000000000E+01
5000000000.000000      2.565308000000000E-01     -5.038086000000000E+01      2.888641000000000E-01      4.002539000000000E+01
5020000000.000000      2.186127000000000E-01     -5.506836000000000E+01      2.973785000000000E-01      1.155176000000000E+01
5040000000.000000      1.885147000000000E-01     -5.316992000000000E+01      3.038330000000000E-01     -1.568750000000000E+01
5060000000.000000      1.798248000000000E-01     -4.738671000000000E+01      3.107910000000000E-01     -4.269531000000000E+01
5080000000.000000      1.882172000000000E-01     -4.392187000000000E+01      3.166656000000000E-01     -7.100780000000000E+01
5100000000.000000      1.999664000000000E-01     -4.435351000000000E+01      3.117676000000000E-01     -9.942968000000000E+01
5120000000.000000      2.065353000000000E-01     -4.699023000000000E+01      3.074188000000000E-01     -1.268750000000000E+02
5140000000.000000      2.107239000000000E-01     -4.933788000000000E+01      3.061218000000000E-01     -1.552969000000000E+02
5160000000.000000      2.136230000000000E-01     -5.170898000000000E+01      3.029175000000000E-01      1.754375000000000E+02
5180000000.000000      2.179642000000000E-01     -5.433594000000000E+01      2.990265000000000E-01      1.458047000000000E+02
5200000000.000000      2.219620000000000E-01     -5.752343000000000E+01      2.974243000000000E-01      1.158516000000000E+02
5220000000.000000      2.199936000000000E-01     -6.105078000000000E+01      2.978668000000000E-01      8.617188000000000E+01
5240000000.000000      2.144165000000000E-01     -6.365234000000000E+01      3.021545000000000E-01      5.629687000000000E+01
5260000000.000000      2.077026000000000E-01     -6.470703000000000E+01      3.059845000000000E-01      2.674707000000000E+01
5280000000.000000      2.039261000000000E-01     -6.457812000000000E+01      3.099365000000000E-01     -2.358032000000000E+00
5300000000.000000      2.064285000000000E-01     -6.492969000000000E+01      3.124847000000000E-01     -3.047363000000000E+01
5320000000.000000      2.101440000000000E-01     -6.658203000000000E+01      3.168640000000000E-01     -5.763085000000000E+01
5340000000.000000      2.102432000000000E-01     -6.947656000000000E+01      3.211670000000000E-01     -8.549608000000000E+01
5360000000.000000      2.066956000000000E-01     -7.227734000000000E+01      3.164063000000000E-01     -1.128203000000000E+02
5380000000.000000      2.015305000000000E-01     -7.374218000000000E+01      3.133240000000000E-01     -1.393437000000000E+02
5400000000.000000      2.007904000000000E-01     -7.401953000000000E+01      3.117523000000000E-01     -1.669922000000000E+02
5420000000.000000      2.072830000000000E-01     -7.386719000000000E+01      3.056488000000000E-01      1.648281000000000E+02
5440000000.000000      2.183762000000000E-01     -7.539844000000000E+01      3.003082000000000E-01      1.357578000000000E+02
5460000000.000000      2.269974000000000E-01     -7.940234000000000E+01      2.907715000000000E-01      1.061836000000000E+02
5480000000.000000      2.269669000000000E-01     -8.465235000000000E+01      2.864838000000000E-01      7.674609000000000E+01
5500000000.000000      2.164917000000000E-01     -8.958984000000000E+01      2.876740000000000E-01      4.698828000000000E+01
5520000000.000000      1.988297000000000E-01     -9.308985000000000E+01      2.890015000000000E-01      1.659472000000000E+01
5540000000.000000      1.822968000000000E-01     -9.437500000000000E+01      2.924957000000000E-01     -1.299316000000000E+01
5560000000.000000      1.693573000000000E-01     -9.403906000000000E+01      2.968445000000000E-01     -4.207227000000000E+01
5580000000.000000      1.607285000000000E-01     -9.260546000000000E+01      3.037262000000000E-01     -7.051171000000000E+01
5600000000.000000      1.548920000000000E-01     -9.092577000000000E+01      3.072052000000000E-01     -9.862499000000000E+01
5620000000.000000      1.519470000000000E-01     -8.679688000000000E+01      3.097382000000000E-01     -1.262305000000000E+02
5640000000.000000      1.574936000000000E-01     -8.190233000000000E+01      3.079987000000000E-01     -1.538672000000000E+02
5660000000.000000      1.740723000000000E-01     -7.887890000000000E+01      3.025055000000000E-01      1.789531000000000E+02
5680000000.000000      1.990433000000000E-01     -7.983984000000000E+01      2.960358000000000E-01      1.511875000000000E+02
5700000000.000000      2.216110000000000E-01     -8.532812000000000E+01      2.855835000000000E-01      1.232422000000000E+02
5720000000.000000      2.330017000000000E-01     -9.345703000000000E+01      2.752075000000000E-01      9.545313000000000E+01
5740000000.000000      2.281036000000000E-01     -1.021953000000000E+02      2.715149000000000E-01      6.673437000000000E+01
5760000000.000000      2.084427000000000E-01     -1.096172000000000E+02      2.676239000000000E-01      3.578125000000000E+01
5780000000.000000      1.839981000000000E-01     -1.127461000000000E+02      2.632599000000000E-01      5.060547000000000E+00
5800000000.000000      1.665649000000000E-01     -1.104570000000000E+02      2.633057000000000E-01     -2.488770000000000E+01
5820000000.000000      1.653290000000000E-01     -1.072383000000000E+02      2.692871000000000E-01     -5.496679000000000E+01
5840000000.000000      1.742859000000000E-01     -1.079531000000000E+02      2.772369000000000E-01     -8.535547000000000E+01
5860000000.000000      1.806335000000000E-01     -1.126680000000000E+02      2.779694000000000E-01     -1.143906000000000E+02
5880000000.000000      1.767654000000000E-01     -1.191640000000000E+02      2.802124000000000E-01     -1.418828000000000E+02
5900000000.000000      1.629868000000000E-01     -1.241640000000000E+02      2.872467000000000E-01     -1.690625000000000E+02
5920000000.000000      1.463547000000000E-01     -1.255391000000000E+02      2.900848000000000E-01      1.626797000000000E+02
5940000000.000000      1.368942000000000E-01     -1.232851000000000E+02      2.840729000000000E-01      1.342109000000000E+02
5960000000.000000      1.326675000000000E-01     -1.222852000000000E+02      2.722015000000000E-01      1.067070000000000E+02
5980000000.000000      1.270828000000000E-01     -1.238086000000000E+02      2.649078000000000E-01      7.914063000000000E+01
6000000000.000000      1.105347000000000E-01     -1.254140000000000E+02      2.600403000000000E-01      4.960155000000000E+01
6020000000.000000      8.778000000000000E-02     -1.208164000000000E+02      2.490768000000000E-01      1.869922000000000E+01
6040000000.000000      7.458496000000000E-02     -1.041602000000000E+02      2.376404000000000E-01     -1.152881000000000E+01
6060000000.000000      8.771896000000000E-02     -8.711329000000000E+01      2.333145000000000E-01     -4.107031000000000E+01
6080000000.000000      1.160469000000000E-01     -8.397264000000000E+01      2.393799000000000E-01     -7.151953000000000E+01
