! Network Analyzer HP8722D
! Hewlett-Packard
! Data name: Linha com CNT
! Saver's name: Rodrigo Anjos
! Comments: Teste de deteccao de acetona 0-100ppm a partir de cilindro
! Time and date: 10/9/2025 15:55
!              Frequency                     S11                                                   S21                                                   S12                                                   S22
# HZ  S  MA R 50
3000000000.000000      4.186249000000000E-01      1.569629000000000E+01      2.525482000000000E-01      3.316601000000000E+01
3020000000.000000      4.272461000000000E-01      1.523779000000000E+01      2.561798000000000E-01      3.592529000000000E+00
3040000000.000000      4.359741000000000E-01      1.399902000000000E+01      2.565155000000000E-01     -2.555078000000000E+01
3060000000.000000      4.399567000000000E-01      1.197363000000000E+01      2.566071000000000E-01     -5.477929000000000E+01
3080000000.000000      4.374237000000000E-01      1.009229000000000E+01      2.517700000000000E-01     -8.367579000000000E+01
3100000000.000000      4.337616000000000E-01      8.786133000000000E+00      2.505035000000000E-01     -1.113047000000000E+02
3120000000.000000      4.307098000000000E-01      7.927979000000000E+00      2.502136000000000E-01     -1.400547000000000E+02
3140000000.000000      4.308929000000000E-01      6.947266000000000E+00      2.465363000000000E-01     -1.687422000000000E+02
3160000000.000000      4.309235000000000E-01      5.777344000000000E+00      2.425995000000000E-01      1.626875000000000E+02
3180000000.000000      4.261475000000000E-01      4.518066000000000E+00      2.362823000000000E-01      1.346328000000000E+02
3200000000.000000      4.148560000000000E-01      3.905640000000000E+00      2.326126000000000E-01      1.061680000000000E+02
3220000000.000000      4.024963000000000E-01      4.235107000000000E+00      2.226791000000000E-01      7.753515000000000E+01
3240000000.000000      3.970947000000000E-01      5.614014000000000E+00      2.161179000000000E-01      5.204492000000000E+01
3260000000.000000      3.993225000000000E-01      7.242676000000000E+00      2.250671000000000E-01      2.612402000000000E+01
3280000000.000000      4.133453000000000E-01      8.328613000000000E+00      2.332306000000000E-01     -3.436035000000000E+00
3300000000.000000      4.340210000000000E-01      7.923828000000000E+00      2.356262000000000E-01     -3.205469000000000E+01
3320000000.000000      4.536285000000000E-01      6.089111000000000E+00      2.437439000000000E-01     -6.086328000000000E+01
3340000000.000000      4.659424000000000E-01      3.669434000000000E+00      2.488556000000000E-01     -9.061327000000000E+01
3360000000.000000      4.700470000000000E-01      1.121948000000000E+00      2.510376000000000E-01     -1.203281000000000E+02
3380000000.000000      4.688721000000000E-01     -7.388306000000000E-01      2.503662000000000E-01     -1.495156000000000E+02
3400000000.000000      4.637146000000000E-01     -2.371704000000000E+00      2.501526000000000E-01     -1.783516000000000E+02
3420000000.000000      4.587097000000000E-01     -3.460693000000000E+00      2.483521000000000E-01      1.525078000000000E+02
3440000000.000000      4.538727000000000E-01     -4.843750000000000E+00      2.438965000000000E-01      1.242383000000000E+02
3460000000.000000      4.497833000000000E-01     -5.811768000000000E+00      2.440796000000000E-01      9.605469000000000E+01
3480000000.000000      4.471283000000000E-01     -6.769043000000000E+00      2.412720000000000E-01      6.701172000000000E+01
3500000000.000000      4.454193000000000E-01     -7.573730000000000E+00      2.389908000000000E-01      3.887109000000000E+01
3520000000.000000      4.442139000000000E-01     -8.485840000000000E+00      2.391663000000000E-01      1.015527000000000E+01
3540000000.000000      4.440155000000000E-01     -9.304199000000000E+00      2.349777000000000E-01     -1.856152000000000E+01
3560000000.000000      4.424286000000000E-01     -9.915527000000000E+00      2.366714000000000E-01     -4.665625000000000E+01
3580000000.000000      4.397125000000000E-01     -1.043604000000000E+01      2.363129000000000E-01     -7.535156000000000E+01
3600000000.000000      4.385681000000000E-01     -1.080371000000000E+01      2.357178000000000E-01     -1.027930000000000E+02
3620000000.000000      4.410858000000000E-01     -1.125830000000000E+01      2.405777000000000E-01     -1.311797000000000E+02
3640000000.000000      4.438019000000000E-01     -1.213184000000000E+01      2.416382000000000E-01     -1.596406000000000E+02
3660000000.000000      4.467621000000000E-01     -1.365332000000000E+01      2.427673000000000E-01      1.721016000000000E+02
3680000000.000000      4.463348000000000E-01     -1.515186000000000E+01      2.412338000000000E-01      1.435234000000000E+02
3700000000.000000      4.413605000000000E-01     -1.642676000000000E+01      2.387772000000000E-01      1.162109000000000E+02
3720000000.000000      4.371490000000000E-01     -1.714648000000000E+01      2.407837000000000E-01      8.791407000000000E+01
3740000000.000000      4.364014000000000E-01     -1.724316000000000E+01      2.363281000000000E-01      5.952148000000000E+01
3760000000.000000      4.393921000000000E-01     -1.708398000000000E+01      2.355652000000000E-01      3.240625000000000E+01
3780000000.000000      4.454803000000000E-01     -1.789453000000000E+01      2.374115000000000E-01      3.909668000000000E+00
3800000000.000000      4.507141000000000E-01     -1.936523000000000E+01      2.360001000000000E-01     -2.531836000000000E+01
3820000000.000000      4.490204000000000E-01     -2.136719000000000E+01      2.343140000000000E-01     -5.395117000000000E+01
3840000000.000000      4.438934000000000E-01     -2.267578000000000E+01      2.340927000000000E-01     -8.251171000000000E+01
3860000000.000000      4.392853000000000E-01     -2.345801000000000E+01      2.344360000000000E-01     -1.116640000000000E+02
3880000000.000000      4.372711000000000E-01     -2.370605000000000E+01      2.318420000000000E-01     -1.404766000000000E+02
3900000000.000000      4.431305000000000E-01     -2.420215000000000E+01      2.309189000000000E-01     -1.680547000000000E+02
3920000000.000000      4.483032000000000E-01     -2.542187000000000E+01      2.337341000000000E-01      1.635703000000000E+02
3940000000.000000      4.484406000000000E-01     -2.716797000000000E+01      2.329407000000000E-01      1.350391000000000E+02
3960000000.000000      4.416504000000000E-01     -2.848145000000000E+01      2.330627000000000E-01      1.067656000000000E+02
3980000000.000000      4.322662000000000E-01     -2.901660000000000E+01      2.267685000000000E-01      7.820313000000000E+01
4000000000.000000      4.280548000000000E-01     -2.866113000000000E+01      2.237015000000000E-01      5.248437000000000E+01
4020000000.000000      4.331970000000000E-01     -2.839355000000000E+01      2.319107000000000E-01      2.475195000000000E+01
4040000000.000000      4.480438000000000E-01     -2.888379000000000E+01      2.321777000000000E-01     -5.875000000000000E+00
4060000000.000000      4.631958000000000E-01     -3.091992000000000E+01      2.276764000000000E-01     -3.458984000000000E+01
4080000000.000000      4.702454000000000E-01     -3.416601000000000E+01      2.276077000000000E-01     -6.334179000000000E+01
4100000000.000000      4.632111000000000E-01     -3.711914000000000E+01      2.279739000000000E-01     -9.275782000000000E+01
4120000000.000000      4.492950000000000E-01     -3.900976000000000E+01      2.255325000000000E-01     -1.230508000000000E+02
4140000000.000000      4.358826000000000E-01     -3.949804000000000E+01      2.176132000000000E-01     -1.514688000000000E+02
4160000000.000000      4.304504000000000E-01     -3.965820000000000E+01      2.201614000000000E-01     -1.780469000000000E+02
4180000000.000000      4.296722000000000E-01     -4.004883000000000E+01      2.249527000000000E-01      1.529063000000000E+02
4200000000.000000      4.295502000000000E-01     -4.101367000000000E+01      2.221603000000000E-01      1.242851000000000E+02
4220000000.000000      4.292450000000000E-01     -4.209961000000000E+01      2.235870000000000E-01      9.611717000000000E+01
4240000000.000000      4.231567000000000E-01     -4.282812000000000E+01      2.193909000000000E-01      6.707812000000000E+01
4260000000.000000      4.205170000000000E-01     -4.301562000000000E+01      2.139282000000000E-01      3.998632000000000E+01
4280000000.000000      4.222870000000000E-01     -4.287305000000000E+01      2.155151000000000E-01      1.252002000000000E+01
4300000000.000000      4.287109000000000E-01     -4.299024000000000E+01      2.148361000000000E-01     -1.619433000000000E+01
4320000000.000000      4.345398000000000E-01     -4.400586000000000E+01      2.144547000000000E-01     -4.507421000000000E+01
4340000000.000000      4.395905000000000E-01     -4.592187000000000E+01      2.150345000000000E-01     -7.459765000000000E+01
4360000000.000000      4.384613000000000E-01     -4.765234000000000E+01      2.147827000000000E-01     -1.045273000000000E+02
4380000000.000000      4.338531000000000E-01     -4.883984000000000E+01      2.128143000000000E-01     -1.346797000000000E+02
4400000000.000000      4.328918000000000E-01     -4.936718000000000E+01      2.112579000000000E-01     -1.633437000000000E+02
4420000000.000000      4.367065000000000E-01     -5.000586000000000E+01      2.153778000000000E-01      1.677578000000000E+02
4440000000.000000      4.403992000000000E-01     -5.114452000000000E+01      2.169037000000000E-01      1.379766000000000E+02
4460000000.000000      4.443665000000000E-01     -5.282421000000000E+01      2.160492000000000E-01      1.087930000000000E+02
4480000000.000000      4.382477000000000E-01     -5.478710000000000E+01      2.143173000000000E-01      8.008204000000000E+01
4500000000.000000      4.306335000000000E-01     -5.579492000000000E+01      2.105103000000000E-01      5.198828000000000E+01
4520000000.000000      4.253998000000000E-01     -5.620507000000000E+01      2.077942000000000E-01      2.367188000000000E+01
4540000000.000000      4.236298000000000E-01     -5.597461000000000E+01      2.018890000000000E-01     -4.529297000000000E+00
4560000000.000000      4.306030000000000E-01     -5.624413000000000E+01      2.015991000000000E-01     -3.203906000000000E+01
4580000000.000000      4.420166000000000E-01     -5.736133000000000E+01      2.018356000000000E-01     -6.217578000000000E+01
4600000000.000000      4.487000000000000E-01     -5.899609000000000E+01      1.996078000000000E-01     -9.255468000000000E+01
4620000000.000000      4.532471000000000E-01     -6.078320000000000E+01      1.994781000000000E-01     -1.237969000000000E+02
4640000000.000000      4.526825000000000E-01     -6.202343000000000E+01      1.957703000000000E-01     -1.547500000000000E+02
4660000000.000000      4.530182000000000E-01     -6.309960000000000E+01      1.969452000000000E-01      1.761484000000000E+02
4680000000.000000      4.598694000000000E-01     -6.436718000000000E+01      2.028503000000000E-01      1.460234000000000E+02
4700000000.000000      4.639282000000000E-01     -6.593750000000000E+01      2.050400000000000E-01      1.162461000000000E+02
4720000000.000000      4.671631000000000E-01     -6.820703000000000E+01      2.079773000000000E-01      8.783203000000000E+01
4740000000.000000      4.677124000000000E-01     -7.051952000000000E+01      2.114944000000000E-01      5.923046000000000E+01
4760000000.000000      4.662323000000000E-01     -7.283203000000000E+01      2.108612000000000E-01      3.138086000000000E+01
4780000000.000000      4.618378000000000E-01     -7.505859000000000E+01      2.072601000000000E-01      3.125610000000000E+00
4800000000.000000      4.567566000000000E-01     -7.757813000000000E+01      2.000885000000000E-01     -2.441113000000000E+01
4820000000.000000      4.432068000000000E-01     -7.985937000000000E+01      1.893234000000000E-01     -5.245703000000000E+01
4840000000.000000      4.239502000000000E-01     -8.162500000000000E+01      1.782913000000000E-01     -7.974609000000000E+01
4860000000.000000      4.020386000000000E-01     -8.194139000000000E+01      1.701508000000000E-01     -1.086601000000000E+02
4880000000.000000      3.825684000000000E-01     -8.075390000000000E+01      1.551971000000000E-01     -1.387500000000000E+02
4900000000.000000      3.753662000000000E-01     -7.821875000000000E+01      1.417389000000000E-01     -1.646719000000000E+02
4920000000.000000      3.820190000000000E-01     -7.567968000000000E+01      1.458969000000000E-01      1.705156000000000E+02
4940000000.000000      4.027100000000000E-01     -7.421093000000000E+01      1.590347000000000E-01      1.400703000000000E+02
4960000000.000000      4.310303000000000E-01     -7.491405000000000E+01      1.682968000000000E-01      1.085000000000000E+02
4980000000.000000      4.533081000000000E-01     -7.783984000000000E+01      1.783676000000000E-01      7.885156000000000E+01
5000000000.000000      4.622955000000000E-01     -8.150000000000000E+01      1.900101000000000E-01      4.925781000000000E+01
5020000000.000000      4.579010000000000E-01     -8.481249000000000E+01      1.968994000000000E-01      1.991601000000000E+01
5040000000.000000      4.449005000000000E-01     -8.709375000000000E+01      1.982956000000000E-01     -6.729248000000000E+00
5060000000.000000      4.335785000000000E-01     -8.791407000000000E+01      2.042694000000000E-01     -3.207422000000000E+01
5080000000.000000      4.277954000000000E-01     -8.832031000000000E+01      2.102127000000000E-01     -5.912890000000000E+01
5100000000.000000      4.275818000000000E-01     -8.873047000000000E+01      2.074432000000000E-01     -8.628515000000000E+01
5120000000.000000      4.288177000000000E-01     -8.952734000000000E+01      2.055435000000000E-01     -1.130234000000000E+02
5140000000.000000      4.329529000000000E-01     -9.028906000000000E+01      2.007446000000000E-01     -1.414453000000000E+02
5160000000.000000      4.365387000000000E-01     -9.129686000000000E+01      1.939468000000000E-01     -1.702969000000000E+02
5180000000.000000      4.419250000000000E-01     -9.224609000000000E+01      1.898346000000000E-01      1.595156000000000E+02
5200000000.000000      4.486389000000000E-01     -9.350389000000000E+01      1.858597000000000E-01      1.287188000000000E+02
5220000000.000000      4.528656000000000E-01     -9.524218000000000E+01      1.867371000000000E-01      9.783983000000000E+01
5240000000.000000      4.543915000000000E-01     -9.703125000000000E+01      1.901321000000000E-01      6.652734000000000E+01
5260000000.000000      4.526825000000000E-01     -9.865234000000000E+01      1.953430000000000E-01      3.585546000000000E+01
5280000000.000000      4.481506000000000E-01     -9.996874000000000E+01      2.004166000000000E-01      5.955811000000000E+00
5300000000.000000      4.458008000000000E-01     -1.010430000000000E+02      2.043762000000000E-01     -2.126953000000000E+01
5320000000.000000      4.463348000000000E-01     -1.020781000000000E+02      2.130508000000000E-01     -4.771093000000000E+01
5340000000.000000      4.463348000000000E-01     -1.033320000000000E+02      2.172699000000000E-01     -7.504687000000000E+01
5360000000.000000      4.464722000000000E-01     -1.046641000000000E+02      2.167740000000000E-01     -1.010820000000000E+02
5380000000.000000      4.477539000000000E-01     -1.057578000000000E+02      2.145767000000000E-01     -1.275625000000000E+02
5400000000.000000      4.464417000000000E-01     -1.068555000000000E+02      2.072678000000000E-01     -1.539766000000000E+02
5420000000.000000      4.497833000000000E-01     -1.073945000000000E+02      2.013626000000000E-01      1.790156000000000E+02
5440000000.000000      4.557648000000000E-01     -1.081211000000000E+02      1.941681000000000E-01      1.497656000000000E+02
5460000000.000000      4.641724000000000E-01     -1.094336000000000E+02      1.839371000000000E-01      1.201172000000000E+02
5480000000.000000      4.695740000000000E-01     -1.114375000000000E+02      1.796494000000000E-01      8.917969000000000E+01
5500000000.000000      4.711304000000000E-01     -1.139492000000000E+02      1.784363000000000E-01      5.730859000000000E+01
5520000000.000000      4.663086000000000E-01     -1.163125000000000E+02      1.802826000000000E-01      2.493066000000000E+01
5540000000.000000      4.586945000000000E-01     -1.182969000000000E+02      1.819305000000000E-01     -6.196289000000000E+00
5560000000.000000      4.503326000000000E-01     -1.200625000000000E+02      1.880493000000000E-01     -3.490820000000000E+01
5580000000.000000      4.422913000000000E-01     -1.213320000000000E+02      1.983185000000000E-01     -6.309375000000000E+01
5600000000.000000      4.360046000000000E-01     -1.221836000000000E+02      2.041931000000000E-01     -9.039454000000000E+01
5620000000.000000      4.307556000000000E-01     -1.228945000000000E+02      2.085953000000000E-01     -1.163515000000000E+02
5640000000.000000      4.280090000000000E-01     -1.231094000000000E+02      2.094498000000000E-01     -1.426094000000000E+02
5660000000.000000      4.283295000000000E-01     -1.229219000000000E+02      2.055359000000000E-01     -1.679062000000000E+02
5680000000.000000      4.345245000000000E-01     -1.229844000000000E+02      2.003632000000000E-01      1.660234000000000E+02
5700000000.000000      4.461060000000000E-01     -1.237305000000000E+02      1.907654000000000E-01      1.391875000000000E+02
5720000000.000000      4.584656000000000E-01     -1.254531000000000E+02      1.810150000000000E-01      1.117891000000000E+02
5740000000.000000      4.651794000000000E-01     -1.284609000000000E+02      1.726456000000000E-01      8.148438000000000E+01
5760000000.000000      4.624481000000000E-01     -1.317266000000000E+02      1.625900000000000E-01      4.861328000000000E+01
5780000000.000000      4.508209000000000E-01     -1.342578000000000E+02      1.543503000000000E-01      1.513086000000000E+01
5800000000.000000      4.365540000000000E-01     -1.357578000000000E+02      1.520462000000000E-01     -1.697558000000000E+01
5820000000.000000      4.288330000000000E-01     -1.361016000000000E+02      1.600266000000000E-01     -4.861914000000000E+01
5840000000.000000      4.290314000000000E-01     -1.366328000000000E+02      1.715851000000000E-01     -8.000000000000000E+01
5860000000.000000      4.336700000000000E-01     -1.374609000000000E+02      1.807632000000000E-01     -1.091445000000000E+02
5880000000.000000      4.385529000000000E-01     -1.392656000000000E+02      1.894150000000000E-01     -1.367500000000000E+02
5900000000.000000      4.395447000000000E-01     -1.413359000000000E+02      1.963348000000000E-01     -1.628594000000000E+02
5920000000.000000      4.350128000000000E-01     -1.431484000000000E+02      1.996002000000000E-01      1.710703000000000E+02
5940000000.000000      4.308167000000000E-01     -1.444766000000000E+02      1.951447000000000E-01      1.449922000000000E+02
5960000000.000000      4.271698000000000E-01     -1.459687000000000E+02      1.856155000000000E-01      1.203555000000000E+02
5980000000.000000      4.211578000000000E-01     -1.476641000000000E+02      1.777344000000000E-01      9.463282000000000E+01
6000000000.000000      4.109039000000000E-01     -1.494531000000000E+02      1.655579000000000E-01      6.651562000000000E+01
6020000000.000000      3.967590000000000E-01     -1.510078000000000E+02      1.501694000000000E-01      3.660351000000000E+01
6040000000.000000      3.805542000000000E-01     -1.515703000000000E+02      1.325302000000000E-01      6.067139000000000E+00
6060000000.000000      3.691406000000000E-01     -1.513047000000000E+02      1.250000000000000E-01     -2.423242000000000E+01
6080000000.000000      3.668976000000000E-01     -1.500859000000000E+02      1.287155000000000E-01     -5.716210000000000E+01
