! Network Analyzer HP8722D
! Hewlett-Packard
! Data name: Linha com CNT
! Saver's name: Rodrigo Anjos
! Comments: Teste de deteccao de acetona 0-100ppm a partir de cilindro
! Time and date: 10/9/2025 17:02
!              Frequency                     S11                                                   S21                                                   S12                                                   S22
# HZ  S  MA R 50
3000000000.000000      4.534760000000000E-01      1.545068000000000E+01      2.676849000000000E-01      3.203320000000000E+01
3020000000.000000      4.606323000000000E-01      1.500439000000000E+01      2.718506000000000E-01      2.460938000000000E+00
3040000000.000000      4.686127000000000E-01      1.391943000000000E+01      2.721100000000000E-01     -2.653125000000000E+01
3060000000.000000      4.726715000000000E-01      1.212744000000000E+01      2.718048000000000E-01     -5.579492000000000E+01
3080000000.000000      4.700317000000000E-01      1.029932000000000E+01      2.680359000000000E-01     -8.463671000000000E+01
3100000000.000000      4.674988000000000E-01      8.967285000000000E+00      2.662506000000000E-01     -1.125117000000000E+02
3120000000.000000      4.652863000000000E-01      8.026855000000000E+00      2.656097000000000E-01     -1.411328000000000E+02
3140000000.000000      4.655151000000000E-01      7.132813000000000E+00      2.620087000000000E-01     -1.697422000000000E+02
3160000000.000000      4.659119000000000E-01      5.977783000000000E+00      2.580261000000000E-01      1.616797000000000E+02
3180000000.000000      4.616089000000000E-01      4.824219000000000E+00      2.516632000000000E-01      1.334219000000000E+02
3200000000.000000      4.519348000000000E-01      4.158203000000000E+00      2.478333000000000E-01      1.048203000000000E+02
3220000000.000000      4.400177000000000E-01      4.044189000000000E+00      2.378235000000000E-01      7.628124000000000E+01
3240000000.000000      4.348755000000000E-01      4.858643000000000E+00      2.306213000000000E-01      5.067577000000000E+01
3260000000.000000      4.359436000000000E-01      6.095947000000000E+00      2.399139000000000E-01      2.464160000000000E+01
3280000000.000000      4.468231000000000E-01      6.891113000000000E+00      2.477722000000000E-01     -4.844971000000000E+00
3300000000.000000      4.645996000000000E-01      6.569824000000000E+00      2.499008000000000E-01     -3.343554000000000E+01
3320000000.000000      4.827423000000000E-01      5.098877000000000E+00      2.575226000000000E-01     -6.227344000000000E+01
3340000000.000000      4.951324000000000E-01      3.037720000000000E+00      2.625122000000000E-01     -9.194530000000000E+01
3360000000.000000      5.001526000000000E-01      6.893921000000000E-01      2.647400000000000E-01     -1.215117000000000E+02
3380000000.000000      4.998627000000000E-01     -1.071167000000000E+00      2.649384000000000E-01     -1.506484000000000E+02
3400000000.000000      4.953308000000000E-01     -2.583252000000000E+00      2.645416000000000E-01     -1.793672000000000E+02
3420000000.000000      4.911499000000000E-01     -3.669434000000000E+00      2.628326000000000E-01      1.515156000000000E+02
3440000000.000000      4.858246000000000E-01     -4.883545000000000E+00      2.586975000000000E-01      1.230664000000000E+02
3460000000.000000      4.822693000000000E-01     -5.943604000000000E+00      2.591553000000000E-01      9.491796000000000E+01
3480000000.000000      4.807129000000000E-01     -6.961426000000000E+00      2.563629000000000E-01      6.587891000000000E+01
3500000000.000000      4.787445000000000E-01     -7.781250000000000E+00      2.542572000000000E-01      3.761328000000000E+01
3520000000.000000      4.788513000000000E-01     -8.844238000000000E+00      2.538910000000000E-01      8.961914000000000E+00
3540000000.000000      4.782410000000000E-01     -9.573242000000000E+00      2.497101000000000E-01     -1.969238000000000E+01
3560000000.000000      4.767151000000000E-01     -1.026025000000000E+01      2.510986000000000E-01     -4.790039000000000E+01
3580000000.000000      4.740295000000000E-01     -1.089063000000000E+01      2.502747000000000E-01     -7.661327000000000E+01
3600000000.000000      4.725189000000000E-01     -1.143408000000000E+01      2.505798000000000E-01     -1.041250000000000E+02
3620000000.000000      4.749756000000000E-01     -1.193115000000000E+01      2.548828000000000E-01     -1.325156000000000E+02
3640000000.000000      4.774170000000000E-01     -1.277881000000000E+01      2.558289000000000E-01     -1.609297000000000E+02
3660000000.000000      4.799957000000000E-01     -1.420557000000000E+01      2.570801000000000E-01      1.708125000000000E+02
3680000000.000000      4.801025000000000E-01     -1.568604000000000E+01      2.559509000000000E-01      1.422578000000000E+02
3700000000.000000      4.763641000000000E-01     -1.692383000000000E+01      2.539825000000000E-01      1.149531000000000E+02
3720000000.000000      4.717712000000000E-01     -1.768945000000000E+01      2.557068000000000E-01      8.645702000000000E+01
3740000000.000000      4.704742000000000E-01     -1.792578000000000E+01      2.504883000000000E-01      5.821484000000000E+01
3760000000.000000      4.724579000000000E-01     -1.801660000000000E+01      2.495956000000000E-01      3.101563000000000E+01
3780000000.000000      4.779358000000000E-01     -1.881738000000000E+01      2.514954000000000E-01      2.374390000000000E+00
3800000000.000000      4.830322000000000E-01     -2.025683000000000E+01      2.505798000000000E-01     -2.659277000000000E+01
3820000000.000000      4.812469000000000E-01     -2.215332000000000E+01      2.481842000000000E-01     -5.528320000000000E+01
3840000000.000000      4.772644000000000E-01     -2.337402000000000E+01      2.481384000000000E-01     -8.383204000000000E+01
3860000000.000000      4.727020000000000E-01     -2.423535000000000E+01      2.487946000000000E-01     -1.128477000000000E+02
3880000000.000000      4.712219000000000E-01     -2.462402000000000E+01      2.452469000000000E-01     -1.418516000000000E+02
3900000000.000000      4.759064000000000E-01     -2.519336000000000E+01      2.441254000000000E-01     -1.695391000000000E+02
3920000000.000000      4.803009000000000E-01     -2.637890000000000E+01      2.469406000000000E-01      1.621328000000000E+02
3940000000.000000      4.806519000000000E-01     -2.796191000000000E+01      2.466049000000000E-01      1.337578000000000E+02
3960000000.000000      4.752045000000000E-01     -2.933691000000000E+01      2.469482000000000E-01      1.050469000000000E+02
3980000000.000000      4.660034000000000E-01     -3.004297000000000E+01      2.404861000000000E-01      7.663280000000000E+01
4000000000.000000      4.612885000000000E-01     -3.009082000000000E+01      2.369308000000000E-01      5.080859000000000E+01
4020000000.000000      4.647675000000000E-01     -2.992578000000000E+01      2.454224000000000E-01      2.310547000000000E+01
4040000000.000000      4.777222000000000E-01     -3.041992000000000E+01      2.460480000000000E-01     -7.388428000000000E+00
4060000000.000000      4.915771000000000E-01     -3.208593000000000E+01      2.406540000000000E-01     -3.609570000000000E+01
4080000000.000000      4.973755000000000E-01     -3.492578000000000E+01      2.404785000000000E-01     -6.467187000000000E+01
4100000000.000000      4.935150000000000E-01     -3.765429000000000E+01      2.418671000000000E-01     -9.400391000000000E+01
4120000000.000000      4.814606000000000E-01     -3.959765000000000E+01      2.391891000000000E-01     -1.242891000000000E+02
4140000000.000000      4.693756000000000E-01     -4.035742000000000E+01      2.310410000000000E-01     -1.527812000000000E+02
4160000000.000000      4.634552000000000E-01     -4.067187000000000E+01      2.330246000000000E-01     -1.793984000000000E+02
4180000000.000000      4.619141000000000E-01     -4.116601000000000E+01      2.385406000000000E-01      1.514531000000000E+02
4200000000.000000      4.626617000000000E-01     -4.216601000000000E+01      2.352600000000000E-01      1.226367000000000E+02
4220000000.000000      4.619598000000000E-01     -4.322656000000000E+01      2.362366000000000E-01      9.446093000000000E+01
4240000000.000000      4.565277000000000E-01     -4.410352000000000E+01      2.320404000000000E-01      6.533984000000000E+01
4260000000.000000      4.529572000000000E-01     -4.449023000000000E+01      2.268600000000000E-01      3.819140000000000E+01
4280000000.000000      4.545288000000000E-01     -4.439453000000000E+01      2.281876000000000E-01      1.067432000000000E+01
4300000000.000000      4.572906000000000E-01     -4.478125000000000E+01      2.275696000000000E-01     -1.805664000000000E+01
4320000000.000000      4.651031000000000E-01     -4.565039000000000E+01      2.277298000000000E-01     -4.694336000000000E+01
4340000000.000000      4.677582000000000E-01     -4.740234000000000E+01      2.273483000000000E-01     -7.617578000000000E+01
4360000000.000000      4.683075000000000E-01     -4.905859000000000E+01      2.275543000000000E-01     -1.061055000000000E+02
4380000000.000000      4.642334000000000E-01     -5.025976000000000E+01      2.253342000000000E-01     -1.360547000000000E+02
4400000000.000000      4.629822000000000E-01     -5.086719000000000E+01      2.229462000000000E-01     -1.647109000000000E+02
4420000000.000000      4.655762000000000E-01     -5.154491000000000E+01      2.270203000000000E-01      1.663437000000000E+02
4440000000.000000      4.713135000000000E-01     -5.304101000000000E+01      2.284241000000000E-01      1.364922000000000E+02
4460000000.000000      4.721832000000000E-01     -5.426952000000000E+01      2.266769000000000E-01      1.073125000000000E+02
4480000000.000000      4.691925000000000E-01     -5.607422000000000E+01      2.247849000000000E-01      7.846093000000000E+01
4500000000.000000      4.605255000000000E-01     -5.701172000000000E+01      2.212753000000000E-01      5.027538000000000E+01
4520000000.000000      4.526672000000000E-01     -5.784570000000000E+01      2.186737000000000E-01      2.178125000000000E+01
4540000000.000000      4.523773000000000E-01     -5.786523000000000E+01      2.131348000000000E-01     -6.696289000000000E+00
4560000000.000000      4.583435000000000E-01     -5.836132000000000E+01      2.122269000000000E-01     -3.402929000000000E+01
4580000000.000000      4.678192000000000E-01     -5.921679000000000E+01      2.134018000000000E-01     -6.428124000000000E+01
4600000000.000000      4.744720000000000E-01     -6.057226000000000E+01      2.114334000000000E-01     -9.450781000000000E+01
4620000000.000000      4.775085000000000E-01     -6.215820000000000E+01      2.108154000000000E-01     -1.251523000000000E+02
4640000000.000000      4.792480000000000E-01     -6.353125000000000E+01      2.080460000000000E-01     -1.561484000000000E+02
4660000000.000000      4.816284000000000E-01     -6.451953000000000E+01      2.085800000000000E-01      1.750156000000000E+02
4680000000.000000      4.838409000000000E-01     -6.560937000000000E+01      2.137985000000000E-01      1.448906000000000E+02
4700000000.000000      4.890289000000000E-01     -6.737890000000000E+01      2.154236000000000E-01      1.151015000000000E+02
4720000000.000000      4.922485000000000E-01     -6.933984000000000E+01      2.177429000000000E-01      8.680859000000000E+01
4740000000.000000      4.958038000000000E-01     -7.152734000000000E+01      2.207794000000000E-01      5.808984000000000E+01
4760000000.000000      4.939728000000000E-01     -7.369922000000000E+01      2.198257000000000E-01      3.000293000000000E+01
4780000000.000000      4.907990000000000E-01     -7.575781000000000E+01      2.163544000000000E-01      1.709717000000000E+00
4800000000.000000      4.857025000000000E-01     -7.811328000000000E+01      2.094574000000000E-01     -2.617383000000000E+01
4820000000.000000      4.755707000000000E-01     -8.024218000000000E+01      1.992493000000000E-01     -5.452148000000000E+01
4840000000.000000      4.566193000000000E-01     -8.205078000000000E+01      1.891174000000000E-01     -8.216015000000000E+01
4860000000.000000      4.385986000000000E-01     -8.286718000000000E+01      1.816559000000000E-01     -1.114063000000000E+02
4880000000.000000      4.195709000000000E-01     -8.227734000000000E+01      1.668243000000000E-01     -1.415000000000000E+02
4900000000.000000      4.108124000000000E-01     -8.053905000000000E+01      1.530380000000000E-01     -1.673906000000000E+02
4920000000.000000      4.139709000000000E-01     -7.858593000000000E+01      1.571426000000000E-01      1.680156000000000E+02
4940000000.000000      4.303436000000000E-01     -7.721484000000000E+01      1.704636000000000E-01      1.381562000000000E+02
4960000000.000000      4.552765000000000E-01     -7.760547000000000E+01      1.789322000000000E-01      1.068008000000000E+02
4980000000.000000      4.778290000000000E-01     -7.991796000000000E+01      1.881790000000000E-01      7.768359000000000E+01
5000000000.000000      4.869843000000000E-01     -8.316406000000000E+01      1.992569000000000E-01      4.824023000000000E+01
5020000000.000000      4.829865000000000E-01     -8.625391000000000E+01      2.056274000000000E-01      1.913183000000000E+01
5040000000.000000      4.733887000000000E-01     -8.836329000000000E+01      2.070847000000000E-01     -7.900635000000000E+00
5060000000.000000      4.633636000000000E-01     -8.949219000000000E+01      2.128525000000000E-01     -3.349218000000000E+01
5080000000.000000      4.570160000000000E-01     -9.003906000000000E+01      2.186737000000000E-01     -6.095312000000000E+01
5100000000.000000      4.567413000000000E-01     -9.063671000000000E+01      2.158279000000000E-01     -8.845703000000000E+01
5120000000.000000      4.586639000000000E-01     -9.146875000000000E+01      2.133179000000000E-01     -1.154180000000000E+02
5140000000.000000      4.611664000000000E-01     -9.228907000000000E+01      2.095337000000000E-01     -1.438359000000000E+02
5160000000.000000      4.644012000000000E-01     -9.330858000000000E+01      2.041473000000000E-01     -1.728047000000000E+02
5180000000.000000      4.699554000000000E-01     -9.422655000000000E+01      2.009125000000000E-01      1.569453000000000E+02
5200000000.000000      4.753113000000000E-01     -9.549219000000000E+01      1.977158000000000E-01      1.264180000000000E+02
5220000000.000000      4.797974000000000E-01     -9.714844000000000E+01      1.980438000000000E-01      9.604296000000000E+01
5240000000.000000      4.813538000000000E-01     -9.870312000000000E+01      2.015991000000000E-01      6.512109000000000E+01
5260000000.000000      4.793396000000000E-01     -1.003242000000000E+02      2.063065000000000E-01      3.489843000000000E+01
5280000000.000000      4.761505000000000E-01     -1.017461000000000E+02      2.101898000000000E-01      5.226563000000000E+00
5300000000.000000      4.742432000000000E-01     -1.027734000000000E+02      2.138596000000000E-01     -2.223242000000000E+01
5320000000.000000      4.732513000000000E-01     -1.038984000000000E+02      2.216415000000000E-01     -4.890038000000000E+01
5340000000.000000      4.738770000000000E-01     -1.049648000000000E+02      2.245636000000000E-01     -7.647655000000000E+01
5360000000.000000      4.742126000000000E-01     -1.063867000000000E+02      2.239304000000000E-01     -1.028594000000000E+02
5380000000.000000      4.754486000000000E-01     -1.076328000000000E+02      2.219543000000000E-01     -1.295000000000000E+02
5400000000.000000      4.752960000000000E-01     -1.087656000000000E+02      2.156677000000000E-01     -1.563516000000000E+02
5420000000.000000      4.784546000000000E-01     -1.094492000000000E+02      2.104034000000000E-01      1.762891000000000E+02
5440000000.000000      4.833984000000000E-01     -1.100781000000000E+02      2.039795000000000E-01      1.470000000000000E+02
5460000000.000000      4.904785000000000E-01     -1.112852000000000E+02      1.944427000000000E-01      1.175312000000000E+02
5480000000.000000      4.962616000000000E-01     -1.128750000000000E+02      1.914597000000000E-01      8.705078000000000E+01
5500000000.000000      4.979553000000000E-01     -1.152539000000000E+02      1.906967000000000E-01      5.567187000000000E+01
5520000000.000000      4.940338000000000E-01     -1.174883000000000E+02      1.915970000000000E-01      2.402148000000000E+01
5540000000.000000      4.885101000000000E-01     -1.194687000000000E+02      1.935501000000000E-01     -7.036865000000000E+00
5560000000.000000      4.813385000000000E-01     -1.211680000000000E+02      1.984406000000000E-01     -3.536133000000000E+01
5580000000.000000      4.739227000000000E-01     -1.225977000000000E+02      2.076721000000000E-01     -6.384960000000000E+01
5600000000.000000      4.694824000000000E-01     -1.235312000000000E+02      2.115326000000000E-01     -9.130468000000000E+01
5620000000.000000      4.651337000000000E-01     -1.243125000000000E+02      2.156219000000000E-01     -1.178320000000000E+02
5640000000.000000      4.612427000000000E-01     -1.247617000000000E+02      2.165070000000000E-01     -1.442422000000000E+02
5660000000.000000      4.603577000000000E-01     -1.249023000000000E+02      2.119522000000000E-01     -1.700703000000000E+02
5680000000.000000      4.641571000000000E-01     -1.250195000000000E+02      2.065277000000000E-01      1.632891000000000E+02
5700000000.000000      4.740448000000000E-01     -1.257461000000000E+02      1.985016000000000E-01      1.361016000000000E+02
5720000000.000000      4.843903000000000E-01     -1.271758000000000E+02      1.900406000000000E-01      1.085742000000000E+02
5740000000.000000      4.920959000000000E-01     -1.297109000000000E+02      1.835556000000000E-01      7.853906000000000E+01
5760000000.000000      4.929657000000000E-01     -1.325625000000000E+02      1.754532000000000E-01      4.616211000000000E+01
5780000000.000000      4.837952000000000E-01     -1.350547000000000E+02      1.691284000000000E-01      1.353369000000000E+01
5800000000.000000      4.714966000000000E-01     -1.366328000000000E+02      1.663971000000000E-01     -1.755078000000000E+01
5820000000.000000      4.642487000000000E-01     -1.371406000000000E+02      1.738129000000000E-01     -4.835351000000000E+01
5840000000.000000      4.636230000000000E-01     -1.379688000000000E+02      1.837463000000000E-01     -7.953125000000000E+01
5860000000.000000      4.686127000000000E-01     -1.388906000000000E+02      1.902390000000000E-01     -1.086250000000000E+02
5880000000.000000      4.736023000000000E-01     -1.406563000000000E+02      1.965637000000000E-01     -1.365234000000000E+02
5900000000.000000      4.751129000000000E-01     -1.425469000000000E+02      2.023315000000000E-01     -1.633203000000000E+02
5920000000.000000      4.715576000000000E-01     -1.443672000000000E+02      2.040558000000000E-01      1.699922000000000E+02
5940000000.000000      4.678650000000000E-01     -1.456875000000000E+02      1.989136000000000E-01      1.431406000000000E+02
5960000000.000000      4.651031000000000E-01     -1.470781000000000E+02      1.898804000000000E-01      1.177266000000000E+02
5980000000.000000      4.593964000000000E-01     -1.485000000000000E+02      1.830444000000000E-01      9.128515000000000E+01
6000000000.000000      4.510651000000000E-01     -1.504766000000000E+02      1.728058000000000E-01      6.233788000000000E+01
6020000000.000000      4.387207000000000E-01     -1.520625000000000E+02      1.600494000000000E-01      3.200586000000000E+01
6040000000.000000      4.246063000000000E-01     -1.530469000000000E+02      1.455307000000000E-01      1.143921000000000E+00
6060000000.000000      4.140472000000000E-01     -1.533984000000000E+02      1.388626000000000E-01     -2.891406000000000E+01
6080000000.000000      4.095612000000000E-01     -1.529297000000000E+02      1.439819000000000E-01     -6.042187000000000E+01
