! Network Analyzer HP8722D
! Hewlett-Packard
! Data name: Linha com CNT
! Saver's name: Rodrigo Anjos
! Comments: Teste de deteccao de acetona 0-100ppm a partir de cilindro
! Time and date: 10/9/2025 15:18
!              Frequency                     S11                                                   S21                                                   S12                                                   S22
# HZ  S  MA R 50
3000000000.000000      6.433411000000000E-01      1.091455000000000E+01      1.559067000000000E-01      5.004101000000000E+01
3020000000.000000      6.458740000000000E-01      9.910645000000000E+00      1.600800000000000E-01      2.007813000000000E+01
3040000000.000000      6.498718000000000E-01      9.265137000000000E+00      1.607208000000000E-01     -9.253418000000000E+00
3060000000.000000      6.549988000000000E-01      7.948486000000000E+00      1.612167000000000E-01     -3.879492000000000E+01
3080000000.000000      6.548462000000000E-01      6.733154000000000E+00      1.575775000000000E-01     -6.771484000000000E+01
3100000000.000000      6.557007000000000E-01      5.565918000000000E+00      1.568832000000000E-01     -9.504297000000000E+01
3120000000.000000      6.571045000000000E-01      4.442383000000000E+00      1.573257000000000E-01     -1.237461000000000E+02
3140000000.000000      6.580200000000000E-01      3.471680000000000E+00      1.548004000000000E-01     -1.521328000000000E+02
3160000000.000000      6.594849000000000E-01      2.322144000000000E+00      1.516266000000000E-01      1.792187000000000E+02
3180000000.000000      6.596985000000000E-01      1.348572000000000E+00      1.469803000000000E-01      1.516328000000000E+02
3200000000.000000      6.574402000000000E-01      2.183533000000000E-01      1.440659000000000E-01      1.237773000000000E+02
3220000000.000000      6.508179000000000E-01     -8.541870000000000E-01      1.372528000000000E-01      9.554688000000000E+01
3240000000.000000      6.455078000000000E-01     -1.711121000000000E+00      1.324081000000000E-01      7.132813000000000E+01
3260000000.000000      6.430969000000000E-01     -2.114868000000000E+00      1.407471000000000E-01      4.612695000000000E+01
3280000000.000000      6.396484000000000E-01     -2.552979000000000E+00      1.478958000000000E-01      1.637598000000000E+01
3300000000.000000      6.464233000000000E-01     -2.933350000000000E+00      1.515961000000000E-01     -1.254639000000000E+01
3320000000.000000      6.528320000000000E-01     -3.698364000000000E+00      1.587296000000000E-01     -4.199414000000000E+01
3340000000.000000      6.618347000000000E-01     -4.619873000000000E+00      1.629410000000000E-01     -7.243359000000000E+01
3360000000.000000      6.678772000000000E-01     -5.850342000000000E+00      1.648026000000000E-01     -1.029570000000000E+02
3380000000.000000      6.702271000000000E-01     -7.035400000000000E+00      1.631470000000000E-01     -1.326562000000000E+02
3400000000.000000      6.683044000000000E-01     -8.370605000000000E+00      1.627045000000000E-01     -1.612422000000000E+02
3420000000.000000      6.667175000000000E-01     -9.414063000000000E+00      1.610031000000000E-01      1.694297000000000E+02
3440000000.000000      6.646729000000000E-01     -1.072412000000000E+01      1.572723000000000E-01      1.419219000000000E+02
3460000000.000000      6.629028000000000E-01     -1.143848000000000E+01      1.584930000000000E-01      1.138281000000000E+02
3480000000.000000      6.613159000000000E-01     -1.271680000000000E+01      1.559601000000000E-01      8.469141000000000E+01
3500000000.000000      6.605225000000000E-01     -1.332666000000000E+01      1.553192000000000E-01      5.739648000000000E+01
3520000000.000000      6.625061000000000E-01     -1.454346000000000E+01      1.551971000000000E-01      2.795703000000000E+01
3540000000.000000      6.627197000000000E-01     -1.554590000000000E+01      1.511612000000000E-01     -7.031250000000000E-01
3560000000.000000      6.634827000000000E-01     -1.634082000000000E+01      1.524658000000000E-01     -2.832617000000000E+01
3580000000.000000      6.612244000000000E-01     -1.738477000000000E+01      1.522446000000000E-01     -5.720898000000000E+01
3600000000.000000      6.580200000000000E-01     -1.842969000000000E+01      1.525803000000000E-01     -8.446875000000000E+01
3620000000.000000      6.590576000000000E-01     -1.914844000000000E+01      1.562271000000000E-01     -1.129219000000000E+02
3640000000.000000      6.589050000000000E-01     -1.998633000000000E+01      1.573181000000000E-01     -1.414844000000000E+02
3660000000.000000      6.589050000000000E-01     -2.114941000000000E+01      1.596298000000000E-01     -1.698984000000000E+02
3680000000.000000      6.606445000000000E-01     -2.200293000000000E+01      1.570740000000000E-01      1.614453000000000E+02
3700000000.000000      6.592407000000000E-01     -2.330566000000000E+01      1.551437000000000E-01      1.348828000000000E+02
3720000000.000000      6.551514000000000E-01     -2.443652000000000E+01      1.577911000000000E-01      1.066523000000000E+02
3740000000.000000      6.577759000000000E-01     -2.515527000000000E+01      1.544342000000000E-01      7.870312000000000E+01
3760000000.000000      6.567993000000000E-01     -2.580175000000000E+01      1.552658000000000E-01      5.178711000000000E+01
3780000000.000000      6.567078000000000E-01     -2.661621000000000E+01      1.574783000000000E-01      2.261621000000000E+01
3800000000.000000      6.616516000000000E-01     -2.734375000000000E+01      1.558533000000000E-01     -6.900879000000000E+00
3820000000.000000      6.611633000000000E-01     -2.870117000000000E+01      1.538620000000000E-01     -3.552929000000000E+01
3840000000.000000      6.622925000000000E-01     -2.990527000000000E+01      1.538544000000000E-01     -6.388866000000000E+01
3860000000.000000      6.614380000000000E-01     -3.120898000000000E+01      1.548462000000000E-01     -9.312109000000000E+01
3880000000.000000      6.594543000000000E-01     -3.211523000000000E+01      1.524734000000000E-01     -1.218008000000000E+02
3900000000.000000      6.600952000000000E-01     -3.295898000000000E+01      1.538849000000000E-01     -1.490625000000000E+02
3920000000.000000      6.616211000000000E-01     -3.385547000000000E+01      1.567688000000000E-01     -1.779609000000000E+02
3940000000.000000      6.628418000000000E-01     -3.495898000000000E+01      1.549454000000000E-01      1.538672000000000E+02
3960000000.000000      6.617126000000000E-01     -3.609961000000000E+01      1.561508000000000E-01      1.259023000000000E+02
3980000000.000000      6.582031000000000E-01     -3.727148000000000E+01      1.513138000000000E-01      9.769531000000000E+01
4000000000.000000      6.534119000000000E-01     -3.820703000000000E+01      1.498718000000000E-01      7.301171000000000E+01
4020000000.000000      6.506042000000000E-01     -3.871289000000000E+01      1.572800000000000E-01      4.502149000000000E+01
4040000000.000000      6.561279000000000E-01     -3.936914000000000E+01      1.569977000000000E-01      1.440283000000000E+01
4060000000.000000      6.638184000000000E-01     -4.034765000000000E+01      1.548615000000000E-01     -1.454492000000000E+01
4080000000.000000      6.707458000000000E-01     -4.185156000000000E+01      1.542664000000000E-01     -4.462891000000000E+01
4100000000.000000      6.738586000000000E-01     -4.351563000000000E+01      1.524200000000000E-01     -7.421093000000000E+01
4120000000.000000      6.713867000000000E-01     -4.504296000000000E+01      1.496735000000000E-01     -1.048555000000000E+02
4140000000.000000      6.664734000000000E-01     -4.638476000000000E+01      1.432571000000000E-01     -1.328281000000000E+02
4160000000.000000      6.617737000000000E-01     -4.754296000000000E+01      1.463470000000000E-01     -1.587891000000000E+02
4180000000.000000      6.598816000000000E-01     -4.846874000000000E+01      1.509781000000000E-01      1.719766000000000E+02
4200000000.000000      6.580811000000000E-01     -4.956640000000000E+01      1.493683000000000E-01      1.441250000000000E+02
4220000000.000000      6.597290000000000E-01     -5.050390000000000E+01      1.527481000000000E-01      1.163867000000000E+02
4240000000.000000      6.572571000000000E-01     -5.179688000000000E+01      1.499634000000000E-01      8.732813000000000E+01
4260000000.000000      6.557922000000000E-01     -5.299023000000000E+01      1.459961000000000E-01      6.114258000000000E+01
4280000000.000000      6.523438000000000E-01     -5.371094000000000E+01      1.478424000000000E-01      3.403906000000000E+01
4300000000.000000      6.517639000000000E-01     -5.432812000000000E+01      1.465454000000000E-01      5.747070000000000E+00
4320000000.000000      6.538696000000000E-01     -5.525391000000000E+01      1.466980000000000E-01     -2.329004000000000E+01
4340000000.000000      6.555176000000000E-01     -5.644531000000000E+01      1.464539000000000E-01     -5.299023000000000E+01
4360000000.000000      6.575012000000000E-01     -5.785156000000000E+01      1.459427000000000E-01     -8.375391000000000E+01
4380000000.000000      6.561584000000000E-01     -5.909765000000000E+01      1.435318000000000E-01     -1.143711000000000E+02
4400000000.000000      6.528931000000000E-01     -6.025781000000000E+01      1.433258000000000E-01     -1.430703000000000E+02
4420000000.000000      6.526489000000000E-01     -6.101953000000000E+01      1.485519000000000E-01     -1.725703000000000E+02
4440000000.000000      6.545715000000000E-01     -6.195313000000000E+01      1.508255000000000E-01      1.576562000000000E+02
4460000000.000000      6.564026000000000E-01     -6.308984000000000E+01      1.526794000000000E-01      1.286406000000000E+02
4480000000.000000      6.571045000000000E-01     -6.475780000000000E+01      1.524124000000000E-01      9.982031000000000E+01
4500000000.000000      6.545105000000000E-01     -6.594140000000000E+01      1.500473000000000E-01      7.269921000000000E+01
4520000000.000000      6.491394000000000E-01     -6.706640000000000E+01      1.483765000000000E-01      4.515038000000000E+01
4540000000.000000      6.466370000000000E-01     -6.816015000000000E+01      1.442642000000000E-01      1.805273000000000E+01
4560000000.000000      6.469421000000000E-01     -6.908593000000000E+01      1.444702000000000E-01     -8.748047000000000E+00
4580000000.000000      6.479797000000000E-01     -7.005468000000000E+01      1.438293000000000E-01     -3.897851000000000E+01
4600000000.000000      6.517334000000000E-01     -7.102344000000000E+01      1.400833000000000E-01     -6.915234000000000E+01
4620000000.000000      6.523743000000000E-01     -7.220703000000000E+01      1.388474000000000E-01     -1.014219000000000E+02
4640000000.000000      6.529236000000000E-01     -7.335546000000000E+01      1.336212000000000E-01     -1.338359000000000E+02
4660000000.000000      6.518250000000000E-01     -7.428124000000000E+01      1.343155000000000E-01     -1.635078000000000E+02
4680000000.000000      6.544189000000000E-01     -7.494922000000000E+01      1.404190000000000E-01      1.649453000000000E+02
4700000000.000000      6.546021000000000E-01     -7.599999000000000E+01      1.442871000000000E-01      1.340703000000000E+02
4720000000.000000      6.580505000000000E-01     -7.731640000000000E+01      1.506500000000000E-01      1.049258000000000E+02
4740000000.000000      6.636047000000000E-01     -7.884375000000000E+01      1.549988000000000E-01      7.597656000000000E+01
4760000000.000000      6.650391000000000E-01     -8.043749000000000E+01      1.563110000000000E-01      4.845312000000000E+01
4780000000.000000      6.687927000000000E-01     -8.173046000000000E+01      1.552048000000000E-01      2.101465000000000E+01
4800000000.000000      6.719055000000000E-01     -8.361328000000000E+01      1.490173000000000E-01     -5.443848000000000E+00
4820000000.000000      6.675415000000000E-01     -8.549999000000000E+01      1.400757000000000E-01     -3.147363000000000E+01
4840000000.000000      6.618652000000000E-01     -8.707031000000000E+01      1.295090000000000E-01     -5.647851000000000E+01
4860000000.000000      6.537781000000000E-01     -8.885937000000000E+01      1.221542000000000E-01     -8.296875000000000E+01
4880000000.000000      6.410522000000000E-01     -9.005077000000000E+01      1.081734000000000E-01     -1.109414000000000E+02
4900000000.000000      6.278076000000000E-01     -9.084764000000000E+01      9.617615000000000E-02     -1.352344000000000E+02
4920000000.000000      6.176147000000000E-01     -9.135157000000000E+01      9.823608000000000E-02     -1.597734000000000E+02
4940000000.000000      6.147461000000000E-01     -9.124609000000000E+01      1.076279000000000E-01      1.676328000000000E+02
4960000000.000000      6.199341000000000E-01     -9.092577000000000E+01      1.148071000000000E-01      1.328828000000000E+02
4980000000.000000      6.343689000000000E-01     -9.152735000000000E+01      1.242561000000000E-01      9.976171000000000E+01
5000000000.000000      6.463013000000000E-01     -9.295702000000000E+01      1.350250000000000E-01      6.733593000000000E+01
5020000000.000000      6.523743000000000E-01     -9.475780000000000E+01      1.415482000000000E-01      3.652344000000000E+01
5040000000.000000      6.521301000000000E-01     -9.660936000000000E+01      1.441345000000000E-01      1.030225000000000E+01
5060000000.000000      6.438293000000000E-01     -9.817186000000000E+01      1.521072000000000E-01     -1.365234000000000E+01
5080000000.000000      6.403503000000000E-01     -9.927343000000000E+01      1.592636000000000E-01     -3.964062000000000E+01
5100000000.000000      6.358337000000000E-01     -1.004140000000000E+02      1.600723000000000E-01     -6.533203000000000E+01
5120000000.000000      6.322327000000000E-01     -1.013047000000000E+02      1.610947000000000E-01     -9.083202000000000E+01
5140000000.000000      6.350708000000000E-01     -1.021601000000000E+02      1.557312000000000E-01     -1.184141000000000E+02
5160000000.000000      6.346436000000000E-01     -1.031758000000000E+02      1.492844000000000E-01     -1.459219000000000E+02
5180000000.000000      6.382446000000000E-01     -1.039922000000000E+02      1.430359000000000E-01     -1.756953000000000E+02
5200000000.000000      6.442566000000000E-01     -1.049375000000000E+02      1.360321000000000E-01      1.531563000000000E+02
5220000000.000000      6.477051000000000E-01     -1.061797000000000E+02      1.333847000000000E-01      1.212422000000000E+02
5240000000.000000      6.516113000000000E-01     -1.074336000000000E+02      1.337204000000000E-01      8.773438000000000E+01
5260000000.000000      6.531982000000000E-01     -1.090703000000000E+02      1.375580000000000E-01      5.505664000000000E+01
5280000000.000000      6.523132000000000E-01     -1.106797000000000E+02      1.421432000000000E-01      2.401855000000000E+01
5300000000.000000      6.489868000000000E-01     -1.119414000000000E+02      1.480637000000000E-01     -3.551392000000000E+00
5320000000.000000      6.460266000000000E-01     -1.130469000000000E+02      1.599808000000000E-01     -2.980273000000000E+01
5340000000.000000      6.447144000000000E-01     -1.142305000000000E+02      1.667633000000000E-01     -5.700585000000000E+01
5360000000.000000      6.450195000000000E-01     -1.153945000000000E+02      1.709747000000000E-01     -8.213671000000000E+01
5380000000.000000      6.451416000000000E-01     -1.163867000000000E+02      1.718674000000000E-01     -1.077344000000000E+02
5400000000.000000      6.451721000000000E-01     -1.176289000000000E+02      1.653442000000000E-01     -1.327500000000000E+02
5420000000.000000      6.466064000000000E-01     -1.184375000000000E+02      1.621780000000000E-01     -1.581563000000000E+02
5440000000.000000      6.499939000000000E-01     -1.192539000000000E+02      1.538620000000000E-01      1.738516000000000E+02
5460000000.000000      6.555481000000000E-01     -1.202656000000000E+02      1.418839000000000E-01      1.449141000000000E+02
5480000000.000000      6.594849000000000E-01     -1.213984000000000E+02      1.333542000000000E-01      1.136328000000000E+02
5500000000.000000      6.647339000000000E-01     -1.232656000000000E+02      1.271057000000000E-01      8.000391000000000E+01
5520000000.000000      6.640625000000000E-01     -1.250703000000000E+02      1.246643000000000E-01      4.524414000000000E+01
5540000000.000000      6.622314000000000E-01     -1.270039000000000E+02      1.249046000000000E-01      1.155322000000000E+01
5560000000.000000      6.567078000000000E-01     -1.286719000000000E+02      1.315765000000000E-01     -1.793555000000000E+01
5580000000.000000      6.511841000000000E-01     -1.303984000000000E+02      1.451569000000000E-01     -4.683007000000000E+01
5600000000.000000      6.485596000000000E-01     -1.316172000000000E+02      1.545868000000000E-01     -7.421093000000000E+01
5620000000.000000      6.413574000000000E-01     -1.327734000000000E+02      1.641312000000000E-01     -9.944139000000000E+01
5640000000.000000      6.390381000000000E-01     -1.338672000000000E+02      1.697998000000000E-01     -1.245625000000000E+02
5660000000.000000      6.348572000000000E-01     -1.345234000000000E+02      1.699295000000000E-01     -1.484688000000000E+02
5680000000.000000      6.326599000000000E-01     -1.354609000000000E+02      1.674042000000000E-01     -1.727578000000000E+02
5700000000.000000      6.344910000000000E-01     -1.362187000000000E+02      1.598129000000000E-01      1.624531000000000E+02
5720000000.000000      6.416321000000000E-01     -1.371250000000000E+02      1.504898000000000E-01      1.367344000000000E+02
5740000000.000000      6.466980000000000E-01     -1.386172000000000E+02      1.368484000000000E-01      1.076601000000000E+02
5760000000.000000      6.498108000000000E-01     -1.407031000000000E+02      1.200867000000000E-01      7.542578000000000E+01
5780000000.000000      6.444702000000000E-01     -1.430781000000000E+02      1.044846000000000E-01      4.117188000000000E+01
5800000000.000000      6.337891000000000E-01     -1.450547000000000E+02      9.697723000000000E-02      6.236084000000000E+00
5820000000.000000      6.216125000000000E-01     -1.458594000000000E+02      1.027679000000000E-01     -2.884961000000000E+01
5840000000.000000      6.179504000000000E-01     -1.469297000000000E+02      1.156006000000000E-01     -6.438281000000000E+01
5860000000.000000      6.163025000000000E-01     -1.474219000000000E+02      1.298904000000000E-01     -9.527735000000000E+01
5880000000.000000      6.192627000000000E-01     -1.483984000000000E+02      1.444626000000000E-01     -1.241914000000000E+02
5900000000.000000      6.231689000000000E-01     -1.494844000000000E+02      1.544495000000000E-01     -1.502187000000000E+02
5920000000.000000      6.247864000000000E-01     -1.509063000000000E+02      1.626511000000000E-01     -1.745625000000000E+02
5940000000.000000      6.242371000000000E-01     -1.522578000000000E+02      1.624298000000000E-01      1.609375000000000E+02
5960000000.000000      6.223755000000000E-01     -1.537891000000000E+02      1.575012000000000E-01      1.392812000000000E+02
5980000000.000000      6.183472000000000E-01     -1.552813000000000E+02      1.527939000000000E-01      1.160352000000000E+02
6000000000.000000      6.103821000000000E-01     -1.569219000000000E+02      1.406479000000000E-01      9.145311000000000E+01
6020000000.000000      6.007385000000000E-01     -1.583594000000000E+02      1.243935000000000E-01      6.602734000000000E+01
6040000000.000000      5.900879000000000E-01     -1.599922000000000E+02      1.044464000000000E-01      3.909961000000000E+01
6060000000.000000      5.792542000000000E-01     -1.609531000000000E+02      8.981323000000000E-02      1.088184000000000E+01
6080000000.000000      5.722656000000000E-01     -1.613125000000000E+02      8.577347000000000E-02     -2.360058000000000E+01
