! Network Analyzer HP8722D
! Hewlett-Packard
! Data name: Linha com CNT
! Saver's name: Rodrigo Anjos
! Comments: Teste de deteccao de acetona 0-100ppm a partir de cilindro
! Time and date: 10/9/2025 16:32
!              Frequency                     S11                                                   S21                                                   S12                                                   S22
# HZ  S  MA R 50
3000000000.000000      4.569397000000000E-01      1.533105000000000E+01      2.416382000000000E-01      3.440234000000000E+01
3020000000.000000      4.669495000000000E-01      1.463086000000000E+01      2.460632000000000E-01      4.961670000000000E+00
3040000000.000000      4.741669000000000E-01      1.372559000000000E+01      2.460022000000000E-01     -2.422168000000000E+01
3060000000.000000      4.789429000000000E-01      1.188721000000000E+01      2.462387000000000E-01     -5.356835000000000E+01
3080000000.000000      4.766235000000000E-01      1.027490000000000E+01      2.421188000000000E-01     -8.248047000000000E+01
3100000000.000000      4.732361000000000E-01      8.752930000000000E+00      2.403641000000000E-01     -1.102109000000000E+02
3120000000.000000      4.709167000000000E-01      7.896240000000000E+00      2.404099000000000E-01     -1.390312000000000E+02
3140000000.000000      4.723358000000000E-01      6.924072000000000E+00      2.363968000000000E-01     -1.674766000000000E+02
3160000000.000000      4.728851000000000E-01      5.788330000000000E+00      2.326889000000000E-01      1.640234000000000E+02
3180000000.000000      4.677734000000000E-01      4.594971000000000E+00      2.265930000000000E-01      1.359453000000000E+02
3200000000.000000      4.586487000000000E-01      3.825928000000000E+00      2.232361000000000E-01      1.073672000000000E+02
3220000000.000000      4.469452000000000E-01      3.727051000000000E+00      2.135086000000000E-01      7.883984000000000E+01
3240000000.000000      4.411316000000000E-01      4.511230000000000E+00      2.069778000000000E-01      5.367188000000000E+01
3260000000.000000      4.420013000000000E-01      5.667480000000000E+00      2.162018000000000E-01      2.770117000000000E+01
3280000000.000000      4.524231000000000E-01      6.405029000000000E+00      2.240829000000000E-01     -1.689148000000000E+00
3300000000.000000      4.701691000000000E-01      6.046387000000000E+00      2.267990000000000E-01     -3.042578000000000E+01
3320000000.000000      4.876709000000000E-01      4.644287000000000E+00      2.347260000000000E-01     -5.932617000000000E+01
3340000000.000000      4.996643000000000E-01      2.639404000000000E+00      2.392349000000000E-01     -8.917969000000000E+01
3360000000.000000      5.046997000000000E-01      3.913879000000000E-01      2.415924000000000E-01     -1.188984000000000E+02
3380000000.000000      5.044861000000000E-01     -1.344482000000000E+00      2.409363000000000E-01     -1.482812000000000E+02
3400000000.000000      4.993439000000000E-01     -2.826294000000000E+00      2.409134000000000E-01     -1.769844000000000E+02
3420000000.000000      4.972382000000000E-01     -3.988037000000000E+00      2.391510000000000E-01      1.539297000000000E+02
3440000000.000000      4.917145000000000E-01     -5.130615000000000E+00      2.341995000000000E-01      1.255820000000000E+02
3460000000.000000      4.871521000000000E-01     -6.215576000000000E+00      2.345581000000000E-01      9.746874000000000E+01
3480000000.000000      4.868774000000000E-01     -7.275879000000000E+00      2.322540000000000E-01      6.834765000000000E+01
3500000000.000000      4.848480000000000E-01     -8.021484000000000E+00      2.303162000000000E-01      4.042382000000000E+01
3520000000.000000      4.842682000000000E-01     -8.967773000000000E+00      2.301483000000000E-01      1.153418000000000E+01
3540000000.000000      4.842834000000000E-01     -9.951172000000000E+00      2.258911000000000E-01     -1.711133000000000E+01
3560000000.000000      4.832764000000000E-01     -1.065283000000000E+01      2.270813000000000E-01     -4.513085000000000E+01
3580000000.000000      4.800415000000000E-01     -1.122803000000000E+01      2.266541000000000E-01     -7.394921000000000E+01
3600000000.000000      4.788055000000000E-01     -1.174316000000000E+01      2.262650000000000E-01     -1.013906000000000E+02
3620000000.000000      4.806976000000000E-01     -1.229541000000000E+01      2.310486000000000E-01     -1.295625000000000E+02
3640000000.000000      4.828796000000000E-01     -1.314258000000000E+01      2.322998000000000E-01     -1.581484000000000E+02
3660000000.000000      4.850769000000000E-01     -1.451709000000000E+01      2.336121000000000E-01      1.734609000000000E+02
3680000000.000000      4.858704000000000E-01     -1.592090000000000E+01      2.321625000000000E-01      1.450547000000000E+02
3700000000.000000      4.818726000000000E-01     -1.734375000000000E+01      2.303391000000000E-01      1.176719000000000E+02
3720000000.000000      4.769287000000000E-01     -1.813867000000000E+01      2.321625000000000E-01      8.929688000000000E+01
3740000000.000000      4.765320000000000E-01     -1.827246000000000E+01      2.271576000000000E-01      6.112109000000000E+01
3760000000.000000      4.785767000000000E-01     -1.842578000000000E+01      2.265396000000000E-01      3.385156000000000E+01
3780000000.000000      4.836578000000000E-01     -1.922559000000000E+01      2.286453000000000E-01      5.410645000000000E+00
3800000000.000000      4.891205000000000E-01     -2.060547000000000E+01      2.277679000000000E-01     -2.379785000000000E+01
3820000000.000000      4.880829000000000E-01     -2.242188000000000E+01      2.255020000000000E-01     -5.247265000000000E+01
3840000000.000000      4.832916000000000E-01     -2.379981000000000E+01      2.253342000000000E-01     -8.094921000000000E+01
3860000000.000000      4.789581000000000E-01     -2.466797000000000E+01      2.261276000000000E-01     -1.100703000000000E+02
3880000000.000000      4.774628000000000E-01     -2.504785000000000E+01      2.226868000000000E-01     -1.389219000000000E+02
3900000000.000000      4.817352000000000E-01     -2.564160000000000E+01      2.221985000000000E-01     -1.665781000000000E+02
3920000000.000000      4.857788000000000E-01     -2.679980000000000E+01      2.243805000000000E-01      1.650781000000000E+02
3940000000.000000      4.869690000000000E-01     -2.837011000000000E+01      2.244339000000000E-01      1.365078000000000E+02
3960000000.000000      4.809265000000000E-01     -2.967480000000000E+01      2.244339000000000E-01      1.081055000000000E+02
3980000000.000000      4.725800000000000E-01     -3.045312000000000E+01      2.184067000000000E-01      7.962109000000000E+01
4000000000.000000      4.674530000000000E-01     -3.051758000000000E+01      2.154922000000000E-01      5.411523000000000E+01
4020000000.000000      4.704132000000000E-01     -3.039160000000000E+01      2.234955000000000E-01      2.629980000000000E+01
4040000000.000000      4.840088000000000E-01     -3.083593000000000E+01      2.241592000000000E-01     -4.211914000000000E+00
4060000000.000000      4.975281000000000E-01     -3.248047000000000E+01      2.200699000000000E-01     -3.308984000000000E+01
4080000000.000000      5.052490000000000E-01     -3.528711000000000E+01      2.200089000000000E-01     -6.180078000000000E+01
4100000000.000000      4.988861000000000E-01     -3.799805000000000E+01      2.201309000000000E-01     -9.125391000000000E+01
4120000000.000000      4.882355000000000E-01     -4.002734000000000E+01      2.170868000000000E-01     -1.215312000000000E+02
4140000000.000000      4.750061000000000E-01     -4.065820000000000E+01      2.091293000000000E-01     -1.498359000000000E+02
4160000000.000000      4.700165000000000E-01     -4.111914000000000E+01      2.113876000000000E-01     -1.764141000000000E+02
4180000000.000000      4.688568000000000E-01     -4.161328000000000E+01      2.160492000000000E-01      1.543984000000000E+02
4200000000.000000      4.691467000000000E-01     -4.264062000000000E+01      2.134247000000000E-01      1.257344000000000E+02
4220000000.000000      4.691620000000000E-01     -4.365430000000000E+01      2.149200000000000E-01      9.769531000000000E+01
4240000000.000000      4.632263000000000E-01     -4.451562000000000E+01      2.108994000000000E-01      6.863671000000000E+01
4260000000.000000      4.610291000000000E-01     -4.479297000000000E+01      2.059937000000000E-01      4.155663000000000E+01
4280000000.000000      4.599915000000000E-01     -4.496484000000000E+01      2.080460000000000E-01      1.410059000000000E+01
4300000000.000000      4.633484000000000E-01     -4.519921000000000E+01      2.075119000000000E-01     -1.442529000000000E+01
4320000000.000000      4.698486000000000E-01     -4.620313000000000E+01      2.076797000000000E-01     -4.346875000000000E+01
4340000000.000000      4.747314000000000E-01     -4.791406000000000E+01      2.074127000000000E-01     -7.274219000000000E+01
4360000000.000000      4.740295000000000E-01     -4.951172000000000E+01      2.070847000000000E-01     -1.027148000000000E+02
4380000000.000000      4.701080000000000E-01     -5.073828000000000E+01      2.048569000000000E-01     -1.328750000000000E+02
4400000000.000000      4.690704000000000E-01     -5.154687000000000E+01      2.031555000000000E-01     -1.614687000000000E+02
4420000000.000000      4.711609000000000E-01     -5.206445000000000E+01      2.071457000000000E-01      1.696484000000000E+02
4440000000.000000      4.768219000000000E-01     -5.322266000000000E+01      2.085800000000000E-01      1.398438000000000E+02
4460000000.000000      4.786835000000000E-01     -5.472851000000000E+01      2.077866000000000E-01      1.106172000000000E+02
4480000000.000000      4.743500000000000E-01     -5.662499000000000E+01      2.062378000000000E-01      8.169922000000000E+01
4500000000.000000      4.670105000000000E-01     -5.782617000000000E+01      2.030792000000000E-01      5.372851000000000E+01
4520000000.000000      4.596405000000000E-01     -5.836132000000000E+01      2.000809000000000E-01      2.530957000000000E+01
4540000000.000000      4.598846000000000E-01     -5.858007000000000E+01      1.949615000000000E-01     -2.772705000000000E+00
4560000000.000000      4.631042000000000E-01     -5.878515000000000E+01      1.945114000000000E-01     -3.025976000000000E+01
4580000000.000000      4.745483000000000E-01     -5.992188000000000E+01      1.958084000000000E-01     -6.042382000000000E+01
4600000000.000000      4.807892000000000E-01     -6.124609000000000E+01      1.936569000000000E-01     -9.069921000000000E+01
4620000000.000000      4.827881000000000E-01     -6.259766000000000E+01      1.932220000000000E-01     -1.215039000000000E+02
4640000000.000000      4.846649000000000E-01     -6.391602000000000E+01      1.897049000000000E-01     -1.527422000000000E+02
4660000000.000000      4.860992000000000E-01     -6.518749000000000E+01      1.902542000000000E-01      1.781484000000000E+02
4680000000.000000      4.899292000000000E-01     -6.614452000000000E+01      1.958847000000000E-01      1.480234000000000E+02
4700000000.000000      4.953766000000000E-01     -6.756640000000000E+01      1.975937000000000E-01      1.181250000000000E+02
4720000000.000000      4.981995000000000E-01     -6.969921000000000E+01      2.007446000000000E-01      8.972656000000000E+01
4740000000.000000      5.017700000000000E-01     -7.184375000000000E+01      2.033157000000000E-01      6.092968000000000E+01
4760000000.000000      4.988556000000000E-01     -7.412109000000000E+01      2.027588000000000E-01      3.297070000000000E+01
4780000000.000000      4.964447000000000E-01     -7.598046000000000E+01      1.993484000000000E-01      4.746094000000000E+00
4800000000.000000      4.915314000000000E-01     -7.855469000000000E+01      1.928482000000000E-01     -2.331445000000000E+01
4820000000.000000      4.822540000000000E-01     -8.072657000000000E+01      1.831055000000000E-01     -5.084765000000000E+01
4840000000.000000      4.640961000000000E-01     -8.243359000000000E+01      1.724014000000000E-01     -7.832812000000000E+01
4860000000.000000      4.461060000000000E-01     -8.333202000000000E+01      1.647415000000000E-01     -1.072969000000000E+02
4880000000.000000      4.279785000000000E-01     -8.277735000000000E+01      1.508331000000000E-01     -1.370781000000000E+02
4900000000.000000      4.183960000000000E-01     -8.116014000000000E+01      1.375732000000000E-01     -1.626562000000000E+02
4920000000.000000      4.206848000000000E-01     -7.925390000000000E+01      1.423721000000000E-01      1.727109000000000E+02
4940000000.000000      4.362640000000000E-01     -7.795312000000000E+01      1.548538000000000E-01      1.424766000000000E+02
4960000000.000000      4.604797000000000E-01     -7.822266000000000E+01      1.634903000000000E-01      1.110273000000000E+02
4980000000.000000      4.825287000000000E-01     -8.049999000000000E+01      1.725998000000000E-01      8.128906000000000E+01
5000000000.000000      4.919891000000000E-01     -8.369141000000000E+01      1.834030000000000E-01      5.147655000000000E+01
5020000000.000000      4.899445000000000E-01     -8.657421000000000E+01      1.893768000000000E-01      2.196972000000000E+01
5040000000.000000      4.795837000000000E-01     -8.883204000000000E+01      1.915359000000000E-01     -4.794189000000000E+00
5060000000.000000      4.685059000000000E-01     -8.993359000000000E+01      1.965179000000000E-01     -3.032422000000000E+01
5080000000.000000      4.624176000000000E-01     -9.062891000000000E+01      2.018509000000000E-01     -5.747265000000000E+01
5100000000.000000      4.618378000000000E-01     -9.113281000000000E+01      1.996613000000000E-01     -8.479687000000000E+01
5120000000.000000      4.639587000000000E-01     -9.191015000000000E+01      1.980591000000000E-01     -1.114297000000000E+02
5140000000.000000      4.666901000000000E-01     -9.276171000000000E+01      1.943817000000000E-01     -1.399141000000000E+02
5160000000.000000      4.696960000000000E-01     -9.375000000000000E+01      1.888275000000000E-01     -1.687422000000000E+02
5180000000.000000      4.750977000000000E-01     -9.478516000000000E+01      1.848450000000000E-01      1.610937000000000E+02
5200000000.000000      4.810333000000000E-01     -9.594921000000000E+01      1.811600000000000E-01      1.305391000000000E+02
5220000000.000000      4.851837000000000E-01     -9.758202000000000E+01      1.812897000000000E-01      9.982811000000000E+01
5240000000.000000      4.868469000000000E-01     -9.912109000000000E+01      1.846466000000000E-01      6.874218000000000E+01
5260000000.000000      4.856415000000000E-01     -1.007031000000000E+02      1.892624000000000E-01      3.789453000000000E+01
5280000000.000000      4.819183000000000E-01     -1.021133000000000E+02      1.939545000000000E-01      8.327637000000000E+00
5300000000.000000      4.800262000000000E-01     -1.031562000000000E+02      1.970978000000000E-01     -1.918359000000000E+01
5320000000.000000      4.790344000000000E-01     -1.041680000000000E+02      2.052917000000000E-01     -4.573047000000000E+01
5340000000.000000      4.789886000000000E-01     -1.054062000000000E+02      2.089615000000000E-01     -7.323047000000000E+01
5360000000.000000      4.806366000000000E-01     -1.068242000000000E+02      2.085342000000000E-01     -9.937889000000000E+01
5380000000.000000      4.808502000000000E-01     -1.079844000000000E+02      2.069626000000000E-01     -1.258672000000000E+02
5400000000.000000      4.811249000000000E-01     -1.090898000000000E+02      2.009277000000000E-01     -1.525625000000000E+02
5420000000.000000      4.832764000000000E-01     -1.097734000000000E+02      1.954575000000000E-01     -1.795391000000000E+02
5440000000.000000      4.881744000000000E-01     -1.104140000000000E+02      1.893005000000000E-01      1.513125000000000E+02
5460000000.000000      4.958496000000000E-01     -1.116328000000000E+02      1.793137000000000E-01      1.219141000000000E+02
5480000000.000000      5.014038000000000E-01     -1.133398000000000E+02      1.754684000000000E-01      9.111328000000000E+01
5500000000.000000      5.036011000000000E-01     -1.155937000000000E+02      1.743774000000000E-01      5.939062000000000E+01
5520000000.000000      4.994812000000000E-01     -1.177812000000000E+02      1.750793000000000E-01      2.728418000000000E+01
5540000000.000000      4.939575000000000E-01     -1.196875000000000E+02      1.762848000000000E-01     -3.942749000000000E+00
5560000000.000000      4.872742000000000E-01     -1.214492000000000E+02      1.817322000000000E-01     -3.254101000000000E+01
5580000000.000000      4.799194000000000E-01     -1.228203000000000E+02      1.911392000000000E-01     -6.083008000000000E+01
5600000000.000000      4.748383000000000E-01     -1.238555000000000E+02      1.961060000000000E-01     -8.836329000000000E+01
5620000000.000000      4.702606000000000E-01     -1.247227000000000E+02      1.999130000000000E-01     -1.146406000000000E+02
5640000000.000000      4.668274000000000E-01     -1.251015000000000E+02      2.016983000000000E-01     -1.408516000000000E+02
5660000000.000000      4.646759000000000E-01     -1.253047000000000E+02      1.984253000000000E-01     -1.663359000000000E+02
5680000000.000000      4.696350000000000E-01     -1.255078000000000E+02      1.937332000000000E-01      1.675625000000000E+02
5700000000.000000      4.794617000000000E-01     -1.260352000000000E+02      1.857452000000000E-01      1.405625000000000E+02
5720000000.000000      4.894104000000000E-01     -1.275781000000000E+02      1.772385000000000E-01      1.132734000000000E+02
5740000000.000000      4.974670000000000E-01     -1.299375000000000E+02      1.700974000000000E-01      8.326172000000000E+01
5760000000.000000      4.967041000000000E-01     -1.328438000000000E+02      1.609497000000000E-01      5.061718000000000E+01
5780000000.000000      4.882965000000000E-01     -1.352969000000000E+02      1.528397000000000E-01      1.758203000000000E+01
5800000000.000000      4.761505000000000E-01     -1.368828000000000E+02      1.503525000000000E-01     -1.374023000000000E+01
5820000000.000000      4.685364000000000E-01     -1.375234000000000E+02      1.571045000000000E-01     -4.511719000000000E+01
5840000000.000000      4.686127000000000E-01     -1.382109000000000E+02      1.672897000000000E-01     -7.680859000000000E+01
5860000000.000000      4.731293000000000E-01     -1.391094000000000E+02      1.746826000000000E-01     -1.059922000000000E+02
5880000000.000000      4.783630000000000E-01     -1.408750000000000E+02      1.825867000000000E-01     -1.340391000000000E+02
5900000000.000000      4.794464000000000E-01     -1.427031000000000E+02      1.879959000000000E-01     -1.607500000000000E+02
5920000000.000000      4.763794000000000E-01     -1.445625000000000E+02      1.907120000000000E-01      1.730078000000000E+02
5940000000.000000      4.721069000000000E-01     -1.458984000000000E+02      1.863556000000000E-01      1.465000000000000E+02
5960000000.000000      4.687958000000000E-01     -1.472891000000000E+02      1.778946000000000E-01      1.215508000000000E+02
5980000000.000000      4.646149000000000E-01     -1.487500000000000E+02      1.716385000000000E-01      9.548828000000000E+01
6000000000.000000      4.567261000000000E-01     -1.506094000000000E+02      1.611176000000000E-01      6.702343000000000E+01
6020000000.000000      4.438019000000000E-01     -1.522109000000000E+02      1.474075000000000E-01      3.721094000000000E+01
6040000000.000000      4.293671000000000E-01     -1.532266000000000E+02      1.323853000000000E-01      6.518799000000000E+00
6060000000.000000      4.191895000000000E-01     -1.536250000000000E+02      1.248512000000000E-01     -2.353711000000000E+01
6080000000.000000      4.149933000000000E-01     -1.531406000000000E+02      1.292038000000000E-01     -5.553711000000000E+01
