! Network Analyzer HP8722D
! Hewlett-Packard
! Data name: Linha com CNT
! Saver's name: Rodrigo Anjos
! Comments: Teste de deteccao de acetona 0-100ppm a partir de cilindro
! Time and date: 10/9/2025 15:38
!              Frequency                     S11                                                   S21                                                   S12                                                   S22
# HZ  S  MA R 50
3000000000.000000      5.123291000000000E-01      1.328906000000000E+01      2.163010000000000E-01      3.702734000000000E+01
3020000000.000000      5.192566000000000E-01      1.263135000000000E+01      2.201691000000000E-01      7.455566000000000E+00
3040000000.000000      5.259705000000000E-01      1.174951000000000E+01      2.205734000000000E-01     -2.175586000000000E+01
3060000000.000000      5.292358000000000E-01      1.034619000000000E+01      2.208328000000000E-01     -5.120703000000000E+01
3080000000.000000      5.277710000000000E-01      8.796875000000000E+00      2.164001000000000E-01     -8.001171000000000E+01
3100000000.000000      5.264893000000000E-01      7.366211000000000E+00      2.150040000000000E-01     -1.077734000000000E+02
3120000000.000000      5.248108000000000E-01      6.459961000000000E+00      2.147903000000000E-01     -1.363437000000000E+02
3140000000.000000      5.259094000000000E-01      5.406494000000000E+00      2.116241000000000E-01     -1.649531000000000E+02
3160000000.000000      5.270081000000000E-01      4.360107000000000E+00      2.080154000000000E-01      1.665390000000000E+02
3180000000.000000      5.236206000000000E-01      3.216187000000000E+00      2.017670000000000E-01      1.385781000000000E+02
3200000000.000000      5.162964000000000E-01      2.337280000000000E+00      1.986847000000000E-01      1.103320000000000E+02
3220000000.000000      5.049438000000000E-01      1.848450000000000E+00      1.900635000000000E-01      8.170702000000000E+01
3240000000.000000      4.995575000000000E-01      1.966553000000000E+00      1.835556000000000E-01      5.675781000000000E+01
3260000000.000000      4.974060000000000E-01      2.616089000000000E+00      1.926804000000000E-01      3.107324000000000E+01
3280000000.000000      5.034180000000000E-01      2.966309000000000E+00      2.005310000000000E-01      1.573792000000000E+00
3300000000.000000      5.172729000000000E-01      2.576294000000000E+00      2.033920000000000E-01     -2.714355000000000E+01
3320000000.000000      5.332031000000000E-01      1.777039000000000E+00      2.115021000000000E-01     -5.610742000000000E+01
3340000000.000000      5.436707000000000E-01      2.471924000000000E-02      2.161102000000000E-01     -8.614843000000000E+01
3360000000.000000      5.498352000000000E-01     -1.955566000000000E+00      2.184830000000000E-01     -1.159805000000000E+02
3380000000.000000      5.492249000000000E-01     -3.370117000000000E+00      2.170258000000000E-01     -1.455547000000000E+02
3400000000.000000      5.466614000000000E-01     -4.880859000000000E+00      2.164917000000000E-01     -1.741953000000000E+02
3420000000.000000      5.426025000000000E-01     -5.770752000000000E+00      2.152710000000000E-01      1.565156000000000E+02
3440000000.000000      5.391846000000000E-01     -6.958496000000000E+00      2.103577000000000E-01      1.285625000000000E+02
3460000000.000000      5.349731000000000E-01     -8.222168000000000E+00      2.112656000000000E-01      1.002851000000000E+02
3480000000.000000      5.329895000000000E-01     -9.111816000000000E+00      2.085953000000000E-01      7.118359000000000E+01
3500000000.000000      5.326843000000000E-01     -9.812500000000000E+00      2.070084000000000E-01      4.329687000000000E+01
3520000000.000000      5.327454000000000E-01     -1.088916000000000E+01      2.073898000000000E-01      1.423828000000000E+01
3540000000.000000      5.326233000000000E-01     -1.179248000000000E+01      2.024155000000000E-01     -1.419727000000000E+01
3560000000.000000      5.319519000000000E-01     -1.251758000000000E+01      2.039948000000000E-01     -4.214257000000000E+01
3580000000.000000      5.298767000000000E-01     -1.335254000000000E+01      2.038040000000000E-01     -7.093750000000000E+01
3600000000.000000      5.271301000000000E-01     -1.416553000000000E+01      2.040787000000000E-01     -9.832420000000000E+01
3620000000.000000      5.267944000000000E-01     -1.475879000000000E+01      2.080841000000000E-01     -1.266602000000000E+02
3640000000.000000      5.288086000000000E-01     -1.526709000000000E+01      2.094269000000000E-01     -1.551328000000000E+02
3660000000.000000      5.307312000000000E-01     -1.682422000000000E+01      2.105637000000000E-01      1.764453000000000E+02
3680000000.000000      5.308228000000000E-01     -1.812109000000000E+01      2.088318000000000E-01      1.478359000000000E+02
3700000000.000000      5.293579000000000E-01     -1.923926000000000E+01      2.067566000000000E-01      1.207461000000000E+02
3720000000.000000      5.239258000000000E-01     -2.028809000000000E+01      2.089691000000000E-01      9.246094000000000E+01
3740000000.000000      5.243835000000000E-01     -2.043750000000000E+01      2.038803000000000E-01      6.438281000000000E+01
3760000000.000000      5.249023000000000E-01     -2.093945000000000E+01      2.039337000000000E-01      3.727539000000000E+01
3780000000.000000      5.278931000000000E-01     -2.146875000000000E+01      2.062454000000000E-01      8.585449000000000E+00
3800000000.000000      5.338135000000000E-01     -2.261817000000000E+01      2.047195000000000E-01     -2.066308000000000E+01
3820000000.000000      5.322266000000000E-01     -2.422168000000000E+01      2.030563000000000E-01     -4.930078000000000E+01
3840000000.000000      5.295715000000000E-01     -2.562597000000000E+01      2.026825000000000E-01     -7.784765000000000E+01
3860000000.000000      5.265808000000000E-01     -2.669336000000000E+01      2.035675000000000E-01     -1.069453000000000E+02
3880000000.000000      5.247803000000000E-01     -2.742188000000000E+01      2.009888000000000E-01     -1.358906000000000E+02
3900000000.000000      5.271606000000000E-01     -2.788769000000000E+01      2.008209000000000E-01     -1.632734000000000E+02
3920000000.000000      5.299072000000000E-01     -2.891113000000000E+01      2.037811000000000E-01      1.680938000000000E+02
3940000000.000000      5.334473000000000E-01     -3.031152000000000E+01      2.027512000000000E-01      1.396719000000000E+02
3960000000.000000      5.283508000000000E-01     -3.152441000000000E+01      2.029266000000000E-01      1.114766000000000E+02
3980000000.000000      5.209045000000000E-01     -3.254101000000000E+01      1.970062000000000E-01      8.299608000000000E+01
4000000000.000000      5.154724000000000E-01     -3.286133000000000E+01      1.942062000000000E-01      5.767383000000000E+01
4020000000.000000      5.169373000000000E-01     -3.302929000000000E+01      2.027054000000000E-01      2.997265000000000E+01
4040000000.000000      5.265808000000000E-01     -3.351563000000000E+01      2.027130000000000E-01     -7.621765000000000E-01
4060000000.000000      5.405884000000000E-01     -3.472265000000000E+01      1.991806000000000E-01     -2.940527000000000E+01
4080000000.000000      5.465088000000000E-01     -3.723828000000000E+01      1.989822000000000E-01     -5.877148000000000E+01
4100000000.000000      5.453491000000000E-01     -3.954687000000000E+01      1.984024000000000E-01     -8.808203000000000E+01
4120000000.000000      5.354004000000000E-01     -4.130273000000000E+01      1.959686000000000E-01     -1.185117000000000E+02
4140000000.000000      5.267334000000000E-01     -4.219336000000000E+01      1.881104000000000E-01     -1.466953000000000E+02
4160000000.000000      5.199890000000000E-01     -4.292382000000000E+01      1.911240000000000E-01     -1.730859000000000E+02
4180000000.000000      5.187988000000000E-01     -4.365234000000000E+01      1.959000000000000E-01      1.577266000000000E+02
4200000000.000000      5.181580000000000E-01     -4.463086000000000E+01      1.933823000000000E-01      1.293281000000000E+02
4220000000.000000      5.188904000000000E-01     -4.577344000000000E+01      1.955795000000000E-01      1.012617000000000E+02
4240000000.000000      5.126038000000000E-01     -4.688867000000000E+01      1.912689000000000E-01      7.216015000000000E+01
4260000000.000000      5.118713000000000E-01     -4.742188000000000E+01      1.866379000000000E-01      4.549024000000000E+01
4280000000.000000      5.104675000000000E-01     -4.765429000000000E+01      1.880341000000000E-01      1.818457000000000E+01
4300000000.000000      5.121765000000000E-01     -4.814258000000000E+01      1.873245000000000E-01     -1.048389000000000E+01
4320000000.000000      5.174866000000000E-01     -4.905468000000000E+01      1.872330000000000E-01     -3.930859000000000E+01
4340000000.000000      5.200500000000000E-01     -5.067187000000000E+01      1.870499000000000E-01     -6.903515000000000E+01
4360000000.000000      5.220642000000000E-01     -5.215625000000000E+01      1.877670000000000E-01     -9.916405000000000E+01
4380000000.000000      5.175171000000000E-01     -5.331445000000000E+01      1.852188000000000E-01     -1.295000000000000E+02
4400000000.000000      5.173645000000000E-01     -5.441015000000000E+01      1.840744000000000E-01     -1.580156000000000E+02
4420000000.000000      5.162964000000000E-01     -5.494726000000000E+01      1.886902000000000E-01      1.730312000000000E+02
4440000000.000000      5.207214000000000E-01     -5.592968000000000E+01      1.899109000000000E-01      1.431250000000000E+02
4460000000.000000      5.233154000000000E-01     -5.748047000000000E+01      1.901398000000000E-01      1.140547000000000E+02
4480000000.000000      5.213623000000000E-01     -5.894726000000000E+01      1.890640000000000E-01      8.536718000000000E+01
4500000000.000000      5.143433000000000E-01     -6.008203000000000E+01      1.858063000000000E-01      5.751562000000000E+01
4520000000.000000      5.089722000000000E-01     -6.122460000000000E+01      1.831360000000000E-01      2.940625000000000E+01
4540000000.000000      5.069885000000000E-01     -6.155273000000000E+01      1.778870000000000E-01      1.528442000000000E+00
4560000000.000000      5.103149000000000E-01     -6.220117000000000E+01      1.776962000000000E-01     -2.578516000000000E+01
4580000000.000000      5.180664000000000E-01     -6.311523000000000E+01      1.780472000000000E-01     -5.598437000000000E+01
4600000000.000000      5.228577000000000E-01     -6.433984000000000E+01      1.758881000000000E-01     -8.633984000000000E+01
4620000000.000000      5.260315000000000E-01     -6.574219000000000E+01      1.753235000000000E-01     -1.178750000000000E+02
4640000000.000000      5.265808000000000E-01     -6.687109000000000E+01      1.712418000000000E-01     -1.493047000000000E+02
4660000000.000000      5.266113000000000E-01     -6.806641000000000E+01      1.724091000000000E-01     -1.786406000000000E+02
4680000000.000000      5.303040000000000E-01     -6.889843000000000E+01      1.783829000000000E-01      1.508594000000000E+02
4700000000.000000      5.356750000000000E-01     -7.015234000000000E+01      1.810608000000000E-01      1.209180000000000E+02
4720000000.000000      5.397644000000000E-01     -7.195703000000000E+01      1.851044000000000E-01      9.241405000000000E+01
4740000000.000000      5.416260000000000E-01     -7.419531000000000E+01      1.884232000000000E-01      6.367188000000000E+01
4760000000.000000      5.419006000000000E-01     -7.585155000000000E+01      1.878815000000000E-01      3.584570000000000E+01
4780000000.000000      5.400391000000000E-01     -7.773046000000000E+01      1.851349000000000E-01      7.911377000000000E+00
4800000000.000000      5.369873000000000E-01     -8.020311000000000E+01      1.779861000000000E-01     -1.944043000000000E+01
4820000000.000000      5.326538000000000E-01     -8.218750000000000E+01      1.681290000000000E-01     -4.702929000000000E+01
4840000000.000000      5.150757000000000E-01     -8.403515000000000E+01      1.571045000000000E-01     -7.376562000000000E+01
4860000000.000000      5.000916000000000E-01     -8.506639000000000E+01      1.487656000000000E-01     -1.019023000000000E+02
4880000000.000000      4.827728000000000E-01     -8.523438000000000E+01      1.345215000000000E-01     -1.314453000000000E+02
4900000000.000000      4.709930000000000E-01     -8.456640000000000E+01      1.218605000000000E-01     -1.568438000000000E+02
4920000000.000000      4.691467000000000E-01     -8.342188000000000E+01      1.262970000000000E-01      1.782187000000000E+02
4940000000.000000      4.785614000000000E-01     -8.237108000000000E+01      1.383438000000000E-01      1.474375000000000E+02
4960000000.000000      4.991760000000000E-01     -8.233593000000000E+01      1.466446000000000E-01      1.149687000000000E+02
4980000000.000000      5.191040000000000E-01     -8.408594000000000E+01      1.569824000000000E-01      8.450390000000000E+01
5000000000.000000      5.308228000000000E-01     -8.647655000000000E+01      1.680756000000000E-01      5.412890000000000E+01
5020000000.000000      5.308533000000000E-01     -8.921484000000000E+01      1.745148000000000E-01      2.448633000000000E+01
5040000000.000000      5.223694000000000E-01     -9.135546000000000E+01      1.761169000000000E-01     -2.084717000000000E+00
5060000000.000000      5.131531000000000E-01     -9.257421000000000E+01      1.822205000000000E-01     -2.689062000000000E+01
5080000000.000000      5.068054000000000E-01     -9.347656000000000E+01      1.885910000000000E-01     -5.363867000000000E+01
5100000000.000000      5.051880000000000E-01     -9.417187000000000E+01      1.865768000000000E-01     -8.032812000000000E+01
5120000000.000000      5.066223000000000E-01     -9.496094000000000E+01      1.853790000000000E-01     -1.068242000000000E+02
5140000000.000000      5.081177000000000E-01     -9.572266000000000E+01      1.805267000000000E-01     -1.351016000000000E+02
5160000000.000000      5.105591000000000E-01     -9.669531000000000E+01      1.742935000000000E-01     -1.635078000000000E+02
5180000000.000000      5.161743000000000E-01     -9.759766000000000E+01      1.693268000000000E-01      1.662891000000000E+02
5200000000.000000      5.226440000000000E-01     -9.877342000000000E+01      1.647186000000000E-01      1.351563000000000E+02
5220000000.000000      5.267639000000000E-01     -1.002851000000000E+02      1.646576000000000E-01      1.041445000000000E+02
5240000000.000000      5.288696000000000E-01     -1.018359000000000E+02      1.674423000000000E-01      7.219140000000000E+01
5260000000.000000      5.280762000000000E-01     -1.034570000000000E+02      1.718826000000000E-01      4.096093000000000E+01
5280000000.000000      5.242920000000000E-01     -1.049141000000000E+02      1.770096000000000E-01      1.089551000000000E+01
5300000000.000000      5.223389000000000E-01     -1.061211000000000E+02      1.816177000000000E-01     -1.629883000000000E+01
5320000000.000000      5.216064000000000E-01     -1.071328000000000E+02      1.909332000000000E-01     -4.261328000000000E+01
5340000000.000000      5.216675000000000E-01     -1.082539000000000E+02      1.955948000000000E-01     -7.003515000000000E+01
5360000000.000000      5.221863000000000E-01     -1.096016000000000E+02      1.966095000000000E-01     -9.581640000000000E+01
5380000000.000000      5.238037000000000E-01     -1.106602000000000E+02      1.947327000000000E-01     -1.219609000000000E+02
5400000000.000000      5.226135000000000E-01     -1.119883000000000E+02      1.881714000000000E-01     -1.482734000000000E+02
5420000000.000000      5.255737000000000E-01     -1.124766000000000E+02      1.833267000000000E-01     -1.745859000000000E+02
5440000000.000000      5.300293000000000E-01     -1.132227000000000E+02      1.756363000000000E-01      1.564062000000000E+02
5460000000.000000      5.357361000000000E-01     -1.144297000000000E+02      1.652679000000000E-01      1.269727000000000E+02
5480000000.000000      5.429077000000000E-01     -1.160039000000000E+02      1.602325000000000E-01      9.576952000000000E+01
5500000000.000000      5.455933000000000E-01     -1.182656000000000E+02      1.575928000000000E-01      6.309960000000000E+01
5520000000.000000      5.420532000000000E-01     -1.203086000000000E+02      1.577606000000000E-01      3.018261000000000E+01
5540000000.000000      5.371399000000000E-01     -1.222031000000000E+02      1.597824000000000E-01     -1.712524000000000E+00
5560000000.000000      5.305176000000000E-01     -1.239453000000000E+02      1.654587000000000E-01     -3.014648000000000E+01
5580000000.000000      5.230713000000000E-01     -1.254219000000000E+02      1.765442000000000E-01     -5.851563000000000E+01
5600000000.000000      5.184326000000000E-01     -1.264687000000000E+02      1.831894000000000E-01     -8.578516000000000E+01
5620000000.000000      5.136719000000000E-01     -1.275078000000000E+02      1.887894000000000E-01     -1.114687000000000E+02
5640000000.000000      5.104370000000000E-01     -1.282812000000000E+02      1.909485000000000E-01     -1.373281000000000E+02
5660000000.000000      5.080872000000000E-01     -1.286328000000000E+02      1.882935000000000E-01     -1.621797000000000E+02
5680000000.000000      5.114136000000000E-01     -1.289531000000000E+02      1.837387000000000E-01      1.721562000000000E+02
5700000000.000000      5.186462000000000E-01     -1.295234000000000E+02      1.751404000000000E-01      1.457734000000000E+02
5720000000.000000      5.294495000000000E-01     -1.307656000000000E+02      1.655960000000000E-01      1.188828000000000E+02
5740000000.000000      5.356140000000000E-01     -1.330781000000000E+02      1.561356000000000E-01      8.868359000000000E+01
5760000000.000000      5.361023000000000E-01     -1.357422000000000E+02      1.446762000000000E-01      5.571094000000000E+01
5780000000.000000      5.275879000000000E-01     -1.381484000000000E+02      1.343842000000000E-01      2.181543000000000E+01
5800000000.000000      5.147095000000000E-01     -1.397109000000000E+02      1.303635000000000E-01     -1.103857000000000E+01
5820000000.000000      5.064392000000000E-01     -1.404922000000000E+02      1.384964000000000E-01     -4.293750000000000E+01
5840000000.000000      5.056152000000000E-01     -1.412500000000000E+02      1.502762000000000E-01     -7.554296000000000E+01
5860000000.000000      5.072632000000000E-01     -1.417969000000000E+02      1.607819000000000E-01     -1.048047000000000E+02
5880000000.000000      5.141602000000000E-01     -1.434375000000000E+02      1.703873000000000E-01     -1.327578000000000E+02
5900000000.000000      5.164490000000000E-01     -1.450312000000000E+02      1.777496000000000E-01     -1.588047000000000E+02
5920000000.000000      5.137024000000000E-01     -1.467266000000000E+02      1.820374000000000E-01      1.755312000000000E+02
5940000000.000000      5.113831000000000E-01     -1.481250000000000E+02      1.785736000000000E-01      1.498750000000000E+02
5960000000.000000      5.079041000000000E-01     -1.495156000000000E+02      1.708984000000000E-01      1.261055000000000E+02
5980000000.000000      5.023804000000000E-01     -1.511406000000000E+02      1.636429000000000E-01      1.007813000000000E+02
6000000000.000000      4.962769000000000E-01     -1.529063000000000E+02      1.517334000000000E-01      7.354687000000000E+01
6020000000.000000      4.824524000000000E-01     -1.545703000000000E+02      1.359787000000000E-01      4.483788000000000E+01
6040000000.000000      4.700165000000000E-01     -1.556328000000000E+02      1.185188000000000E-01      1.489453000000000E+01
6060000000.000000      4.590454000000000E-01     -1.561016000000000E+02      1.084557000000000E-01     -1.566113000000000E+01
6080000000.000000      4.546509000000000E-01     -1.558750000000000E+02      1.103935000000000E-01     -4.890038000000000E+01
