! Network Analyzer HP8722D
! Hewlett-Packard
! Data name: Linha com CNT
! Saver's name: Rodrigo Anjos
! Comments: Teste de deteccao de acetona 0-100ppm a partir de cilindro
! Time and date: 10/9/2025 16:35
!              Frequency                     S11                                                   S21                                                   S12                                                   S22
# HZ  S  MA R 50
3000000000.000000      4.747009000000000E-01      1.490430000000000E+01      2.318802000000000E-01      3.542578000000000E+01
3020000000.000000      4.826508000000000E-01      1.422559000000000E+01      2.360077000000000E-01      5.906494000000000E+00
3040000000.000000      4.894104000000000E-01      1.331250000000000E+01      2.359467000000000E-01     -2.329297000000000E+01
3060000000.000000      4.933472000000000E-01      1.168799000000000E+01      2.363281000000000E-01     -5.259570000000000E+01
3080000000.000000      4.904480000000000E-01      9.847656000000000E+00      2.321396000000000E-01     -8.158594000000000E+01
3100000000.000000      4.883575000000000E-01      8.614258000000000E+00      2.302017000000000E-01     -1.092422000000000E+02
3120000000.000000      4.867096000000000E-01      7.616211000000000E+00      2.301331000000000E-01     -1.378750000000000E+02
3140000000.000000      4.872589000000000E-01      6.746826000000000E+00      2.268677000000000E-01     -1.665625000000000E+02
3160000000.000000      4.882355000000000E-01      5.530029000000000E+00      2.233734000000000E-01      1.648594000000000E+02
3180000000.000000      4.842529000000000E-01      4.391602000000000E+00      2.173538000000000E-01      1.368984000000000E+02
3200000000.000000      4.753113000000000E-01      3.636475000000000E+00      2.138977000000000E-01      1.086133000000000E+02
3220000000.000000      4.642792000000000E-01      3.444214000000000E+00      2.045441000000000E-01      8.003124000000000E+01
3240000000.000000      4.579163000000000E-01      3.946777000000000E+00      1.976318000000000E-01      5.485352000000000E+01
3260000000.000000      4.585419000000000E-01      4.916260000000000E+00      2.070465000000000E-01      2.923242000000000E+01
3280000000.000000      4.674225000000000E-01      5.537109000000000E+00      2.151108000000000E-01     -5.424500000000000E-01
3300000000.000000      4.834900000000000E-01      5.218506000000000E+00      2.178802000000000E-01     -2.908008000000000E+01
3320000000.000000      5.003052000000000E-01      3.916626000000000E+00      2.256927000000000E-01     -5.813281000000000E+01
3340000000.000000      5.129700000000000E-01      2.044800000000000E+00      2.303009000000000E-01     -8.792187000000000E+01
3360000000.000000      5.176392000000000E-01     -1.112366000000000E-01      2.326889000000000E-01     -1.178125000000000E+02
3380000000.000000      5.176392000000000E-01     -1.608154000000000E+00      2.317963000000000E-01     -1.471484000000000E+02
3400000000.000000      5.141907000000000E-01     -3.171021000000000E+00      2.317200000000000E-01     -1.758516000000000E+02
3420000000.000000      5.110474000000000E-01     -4.369873000000000E+00      2.299652000000000E-01      1.548125000000000E+02
3440000000.000000      5.043335000000000E-01     -5.531738000000000E+00      2.250061000000000E-01      1.267422000000000E+02
3460000000.000000      5.026550000000000E-01     -6.587891000000000E+00      2.266693000000000E-01      9.851171000000000E+01
3480000000.000000      5.006409000000000E-01     -7.645264000000000E+00      2.232208000000000E-01      6.954296000000000E+01
3500000000.000000      4.998322000000000E-01     -8.410156000000000E+00      2.210312000000000E-01      4.150000000000000E+01
3520000000.000000      4.987335000000000E-01     -9.411621000000000E+00      2.215118000000000E-01      1.247900000000000E+01
3540000000.000000      4.994659000000000E-01     -1.039453000000000E+01      2.168198000000000E-01     -1.600390000000000E+01
3560000000.000000      4.978333000000000E-01     -1.093994000000000E+01      2.180710000000000E-01     -4.406640000000000E+01
3580000000.000000      4.956360000000000E-01     -1.174463000000000E+01      2.180557000000000E-01     -7.275781000000000E+01
3600000000.000000      4.932251000000000E-01     -1.222510000000000E+01      2.179565000000000E-01     -1.001953000000000E+02
3620000000.000000      4.953766000000000E-01     -1.281836000000000E+01      2.227783000000000E-01     -1.285469000000000E+02
3640000000.000000      4.969788000000000E-01     -1.379492000000000E+01      2.237778000000000E-01     -1.570703000000000E+02
3660000000.000000      4.989777000000000E-01     -1.496484000000000E+01      2.250366000000000E-01      1.745547000000000E+02
3680000000.000000      5.001221000000000E-01     -1.640137000000000E+01      2.230225000000000E-01      1.459844000000000E+02
3700000000.000000      4.969788000000000E-01     -1.767383000000000E+01      2.209930000000000E-01      1.188633000000000E+02
3720000000.000000      4.925842000000000E-01     -1.876953000000000E+01      2.232971000000000E-01      9.053905000000000E+01
3740000000.000000      4.913483000000000E-01     -1.869238000000000E+01      2.187805000000000E-01      6.232812000000000E+01
3760000000.000000      4.928284000000000E-01     -1.905664000000000E+01      2.184830000000000E-01      3.512695000000000E+01
3780000000.000000      4.962158000000000E-01     -1.994043000000000E+01      2.207870000000000E-01      6.485840000000000E+00
3800000000.000000      5.021667000000000E-01     -2.102734000000000E+01      2.191772000000000E-01     -2.269726000000000E+01
3820000000.000000      5.007629000000000E-01     -2.284961000000000E+01      2.169495000000000E-01     -5.122265000000000E+01
3840000000.000000      4.972687000000000E-01     -2.423730000000000E+01      2.163315000000000E-01     -7.976953000000000E+01
3860000000.000000      4.934235000000000E-01     -2.517578000000000E+01      2.169952000000000E-01     -1.089141000000000E+02
3880000000.000000      4.913483000000000E-01     -2.561621000000000E+01      2.144547000000000E-01     -1.376641000000000E+02
3900000000.000000      4.958954000000000E-01     -2.610840000000000E+01      2.136230000000000E-01     -1.652891000000000E+02
3920000000.000000      5.002747000000000E-01     -2.733301000000000E+01      2.164078000000000E-01      1.661797000000000E+02
3940000000.000000      5.008545000000000E-01     -2.881933000000000E+01      2.155457000000000E-01      1.377500000000000E+02
3960000000.000000      4.960327000000000E-01     -3.009766000000000E+01      2.158051000000000E-01      1.094648000000000E+02
3980000000.000000      4.873352000000000E-01     -3.099414000000000E+01      2.104568000000000E-01      8.083984000000000E+01
4000000000.000000      4.820404000000000E-01     -3.121777000000000E+01      2.072144000000000E-01      5.544335000000000E+01
4020000000.000000      4.843903000000000E-01     -3.122461000000000E+01      2.157669000000000E-01      2.766602000000000E+01
4040000000.000000      4.961395000000000E-01     -3.163574000000000E+01      2.159958000000000E-01     -2.981445000000000E+00
4060000000.000000      5.098877000000000E-01     -3.312695000000000E+01      2.119980000000000E-01     -3.174805000000000E+01
4080000000.000000      5.191650000000000E-01     -3.583008000000000E+01      2.119446000000000E-01     -6.072266000000000E+01
4100000000.000000      5.145569000000000E-01     -3.846289000000000E+01      2.119904000000000E-01     -8.992188000000000E+01
4120000000.000000      5.019226000000000E-01     -4.025000000000000E+01      2.097092000000000E-01     -1.203359000000000E+02
4140000000.000000      4.918823000000000E-01     -4.125000000000000E+01      2.014694000000000E-01     -1.486875000000000E+02
4160000000.000000      4.848785000000000E-01     -4.164258000000000E+01      2.034454000000000E-01     -1.751406000000000E+02
4180000000.000000      4.833069000000000E-01     -4.214453000000000E+01      2.080688000000000E-01      1.556562000000000E+02
4200000000.000000      4.829254000000000E-01     -4.314649000000000E+01      2.055283000000000E-01      1.271055000000000E+02
4220000000.000000      4.835815000000000E-01     -4.414453000000000E+01      2.070618000000000E-01      9.924608000000000E+01
4240000000.000000      4.785767000000000E-01     -4.509375000000000E+01      2.029266000000000E-01      6.999218000000000E+01
4260000000.000000      4.741974000000000E-01     -4.583008000000000E+01      1.983643000000000E-01      4.300977000000000E+01
4280000000.000000      4.743500000000000E-01     -4.574609000000000E+01      2.000580000000000E-01      1.559082000000000E+01
4300000000.000000      4.778137000000000E-01     -4.605469000000000E+01      1.997452000000000E-01     -1.310010000000000E+01
4320000000.000000      4.850006000000000E-01     -4.699023000000000E+01      1.996460000000000E-01     -4.196094000000000E+01
4340000000.000000      4.879303000000000E-01     -4.849804000000000E+01      1.996536000000000E-01     -7.126562000000000E+01
4360000000.000000      4.878235000000000E-01     -5.024804000000000E+01      1.998901000000000E-01     -1.012539000000000E+02
4380000000.000000      4.839172000000000E-01     -5.147265000000000E+01      1.977997000000000E-01     -1.314687000000000E+02
4400000000.000000      4.826202000000000E-01     -5.228516000000000E+01      1.961670000000000E-01     -1.601875000000000E+02
4420000000.000000      4.846039000000000E-01     -5.277929000000000E+01      2.005539000000000E-01      1.709453000000000E+02
4440000000.000000      4.866943000000000E-01     -5.412695000000000E+01      2.015839000000000E-01      1.410000000000000E+02
4460000000.000000      4.922638000000000E-01     -5.552148000000000E+01      2.008820000000000E-01      1.119570000000000E+02
4480000000.000000      4.872742000000000E-01     -5.715234000000000E+01      1.993561000000000E-01      8.294531000000000E+01
4500000000.000000      4.817810000000000E-01     -5.841210000000000E+01      1.957703000000000E-01      5.498437000000000E+01
4520000000.000000      4.739990000000000E-01     -5.896679000000000E+01      1.935883000000000E-01      2.682519000000000E+01
4540000000.000000      4.729156000000000E-01     -5.924414000000000E+01      1.882706000000000E-01     -1.189270000000000E+00
4560000000.000000      4.767761000000000E-01     -5.976563000000000E+01      1.883316000000000E-01     -2.864551000000000E+01
4580000000.000000      4.846954000000000E-01     -6.061913000000000E+01      1.891251000000000E-01     -5.882617000000000E+01
4600000000.000000      4.927979000000000E-01     -6.201757000000000E+01      1.870956000000000E-01     -8.912889000000000E+01
4620000000.000000      4.953766000000000E-01     -6.351171000000000E+01      1.867371000000000E-01     -1.201015000000000E+02
4640000000.000000      4.956512000000000E-01     -6.473827000000000E+01      1.833115000000000E-01     -1.514062000000000E+02
4660000000.000000      4.980164000000000E-01     -6.582812000000000E+01      1.837921000000000E-01      1.795234000000000E+02
4680000000.000000      5.025330000000000E-01     -6.697266000000000E+01      1.896515000000000E-01      1.493125000000000E+02
4700000000.000000      5.063782000000000E-01     -6.821094000000000E+01      1.911011000000000E-01      1.193672000000000E+02
4720000000.000000      5.108643000000000E-01     -7.017187000000000E+01      1.946640000000000E-01      9.087891000000000E+01
4740000000.000000      5.111694000000000E-01     -7.219921000000000E+01      1.977539000000000E-01      6.188281000000000E+01
4760000000.000000      5.126038000000000E-01     -7.441406000000000E+01      1.962204000000000E-01      3.414258000000000E+01
4780000000.000000      5.103760000000000E-01     -7.638672000000000E+01      1.939240000000000E-01      5.847412000000000E+00
4800000000.000000      5.067139000000000E-01     -7.857031000000000E+01      1.867065000000000E-01     -2.181347000000000E+01
4820000000.000000      4.951782000000000E-01     -8.096483000000000E+01      1.769714000000000E-01     -4.957421000000000E+01
4840000000.000000      4.776611000000000E-01     -8.265625000000000E+01      1.667557000000000E-01     -7.695313000000000E+01
4860000000.000000      4.629974000000000E-01     -8.401171000000000E+01      1.592484000000000E-01     -1.055039000000000E+02
4880000000.000000      4.439392000000000E-01     -8.341015000000000E+01      1.451035000000000E-01     -1.352187000000000E+02
4900000000.000000      4.339600000000000E-01     -8.209764000000000E+01      1.324005000000000E-01     -1.608203000000000E+02
4920000000.000000      4.347839000000000E-01     -8.048828000000000E+01      1.368790000000000E-01      1.745156000000000E+02
4940000000.000000      4.482422000000000E-01     -7.924218000000000E+01      1.495361000000000E-01      1.442578000000000E+02
4960000000.000000      4.716339000000000E-01     -7.943749000000000E+01      1.576080000000000E-01      1.124570000000000E+02
4980000000.000000      4.931488000000000E-01     -8.144922000000000E+01      1.672974000000000E-01      8.267969000000000E+01
5000000000.000000      5.028381000000000E-01     -8.441406000000000E+01      1.772003000000000E-01      5.259960000000000E+01
5020000000.000000      5.014648000000000E-01     -8.727343000000000E+01      1.832123000000000E-01      2.299023000000000E+01
5040000000.000000      4.917755000000000E-01     -8.949999000000000E+01      1.855316000000000E-01     -3.760132000000000E+00
5060000000.000000      4.823608000000000E-01     -9.057421000000000E+01      1.908493000000000E-01     -2.900976000000000E+01
5080000000.000000      4.763641000000000E-01     -9.133984000000000E+01      1.959152000000000E-01     -5.604101000000000E+01
5100000000.000000      4.753723000000000E-01     -9.189453000000000E+01      1.941147000000000E-01     -8.316406000000000E+01
5120000000.000000      4.766235000000000E-01     -9.270702000000000E+01      1.931915000000000E-01     -1.099297000000000E+02
5140000000.000000      4.791718000000000E-01     -9.354296000000000E+01      1.889496000000000E-01     -1.385000000000000E+02
5160000000.000000      4.821014000000000E-01     -9.460155000000000E+01      1.831360000000000E-01     -1.671016000000000E+02
5180000000.000000      4.875336000000000E-01     -9.551172000000000E+01      1.795807000000000E-01      1.627031000000000E+02
5200000000.000000      4.931030000000000E-01     -9.676170000000000E+01      1.751404000000000E-01      1.320469000000000E+02
5220000000.000000      4.968262000000000E-01     -9.834373000000000E+01      1.755600000000000E-01      1.014375000000000E+02
5240000000.000000      4.988556000000000E-01     -9.985155000000000E+01      1.787720000000000E-01      7.013672000000000E+01
5260000000.000000      4.980621000000000E-01     -1.014492000000000E+02      1.827621000000000E-01      3.935156000000000E+01
5280000000.000000      4.946442000000000E-01     -1.027969000000000E+02      1.875992000000000E-01      9.470215000000000E+00
5300000000.000000      4.931946000000000E-01     -1.039570000000000E+02      1.908722000000000E-01     -1.785742000000000E+01
5320000000.000000      4.916229000000000E-01     -1.050117000000000E+02      1.995316000000000E-01     -4.448828000000000E+01
5340000000.000000      4.918213000000000E-01     -1.062812000000000E+02      2.033768000000000E-01     -7.192968000000000E+01
5360000000.000000      4.921265000000000E-01     -1.075469000000000E+02      2.034607000000000E-01     -9.794922000000000E+01
5380000000.000000      4.932861000000000E-01     -1.088086000000000E+02      2.022552000000000E-01     -1.245898000000000E+02
5400000000.000000      4.931793000000000E-01     -1.099219000000000E+02      1.955032000000000E-01     -1.511094000000000E+02
5420000000.000000      4.957581000000000E-01     -1.104492000000000E+02      1.905746000000000E-01     -1.779063000000000E+02
5440000000.000000      5.006714000000000E-01     -1.111914000000000E+02      1.837921000000000E-01      1.530781000000000E+02
5460000000.000000      5.073242000000000E-01     -1.124414000000000E+02      1.745682000000000E-01      1.235547000000000E+02
5480000000.000000      5.134888000000000E-01     -1.139648000000000E+02      1.704788000000000E-01      9.285547000000000E+01
5500000000.000000      5.157776000000000E-01     -1.162812000000000E+02      1.683731000000000E-01      6.091406000000000E+01
5520000000.000000      5.121155000000000E-01     -1.184297000000000E+02      1.700897000000000E-01      2.840723000000000E+01
5540000000.000000      5.068665000000000E-01     -1.203984000000000E+02      1.709824000000000E-01     -2.787842000000000E+00
5560000000.000000      4.999847000000000E-01     -1.220508000000000E+02      1.756287000000000E-01     -3.139257000000000E+01
5580000000.000000      4.929962000000000E-01     -1.234570000000000E+02      1.854401000000000E-01     -5.979297000000000E+01
5600000000.000000      4.885406000000000E-01     -1.246094000000000E+02      1.907730000000000E-01     -8.713282000000000E+01
5620000000.000000      4.836426000000000E-01     -1.253984000000000E+02      1.954727000000000E-01     -1.132734000000000E+02
5640000000.000000      4.805145000000000E-01     -1.259375000000000E+02      1.968002000000000E-01     -1.396641000000000E+02
5660000000.000000      4.781036000000000E-01     -1.261055000000000E+02      1.938858000000000E-01     -1.650234000000000E+02
5680000000.000000      4.807892000000000E-01     -1.263711000000000E+02      1.893997000000000E-01      1.689766000000000E+02
5700000000.000000      4.912109000000000E-01     -1.269844000000000E+02      1.815109000000000E-01      1.425469000000000E+02
5720000000.000000      5.018616000000000E-01     -1.283984000000000E+02      1.733322000000000E-01      1.150078000000000E+02
5740000000.000000      5.097961000000000E-01     -1.307734000000000E+02      1.653366000000000E-01      8.473436000000000E+01
5760000000.000000      5.093384000000000E-01     -1.335547000000000E+02      1.563187000000000E-01      5.229882000000000E+01
5780000000.000000      5.016174000000000E-01     -1.359844000000000E+02      1.480484000000000E-01      1.921973000000000E+01
5800000000.000000      4.899750000000000E-01     -1.375391000000000E+02      1.447601000000000E-01     -1.268555000000000E+01
5820000000.000000      4.825745000000000E-01     -1.381875000000000E+02      1.515961000000000E-01     -4.379883000000000E+01
5840000000.000000      4.810181000000000E-01     -1.390000000000000E+02      1.616135000000000E-01     -7.566015000000000E+01
5860000000.000000      4.856567000000000E-01     -1.398594000000000E+02      1.698685000000000E-01     -1.050508000000000E+02
5880000000.000000      4.910889000000000E-01     -1.415625000000000E+02      1.774368000000000E-01     -1.329141000000000E+02
5900000000.000000      4.929657000000000E-01     -1.432969000000000E+02      1.831436000000000E-01     -1.598125000000000E+02
5920000000.000000      4.901886000000000E-01     -1.451953000000000E+02      1.863480000000000E-01      1.740937000000000E+02
5940000000.000000      4.867859000000000E-01     -1.466172000000000E+02      1.820602000000000E-01      1.476016000000000E+02
5960000000.000000      4.826813000000000E-01     -1.478437000000000E+02      1.739044000000000E-01      1.229688000000000E+02
5980000000.000000      4.779968000000000E-01     -1.494375000000000E+02      1.682510000000000E-01      9.691795000000000E+01
6000000000.000000      4.704895000000000E-01     -1.511719000000000E+02      1.571350000000000E-01      6.857812000000000E+01
6020000000.000000      4.595337000000000E-01     -1.528203000000000E+02      1.432800000000000E-01      3.879687000000000E+01
6040000000.000000      4.451141000000000E-01     -1.539063000000000E+02      1.280594000000000E-01      8.299805000000000E+00
6060000000.000000      4.345703000000000E-01     -1.544609000000000E+02      1.202698000000000E-01     -2.164258000000000E+01
6080000000.000000      4.289856000000000E-01     -1.540937000000000E+02      1.244392000000000E-01     -5.363476000000000E+01
