! Network Analyzer HP8722D
! Hewlett-Packard
! Data name: Linha com CNT
! Saver's name: Rodrigo Anjos
! Comments: Teste de deteccao de acetona 0-100ppm a partir de cilindro
! Time and date: 10/9/2025 17:46
!              Frequency                     S11                                                   S21                                                   S12                                                   S22
# HZ  S  MA R 50
3000000000.000000      1.165581000000000E-01      5.190820000000000E+01      4.167480000000000E-01      2.522461000000000E+01
3020000000.000000      1.371078000000000E-01      4.728906000000000E+01      4.201050000000000E-01     -3.522583000000000E+00
3040000000.000000      1.463394000000000E-01      3.884766000000000E+01      4.194183000000000E-01     -3.266406000000000E+01
3060000000.000000      1.416168000000000E-01      2.969531000000000E+01      4.163208000000000E-01     -6.126562000000000E+01
3080000000.000000      1.271362000000000E-01      2.329980000000000E+01      4.179382000000000E-01     -8.995703000000000E+01
3100000000.000000      1.122971000000000E-01      2.188183000000000E+01      4.132690000000000E-01     -1.184297000000000E+02
3120000000.000000      1.055412000000000E-01      2.426270000000000E+01      4.122314000000000E-01     -1.468906000000000E+02
3140000000.000000      1.039085000000000E-01      2.445215000000000E+01      4.090424000000000E-01     -1.755781000000000E+02
3160000000.000000      9.744263000000000E-02      2.195313000000000E+01      4.050903000000000E-01      1.561953000000000E+02
3180000000.000000      7.846069000000000E-02      2.244433000000000E+01      4.024658000000000E-01      1.276055000000000E+02
3200000000.000000      5.717278000000000E-02      4.270312000000000E+01      3.963318000000000E-01      9.820313000000000E+01
3220000000.000000      7.143784000000000E-02      7.858203000000000E+01      3.844910000000000E-01      6.891406000000000E+01
3240000000.000000      1.194725000000000E-01      8.589453000000000E+01      3.742218000000000E-01      4.214648000000000E+01
3260000000.000000      1.697922000000000E-01      7.905859000000000E+01      3.796692000000000E-01      1.471582000000000E+01
3280000000.000000      2.103653000000000E-01      6.753124000000000E+01      3.850403000000000E-01     -1.455713000000000E+01
3300000000.000000      2.365723000000000E-01      5.476367000000000E+01      3.824463000000000E-01     -4.297852000000000E+01
3320000000.000000      2.462845000000000E-01      4.256249000000000E+01      3.873901000000000E-01     -7.097656000000000E+01
3340000000.000000      2.428055000000000E-01      3.227734000000000E+01      3.918304000000000E-01     -9.983202000000000E+01
3360000000.000000      2.279053000000000E-01      2.441895000000000E+01      3.934479000000000E-01     -1.285391000000000E+02
3380000000.000000      2.107315000000000E-01      1.993457000000000E+01      3.964691000000000E-01     -1.569453000000000E+02
3400000000.000000      1.946793000000000E-01      1.748047000000000E+01      3.988190000000000E-01      1.742812000000000E+02
3420000000.000000      1.823654000000000E-01      1.623633000000000E+01      3.978729000000000E-01      1.455937000000000E+02
3440000000.000000      1.717377000000000E-01      1.536816000000000E+01      3.974457000000000E-01      1.167305000000000E+02
3460000000.000000      1.616135000000000E-01      1.513184000000000E+01      3.945313000000000E-01      8.834764000000000E+01
3480000000.000000      1.546478000000000E-01      1.558936000000000E+01      3.963470000000000E-01      5.957031000000000E+01
3500000000.000000      1.502686000000000E-01      1.656836000000000E+01      3.907928000000000E-01      3.077734000000000E+01
3520000000.000000      1.472549000000000E-01      1.712305000000000E+01      3.877258000000000E-01      2.633911000000000E+00
3540000000.000000      1.453323000000000E-01      1.829199000000000E+01      3.905334000000000E-01     -2.608887000000000E+01
3560000000.000000      1.436005000000000E-01      2.108789000000000E+01      3.900452000000000E-01     -5.518749000000000E+01
3580000000.000000      1.459198000000000E-01      2.463769000000000E+01      3.904419000000000E-01     -8.380468000000000E+01
3600000000.000000      1.551514000000000E-01      2.694921000000000E+01      3.886108000000000E-01     -1.118945000000000E+02
3620000000.000000      1.674500000000000E-01      2.642675000000000E+01      3.914948000000000E-01     -1.400938000000000E+02
3640000000.000000      1.748657000000000E-01      2.273730000000000E+01      3.923035000000000E-01     -1.685156000000000E+02
3660000000.000000      1.748657000000000E-01      1.754102000000000E+01      3.907166000000000E-01      1.636016000000000E+02
3680000000.000000      1.655579000000000E-01      1.416650000000000E+01      3.936920000000000E-01      1.357266000000000E+02
3700000000.000000      1.525497000000000E-01      1.423096000000000E+01      3.944244000000000E-01      1.074648000000000E+02
3720000000.000000      1.474686000000000E-01      1.869141000000000E+01      3.924408000000000E-01      7.881640000000000E+01
3740000000.000000      1.588135000000000E-01      2.303809000000000E+01      3.871002000000000E-01      5.042773000000000E+01
3760000000.000000      1.759109000000000E-01      2.274512000000000E+01      3.837891000000000E-01      2.241601000000000E+01
3780000000.000000      1.868515000000000E-01      1.816113000000000E+01      3.821259000000000E-01     -5.052490000000000E+00
3800000000.000000      1.846695000000000E-01      1.243896000000000E+01      3.836823000000000E-01     -3.383789000000000E+01
3820000000.000000      1.702347000000000E-01      8.489258000000000E+00      3.834839000000000E-01     -6.250781000000000E+01
3840000000.000000      1.548615000000000E-01      9.670410000000000E+00      3.811035000000000E-01     -9.159374000000000E+01
3860000000.000000      1.526718000000000E-01      1.453613000000000E+01      3.815613000000000E-01     -1.204570000000000E+02
3880000000.000000      1.651001000000000E-01      1.733203000000000E+01      3.790131000000000E-01     -1.495781000000000E+02
3900000000.000000      1.806030000000000E-01      1.466113000000000E+01      3.722839000000000E-01     -1.776797000000000E+02
3920000000.000000      1.841202000000000E-01      9.104492000000000E+00      3.744202000000000E-01      1.547656000000000E+02
3940000000.000000      1.715927000000000E-01      5.004150000000000E+00      3.802643000000000E-01      1.262187000000000E+02
3960000000.000000      1.529007000000000E-01      6.284180000000000E+00      3.797302000000000E-01      9.713671000000000E+01
3980000000.000000      1.459579000000000E-01      1.437109000000000E+01      3.714142000000000E-01      6.851171000000000E+01
4000000000.000000      1.649170000000000E-01      2.088769000000000E+01      3.665771000000000E-01      4.178906000000000E+01
4020000000.000000      1.963501000000000E-01      1.917578000000000E+01      3.731995000000000E-01      1.393994000000000E+01
4040000000.000000      2.218781000000000E-01      1.118506000000000E+01      3.742218000000000E-01     -1.637988000000000E+01
4060000000.000000      2.270966000000000E-01      4.518127000000000E-01      3.609467000000000E-01     -4.485742000000000E+01
4080000000.000000      2.104263000000000E-01     -1.036035000000000E+01      3.617096000000000E-01     -7.213672000000000E+01
4100000000.000000      1.747665000000000E-01     -1.747851000000000E+01      3.675385000000000E-01     -1.010117000000000E+02
4120000000.000000      1.369400000000000E-01     -1.585205000000000E+01      3.675232000000000E-01     -1.309687000000000E+02
4140000000.000000      1.195030000000000E-01     -4.286133000000000E+00      3.603821000000000E-01     -1.598594000000000E+02
4160000000.000000      1.268768000000000E-01      4.987793000000000E+00      3.625946000000000E-01      1.725937000000000E+02
4180000000.000000      1.402512000000000E-01      6.620605000000000E+00      3.693390000000000E-01      1.437734000000000E+02
4200000000.000000      1.438141000000000E-01      4.995850000000000E+00      3.673706000000000E-01      1.140000000000000E+02
4220000000.000000      1.402435000000000E-01      5.460205000000000E+00      3.628540000000000E-01      8.508204000000000E+01
4240000000.000000      1.404724000000000E-01      1.065088000000000E+01      3.580017000000000E-01      5.654101000000000E+01
4260000000.000000      1.550598000000000E-01      1.544238000000000E+01      3.537903000000000E-01      2.853222000000000E+01
4280000000.000000      1.782227000000000E-01      1.533936000000000E+01      3.543396000000000E-01      3.089905000000000E-01
4300000000.000000      1.978073000000000E-01      1.082520000000000E+01      3.516998000000000E-01     -2.845117000000000E+01
4320000000.000000      2.046585000000000E-01      4.520752000000000E+00      3.499756000000000E-01     -5.707421000000000E+01
4340000000.000000      1.984329000000000E-01     -9.146118000000000E-01      3.488770000000000E-01     -8.589844000000000E+01
4360000000.000000      1.875534000000000E-01     -2.907349000000000E+00      3.464813000000000E-01     -1.155742000000000E+02
4380000000.000000      1.837540000000000E-01     -1.529846000000000E+00      3.442841000000000E-01     -1.450156000000000E+02
4400000000.000000      1.917267000000000E-01     -1.028625000000000E+00      3.407898000000000E-01     -1.741172000000000E+02
4420000000.000000      2.023163000000000E-01     -3.532104000000000E+00      3.417053000000000E-01      1.569766000000000E+02
4440000000.000000      2.048187000000000E-01     -8.142578000000000E+00      3.446655000000000E-01      1.273672000000000E+02
4460000000.000000      1.933899000000000E-01     -1.198486000000000E+01      3.390045000000000E-01      9.768358000000000E+01
4480000000.000000      1.751022000000000E-01     -1.170898000000000E+01      3.371429000000000E-01      6.932031000000000E+01
4500000000.000000      1.679230000000000E-01     -6.039795000000000E+00      3.367157000000000E-01      4.041992000000000E+01
4520000000.000000      1.811066000000000E-01     -4.682922000000000E-01      3.327179000000000E-01      1.136230000000000E+01
4540000000.000000      2.070389000000000E-01     -6.413269000000000E-01      3.232574000000000E-01     -1.800586000000000E+01
4560000000.000000      2.296219000000000E-01     -5.377930000000000E+00      3.188934000000000E-01     -4.606641000000000E+01
4580000000.000000      2.419434000000000E-01     -1.220752000000000E+01      3.211670000000000E-01     -7.564843000000000E+01
4600000000.000000      2.422104000000000E-01     -1.817773000000000E+01      3.184204000000000E-01     -1.056133000000000E+02
4620000000.000000      2.362137000000000E-01     -2.239746000000000E+01      3.134155000000000E-01     -1.353906000000000E+02
4640000000.000000      2.332230000000000E-01     -2.479101000000000E+01      3.135376000000000E-01     -1.651484000000000E+02
4660000000.000000      2.345352000000000E-01     -2.733887000000000E+01      3.116150000000000E-01      1.659297000000000E+02
4680000000.000000      2.373505000000000E-01     -3.128418000000000E+01      3.164673000000000E-01      1.367656000000000E+02
4700000000.000000      2.346115000000000E-01     -3.656836000000000E+01      3.170319000000000E-01      1.069765000000000E+02
4720000000.000000      2.252502000000000E-01     -4.241211000000000E+01      3.149872000000000E-01      7.912499000000000E+01
4740000000.000000      2.110748000000000E-01     -4.762304000000000E+01      3.196411000000000E-01      5.106640000000000E+01
4760000000.000000      1.926804000000000E-01     -5.267578000000000E+01      3.192596000000000E-01      2.232812000000000E+01
4780000000.000000      1.724548000000000E-01     -5.688671000000000E+01      3.162384000000000E-01     -6.109863000000000E+00
4800000000.000000      1.463089000000000E-01     -6.166406000000000E+01      3.123932000000000E-01     -3.463476000000000E+01
4820000000.000000      1.092491000000000E-01     -6.429688000000000E+01      3.047638000000000E-01     -6.354882000000000E+01
4840000000.000000      6.620789000000000E-02     -5.089062000000000E+01      2.965546000000000E-01     -9.235546000000000E+01
4860000000.000000      6.448364000000000E-02     -1.073914000000000E+00      2.894592000000000E-01     -1.229375000000000E+02
4880000000.000000      1.208382000000000E-01      1.556445000000000E+01      2.708130000000000E-01     -1.537578000000000E+02
4900000000.000000      1.849213000000000E-01      9.752930000000000E+00      2.498779000000000E-01      1.790781000000000E+02
4920000000.000000      2.392807000000000E-01     -1.790771000000000E+00      2.515564000000000E-01      1.539375000000000E+02
4940000000.000000      2.755737000000000E-01     -1.459424000000000E+01      2.659454000000000E-01      1.253359000000000E+02
4960000000.000000      2.907257000000000E-01     -2.785937000000000E+01      2.700043000000000E-01      9.535547000000000E+01
4980000000.000000      2.827148000000000E-01     -4.015038000000000E+01      2.765808000000000E-01      6.789063000000000E+01
5000000000.000000      2.547150000000000E-01     -4.989452000000000E+01      2.898865000000000E-01      3.995703000000000E+01
5020000000.000000      2.165146000000000E-01     -5.451172000000000E+01      2.987976000000000E-01      1.143652000000000E+01
5040000000.000000      1.863708000000000E-01     -5.243750000000000E+01      3.040771000000000E-01     -1.582861000000000E+01
5060000000.000000      1.782074000000000E-01     -4.635742000000000E+01      3.124695000000000E-01     -4.299414000000000E+01
5080000000.000000      1.864090000000000E-01     -4.283399000000000E+01      3.172455000000000E-01     -7.134766000000000E+01
5100000000.000000      1.983261000000000E-01     -4.338476000000000E+01      3.128967000000000E-01     -9.963671000000000E+01
5120000000.000000      2.057953000000000E-01     -4.610156000000000E+01      3.080750000000000E-01     -1.271758000000000E+02
5140000000.000000      2.089462000000000E-01     -4.858984000000000E+01      3.063812000000000E-01     -1.555469000000000E+02
5160000000.000000      2.120132000000000E-01     -5.080078000000000E+01      3.038940000000000E-01      1.751641000000000E+02
5180000000.000000      2.165756000000000E-01     -5.341991000000000E+01      2.998657000000000E-01      1.453984000000000E+02
5200000000.000000      2.199631000000000E-01     -5.691796000000000E+01      2.987823000000000E-01      1.156211000000000E+02
5220000000.000000      2.177353000000000E-01     -6.039648000000000E+01      2.983704000000000E-01      8.587500000000000E+01
5240000000.000000      2.125092000000000E-01     -6.294531000000000E+01      3.027191000000000E-01      5.620898000000000E+01
5260000000.000000      2.060471000000000E-01     -6.396289000000000E+01      3.071289000000000E-01      2.648730000000000E+01
5280000000.000000      2.021866000000000E-01     -6.379883000000000E+01      3.111725000000000E-01     -2.646362000000000E+00
5300000000.000000      2.045135000000000E-01     -6.410156000000000E+01      3.137360000000000E-01     -3.073339000000000E+01
5320000000.000000      2.084351000000000E-01     -6.576562000000000E+01      3.181458000000000E-01     -5.777148000000000E+01
5340000000.000000      2.084503000000000E-01     -6.873828000000000E+01      3.219757000000000E-01     -8.569921000000000E+01
5360000000.000000      2.041931000000000E-01     -7.162890000000000E+01      3.180542000000000E-01     -1.130351000000000E+02
5380000000.000000      1.994629000000000E-01     -7.303124000000000E+01      3.145142000000000E-01     -1.395234000000000E+02
5400000000.000000      1.984100000000000E-01     -7.330078000000000E+01      3.124084000000000E-01     -1.672969000000000E+02
5420000000.000000      2.054825000000000E-01     -7.311328000000000E+01      3.060760000000000E-01      1.645937000000000E+02
5440000000.000000      2.163544000000000E-01     -7.479297000000000E+01      3.016357000000000E-01      1.354297000000000E+02
5460000000.000000      2.251816000000000E-01     -7.877343000000000E+01      2.916260000000000E-01      1.059844000000000E+02
5480000000.000000      2.242203000000000E-01     -8.391405000000000E+01      2.873840000000000E-01      7.650000000000000E+01
5500000000.000000      2.134018000000000E-01     -8.913671000000000E+01      2.888184000000000E-01      4.671094000000000E+01
5520000000.000000      1.961594000000000E-01     -9.265234000000000E+01      2.902679000000000E-01      1.643555000000000E+01
5540000000.000000      1.796722000000000E-01     -9.375000000000000E+01      2.932739000000000E-01     -1.339551000000000E+01
5560000000.000000      1.663971000000000E-01     -9.346094000000000E+01      2.982330000000000E-01     -4.225390000000000E+01
5580000000.000000      1.580658000000000E-01     -9.208202000000000E+01      3.045197000000000E-01     -7.079687000000000E+01
5600000000.000000      1.519699000000000E-01     -8.971483000000000E+01      3.081818000000000E-01     -9.879686000000000E+01
5620000000.000000      1.491547000000000E-01     -8.616014000000000E+01      3.098602000000000E-01     -1.264180000000000E+02
5640000000.000000      1.551666000000000E-01     -8.099609000000000E+01      3.088074000000000E-01     -1.540547000000000E+02
5660000000.000000      1.726227000000000E-01     -7.768749000000000E+01      3.033142000000000E-01      1.787891000000000E+02
5680000000.000000      1.977463000000000E-01     -7.889453000000000E+01      2.965698000000000E-01      1.508437000000000E+02
5700000000.000000      2.202072000000000E-01     -8.469530000000000E+01      2.869110000000000E-01      1.228164000000000E+02
5720000000.000000      2.307510000000000E-01     -9.291796000000000E+01      2.761078000000000E-01      9.507421000000000E+01
5740000000.000000      2.257690000000000E-01     -1.018359000000000E+02      2.727509000000000E-01      6.630077000000000E+01
5760000000.000000      2.059860000000000E-01     -1.092656000000000E+02      2.685547000000000E-01      3.544531000000000E+01
5780000000.000000      1.805954000000000E-01     -1.121562000000000E+02      2.644196000000000E-01      4.909424000000000E+00
5800000000.000000      1.635590000000000E-01     -1.098047000000000E+02      2.644806000000000E-01     -2.525391000000000E+01
5820000000.000000      1.628876000000000E-01     -1.063906000000000E+02      2.703705000000000E-01     -5.506640000000000E+01
5840000000.000000      1.715393000000000E-01     -1.074141000000000E+02      2.781677000000000E-01     -8.555859000000000E+01
5860000000.000000      1.780167000000000E-01     -1.120391000000000E+02      2.780304000000000E-01     -1.146719000000000E+02
5880000000.000000      1.738129000000000E-01     -1.187383000000000E+02      2.800140000000000E-01     -1.422422000000000E+02
5900000000.000000      1.596375000000000E-01     -1.236094000000000E+02      2.879639000000000E-01     -1.693906000000000E+02
5920000000.000000      1.429672000000000E-01     -1.251445000000000E+02      2.907715000000000E-01      1.624219000000000E+02
5940000000.000000      1.329575000000000E-01     -1.225586000000000E+02      2.852173000000000E-01      1.338828000000000E+02
5960000000.000000      1.293411000000000E-01     -1.216719000000000E+02      2.731018000000000E-01      1.063945000000000E+02
5980000000.000000      1.233521000000000E-01     -1.231406000000000E+02      2.656860000000000E-01      7.896484000000000E+01
6000000000.000000      1.072044000000000E-01     -1.245273000000000E+02      2.611084000000000E-01      4.941406000000000E+01
6020000000.000000      8.413315000000000E-02     -1.197305000000000E+02      2.502289000000000E-01      1.848535000000000E+01
6040000000.000000      7.244492000000000E-02     -1.016211000000000E+02      2.382889000000000E-01     -1.172949000000000E+01
6060000000.000000      8.699036000000000E-02     -8.428905000000000E+01      2.341309000000000E-01     -4.149219000000000E+01
6080000000.000000      1.153717000000000E-01     -8.192577000000000E+01      2.409058000000000E-01     -7.192577000000000E+01
