! Network Analyzer HP8722D
! Hewlett-Packard
! Data name: Linha com CNT
! Saver's name: Rodrigo Anjos
! Comments: Teste de deteccao de acetona 0-100ppm a partir de cilindro
! Time and date: 10/9/2025 18:25
!              Frequency                     S11                                                   S21                                                   S12                                                   S22
# HZ  S  MA R 50
3000000000.000000      8.235550000000000E-02      9.081249000000000E+01      4.528198000000000E-01      2.493457000000000E+01
3020000000.000000      9.646988000000000E-02      7.615624000000000E+01      4.537964000000000E-01     -3.882324000000000E+00
3040000000.000000      9.609222000000000E-02      6.032031000000000E+01      4.551239000000000E-01     -3.281445000000000E+01
3060000000.000000      8.244324000000000E-02      4.608203000000000E+01      4.510651000000000E-01     -6.145508000000000E+01
3080000000.000000      6.186867000000000E-02      3.748828000000000E+01      4.534302000000000E-01     -8.991405000000000E+01
3100000000.000000      4.463196000000000E-02      4.136328000000000E+01      4.516449000000000E-01     -1.184727000000000E+02
3120000000.000000      3.991127000000000E-02      5.418163000000000E+01      4.485931000000000E-01     -1.471797000000000E+02
3140000000.000000      3.980446000000000E-02      5.837304000000000E+01      4.448700000000000E-01     -1.756406000000000E+02
3160000000.000000      3.138733000000000E-02      6.003906000000000E+01      4.412537000000000E-01      1.560078000000000E+02
3180000000.000000      2.249432000000000E-02      1.071367000000000E+02      4.409790000000000E-01      1.272187000000000E+02
3200000000.000000      5.412292000000000E-02      1.424453000000000E+02      4.355927000000000E-01      9.791405000000000E+01
3220000000.000000      1.049500000000000E-01      1.360156000000000E+02      4.226685000000000E-01      6.846093000000000E+01
3240000000.000000      1.553192000000000E-01      1.212969000000000E+02      4.113007000000000E-01      4.120507000000000E+01
3260000000.000000      1.974030000000000E-01      1.048945000000000E+02      4.155731000000000E-01      1.375879000000000E+01
3280000000.000000      2.233582000000000E-01      8.808985000000000E+01      4.199066000000000E-01     -1.533301000000000E+01
3300000000.000000      2.327347000000000E-01      7.175390000000000E+01      4.136505000000000E-01     -4.415039000000000E+01
3320000000.000000      2.260742000000000E-01      5.688671000000000E+01      4.158325000000000E-01     -7.182031000000000E+01
3340000000.000000      2.099533000000000E-01      4.443945000000000E+01      4.217377000000000E-01     -1.006133000000000E+02
3360000000.000000      1.865311000000000E-01      3.545898000000000E+01      4.239197000000000E-01     -1.288672000000000E+02
3380000000.000000      1.628418000000000E-01      3.057031000000000E+01      4.294281000000000E-01     -1.571640000000000E+02
3400000000.000000      1.435547000000000E-01      2.871679000000000E+01      4.294739000000000E-01      1.739609000000000E+02
3420000000.000000      1.291962000000000E-01      2.854297000000000E+01      4.319000000000000E-01      1.453594000000000E+02
3440000000.000000      1.168976000000000E-01      2.902246000000000E+01      4.300232000000000E-01      1.164805000000000E+02
3460000000.000000      1.059494000000000E-01      3.065136000000000E+01      4.281311000000000E-01      8.828516000000000E+01
3480000000.000000      9.902573000000000E-02      3.356054000000000E+01      4.297791000000000E-01      5.954687000000000E+01
3500000000.000000      9.639359000000000E-02      3.705664000000000E+01      4.245605000000000E-01      3.038867000000000E+01
3520000000.000000      9.495544000000000E-02      3.981640000000000E+01      4.216461000000000E-01      2.253540000000000E+00
3540000000.000000      9.534836000000000E-02      4.303320000000000E+01      4.233856000000000E-01     -2.645410000000000E+01
3560000000.000000      9.788513000000000E-02      4.862695000000000E+01      4.258881000000000E-01     -5.553320000000000E+01
3580000000.000000      1.067696000000000E-01      5.353710000000000E+01      4.254456000000000E-01     -8.415625000000000E+01
3600000000.000000      1.213417000000000E-01      5.425586000000000E+01      4.251709000000000E-01     -1.123984000000000E+02
3620000000.000000      1.347351000000000E-01      5.087109000000000E+01      4.249573000000000E-01     -1.404375000000000E+02
3640000000.000000      1.396561000000000E-01      4.441211000000000E+01      4.258728000000000E-01     -1.688594000000000E+02
3660000000.000000      1.335678000000000E-01      3.793164000000000E+01      4.234467000000000E-01      1.633125000000000E+02
3680000000.000000      1.202621000000000E-01      3.477930000000000E+01      4.278870000000000E-01      1.355859000000000E+02
3700000000.000000      1.077461000000000E-01      3.873632000000000E+01      4.291229000000000E-01      1.070078000000000E+02
3720000000.000000      1.100540000000000E-01      4.707031000000000E+01      4.274139000000000E-01      7.846093000000000E+01
3740000000.000000      1.289139000000000E-01      5.014453000000000E+01      4.225159000000000E-01      4.991601000000000E+01
3760000000.000000      1.473618000000000E-01      4.624413000000000E+01      4.160919000000000E-01      2.212012000000000E+01
3780000000.000000      1.539001000000000E-01      3.873828000000000E+01      4.147949000000000E-01     -5.621094000000000E+00
3800000000.000000      1.453400000000000E-01      3.161426000000000E+01      4.163361000000000E-01     -3.428515000000000E+01
3820000000.000000      1.255264000000000E-01      2.895703000000000E+01      4.173431000000000E-01     -6.290039000000000E+01
3840000000.000000      1.123238000000000E-01      3.468750000000000E+01      4.166565000000000E-01     -9.172266000000000E+01
3860000000.000000      1.184807000000000E-01      4.245898000000000E+01      4.152832000000000E-01     -1.208906000000000E+02
3880000000.000000      1.373672000000000E-01      4.329492000000000E+01      4.118347000000000E-01     -1.498594000000000E+02
3900000000.000000      1.514511000000000E-01      3.730273000000000E+01      4.045410000000000E-01     -1.784531000000000E+02
3920000000.000000      1.479187000000000E-01      2.967090000000000E+01      4.049683000000000E-01      1.544375000000000E+02
3940000000.000000      1.301117000000000E-01      2.629004000000000E+01      4.140472000000000E-01      1.258476000000000E+02
3960000000.000000      1.126595000000000E-01      3.298633000000000E+01      4.125977000000000E-01      9.664452000000000E+01
3980000000.000000      1.203613000000000E-01      4.570703000000000E+01      4.054565000000000E-01      6.810547000000000E+01
4000000000.000000      1.519547000000000E-01      4.849804000000000E+01      3.980560000000000E-01      4.096093000000000E+01
4020000000.000000      1.835480000000000E-01      4.119141000000000E+01      4.053192000000000E-01      1.324658000000000E+01
4040000000.000000      2.003784000000000E-01      2.860840000000000E+01      4.043884000000000E-01     -1.682910000000000E+01
4060000000.000000      1.935883000000000E-01      1.486279000000000E+01      3.903809000000000E-01     -4.551758000000000E+01
4080000000.000000      1.637878000000000E-01      2.145020000000000E+00      3.895721000000000E-01     -7.228906000000000E+01
4100000000.000000      1.180420000000000E-01     -4.448242000000000E+00      4.005127000000000E-01     -1.011445000000000E+02
4120000000.000000      7.849884000000000E-02      7.286621000000000E+00      3.993073000000000E-01     -1.311172000000000E+02
4140000000.000000      7.903290000000000E-02      3.509570000000000E+01      3.930511000000000E-01     -1.598516000000000E+02
4160000000.000000      1.031075000000000E-01      4.314453000000000E+01      3.944092000000000E-01      1.721094000000000E+02
4180000000.000000      1.200714000000000E-01      4.021680000000000E+01      4.021301000000000E-01      1.436641000000000E+02
4200000000.000000      1.223488000000000E-01      3.715429000000000E+01      4.026184000000000E-01      1.135898000000000E+02
4220000000.000000      1.214447000000000E-01      3.915625000000000E+01      3.943634000000000E-01      8.449219000000000E+01
4240000000.000000      1.310883000000000E-01      4.482422000000000E+01      3.886566000000000E-01      5.586914000000000E+01
4260000000.000000      1.557312000000000E-01      4.602539000000000E+01      3.859100000000000E-01      2.801562000000000E+01
4280000000.000000      1.813202000000000E-01      4.133789000000000E+01      3.850555000000000E-01     -3.584290000000000E-01
4300000000.000000      1.964417000000000E-01      3.346289000000000E+01      3.837738000000000E-01     -2.923340000000000E+01
4320000000.000000      1.953430000000000E-01      2.558105000000000E+01      3.789978000000000E-01     -5.795312000000000E+01
4340000000.000000      1.815948000000000E-01      2.010449000000000E+01      3.779297000000000E-01     -8.687891000000000E+01
4360000000.000000      1.687622000000000E-01      1.967480000000000E+01      3.757477000000000E-01     -1.162422000000000E+02
4380000000.000000      1.683884000000000E-01      2.202148000000000E+01      3.741150000000000E-01     -1.455937000000000E+02
4400000000.000000      1.791077000000000E-01      2.151367000000000E+01      3.710480000000000E-01     -1.746562000000000E+02
4420000000.000000      1.884918000000000E-01      1.723730000000000E+01      3.723755000000000E-01      1.563984000000000E+02
4440000000.000000      1.847839000000000E-01      1.143115000000000E+01      3.742676000000000E-01      1.268164000000000E+02
4460000000.000000      1.686707000000000E-01      8.857422000000000E+00      3.674011000000000E-01      9.713280000000000E+01
4480000000.000000      1.514206000000000E-01      1.248291000000000E+01      3.643494000000000E-01      6.860937000000000E+01
4500000000.000000      1.541977000000000E-01      2.096386000000000E+01      3.641510000000000E-01      3.987109000000000E+01
4520000000.000000      1.796875000000000E-01      2.473926000000000E+01      3.609314000000000E-01      1.053418000000000E+01
4540000000.000000      2.095413000000000E-01      2.063965000000000E+01      3.525543000000000E-01     -1.889941000000000E+01
4560000000.000000      2.280807000000000E-01      1.288672000000000E+01      3.467865000000000E-01     -4.725976000000000E+01
4580000000.000000      2.332153000000000E-01      4.299561000000000E+00      3.484344000000000E-01     -7.643749000000000E+01
4600000000.000000      2.256699000000000E-01     -2.708130000000000E+00      3.446655000000000E-01     -1.067891000000000E+02
4620000000.000000      2.146454000000000E-01     -7.039551000000000E+00      3.384552000000000E-01     -1.360312000000000E+02
4640000000.000000      2.092438000000000E-01     -9.535156000000000E+00      3.386078000000000E-01     -1.654297000000000E+02
4660000000.000000      2.083435000000000E-01     -1.262646000000000E+01      3.388519000000000E-01      1.653906000000000E+02
4680000000.000000      2.074356000000000E-01     -1.764453000000000E+01      3.415985000000000E-01      1.362890000000000E+02
4700000000.000000      1.998138000000000E-01     -2.412207000000000E+01      3.414459000000000E-01      1.066289000000000E+02
4720000000.000000      1.834488000000000E-01     -3.065332000000000E+01      3.378296000000000E-01      7.890234000000000E+01
4740000000.000000      1.628342000000000E-01     -3.644140000000000E+01      3.437805000000000E-01      5.073437000000000E+01
4760000000.000000      1.387634000000000E-01     -4.116992000000000E+01      3.448029000000000E-01      2.214844000000000E+01
4780000000.000000      1.136780000000000E-01     -4.563477000000000E+01      3.409119000000000E-01     -6.280273000000000E+00
4800000000.000000      8.116150000000000E-02     -4.937695000000000E+01      3.378448000000000E-01     -3.487500000000000E+01
4820000000.000000      3.944206000000000E-02     -4.057617000000000E+01      3.311005000000000E-01     -6.387500000000000E+01
4840000000.000000      3.931618000000000E-02      4.983593000000000E+01      3.249817000000000E-01     -9.290625000000000E+01
4860000000.000000      1.054611000000000E-01      5.829883000000000E+01      3.185272000000000E-01     -1.236289000000000E+02
4880000000.000000      1.761017000000000E-01      4.649414000000000E+01      2.989960000000000E-01     -1.545938000000000E+02
4900000000.000000      2.357788000000000E-01      3.155273000000000E+01      2.757721000000000E-01      1.780547000000000E+02
4920000000.000000      2.781525000000000E-01      1.581201000000000E+01      2.763062000000000E-01      1.526797000000000E+02
4940000000.000000      2.980499000000000E-01      2.705383000000000E-01      2.887421000000000E-01      1.240977000000000E+02
4960000000.000000      2.951965000000000E-01     -1.469580000000000E+01      2.926636000000000E-01      9.425390000000000E+01
4980000000.000000      2.690277000000000E-01     -2.793554000000000E+01      2.970734000000000E-01      6.719921000000000E+01
5000000000.000000      2.264252000000000E-01     -3.773438000000000E+01      3.117828000000000E-01      3.954102000000000E+01
5020000000.000000      1.794739000000000E-01     -4.012109000000000E+01      3.213043000000000E-01      1.124268000000000E+01
5040000000.000000      1.507263000000000E-01     -3.330078000000000E+01      3.285675000000000E-01     -1.610937000000000E+01
5060000000.000000      1.519775000000000E-01     -2.371973000000000E+01      3.368835000000000E-01     -4.355859000000000E+01
5080000000.000000      1.680908000000000E-01     -2.083594000000000E+01      3.426819000000000E-01     -7.201953000000000E+01
5100000000.000000      1.816864000000000E-01     -2.309961000000000E+01      3.374481000000000E-01     -1.006172000000000E+02
5120000000.000000      1.868820000000000E-01     -2.714453000000000E+01      3.322449000000000E-01     -1.280000000000000E+02
5140000000.000000      1.878815000000000E-01     -3.042969000000000E+01      3.314819000000000E-01     -1.564687000000000E+02
5160000000.000000      1.892548000000000E-01     -3.317187000000000E+01      3.286285000000000E-01      1.743672000000000E+02
5180000000.000000      1.913452000000000E-01     -3.642578000000000E+01      3.251801000000000E-01      1.446640000000000E+02
5200000000.000000      1.922302000000000E-01     -4.057617000000000E+01      3.240662000000000E-01      1.148555000000000E+02
5220000000.000000      1.871796000000000E-01     -4.449219000000000E+01      3.237762000000000E-01      8.545313000000000E+01
5240000000.000000      1.785660000000000E-01     -4.666016000000000E+01      3.275604000000000E-01      5.579492000000000E+01
5260000000.000000      1.721497000000000E-01     -4.687109000000000E+01      3.313904000000000E-01      2.616601000000000E+01
5280000000.000000      1.700897000000000E-01     -4.578515000000000E+01      3.359222000000000E-01     -2.853760000000000E+00
5300000000.000000      1.744232000000000E-01     -4.630468000000000E+01      3.383636000000000E-01     -3.105762000000000E+01
5320000000.000000      1.784286000000000E-01     -4.891211000000000E+01      3.420258000000000E-01     -5.839257000000000E+01
5340000000.000000      1.758423000000000E-01     -5.263476000000000E+01      3.457794000000000E-01     -8.615625000000000E+01
5360000000.000000      1.689301000000000E-01     -5.563867000000000E+01      3.412170000000000E-01     -1.136562000000000E+02
5380000000.000000      1.623154000000000E-01     -5.668945000000000E+01      3.374176000000000E-01     -1.402578000000000E+02
5400000000.000000      1.617889000000000E-01     -5.627734000000000E+01      3.371277000000000E-01     -1.678437000000000E+02
5420000000.000000      1.701660000000000E-01     -5.627148000000000E+01      3.309326000000000E-01      1.638203000000000E+02
5440000000.000000      1.808777000000000E-01     -5.918163000000000E+01      3.265533000000000E-01      1.349375000000000E+02
5460000000.000000      1.866150000000000E-01     -6.465234000000000E+01      3.166351000000000E-01      1.053359000000000E+02
5480000000.000000      1.818161000000000E-01     -7.110937000000000E+01      3.111420000000000E-01      7.616405000000000E+01
5500000000.000000      1.661377000000000E-01     -7.685156000000000E+01      3.131409000000000E-01      4.662305000000000E+01
5520000000.000000      1.448898000000000E-01     -7.967968000000000E+01      3.145447000000000E-01      1.638281000000000E+01
5540000000.000000      1.268234000000000E-01     -7.892968000000000E+01      3.174744000000000E-01     -1.302979000000000E+01
5560000000.000000      1.151619000000000E-01     -7.563671000000000E+01      3.233185000000000E-01     -4.210938000000000E+01
5580000000.000000      1.088982000000000E-01     -7.102344000000000E+01      3.291016000000000E-01     -7.077343000000000E+01
5600000000.000000      1.063156000000000E-01     -6.590234000000000E+01      3.327026000000000E-01     -9.888672000000000E+01
5620000000.000000      1.095314000000000E-01     -5.915625000000000E+01      3.342590000000000E-01     -1.267891000000000E+02
5640000000.000000      1.245995000000000E-01     -5.324023000000000E+01      3.328705000000000E-01     -1.545078000000000E+02
5660000000.000000      1.486893000000000E-01     -5.263672000000000E+01      3.276367000000000E-01      1.780937000000000E+02
5680000000.000000      1.753082000000000E-01     -5.776367000000000E+01      3.207397000000000E-01      1.500391000000000E+02
5700000000.000000      1.934509000000000E-01     -6.731640000000000E+01      3.105469000000000E-01      1.219414000000000E+02
5720000000.000000      1.959915000000000E-01     -7.853125000000000E+01      2.986145000000000E-01      9.428125000000000E+01
5740000000.000000      1.827393000000000E-01     -8.973047000000000E+01      2.954712000000000E-01      6.580468000000000E+01
5760000000.000000      1.555328000000000E-01     -9.828514000000000E+01      2.923584000000000E-01      3.525000000000000E+01
5780000000.000000      1.270370000000000E-01     -9.963671000000000E+01      2.887115000000000E-01      5.053711000000000E+00
5800000000.000000      1.110725000000000E-01     -9.286718000000000E+01      2.890015000000000E-01     -2.482422000000000E+01
5820000000.000000      1.153297000000000E-01     -8.696875000000000E+01      2.938995000000000E-01     -5.489843000000000E+01
5840000000.000000      1.253967000000000E-01     -8.958984000000000E+01      3.013763000000000E-01     -8.519140000000000E+01
5860000000.000000      1.276703000000000E-01     -9.730469000000000E+01      3.003387000000000E-01     -1.143711000000000E+02
5880000000.000000      1.177826000000000E-01     -1.069219000000000E+02      3.016205000000000E-01     -1.417813000000000E+02
5900000000.000000      9.793091000000000E-02     -1.131484000000000E+02      3.100891000000000E-01     -1.690469000000000E+02
5920000000.000000      7.860565000000000E-02     -1.113828000000000E+02      3.133240000000000E-01      1.626328000000000E+02
5940000000.000000      7.055283000000000E-02     -1.021289000000000E+02      3.077087000000000E-01      1.336250000000000E+02
5960000000.000000      6.996918000000000E-02     -9.648046000000000E+01      2.960663000000000E-01      1.057734000000000E+02
5980000000.000000      6.406021000000000E-02     -9.573437000000000E+01      2.886505000000000E-01      7.835938000000000E+01
6000000000.000000      4.847908000000000E-02     -8.870703000000000E+01      2.850647000000000E-01      4.877930000000000E+01
6020000000.000000      4.082489000000000E-02     -5.441015000000000E+01      2.758942000000000E-01      1.789648000000000E+01
6040000000.000000      6.466675000000000E-02     -2.994238000000000E+01      2.636719000000000E-01     -1.214307000000000E+01
6060000000.000000      9.899139000000000E-02     -3.194336000000000E+01      2.605591000000000E-01     -4.176953000000000E+01
6080000000.000000      1.272812000000000E-01     -4.290429000000000E+01      2.661591000000000E-01     -7.226563000000000E+01
