! Network Analyzer HP8722D
! Hewlett-Packard
! Data name: Linha com CNT
! Saver's name: Rodrigo Anjos
! Comments: Teste de deteccao de acetona 0-100ppm a partir de cilindro
! Time and date: 10/9/2025 17:41
!              Frequency                     S11                                                   S21                                                   S12                                                   S22
# HZ  S  MA R 50
3000000000.000000      2.298050000000000E-01      2.738574000000000E+01      3.536377000000000E-01      2.739160000000000E+01
3020000000.000000      2.478485000000000E-01      2.712109000000000E+01      3.552399000000000E-01     -1.715271000000000E+00
3040000000.000000      2.597351000000000E-01      2.357031000000000E+01      3.563538000000000E-01     -3.077637000000000E+01
3060000000.000000      2.607269000000000E-01      1.950195000000000E+01      3.543549000000000E-01     -5.958984000000000E+01
3080000000.000000      2.533875000000000E-01      1.575830000000000E+01      3.523712000000000E-01     -8.840624000000000E+01
3100000000.000000      2.415237000000000E-01      1.369580000000000E+01      3.510742000000000E-01     -1.167422000000000E+02
3120000000.000000      2.358627000000000E-01      1.418848000000000E+01      3.486481000000000E-01     -1.454297000000000E+02
3140000000.000000      2.361984000000000E-01      1.358008000000000E+01      3.444519000000000E-01     -1.739063000000000E+02
3160000000.000000      2.339249000000000E-01      1.203125000000000E+01      3.422089000000000E-01      1.578203000000000E+02
3180000000.000000      2.223206000000000E-01      1.010986000000000E+01      3.369293000000000E-01      1.294766000000000E+02
3200000000.000000      1.986160000000000E-01      1.209033000000000E+01      3.305206000000000E-01      1.000625000000000E+02
3220000000.000000      1.861115000000000E-01      1.929688000000000E+01      3.181763000000000E-01      7.114452000000000E+01
3240000000.000000      1.919861000000000E-01      2.755566000000000E+01      3.106995000000000E-01      4.503711000000000E+01
3260000000.000000      2.174988000000000E-01      3.422070000000000E+01      3.179626000000000E-01      1.822949000000000E+01
3280000000.000000      2.580414000000000E-01      3.401367000000000E+01      3.248138000000000E-01     -1.102783000000000E+01
3300000000.000000      2.917633000000000E-01      2.921093000000000E+01      3.254700000000000E-01     -3.979297000000000E+01
3320000000.000000      3.144836000000000E-01      2.320019000000000E+01      3.320007000000000E-01     -6.797656000000000E+01
3340000000.000000      3.226013000000000E-01      1.701172000000000E+01      3.374329000000000E-01     -9.721874000000000E+01
3360000000.000000      3.186188000000000E-01      1.221094000000000E+01      3.384552000000000E-01     -1.262422000000000E+02
3380000000.000000      3.110352000000000E-01      8.880859000000000E+00      3.405304000000000E-01     -1.548828000000000E+02
3400000000.000000      2.996368000000000E-01      6.657715000000000E+00      3.414612000000000E-01      1.761016000000000E+02
3420000000.000000      2.923737000000000E-01      5.546631000000000E+00      3.406067000000000E-01      1.473672000000000E+02
3440000000.000000      2.840576000000000E-01      3.673462000000000E+00      3.385773000000000E-01      1.186680000000000E+02
3460000000.000000      2.743378000000000E-01      3.088501000000000E+00      3.363342000000000E-01      9.030077000000000E+01
3480000000.000000      2.711639000000000E-01      2.504883000000000E+00      3.352051000000000E-01      6.152538000000000E+01
3500000000.000000      2.652283000000000E-01      1.753662000000000E+00      3.318787000000000E-01      3.268164000000000E+01
3520000000.000000      2.637329000000000E-01      2.098389000000000E+00      3.289490000000000E-01      4.371094000000000E+00
3540000000.000000      2.653046000000000E-01      1.344421000000000E+00      3.291626000000000E-01     -2.402050000000000E+01
3560000000.000000      2.591400000000000E-01      1.292236000000000E+00      3.305054000000000E-01     -5.288280000000000E+01
3580000000.000000      2.578278000000000E-01      2.396362000000000E+00      3.293457000000000E-01     -8.158203000000000E+01
3600000000.000000      2.595673000000000E-01      3.001953000000000E+00      3.292847000000000E-01     -1.095351000000000E+02
3620000000.000000      2.670288000000000E-01      3.445557000000000E+00      3.320770000000000E-01     -1.377422000000000E+02
3640000000.000000      2.746735000000000E-01      1.912964000000000E+00      3.328857000000000E-01     -1.660938000000000E+02
3660000000.000000      2.769623000000000E-01     -6.221008000000000E-01      3.330536000000000E-01      1.657578000000000E+02
3680000000.000000      2.762756000000000E-01     -3.225952000000000E+00      3.341675000000000E-01      1.378906000000000E+02
3700000000.000000      2.646790000000000E-01     -5.262451000000000E+00      3.345642000000000E-01      1.097266000000000E+02
3720000000.000000      2.550659000000000E-01     -3.738159000000000E+00      3.338165000000000E-01      8.103907000000000E+01
3740000000.000000      2.600403000000000E-01     -1.939087000000000E+00      3.278503000000000E-01      5.282617000000000E+01
3760000000.000000      2.687683000000000E-01     -1.311523000000000E+00      3.247681000000000E-01      2.513476000000000E+01
3780000000.000000      2.804871000000000E-01     -2.650513000000000E+00      3.253784000000000E-01     -2.797485000000000E+00
3800000000.000000      2.863464000000000E-01     -6.166260000000000E+00      3.258209000000000E-01     -3.155273000000000E+01
3820000000.000000      2.779694000000000E-01     -9.599609000000000E+00      3.252411000000000E-01     -6.042382000000000E+01
3840000000.000000      2.639923000000000E-01     -1.073682000000000E+01      3.242950000000000E-01     -8.923437000000000E+01
3860000000.000000      2.578583000000000E-01     -9.199707000000000E+00      3.233948000000000E-01     -1.181797000000000E+02
3880000000.000000      2.641907000000000E-01     -7.921143000000000E+00      3.201904000000000E-01     -1.470703000000000E+02
3900000000.000000      2.734680000000000E-01     -8.694336000000000E+00      3.167267000000000E-01     -1.752578000000000E+02
3920000000.000000      2.814026000000000E-01     -1.079004000000000E+01      3.183594000000000E-01      1.571172000000000E+02
3940000000.000000      2.781067000000000E-01     -1.455566000000000E+01      3.235474000000000E-01      1.286172000000000E+02
3960000000.000000      2.604065000000000E-01     -1.580420000000000E+01      3.223572000000000E-01      9.953514000000000E+01
3980000000.000000      2.491608000000000E-01     -1.355713000000000E+01      3.138580000000000E-01      7.091015000000000E+01
4000000000.000000      2.511597000000000E-01     -1.025586000000000E+01      3.094788000000000E-01      4.448828000000000E+01
4020000000.000000      2.708435000000000E-01     -8.201660000000000E+00      3.171844000000000E-01      1.684668000000000E+01
4040000000.000000      2.996368000000000E-01     -1.119531000000000E+01      3.184814000000000E-01     -1.326465000000000E+01
4060000000.000000      3.121796000000000E-01     -1.686035000000000E+01      3.105316000000000E-01     -4.219336000000000E+01
4080000000.000000      3.098907000000000E-01     -2.322656000000000E+01      3.094025000000000E-01     -6.983203000000000E+01
4100000000.000000      2.890930000000000E-01     -2.868261000000000E+01      3.144226000000000E-01     -9.904686000000000E+01
4120000000.000000      2.595062000000000E-01     -2.979785000000000E+01      3.107147000000000E-01     -1.291016000000000E+02
4140000000.000000      2.431030000000000E-01     -2.775488000000000E+01      3.038330000000000E-01     -1.576875000000000E+02
4160000000.000000      2.368393000000000E-01     -2.506054000000000E+01      3.045502000000000E-01      1.749375000000000E+02
4180000000.000000      2.445450000000000E-01     -2.343164000000000E+01      3.111115000000000E-01      1.461953000000000E+02
4200000000.000000      2.472534000000000E-01     -2.551367000000000E+01      3.108521000000000E-01      1.166562000000000E+02
4220000000.000000      2.390442000000000E-01     -2.610644000000000E+01      3.077545000000000E-01      8.771093000000000E+01
4240000000.000000      2.347412000000000E-01     -2.417285000000000E+01      3.014069000000000E-01      5.934375000000000E+01
4260000000.000000      2.375107000000000E-01     -2.210938000000000E+01      2.970886000000000E-01      3.170507000000000E+01
4280000000.000000      2.473907000000000E-01     -1.996094000000000E+01      2.981110000000000E-01      3.714722000000000E+00
4300000000.000000      2.643585000000000E-01     -2.062304000000000E+01      2.969055000000000E-01     -2.498437000000000E+01
4320000000.000000      2.752075000000000E-01     -2.356934000000000E+01      2.956848000000000E-01     -5.377343000000000E+01
4340000000.000000      2.758636000000000E-01     -2.718847000000000E+01      2.959442000000000E-01     -8.300390000000000E+01
4360000000.000000      2.696533000000000E-01     -2.927246000000000E+01      2.944031000000000E-01     -1.126211000000000E+02
4380000000.000000      2.655945000000000E-01     -2.953613000000000E+01      2.921143000000000E-01     -1.421484000000000E+02
4400000000.000000      2.680206000000000E-01     -2.943945000000000E+01      2.895966000000000E-01     -1.711641000000000E+02
4420000000.000000      2.761536000000000E-01     -3.006836000000000E+01      2.924652000000000E-01      1.601094000000000E+02
4440000000.000000      2.835693000000000E-01     -3.277929000000000E+01      2.945709000000000E-01      1.304141000000000E+02
4460000000.000000      2.776489000000000E-01     -3.601367000000000E+01      2.904663000000000E-01      1.007031000000000E+02
4480000000.000000      2.654114000000000E-01     -3.749609000000000E+01      2.873840000000000E-01      7.208984000000000E+01
4500000000.000000      2.535858000000000E-01     -3.673047000000000E+01      2.849579000000000E-01      4.359375000000000E+01
4520000000.000000      2.521667000000000E-01     -3.397851000000000E+01      2.816620000000000E-01      1.464746000000000E+01
4540000000.000000      2.652435000000000E-01     -3.241015000000000E+01      2.750092000000000E-01     -1.434033000000000E+01
4560000000.000000      2.832336000000000E-01     -3.322266000000000E+01      2.714081000000000E-01     -4.222070000000000E+01
4580000000.000000      3.001099000000000E-01     -3.618750000000000E+01      2.740631000000000E-01     -7.185156000000000E+01
4600000000.000000      3.056335000000000E-01     -4.012891000000000E+01      2.721558000000000E-01     -1.021601000000000E+02
4620000000.000000      3.047180000000000E-01     -4.249023000000000E+01      2.686920000000000E-01     -1.322031000000000E+02
4640000000.000000      3.082275000000000E-01     -4.442773000000000E+01      2.673187000000000E-01     -1.622578000000000E+02
4660000000.000000      3.095093000000000E-01     -4.646874000000000E+01      2.676544000000000E-01      1.688047000000000E+02
4680000000.000000      3.150787000000000E-01     -4.865039000000000E+01      2.724304000000000E-01      1.393047000000000E+02
4700000000.000000      3.183899000000000E-01     -5.231054000000000E+01      2.733459000000000E-01      1.095742000000000E+02
4720000000.000000      3.142548000000000E-01     -5.597265000000000E+01      2.723999000000000E-01      8.133984000000000E+01
4740000000.000000      3.091431000000000E-01     -5.972070000000000E+01      2.763519000000000E-01      5.305859000000000E+01
4760000000.000000      2.992249000000000E-01     -6.342578000000000E+01      2.762756000000000E-01      2.461719000000000E+01
4780000000.000000      2.866211000000000E-01     -6.657812000000000E+01      2.719879000000000E-01     -3.841187000000000E+00
4800000000.000000      2.714539000000000E-01     -7.030078000000000E+01      2.667236000000000E-01     -3.207617000000000E+01
4820000000.000000      2.451553000000000E-01     -7.332812000000000E+01      2.574310000000000E-01     -6.094140000000000E+01
4840000000.000000      2.100906000000000E-01     -7.353516000000000E+01      2.481003000000000E-01     -8.954687000000000E+01
4860000000.000000      1.774445000000000E-01     -6.714844000000000E+01      2.401047000000000E-01     -1.194492000000000E+02
4880000000.000000      1.710281000000000E-01     -5.319140000000000E+01      2.230911000000000E-01     -1.498828000000000E+02
4900000000.000000      1.971283000000000E-01     -4.328321000000000E+01      2.057953000000000E-01     -1.764453000000000E+02
4920000000.000000      2.386780000000000E-01     -4.035742000000000E+01      2.100372000000000E-01      1.586328000000000E+02
4940000000.000000      2.854004000000000E-01     -4.350586000000000E+01      2.239075000000000E-01      1.296016000000000E+02
4960000000.000000      3.195343000000000E-01     -5.054492000000000E+01      2.304688000000000E-01      9.911327000000000E+01
4980000000.000000      3.335114000000000E-01     -5.861133000000000E+01      2.381821000000000E-01      7.080468000000000E+01
5000000000.000000      3.263855000000000E-01     -6.602344000000000E+01      2.508240000000000E-01      4.251367000000000E+01
5020000000.000000      3.043213000000000E-01     -7.067187000000000E+01      2.582550000000000E-01      1.388672000000000E+01
5040000000.000000      2.820435000000000E-01     -7.228125000000000E+01      2.620087000000000E-01     -1.322070000000000E+01
5060000000.000000      2.672729000000000E-01     -7.126953000000000E+01      2.684326000000000E-01     -3.994726000000000E+01
5080000000.000000      2.653809000000000E-01     -6.947266000000000E+01      2.737122000000000E-01     -6.800390000000000E+01
5100000000.000000      2.717438000000000E-01     -6.935547000000000E+01      2.694550000000000E-01     -9.594921000000000E+01
5120000000.000000      2.772064000000000E-01     -7.028125000000000E+01      2.661438000000000E-01     -1.233203000000000E+02
5140000000.000000      2.840271000000000E-01     -7.148046000000000E+01      2.638702000000000E-01     -1.515859000000000E+02
5160000000.000000      2.874146000000000E-01     -7.337109000000000E+01      2.601776000000000E-01      1.789609000000000E+02
5180000000.000000      2.934418000000000E-01     -7.474999000000000E+01      2.558746000000000E-01      1.491016000000000E+02
5200000000.000000      3.003998000000000E-01     -7.712500000000000E+01      2.544403000000000E-01      1.189805000000000E+02
5220000000.000000      3.005676000000000E-01     -7.968750000000000E+01      2.542114000000000E-01      8.905077000000000E+01
5240000000.000000      2.985687000000000E-01     -8.180859000000000E+01      2.579193000000000E-01      5.889843000000000E+01
5260000000.000000      2.934418000000000E-01     -8.335155000000000E+01      2.631531000000000E-01      2.893164000000000E+01
5280000000.000000      2.902679000000000E-01     -8.396093000000000E+01      2.669220000000000E-01     -1.634216000000000E-01
5300000000.000000      2.908325000000000E-01     -8.493359000000000E+01      2.704163000000000E-01     -2.798144000000000E+01
5320000000.000000      2.911224000000000E-01     -8.607031000000000E+01      2.760620000000000E-01     -5.504492000000000E+01
5340000000.000000      2.940216000000000E-01     -8.785156000000000E+01      2.794495000000000E-01     -8.275000000000000E+01
5360000000.000000      2.915192000000000E-01     -9.019531000000000E+01      2.765045000000000E-01     -1.098398000000000E+02
5380000000.000000      2.891388000000000E-01     -9.104296000000000E+01      2.727509000000000E-01     -1.364531000000000E+02
5400000000.000000      2.909546000000000E-01     -9.204296000000000E+01      2.693634000000000E-01     -1.638047000000000E+02
5420000000.000000      2.940369000000000E-01     -9.226954000000000E+01      2.636871000000000E-01      1.681172000000000E+02
5440000000.000000      3.043060000000000E-01     -9.291407000000000E+01      2.579193000000000E-01      1.392578000000000E+02
5460000000.000000      3.137665000000000E-01     -9.558985000000000E+01      2.487488000000000E-01      1.096758000000000E+02
5480000000.000000      3.160095000000000E-01     -9.866796000000000E+01      2.444229000000000E-01      7.956640000000000E+01
5500000000.000000      3.122253000000000E-01     -1.022734000000000E+02      2.454834000000000E-01      4.927539000000000E+01
5520000000.000000      3.002319000000000E-01     -1.052578000000000E+02      2.471313000000000E-01      1.862500000000000E+01
5540000000.000000      2.891388000000000E-01     -1.071055000000000E+02      2.500916000000000E-01     -1.146973000000000E+01
5560000000.000000      2.788239000000000E-01     -1.088242000000000E+02      2.551270000000000E-01     -4.039648000000000E+01
5580000000.000000      2.678070000000000E-01     -1.092500000000000E+02      2.617035000000000E-01     -6.886328000000000E+01
5600000000.000000      2.621307000000000E-01     -1.092226000000000E+02      2.656555000000000E-01     -9.650391000000000E+01
5620000000.000000      2.561493000000000E-01     -1.086992000000000E+02      2.677307000000000E-01     -1.237461000000000E+02
5640000000.000000      2.544250000000000E-01     -1.065703000000000E+02      2.668304000000000E-01     -1.510156000000000E+02
5660000000.000000      2.624359000000000E-01     -1.044375000000000E+02      2.621307000000000E-01     -1.775859000000000E+02
5680000000.000000      2.789307000000000E-01     -1.038594000000000E+02      2.557983000000000E-01      1.549687000000000E+02
5700000000.000000      3.001709000000000E-01     -1.061367000000000E+02      2.468567000000000E-01      1.272422000000000E+02
5720000000.000000      3.138123000000000E-01     -1.103086000000000E+02      2.372818000000000E-01      9.935936000000000E+01
5740000000.000000      3.168488000000000E-01     -1.157305000000000E+02      2.323074000000000E-01      7.013672000000000E+01
5760000000.000000      3.065948000000000E-01     -1.208437000000000E+02      2.273483000000000E-01      3.859766000000000E+01
5780000000.000000      2.890625000000000E-01     -1.236211000000000E+02      2.221222000000000E-01      7.320801000000000E+00
5800000000.000000      2.740936000000000E-01     -1.243437000000000E+02      2.215652000000000E-01     -2.323242000000000E+01
5820000000.000000      2.684174000000000E-01     -1.234570000000000E+02      2.282333000000000E-01     -5.341406000000000E+01
5840000000.000000      2.745209000000000E-01     -1.236914000000000E+02      2.370682000000000E-01     -8.405077000000000E+01
5860000000.000000      2.801056000000000E-01     -1.261367000000000E+02      2.404404000000000E-01     -1.132265000000000E+02
5880000000.000000      2.808990000000000E-01     -1.295000000000000E+02      2.434082000000000E-01     -1.406484000000000E+02
5900000000.000000      2.758789000000000E-01     -1.326719000000000E+02      2.499390000000000E-01     -1.676563000000000E+02
5920000000.000000      2.655640000000000E-01     -1.348438000000000E+02      2.517548000000000E-01      1.647578000000000E+02
5940000000.000000      2.579956000000000E-01     -1.352656000000000E+02      2.464294000000000E-01      1.366953000000000E+02
5960000000.000000      2.535553000000000E-01     -1.364063000000000E+02      2.351227000000000E-01      1.097539000000000E+02
5980000000.000000      2.454453000000000E-01     -1.380625000000000E+02      2.270584000000000E-01      8.276562000000000E+01
6000000000.000000      2.336807000000000E-01     -1.398750000000000E+02      2.201233000000000E-01      5.332226000000000E+01
6020000000.000000      2.128448000000000E-01     -1.409765000000000E+02      2.079620000000000E-01      2.249512000000000E+01
6040000000.000000      1.953659000000000E-01     -1.382969000000000E+02      1.953735000000000E-01     -7.988525000000000E+00
6060000000.000000      1.898880000000000E-01     -1.341563000000000E+02      1.908112000000000E-01     -3.797852000000000E+01
6080000000.000000      1.962433000000000E-01     -1.295078000000000E+02      1.968536000000000E-01     -6.868359000000000E+01
