! Network Analyzer HP8722D
! Hewlett-Packard
! Data name: Linha com CNT
! Saver's name: Rodrigo Anjos
! Comments: Teste de deteccao de acetona 0-100ppm a partir de cilindro
! Time and date: 10/9/2025 16:09
!              Frequency                     S11                                                   S21                                                   S12                                                   S22
# HZ  S  MA R 50
3000000000.000000      4.143066000000000E-01      1.650000000000000E+01      2.648621000000000E-01      3.231445000000000E+01
3020000000.000000      4.236145000000000E-01      1.605762000000000E+01      2.690582000000000E-01      2.768555000000000E+00
3040000000.000000      4.319153000000000E-01      1.483936000000000E+01      2.687378000000000E-01     -2.646679000000000E+01
3060000000.000000      4.356537000000000E-01      1.284131000000000E+01      2.689056000000000E-01     -5.553320000000000E+01
3080000000.000000      4.333496000000000E-01      1.091895000000000E+01      2.648773000000000E-01     -8.440624000000000E+01
3100000000.000000      4.292908000000000E-01      9.435547000000000E+00      2.627716000000000E-01     -1.123438000000000E+02
3120000000.000000      4.267120000000000E-01      8.500488000000000E+00      2.625732000000000E-01     -1.409453000000000E+02
3140000000.000000      4.266357000000000E-01      7.585938000000000E+00      2.588959000000000E-01     -1.695391000000000E+02
3160000000.000000      4.262543000000000E-01      6.384277000000000E+00      2.548828000000000E-01      1.618515000000000E+02
3180000000.000000      4.212036000000000E-01      5.170410000000000E+00      2.484512000000000E-01      1.337891000000000E+02
3200000000.000000      4.097137000000000E-01      4.659424000000000E+00      2.447510000000000E-01      1.051445000000000E+02
3220000000.000000      3.977966000000000E-01      5.017822000000000E+00      2.347412000000000E-01      7.632030000000000E+01
3240000000.000000      3.921051000000000E-01      6.375977000000000E+00      2.272949000000000E-01      5.092968000000000E+01
3260000000.000000      3.953705000000000E-01      8.155762000000000E+00      2.363052000000000E-01      2.497851000000000E+01
3280000000.000000      4.089661000000000E-01      9.159668000000000E+00      2.446060000000000E-01     -4.585449000000000E+00
3300000000.000000      4.308624000000000E-01      8.721680000000000E+00      2.470703000000000E-01     -3.320898000000000E+01
3320000000.000000      4.510193000000000E-01      6.845703000000000E+00      2.549591000000000E-01     -6.195313000000000E+01
3340000000.000000      4.635468000000000E-01      4.333984000000000E+00      2.598114000000000E-01     -9.175390000000000E+01
3360000000.000000      4.674072000000000E-01      1.737183000000000E+00      2.621460000000000E-01     -1.212070000000000E+02
3380000000.000000      4.645538000000000E-01     -2.128601000000000E-01      2.614899000000000E-01     -1.505156000000000E+02
3400000000.000000      4.594269000000000E-01     -1.785278000000000E+00      2.616882000000000E-01     -1.792734000000000E+02
3420000000.000000      4.551239000000000E-01     -2.949829000000000E+00      2.595062000000000E-01      1.515859000000000E+02
3440000000.000000      4.498596000000000E-01     -4.166748000000000E+00      2.555542000000000E-01      1.234844000000000E+02
3460000000.000000      4.460602000000000E-01     -5.273438000000000E+00      2.556458000000000E-01      9.522264000000000E+01
3480000000.000000      4.433289000000000E-01     -6.328125000000000E+00      2.530060000000000E-01      6.613281000000000E+01
3500000000.000000      4.412994000000000E-01     -7.028564000000000E+00      2.508240000000000E-01      3.780664000000000E+01
3520000000.000000      4.408875000000000E-01     -8.122070000000000E+00      2.508240000000000E-01      8.955078000000000E+00
3540000000.000000      4.395599000000000E-01     -8.786621000000000E+00      2.464142000000000E-01     -1.962598000000000E+01
3560000000.000000      4.384766000000000E-01     -9.371582000000000E+00      2.477570000000000E-01     -4.765429000000000E+01
3580000000.000000      4.362335000000000E-01     -9.937500000000000E+00      2.479095000000000E-01     -7.644921000000000E+01
3600000000.000000      4.353180000000000E-01     -1.027246000000000E+01      2.477264000000000E-01     -1.038984000000000E+02
3620000000.000000      4.375458000000000E-01     -1.079297000000000E+01      2.519226000000000E-01     -1.321875000000000E+02
3640000000.000000      4.404602000000000E-01     -1.158252000000000E+01      2.526855000000000E-01     -1.606797000000000E+02
3660000000.000000      4.430237000000000E-01     -1.311768000000000E+01      2.541504000000000E-01      1.710703000000000E+02
3680000000.000000      4.429626000000000E-01     -1.463965000000000E+01      2.528076000000000E-01      1.425781000000000E+02
3700000000.000000      4.382935000000000E-01     -1.592090000000000E+01      2.507324000000000E-01      1.152500000000000E+02
3720000000.000000      4.327087000000000E-01     -1.668848000000000E+01      2.522278000000000E-01      8.672266000000000E+01
3740000000.000000      4.326630000000000E-01     -1.671582000000000E+01      2.469101000000000E-01      5.841210000000000E+01
3760000000.000000      4.367981000000000E-01     -1.664746000000000E+01      2.462234000000000E-01      3.124512000000000E+01
3780000000.000000      4.415131000000000E-01     -1.739062000000000E+01      2.481766000000000E-01      2.815186000000000E+00
3800000000.000000      4.473114000000000E-01     -1.889941000000000E+01      2.467728000000000E-01     -2.636719000000000E+01
3820000000.000000      4.453735000000000E-01     -2.087012000000000E+01      2.452774000000000E-01     -5.504883000000000E+01
3840000000.000000      4.402008000000000E-01     -2.223828000000000E+01      2.447510000000000E-01     -8.363281000000000E+01
3860000000.000000      4.359131000000000E-01     -2.302929000000000E+01      2.457428000000000E-01     -1.127969000000000E+02
3880000000.000000      4.343719000000000E-01     -2.327929000000000E+01      2.426147000000000E-01     -1.416250000000000E+02
3900000000.000000      4.398193000000000E-01     -2.372559000000000E+01      2.410126000000000E-01     -1.692188000000000E+02
3920000000.000000      4.452667000000000E-01     -2.501758000000000E+01      2.441559000000000E-01      1.625313000000000E+02
3940000000.000000      4.451752000000000E-01     -2.670507000000000E+01      2.438354000000000E-01      1.338672000000000E+02
3960000000.000000      4.384308000000000E-01     -2.808887000000000E+01      2.442169000000000E-01      1.056484000000000E+02
3980000000.000000      4.290619000000000E-01     -2.864746000000000E+01      2.370300000000000E-01      7.697266000000000E+01
4000000000.000000      4.248199000000000E-01     -2.835254000000000E+01      2.336197000000000E-01      5.123632000000000E+01
4020000000.000000      4.297791000000000E-01     -2.803320000000000E+01      2.422638000000000E-01      2.342285000000000E+01
4040000000.000000      4.444275000000000E-01     -2.849512000000000E+01      2.424774000000000E-01     -7.047852000000000E+00
4060000000.000000      4.597778000000000E-01     -3.046582000000000E+01      2.375259000000000E-01     -3.583203000000000E+01
4080000000.000000      4.663086000000000E-01     -3.380273000000000E+01      2.372208000000000E-01     -6.456249000000000E+01
4100000000.000000      4.596405000000000E-01     -3.680469000000000E+01      2.383423000000000E-01     -9.375000000000000E+01
4120000000.000000      4.458923000000000E-01     -3.875586000000000E+01      2.359009000000000E-01     -1.240351000000000E+02
4140000000.000000      4.322510000000000E-01     -3.929492000000000E+01      2.277985000000000E-01     -1.524453000000000E+02
4160000000.000000      4.262238000000000E-01     -3.936523000000000E+01      2.297974000000000E-01     -1.790469000000000E+02
4180000000.000000      4.250793000000000E-01     -3.965039000000000E+01      2.351303000000000E-01      1.517578000000000E+02
4200000000.000000      4.254913000000000E-01     -4.063867000000000E+01      2.325516000000000E-01      1.229688000000000E+02
4220000000.000000      4.250641000000000E-01     -4.162695000000000E+01      2.333298000000000E-01      9.475000000000000E+01
4240000000.000000      4.198608000000000E-01     -4.250390000000000E+01      2.291794000000000E-01      6.576172000000000E+01
4260000000.000000      4.168549000000000E-01     -4.258985000000000E+01      2.238693000000000E-01      3.879492000000000E+01
4280000000.000000      4.172668000000000E-01     -4.238867000000000E+01      2.250748000000000E-01      1.102881000000000E+01
4300000000.000000      4.235992000000000E-01     -4.232812000000000E+01      2.241440000000000E-01     -1.768164000000000E+01
4320000000.000000      4.317474000000000E-01     -4.358007000000000E+01      2.241135000000000E-01     -4.636132000000000E+01
4340000000.000000      4.353180000000000E-01     -4.542773000000000E+01      2.241287000000000E-01     -7.587109000000000E+01
4360000000.000000      4.350128000000000E-01     -4.722852000000000E+01      2.242966000000000E-01     -1.058945000000000E+02
4380000000.000000      4.303284000000000E-01     -4.845898000000000E+01      2.219849000000000E-01     -1.358594000000000E+02
4400000000.000000      4.285736000000000E-01     -4.893945000000000E+01      2.200089000000000E-01     -1.646484000000000E+02
4420000000.000000      4.318390000000000E-01     -4.951172000000000E+01      2.242813000000000E-01      1.665469000000000E+02
4440000000.000000      4.374237000000000E-01     -5.069140000000000E+01      2.256927000000000E-01      1.368438000000000E+02
4460000000.000000      4.395905000000000E-01     -5.248047000000000E+01      2.243195000000000E-01      1.075898000000000E+02
4480000000.000000      4.365997000000000E-01     -5.439453000000000E+01      2.224503000000000E-01      7.882030000000000E+01
4500000000.000000      4.252625000000000E-01     -5.541210000000000E+01      2.190323000000000E-01      5.071094000000000E+01
4520000000.000000      4.196930000000000E-01     -5.562109000000000E+01      2.162781000000000E-01      2.228027000000000E+01
4540000000.000000      4.197998000000000E-01     -5.541406000000000E+01      2.099838000000000E-01     -6.056396000000000E+00
4560000000.000000      4.271393000000000E-01     -5.571875000000000E+01      2.088318000000000E-01     -3.362695000000000E+01
4580000000.000000      4.382324000000000E-01     -5.684375000000000E+01      2.101135000000000E-01     -6.366796000000000E+01
4600000000.000000      4.452820000000000E-01     -5.848046000000000E+01      2.077255000000000E-01     -9.403124000000000E+01
4620000000.000000      4.481354000000000E-01     -6.027344000000000E+01      2.076950000000000E-01     -1.249726000000000E+02
4640000000.000000      4.475250000000000E-01     -6.162109000000000E+01      2.040863000000000E-01     -1.560156000000000E+02
4660000000.000000      4.515686000000000E-01     -6.251171000000000E+01      2.047729000000000E-01      1.751328000000000E+02
4680000000.000000      4.565430000000000E-01     -6.385742000000000E+01      2.110138000000000E-01      1.449844000000000E+02
4700000000.000000      4.604950000000000E-01     -6.545312000000000E+01      2.125397000000000E-01      1.152226000000000E+02
4720000000.000000      4.640198000000000E-01     -6.762109000000000E+01      2.153702000000000E-01      8.680468000000000E+01
4740000000.000000      4.647522000000000E-01     -7.014453000000000E+01      2.190323000000000E-01      5.843554000000000E+01
4760000000.000000      4.627380000000000E-01     -7.239452000000000E+01      2.183228000000000E-01      3.029004000000000E+01
4780000000.000000      4.578857000000000E-01     -7.467968000000000E+01      2.145996000000000E-01      2.175293000000000E+00
4800000000.000000      4.517365000000000E-01     -7.711719000000000E+01      2.073822000000000E-01     -2.580859000000000E+01
4820000000.000000      4.387360000000000E-01     -7.957812000000000E+01      1.969223000000000E-01     -5.373437000000000E+01
4840000000.000000      4.186554000000000E-01     -8.121874000000000E+01      1.864929000000000E-01     -8.116796000000000E+01
4860000000.000000      3.972931000000000E-01     -8.160156000000000E+01      1.779404000000000E-01     -1.105117000000000E+02
4880000000.000000      3.780212000000000E-01     -8.012890000000000E+01      1.626587000000000E-01     -1.406094000000000E+02
4900000000.000000      3.706512000000000E-01     -7.747265000000000E+01      1.477661000000000E-01     -1.663906000000000E+02
4920000000.000000      3.789978000000000E-01     -7.484375000000000E+01      1.529236000000000E-01      1.686875000000000E+02
4940000000.000000      3.996429000000000E-01     -7.338672000000000E+01      1.661148000000000E-01      1.387578000000000E+02
4960000000.000000      4.284973000000000E-01     -7.414063000000000E+01      1.745453000000000E-01      1.071601000000000E+02
4980000000.000000      4.509125000000000E-01     -7.719140000000000E+01      1.845093000000000E-01      7.783984000000000E+01
5000000000.000000      4.588165000000000E-01     -8.095703000000000E+01      1.964645000000000E-01      4.838476000000000E+01
5020000000.000000      4.537506000000000E-01     -8.432812000000000E+01      2.038498000000000E-01      1.904687000000000E+01
5040000000.000000      4.409332000000000E-01     -8.642578000000000E+01      2.055511000000000E-01     -7.804443000000000E+00
5060000000.000000      4.290771000000000E-01     -8.733202000000000E+01      2.110748000000000E-01     -3.319140000000000E+01
5080000000.000000      4.237671000000000E-01     -8.760157000000000E+01      2.169952000000000E-01     -6.029687000000000E+01
5100000000.000000      4.245453000000000E-01     -8.803514000000000E+01      2.136765000000000E-01     -8.780859000000000E+01
5120000000.000000      4.261322000000000E-01     -8.875391000000000E+01      2.114868000000000E-01     -1.144453000000000E+02
5140000000.000000      4.293213000000000E-01     -8.959764000000000E+01      2.073212000000000E-01     -1.429688000000000E+02
5160000000.000000      4.332123000000000E-01     -9.067577000000000E+01      2.014999000000000E-01     -1.718594000000000E+02
5180000000.000000      4.392242000000000E-01     -9.158983000000000E+01      1.974564000000000E-01      1.578438000000000E+02
5200000000.000000      4.463348000000000E-01     -9.291407000000000E+01      1.933594000000000E-01      1.272227000000000E+02
5220000000.000000      4.502106000000000E-01     -9.461718000000000E+01      1.939468000000000E-01      9.665625000000000E+01
5240000000.000000      4.511414000000000E-01     -9.640234000000000E+01      1.979675000000000E-01      6.551952000000000E+01
5260000000.000000      4.489288000000000E-01     -9.816795000000000E+01      2.027130000000000E-01      3.489648000000000E+01
5280000000.000000      4.444122000000000E-01     -9.942577000000000E+01      2.076492000000000E-01      5.232178000000000E+00
5300000000.000000      4.424591000000000E-01     -1.003867000000000E+02      2.113724000000000E-01     -2.216113000000000E+01
5320000000.000000      4.422913000000000E-01     -1.013906000000000E+02      2.200089000000000E-01     -4.872460000000000E+01
5340000000.000000      4.434509000000000E-01     -1.026250000000000E+02      2.239914000000000E-01     -7.601953000000000E+01
5360000000.000000      4.429474000000000E-01     -1.040625000000000E+02      2.232132000000000E-01     -1.023242000000000E+02
5380000000.000000      4.445038000000000E-01     -1.052305000000000E+02      2.205276000000000E-01     -1.288672000000000E+02
5400000000.000000      4.440460000000000E-01     -1.064648000000000E+02      2.137680000000000E-01     -1.555391000000000E+02
5420000000.000000      4.470825000000000E-01     -1.068437000000000E+02      2.081833000000000E-01      1.774062000000000E+02
5440000000.000000      4.525604000000000E-01     -1.075430000000000E+02      2.014771000000000E-01      1.482812000000000E+02
5460000000.000000      4.609375000000000E-01     -1.088086000000000E+02      1.911697000000000E-01      1.186445000000000E+02
5480000000.000000      4.670258000000000E-01     -1.108125000000000E+02      1.870041000000000E-01      8.778515000000000E+01
5500000000.000000      4.683990000000000E-01     -1.133359000000000E+02      1.859741000000000E-01      5.610546000000000E+01
5520000000.000000      4.627686000000000E-01     -1.157109000000000E+02      1.878128000000000E-01      2.418164000000000E+01
5540000000.000000      4.546967000000000E-01     -1.176875000000000E+02      1.898041000000000E-01     -7.050537000000000E+00
5560000000.000000      4.467621000000000E-01     -1.192695000000000E+02      1.949158000000000E-01     -3.551953000000000E+01
5580000000.000000      4.394531000000000E-01     -1.205625000000000E+02      2.049255000000000E-01     -6.366211000000000E+01
5600000000.000000      4.337463000000000E-01     -1.213867000000000E+02      2.106171000000000E-01     -9.098436000000000E+01
5620000000.000000      4.290161000000000E-01     -1.220820000000000E+02      2.146912000000000E-01     -1.174141000000000E+02
5640000000.000000      4.254761000000000E-01     -1.222930000000000E+02      2.153854000000000E-01     -1.437031000000000E+02
5660000000.000000      4.252930000000000E-01     -1.222070000000000E+02      2.111359000000000E-01     -1.692891000000000E+02
5680000000.000000      4.314423000000000E-01     -1.223164000000000E+02      2.056503000000000E-01      1.645547000000000E+02
5700000000.000000      4.434814000000000E-01     -1.229258000000000E+02      1.960678000000000E-01      1.376172000000000E+02
5720000000.000000      4.556885000000000E-01     -1.246680000000000E+02      1.864395000000000E-01      1.101601000000000E+02
5740000000.000000      4.619904000000000E-01     -1.277031000000000E+02      1.788483000000000E-01      7.996875000000000E+01
5760000000.000000      4.594574000000000E-01     -1.308438000000000E+02      1.702042000000000E-01      4.733984000000000E+01
5780000000.000000      4.482574000000000E-01     -1.335000000000000E+02      1.618423000000000E-01      1.418604000000000E+01
5800000000.000000      4.340973000000000E-01     -1.347578000000000E+02      1.596909000000000E-01     -1.760449000000000E+01
5820000000.000000      4.261627000000000E-01     -1.351328000000000E+02      1.677628000000000E-01     -4.867382000000000E+01
5840000000.000000      4.267120000000000E-01     -1.356953000000000E+02      1.787872000000000E-01     -8.026171000000000E+01
5860000000.000000      4.320221000000000E-01     -1.365547000000000E+02      1.877213000000000E-01     -1.093008000000000E+02
5880000000.000000      4.378662000000000E-01     -1.384766000000000E+02      1.952133000000000E-01     -1.369766000000000E+02
5900000000.000000      4.378967000000000E-01     -1.405234000000000E+02      2.009964000000000E-01     -1.632813000000000E+02
5920000000.000000      4.339142000000000E-01     -1.423437000000000E+02      2.044373000000000E-01      1.705000000000000E+02
5940000000.000000      4.298401000000000E-01     -1.436094000000000E+02      1.999512000000000E-01      1.438750000000000E+02
5960000000.000000      4.251404000000000E-01     -1.450312000000000E+02      1.903992000000000E-01      1.190664000000000E+02
5980000000.000000      4.205322000000000E-01     -1.465078000000000E+02      1.824341000000000E-01      9.304296000000000E+01
6000000000.000000      4.107819000000000E-01     -1.483672000000000E+02      1.714172000000000E-01      6.467968000000000E+01
6020000000.000000      3.950043000000000E-01     -1.499141000000000E+02      1.567154000000000E-01      3.465429000000000E+01
6040000000.000000      3.795166000000000E-01     -1.505391000000000E+02      1.410370000000000E-01      4.004395000000000E+00
6060000000.000000      3.696442000000000E-01     -1.501641000000000E+02      1.324768000000000E-01     -2.648535000000000E+01
6080000000.000000      3.676300000000000E-01     -1.490859000000000E+02      1.370087000000000E-01     -5.862695000000000E+01
