! Network Analyzer HP8722D
! Hewlett-Packard
! Data name: Linha com CNT
! Saver's name: Rodrigo Anjos
! Comments: Teste de deteccao de acetona 0-100ppm a partir de cilindro
! Time and date: 10/9/2025 16:56
!              Frequency                     S11                                                   S21                                                   S12                                                   S22
# HZ  S  MA R 50
3000000000.000000      4.789429000000000E-01      1.471191000000000E+01      2.283020000000000E-01      3.611719000000000E+01
3020000000.000000      4.866943000000000E-01      1.430127000000000E+01      2.319870000000000E-01      6.562744000000000E+00
3040000000.000000      4.951782000000000E-01      1.349658000000000E+01      2.326584000000000E-01     -2.285645000000000E+01
3060000000.000000      4.978790000000000E-01      1.154102000000000E+01      2.322006000000000E-01     -5.206055000000000E+01
3080000000.000000      4.958344000000000E-01      9.814453000000000E+00      2.281113000000000E-01     -8.091797000000000E+01
3100000000.000000      4.936371000000000E-01      8.496094000000000E+00      2.267761000000000E-01     -1.087461000000000E+02
3120000000.000000      4.925385000000000E-01      7.621582000000000E+00      2.262497000000000E-01     -1.374219000000000E+02
3140000000.000000      4.936218000000000E-01      6.627441000000000E+00      2.226715000000000E-01     -1.660391000000000E+02
3160000000.000000      4.943695000000000E-01      5.571289000000000E+00      2.191772000000000E-01      1.655781000000000E+02
3180000000.000000      4.905853000000000E-01      4.358643000000000E+00      2.139511000000000E-01      1.374687000000000E+02
3200000000.000000      4.808807000000000E-01      3.525146000000000E+00      2.102203000000000E-01      1.090937000000000E+02
3220000000.000000      4.705353000000000E-01      3.323364000000000E+00      2.004852000000000E-01      8.058203000000000E+01
3240000000.000000      4.645081000000000E-01      3.777832000000000E+00      1.945572000000000E-01      5.552343000000000E+01
3260000000.000000      4.644165000000000E-01      4.647217000000000E+00      2.032928000000000E-01      2.963964000000000E+01
3280000000.000000      4.729614000000000E-01      5.267822000000000E+00      2.117844000000000E-01      1.153564000000000E-01
3300000000.000000      4.887848000000000E-01      4.953369000000000E+00      2.145844000000000E-01     -2.844433000000000E+01
3320000000.000000      5.054321000000000E-01      3.689941000000000E+00      2.224731000000000E-01     -5.750195000000000E+01
3340000000.000000      5.180359000000000E-01      1.855286000000000E+00      2.269135000000000E-01     -8.737499000000000E+01
3360000000.000000      5.226135000000000E-01     -2.801514000000000E-01      2.291794000000000E-01     -1.171641000000000E+02
3380000000.000000      5.215759000000000E-01     -1.852600000000000E+00      2.286453000000000E-01     -1.466016000000000E+02
3400000000.000000      5.165405000000000E-01     -3.312378000000000E+00      2.282562000000000E-01     -1.753125000000000E+02
3420000000.000000      5.143127000000000E-01     -4.496338000000000E+00      2.261047000000000E-01      1.554453000000000E+02
3440000000.000000      5.111389000000000E-01     -5.718506000000000E+00      2.214966000000000E-01      1.272500000000000E+02
3460000000.000000      5.073242000000000E-01     -6.741699000000000E+00      2.225189000000000E-01      9.916796000000000E+01
3480000000.000000      5.060425000000000E-01     -7.571045000000000E+00      2.199707000000000E-01      7.010156000000000E+01
3500000000.000000      5.054016000000000E-01     -8.653320000000000E+00      2.177200000000000E-01      4.207031000000000E+01
3520000000.000000      5.031128000000000E-01     -9.598145000000000E+00      2.181396000000000E-01      1.315576000000000E+01
3540000000.000000      5.054932000000000E-01     -1.040967000000000E+01      2.133560000000000E-01     -1.546484000000000E+01
3560000000.000000      5.038452000000000E-01     -1.111279000000000E+01      2.149811000000000E-01     -4.356641000000000E+01
3580000000.000000      5.002747000000000E-01     -1.189844000000000E+01      2.143021000000000E-01     -7.222656000000000E+01
3600000000.000000      4.973297000000000E-01     -1.242432000000000E+01      2.143555000000000E-01     -9.965624000000000E+01
3620000000.000000      5.009460000000000E-01     -1.302588000000000E+01      2.189102000000000E-01     -1.279726000000000E+02
3640000000.000000      5.016479000000000E-01     -1.390186000000000E+01      2.202301000000000E-01     -1.564062000000000E+02
3660000000.000000      5.049133000000000E-01     -1.510254000000000E+01      2.213593000000000E-01      1.752422000000000E+02
3680000000.000000      5.063782000000000E-01     -1.669238000000000E+01      2.198868000000000E-01      1.467500000000000E+02
3700000000.000000      5.022888000000000E-01     -1.796973000000000E+01      2.180557000000000E-01      1.194453000000000E+02
3720000000.000000      4.967194000000000E-01     -1.871387000000000E+01      2.198105000000000E-01      9.116796000000000E+01
3740000000.000000      4.961548000000000E-01     -1.913183000000000E+01      2.148361000000000E-01      6.287304000000000E+01
3760000000.000000      4.991150000000000E-01     -1.932031000000000E+01      2.145157000000000E-01      3.583008000000000E+01
3780000000.000000      5.032959000000000E-01     -1.984179000000000E+01      2.166443000000000E-01      7.134033000000000E+00
3800000000.000000      5.077515000000000E-01     -2.125098000000000E+01      2.155991000000000E-01     -2.206347000000000E+01
3820000000.000000      5.063477000000000E-01     -2.313379000000000E+01      2.135162000000000E-01     -5.068164000000000E+01
3840000000.000000      5.027161000000000E-01     -2.443359000000000E+01      2.131729000000000E-01     -7.916797000000000E+01
3860000000.000000      4.992218000000000E-01     -2.529394000000000E+01      2.137604000000000E-01     -1.082578000000000E+02
3880000000.000000      4.974823000000000E-01     -2.575488000000000E+01      2.109222000000000E-01     -1.370781000000000E+02
3900000000.000000      4.998474000000000E-01     -2.636523000000000E+01      2.107697000000000E-01     -1.645937000000000E+02
3920000000.000000      5.053711000000000E-01     -2.754492000000000E+01      2.136383000000000E-01      1.669375000000000E+02
3940000000.000000      5.054932000000000E-01     -2.899609000000000E+01      2.125778000000000E-01      1.383281000000000E+02
3960000000.000000      5.015259000000000E-01     -3.040234000000000E+01      2.128983000000000E-01      1.100352000000000E+02
3980000000.000000      4.929810000000000E-01     -3.118261000000000E+01      2.069321000000000E-01      8.153124000000000E+01
4000000000.000000      4.880524000000000E-01     -3.141894000000000E+01      2.041168000000000E-01      5.606835000000000E+01
4020000000.000000      4.903107000000000E-01     -3.140722000000000E+01      2.124710000000000E-01      2.816406000000000E+01
4040000000.000000      5.024109000000000E-01     -3.183789000000000E+01      2.125473000000000E-01     -2.244019000000000E+00
4060000000.000000      5.141907000000000E-01     -3.341406000000000E+01      2.093582000000000E-01     -3.097656000000000E+01
4080000000.000000      5.220032000000000E-01     -3.585546000000000E+01      2.085114000000000E-01     -6.004883000000000E+01
4100000000.000000      5.190430000000000E-01     -3.842773000000000E+01      2.086105000000000E-01     -8.941406000000000E+01
4120000000.000000      5.072327000000000E-01     -4.032617000000000E+01      2.059860000000000E-01     -1.197383000000000E+02
4140000000.000000      4.974060000000000E-01     -4.133789000000000E+01      1.978607000000000E-01     -1.481094000000000E+02
4160000000.000000      4.906769000000000E-01     -4.177930000000000E+01      2.005997000000000E-01     -1.744844000000000E+02
4180000000.000000      4.899139000000000E-01     -4.228516000000000E+01      2.052917000000000E-01      1.564219000000000E+02
4200000000.000000      4.894409000000000E-01     -4.339257000000000E+01      2.026443000000000E-01      1.277617000000000E+02
4220000000.000000      4.891968000000000E-01     -4.448828000000000E+01      2.042465000000000E-01      9.969139000000000E+01
4240000000.000000      4.832611000000000E-01     -4.540429000000000E+01      2.005081000000000E-01      7.074609000000000E+01
4260000000.000000      4.811859000000000E-01     -4.592773000000000E+01      1.954803000000000E-01      4.360156000000000E+01
4280000000.000000      4.783783000000000E-01     -4.584180000000000E+01      1.973648000000000E-01      1.632910000000000E+01
4300000000.000000      4.835510000000000E-01     -4.630859000000000E+01      1.967926000000000E-01     -1.251074000000000E+01
4320000000.000000      4.894562000000000E-01     -4.731445000000000E+01      1.970978000000000E-01     -4.117578000000000E+01
4340000000.000000      4.934692000000000E-01     -4.883203000000000E+01      1.969604000000000E-01     -7.066015000000000E+01
4360000000.000000      4.931335000000000E-01     -5.049609000000000E+01      1.971741000000000E-01     -1.007109000000000E+02
4380000000.000000      4.897614000000000E-01     -5.167969000000000E+01      1.945190000000000E-01     -1.306953000000000E+02
4400000000.000000      4.877930000000000E-01     -5.244141000000000E+01      1.932831000000000E-01     -1.593359000000000E+02
4420000000.000000      4.897461000000000E-01     -5.305078000000000E+01      1.978683000000000E-01      1.717031000000000E+02
4440000000.000000      4.942017000000000E-01     -5.422265000000000E+01      1.990356000000000E-01      1.418359000000000E+02
4460000000.000000      4.963684000000000E-01     -5.579883000000000E+01      1.984711000000000E-01      1.125820000000000E+02
4480000000.000000      4.931488000000000E-01     -5.759375000000000E+01      1.965408000000000E-01      8.377344000000000E+01
4500000000.000000      4.866638000000000E-01     -5.882226000000000E+01      1.932907000000000E-01      5.586914000000000E+01
4520000000.000000      4.790649000000000E-01     -5.947851000000000E+01      1.910095000000000E-01      2.749707000000000E+01
4540000000.000000      4.786224000000000E-01     -5.975780000000000E+01      1.857910000000000E-01     -4.902649000000000E-01
4560000000.000000      4.826508000000000E-01     -6.005077000000000E+01      1.856384000000000E-01     -2.791113000000000E+01
4580000000.000000      4.915466000000000E-01     -6.104687000000000E+01      1.867447000000000E-01     -5.806054000000000E+01
4600000000.000000      4.966583000000000E-01     -6.241601000000000E+01      1.845551000000000E-01     -8.834764000000000E+01
4620000000.000000      4.994202000000000E-01     -6.368554000000000E+01      1.843796000000000E-01     -1.194375000000000E+02
4640000000.000000      5.016479000000000E-01     -6.476953000000000E+01      1.807861000000000E-01     -1.506406000000000E+02
4660000000.000000      5.049133000000000E-01     -6.620312000000000E+01      1.817169000000000E-01     -1.797344000000000E+02
4680000000.000000      5.079651000000000E-01     -6.715625000000000E+01      1.869888000000000E-01      1.500625000000000E+02
4700000000.000000      5.127869000000000E-01     -6.863671000000000E+01      1.888199000000000E-01      1.200625000000000E+02
4720000000.000000      5.134277000000000E-01     -7.046484000000000E+01      1.920776000000000E-01      9.156641000000000E+01
4740000000.000000      5.179443000000000E-01     -7.256640000000000E+01      1.950455000000000E-01      6.283008000000000E+01
4760000000.000000      5.179443000000000E-01     -7.463672000000000E+01      1.946259000000000E-01      3.483789000000000E+01
4780000000.000000      5.158081000000000E-01     -7.659765000000000E+01      1.913071000000000E-01      6.511963000000000E+00
4800000000.000000      5.110474000000000E-01     -7.878515000000000E+01      1.845627000000000E-01     -2.120117000000000E+01
4820000000.000000      5.029297000000000E-01     -8.102734000000000E+01      1.747742000000000E-01     -4.893359000000000E+01
4840000000.000000      4.864502000000000E-01     -8.288671000000000E+01      1.645126000000000E-01     -7.599999000000000E+01
4860000000.000000      4.681854000000000E-01     -8.391016000000000E+01      1.568527000000000E-01     -1.045859000000000E+02
4880000000.000000      4.506989000000000E-01     -8.365234000000000E+01      1.433258000000000E-01     -1.342734000000000E+02
4900000000.000000      4.410248000000000E-01     -8.244532000000000E+01      1.301270000000000E-01     -1.596172000000000E+02
4920000000.000000      4.409332000000000E-01     -8.100389000000000E+01      1.344681000000000E-01      1.755234000000000E+02
4940000000.000000      4.535828000000000E-01     -7.966015000000000E+01      1.471100000000000E-01      1.452500000000000E+02
4960000000.000000      4.760437000000000E-01     -7.987109000000000E+01      1.550903000000000E-01      1.134805000000000E+02
4980000000.000000      4.967041000000000E-01     -8.183594000000000E+01      1.647110000000000E-01      8.320313000000000E+01
5000000000.000000      5.085144000000000E-01     -8.472656000000000E+01      1.759186000000000E-01      5.350976000000000E+01
5020000000.000000      5.065002000000000E-01     -8.748827000000000E+01      1.814346000000000E-01      2.371484000000000E+01
5040000000.000000      4.979706000000000E-01     -8.969921000000000E+01      1.825943000000000E-01     -2.988281000000000E+00
5060000000.000000      4.879608000000000E-01     -9.093750000000000E+01      1.887283000000000E-01     -2.825879000000000E+01
5080000000.000000      4.808350000000000E-01     -9.173828000000000E+01      1.941452000000000E-01     -5.526953000000000E+01
5100000000.000000      4.804077000000000E-01     -9.226563000000000E+01      1.921310000000000E-01     -8.244532000000000E+01
5120000000.000000      4.815826000000000E-01     -9.313280000000000E+01      1.911087000000000E-01     -1.091211000000000E+02
5140000000.000000      4.846191000000000E-01     -9.388672000000000E+01      1.866455000000000E-01     -1.373594000000000E+02
5160000000.000000      4.872131000000000E-01     -9.485546000000000E+01      1.815720000000000E-01     -1.662656000000000E+02
5180000000.000000      4.924927000000000E-01     -9.579296000000000E+01      1.770020000000000E-01      1.636172000000000E+02
5200000000.000000      4.982758000000000E-01     -9.705858000000000E+01      1.728210000000000E-01      1.330078000000000E+02
5220000000.000000      5.023499000000000E-01     -9.860937000000000E+01      1.733551000000000E-01      1.021445000000000E+02
5240000000.000000      5.042419000000000E-01     -1.001601000000000E+02      1.764832000000000E-01      7.090234000000000E+01
5260000000.000000      5.029602000000000E-01     -1.016914000000000E+02      1.802368000000000E-01      3.992383000000000E+01
5280000000.000000      4.995575000000000E-01     -1.029726000000000E+02      1.846924000000000E-01      1.023096000000000E+01
5300000000.000000      4.969940000000000E-01     -1.041328000000000E+02      1.886215000000000E-01     -1.716113000000000E+01
5320000000.000000      4.970398000000000E-01     -1.052734000000000E+02      1.973572000000000E-01     -4.382226000000000E+01
5340000000.000000      4.967651000000000E-01     -1.064023000000000E+02      2.011261000000000E-01     -7.120312000000000E+01
5360000000.000000      4.970703000000000E-01     -1.079219000000000E+02      2.017212000000000E-01     -9.723045000000000E+01
5380000000.000000      4.988403000000000E-01     -1.089453000000000E+02      1.998291000000000E-01     -1.237461000000000E+02
5400000000.000000      4.987640000000000E-01     -1.101523000000000E+02      1.936035000000000E-01     -1.503281000000000E+02
5420000000.000000      5.008850000000000E-01     -1.108594000000000E+02      1.885376000000000E-01     -1.770469000000000E+02
5440000000.000000      5.060120000000000E-01     -1.114687000000000E+02      1.818619000000000E-01      1.538203000000000E+02
5460000000.000000      5.126648000000000E-01     -1.125937000000000E+02      1.721725000000000E-01      1.244648000000000E+02
5480000000.000000      5.184937000000000E-01     -1.142070000000000E+02      1.684647000000000E-01      9.345312000000000E+01
5500000000.000000      5.203247000000000E-01     -1.164453000000000E+02      1.663055000000000E-01      6.173437000000000E+01
5520000000.000000      5.173035000000000E-01     -1.186016000000000E+02      1.669922000000000E-01      2.943848000000000E+01
5540000000.000000      5.122986000000000E-01     -1.205117000000000E+02      1.686401000000000E-01     -2.239868000000000E+00
5560000000.000000      5.063171000000000E-01     -1.222852000000000E+02      1.732712000000000E-01     -3.064453000000000E+01
5580000000.000000      4.986572000000000E-01     -1.237930000000000E+02      1.833420000000000E-01     -5.907227000000000E+01
5600000000.000000      4.939117000000000E-01     -1.246758000000000E+02      1.886063000000000E-01     -8.650391000000000E+01
5620000000.000000      4.900970000000000E-01     -1.256992000000000E+02      1.929321000000000E-01     -1.125820000000000E+02
5640000000.000000      4.860992000000000E-01     -1.261562000000000E+02      1.945419000000000E-01     -1.388672000000000E+02
5660000000.000000      4.849091000000000E-01     -1.263515000000000E+02      1.918793000000000E-01     -1.641172000000000E+02
5680000000.000000      4.880981000000000E-01     -1.265547000000000E+02      1.877594000000000E-01      1.697969000000000E+02
5700000000.000000      4.956970000000000E-01     -1.273086000000000E+02      1.796799000000000E-01      1.431719000000000E+02
5720000000.000000      5.061340000000000E-01     -1.286172000000000E+02      1.719589000000000E-01      1.158828000000000E+02
5740000000.000000      5.139771000000000E-01     -1.309922000000000E+02      1.639938000000000E-01      8.571875000000000E+01
5760000000.000000      5.138550000000000E-01     -1.337422000000000E+02      1.544724000000000E-01      5.305273000000000E+01
5780000000.000000      5.068054000000000E-01     -1.361250000000000E+02      1.460724000000000E-01      2.003418000000000E+01
5800000000.000000      4.955750000000000E-01     -1.377031000000000E+02      1.424866000000000E-01     -1.173926000000000E+01
5820000000.000000      4.873962000000000E-01     -1.384140000000000E+02      1.493225000000000E-01     -4.324609000000000E+01
5840000000.000000      4.866333000000000E-01     -1.392031000000000E+02      1.599503000000000E-01     -7.497265000000000E+01
5860000000.000000      4.908600000000000E-01     -1.401016000000000E+02      1.676941000000000E-01     -1.044453000000000E+02
5880000000.000000      4.963379000000000E-01     -1.417109000000000E+02      1.758118000000000E-01     -1.323516000000000E+02
5900000000.000000      4.979401000000000E-01     -1.435000000000000E+02      1.814194000000000E-01     -1.589062000000000E+02
5920000000.000000      4.956055000000000E-01     -1.453203000000000E+02      1.843948000000000E-01      1.746953000000000E+02
5940000000.000000      4.925690000000000E-01     -1.466953000000000E+02      1.805191000000000E-01      1.483906000000000E+02
5960000000.000000      4.900513000000000E-01     -1.480625000000000E+02      1.725311000000000E-01      1.237578000000000E+02
5980000000.000000      4.831543000000000E-01     -1.495078000000000E+02      1.660004000000000E-01      9.786327000000000E+01
6000000000.000000      4.774323000000000E-01     -1.514062000000000E+02      1.555099000000000E-01      6.951172000000000E+01
6020000000.000000      4.638672000000000E-01     -1.530000000000000E+02      1.417160000000000E-01      3.974023000000000E+01
6040000000.000000      4.507294000000000E-01     -1.540000000000000E+02      1.260757000000000E-01      9.479492000000000E+00
6060000000.000000      4.405060000000000E-01     -1.546406000000000E+02      1.185112000000000E-01     -2.040625000000000E+01
6080000000.000000      4.348145000000000E-01     -1.544844000000000E+02      1.225929000000000E-01     -5.286523000000000E+01
