! Network Analyzer HP8722D
! Hewlett-Packard
! Data name: Linha & Wilkinson
! Saver's name: Rodrigo Anjos
! Comments: Teste da utilização de aquisição
continua pelo VNA HP8722D
! Time and date: 15/4/2025 16:11
!              Frequency                     S11                                                   S21                                                   S12                                                   S22
# HZ  S  MA R 50
4800000000.000000      3.314056000000000E-01     -1.138945000000000E+02      2.823486000000000E-01     -6.094921000000000E+01      2.755280000000000E-01     -1.751094000000000E+02      6.541443000000000E-01     -8.952343000000000E+01
4801000000.000000      3.299255000000000E-01     -1.147656000000000E+02      2.868958000000000E-01     -6.073828000000000E+01      2.792053000000000E-01     -1.750469000000000E+02      6.535950000000000E-01     -8.951172000000000E+01
4802000000.000000      3.288879000000000E-01     -1.157851000000000E+02      2.912445000000000E-01     -6.090625000000000E+01      2.839966000000000E-01     -1.748125000000000E+02      6.520691000000000E-01     -8.953516000000000E+01
4803000000.000000      3.285522000000000E-01     -1.168594000000000E+02      2.965240000000000E-01     -6.110546000000000E+01      2.878876000000000E-01     -1.746953000000000E+02      6.506653000000000E-01     -8.978516000000000E+01
4804000000.000000      3.285065000000000E-01     -1.178164000000000E+02      3.009338000000000E-01     -6.112109000000000E+01      2.923431000000000E-01     -1.746406000000000E+02      6.502686000000000E-01     -8.981249000000000E+01
4805000000.000000      3.283691000000000E-01     -1.187187000000000E+02      3.056488000000000E-01     -6.116405000000000E+01      2.969666000000000E-01     -1.744141000000000E+02      6.499634000000000E-01     -8.998047000000000E+01
4806000000.000000      3.279114000000000E-01     -1.196523000000000E+02      3.097229000000000E-01     -6.140429000000000E+01      2.990723000000000E-01     -1.742109000000000E+02      6.494141000000000E-01     -9.008984000000000E+01
4807000000.000000      3.278809000000000E-01     -1.208789000000000E+02      3.144226000000000E-01     -6.148632000000000E+01      3.043976000000000E-01     -1.742734000000000E+02      6.476440000000000E-01     -9.019922000000000E+01
4808000000.000000      3.284302000000000E-01     -1.217500000000000E+02      3.184357000000000E-01     -6.148438000000000E+01      3.083801000000000E-01     -1.741328000000000E+02      6.467590000000000E-01     -9.016016000000000E+01
4809000000.000000      3.286438000000000E-01     -1.229492000000000E+02      3.229218000000000E-01     -6.171484000000000E+01      3.123627000000000E-01     -1.741094000000000E+02      6.477966000000000E-01     -9.035936000000000E+01
4810000000.000000      3.289948000000000E-01     -1.239336000000000E+02      3.280945000000000E-01     -6.193359000000000E+01      3.166351000000000E-01     -1.739922000000000E+02      6.478577000000000E-01     -9.047266000000000E+01
4811000000.000000      3.305511000000000E-01     -1.250547000000000E+02      3.325500000000000E-01     -6.220898000000000E+01      3.214569000000000E-01     -1.737969000000000E+02      6.457214000000000E-01     -9.047655000000000E+01
4812000000.000000      3.315125000000000E-01     -1.260508000000000E+02      3.367157000000000E-01     -6.241601000000000E+01      3.254547000000000E-01     -1.736953000000000E+02      6.471558000000000E-01     -9.055859000000000E+01
4813000000.000000      3.316650000000000E-01     -1.271367000000000E+02      3.398590000000000E-01     -6.246875000000000E+01      3.287048000000000E-01     -1.736094000000000E+02      6.455994000000000E-01     -9.060156000000000E+01
4814000000.000000      3.336487000000000E-01     -1.282969000000000E+02      3.448486000000000E-01     -6.275391000000000E+01      3.334198000000000E-01     -1.736641000000000E+02      6.466980000000000E-01     -9.079296000000000E+01
4815000000.000000      3.350372000000000E-01     -1.293359000000000E+02      3.486633000000000E-01     -6.283789000000000E+01      3.365784000000000E-01     -1.736172000000000E+02      6.455078000000000E-01     -9.076563000000000E+01
4816000000.000000      3.372498000000000E-01     -1.303516000000000E+02      3.531342000000000E-01     -6.303515000000000E+01      3.423462000000000E-01     -1.734844000000000E+02      6.471863000000000E-01     -9.087500000000000E+01
4817000000.000000      3.400879000000000E-01     -1.313828000000000E+02      3.579254000000000E-01     -6.329883000000000E+01      3.447723000000000E-01     -1.734766000000000E+02      6.456604000000000E-01     -9.094530000000000E+01
4818000000.000000      3.423157000000000E-01     -1.326484000000000E+02      3.613281000000000E-01     -6.359179000000000E+01      3.497467000000000E-01     -1.732422000000000E+02      6.468506000000000E-01     -9.108202000000000E+01
4819000000.000000      3.451385000000000E-01     -1.336719000000000E+02      3.653717000000000E-01     -6.389062000000000E+01      3.529510000000000E-01     -1.734375000000000E+02      6.488647000000000E-01     -9.126953000000000E+01
4820000000.000000      3.467102000000000E-01     -1.345937000000000E+02      3.694916000000000E-01     -6.409374000000000E+01      3.573914000000000E-01     -1.733516000000000E+02      6.478882000000000E-01     -9.116405000000000E+01
4821000000.000000      3.499451000000000E-01     -1.357500000000000E+02      3.739471000000000E-01     -6.438281000000000E+01      3.613281000000000E-01     -1.733672000000000E+02      6.477966000000000E-01     -9.137499000000000E+01
4822000000.000000      3.540344000000000E-01     -1.367969000000000E+02      3.772430000000000E-01     -6.449609000000000E+01      3.652344000000000E-01     -1.733828000000000E+02      6.495972000000000E-01     -9.138281000000000E+01
4823000000.000000      3.569489000000000E-01     -1.377422000000000E+02      3.808594000000000E-01     -6.474999000000000E+01      3.693848000000000E-01     -1.731875000000000E+02      6.500854000000000E-01     -9.152735000000000E+01
4824000000.000000      3.609924000000000E-01     -1.389375000000000E+02      3.848114000000000E-01     -6.512109000000000E+01      3.741455000000000E-01     -1.733984000000000E+02      6.518555000000000E-01     -9.148046000000000E+01
4825000000.000000      3.640747000000000E-01     -1.397500000000000E+02      3.884125000000000E-01     -6.539453000000000E+01      3.788147000000000E-01     -1.732891000000000E+02      6.524963000000000E-01     -9.156641000000000E+01
4826000000.000000      3.685150000000000E-01     -1.408750000000000E+02      3.925629000000000E-01     -6.566015000000000E+01      3.812103000000000E-01     -1.732656000000000E+02      6.542664000000000E-01     -9.170702000000000E+01
4827000000.000000      3.730011000000000E-01     -1.417187000000000E+02      3.962555000000000E-01     -6.576562000000000E+01      3.859558000000000E-01     -1.732031000000000E+02      6.541748000000000E-01     -9.169531000000000E+01
4828000000.000000      3.773499000000000E-01     -1.427734000000000E+02      4.004364000000000E-01     -6.604297000000000E+01      3.896027000000000E-01     -1.732656000000000E+02      6.570435000000000E-01     -9.182032000000000E+01
4829000000.000000      3.798370000000000E-01     -1.435937000000000E+02      4.036255000000000E-01     -6.634766000000000E+01      3.941956000000000E-01     -1.732969000000000E+02      6.571350000000000E-01     -9.178905000000000E+01
4830000000.000000      3.856201000000000E-01     -1.445391000000000E+02      4.068756000000000E-01     -6.669922000000000E+01      3.981323000000000E-01     -1.732500000000000E+02      6.588745000000000E-01     -9.190624000000000E+01
4831000000.000000      3.888855000000000E-01     -1.454531000000000E+02      4.095764000000000E-01     -6.700390000000000E+01      4.023132000000000E-01     -1.732344000000000E+02      6.611023000000000E-01     -9.202343000000000E+01
4832000000.000000      3.946075000000000E-01     -1.463047000000000E+02      4.141541000000000E-01     -6.721484000000000E+01      4.057159000000000E-01     -1.732656000000000E+02      6.615601000000000E-01     -9.207031000000000E+01
4833000000.000000      3.999481000000000E-01     -1.473203000000000E+02      4.179688000000000E-01     -6.752343000000000E+01      4.102783000000000E-01     -1.733594000000000E+02      6.642761000000000E-01     -9.208593000000000E+01
4834000000.000000      4.044952000000000E-01     -1.480937000000000E+02      4.207458000000000E-01     -6.782031000000000E+01      4.142303000000000E-01     -1.733125000000000E+02      6.662292000000000E-01     -9.223436000000000E+01
4835000000.000000      4.089966000000000E-01     -1.489219000000000E+02      4.238586000000000E-01     -6.813281000000000E+01      4.190979000000000E-01     -1.733438000000000E+02      6.686707000000000E-01     -9.237499000000000E+01
4836000000.000000      4.150696000000000E-01     -1.496484000000000E+02      4.270782000000000E-01     -6.836328000000000E+01      4.222565000000000E-01     -1.733828000000000E+02      6.684570000000000E-01     -9.232422000000000E+01
4837000000.000000      4.198761000000000E-01     -1.504609000000000E+02      4.311829000000000E-01     -6.900000000000000E+01      4.265289000000000E-01     -1.734688000000000E+02      6.711731000000000E-01     -9.243750000000000E+01
4838000000.000000      4.249268000000000E-01     -1.513438000000000E+02      4.355927000000000E-01     -6.909374000000000E+01      4.314880000000000E-01     -1.734297000000000E+02      6.741638000000000E-01     -9.252344000000000E+01
4839000000.000000      4.306183000000000E-01     -1.520156000000000E+02      4.373169000000000E-01     -6.939062000000000E+01      4.356995000000000E-01     -1.734531000000000E+02      6.767883000000000E-01     -9.238281000000000E+01
4840000000.000000      4.349823000000000E-01     -1.529063000000000E+02      4.398193000000000E-01     -6.959374000000000E+01      4.395294000000000E-01     -1.737109000000000E+02      6.784668000000000E-01     -9.250000000000000E+01
4841000000.000000      4.402161000000000E-01     -1.536875000000000E+02      4.439087000000000E-01     -7.015625000000000E+01      4.440155000000000E-01     -1.738281000000000E+02      6.801453000000000E-01     -9.263281000000000E+01
4842000000.000000      4.462738000000000E-01     -1.542656000000000E+02      4.461670000000000E-01     -7.032031000000000E+01      4.470520000000000E-01     -1.737813000000000E+02      6.829834000000000E-01     -9.262499000000000E+01
4843000000.000000      4.506683000000000E-01     -1.550859000000000E+02      4.498444000000000E-01     -7.075000000000000E+01      4.513702000000000E-01     -1.738984000000000E+02      6.856689000000000E-01     -9.260937000000000E+01
4844000000.000000      4.561768000000000E-01     -1.556797000000000E+02      4.520111000000000E-01     -7.093359000000000E+01      4.553528000000000E-01     -1.739844000000000E+02      6.879883000000000E-01     -9.273438000000000E+01
4845000000.000000      4.611816000000000E-01     -1.563750000000000E+02      4.544220000000000E-01     -7.123047000000000E+01      4.603119000000000E-01     -1.741719000000000E+02      6.896057000000000E-01     -9.273046000000000E+01
4846000000.000000      4.659119000000000E-01     -1.569453000000000E+02      4.580536000000000E-01     -7.168359000000000E+01      4.645081000000000E-01     -1.741484000000000E+02      6.929626000000000E-01     -9.284374000000000E+01
4847000000.000000      4.718323000000000E-01     -1.576641000000000E+02      4.602356000000000E-01     -7.186328000000000E+01      4.687042000000000E-01     -1.742734000000000E+02      6.971436000000000E-01     -9.293749000000000E+01
4848000000.000000      4.768829000000000E-01     -1.582656000000000E+02      4.623260000000000E-01     -7.214844000000000E+01      4.726257000000000E-01     -1.744219000000000E+02      6.997375000000000E-01     -9.293360000000000E+01
4849000000.000000      4.821625000000000E-01     -1.591563000000000E+02      4.654694000000000E-01     -7.264453000000000E+01      4.768677000000000E-01     -1.745625000000000E+02      7.008057000000000E-01     -9.289063000000000E+01
4850000000.000000      4.872589000000000E-01     -1.595469000000000E+02      4.675903000000000E-01     -7.284374000000000E+01      4.808807000000000E-01     -1.745625000000000E+02      7.034912000000000E-01     -9.299608000000000E+01
4851000000.000000      4.913635000000000E-01     -1.600859000000000E+02      4.710236000000000E-01     -7.341015000000000E+01      4.845428000000000E-01     -1.747031000000000E+02      7.073975000000000E-01     -9.297266000000000E+01
4852000000.000000      4.971619000000000E-01     -1.607188000000000E+02      4.728851000000000E-01     -7.359375000000000E+01      4.886780000000000E-01     -1.748359000000000E+02      7.094116000000000E-01     -9.309374000000000E+01
4853000000.000000      5.020142000000000E-01     -1.612969000000000E+02      4.739532000000000E-01     -7.390234000000000E+01      4.932556000000000E-01     -1.750469000000000E+02      7.121582000000000E-01     -9.330078000000000E+01
4854000000.000000      5.056152000000000E-01     -1.617969000000000E+02      4.779053000000000E-01     -7.437890000000000E+01      4.966125000000000E-01     -1.751641000000000E+02      7.154541000000000E-01     -9.313671000000000E+01
4855000000.000000      5.094604000000000E-01     -1.624297000000000E+02      4.783936000000000E-01     -7.452734000000000E+01      5.003052000000000E-01     -1.753125000000000E+02      7.173157000000000E-01     -9.327734000000000E+01
4856000000.000000      5.144653000000000E-01     -1.628750000000000E+02      4.807892000000000E-01     -7.483593000000000E+01      5.040588000000000E-01     -1.755156000000000E+02      7.214661000000000E-01     -9.328516000000000E+01
4857000000.000000      5.194702000000000E-01     -1.634375000000000E+02      4.833832000000000E-01     -7.526953000000000E+01      5.068970000000000E-01     -1.755000000000000E+02      7.240906000000000E-01     -9.326172000000000E+01
4858000000.000000      5.212402000000000E-01     -1.639219000000000E+02      4.853973000000000E-01     -7.544140000000000E+01      5.105286000000000E-01     -1.757500000000000E+02      7.271729000000000E-01     -9.342968000000000E+01
4859000000.000000      5.262146000000000E-01     -1.643906000000000E+02      4.884033000000000E-01     -7.584765000000000E+01      5.135193000000000E-01     -1.760313000000000E+02      7.303772000000000E-01     -9.361719000000000E+01
4860000000.000000      5.299683000000000E-01     -1.648594000000000E+02      4.892883000000000E-01     -7.608984000000000E+01      5.179443000000000E-01     -1.760703000000000E+02      7.335510000000000E-01     -9.344530000000000E+01
4861000000.000000      5.336304000000000E-01     -1.652578000000000E+02      4.906158000000000E-01     -7.654297000000000E+01      5.223083000000000E-01     -1.764062000000000E+02      7.348938000000000E-01     -9.367188000000000E+01
4862000000.000000      5.361633000000000E-01     -1.657422000000000E+02      4.958191000000000E-01     -7.660546000000000E+01      5.267029000000000E-01     -1.764844000000000E+02      7.394714000000000E-01     -9.354296000000000E+01
4863000000.000000      5.389099000000000E-01     -1.661406000000000E+02      4.947510000000000E-01     -7.732422000000000E+01      5.298157000000000E-01     -1.766797000000000E+02      7.420959000000000E-01     -9.357813000000000E+01
4864000000.000000      5.428467000000000E-01     -1.665625000000000E+02      4.967499000000000E-01     -7.734375000000000E+01      5.333862000000000E-01     -1.767812000000000E+02      7.445984000000000E-01     -9.367579000000000E+01
4865000000.000000      5.446167000000000E-01     -1.670547000000000E+02      4.966583000000000E-01     -7.750000000000000E+01      5.361023000000000E-01     -1.770234000000000E+02      7.482910000000000E-01     -9.350000000000000E+01
4866000000.000000      5.471802000000000E-01     -1.673437000000000E+02      4.993286000000000E-01     -7.795703000000000E+01      5.396729000000000E-01     -1.772578000000000E+02      7.507935000000000E-01     -9.360155000000000E+01
4867000000.000000      5.494690000000000E-01     -1.675937000000000E+02      5.012512000000000E-01     -7.813671000000000E+01      5.432129000000000E-01     -1.774062000000000E+02      7.545776000000000E-01     -9.371094000000000E+01
4868000000.000000      5.524292000000000E-01     -1.680938000000000E+02      5.032349000000000E-01     -7.851563000000000E+01      5.458374000000000E-01     -1.776719000000000E+02      7.572632000000000E-01     -9.374609000000000E+01
4869000000.000000      5.531006000000000E-01     -1.683594000000000E+02      5.035400000000000E-01     -7.872265000000000E+01      5.487671000000000E-01     -1.779844000000000E+02      7.600403000000000E-01     -9.392969000000000E+01
4870000000.000000      5.552673000000000E-01     -1.687344000000000E+02      5.043945000000000E-01     -7.889843000000000E+01      5.525513000000000E-01     -1.780547000000000E+02      7.619934000000000E-01     -9.382421000000000E+01
4871000000.000000      5.578003000000000E-01     -1.690547000000000E+02      5.067444000000000E-01     -7.938671000000000E+01      5.529785000000000E-01     -1.783125000000000E+02      7.641602000000000E-01     -9.402344000000000E+01
4872000000.000000      5.598145000000000E-01     -1.693047000000000E+02      5.057373000000000E-01     -7.944140000000000E+01      5.570374000000000E-01     -1.787344000000000E+02      7.669678000000000E-01     -9.383984000000000E+01
4873000000.000000      5.604553000000000E-01     -1.695000000000000E+02      5.072632000000000E-01     -7.981250000000000E+01      5.582886000000000E-01     -1.787969000000000E+02      7.685242000000000E-01     -9.404297000000000E+01
4874000000.000000      5.613098000000000E-01     -1.697969000000000E+02      5.088196000000000E-01     -8.004686000000000E+01      5.630798000000000E-01     -1.789687000000000E+02      7.718811000000000E-01     -9.395702000000000E+01
4875000000.000000      5.636597000000000E-01     -1.700703000000000E+02      5.101318000000000E-01     -8.023046000000000E+01      5.642700000000000E-01     -1.792187000000000E+02      7.743835000000000E-01     -9.409374000000000E+01
4876000000.000000      5.630798000000000E-01     -1.703047000000000E+02      5.110474000000000E-01     -8.047266000000000E+01      5.662842000000000E-01     -1.794141000000000E+02      7.772827000000000E-01     -9.426172000000000E+01
4877000000.000000      5.634155000000000E-01     -1.704687000000000E+02      5.136719000000000E-01     -8.056250000000000E+01      5.695496000000000E-01     -1.797188000000000E+02      7.781067000000000E-01     -9.429296000000000E+01
4878000000.000000      5.655823000000000E-01     -1.706406000000000E+02      5.133057000000000E-01     -8.098047000000000E+01      5.720520000000000E-01     -1.795859000000000E+02      7.825623000000000E-01     -9.424999000000000E+01
4879000000.000000      5.660400000000000E-01     -1.708047000000000E+02      5.121765000000000E-01     -8.104296000000000E+01      5.723572000000000E-01      1.799375000000000E+02      7.832336000000000E-01     -9.427343000000000E+01
4880000000.000000      5.645142000000000E-01     -1.710156000000000E+02      5.139465000000000E-01     -8.144140000000000E+01      5.754089000000000E-01      1.797344000000000E+02      7.868652000000000E-01     -9.425390000000000E+01
4881000000.000000      5.665588000000000E-01     -1.711641000000000E+02      5.163269000000000E-01     -8.145311000000000E+01      5.779419000000000E-01      1.794922000000000E+02      7.881775000000000E-01     -9.440233000000000E+01
4882000000.000000      5.646973000000000E-01     -1.712188000000000E+02      5.174255000000000E-01     -8.187500000000000E+01      5.814209000000000E-01      1.793906000000000E+02      7.885437000000000E-01     -9.437891000000000E+01
