! Network Analyzer HP8722D
! Hewlett-Packard
! Data name: Linha & Wilkinson
! Saver's name: Rodrigo Anjos
! Comments: Teste da utilização de aquisição
continua pelo VNA HP8722D
! Time and date: 15/4/2025 16:12
!              Frequency                     S11                                                   S21                                                   S12                                                   S22
# HZ  S  MA R 50
4800000000.000000      3.317413000000000E-01     -1.138125000000000E+02      2.823792000000000E-01     -6.077538000000000E+01      2.757874000000000E-01     -1.750781000000000E+02      6.532898000000000E-01     -8.960938000000000E+01
4801000000.000000      3.304749000000000E-01     -1.148438000000000E+02      2.869110000000000E-01     -6.095312000000000E+01      2.795715000000000E-01     -1.749844000000000E+02      6.532593000000000E-01     -8.956640000000000E+01
4802000000.000000      3.289642000000000E-01     -1.158281000000000E+02      2.910156000000000E-01     -6.092382000000000E+01      2.837830000000000E-01     -1.748672000000000E+02      6.503296000000000E-01     -8.954296000000000E+01
4803000000.000000      3.281860000000000E-01     -1.167422000000000E+02      2.961121000000000E-01     -6.096484000000000E+01      2.872162000000000E-01     -1.745312000000000E+02      6.508789000000000E-01     -8.983202000000000E+01
4804000000.000000      3.280945000000000E-01     -1.177812000000000E+02      3.012695000000000E-01     -6.110937000000000E+01      2.921143000000000E-01     -1.746016000000000E+02      6.495667000000000E-01     -8.976563000000000E+01
4805000000.000000      3.285522000000000E-01     -1.188164000000000E+02      3.052216000000000E-01     -6.128320000000000E+01      2.962036000000000E-01     -1.744688000000000E+02      6.499939000000000E-01     -8.994921000000000E+01
4806000000.000000      3.274689000000000E-01     -1.197227000000000E+02      3.098450000000000E-01     -6.120703000000000E+01      2.990417000000000E-01     -1.741797000000000E+02      6.488342000000000E-01     -9.010546000000000E+01
4807000000.000000      3.276062000000000E-01     -1.207461000000000E+02      3.144531000000000E-01     -6.145898000000000E+01      3.044281000000000E-01     -1.743359000000000E+02      6.480103000000000E-01     -9.014843000000000E+01
4808000000.000000      3.284607000000000E-01     -1.217656000000000E+02      3.199310000000000E-01     -6.143555000000000E+01      3.076935000000000E-01     -1.741328000000000E+02      6.480408000000000E-01     -9.015625000000000E+01
4809000000.000000      3.285370000000000E-01     -1.229023000000000E+02      3.234558000000000E-01     -6.179101000000000E+01      3.127136000000000E-01     -1.740156000000000E+02      6.468811000000000E-01     -9.039454000000000E+01
4810000000.000000      3.292542000000000E-01     -1.239492000000000E+02      3.274536000000000E-01     -6.195313000000000E+01      3.158875000000000E-01     -1.739219000000000E+02      6.468506000000000E-01     -9.041407000000000E+01
4811000000.000000      3.301392000000000E-01     -1.250000000000000E+02      3.323212000000000E-01     -6.223633000000000E+01      3.209076000000000E-01     -1.739219000000000E+02      6.468811000000000E-01     -9.043360000000000E+01
4812000000.000000      3.321381000000000E-01     -1.260508000000000E+02      3.367157000000000E-01     -6.245703000000000E+01      3.248749000000000E-01     -1.737031000000000E+02      6.466675000000000E-01     -9.054296000000000E+01
4813000000.000000      3.326569000000000E-01     -1.271445000000000E+02      3.411102000000000E-01     -6.251171000000000E+01      3.285217000000000E-01     -1.736094000000000E+02      6.459045000000000E-01     -9.065624000000000E+01
4814000000.000000      3.336639000000000E-01     -1.283672000000000E+02      3.450928000000000E-01     -6.273242000000000E+01      3.328094000000000E-01     -1.736328000000000E+02      6.457825000000000E-01     -9.074999000000000E+01
4815000000.000000      3.354950000000000E-01     -1.292813000000000E+02      3.488922000000000E-01     -6.291601000000000E+01      3.371277000000000E-01     -1.735703000000000E+02      6.458130000000000E-01     -9.079687000000000E+01
4816000000.000000      3.378448000000000E-01     -1.303203000000000E+02      3.529968000000000E-01     -6.308594000000000E+01      3.417969000000000E-01     -1.734297000000000E+02      6.468506000000000E-01     -9.079687000000000E+01
4817000000.000000      3.405151000000000E-01     -1.314766000000000E+02      3.579254000000000E-01     -6.327343000000000E+01      3.444977000000000E-01     -1.733750000000000E+02      6.464844000000000E-01     -9.107422000000000E+01
4818000000.000000      3.423920000000000E-01     -1.325312000000000E+02      3.608856000000000E-01     -6.351563000000000E+01      3.492126000000000E-01     -1.732969000000000E+02      6.467285000000000E-01     -9.110937000000000E+01
4819000000.000000      3.446655000000000E-01     -1.336562000000000E+02      3.655090000000000E-01     -6.379492000000000E+01      3.537140000000000E-01     -1.733281000000000E+02      6.482849000000000E-01     -9.112890000000000E+01
4820000000.000000      3.466644000000000E-01     -1.346016000000000E+02      3.699493000000000E-01     -6.401562000000000E+01      3.573303000000000E-01     -1.733281000000000E+02      6.476135000000000E-01     -9.116405000000000E+01
4821000000.000000      3.505249000000000E-01     -1.356719000000000E+02      3.734283000000000E-01     -6.424609000000000E+01      3.615265000000000E-01     -1.733672000000000E+02      6.477356000000000E-01     -9.135157000000000E+01
4822000000.000000      3.544312000000000E-01     -1.368281000000000E+02      3.774872000000000E-01     -6.455078000000000E+01      3.650513000000000E-01     -1.733203000000000E+02      6.498413000000000E-01     -9.140625000000000E+01
4823000000.000000      3.569794000000000E-01     -1.378281000000000E+02      3.813782000000000E-01     -6.467187000000000E+01      3.693237000000000E-01     -1.731875000000000E+02      6.508179000000000E-01     -9.143749000000000E+01
4824000000.000000      3.612671000000000E-01     -1.389531000000000E+02      3.846130000000000E-01     -6.505468000000000E+01      3.739471000000000E-01     -1.733594000000000E+02      6.516418000000000E-01     -9.151562000000000E+01
4825000000.000000      3.643646000000000E-01     -1.397734000000000E+02      3.881989000000000E-01     -6.532812000000000E+01      3.785553000000000E-01     -1.732188000000000E+02      6.534119000000000E-01     -9.160156000000000E+01
4826000000.000000      3.683014000000000E-01     -1.407891000000000E+02      3.919830000000000E-01     -6.554296000000000E+01      3.813629000000000E-01     -1.733125000000000E+02      6.535034000000000E-01     -9.171093000000000E+01
4827000000.000000      3.720703000000000E-01     -1.416016000000000E+02      3.961182000000000E-01     -6.579687000000000E+01      3.846283000000000E-01     -1.731562000000000E+02      6.548462000000000E-01     -9.173046000000000E+01
4828000000.000000      3.770752000000000E-01     -1.426484000000000E+02      3.997650000000000E-01     -6.616796000000000E+01      3.892517000000000E-01     -1.731250000000000E+02      6.564026000000000E-01     -9.183203000000000E+01
4829000000.000000      3.795166000000000E-01     -1.435625000000000E+02      4.033508000000000E-01     -6.641796000000000E+01      3.941498000000000E-01     -1.732031000000000E+02      6.574402000000000E-01     -9.182812000000000E+01
4830000000.000000      3.852692000000000E-01     -1.445547000000000E+02      4.070892000000000E-01     -6.672656000000000E+01      3.984222000000000E-01     -1.731719000000000E+02      6.594543000000000E-01     -9.203516000000000E+01
4831000000.000000      3.892670000000000E-01     -1.454062000000000E+02      4.104614000000000E-01     -6.701172000000000E+01      4.028625000000000E-01     -1.731250000000000E+02      6.610718000000000E-01     -9.206249000000000E+01
4832000000.000000      3.951111000000000E-01     -1.462734000000000E+02      4.147186000000000E-01     -6.728906000000000E+01      4.059906000000000E-01     -1.732188000000000E+02      6.628113000000000E-01     -9.217577000000000E+01
4833000000.000000      3.995972000000000E-01     -1.472812000000000E+02      4.180603000000000E-01     -6.750781000000000E+01      4.098969000000000E-01     -1.733594000000000E+02      6.646118000000000E-01     -9.216797000000000E+01
4834000000.000000      4.042664000000000E-01     -1.480781000000000E+02      4.215393000000000E-01     -6.782031000000000E+01      4.143677000000000E-01     -1.733516000000000E+02      6.658936000000000E-01     -9.221483000000000E+01
4835000000.000000      4.093170000000000E-01     -1.488906000000000E+02      4.243927000000000E-01     -6.805078000000000E+01      4.193420000000000E-01     -1.733438000000000E+02      6.679993000000000E-01     -9.228125000000000E+01
4836000000.000000      4.150085000000000E-01     -1.496484000000000E+02      4.279633000000000E-01     -6.832031000000000E+01      4.226990000000000E-01     -1.732734000000000E+02      6.693726000000000E-01     -9.227734000000000E+01
4837000000.000000      4.199066000000000E-01     -1.504141000000000E+02      4.303894000000000E-01     -6.900781000000000E+01      4.272766000000000E-01     -1.735391000000000E+02      6.722107000000000E-01     -9.234766000000000E+01
4838000000.000000      4.252319000000000E-01     -1.513359000000000E+02      4.346161000000000E-01     -6.900000000000000E+01      4.310303000000000E-01     -1.735234000000000E+02      6.746521000000000E-01     -9.242188000000000E+01
4839000000.000000      4.304352000000000E-01     -1.519609000000000E+02      4.362335000000000E-01     -6.924218000000000E+01      4.354706000000000E-01     -1.735312000000000E+02      6.757507000000000E-01     -9.246094000000000E+01
4840000000.000000      4.347992000000000E-01     -1.528203000000000E+02      4.407501000000000E-01     -6.965625000000000E+01      4.394531000000000E-01     -1.736562000000000E+02      6.779785000000000E-01     -9.254686000000000E+01
4841000000.000000      4.402618000000000E-01     -1.536328000000000E+02      4.436951000000000E-01     -7.013672000000000E+01      4.438019000000000E-01     -1.737500000000000E+02      6.812744000000000E-01     -9.257030000000000E+01
4842000000.000000      4.465332000000000E-01     -1.542891000000000E+02      4.460449000000000E-01     -7.035937000000000E+01      4.471893000000000E-01     -1.737969000000000E+02      6.842041000000000E-01     -9.267578000000000E+01
4843000000.000000      4.509735000000000E-01     -1.550625000000000E+02      4.493408000000000E-01     -7.070703000000000E+01      4.517670000000000E-01     -1.738281000000000E+02      6.855469000000000E-01     -9.259375000000000E+01
4844000000.000000      4.560089000000000E-01     -1.557031000000000E+02      4.514465000000000E-01     -7.099999000000000E+01      4.553070000000000E-01     -1.739219000000000E+02      6.891174000000000E-01     -9.276953000000000E+01
4845000000.000000      4.608459000000000E-01     -1.563516000000000E+02      4.543762000000000E-01     -7.134375000000000E+01      4.599609000000000E-01     -1.740469000000000E+02      6.898499000000000E-01     -9.271484000000000E+01
4846000000.000000      4.663544000000000E-01     -1.569531000000000E+02      4.576569000000000E-01     -7.157812000000000E+01      4.643860000000000E-01     -1.741172000000000E+02      6.930847000000000E-01     -9.282030000000000E+01
4847000000.000000      4.722595000000000E-01     -1.576562000000000E+02      4.606171000000000E-01     -7.190234000000000E+01      4.688263000000000E-01     -1.743438000000000E+02      6.962280000000000E-01     -9.290625000000000E+01
4848000000.000000      4.768829000000000E-01     -1.582891000000000E+02      4.627380000000000E-01     -7.218359000000000E+01      4.728851000000000E-01     -1.743203000000000E+02      6.980591000000000E-01     -9.289454000000000E+01
4849000000.000000      4.817810000000000E-01     -1.591797000000000E+02      4.654083000000000E-01     -7.258203000000000E+01      4.770355000000000E-01     -1.745547000000000E+02      7.010803000000000E-01     -9.299608000000000E+01
4850000000.000000      4.870300000000000E-01     -1.594844000000000E+02      4.683228000000000E-01     -7.288280000000000E+01      4.803009000000000E-01     -1.745781000000000E+02      7.048340000000000E-01     -9.295313000000000E+01
4851000000.000000      4.924622000000000E-01     -1.601328000000000E+02      4.709167000000000E-01     -7.332031000000000E+01      4.846954000000000E-01     -1.746953000000000E+02      7.073059000000000E-01     -9.306641000000000E+01
4852000000.000000      4.971008000000000E-01     -1.607422000000000E+02      4.730835000000000E-01     -7.371094000000000E+01      4.884796000000000E-01     -1.748516000000000E+02      7.090759000000000E-01     -9.309765000000000E+01
4853000000.000000      5.014648000000000E-01     -1.612734000000000E+02      4.738464000000000E-01     -7.389453000000000E+01      4.930878000000000E-01     -1.750703000000000E+02      7.138062000000000E-01     -9.338282000000000E+01
4854000000.000000      5.057373000000000E-01     -1.618047000000000E+02      4.771423000000000E-01     -7.438281000000000E+01      4.962463000000000E-01     -1.751562000000000E+02      7.150574000000000E-01     -9.328516000000000E+01
4855000000.000000      5.094299000000000E-01     -1.623672000000000E+02      4.796143000000000E-01     -7.456249000000000E+01      5.002747000000000E-01     -1.752656000000000E+02      7.171326000000000E-01     -9.319530000000000E+01
4856000000.000000      5.147400000000000E-01     -1.628359000000000E+02      4.809570000000000E-01     -7.477344000000000E+01      5.040283000000000E-01     -1.754844000000000E+02      7.212219000000000E-01     -9.322266000000000E+01
4857000000.000000      5.182495000000000E-01     -1.634219000000000E+02      4.845428000000000E-01     -7.519921000000000E+01      5.079651000000000E-01     -1.755234000000000E+02      7.239990000000000E-01     -9.337109000000000E+01
4858000000.000000      5.211182000000000E-01     -1.639375000000000E+02      4.858093000000000E-01     -7.557031000000000E+01      5.116882000000000E-01     -1.758281000000000E+02      7.268677000000000E-01     -9.338671000000000E+01
4859000000.000000      5.258179000000000E-01     -1.644219000000000E+02      4.878845000000000E-01     -7.587891000000000E+01      5.144653000000000E-01     -1.760391000000000E+02      7.301636000000000E-01     -9.347265000000000E+01
4860000000.000000      5.304565000000000E-01     -1.648984000000000E+02      4.898529000000000E-01     -7.613671000000000E+01      5.180664000000000E-01     -1.760313000000000E+02      7.332458000000000E-01     -9.343359000000000E+01
4861000000.000000      5.335693000000000E-01     -1.652344000000000E+02      4.912262000000000E-01     -7.656250000000000E+01      5.225525000000000E-01     -1.763594000000000E+02      7.355347000000000E-01     -9.360937000000000E+01
4862000000.000000      5.362549000000000E-01     -1.656875000000000E+02      4.941711000000000E-01     -7.667969000000000E+01      5.254517000000000E-01     -1.763750000000000E+02      7.399597000000000E-01     -9.355469000000000E+01
4863000000.000000      5.385742000000000E-01     -1.661172000000000E+02      4.948273000000000E-01     -7.708202000000000E+01      5.299683000000000E-01     -1.766406000000000E+02      7.425232000000000E-01     -9.348436000000000E+01
4864000000.000000      5.430908000000000E-01     -1.665703000000000E+02      4.954834000000000E-01     -7.720312000000000E+01      5.331421000000000E-01     -1.766875000000000E+02      7.435303000000000E-01     -9.357422000000000E+01
4865000000.000000      5.442810000000000E-01     -1.670547000000000E+02      4.984436000000000E-01     -7.741015000000000E+01      5.358887000000000E-01     -1.769531000000000E+02      7.492065000000000E-01     -9.359766000000000E+01
4866000000.000000      5.463562000000000E-01     -1.672422000000000E+02      4.984589000000000E-01     -7.790625000000000E+01      5.392456000000000E-01     -1.773125000000000E+02      7.502747000000000E-01     -9.363281000000000E+01
4867000000.000000      5.500183000000000E-01     -1.676484000000000E+02      5.008240000000000E-01     -7.817187000000000E+01      5.429382000000000E-01     -1.773203000000000E+02      7.542725000000000E-01     -9.368359000000000E+01
4868000000.000000      5.516968000000000E-01     -1.680781000000000E+02      5.022583000000000E-01     -7.855859000000000E+01      5.452271000000000E-01     -1.776562000000000E+02      7.574158000000000E-01     -9.372265000000000E+01
4869000000.000000      5.534668000000000E-01     -1.683359000000000E+02      5.027771000000000E-01     -7.880077000000000E+01      5.491943000000000E-01     -1.778437000000000E+02      7.596130000000000E-01     -9.387890000000000E+01
4870000000.000000      5.554199000000000E-01     -1.687422000000000E+02      5.056763000000000E-01     -7.887500000000000E+01      5.504761000000000E-01     -1.780937000000000E+02      7.624817000000000E-01     -9.378906000000000E+01
4871000000.000000      5.578003000000000E-01     -1.690391000000000E+02      5.057983000000000E-01     -7.936328000000000E+01      5.535889000000000E-01     -1.782969000000000E+02      7.640686000000000E-01     -9.389063000000000E+01
4872000000.000000      5.596313000000000E-01     -1.693203000000000E+02      5.060120000000000E-01     -7.947656000000000E+01      5.566711000000000E-01     -1.786484000000000E+02      7.675171000000000E-01     -9.388281000000000E+01
4873000000.000000      5.603943000000000E-01     -1.695313000000000E+02      5.078125000000000E-01     -7.983593000000000E+01      5.583801000000000E-01     -1.786328000000000E+02      7.689209000000000E-01     -9.405859000000000E+01
4874000000.000000      5.615234000000000E-01     -1.697813000000000E+02      5.085449000000000E-01     -8.007813000000000E+01      5.628662000000000E-01     -1.789609000000000E+02      7.715454000000000E-01     -9.393358000000000E+01
4875000000.000000      5.633545000000000E-01     -1.699531000000000E+02      5.102234000000000E-01     -8.022264000000000E+01      5.644836000000000E-01     -1.792812000000000E+02      7.723083000000000E-01     -9.414454000000000E+01
4876000000.000000      5.630493000000000E-01     -1.702656000000000E+02      5.112305000000000E-01     -8.064062000000000E+01      5.663757000000000E-01     -1.793203000000000E+02      7.775879000000000E-01     -9.410547000000000E+01
4877000000.000000      5.637207000000000E-01     -1.703594000000000E+02      5.119934000000000E-01     -8.068750000000000E+01      5.699768000000000E-01     -1.797109000000000E+02      7.803650000000000E-01     -9.425781000000000E+01
4878000000.000000      5.646057000000000E-01     -1.706016000000000E+02      5.137329000000000E-01     -8.099218000000000E+01      5.700073000000000E-01     -1.797734000000000E+02      7.815552000000000E-01     -9.435156000000000E+01
4879000000.000000      5.661011000000000E-01     -1.708516000000000E+02      5.135498000000000E-01     -8.117968000000000E+01      5.736694000000000E-01     -1.800000000000000E+02      7.826233000000000E-01     -9.405468000000000E+01
4880000000.000000      5.652466000000000E-01     -1.710703000000000E+02      5.152588000000000E-01     -8.144531000000000E+01      5.767212000000000E-01      1.797109000000000E+02      7.864990000000000E-01     -9.430468000000000E+01
4881000000.000000      5.668335000000000E-01     -1.711719000000000E+02      5.175171000000000E-01     -8.145702000000000E+01      5.780029000000000E-01      1.794297000000000E+02      7.885437000000000E-01     -9.440624000000000E+01
4882000000.000000      5.649109000000000E-01     -1.712500000000000E+02      5.173340000000000E-01     -8.174608000000000E+01      5.795288000000000E-01      1.794609000000000E+02      7.899170000000000E-01     -9.442577000000000E+01
