! Network Analyzer HP8722D
! Hewlett-Packard
! Data name: Linha & Wilkinson
! Saver's name: Rodrigo Anjos
! Comments: Teste da utilização de aquisição
continua pelo VNA HP8722D
! Time and date: 15/4/2025 15:51
!              Frequency                     S11                                                   S21                                                   S12                                                   S22
# HZ  S  MA R 50
4800000000.000000      3.088379000000000E-01      8.817968000000000E+01      5.823669000000000E-01      1.502266000000000E+02      4.808502000000000E-01     -1.114063000000000E+02      7.404480000000000E-01     -6.014453000000000E+01
4801000000.000000      3.015137000000000E-01      8.837891000000000E+01      5.815735000000000E-01      1.502031000000000E+02      4.795990000000000E-01     -1.115703000000000E+02      7.361450000000000E-01     -6.023242000000000E+01
4802000000.000000      2.935791000000000E-01      8.845703000000000E+01      5.836792000000000E-01      1.500625000000000E+02      4.822693000000000E-01     -1.115312000000000E+02      7.320862000000000E-01     -6.016602000000000E+01
4803000000.000000      2.858734000000000E-01      8.871094000000000E+01      5.847168000000000E-01      1.497422000000000E+02      4.815979000000000E-01     -1.115430000000000E+02      7.250671000000000E-01     -6.035156000000000E+01
4804000000.000000      2.774811000000000E-01      8.897655000000000E+01      5.847778000000000E-01      1.494219000000000E+02      4.843445000000000E-01     -1.114414000000000E+02      7.189331000000000E-01     -6.033398000000000E+01
4805000000.000000      2.699280000000000E-01      8.903124000000000E+01      5.860901000000000E-01      1.492891000000000E+02      4.844513000000000E-01     -1.114531000000000E+02      7.137146000000000E-01     -6.053515000000000E+01
4806000000.000000      2.612000000000000E-01      8.930079000000000E+01      5.870056000000000E-01      1.489375000000000E+02      4.840240000000000E-01     -1.113281000000000E+02      7.075806000000000E-01     -6.071094000000000E+01
4807000000.000000      2.530060000000000E-01      8.970312000000000E+01      5.876770000000000E-01      1.485937000000000E+02      4.849701000000000E-01     -1.115430000000000E+02      7.018127000000000E-01     -6.059375000000000E+01
4808000000.000000      2.448883000000000E-01      8.994532000000000E+01      5.898438000000000E-01      1.486172000000000E+02      4.859619000000000E-01     -1.115234000000000E+02      6.984558000000000E-01     -6.077343000000000E+01
4809000000.000000      2.358856000000000E-01      9.028124000000000E+01      5.891113000000000E-01      1.480781000000000E+02      4.874878000000000E-01     -1.115000000000000E+02      6.922607000000000E-01     -6.085938000000000E+01
4810000000.000000      2.273865000000000E-01      9.054296000000000E+01      5.902405000000000E-01      1.478437000000000E+02      4.879608000000000E-01     -1.112969000000000E+02      6.875610000000000E-01     -6.102148000000000E+01
4811000000.000000      2.185974000000000E-01      9.083984000000000E+01      5.896301000000000E-01      1.475547000000000E+02      4.903564000000000E-01     -1.113437000000000E+02      6.813965000000000E-01     -6.096680000000000E+01
4812000000.000000      2.102661000000000E-01      9.128515000000000E+01      5.908508000000000E-01      1.473125000000000E+02      4.887848000000000E-01     -1.111094000000000E+02      6.759338000000000E-01     -6.107616000000000E+01
4813000000.000000      2.011032000000000E-01      9.167969000000000E+01      5.907898000000000E-01      1.468984000000000E+02      4.896698000000000E-01     -1.111758000000000E+02      6.720581000000000E-01     -6.110352000000000E+01
4814000000.000000      1.913681000000000E-01      9.205078000000000E+01      5.910034000000000E-01      1.467109000000000E+02      4.916687000000000E-01     -1.111601000000000E+02      6.669617000000000E-01     -6.136719000000000E+01
4815000000.000000      1.821060000000000E-01      9.254686000000000E+01      5.904541000000000E-01      1.462812000000000E+02      4.910431000000000E-01     -1.110117000000000E+02      6.618042000000000E-01     -6.125977000000000E+01
4816000000.000000      1.739731000000000E-01      9.299608000000000E+01      5.931396000000000E-01      1.460625000000000E+02      4.929962000000000E-01     -1.110273000000000E+02      6.571960000000000E-01     -6.154297000000000E+01
4817000000.000000      1.641617000000000E-01      9.375000000000000E+01      5.910645000000000E-01      1.457031000000000E+02      4.936829000000000E-01     -1.107851000000000E+02      6.513977000000000E-01     -6.149219000000000E+01
4818000000.000000      1.550674000000000E-01      9.431250000000000E+01      5.915527000000000E-01      1.455000000000000E+02      4.941406000000000E-01     -1.108789000000000E+02      6.472473000000000E-01     -6.145508000000000E+01
4819000000.000000      1.458588000000000E-01      9.478516000000000E+01      5.920410000000000E-01      1.449766000000000E+02      4.941406000000000E-01     -1.107500000000000E+02      6.421509000000000E-01     -6.177734000000000E+01
4820000000.000000      1.360016000000000E-01      9.555079000000000E+01      5.912476000000000E-01      1.446953000000000E+02      4.951782000000000E-01     -1.106094000000000E+02      6.374512000000000E-01     -6.175586000000000E+01
4821000000.000000      1.273346000000000E-01      9.646484000000000E+01      5.924683000000000E-01      1.442812000000000E+02      4.971313000000000E-01     -1.106484000000000E+02      6.319885000000000E-01     -6.187109000000000E+01
4822000000.000000      1.175728000000000E-01      9.746874000000000E+01      5.909729000000000E-01      1.440156000000000E+02      4.962921000000000E-01     -1.103906000000000E+02      6.283569000000000E-01     -6.195313000000000E+01
4823000000.000000      1.084023000000000E-01      9.849609000000000E+01      5.907593000000000E-01      1.435078000000000E+02      4.965820000000000E-01     -1.102226000000000E+02      6.242981000000000E-01     -6.200585000000000E+01
4824000000.000000      9.944916000000000E-02      9.983202000000000E+01      5.902405000000000E-01      1.432031000000000E+02      4.978790000000000E-01     -1.103242000000000E+02      6.189270000000000E-01     -6.211132000000000E+01
4825000000.000000      8.966827000000000E-02      1.010898000000000E+02      5.900269000000000E-01      1.429766000000000E+02      4.998016000000000E-01     -1.102851000000000E+02      6.154175000000000E-01     -6.217578000000000E+01
4826000000.000000      8.080292000000000E-02      1.032422000000000E+02      5.915222000000000E-01      1.422891000000000E+02      4.983368000000000E-01     -1.103984000000000E+02      6.110535000000000E-01     -6.223633000000000E+01
4827000000.000000      7.174301000000000E-02      1.052695000000000E+02      5.895996000000000E-01      1.421875000000000E+02      4.988098000000000E-01     -1.099336000000000E+02      6.062317000000000E-01     -6.232031000000000E+01
4828000000.000000      6.310654000000000E-02      1.080234000000000E+02      5.894470000000000E-01      1.416641000000000E+02      4.985199000000000E-01     -1.100859000000000E+02      6.034851000000000E-01     -6.245703000000000E+01
4829000000.000000      5.379486000000000E-02      1.119102000000000E+02      5.887451000000000E-01      1.414141000000000E+02      5.014648000000000E-01     -1.100156000000000E+02      5.993042000000000E-01     -6.247460000000000E+01
4830000000.000000      4.503822000000000E-02      1.171055000000000E+02      5.872498000000000E-01      1.408359000000000E+02      5.021667000000000E-01     -1.099180000000000E+02      5.949097000000000E-01     -6.268945000000000E+01
4831000000.000000      3.709221000000000E-02      1.240820000000000E+02      5.857849000000000E-01      1.405469000000000E+02      5.020752000000000E-01     -1.097539000000000E+02      5.917053000000000E-01     -6.269531000000000E+01
4832000000.000000      3.004646000000000E-02      1.352109000000000E+02      5.848694000000000E-01      1.402812000000000E+02      5.020447000000000E-01     -1.096133000000000E+02      5.873718000000000E-01     -6.263476000000000E+01
4833000000.000000      2.433491000000000E-02      1.524375000000000E+02      5.831909000000000E-01      1.398984000000000E+02      5.032654000000000E-01     -1.097305000000000E+02      5.835266000000000E-01     -6.277538000000000E+01
4834000000.000000      2.177048000000000E-02      1.744922000000000E+02      5.811157000000000E-01      1.395000000000000E+02      5.027161000000000E-01     -1.096016000000000E+02      5.790405000000000E-01     -6.294531000000000E+01
4835000000.000000      2.231693000000000E-02     -1.612578000000000E+02      5.809937000000000E-01      1.390156000000000E+02      5.050354000000000E-01     -1.094883000000000E+02      5.766602000000000E-01     -6.291601000000000E+01
4836000000.000000      2.767277000000000E-02     -1.428437000000000E+02      5.765686000000000E-01      1.386953000000000E+02      5.050049000000000E-01     -1.095000000000000E+02      5.724182000000000E-01     -6.310351000000000E+01
4837000000.000000      3.373528000000000E-02     -1.294531000000000E+02      5.767517000000000E-01      1.380938000000000E+02      5.033264000000000E-01     -1.094648000000000E+02      5.700989000000000E-01     -6.298633000000000E+01
4838000000.000000      4.169083000000000E-02     -1.219765000000000E+02      5.741577000000000E-01      1.378984000000000E+02      5.043030000000000E-01     -1.092148000000000E+02      5.669250000000000E-01     -6.311328000000000E+01
4839000000.000000      4.952240000000000E-02     -1.155586000000000E+02      5.716553000000000E-01      1.376094000000000E+02      5.050049000000000E-01     -1.091914000000000E+02      5.637207000000000E-01     -6.312500000000000E+01
4840000000.000000      5.732727000000000E-02     -1.111211000000000E+02      5.709839000000000E-01      1.372344000000000E+02      5.055847000000000E-01     -1.090703000000000E+02      5.604858000000000E-01     -6.334179000000000E+01
4841000000.000000      6.632614000000000E-02     -1.084101000000000E+02      5.697632000000000E-01      1.366328000000000E+02      5.059814000000000E-01     -1.091055000000000E+02      5.576172000000000E-01     -6.325976000000000E+01
4842000000.000000      7.470703000000000E-02     -1.061016000000000E+02      5.669250000000000E-01      1.365547000000000E+02      5.058289000000000E-01     -1.090391000000000E+02      5.562439000000000E-01     -6.325390000000000E+01
4843000000.000000      8.325577000000000E-02     -1.033281000000000E+02      5.661011000000000E-01      1.358125000000000E+02      5.063782000000000E-01     -1.089687000000000E+02      5.521851000000000E-01     -6.324219000000000E+01
4844000000.000000      9.162140000000000E-02     -1.019258000000000E+02      5.629272000000000E-01      1.358672000000000E+02      5.068665000000000E-01     -1.088320000000000E+02      5.496826000000000E-01     -6.353516000000000E+01
4845000000.000000      1.000481000000000E-01     -1.004609000000000E+02      5.603027000000000E-01      1.354453000000000E+02      5.060425000000000E-01     -1.088437000000000E+02      5.460510000000000E-01     -6.339844000000000E+01
4846000000.000000      1.088600000000000E-01     -9.905859000000000E+01      5.581055000000000E-01      1.350625000000000E+02      5.072327000000000E-01     -1.087461000000000E+02      5.443420000000000E-01     -6.356054000000000E+01
4847000000.000000      1.173592000000000E-01     -9.842186000000000E+01      5.556335000000000E-01      1.348594000000000E+02      5.088501000000000E-01     -1.088515000000000E+02      5.415955000000000E-01     -6.368945000000000E+01
4848000000.000000      1.261215000000000E-01     -9.735546000000000E+01      5.522156000000000E-01      1.345781000000000E+02      5.062561000000000E-01     -1.087226000000000E+02      5.389099000000000E-01     -6.371875000000000E+01
4849000000.000000      1.343155000000000E-01     -9.660545000000000E+01      5.516663000000000E-01      1.340156000000000E+02      5.073242000000000E-01     -1.088164000000000E+02      5.358276000000000E-01     -6.368945000000000E+01
4850000000.000000      1.425476000000000E-01     -9.572266000000000E+01      5.469055000000000E-01      1.336328000000000E+02      5.077209000000000E-01     -1.086211000000000E+02      5.343628000000000E-01     -6.364258000000000E+01
4851000000.000000      1.506958000000000E-01     -9.517187000000000E+01      5.452271000000000E-01      1.333047000000000E+02      5.056152000000000E-01     -1.086406000000000E+02      5.310364000000000E-01     -6.369141000000000E+01
4852000000.000000      1.584625000000000E-01     -9.458984000000000E+01      5.409241000000000E-01      1.332656000000000E+02      5.069580000000000E-01     -1.085781000000000E+02      5.288696000000000E-01     -6.380077000000000E+01
4853000000.000000      1.669464000000000E-01     -9.412109000000000E+01      5.382996000000000E-01      1.326797000000000E+02      5.067139000000000E-01     -1.086289000000000E+02      5.269775000000000E-01     -6.378124000000000E+01
4854000000.000000      1.753540000000000E-01     -9.340624000000000E+01      5.375671000000000E-01      1.323828000000000E+02      5.064697000000000E-01     -1.085938000000000E+02      5.249939000000000E-01     -6.379492000000000E+01
4855000000.000000      1.821289000000000E-01     -9.303514000000000E+01      5.326538000000000E-01      1.321719000000000E+02      5.062866000000000E-01     -1.085078000000000E+02      5.227051000000000E-01     -6.370312000000000E+01
4856000000.000000      1.902924000000000E-01     -9.262890000000000E+01      5.314941000000000E-01      1.319297000000000E+02      5.053711000000000E-01     -1.086680000000000E+02      5.215454000000000E-01     -6.375195000000000E+01
4857000000.000000      1.978149000000000E-01     -9.212891000000000E+01      5.291443000000000E-01      1.316641000000000E+02      5.046997000000000E-01     -1.085898000000000E+02      5.180054000000000E-01     -6.372460000000000E+01
4858000000.000000      2.048721000000000E-01     -9.171484000000000E+01      5.254822000000000E-01      1.312734000000000E+02      5.047302000000000E-01     -1.086289000000000E+02      5.168152000000000E-01     -6.383789000000000E+01
4859000000.000000      2.127762000000000E-01     -9.148829000000000E+01      5.225525000000000E-01      1.309687000000000E+02      5.040894000000000E-01     -1.085820000000000E+02      5.156555000000000E-01     -6.373828000000000E+01
4860000000.000000      2.198792000000000E-01     -9.119921000000000E+01      5.190735000000000E-01      1.309219000000000E+02      5.039978000000000E-01     -1.084727000000000E+02      5.120544000000000E-01     -6.375000000000000E+01
4861000000.000000      2.273407000000000E-01     -9.099609000000000E+01      5.166321000000000E-01      1.304922000000000E+02      5.024414000000000E-01     -1.086836000000000E+02      5.091553000000000E-01     -6.377734000000000E+01
4862000000.000000      2.338867000000000E-01     -9.067968000000000E+01      5.140381000000000E-01      1.304297000000000E+02      5.022888000000000E-01     -1.085000000000000E+02      5.089722000000000E-01     -6.372070000000000E+01
4863000000.000000      2.411194000000000E-01     -9.033203000000000E+01      5.119934000000000E-01      1.299609000000000E+02      5.032349000000000E-01     -1.084531000000000E+02      5.077515000000000E-01     -6.355273000000000E+01
4864000000.000000      2.476349000000000E-01     -9.024609000000000E+01      5.085754000000000E-01      1.299609000000000E+02      5.005798000000000E-01     -1.086641000000000E+02      5.050659000000000E-01     -6.366992000000000E+01
4865000000.000000      2.543793000000000E-01     -9.003906000000000E+01      5.040588000000000E-01      1.297344000000000E+02      4.994049000000000E-01     -1.086484000000000E+02      5.040283000000000E-01     -6.351563000000000E+01
4866000000.000000      2.602081000000000E-01     -8.979687000000000E+01      5.019531000000000E-01      1.294062000000000E+02      4.992523000000000E-01     -1.087344000000000E+02      5.019836000000000E-01     -6.335155000000000E+01
4867000000.000000      2.662201000000000E-01     -8.959764000000000E+01      4.986115000000000E-01      1.290313000000000E+02      4.993591000000000E-01     -1.086797000000000E+02      5.011597000000000E-01     -6.338476000000000E+01
4868000000.000000      2.727966000000000E-01     -8.965624000000000E+01      4.967957000000000E-01      1.288203000000000E+02      4.983368000000000E-01     -1.088828000000000E+02      4.983215000000000E-01     -6.324609000000000E+01
4869000000.000000      2.788544000000000E-01     -8.957031000000000E+01      4.936676000000000E-01      1.286328000000000E+02      4.977570000000000E-01     -1.090234000000000E+02      4.966583000000000E-01     -6.318164000000000E+01
4870000000.000000      2.840271000000000E-01     -8.934374000000000E+01      4.914246000000000E-01      1.287734000000000E+02      4.949341000000000E-01     -1.090273000000000E+02      4.956207000000000E-01     -6.303711000000000E+01
4871000000.000000      2.893524000000000E-01     -8.944139000000000E+01      4.886627000000000E-01      1.283047000000000E+02      4.936829000000000E-01     -1.090625000000000E+02      4.945831000000000E-01     -6.296093000000000E+01
4872000000.000000      2.952271000000000E-01     -8.935156000000000E+01      4.846954000000000E-01      1.281875000000000E+02      4.936523000000000E-01     -1.091211000000000E+02      4.930573000000000E-01     -6.287109000000000E+01
4873000000.000000      2.995758000000000E-01     -8.933594000000000E+01      4.817810000000000E-01      1.279688000000000E+02      4.914398000000000E-01     -1.091367000000000E+02      4.910278000000000E-01     -6.277344000000000E+01
4874000000.000000      3.045807000000000E-01     -8.927734000000000E+01      4.780121000000000E-01      1.277422000000000E+02      4.911652000000000E-01     -1.092578000000000E+02      4.898071000000000E-01     -6.255077000000000E+01
4875000000.000000      3.092041000000000E-01     -8.954296000000000E+01      4.760284000000000E-01      1.275352000000000E+02      4.889374000000000E-01     -1.094336000000000E+02      4.874420000000000E-01     -6.235742000000000E+01
4876000000.000000      3.127747000000000E-01     -8.933594000000000E+01      4.734802000000000E-01      1.271601000000000E+02      4.873047000000000E-01     -1.094922000000000E+02      4.873047000000000E-01     -6.223046000000000E+01
4877000000.000000      3.173065000000000E-01     -8.947657000000000E+01      4.708710000000000E-01      1.270898000000000E+02      4.866028000000000E-01     -1.095976000000000E+02      4.843750000000000E-01     -6.211523000000000E+01
4878000000.000000      3.212585000000000E-01     -8.951563000000000E+01      4.688110000000000E-01      1.269922000000000E+02      4.847107000000000E-01     -1.096016000000000E+02      4.833374000000000E-01     -6.200585000000000E+01
4879000000.000000      3.244171000000000E-01     -8.965235000000000E+01      4.647675000000000E-01      1.267539000000000E+02      4.815063000000000E-01     -1.098476000000000E+02      4.819946000000000E-01     -6.165234000000000E+01
4880000000.000000      3.284149000000000E-01     -8.968750000000000E+01      4.623413000000000E-01      1.263984000000000E+02      4.812317000000000E-01     -1.097930000000000E+02      4.801788000000000E-01     -6.157812000000000E+01
4881000000.000000      3.313446000000000E-01     -8.984375000000000E+01      4.602051000000000E-01      1.264492000000000E+02      4.798126000000000E-01     -1.098476000000000E+02      4.791718000000000E-01     -6.134766000000000E+01
4882000000.000000      3.335876000000000E-01     -8.991796000000000E+01      4.579773000000000E-01      1.261641000000000E+02      4.777832000000000E-01     -1.099726000000000E+02      4.775238000000000E-01     -6.098046000000000E+01
