! Network Analyzer HP8722D
! Hewlett-Packard
! Data name: Linha & Wilkinson
! Saver's name: Rodrigo Anjos
! Comments: Teste da utilização de aquisição
continua pelo VNA HP8722D
! Time and date: 15/4/2025 16:12
!              Frequency                     S11                                                   S21                                                   S12                                                   S22
# HZ  S  MA R 50
4800000000.000000      3.313293000000000E-01     -1.139180000000000E+02      2.825165000000000E-01     -6.085351000000000E+01      2.758179000000000E-01     -1.751641000000000E+02      6.543579000000000E-01     -8.954687000000000E+01
4801000000.000000      3.298950000000000E-01     -1.147266000000000E+02      2.869263000000000E-01     -6.080664000000000E+01      2.789764000000000E-01     -1.748984000000000E+02      6.530457000000000E-01     -8.955078000000000E+01
4802000000.000000      3.283844000000000E-01     -1.157265000000000E+02      2.919464000000000E-01     -6.078906000000000E+01      2.843018000000000E-01     -1.747890000000000E+02      6.509705000000000E-01     -8.948437000000000E+01
4803000000.000000      3.282623000000000E-01     -1.167695000000000E+02      2.962341000000000E-01     -6.092578000000000E+01      2.875824000000000E-01     -1.746328000000000E+02      6.511230000000000E-01     -8.975389000000000E+01
4804000000.000000      3.285980000000000E-01     -1.178008000000000E+02      3.006134000000000E-01     -6.114062000000000E+01      2.923279000000000E-01     -1.746797000000000E+02      6.501160000000000E-01     -8.981640000000000E+01
4805000000.000000      3.286285000000000E-01     -1.187656000000000E+02      3.054657000000000E-01     -6.114258000000000E+01      2.964020000000000E-01     -1.743750000000000E+02      6.495667000000000E-01     -9.004686000000000E+01
4806000000.000000      3.275909000000000E-01     -1.196484000000000E+02      3.093719000000000E-01     -6.143555000000000E+01      2.992706000000000E-01     -1.741250000000000E+02      6.488953000000000E-01     -9.012499000000000E+01
4807000000.000000      3.277435000000000E-01     -1.208203000000000E+02      3.144836000000000E-01     -6.155468000000000E+01      3.043976000000000E-01     -1.742969000000000E+02      6.481018000000000E-01     -9.011719000000000E+01
4808000000.000000      3.285370000000000E-01     -1.217891000000000E+02      3.192902000000000E-01     -6.142187000000000E+01      3.085632000000000E-01     -1.742031000000000E+02      6.466064000000000E-01     -9.013672000000000E+01
4809000000.000000      3.284302000000000E-01     -1.229336000000000E+02      3.230286000000000E-01     -6.179492000000000E+01      3.127289000000000E-01     -1.741484000000000E+02      6.471558000000000E-01     -9.029297000000000E+01
4810000000.000000      3.294830000000000E-01     -1.240547000000000E+02      3.278503000000000E-01     -6.184179000000000E+01      3.170013000000000E-01     -1.740313000000000E+02      6.468506000000000E-01     -9.038671000000000E+01
4811000000.000000      3.298492000000000E-01     -1.250117000000000E+02      3.324890000000000E-01     -6.232031000000000E+01      3.219757000000000E-01     -1.738437000000000E+02      6.459961000000000E-01     -9.039063000000000E+01
4812000000.000000      3.322754000000000E-01     -1.259687000000000E+02      3.367310000000000E-01     -6.236718000000000E+01      3.254395000000000E-01     -1.737813000000000E+02      6.463928000000000E-01     -9.055859000000000E+01
4813000000.000000      3.327789000000000E-01     -1.271211000000000E+02      3.408813000000000E-01     -6.242969000000000E+01      3.285828000000000E-01     -1.735391000000000E+02      6.459961000000000E-01     -9.064062000000000E+01
4814000000.000000      3.337708000000000E-01     -1.283437000000000E+02      3.448639000000000E-01     -6.269336000000000E+01      3.337708000000000E-01     -1.736641000000000E+02      6.462708000000000E-01     -9.073437000000000E+01
4815000000.000000      3.354034000000000E-01     -1.293437000000000E+02      3.500824000000000E-01     -6.285351000000000E+01      3.361816000000000E-01     -1.736016000000000E+02      6.456909000000000E-01     -9.078905000000000E+01
4816000000.000000      3.376770000000000E-01     -1.303750000000000E+02      3.540039000000000E-01     -6.311132000000000E+01      3.419037000000000E-01     -1.734375000000000E+02      6.467285000000000E-01     -9.087109000000000E+01
4817000000.000000      3.402710000000000E-01     -1.313750000000000E+02      3.575439000000000E-01     -6.333398000000000E+01      3.448181000000000E-01     -1.734688000000000E+02      6.464233000000000E-01     -9.100000000000000E+01
4818000000.000000      3.424835000000000E-01     -1.325781000000000E+02      3.607788000000000E-01     -6.352929000000000E+01      3.492889000000000E-01     -1.733828000000000E+02      6.469116000000000E-01     -9.112108000000000E+01
4819000000.000000      3.452301000000000E-01     -1.336016000000000E+02      3.653259000000000E-01     -6.382813000000000E+01      3.533325000000000E-01     -1.733594000000000E+02      6.484375000000000E-01     -9.121094000000000E+01
4820000000.000000      3.466492000000000E-01     -1.346016000000000E+02      3.695984000000000E-01     -6.399609000000000E+01      3.578796000000000E-01     -1.733281000000000E+02      6.482849000000000E-01     -9.123047000000000E+01
4821000000.000000      3.496094000000000E-01     -1.358281000000000E+02      3.738708000000000E-01     -6.424218000000000E+01      3.608551000000000E-01     -1.734922000000000E+02      6.478577000000000E-01     -9.128124000000000E+01
4822000000.000000      3.545532000000000E-01     -1.368047000000000E+02      3.768463000000000E-01     -6.454296000000000E+01      3.647919000000000E-01     -1.734297000000000E+02      6.502686000000000E-01     -9.133984000000000E+01
4823000000.000000      3.566895000000000E-01     -1.377500000000000E+02      3.808441000000000E-01     -6.475390000000000E+01      3.691559000000000E-01     -1.732031000000000E+02      6.503601000000000E-01     -9.142187000000000E+01
4824000000.000000      3.610840000000000E-01     -1.389297000000000E+02      3.849487000000000E-01     -6.507421000000000E+01      3.738861000000000E-01     -1.733281000000000E+02      6.526794000000000E-01     -9.148829000000000E+01
4825000000.000000      3.641968000000000E-01     -1.398125000000000E+02      3.880157000000000E-01     -6.515625000000000E+01      3.784637000000000E-01     -1.732734000000000E+02      6.525269000000000E-01     -9.152344000000000E+01
4826000000.000000      3.685455000000000E-01     -1.408516000000000E+02      3.931122000000000E-01     -6.575390000000000E+01      3.810577000000000E-01     -1.732500000000000E+02      6.534119000000000E-01     -9.168360000000000E+01
4827000000.000000      3.723907000000000E-01     -1.416953000000000E+02      3.960876000000000E-01     -6.573437000000000E+01      3.853149000000000E-01     -1.731719000000000E+02      6.549683000000000E-01     -9.176172000000000E+01
4828000000.000000      3.772888000000000E-01     -1.427031000000000E+02      4.000854000000000E-01     -6.612499000000000E+01      3.896179000000000E-01     -1.731641000000000E+02      6.570129000000000E-01     -9.181641000000000E+01
4829000000.000000      3.796997000000000E-01     -1.435937000000000E+02      4.029083000000000E-01     -6.640234000000000E+01      3.937378000000000E-01     -1.732500000000000E+02      6.577148000000000E-01     -9.178514000000000E+01
4830000000.000000      3.854218000000000E-01     -1.445469000000000E+02      4.077148000000000E-01     -6.667187000000000E+01      3.975830000000000E-01     -1.731562000000000E+02      6.584167000000000E-01     -9.205858000000000E+01
4831000000.000000      3.892517000000000E-01     -1.454766000000000E+02      4.101563000000000E-01     -6.708984000000000E+01      4.026031000000000E-01     -1.731250000000000E+02      6.610107000000000E-01     -9.201952000000000E+01
4832000000.000000      3.949890000000000E-01     -1.463281000000000E+02      4.139099000000000E-01     -6.726563000000000E+01      4.059296000000000E-01     -1.732578000000000E+02      6.622925000000000E-01     -9.214062000000000E+01
4833000000.000000      3.997498000000000E-01     -1.472891000000000E+02      4.177704000000000E-01     -6.742188000000000E+01      4.105072000000000E-01     -1.733516000000000E+02      6.636658000000000E-01     -9.213282000000000E+01
4834000000.000000      4.043427000000000E-01     -1.481094000000000E+02      4.208527000000000E-01     -6.782421000000000E+01      4.146423000000000E-01     -1.733203000000000E+02      6.650085000000000E-01     -9.217968000000000E+01
4835000000.000000      4.089050000000000E-01     -1.488594000000000E+02      4.246063000000000E-01     -6.822266000000000E+01      4.191589000000000E-01     -1.733906000000000E+02      6.683044000000000E-01     -9.236719000000000E+01
4836000000.000000      4.148560000000000E-01     -1.496328000000000E+02      4.278717000000000E-01     -6.833984000000000E+01      4.225311000000000E-01     -1.734375000000000E+02      6.690369000000000E-01     -9.239061000000000E+01
4837000000.000000      4.198761000000000E-01     -1.504609000000000E+02      4.313202000000000E-01     -6.905468000000000E+01      4.263611000000000E-01     -1.735312000000000E+02      6.721191000000000E-01     -9.232422000000000E+01
4838000000.000000      4.256134000000000E-01     -1.513359000000000E+02      4.346161000000000E-01     -6.918750000000000E+01      4.309540000000000E-01     -1.735078000000000E+02      6.751099000000000E-01     -9.238672000000000E+01
4839000000.000000      4.304352000000000E-01     -1.519844000000000E+02      4.369354000000000E-01     -6.927734000000000E+01      4.355011000000000E-01     -1.734609000000000E+02      6.766968000000000E-01     -9.247656000000000E+01
4840000000.000000      4.350128000000000E-01     -1.528906000000000E+02      4.404602000000000E-01     -6.968359000000000E+01      4.392548000000000E-01     -1.736328000000000E+02      6.781006000000000E-01     -9.251171000000000E+01
4841000000.000000      4.403839000000000E-01     -1.536797000000000E+02      4.437256000000000E-01     -7.012500000000000E+01      4.441071000000000E-01     -1.737813000000000E+02      6.803894000000000E-01     -9.257813000000000E+01
4842000000.000000      4.462891000000000E-01     -1.542969000000000E+02      4.468384000000000E-01     -7.037499000000000E+01      4.475098000000000E-01     -1.737734000000000E+02      6.834717000000000E-01     -9.262110000000000E+01
4843000000.000000      4.504089000000000E-01     -1.550625000000000E+02      4.494476000000000E-01     -7.070313000000000E+01      4.514465000000000E-01     -1.739687000000000E+02      6.857300000000000E-01     -9.264843000000000E+01
4844000000.000000      4.556427000000000E-01     -1.556641000000000E+02      4.524078000000000E-01     -7.093750000000000E+01      4.552155000000000E-01     -1.739141000000000E+02      6.886902000000000E-01     -9.280077000000000E+01
4845000000.000000      4.611816000000000E-01     -1.563359000000000E+02      4.547424000000000E-01     -7.119922000000000E+01      4.601593000000000E-01     -1.740625000000000E+02      6.890564000000000E-01     -9.270702000000000E+01
4846000000.000000      4.663696000000000E-01     -1.569453000000000E+02      4.578857000000000E-01     -7.164844000000000E+01      4.644775000000000E-01     -1.742266000000000E+02      6.933899000000000E-01     -9.280859000000000E+01
4847000000.000000      4.723663000000000E-01     -1.576328000000000E+02      4.605408000000000E-01     -7.194530000000000E+01      4.687195000000000E-01     -1.743203000000000E+02      6.966858000000000E-01     -9.295313000000000E+01
4848000000.000000      4.770355000000000E-01     -1.582656000000000E+02      4.621124000000000E-01     -7.217578000000000E+01      4.726715000000000E-01     -1.743750000000000E+02      6.989441000000000E-01     -9.285547000000000E+01
4849000000.000000      4.819183000000000E-01     -1.590937000000000E+02      4.661255000000000E-01     -7.257421000000000E+01      4.770355000000000E-01     -1.744766000000000E+02      7.010193000000000E-01     -9.298828000000000E+01
4850000000.000000      4.867401000000000E-01     -1.594922000000000E+02      4.681549000000000E-01     -7.306250000000000E+01      4.806976000000000E-01     -1.745312000000000E+02      7.036438000000000E-01     -9.292969000000000E+01
4851000000.000000      4.923553000000000E-01     -1.601094000000000E+02      4.710846000000000E-01     -7.331640000000000E+01      4.842377000000000E-01     -1.747344000000000E+02      7.082214000000000E-01     -9.302343000000000E+01
4852000000.000000      4.968109000000000E-01     -1.607109000000000E+02      4.731293000000000E-01     -7.357812000000000E+01      4.888153000000000E-01     -1.748516000000000E+02      7.097473000000000E-01     -9.313671000000000E+01
4853000000.000000      5.019836000000000E-01     -1.612344000000000E+02      4.734802000000000E-01     -7.389062000000000E+01      4.933624000000000E-01     -1.751172000000000E+02      7.119751000000000E-01     -9.332422000000000E+01
4854000000.000000      5.061035000000000E-01     -1.618359000000000E+02      4.778442000000000E-01     -7.424218000000000E+01      4.967041000000000E-01     -1.751484000000000E+02      7.152710000000000E-01     -9.319530000000000E+01
4855000000.000000      5.089111000000000E-01     -1.623594000000000E+02      4.789276000000000E-01     -7.462500000000000E+01      5.004272000000000E-01     -1.752422000000000E+02      7.184143000000000E-01     -9.322266000000000E+01
4856000000.000000      5.145569000000000E-01     -1.628047000000000E+02      4.812012000000000E-01     -7.492188000000000E+01      5.038757000000000E-01     -1.753906000000000E+02      7.225647000000000E-01     -9.335546000000000E+01
4857000000.000000      5.187073000000000E-01     -1.634063000000000E+02      4.847412000000000E-01     -7.522265000000000E+01      5.083008000000000E-01     -1.756328000000000E+02      7.247620000000000E-01     -9.335546000000000E+01
4858000000.000000      5.208435000000000E-01     -1.638906000000000E+02      4.859772000000000E-01     -7.545312000000000E+01      5.113831000000000E-01     -1.757813000000000E+02      7.261047000000000E-01     -9.343359000000000E+01
4859000000.000000      5.261841000000000E-01     -1.644063000000000E+02      4.879456000000000E-01     -7.572266000000000E+01      5.148010000000000E-01     -1.760000000000000E+02      7.309875000000000E-01     -9.346094000000000E+01
4860000000.000000      5.300293000000000E-01     -1.648203000000000E+02      4.893494000000000E-01     -7.607812000000000E+01      5.193176000000000E-01     -1.760625000000000E+02      7.326965000000000E-01     -9.338282000000000E+01
4861000000.000000      5.337524000000000E-01     -1.652109000000000E+02      4.915314000000000E-01     -7.652344000000000E+01      5.229187000000000E-01     -1.763438000000000E+02      7.367859000000000E-01     -9.351171000000000E+01
4862000000.000000      5.363464000000000E-01     -1.657031000000000E+02      4.945068000000000E-01     -7.682031000000000E+01      5.260620000000000E-01     -1.763984000000000E+02      7.408752000000000E-01     -9.347656000000000E+01
4863000000.000000      5.387573000000000E-01     -1.661250000000000E+02      4.952087000000000E-01     -7.709374000000000E+01      5.311890000000000E-01     -1.766406000000000E+02      7.427673000000000E-01     -9.362499000000000E+01
4864000000.000000      5.421143000000000E-01     -1.665703000000000E+02      4.960785000000000E-01     -7.728516000000000E+01      5.321350000000000E-01     -1.767422000000000E+02      7.451477000000000E-01     -9.374218000000000E+01
4865000000.000000      5.444946000000000E-01     -1.670625000000000E+02      4.981537000000000E-01     -7.753906000000000E+01      5.372620000000000E-01     -1.770703000000000E+02      7.473755000000000E-01     -9.353907000000000E+01
4866000000.000000      5.466919000000000E-01     -1.672812000000000E+02      4.988708000000000E-01     -7.783593000000000E+01      5.388794000000000E-01     -1.771563000000000E+02      7.498474000000000E-01     -9.351171000000000E+01
4867000000.000000      5.497742000000000E-01     -1.676016000000000E+02      5.021973000000000E-01     -7.815234000000000E+01      5.428467000000000E-01     -1.774765000000000E+02      7.535400000000000E-01     -9.383984000000000E+01
4868000000.000000      5.523071000000000E-01     -1.680859000000000E+02      5.010986000000000E-01     -7.857422000000000E+01      5.461426000000000E-01     -1.777187000000000E+02      7.563477000000000E-01     -9.376953000000000E+01
4869000000.000000      5.525818000000000E-01     -1.684141000000000E+02      5.032959000000000E-01     -7.884766000000000E+01      5.482483000000000E-01     -1.778750000000000E+02      7.603455000000000E-01     -9.391016000000000E+01
4870000000.000000      5.558472000000000E-01     -1.686719000000000E+02      5.044861000000000E-01     -7.880077000000000E+01      5.521545000000000E-01     -1.781328000000000E+02      7.620544000000000E-01     -9.372656000000000E+01
4871000000.000000      5.577698000000000E-01     -1.690859000000000E+02      5.071106000000000E-01     -7.915234000000000E+01      5.531006000000000E-01     -1.782812000000000E+02      7.651672000000000E-01     -9.382421000000000E+01
4872000000.000000      5.596008000000000E-01     -1.692109000000000E+02      5.069885000000000E-01     -7.927734000000000E+01      5.556335000000000E-01     -1.787422000000000E+02      7.673950000000000E-01     -9.391016000000000E+01
4873000000.000000      5.606995000000000E-01     -1.695703000000000E+02      5.077209000000000E-01     -7.985937000000000E+01      5.586548000000000E-01     -1.786406000000000E+02      7.701721000000000E-01     -9.397655000000000E+01
4874000000.000000      5.615845000000000E-01     -1.697422000000000E+02      5.082092000000000E-01     -8.003124000000000E+01      5.634766000000000E-01     -1.788984000000000E+02      7.715149000000000E-01     -9.389063000000000E+01
4875000000.000000      5.643005000000000E-01     -1.700469000000000E+02      5.092163000000000E-01     -8.027344000000000E+01      5.643616000000000E-01     -1.792656000000000E+02      7.735291000000000E-01     -9.410936000000000E+01
4876000000.000000      5.627441000000000E-01     -1.702812000000000E+02      5.110168000000000E-01     -8.056250000000000E+01      5.654602000000000E-01     -1.795000000000000E+02      7.772217000000000E-01     -9.409374000000000E+01
4877000000.000000      5.639038000000000E-01     -1.705078000000000E+02      5.115356000000000E-01     -8.062109000000000E+01      5.698242000000000E-01     -1.796641000000000E+02      7.787476000000000E-01     -9.415234000000000E+01
4878000000.000000      5.650635000000000E-01     -1.705781000000000E+02      5.150452000000000E-01     -8.096094000000000E+01      5.717163000000000E-01     -1.797422000000000E+02      7.817078000000000E-01     -9.437500000000000E+01
4879000000.000000      5.661316000000000E-01     -1.708203000000000E+02      5.138245000000000E-01     -8.107031000000000E+01      5.748291000000000E-01      1.799297000000000E+02      7.826843000000000E-01     -9.421093000000000E+01
4880000000.000000      5.646362000000000E-01     -1.709766000000000E+02      5.162354000000000E-01     -8.142969000000000E+01      5.764465000000000E-01      1.798594000000000E+02      7.859497000000000E-01     -9.427734000000000E+01
4881000000.000000      5.668945000000000E-01     -1.711250000000000E+02      5.168457000000000E-01     -8.150782000000000E+01      5.785217000000000E-01      1.793516000000000E+02      7.886658000000000E-01     -9.434765000000000E+01
4882000000.000000      5.650635000000000E-01     -1.712969000000000E+02      5.169983000000000E-01     -8.172655000000000E+01      5.797424000000000E-01      1.794141000000000E+02      7.891541000000000E-01     -9.438280000000000E+01
