! Network Analyzer HP8722D
! Hewlett-Packard
! Data name: Linha & Wilkinson
! Saver's name: Rodrigo Anjos
! Comments: Teste da utilização de aquisição
continua pelo VNA HP8722D
! Time and date: 15/4/2025 15:41
!              Frequency                     S11                                                   S21                                                   S12                                                   S22
# HZ  S  MA R 50
4800000000.000000      1.214485000000000E-01     -8.498438000000000E+01      1.548767000000000E-01      1.689375000000000E+02      1.404877000000000E-01     -1.363047000000000E+02      6.717224000000000E-01     -7.241015000000000E+01
4801000000.000000      1.180916000000000E-01     -8.855078000000000E+01      1.531525000000000E-01      1.710469000000000E+02      1.384277000000000E-01     -1.345078000000000E+02      6.708069000000000E-01     -7.262890000000000E+01
4802000000.000000      1.156082000000000E-01     -9.259766000000000E+01      1.515884000000000E-01      1.729141000000000E+02      1.372833000000000E-01     -1.325000000000000E+02      6.696472000000000E-01     -7.272655000000000E+01
4803000000.000000      1.142845000000000E-01     -9.689842000000000E+01      1.509171000000000E-01      1.749687000000000E+02      1.362915000000000E-01     -1.303906000000000E+02      6.687622000000000E-01     -7.306250000000000E+01
4804000000.000000      1.130409000000000E-01     -1.012148000000000E+02      1.497650000000000E-01      1.769687000000000E+02      1.355667000000000E-01     -1.285234000000000E+02      6.666870000000000E-01     -7.326562000000000E+01
4805000000.000000      1.127625000000000E-01     -1.055703000000000E+02      1.494064000000000E-01      1.788750000000000E+02      1.353455000000000E-01     -1.263594000000000E+02      6.651306000000000E-01     -7.353125000000000E+01
4806000000.000000      1.132698000000000E-01     -1.100508000000000E+02      1.492462000000000E-01     -1.788672000000000E+02      1.349487000000000E-01     -1.240000000000000E+02      6.649780000000000E-01     -7.383984000000000E+01
4807000000.000000      1.143608000000000E-01     -1.147109000000000E+02      1.494598000000000E-01     -1.768984000000000E+02      1.353989000000000E-01     -1.221094000000000E+02      6.631775000000000E-01     -7.386719000000000E+01
4808000000.000000      1.160240000000000E-01     -1.188047000000000E+02      1.505203000000000E-01     -1.747344000000000E+02      1.357651000000000E-01     -1.200312000000000E+02      6.614380000000000E-01     -7.419140000000000E+01
4809000000.000000      1.192627000000000E-01     -1.233984000000000E+02      1.511536000000000E-01     -1.729844000000000E+02      1.370087000000000E-01     -1.180664000000000E+02      6.601868000000000E-01     -7.446875000000000E+01
4810000000.000000      1.231270000000000E-01     -1.273242000000000E+02      1.526871000000000E-01     -1.707500000000000E+02      1.380692000000000E-01     -1.158008000000000E+02      6.591797000000000E-01     -7.462891000000000E+01
4811000000.000000      1.273575000000000E-01     -1.309922000000000E+02      1.544418000000000E-01     -1.690469000000000E+02      1.398697000000000E-01     -1.138125000000000E+02      6.572571000000000E-01     -7.477734000000000E+01
4812000000.000000      1.320648000000000E-01     -1.344922000000000E+02      1.558075000000000E-01     -1.670078000000000E+02      1.409683000000000E-01     -1.118867000000000E+02      6.572571000000000E-01     -7.503124000000000E+01
4813000000.000000      1.376953000000000E-01     -1.377031000000000E+02      1.583405000000000E-01     -1.652500000000000E+02      1.429138000000000E-01     -1.098711000000000E+02      6.551514000000000E-01     -7.517578000000000E+01
4814000000.000000      1.434326000000000E-01     -1.408828000000000E+02      1.609039000000000E-01     -1.635391000000000E+02      1.454391000000000E-01     -1.081992000000000E+02      6.539001000000000E-01     -7.544531000000000E+01
4815000000.000000      1.500320000000000E-01     -1.433281000000000E+02      1.635284000000000E-01     -1.619688000000000E+02      1.484680000000000E-01     -1.063906000000000E+02      6.529846000000000E-01     -7.554688000000000E+01
4816000000.000000      1.566772000000000E-01     -1.458984000000000E+02      1.665115000000000E-01     -1.602656000000000E+02      1.512985000000000E-01     -1.047305000000000E+02      6.517944000000000E-01     -7.577343000000000E+01
4817000000.000000      1.644440000000000E-01     -1.478594000000000E+02      1.700363000000000E-01     -1.589766000000000E+02      1.541214000000000E-01     -1.032461000000000E+02      6.510010000000000E-01     -7.593359000000000E+01
4818000000.000000      1.708908000000000E-01     -1.501016000000000E+02      1.731567000000000E-01     -1.574844000000000E+02      1.577148000000000E-01     -1.016016000000000E+02      6.499939000000000E-01     -7.617188000000000E+01
4819000000.000000      1.795654000000000E-01     -1.518516000000000E+02      1.767731000000000E-01     -1.560937000000000E+02      1.605988000000000E-01     -1.002031000000000E+02      6.497192000000000E-01     -7.644921000000000E+01
4820000000.000000      1.865463000000000E-01     -1.534062000000000E+02      1.806030000000000E-01     -1.548906000000000E+02      1.646652000000000E-01     -9.891405000000000E+01      6.484985000000000E-01     -7.658203000000000E+01
4821000000.000000      1.952057000000000E-01     -1.548750000000000E+02      1.848373000000000E-01     -1.540000000000000E+02      1.682587000000000E-01     -9.771873000000000E+01      6.464233000000000E-01     -7.674999000000000E+01
4822000000.000000      2.041626000000000E-01     -1.562187000000000E+02      1.892014000000000E-01     -1.528437000000000E+02      1.720886000000000E-01     -9.667187000000000E+01      6.471558000000000E-01     -7.692577000000000E+01
4823000000.000000      2.124710000000000E-01     -1.572500000000000E+02      1.933670000000000E-01     -1.520000000000000E+02      1.768036000000000E-01     -9.532812000000000E+01      6.459351000000000E-01     -7.714062000000000E+01
4824000000.000000      2.217712000000000E-01     -1.585078000000000E+02      1.978378000000000E-01     -1.509766000000000E+02      1.813278000000000E-01     -9.445313000000000E+01      6.459351000000000E-01     -7.730078000000000E+01
4825000000.000000      2.293472000000000E-01     -1.593359000000000E+02      2.026215000000000E-01     -1.501250000000000E+02      1.857834000000000E-01     -9.352343000000000E+01      6.450500000000000E-01     -7.741405000000000E+01
4826000000.000000      2.388916000000000E-01     -1.602344000000000E+02      2.073135000000000E-01     -1.495156000000000E+02      1.894913000000000E-01     -9.273438000000000E+01      6.445923000000000E-01     -7.766796000000000E+01
4827000000.000000      2.474213000000000E-01     -1.608750000000000E+02      2.121429000000000E-01     -1.485937000000000E+02      1.946411000000000E-01     -9.170702000000000E+01      6.440430000000000E-01     -7.776562000000000E+01
4828000000.000000      2.567902000000000E-01     -1.614922000000000E+02      2.171402000000000E-01     -1.479687000000000E+02      1.993027000000000E-01     -9.097265000000000E+01      6.438904000000000E-01     -7.792187000000000E+01
4829000000.000000      2.648163000000000E-01     -1.621016000000000E+02      2.220535000000000E-01     -1.475547000000000E+02      2.044678000000000E-01     -9.032421000000000E+01      6.436768000000000E-01     -7.798046000000000E+01
4830000000.000000      2.740784000000000E-01     -1.626328000000000E+02      2.277374000000000E-01     -1.471641000000000E+02      2.094879000000000E-01     -8.974609000000000E+01      6.434021000000000E-01     -7.823047000000000E+01
4831000000.000000      2.826385000000000E-01     -1.631328000000000E+02      2.320633000000000E-01     -1.465469000000000E+02      2.147369000000000E-01     -8.904297000000000E+01      6.432495000000000E-01     -7.835546000000000E+01
4832000000.000000      2.927399000000000E-01     -1.634766000000000E+02      2.375870000000000E-01     -1.463047000000000E+02      2.200546000000000E-01     -8.851563000000000E+01      6.427612000000000E-01     -7.847265000000000E+01
4833000000.000000      3.015137000000000E-01     -1.639922000000000E+02      2.428589000000000E-01     -1.457422000000000E+02      2.250366000000000E-01     -8.810547000000000E+01      6.421509000000000E-01     -7.869922000000000E+01
4834000000.000000      3.100891000000000E-01     -1.643047000000000E+02      2.475891000000000E-01     -1.455781000000000E+02      2.306900000000000E-01     -8.761328000000000E+01      6.425476000000000E-01     -7.875000000000000E+01
4835000000.000000      3.188171000000000E-01     -1.645156000000000E+02      2.533875000000000E-01     -1.455000000000000E+02      2.361526000000000E-01     -8.717188000000000E+01      6.410828000000000E-01     -7.894921000000000E+01
4836000000.000000      3.281250000000000E-01     -1.647109000000000E+02      2.584534000000000E-01     -1.450938000000000E+02      2.417297000000000E-01     -8.689453000000000E+01      6.408997000000000E-01     -7.912890000000000E+01
4837000000.000000      3.371429000000000E-01     -1.648281000000000E+02      2.635956000000000E-01     -1.452656000000000E+02      2.474136000000000E-01     -8.654297000000000E+01      6.418762000000000E-01     -7.910546000000000E+01
4838000000.000000      3.458252000000000E-01     -1.651250000000000E+02      2.689819000000000E-01     -1.448906000000000E+02      2.528687000000000E-01     -8.625391000000000E+01      6.416016000000000E-01     -7.933594000000000E+01
4839000000.000000      3.543549000000000E-01     -1.652109000000000E+02      2.740021000000000E-01     -1.448125000000000E+02      2.583771000000000E-01     -8.598827000000000E+01      6.422424000000000E-01     -7.947656000000000E+01
4840000000.000000      3.623047000000000E-01     -1.653594000000000E+02      2.793579000000000E-01     -1.447891000000000E+02      2.640533000000000E-01     -8.573828000000000E+01      6.415100000000000E-01     -7.957421000000000E+01
4841000000.000000      3.713074000000000E-01     -1.655859000000000E+02      2.849274000000000E-01     -1.448359000000000E+02      2.707520000000000E-01     -8.570313000000000E+01      6.421814000000000E-01     -7.960938000000000E+01
4842000000.000000      3.804474000000000E-01     -1.654844000000000E+02      2.902374000000000E-01     -1.448125000000000E+02      2.756500000000000E-01     -8.541016000000000E+01      6.423950000000000E-01     -7.978906000000000E+01
4843000000.000000      3.878937000000000E-01     -1.656406000000000E+02      2.951660000000000E-01     -1.449141000000000E+02      2.820892000000000E-01     -8.532812000000000E+01      6.424561000000000E-01     -7.989843000000000E+01
4844000000.000000      3.961334000000000E-01     -1.656953000000000E+02      3.005524000000000E-01     -1.449687000000000E+02      2.881012000000000E-01     -8.514063000000000E+01      6.416626000000000E-01     -7.997656000000000E+01
4845000000.000000      4.040375000000000E-01     -1.656641000000000E+02      3.056183000000000E-01     -1.448750000000000E+02      2.942200000000000E-01     -8.506639000000000E+01      6.426086000000000E-01     -8.005468000000000E+01
4846000000.000000      4.119873000000000E-01     -1.655859000000000E+02      3.110504000000000E-01     -1.449609000000000E+02      3.007965000000000E-01     -8.498047000000000E+01      6.421204000000000E-01     -8.007030000000000E+01
4847000000.000000      4.211121000000000E-01     -1.655703000000000E+02      3.160858000000000E-01     -1.449766000000000E+02      3.069000000000000E-01     -8.501953000000000E+01      6.431580000000000E-01     -8.039454000000000E+01
4848000000.000000      4.283447000000000E-01     -1.655703000000000E+02      3.206329000000000E-01     -1.451875000000000E+02      3.126526000000000E-01     -8.491796000000000E+01      6.435242000000000E-01     -8.034374000000000E+01
4849000000.000000      4.361115000000000E-01     -1.657344000000000E+02      3.264923000000000E-01     -1.453594000000000E+02      3.188934000000000E-01     -8.489452000000000E+01      6.437073000000000E-01     -8.049219000000000E+01
4850000000.000000      4.434509000000000E-01     -1.655156000000000E+02      3.310394000000000E-01     -1.454766000000000E+02      3.254089000000000E-01     -8.486328000000000E+01      6.436157000000000E-01     -8.044140000000000E+01
4851000000.000000      4.509125000000000E-01     -1.654687000000000E+02      3.367310000000000E-01     -1.457656000000000E+02      3.307037000000000E-01     -8.496874000000000E+01      6.447144000000000E-01     -8.065624000000000E+01
4852000000.000000      4.586487000000000E-01     -1.654375000000000E+02      3.419342000000000E-01     -1.459687000000000E+02      3.377533000000000E-01     -8.500391000000000E+01      6.444092000000000E-01     -8.069921000000000E+01
4853000000.000000      4.656830000000000E-01     -1.653828000000000E+02      3.453979000000000E-01     -1.460312000000000E+02      3.446503000000000E-01     -8.506639000000000E+01      6.454163000000000E-01     -8.083984000000000E+01
4854000000.000000      4.720154000000000E-01     -1.653047000000000E+02      3.504181000000000E-01     -1.463984000000000E+02      3.502655000000000E-01     -8.519531000000000E+01      6.450806000000000E-01     -8.092577000000000E+01
4855000000.000000      4.781952000000000E-01     -1.652187000000000E+02      3.554382000000000E-01     -1.465234000000000E+02      3.571320000000000E-01     -8.532421000000000E+01      6.443787000000000E-01     -8.101954000000000E+01
4856000000.000000      4.852295000000000E-01     -1.651094000000000E+02      3.601532000000000E-01     -1.467813000000000E+02      3.623047000000000E-01     -8.536327000000000E+01      6.448975000000000E-01     -8.110937000000000E+01
4857000000.000000      4.918823000000000E-01     -1.650312000000000E+02      3.661194000000000E-01     -1.469453000000000E+02      3.687134000000000E-01     -8.534765000000000E+01      6.469727000000000E-01     -8.122265000000000E+01
4858000000.000000      4.960175000000000E-01     -1.649844000000000E+02      3.697357000000000E-01     -1.471641000000000E+02      3.756866000000000E-01     -8.566015000000000E+01      6.459656000000000E-01     -8.130077000000000E+01
4859000000.000000      5.027161000000000E-01     -1.648516000000000E+02      3.748779000000000E-01     -1.475703000000000E+02      3.818970000000000E-01     -8.591406000000000E+01      6.477966000000000E-01     -8.144922000000000E+01
4860000000.000000      5.091553000000000E-01     -1.647500000000000E+02      3.790283000000000E-01     -1.476641000000000E+02      3.879242000000000E-01     -8.595703000000000E+01      6.472778000000000E-01     -8.141016000000000E+01
4861000000.000000      5.140991000000000E-01     -1.646172000000000E+02      3.833313000000000E-01     -1.480937000000000E+02      3.947144000000000E-01     -8.610937000000000E+01      6.473694000000000E-01     -8.160156000000000E+01
4862000000.000000      5.186157000000000E-01     -1.644766000000000E+02      3.885956000000000E-01     -1.482188000000000E+02      4.012146000000000E-01     -8.627344000000000E+01      6.494141000000000E-01     -8.163280000000000E+01
4863000000.000000      5.234070000000000E-01     -1.643828000000000E+02      3.914185000000000E-01     -1.486328000000000E+02      4.075165000000000E-01     -8.649609000000000E+01      6.481628000000000E-01     -8.167969000000000E+01
4864000000.000000      5.284119000000000E-01     -1.642734000000000E+02      3.964386000000000E-01     -1.487969000000000E+02      4.128876000000000E-01     -8.679688000000000E+01      6.484680000000000E-01     -8.183985000000000E+01
4865000000.000000      5.321655000000000E-01     -1.642656000000000E+02      4.006348000000000E-01     -1.491406000000000E+02      4.195404000000000E-01     -8.698437000000000E+01      6.507263000000000E-01     -8.171875000000000E+01
4866000000.000000      5.358582000000000E-01     -1.639688000000000E+02      4.040070000000000E-01     -1.493828000000000E+02      4.256287000000000E-01     -8.724218000000000E+01      6.495361000000000E-01     -8.186327000000000E+01
4867000000.000000      5.404053000000000E-01     -1.638515000000000E+02      4.088898000000000E-01     -1.496484000000000E+02      4.320984000000000E-01     -8.739843000000000E+01      6.502380000000000E-01     -8.191797000000000E+01
4868000000.000000      5.446777000000000E-01     -1.638438000000000E+02      4.133148000000000E-01     -1.499687000000000E+02      4.391022000000000E-01     -8.761328000000000E+01      6.497192000000000E-01     -8.206249000000000E+01
4869000000.000000      5.464478000000000E-01     -1.636172000000000E+02      4.169159000000000E-01     -1.503359000000000E+02      4.454651000000000E-01     -8.795702000000000E+01      6.497192000000000E-01     -8.221874000000000E+01
4870000000.000000      5.498352000000000E-01     -1.635391000000000E+02      4.217682000000000E-01     -1.504219000000000E+02      4.520416000000000E-01     -8.827734000000000E+01      6.518250000000000E-01     -8.212109000000000E+01
4871000000.000000      5.531921000000000E-01     -1.634063000000000E+02      4.252930000000000E-01     -1.508672000000000E+02      4.575195000000000E-01     -8.852343000000000E+01      6.490784000000000E-01     -8.230860000000000E+01
4872000000.000000      5.559387000000000E-01     -1.631797000000000E+02      4.283447000000000E-01     -1.508906000000000E+02      4.628601000000000E-01     -8.898046000000000E+01      6.501160000000000E-01     -8.239843000000000E+01
4873000000.000000      5.574036000000000E-01     -1.629766000000000E+02      4.325104000000000E-01     -1.513359000000000E+02      4.687958000000000E-01     -8.909765000000000E+01      6.499329000000000E-01     -8.254297000000000E+01
4874000000.000000      5.594177000000000E-01     -1.628828000000000E+02      4.366302000000000E-01     -1.516953000000000E+02      4.762115000000000E-01     -8.937891000000000E+01      6.495972000000000E-01     -8.230860000000000E+01
4875000000.000000      5.622253000000000E-01     -1.627266000000000E+02      4.404297000000000E-01     -1.519219000000000E+02      4.828033000000000E-01     -8.993359000000000E+01      6.502991000000000E-01     -8.269140000000000E+01
4876000000.000000      5.622559000000000E-01     -1.625859000000000E+02      4.447937000000000E-01     -1.522656000000000E+02      4.867706000000000E-01     -8.998047000000000E+01      6.506348000000000E-01     -8.270702000000000E+01
4877000000.000000      5.629883000000000E-01     -1.624297000000000E+02      4.482880000000000E-01     -1.524688000000000E+02      4.942780000000000E-01     -9.058594000000000E+01      6.502686000000000E-01     -8.266405000000000E+01
4878000000.000000      5.645142000000000E-01     -1.621562000000000E+02      4.523621000000000E-01     -1.527266000000000E+02      4.986420000000000E-01     -9.077734000000000E+01      6.511841000000000E-01     -8.278515000000000E+01
4879000000.000000      5.654907000000000E-01     -1.619844000000000E+02      4.547119000000000E-01     -1.530234000000000E+02      5.044250000000000E-01     -9.112499000000000E+01      6.500549000000000E-01     -8.277735000000000E+01
4880000000.000000      5.642395000000000E-01     -1.618906000000000E+02      4.591675000000000E-01     -1.533906000000000E+02      5.124817000000000E-01     -9.116014000000000E+01      6.488342000000000E-01     -8.287500000000000E+01
4881000000.000000      5.659790000000000E-01     -1.616250000000000E+02      4.632263000000000E-01     -1.535312000000000E+02      5.167847000000000E-01     -9.194921000000000E+01      6.503906000000000E-01     -8.300390000000000E+01
4882000000.000000      5.635986000000000E-01     -1.613984000000000E+02      4.664917000000000E-01     -1.538984000000000E+02      5.241699000000000E-01     -9.200390000000000E+01      6.490784000000000E-01     -8.320313000000000E+01
