! Network Analyzer HP8722D
! Hewlett-Packard
! Data name: Linha & Wilkinson
! Saver's name: Rodrigo Anjos
! Comments: Teste da utilização de aquisição
continua pelo VNA HP8722D
! Time and date: 15/4/2025 16:02
!              Frequency                     S11                                                   S21                                                   S12                                                   S22
# HZ  S  MA R 50
4800000000.000000      3.309326000000000E-01     -1.140469000000000E+02      2.841339000000000E-01     -6.103125000000000E+01      2.770691000000000E-01     -1.751797000000000E+02      6.535950000000000E-01     -8.960938000000000E+01
4801000000.000000      3.298798000000000E-01     -1.149258000000000E+02      2.884521000000000E-01     -6.093750000000000E+01      2.807465000000000E-01     -1.750000000000000E+02      6.535339000000000E-01     -8.964453000000000E+01
4802000000.000000      3.298187000000000E-01     -1.159492000000000E+02      2.927704000000000E-01     -6.093945000000000E+01      2.854156000000000E-01     -1.749219000000000E+02      6.518555000000000E-01     -8.960155000000000E+01
4803000000.000000      3.287354000000000E-01     -1.169922000000000E+02      2.979584000000000E-01     -6.105859000000000E+01      2.890320000000000E-01     -1.747266000000000E+02      6.507874000000000E-01     -8.979687000000000E+01
4804000000.000000      3.282623000000000E-01     -1.179609000000000E+02      3.021088000000000E-01     -6.113476000000000E+01      2.934570000000000E-01     -1.747890000000000E+02      6.506348000000000E-01     -8.986719000000000E+01
4805000000.000000      3.287659000000000E-01     -1.189101000000000E+02      3.068542000000000E-01     -6.124804000000000E+01      2.980957000000000E-01     -1.745234000000000E+02      6.497803000000000E-01     -9.005859000000000E+01
4806000000.000000      3.279419000000000E-01     -1.198359000000000E+02      3.110809000000000E-01     -6.140820000000000E+01      3.008118000000000E-01     -1.742578000000000E+02      6.489868000000000E-01     -9.019140000000000E+01
4807000000.000000      3.278809000000000E-01     -1.210156000000000E+02      3.157806000000000E-01     -6.166797000000000E+01      3.059082000000000E-01     -1.743594000000000E+02      6.481628000000000E-01     -9.019922000000000E+01
4808000000.000000      3.285522000000000E-01     -1.219765000000000E+02      3.211212000000000E-01     -6.152929000000000E+01      3.093567000000000E-01     -1.741953000000000E+02      6.466370000000000E-01     -9.027735000000000E+01
4809000000.000000      3.285370000000000E-01     -1.230351000000000E+02      3.243103000000000E-01     -6.203711000000000E+01      3.138123000000000E-01     -1.742344000000000E+02      6.468811000000000E-01     -9.039063000000000E+01
4810000000.000000      3.301239000000000E-01     -1.242109000000000E+02      3.292694000000000E-01     -6.199413000000000E+01      3.181458000000000E-01     -1.741484000000000E+02      6.478882000000000E-01     -9.049608000000000E+01
4811000000.000000      3.309479000000000E-01     -1.252539000000000E+02      3.336792000000000E-01     -6.228710000000000E+01      3.229980000000000E-01     -1.739063000000000E+02      6.463623000000000E-01     -9.048828000000000E+01
4812000000.000000      3.321686000000000E-01     -1.261953000000000E+02      3.379822000000000E-01     -6.237890000000000E+01      3.264008000000000E-01     -1.738203000000000E+02      6.471252000000000E-01     -9.064844000000000E+01
4813000000.000000      3.327789000000000E-01     -1.273281000000000E+02      3.420868000000000E-01     -6.271874000000000E+01      3.303528000000000E-01     -1.736484000000000E+02      6.467896000000000E-01     -9.078905000000000E+01
4814000000.000000      3.342743000000000E-01     -1.286484000000000E+02      3.457489000000000E-01     -6.287890000000000E+01      3.342133000000000E-01     -1.737422000000000E+02      6.464844000000000E-01     -9.084375000000000E+01
4815000000.000000      3.363190000000000E-01     -1.295078000000000E+02      3.505249000000000E-01     -6.311913000000000E+01      3.379822000000000E-01     -1.736406000000000E+02      6.462708000000000E-01     -9.082811000000000E+01
4816000000.000000      3.386383000000000E-01     -1.305625000000000E+02      3.547058000000000E-01     -6.318945000000000E+01      3.431549000000000E-01     -1.736328000000000E+02      6.471252000000000E-01     -9.092188000000000E+01
4817000000.000000      3.406067000000000E-01     -1.316875000000000E+02      3.590240000000000E-01     -6.345312000000000E+01      3.467865000000000E-01     -1.736016000000000E+02      6.449890000000000E-01     -9.102343000000000E+01
4818000000.000000      3.428345000000000E-01     -1.328281000000000E+02      3.620758000000000E-01     -6.369141000000000E+01      3.508759000000000E-01     -1.735312000000000E+02      6.465454000000000E-01     -9.111719000000000E+01
4819000000.000000      3.455658000000000E-01     -1.338672000000000E+02      3.665009000000000E-01     -6.389257000000000E+01      3.541565000000000E-01     -1.733906000000000E+02      6.492310000000000E-01     -9.126171000000000E+01
4820000000.000000      3.470306000000000E-01     -1.348281000000000E+02      3.707123000000000E-01     -6.410546000000000E+01      3.588867000000000E-01     -1.734688000000000E+02      6.486206000000000E-01     -9.132421000000000E+01
4821000000.000000      3.506622000000000E-01     -1.359609000000000E+02      3.748169000000000E-01     -6.435547000000000E+01      3.626099000000000E-01     -1.735547000000000E+02      6.481628000000000E-01     -9.139452000000000E+01
4822000000.000000      3.550568000000000E-01     -1.370469000000000E+02      3.782043000000000E-01     -6.451172000000000E+01      3.665924000000000E-01     -1.735234000000000E+02      6.502075000000000E-01     -9.142187000000000E+01
4823000000.000000      3.571472000000000E-01     -1.380078000000000E+02      3.826294000000000E-01     -6.494922000000000E+01      3.705902000000000E-01     -1.733047000000000E+02      6.502686000000000E-01     -9.154688000000000E+01
4824000000.000000      3.618317000000000E-01     -1.391094000000000E+02      3.859711000000000E-01     -6.517578000000000E+01      3.753815000000000E-01     -1.734453000000000E+02      6.526184000000000E-01     -9.160156000000000E+01
4825000000.000000      3.646393000000000E-01     -1.399609000000000E+02      3.896942000000000E-01     -6.535937000000000E+01      3.794250000000000E-01     -1.734688000000000E+02      6.516418000000000E-01     -9.173437000000000E+01
4826000000.000000      3.690491000000000E-01     -1.410234000000000E+02      3.935394000000000E-01     -6.580078000000000E+01      3.826294000000000E-01     -1.735547000000000E+02      6.533203000000000E-01     -9.170313000000000E+01
4827000000.000000      3.731079000000000E-01     -1.418906000000000E+02      3.968658000000000E-01     -6.582812000000000E+01      3.870850000000000E-01     -1.734219000000000E+02      6.560669000000000E-01     -9.174219000000000E+01
4828000000.000000      3.780060000000000E-01     -1.429453000000000E+02      4.013977000000000E-01     -6.612499000000000E+01      3.907776000000000E-01     -1.733984000000000E+02      6.570435000000000E-01     -9.194921000000000E+01
4829000000.000000      3.805695000000000E-01     -1.437422000000000E+02      4.045715000000000E-01     -6.660937000000000E+01      3.945923000000000E-01     -1.733047000000000E+02      6.577759000000000E-01     -9.184765000000000E+01
4830000000.000000      3.856964000000000E-01     -1.447813000000000E+02      4.078979000000000E-01     -6.671093000000000E+01      3.995819000000000E-01     -1.734062000000000E+02      6.591797000000000E-01     -9.214062000000000E+01
4831000000.000000      3.901520000000000E-01     -1.456328000000000E+02      4.116516000000000E-01     -6.709374000000000E+01      4.036255000000000E-01     -1.733438000000000E+02      6.616516000000000E-01     -9.205858000000000E+01
4832000000.000000      3.955383000000000E-01     -1.464609000000000E+02      4.153748000000000E-01     -6.735937000000000E+01      4.074860000000000E-01     -1.733828000000000E+02      6.633301000000000E-01     -9.208593000000000E+01
4833000000.000000      4.005890000000000E-01     -1.474922000000000E+02      4.187317000000000E-01     -6.779687000000000E+01      4.111481000000000E-01     -1.734922000000000E+02      6.642456000000000E-01     -9.227734000000000E+01
4834000000.000000      4.051666000000000E-01     -1.482969000000000E+02      4.218140000000000E-01     -6.795703000000000E+01      4.150543000000000E-01     -1.734688000000000E+02      6.668396000000000E-01     -9.221483000000000E+01
4835000000.000000      4.098358000000000E-01     -1.490781000000000E+02      4.261017000000000E-01     -6.825000000000000E+01      4.201508000000000E-01     -1.736094000000000E+02      6.681824000000000E-01     -9.240234000000000E+01
4836000000.000000      4.154205000000000E-01     -1.499141000000000E+02      4.289246000000000E-01     -6.846484000000000E+01      4.235382000000000E-01     -1.735547000000000E+02      6.700439000000000E-01     -9.232422000000000E+01
4837000000.000000      4.207306000000000E-01     -1.506719000000000E+02      4.317932000000000E-01     -6.912109000000000E+01      4.277496000000000E-01     -1.735937000000000E+02      6.722107000000000E-01     -9.245312000000000E+01
4838000000.000000      4.256439000000000E-01     -1.515625000000000E+02      4.353485000000000E-01     -6.918750000000000E+01      4.317932000000000E-01     -1.736406000000000E+02      6.749268000000000E-01     -9.252344000000000E+01
4839000000.000000      4.309692000000000E-01     -1.521875000000000E+02      4.381561000000000E-01     -6.945313000000000E+01      4.368286000000000E-01     -1.737422000000000E+02      6.763000000000000E-01     -9.240625000000000E+01
4840000000.000000      4.351807000000000E-01     -1.530703000000000E+02      4.405365000000000E-01     -6.979297000000000E+01      4.408569000000000E-01     -1.738437000000000E+02      6.788025000000000E-01     -9.260157000000000E+01
4841000000.000000      4.412384000000000E-01     -1.538359000000000E+02      4.447021000000000E-01     -7.033984000000000E+01      4.451599000000000E-01     -1.738906000000000E+02      6.812744000000000E-01     -9.274609000000000E+01
4842000000.000000      4.469910000000000E-01     -1.544609000000000E+02      4.469757000000000E-01     -7.049999000000000E+01      4.478455000000000E-01     -1.740078000000000E+02      6.832275000000000E-01     -9.270311000000000E+01
4843000000.000000      4.514771000000000E-01     -1.552734000000000E+02      4.500885000000000E-01     -7.084765000000000E+01      4.526672000000000E-01     -1.740703000000000E+02      6.864929000000000E-01     -9.276562000000000E+01
4844000000.000000      4.566803000000000E-01     -1.559219000000000E+02      4.530792000000000E-01     -7.113281000000000E+01      4.565735000000000E-01     -1.741875000000000E+02      6.887512000000000E-01     -9.289454000000000E+01
4845000000.000000      4.617004000000000E-01     -1.566015000000000E+02      4.557343000000000E-01     -7.148828000000000E+01      4.604950000000000E-01     -1.742891000000000E+02      6.901855000000000E-01     -9.285936000000000E+01
4846000000.000000      4.667053000000000E-01     -1.571484000000000E+02      4.585266000000000E-01     -7.166016000000000E+01      4.657440000000000E-01     -1.743359000000000E+02      6.937561000000000E-01     -9.291407000000000E+01
4847000000.000000      4.729156000000000E-01     -1.578828000000000E+02      4.616089000000000E-01     -7.202734000000000E+01      4.688721000000000E-01     -1.745156000000000E+02      6.969299000000000E-01     -9.298828000000000E+01
4848000000.000000      4.778595000000000E-01     -1.584531000000000E+02      4.632263000000000E-01     -7.254296000000000E+01      4.732666000000000E-01     -1.744922000000000E+02      6.983032000000000E-01     -9.305859000000000E+01
4849000000.000000      4.823914000000000E-01     -1.593906000000000E+02      4.666748000000000E-01     -7.286327000000000E+01      4.778290000000000E-01     -1.747109000000000E+02      7.005920000000000E-01     -9.305859000000000E+01
4850000000.000000      4.872131000000000E-01     -1.597188000000000E+02      4.681244000000000E-01     -7.307422000000000E+01      4.818573000000000E-01     -1.747734000000000E+02      7.041931000000000E-01     -9.301952000000000E+01
4851000000.000000      4.925995000000000E-01     -1.602890000000000E+02      4.718781000000000E-01     -7.350390000000000E+01      4.850159000000000E-01     -1.748906000000000E+02      7.071838000000000E-01     -9.317186000000000E+01
4852000000.000000      4.973602000000000E-01     -1.609062000000000E+02      4.737701000000000E-01     -7.376953000000000E+01      4.896851000000000E-01     -1.750078000000000E+02      7.103577000000000E-01     -9.321875000000000E+01
4853000000.000000      5.019836000000000E-01     -1.614766000000000E+02      4.741669000000000E-01     -7.401562000000000E+01      4.934845000000000E-01     -1.752422000000000E+02      7.132568000000000E-01     -9.326172000000000E+01
4854000000.000000      5.064697000000000E-01     -1.620547000000000E+02      4.775543000000000E-01     -7.448047000000000E+01      4.972687000000000E-01     -1.753438000000000E+02      7.150269000000000E-01     -9.321875000000000E+01
4855000000.000000      5.099487000000000E-01     -1.625625000000000E+02      4.798126000000000E-01     -7.464062000000000E+01      5.012817000000000E-01     -1.754453000000000E+02      7.185364000000000E-01     -9.323828000000000E+01
4856000000.000000      5.149841000000000E-01     -1.630078000000000E+02      4.824982000000000E-01     -7.492969000000000E+01      5.050964000000000E-01     -1.755625000000000E+02      7.223206000000000E-01     -9.344921000000000E+01
4857000000.000000      5.187988000000000E-01     -1.635625000000000E+02      4.846497000000000E-01     -7.545312000000000E+01      5.088196000000000E-01     -1.757734000000000E+02      7.243652000000000E-01     -9.343750000000000E+01
4858000000.000000      5.213623000000000E-01     -1.641016000000000E+02      4.860535000000000E-01     -7.561328000000000E+01      5.106812000000000E-01     -1.758750000000000E+02      7.271423000000000E-01     -9.345703000000000E+01
4859000000.000000      5.258789000000000E-01     -1.645937000000000E+02      4.884033000000000E-01     -7.605078000000000E+01      5.168457000000000E-01     -1.761016000000000E+02      7.309265000000000E-01     -9.357813000000000E+01
4860000000.000000      5.313110000000000E-01     -1.650312000000000E+02      4.900818000000000E-01     -7.619922000000000E+01      5.189209000000000E-01     -1.764297000000000E+02      7.331238000000000E-01     -9.353516000000000E+01
4861000000.000000      5.334167000000000E-01     -1.655000000000000E+02      4.911499000000000E-01     -7.674609000000000E+01      5.234985000000000E-01     -1.764766000000000E+02      7.363892000000000E-01     -9.367968000000000E+01
4862000000.000000      5.368652000000000E-01     -1.658906000000000E+02      4.946289000000000E-01     -7.703515000000000E+01      5.274353000000000E-01     -1.766875000000000E+02      7.399902000000000E-01     -9.359766000000000E+01
4863000000.000000      5.392761000000000E-01     -1.664141000000000E+02      4.945526000000000E-01     -7.733203000000000E+01      5.309753000000000E-01     -1.767578000000000E+02      7.429504000000000E-01     -9.362890000000000E+01
4864000000.000000      5.427246000000000E-01     -1.667812000000000E+02      4.959564000000000E-01     -7.732031000000000E+01      5.336914000000000E-01     -1.768672000000000E+02      7.457886000000000E-01     -9.375780000000000E+01
4865000000.000000      5.450134000000000E-01     -1.671953000000000E+02      4.975128000000000E-01     -7.762500000000000E+01      5.362244000000000E-01     -1.771953000000000E+02      7.480164000000000E-01     -9.365625000000000E+01
4866000000.000000      5.462952000000000E-01     -1.674844000000000E+02      5.000000000000000E-01     -7.807812000000000E+01      5.403748000000000E-01     -1.774297000000000E+02      7.518921000000000E-01     -9.378906000000000E+01
4867000000.000000      5.498657000000000E-01     -1.679219000000000E+02      5.006714000000000E-01     -7.851953000000000E+01      5.431519000000000E-01     -1.774844000000000E+02      7.535400000000000E-01     -9.375391000000000E+01
4868000000.000000      5.516357000000000E-01     -1.682188000000000E+02      5.031738000000000E-01     -7.872265000000000E+01      5.466003000000000E-01     -1.778984000000000E+02      7.558594000000000E-01     -9.384766000000000E+01
4869000000.000000      5.540466000000000E-01     -1.685703000000000E+02      5.019226000000000E-01     -7.900000000000000E+01      5.498047000000000E-01     -1.780313000000000E+02      7.593384000000000E-01     -9.400391000000000E+01
4870000000.000000      5.557556000000000E-01     -1.689297000000000E+02      5.050354000000000E-01     -7.919922000000000E+01      5.508118000000000E-01     -1.783203000000000E+02      7.624817000000000E-01     -9.396484000000000E+01
4871000000.000000      5.578918000000000E-01     -1.692656000000000E+02      5.070801000000000E-01     -7.945703000000000E+01      5.544739000000000E-01     -1.785938000000000E+02      7.644043000000000E-01     -9.407421000000000E+01
4872000000.000000      5.596924000000000E-01     -1.694531000000000E+02      5.067444000000000E-01     -7.952734000000000E+01      5.570984000000000E-01     -1.788750000000000E+02      7.680664000000000E-01     -9.403515000000000E+01
4873000000.000000      5.601501000000000E-01     -1.697734000000000E+02      5.080566000000000E-01     -7.996094000000000E+01      5.598145000000000E-01     -1.789375000000000E+02      7.694397000000000E-01     -9.413671000000000E+01
4874000000.000000      5.610046000000000E-01     -1.699531000000000E+02      5.086975000000000E-01     -8.020702000000000E+01      5.627136000000000E-01     -1.791016000000000E+02      7.713318000000000E-01     -9.412889000000000E+01
4875000000.000000      5.635071000000000E-01     -1.702656000000000E+02      5.105591000000000E-01     -8.040234000000000E+01      5.641479000000000E-01     -1.794141000000000E+02      7.734375000000000E-01     -9.414454000000000E+01
4876000000.000000      5.631409000000000E-01     -1.704609000000000E+02      5.112000000000000E-01     -8.065233000000000E+01      5.662231000000000E-01     -1.794844000000000E+02      7.783203000000000E-01     -9.426561000000000E+01
4877000000.000000      5.636597000000000E-01     -1.706250000000000E+02      5.122681000000000E-01     -8.103125000000000E+01      5.692139000000000E-01     -1.799531000000000E+02      7.800598000000000E-01     -9.424999000000000E+01
4878000000.000000      5.650024000000000E-01     -1.708750000000000E+02      5.139771000000000E-01     -8.114452000000000E+01      5.713806000000000E-01     -1.799766000000000E+02      7.824707000000000E-01     -9.435938000000000E+01
4879000000.000000      5.659485000000000E-01     -1.711016000000000E+02      5.139465000000000E-01     -8.152735000000000E+01      5.739136000000000E-01      1.798516000000000E+02      7.839966000000000E-01     -9.419531000000000E+01
4880000000.000000      5.646057000000000E-01     -1.712031000000000E+02      5.141602000000000E-01     -8.163671000000000E+01      5.765991000000000E-01      1.797656000000000E+02      7.867432000000000E-01     -9.442186000000000E+01
4881000000.000000      5.662842000000000E-01     -1.713047000000000E+02      5.179138000000000E-01     -8.164454000000000E+01      5.775146000000000E-01      1.794062000000000E+02      7.883606000000000E-01     -9.445704000000000E+01
4882000000.000000      5.647888000000000E-01     -1.714687000000000E+02      5.185242000000000E-01     -8.199999000000000E+01      5.810242000000000E-01      1.792266000000000E+02      7.888794000000000E-01     -9.446484000000000E+01
