! Network Analyzer HP8722D
! Hewlett-Packard
! Data name: Linha & Wilkinson
! Saver's name: Rodrigo Anjos
! Comments: Teste da utilização de aquisição
continua pelo VNA HP8722D
! Time and date: 15/4/2025 16:16
!              Frequency                     S11                                                   S21                                                   S12                                                   S22
# HZ  S  MA R 50
4800000000.000000      3.310699000000000E-01     -1.138164000000000E+02      2.822571000000000E-01     -6.082226000000000E+01      2.754517000000000E-01     -1.751719000000000E+02      6.536560000000000E-01     -8.947266000000000E+01
4801000000.000000      3.295898000000000E-01     -1.147148000000000E+02      2.872772000000000E-01     -6.088672000000000E+01      2.790985000000000E-01     -1.749922000000000E+02      6.522522000000000E-01     -8.948828000000000E+01
4802000000.000000      3.292847000000000E-01     -1.158125000000000E+02      2.905273000000000E-01     -6.079296000000000E+01      2.835236000000000E-01     -1.747500000000000E+02      6.512451000000000E-01     -8.963671000000000E+01
4803000000.000000      3.281555000000000E-01     -1.166875000000000E+02      2.964172000000000E-01     -6.110352000000000E+01      2.876740000000000E-01     -1.746172000000000E+02      6.511841000000000E-01     -8.973436000000000E+01
4804000000.000000      3.277283000000000E-01     -1.176601000000000E+02      3.000031000000000E-01     -6.108984000000000E+01      2.922668000000000E-01     -1.746172000000000E+02      6.497803000000000E-01     -8.976171000000000E+01
4805000000.000000      3.279724000000000E-01     -1.187852000000000E+02      3.049469000000000E-01     -6.121484000000000E+01      2.961884000000000E-01     -1.744219000000000E+02      6.501465000000000E-01     -8.997656000000000E+01
4806000000.000000      3.274994000000000E-01     -1.196133000000000E+02      3.101196000000000E-01     -6.132030000000000E+01      2.997131000000000E-01     -1.741875000000000E+02      6.499634000000000E-01     -9.007030000000000E+01
4807000000.000000      3.276520000000000E-01     -1.207851000000000E+02      3.142853000000000E-01     -6.153906000000000E+01      3.040161000000000E-01     -1.742891000000000E+02      6.478271000000000E-01     -9.012110000000000E+01
4808000000.000000      3.278809000000000E-01     -1.217851000000000E+02      3.196564000000000E-01     -6.151172000000000E+01      3.078461000000000E-01     -1.740703000000000E+02      6.470032000000000E-01     -9.028515000000000E+01
4809000000.000000      3.281860000000000E-01     -1.228281000000000E+02      3.230438000000000E-01     -6.173828000000000E+01      3.128052000000000E-01     -1.740078000000000E+02      6.464539000000000E-01     -9.030468000000000E+01
4810000000.000000      3.292542000000000E-01     -1.240078000000000E+02      3.277893000000000E-01     -6.181835000000000E+01      3.165283000000000E-01     -1.739922000000000E+02      6.477661000000000E-01     -9.037500000000000E+01
4811000000.000000      3.307953000000000E-01     -1.249883000000000E+02      3.320160000000000E-01     -6.215234000000000E+01      3.214417000000000E-01     -1.738359000000000E+02      6.466675000000000E-01     -9.043749000000000E+01
4812000000.000000      3.316803000000000E-01     -1.260195000000000E+02      3.361511000000000E-01     -6.244726000000000E+01      3.245697000000000E-01     -1.736797000000000E+02      6.472168000000000E-01     -9.056641000000000E+01
4813000000.000000      3.325653000000000E-01     -1.270742000000000E+02      3.409729000000000E-01     -6.245703000000000E+01      3.290710000000000E-01     -1.736328000000000E+02      6.456909000000000E-01     -9.063671000000000E+01
4814000000.000000      3.333588000000000E-01     -1.283516000000000E+02      3.441925000000000E-01     -6.261132000000000E+01      3.327026000000000E-01     -1.736172000000000E+02      6.460876000000000E-01     -9.076563000000000E+01
4815000000.000000      3.355713000000000E-01     -1.292891000000000E+02      3.493042000000000E-01     -6.289453000000000E+01      3.362732000000000E-01     -1.735547000000000E+02      6.456604000000000E-01     -9.078905000000000E+01
4816000000.000000      3.376007000000000E-01     -1.303359000000000E+02      3.528748000000000E-01     -6.300586000000000E+01      3.416290000000000E-01     -1.733906000000000E+02      6.458435000000000E-01     -9.080858000000000E+01
4817000000.000000      3.401642000000000E-01     -1.314531000000000E+02      3.576508000000000E-01     -6.341797000000000E+01      3.451385000000000E-01     -1.734297000000000E+02      6.465149000000000E-01     -9.094921000000000E+01
4818000000.000000      3.419647000000000E-01     -1.325234000000000E+02      3.608246000000000E-01     -6.350976000000000E+01      3.491516000000000E-01     -1.734609000000000E+02      6.465759000000000E-01     -9.107031000000000E+01
4819000000.000000      3.451691000000000E-01     -1.335938000000000E+02      3.656464000000000E-01     -6.366211000000000E+01      3.532104000000000E-01     -1.733594000000000E+02      6.485596000000000E-01     -9.122265000000000E+01
4820000000.000000      3.466492000000000E-01     -1.346250000000000E+02      3.693542000000000E-01     -6.381640000000000E+01      3.576508000000000E-01     -1.733906000000000E+02      6.484375000000000E-01     -9.130468000000000E+01
4821000000.000000      3.498840000000000E-01     -1.357656000000000E+02      3.740387000000000E-01     -6.430469000000000E+01      3.606720000000000E-01     -1.734375000000000E+02      6.483765000000000E-01     -9.125780000000000E+01
4822000000.000000      3.540802000000000E-01     -1.368047000000000E+02      3.766174000000000E-01     -6.450000000000000E+01      3.647919000000000E-01     -1.733125000000000E+02      6.502686000000000E-01     -9.132030000000000E+01
4823000000.000000      3.565979000000000E-01     -1.377734000000000E+02      3.813477000000000E-01     -6.477734000000000E+01      3.694000000000000E-01     -1.731172000000000E+02      6.495361000000000E-01     -9.146875000000000E+01
4824000000.000000      3.609772000000000E-01     -1.388594000000000E+02      3.847656000000000E-01     -6.503124000000000E+01      3.735962000000000E-01     -1.732188000000000E+02      6.512451000000000E-01     -9.152344000000000E+01
4825000000.000000      3.640900000000000E-01     -1.397500000000000E+02      3.885651000000000E-01     -6.519531000000000E+01      3.781586000000000E-01     -1.732422000000000E+02      6.523438000000000E-01     -9.164063000000000E+01
4826000000.000000      3.684692000000000E-01     -1.408203000000000E+02      3.929749000000000E-01     -6.561718000000000E+01      3.814850000000000E-01     -1.733047000000000E+02      6.533813000000000E-01     -9.180468000000000E+01
4827000000.000000      3.724213000000000E-01     -1.416016000000000E+02      3.951874000000000E-01     -6.569140000000000E+01      3.852386000000000E-01     -1.731406000000000E+02      6.549377000000000E-01     -9.176561000000000E+01
4828000000.000000      3.771820000000000E-01     -1.427187000000000E+02      4.000092000000000E-01     -6.609765000000000E+01      3.897400000000000E-01     -1.731641000000000E+02      6.572876000000000E-01     -9.181641000000000E+01
4829000000.000000      3.798218000000000E-01     -1.435547000000000E+02      4.034729000000000E-01     -6.628124000000000E+01      3.927612000000000E-01     -1.731875000000000E+02      6.585388000000000E-01     -9.183985000000000E+01
4830000000.000000      3.855286000000000E-01     -1.445313000000000E+02      4.064789000000000E-01     -6.661327000000000E+01      3.979797000000000E-01     -1.731172000000000E+02      6.589966000000000E-01     -9.201172000000000E+01
4831000000.000000      3.893433000000000E-01     -1.454062000000000E+02      4.105072000000000E-01     -6.703515000000000E+01      4.015198000000000E-01     -1.731406000000000E+02      6.616821000000000E-01     -9.205858000000000E+01
4832000000.000000      3.948822000000000E-01     -1.462734000000000E+02      4.142151000000000E-01     -6.720703000000000E+01      4.055786000000000E-01     -1.732656000000000E+02      6.625671000000000E-01     -9.207031000000000E+01
4833000000.000000      3.997498000000000E-01     -1.472734000000000E+02      4.178925000000000E-01     -6.744141000000000E+01      4.101868000000000E-01     -1.733359000000000E+02      6.630859000000000E-01     -9.221874000000000E+01
4834000000.000000      4.045410000000000E-01     -1.481172000000000E+02      4.207001000000000E-01     -6.776562000000000E+01      4.145355000000000E-01     -1.732734000000000E+02      6.654053000000000E-01     -9.229687000000000E+01
4835000000.000000      4.087067000000000E-01     -1.489141000000000E+02      4.247437000000000E-01     -6.804296000000000E+01      4.186859000000000E-01     -1.733203000000000E+02      6.683655000000000E-01     -9.234766000000000E+01
4836000000.000000      4.147339000000000E-01     -1.496641000000000E+02      4.269714000000000E-01     -6.818749000000000E+01      4.228058000000000E-01     -1.733203000000000E+02      6.704102000000000E-01     -9.236719000000000E+01
4837000000.000000      4.196167000000000E-01     -1.504219000000000E+02      4.311676000000000E-01     -6.895312000000000E+01      4.267273000000000E-01     -1.734531000000000E+02      6.712952000000000E-01     -9.240234000000000E+01
4838000000.000000      4.248352000000000E-01     -1.513125000000000E+02      4.345703000000000E-01     -6.903125000000000E+01      4.309387000000000E-01     -1.735156000000000E+02      6.741028000000000E-01     -9.241405000000000E+01
4839000000.000000      4.300232000000000E-01     -1.519453000000000E+02      4.374084000000000E-01     -6.935547000000000E+01      4.354248000000000E-01     -1.735234000000000E+02      6.759949000000000E-01     -9.239452000000000E+01
4840000000.000000      4.349213000000000E-01     -1.528281000000000E+02      4.409332000000000E-01     -6.958202000000000E+01      4.396057000000000E-01     -1.736250000000000E+02      6.782837000000000E-01     -9.259766000000000E+01
4841000000.000000      4.404602000000000E-01     -1.536484000000000E+02      4.432831000000000E-01     -7.004296000000000E+01      4.436951000000000E-01     -1.737969000000000E+02      6.813049000000000E-01     -9.267969000000000E+01
4842000000.000000      4.461060000000000E-01     -1.542422000000000E+02      4.468689000000000E-01     -7.041016000000000E+01      4.471893000000000E-01     -1.737656000000000E+02      6.822205000000000E-01     -9.264452000000000E+01
4843000000.000000      4.509583000000000E-01     -1.550156000000000E+02      4.492340000000000E-01     -7.070703000000000E+01      4.511566000000000E-01     -1.738672000000000E+02      6.860352000000000E-01     -9.264452000000000E+01
4844000000.000000      4.561310000000000E-01     -1.556719000000000E+02      4.525909000000000E-01     -7.093359000000000E+01      4.554291000000000E-01     -1.739609000000000E+02      6.882629000000000E-01     -9.265625000000000E+01
4845000000.000000      4.611511000000000E-01     -1.563437000000000E+02      4.545746000000000E-01     -7.131640000000000E+01      4.602509000000000E-01     -1.740625000000000E+02      6.908569000000000E-01     -9.278906000000000E+01
4846000000.000000      4.662628000000000E-01     -1.569531000000000E+02      4.575500000000000E-01     -7.155078000000000E+01      4.644775000000000E-01     -1.741641000000000E+02      6.930847000000000E-01     -9.288280000000000E+01
4847000000.000000      4.721832000000000E-01     -1.576562000000000E+02      4.607239000000000E-01     -7.187109000000000E+01      4.684753000000000E-01     -1.742891000000000E+02      6.968384000000000E-01     -9.293749000000000E+01
4848000000.000000      4.767761000000000E-01     -1.582266000000000E+02      4.625244000000000E-01     -7.217187000000000E+01      4.727325000000000E-01     -1.743672000000000E+02      6.967468000000000E-01     -9.291016000000000E+01
4849000000.000000      4.820251000000000E-01     -1.591016000000000E+02      4.653015000000000E-01     -7.271484000000000E+01      4.764252000000000E-01     -1.745078000000000E+02      7.018738000000000E-01     -9.304296000000000E+01
4850000000.000000      4.863892000000000E-01     -1.594531000000000E+02      4.676514000000000E-01     -7.292187000000000E+01      4.806366000000000E-01     -1.745703000000000E+02      7.031860000000000E-01     -9.290234000000000E+01
4851000000.000000      4.917450000000000E-01     -1.600547000000000E+02      4.718475000000000E-01     -7.321875000000000E+01      4.836731000000000E-01     -1.747500000000000E+02      7.071533000000000E-01     -9.309765000000000E+01
4852000000.000000      4.969177000000000E-01     -1.606953000000000E+02      4.727173000000000E-01     -7.353516000000000E+01      4.886322000000000E-01     -1.748594000000000E+02      7.095642000000000E-01     -9.301952000000000E+01
4853000000.000000      5.014038000000000E-01     -1.612422000000000E+02      4.738159000000000E-01     -7.383203000000000E+01      4.929504000000000E-01     -1.750234000000000E+02      7.124329000000000E-01     -9.316797000000000E+01
4854000000.000000      5.060425000000000E-01     -1.617656000000000E+02      4.761810000000000E-01     -7.444530000000000E+01      4.961548000000000E-01     -1.751953000000000E+02      7.158813000000000E-01     -9.315233000000000E+01
4855000000.000000      5.096436000000000E-01     -1.623437000000000E+02      4.789886000000000E-01     -7.454687000000000E+01      4.999084000000000E-01     -1.752578000000000E+02      7.174988000000000E-01     -9.324999000000000E+01
4856000000.000000      5.150757000000000E-01     -1.627812000000000E+02      4.814911000000000E-01     -7.485937000000000E+01      5.046997000000000E-01     -1.754531000000000E+02      7.214966000000000E-01     -9.326952000000000E+01
4857000000.000000      5.187683000000000E-01     -1.634063000000000E+02      4.843903000000000E-01     -7.519921000000000E+01      5.079956000000000E-01     -1.756953000000000E+02      7.238770000000000E-01     -9.333593000000000E+01
4858000000.000000      5.209961000000000E-01     -1.638594000000000E+02      4.850311000000000E-01     -7.549218000000000E+01      5.108337000000000E-01     -1.757266000000000E+02      7.263489000000000E-01     -9.337109000000000E+01
4859000000.000000      5.254822000000000E-01     -1.643594000000000E+02      4.883270000000000E-01     -7.587891000000000E+01      5.151978000000000E-01     -1.759375000000000E+02      7.297974000000000E-01     -9.342577000000000E+01
4860000000.000000      5.303650000000000E-01     -1.648594000000000E+02      4.896698000000000E-01     -7.603125000000000E+01      5.185547000000000E-01     -1.760937000000000E+02      7.325134000000000E-01     -9.344530000000000E+01
4861000000.000000      5.338745000000000E-01     -1.652344000000000E+02      4.916534000000000E-01     -7.637500000000000E+01      5.216980000000000E-01     -1.761328000000000E+02      7.354126000000000E-01     -9.356640000000000E+01
4862000000.000000      5.356140000000000E-01     -1.656875000000000E+02      4.932556000000000E-01     -7.673437000000000E+01      5.264587000000000E-01     -1.765547000000000E+02      7.399292000000000E-01     -9.352734000000000E+01
4863000000.000000      5.386963000000000E-01     -1.660234000000000E+02      4.938202000000000E-01     -7.712891000000000E+01      5.293884000000000E-01     -1.766094000000000E+02      7.431030000000000E-01     -9.367188000000000E+01
4864000000.000000      5.422363000000000E-01     -1.665390000000000E+02      4.954987000000000E-01     -7.708984000000000E+01      5.329590000000000E-01     -1.766250000000000E+02      7.445984000000000E-01     -9.366405000000000E+01
4865000000.000000      5.443726000000000E-01     -1.670078000000000E+02      4.967651000000000E-01     -7.749609000000000E+01      5.347595000000000E-01     -1.770078000000000E+02      7.484131000000000E-01     -9.355860000000000E+01
4866000000.000000      5.463867000000000E-01     -1.672422000000000E+02      4.985352000000000E-01     -7.784374000000000E+01      5.403442000000000E-01     -1.772734000000000E+02      7.506104000000000E-01     -9.356249000000000E+01
4867000000.000000      5.491943000000000E-01     -1.676406000000000E+02      5.013733000000000E-01     -7.842187000000000E+01      5.412903000000000E-01     -1.773828000000000E+02      7.539978000000000E-01     -9.367968000000000E+01
4868000000.000000      5.517578000000000E-01     -1.680469000000000E+02      5.020752000000000E-01     -7.823828000000000E+01      5.467224000000000E-01     -1.775312000000000E+02      7.571411000000000E-01     -9.373047000000000E+01
4869000000.000000      5.536499000000000E-01     -1.683516000000000E+02      5.031738000000000E-01     -7.851953000000000E+01      5.487976000000000E-01     -1.778594000000000E+02      7.594299000000000E-01     -9.396093000000000E+01
4870000000.000000      5.557251000000000E-01     -1.686250000000000E+02      5.043945000000000E-01     -7.889843000000000E+01      5.519409000000000E-01     -1.780781000000000E+02      7.613831000000000E-01     -9.383204000000000E+01
4871000000.000000      5.581970000000000E-01     -1.689219000000000E+02      5.054932000000000E-01     -7.931641000000000E+01      5.530701000000000E-01     -1.782656000000000E+02      7.637024000000000E-01     -9.401953000000000E+01
4872000000.000000      5.598755000000000E-01     -1.692656000000000E+02      5.068665000000000E-01     -7.929296000000000E+01      5.552368000000000E-01     -1.786797000000000E+02      7.681274000000000E-01     -9.393358000000000E+01
4873000000.000000      5.607300000000000E-01     -1.694375000000000E+02      5.082397000000000E-01     -7.961719000000000E+01      5.589905000000000E-01     -1.786328000000000E+02      7.691345000000000E-01     -9.412500000000000E+01
4874000000.000000      5.614319000000000E-01     -1.696406000000000E+02      5.087585000000000E-01     -8.007030000000000E+01      5.630188000000000E-01     -1.789844000000000E+02      7.711792000000000E-01     -9.388672000000000E+01
4875000000.000000      5.636597000000000E-01     -1.699922000000000E+02      5.097046000000000E-01     -8.021093000000000E+01      5.641785000000000E-01     -1.791797000000000E+02      7.739258000000000E-01     -9.407812000000000E+01
4876000000.000000      5.632019000000000E-01     -1.702578000000000E+02      5.101929000000000E-01     -8.044922000000000E+01      5.657654000000000E-01     -1.793594000000000E+02      7.762146000000000E-01     -9.408594000000000E+01
4877000000.000000      5.640564000000000E-01     -1.704922000000000E+02      5.115356000000000E-01     -8.062500000000000E+01      5.691528000000000E-01     -1.795859000000000E+02      7.796936000000000E-01     -9.424999000000000E+01
4878000000.000000      5.654602000000000E-01     -1.705859000000000E+02      5.134277000000000E-01     -8.096874000000000E+01      5.712585000000000E-01     -1.798437000000000E+02      7.821655000000000E-01     -9.428514000000000E+01
4879000000.000000      5.661316000000000E-01     -1.708672000000000E+02      5.135193000000000E-01     -8.099218000000000E+01      5.729980000000000E-01      1.799844000000000E+02      7.826843000000000E-01     -9.414063000000000E+01
4880000000.000000      5.641785000000000E-01     -1.710000000000000E+02      5.151978000000000E-01     -8.135157000000000E+01      5.754700000000000E-01      1.798516000000000E+02      7.860718000000000E-01     -9.427734000000000E+01
4881000000.000000      5.658264000000000E-01     -1.710625000000000E+02      5.165405000000000E-01     -8.140625000000000E+01      5.783081000000000E-01      1.793437000000000E+02      7.877808000000000E-01     -9.437109000000000E+01
4882000000.000000      5.645447000000000E-01     -1.712422000000000E+02      5.183105000000000E-01     -8.182032000000000E+01      5.798950000000000E-01      1.793516000000000E+02      7.888184000000000E-01     -9.441015000000000E+01
