! Network Analyzer HP8722D
! Hewlett-Packard
! Data name: Linha & Wilkinson
! Saver's name: Rodrigo Anjos
! Comments: Teste da utilização de aquisição
continua pelo VNA HP8722D
! Time and date: 15/4/2025 15:44
!              Frequency                     S11                                                   S21                                                   S12                                                   S22
# HZ  S  MA R 50
4800000000.000000      3.715973000000000E-01      8.784765000000000E+01      1.927948000000000E-01      3.311132000000000E+01      1.924133000000000E-01     -6.637207000000000E+00      3.552704000000000E-01      1.313135000000000E+01
4801000000.000000      3.779144000000000E-01      8.745312000000000E+01      1.904526000000000E-01      3.438477000000000E+01      1.905289000000000E-01     -5.362793000000000E+00      3.549042000000000E-01      1.391260000000000E+01
4802000000.000000      3.835297000000000E-01      8.719530000000000E+01      1.890488000000000E-01      3.584570000000000E+01      1.887360000000000E-01     -3.946899000000000E+00      3.543549000000000E-01      1.506885000000000E+01
4803000000.000000      3.884430000000000E-01      8.682421000000000E+01      1.875305000000000E-01      3.729883000000000E+01      1.871490000000000E-01     -2.499390000000000E+00      3.529358000000000E-01      1.552637000000000E+01
4804000000.000000      3.937836000000000E-01      8.653906000000000E+01      1.857529000000000E-01      3.878711000000000E+01      1.856384000000000E-01     -9.379578000000000E-01      3.502502000000000E-01      1.627344000000000E+01
4805000000.000000      4.003448000000000E-01      8.616796000000000E+01      1.853714000000000E-01      4.007813000000000E+01      1.844711000000000E-01      5.163574000000000E-01      3.472900000000000E-01      1.703223000000000E+01
4806000000.000000      4.043427000000000E-01      8.591406000000000E+01      1.847076000000000E-01      4.164258000000000E+01      1.839905000000000E-01      2.190308000000000E+00      3.468018000000000E-01      1.761914000000000E+01
4807000000.000000      4.089966000000000E-01      8.566797000000000E+01      1.840820000000000E-01      4.292969000000000E+01      1.831894000000000E-01      3.603516000000000E+00      3.465271000000000E-01      1.849219000000000E+01
4808000000.000000      4.125977000000000E-01      8.552734000000000E+01      1.840286000000000E-01      4.467578000000000E+01      1.831207000000000E-01      5.206055000000000E+00      3.447723000000000E-01      1.912695000000000E+01
4809000000.000000      4.176636000000000E-01      8.535936000000000E+01      1.840210000000000E-01      4.597070000000000E+01      1.829681000000000E-01      6.746826000000000E+00      3.434296000000000E-01      1.994629000000000E+01
4810000000.000000      4.219513000000000E-01      8.500000000000000E+01      1.846008000000000E-01      4.773242000000000E+01      1.834564000000000E-01      8.409668000000000E+00      3.417206000000000E-01      2.019531000000000E+01
4811000000.000000      4.262085000000000E-01      8.491014000000000E+01      1.849060000000000E-01      4.895702000000000E+01      1.840439000000000E-01      1.011963000000000E+01      3.409729000000000E-01      2.139160000000000E+01
4812000000.000000      4.305878000000000E-01      8.477734000000000E+01      1.846237000000000E-01      5.060741000000000E+01      1.849823000000000E-01      1.153809000000000E+01      3.395538000000000E-01      2.155468000000000E+01
4813000000.000000      4.331512000000000E-01      8.461718000000000E+01      1.859970000000000E-01      5.197851000000000E+01      1.856461000000000E-01      1.318604000000000E+01      3.408661000000000E-01      2.233593000000000E+01
4814000000.000000      4.359131000000000E-01      8.436718000000000E+01      1.874542000000000E-01      5.360742000000000E+01      1.866379000000000E-01      1.470508000000000E+01      3.380737000000000E-01      2.319726000000000E+01
4815000000.000000      4.388275000000000E-01      8.427734000000000E+01      1.884613000000000E-01      5.496875000000000E+01      1.876144000000000E-01      1.624023000000000E+01      3.379211000000000E-01      2.358398000000000E+01
4816000000.000000      4.424438000000000E-01      8.410156000000000E+01      1.906509000000000E-01      5.650781000000000E+01      1.903076000000000E-01      1.775488000000000E+01      3.372345000000000E-01      2.385254000000000E+01
4817000000.000000      4.438782000000000E-01      8.403515000000000E+01      1.925049000000000E-01      5.775781000000000E+01      1.915054000000000E-01      1.918164000000000E+01      3.353577000000000E-01      2.473242000000000E+01
4818000000.000000      4.459229000000000E-01      8.394140000000000E+01      1.945648000000000E-01      5.907031000000000E+01      1.933594000000000E-01      2.059082000000000E+01      3.341827000000000E-01      2.527344000000000E+01
4819000000.000000      4.490356000000000E-01      8.379686000000000E+01      1.970596000000000E-01      6.028710000000000E+01      1.959534000000000E-01      2.203516000000000E+01      3.307343000000000E-01      2.565820000000000E+01
4820000000.000000      4.492035000000000E-01      8.365234000000000E+01      1.993179000000000E-01      6.164063000000000E+01      1.988525000000000E-01      2.328906000000000E+01      3.315277000000000E-01      2.594922000000000E+01
4821000000.000000      4.524384000000000E-01      8.361719000000000E+01      2.019043000000000E-01      6.281836000000000E+01      2.009811000000000E-01      2.453613000000000E+01      3.308563000000000E-01      2.675000000000000E+01
4822000000.000000      4.523773000000000E-01      8.340624000000000E+01      2.045441000000000E-01      6.390820000000000E+01      2.036896000000000E-01      2.567480000000000E+01      3.291779000000000E-01      2.690527000000000E+01
4823000000.000000      4.535370000000000E-01      8.335155000000000E+01      2.084656000000000E-01      6.478906000000000E+01      2.066269000000000E-01      2.702343000000000E+01      3.282623000000000E-01      2.724707000000000E+01
4824000000.000000      4.541931000000000E-01      8.332811000000000E+01      2.113419000000000E-01      6.591015000000000E+01      2.102203000000000E-01      2.803125000000000E+01      3.265686000000000E-01      2.750683000000000E+01
4825000000.000000      4.544678000000000E-01      8.316015000000000E+01      2.148056000000000E-01      6.699219000000000E+01      2.139893000000000E-01      2.920019000000000E+01      3.267822000000000E-01      2.773144000000000E+01
4826000000.000000      4.551086000000000E-01      8.308594000000000E+01      2.185440000000000E-01      6.790625000000000E+01      2.167740000000000E-01      3.019726000000000E+01      3.258057000000000E-01      2.807812000000000E+01
4827000000.000000      4.547729000000000E-01      8.303905000000000E+01      2.225113000000000E-01      6.879296000000000E+01      2.211075000000000E-01      3.114551000000000E+01      3.239441000000000E-01      2.828808000000000E+01
4828000000.000000      4.548950000000000E-01      8.299219000000000E+01      2.269363000000000E-01      6.951953000000000E+01      2.246704000000000E-01      3.208008000000000E+01      3.237610000000000E-01      2.838964000000000E+01
4829000000.000000      4.527893000000000E-01      8.299999000000000E+01      2.301788000000000E-01      7.046093000000000E+01      2.291336000000000E-01      3.306836000000000E+01      3.239288000000000E-01      2.848437000000000E+01
4830000000.000000      4.526062000000000E-01      8.286327000000000E+01      2.346649000000000E-01      7.105078000000000E+01      2.331543000000000E-01      3.396289000000000E+01      3.210449000000000E-01      2.902637000000000E+01
4831000000.000000      4.507751000000000E-01      8.269531000000000E+01      2.390518000000000E-01      7.176171000000000E+01      2.369690000000000E-01      3.473242000000000E+01      3.199158000000000E-01      2.904882000000000E+01
4832000000.000000      4.496765000000000E-01      8.275391000000000E+01      2.429276000000000E-01      7.252343000000000E+01      2.416611000000000E-01      3.551562000000000E+01      3.184357000000000E-01      2.924414000000000E+01
4833000000.000000      4.468231000000000E-01      8.261719000000000E+01      2.475510000000000E-01      7.308594000000000E+01      2.467041000000000E-01      3.609766000000000E+01      3.155975000000000E-01      2.933691000000000E+01
4834000000.000000      4.449310000000000E-01      8.260546000000000E+01      2.522888000000000E-01      7.355469000000000E+01      2.504883000000000E-01      3.692968000000000E+01      3.142242000000000E-01      2.961426000000000E+01
4835000000.000000      4.429169000000000E-01      8.248438000000000E+01      2.575073000000000E-01      7.398828000000000E+01      2.555847000000000E-01      3.749609000000000E+01      3.137207000000000E-01      2.947558000000000E+01
4836000000.000000      4.408112000000000E-01      8.253515000000000E+01      2.619019000000000E-01      7.439843000000000E+01      2.598419000000000E-01      3.816601000000000E+01      3.126373000000000E-01      2.972558000000000E+01
4837000000.000000      4.371338000000000E-01      8.258593000000000E+01      2.662811000000000E-01      7.483984000000000E+01      2.646637000000000E-01      3.865625000000000E+01      3.127594000000000E-01      2.964453000000000E+01
4838000000.000000      4.333801000000000E-01      8.239843000000000E+01      2.720032000000000E-01      7.541406000000000E+01      2.700500000000000E-01      3.916601000000000E+01      3.096771000000000E-01      2.965429000000000E+01
4839000000.000000      4.325256000000000E-01      8.250000000000000E+01      2.766571000000000E-01      7.573047000000000E+01      2.746735000000000E-01      3.967382000000000E+01      3.087311000000000E-01      2.933887000000000E+01
4840000000.000000      4.273376000000000E-01      8.230860000000000E+01      2.824097000000000E-01      7.604297000000000E+01      2.795410000000000E-01      4.014257000000000E+01      3.053436000000000E-01      2.945117000000000E+01
4841000000.000000      4.243011000000000E-01      8.238281000000000E+01      2.869110000000000E-01      7.614452000000000E+01      2.846832000000000E-01      4.046484000000000E+01      3.046265000000000E-01      2.961133000000000E+01
4842000000.000000      4.196777000000000E-01      8.235155000000000E+01      2.922363000000000E-01      7.646093000000000E+01      2.897339000000000E-01      4.111133000000000E+01      3.032837000000000E-01      2.947070000000000E+01
4843000000.000000      4.161682000000000E-01      8.216797000000000E+01      2.980652000000000E-01      7.665234000000000E+01      2.949982000000000E-01      4.118945000000000E+01      3.019867000000000E-01      2.950976000000000E+01
4844000000.000000      4.110413000000000E-01      8.225000000000000E+01      3.031921000000000E-01      7.681641000000000E+01      2.996216000000000E-01      4.171288000000000E+01      2.981262000000000E-01      2.952929000000000E+01
4845000000.000000      4.062195000000000E-01      8.226563000000000E+01      3.082275000000000E-01      7.698047000000000E+01      3.052521000000000E-01      4.192383000000000E+01      2.967834000000000E-01      2.921191000000000E+01
4846000000.000000      4.021606000000000E-01      8.221094000000000E+01      3.134918000000000E-01      7.706640000000000E+01      3.112335000000000E-01      4.219922000000000E+01      2.962494000000000E-01      2.901269000000000E+01
4847000000.000000      3.968964000000000E-01      8.231640000000000E+01      3.188019000000000E-01      7.731250000000000E+01      3.166809000000000E-01      4.242188000000000E+01      2.924652000000000E-01      2.879883000000000E+01
4848000000.000000      3.911438000000000E-01      8.216797000000000E+01      3.236237000000000E-01      7.720703000000000E+01      3.215790000000000E-01      4.275586000000000E+01      2.908478000000000E-01      2.855957000000000E+01
4849000000.000000      3.858337000000000E-01      8.215624000000000E+01      3.298035000000000E-01      7.730078000000000E+01      3.262787000000000E-01      4.291797000000000E+01      2.885590000000000E-01      2.854297000000000E+01
4850000000.000000      3.795929000000000E-01      8.215235000000000E+01      3.352203000000000E-01      7.725780000000000E+01      3.326416000000000E-01      4.313477000000000E+01      2.875214000000000E-01      2.847754000000000E+01
4851000000.000000      3.747253000000000E-01      8.223047000000000E+01      3.411102000000000E-01      7.725780000000000E+01      3.381805000000000E-01      4.334374000000000E+01      2.852631000000000E-01      2.820019000000000E+01
4852000000.000000      3.682709000000000E-01      8.217577000000000E+01      3.460541000000000E-01      7.719921000000000E+01      3.432312000000000E-01      4.348828000000000E+01      2.838440000000000E-01      2.785547000000000E+01
4853000000.000000      3.626862000000000E-01      8.225389000000000E+01      3.507080000000000E-01      7.711719000000000E+01      3.483582000000000E-01      4.362500000000000E+01      2.826385000000000E-01      2.742383000000000E+01
4854000000.000000      3.561707000000000E-01      8.208202000000000E+01      3.571320000000000E-01      7.694921000000000E+01      3.545227000000000E-01      4.381249000000000E+01      2.815247000000000E-01      2.745800000000000E+01
4855000000.000000      3.502350000000000E-01      8.219530000000000E+01      3.624725000000000E-01      7.687500000000000E+01      3.591309000000000E-01      4.394531000000000E+01      2.780762000000000E-01      2.682031000000000E+01
4856000000.000000      3.435974000000000E-01      8.216406000000000E+01      3.680267000000000E-01      7.685547000000000E+01      3.648529000000000E-01      4.393750000000000E+01      2.766724000000000E-01      2.702832000000000E+01
4857000000.000000      3.369904000000000E-01      8.225000000000000E+01      3.738708000000000E-01      7.680078000000000E+01      3.699646000000000E-01      4.408008000000000E+01      2.733002000000000E-01      2.652050000000000E+01
4858000000.000000      3.303833000000000E-01      8.207031000000000E+01      3.795929000000000E-01      7.647265000000000E+01      3.763123000000000E-01      4.406836000000000E+01      2.706757000000000E-01      2.617188000000000E+01
4859000000.000000      3.236084000000000E-01      8.208202000000000E+01      3.851318000000000E-01      7.633594000000000E+01      3.807220000000000E-01      4.425781000000000E+01      2.701874000000000E-01      2.553711000000000E+01
4860000000.000000      3.170624000000000E-01      8.224609000000000E+01      3.899689000000000E-01      7.629296000000000E+01      3.859253000000000E-01      4.425195000000000E+01      2.700043000000000E-01      2.556347000000000E+01
4861000000.000000      3.099518000000000E-01      8.209375000000000E+01      3.958282000000000E-01      7.590625000000000E+01      3.920135000000000E-01      4.432617000000000E+01      2.653351000000000E-01      2.497949000000000E+01
4862000000.000000      3.024902000000000E-01      8.198437000000000E+01      4.017792000000000E-01      7.570703000000000E+01      3.973083000000000E-01      4.432226000000000E+01      2.649384000000000E-01      2.470605000000000E+01
4863000000.000000      2.958069000000000E-01      8.201172000000000E+01      4.059448000000000E-01      7.544922000000000E+01      4.025421000000000E-01      4.432422000000000E+01      2.650604000000000E-01      2.444043000000000E+01
4864000000.000000      2.890167000000000E-01      8.198437000000000E+01      4.126740000000000E-01      7.528515000000000E+01      4.074402000000000E-01      4.437890000000000E+01      2.617645000000000E-01      2.403906000000000E+01
4865000000.000000      2.815247000000000E-01      8.185156000000000E+01      4.170532000000000E-01      7.517578000000000E+01      4.133453000000000E-01      4.436328000000000E+01      2.609253000000000E-01      2.366015000000000E+01
4866000000.000000      2.745514000000000E-01      8.167578000000000E+01      4.225006000000000E-01      7.477344000000000E+01      4.184265000000000E-01      4.422265000000000E+01      2.603912000000000E-01      2.323047000000000E+01
4867000000.000000      2.667847000000000E-01      8.166407000000000E+01      4.279175000000000E-01      7.446094000000000E+01      4.232635000000000E-01      4.432617000000000E+01      2.576294000000000E-01      2.275097000000000E+01
4868000000.000000      2.599792000000000E-01      8.156250000000000E+01      4.333496000000000E-01      7.417578000000000E+01      4.288025000000000E-01      4.432813000000000E+01      2.562256000000000E-01      2.221972000000000E+01
4869000000.000000      2.526398000000000E-01      8.140234000000000E+01      4.382629000000000E-01      7.391406000000000E+01      4.343719000000000E-01      4.425195000000000E+01      2.547302000000000E-01      2.197070000000000E+01
4870000000.000000      2.456818000000000E-01      8.123047000000000E+01      4.439850000000000E-01      7.368750000000000E+01      4.395752000000000E-01      4.426953000000000E+01      2.538605000000000E-01      2.140137000000000E+01
4871000000.000000      2.384109000000000E-01      8.091406000000000E+01      4.484558000000000E-01      7.321094000000000E+01      4.441681000000000E-01      4.413867000000000E+01      2.538452000000000E-01      2.114258000000000E+01
4872000000.000000      2.315140000000000E-01      8.080469000000000E+01      4.533386000000000E-01      7.316796000000000E+01      4.501190000000000E-01      4.403710000000000E+01      2.530975000000000E-01      2.058008000000000E+01
4873000000.000000      2.235870000000000E-01      8.065624000000000E+01      4.581757000000000E-01      7.257421000000000E+01      4.538574000000000E-01      4.403516000000000E+01      2.492676000000000E-01      1.995605000000000E+01
4874000000.000000      2.166443000000000E-01      8.026171000000000E+01      4.637604000000000E-01      7.214844000000000E+01      4.615021000000000E-01      4.378711000000000E+01      2.493134000000000E-01      1.974902000000000E+01
4875000000.000000      2.091904000000000E-01      7.988281000000000E+01      4.676056000000000E-01      7.191406000000000E+01      4.654236000000000E-01      4.390821000000000E+01      2.497253000000000E-01      1.908008000000000E+01
4876000000.000000      2.024765000000000E-01      7.947656000000000E+01      4.734650000000000E-01      7.155468000000000E+01      4.716339000000000E-01      4.373632000000000E+01      2.489319000000000E-01      1.857715000000000E+01
4877000000.000000      1.948013000000000E-01      7.868359000000000E+01      4.781189000000000E-01      7.112499000000000E+01      4.768829000000000E-01      4.365039000000000E+01      2.483902000000000E-01      1.796387000000000E+01
4878000000.000000      1.878204000000000E-01      7.852344000000000E+01      4.833527000000000E-01      7.074609000000000E+01      4.801331000000000E-01      4.368554000000000E+01      2.467117000000000E-01      1.766602000000000E+01
4879000000.000000      1.805267000000000E-01      7.788280000000000E+01      4.868164000000000E-01      7.046093000000000E+01      4.848022000000000E-01      4.330274000000000E+01      2.468567000000000E-01      1.685840000000000E+01
4880000000.000000      1.736603000000000E-01      7.692577000000000E+01      4.910889000000000E-01      6.993750000000000E+01      4.910126000000000E-01      4.333789000000000E+01      2.466278000000000E-01      1.677734000000000E+01
4881000000.000000      1.662903000000000E-01      7.649219000000000E+01      4.978027000000000E-01      6.974999000000000E+01      4.944916000000000E-01      4.325976000000000E+01      2.464371000000000E-01      1.602539000000000E+01
4882000000.000000      1.599197000000000E-01      7.534765000000000E+01      5.035706000000000E-01      6.913671000000000E+01      5.008545000000000E-01      4.318945000000000E+01      2.451935000000000E-01      1.565381000000000E+01
