! Network Analyzer HP8722D
! Hewlett-Packard
! Data name: Linha & Wilkinson
! Saver's name: Rodrigo Anjos
! Comments: Teste da utilização de aquisição
continua pelo VNA HP8722D
! Time and date: 15/4/2025 15:39
!              Frequency                     S11                                                   S21                                                   S12                                                   S22
# HZ  S  MA R 50
4800000000.000000      3.200836000000000E-01      1.195156000000000E+02      7.087708000000000E-01      8.222265000000000E+01      6.579285000000000E-01     -1.215381000000000E+01      5.264893000000000E-01     -4.496094000000000E+01
4801000000.000000      3.156281000000000E-01      1.194336000000000E+02      7.093811000000000E-01      8.171875000000000E+01      6.581421000000000E-01     -1.275830000000000E+01      5.199280000000000E-01     -4.516602000000000E+01
4802000000.000000      3.105774000000000E-01      1.193242000000000E+02      7.099304000000000E-01      8.115234000000000E+01      6.612244000000000E-01     -1.307813000000000E+01      5.139465000000000E-01     -4.505273000000000E+01
4803000000.000000      3.050842000000000E-01      1.193008000000000E+02      7.140503000000000E-01      8.062500000000000E+01      6.632996000000000E-01     -1.346924000000000E+01      5.056152000000000E-01     -4.547071000000000E+01
4804000000.000000      3.000336000000000E-01      1.192305000000000E+02      7.149658000000000E-01      7.993359000000000E+01      6.655884000000000E-01     -1.398584000000000E+01      4.972687000000000E-01     -4.549024000000000E+01
4805000000.000000      2.951355000000000E-01      1.192266000000000E+02      7.166443000000000E-01      7.926952000000000E+01      6.660461000000000E-01     -1.436230000000000E+01      4.898529000000000E-01     -4.570898000000000E+01
4806000000.000000      2.886200000000000E-01      1.191602000000000E+02      7.172546000000000E-01      7.866405000000000E+01      6.659851000000000E-01     -1.484131000000000E+01      4.824219000000000E-01     -4.596093000000000E+01
4807000000.000000      2.838593000000000E-01      1.190937000000000E+02      7.189026000000000E-01      7.799218000000000E+01      6.678162000000000E-01     -1.532910000000000E+01      4.737244000000000E-01     -4.583398000000000E+01
4808000000.000000      2.786407000000000E-01      1.191172000000000E+02      7.214050000000000E-01      7.755859000000000E+01      6.697388000000000E-01     -1.557861000000000E+01      4.673462000000000E-01     -4.594531000000000E+01
4809000000.000000      2.734528000000000E-01      1.190430000000000E+02      7.228394000000000E-01      7.674609000000000E+01      6.731262000000000E-01     -1.620801000000000E+01      4.585266000000000E-01     -4.587891000000000E+01
4810000000.000000      2.669525000000000E-01      1.189453000000000E+02      7.244873000000000E-01      7.642187000000000E+01      6.722717000000000E-01     -1.650586000000000E+01      4.510040000000000E-01     -4.604297000000000E+01
4811000000.000000      2.616425000000000E-01      1.190312000000000E+02      7.248840000000000E-01      7.562109000000000E+01      6.762390000000000E-01     -1.696777000000000E+01      4.437103000000000E-01     -4.585351000000000E+01
4812000000.000000      2.553864000000000E-01      1.190469000000000E+02      7.243958000000000E-01      7.494922000000000E+01      6.751099000000000E-01     -1.745117000000000E+01      4.369507000000000E-01     -4.601953000000000E+01
4813000000.000000      2.498245000000000E-01      1.190977000000000E+02      7.260437000000000E-01      7.453515000000000E+01      6.770325000000000E-01     -1.788476000000000E+01      4.294281000000000E-01     -4.571875000000000E+01
4814000000.000000      2.431641000000000E-01      1.190391000000000E+02      7.257690000000000E-01      7.367578000000000E+01      6.776123000000000E-01     -1.827734000000000E+01      4.225311000000000E-01     -4.580664000000000E+01
4815000000.000000      2.368164000000000E-01      1.191484000000000E+02      7.264709000000000E-01      7.322266000000000E+01      6.787109000000000E-01     -1.866504000000000E+01      4.159546000000000E-01     -4.552734000000000E+01
4816000000.000000      2.310257000000000E-01      1.191640000000000E+02      7.298279000000000E-01      7.266406000000000E+01      6.811218000000000E-01     -1.912109000000000E+01      4.089966000000000E-01     -4.559570000000000E+01
4817000000.000000      2.245331000000000E-01      1.193164000000000E+02      7.295837000000000E-01      7.180078000000000E+01      6.800842000000000E-01     -1.949121000000000E+01      4.005432000000000E-01     -4.525195000000000E+01
4818000000.000000      2.185516000000000E-01      1.194141000000000E+02      7.286987000000000E-01      7.150391000000000E+01      6.806946000000000E-01     -1.992578000000000E+01      3.944397000000000E-01     -4.506640000000000E+01
4819000000.000000      2.123413000000000E-01      1.194765000000000E+02      7.283630000000000E-01      7.068359000000000E+01      6.819153000000000E-01     -2.043457000000000E+01      3.879395000000000E-01     -4.501758000000000E+01
4820000000.000000      2.058105000000000E-01      1.196445000000000E+02      7.270203000000000E-01      7.023828000000000E+01      6.838074000000000E-01     -2.070117000000000E+01      3.812256000000000E-01     -4.462110000000000E+01
4821000000.000000      1.998596000000000E-01      1.195976000000000E+02      7.333679000000000E-01      6.947266000000000E+01      6.815491000000000E-01     -2.125391000000000E+01      3.747101000000000E-01     -4.428320000000000E+01
4822000000.000000      1.936874000000000E-01      1.199453000000000E+02      7.301941000000000E-01      6.898438000000000E+01      6.818542000000000E-01     -2.173438000000000E+01      3.697357000000000E-01     -4.399414000000000E+01
4823000000.000000      1.870117000000000E-01      1.202383000000000E+02      7.299500000000000E-01      6.824609000000000E+01      6.822205000000000E-01     -2.198535000000000E+01      3.632813000000000E-01     -4.372460000000000E+01
4824000000.000000      1.811905000000000E-01      1.203828000000000E+02      7.287292000000000E-01      6.753124000000000E+01      6.829224000000000E-01     -2.261425000000000E+01      3.565826000000000E-01     -4.339648000000000E+01
4825000000.000000      1.740341000000000E-01      1.205195000000000E+02      7.260742000000000E-01      6.696484000000000E+01      6.848145000000000E-01     -2.290527000000000E+01      3.523254000000000E-01     -4.303515000000000E+01
4826000000.000000      1.685562000000000E-01      1.211211000000000E+02      7.275085000000000E-01      6.622265000000000E+01      6.831970000000000E-01     -2.341406000000000E+01      3.465576000000000E-01     -4.246875000000000E+01
4827000000.000000      1.623077000000000E-01      1.213984000000000E+02      7.269897000000000E-01      6.575781000000000E+01      6.825256000000000E-01     -2.375000000000000E+01      3.419495000000000E-01     -4.215234000000000E+01
4828000000.000000      1.564255000000000E-01      1.216758000000000E+02      7.284241000000000E-01      6.505077000000000E+01      6.826172000000000E-01     -2.440918000000000E+01      3.372192000000000E-01     -4.180078000000000E+01
4829000000.000000      1.496506000000000E-01      1.222773000000000E+02      7.258911000000000E-01      6.437890000000000E+01      6.841431000000000E-01     -2.484570000000000E+01      3.335419000000000E-01     -4.106054000000000E+01
4830000000.000000      1.439438000000000E-01      1.228750000000000E+02      7.265320000000000E-01      6.378124000000000E+01      6.832581000000000E-01     -2.516308000000000E+01      3.270721000000000E-01     -4.054883000000000E+01
4831000000.000000      1.377182000000000E-01      1.235312000000000E+02      7.250366000000000E-01      6.316406000000000E+01      6.834106000000000E-01     -2.559863000000000E+01      3.231354000000000E-01     -4.000586000000000E+01
4832000000.000000      1.325455000000000E-01      1.241328000000000E+02      7.235718000000000E-01      6.251171000000000E+01      6.824036000000000E-01     -2.609668000000000E+01      3.185272000000000E-01     -3.939844000000000E+01
4833000000.000000      1.266174000000000E-01      1.248555000000000E+02      7.245178000000000E-01      6.191211000000000E+01      6.820374000000000E-01     -2.659570000000000E+01      3.141937000000000E-01     -3.871484000000000E+01
4834000000.000000      1.210976000000000E-01      1.256992000000000E+02      7.213745000000000E-01      6.125390000000000E+01      6.815186000000000E-01     -2.698828000000000E+01      3.111420000000000E-01     -3.800195000000000E+01
4835000000.000000      1.154213000000000E-01      1.266562000000000E+02      7.211304000000000E-01      6.050390000000000E+01      6.822510000000000E-01     -2.748535000000000E+01      3.075562000000000E-01     -3.728906000000000E+01
4836000000.000000      1.104164000000000E-01      1.275625000000000E+02      7.189636000000000E-01      6.007030000000000E+01      6.806641000000000E-01     -2.784570000000000E+01      3.042145000000000E-01     -3.662304000000000E+01
4837000000.000000      1.052094000000000E-01      1.285703000000000E+02      7.168274000000000E-01      5.911914000000000E+01      6.787109000000000E-01     -2.855078000000000E+01      3.013458000000000E-01     -3.564844000000000E+01
4838000000.000000      1.000824000000000E-01      1.299219000000000E+02      7.170105000000000E-01      5.868945000000000E+01      6.790771000000000E-01     -2.892578000000000E+01      2.983093000000000E-01     -3.505273000000000E+01
4839000000.000000      9.531784000000000E-02      1.312422000000000E+02      7.124939000000000E-01      5.809179000000000E+01      6.769714000000000E-01     -2.942773000000000E+01      2.954254000000000E-01     -3.439453000000000E+01
4840000000.000000      9.008789000000000E-02      1.326250000000000E+02      7.107544000000000E-01      5.744141000000000E+01      6.769714000000000E-01     -2.986133000000000E+01      2.926331000000000E-01     -3.359961000000000E+01
4841000000.000000      8.610916000000000E-02      1.343516000000000E+02      7.109680000000000E-01      5.674218000000000E+01      6.760559000000000E-01     -3.039551000000000E+01      2.908325000000000E-01     -3.263086000000000E+01
4842000000.000000      8.147049000000000E-02      1.364453000000000E+02      7.085571000000000E-01      5.622656000000000E+01      6.740112000000000E-01     -3.081055000000000E+01      2.893066000000000E-01     -3.177441000000000E+01
4843000000.000000      7.667542000000000E-02      1.382734000000000E+02      7.070313000000000E-01      5.542969000000000E+01      6.722717000000000E-01     -3.136816000000000E+01      2.876740000000000E-01     -3.084082000000000E+01
4844000000.000000      7.321167000000000E-02      1.405625000000000E+02      7.046509000000000E-01      5.497070000000000E+01      6.711426000000000E-01     -3.183300000000000E+01      2.856750000000000E-01     -2.996387000000000E+01
4845000000.000000      6.941986000000000E-02      1.429609000000000E+02      7.019348000000000E-01      5.418359000000000E+01      6.701660000000000E-01     -3.234375000000000E+01      2.842560000000000E-01     -2.914746000000000E+01
4846000000.000000      6.542206000000000E-02      1.459531000000000E+02      7.008972000000000E-01      5.374218000000000E+01      6.690674000000000E-01     -3.276172000000000E+01      2.833557000000000E-01     -2.822168000000000E+01
4847000000.000000      6.282425000000000E-02      1.492734000000000E+02      6.980591000000000E-01      5.318164000000000E+01      6.677246000000000E-01     -3.333203000000000E+01      2.821808000000000E-01     -2.739355000000000E+01
4848000000.000000      5.959511000000000E-02      1.523750000000000E+02      6.940918000000000E-01      5.240429000000000E+01      6.652527000000000E-01     -3.380859000000000E+01      2.817078000000000E-01     -2.644726000000000E+01
4849000000.000000      5.702019000000000E-02      1.559531000000000E+02      6.933289000000000E-01      5.165039000000000E+01      6.633911000000000E-01     -3.431250000000000E+01      2.811584000000000E-01     -2.535547000000000E+01
4850000000.000000      5.499268000000000E-02      1.601172000000000E+02      6.891174000000000E-01      5.117969000000000E+01      6.634827000000000E-01     -3.487109000000000E+01      2.812500000000000E-01     -2.455078000000000E+01
4851000000.000000      5.320549000000000E-02      1.635859000000000E+02      6.885071000000000E-01      5.042382000000000E+01      6.594238000000000E-01     -3.527929000000000E+01      2.814636000000000E-01     -2.358984000000000E+01
4852000000.000000      5.200958000000000E-02      1.680156000000000E+02      6.842041000000000E-01      4.992382000000000E+01      6.567688000000000E-01     -3.583203000000000E+01      2.818451000000000E-01     -2.273633000000000E+01
4853000000.000000      5.100250000000000E-02      1.725937000000000E+02      6.796265000000000E-01      4.915039000000000E+01      6.557617000000000E-01     -3.637890000000000E+01      2.820435000000000E-01     -2.190820000000000E+01
4854000000.000000      5.005264000000000E-02      1.769297000000000E+02      6.781006000000000E-01      4.853906000000000E+01      6.532898000000000E-01     -3.694726000000000E+01      2.839355000000000E-01     -2.078223000000000E+01
4855000000.000000      5.000305000000000E-02     -1.789453000000000E+02      6.756897000000000E-01      4.790039000000000E+01      6.506958000000000E-01     -3.736328000000000E+01      2.832489000000000E-01     -1.995312000000000E+01
4856000000.000000      5.093193000000000E-02     -1.746250000000000E+02      6.719666000000000E-01      4.718946000000000E+01      6.477966000000000E-01     -3.788671000000000E+01      2.854614000000000E-01     -1.908789000000000E+01
4857000000.000000      5.090714000000000E-02     -1.707187000000000E+02      6.705017000000000E-01      4.668750000000000E+01      6.451111000000000E-01     -3.832617000000000E+01      2.864380000000000E-01     -1.819629000000000E+01
4858000000.000000      5.165672000000000E-02     -1.669844000000000E+02      6.669922000000000E-01      4.604492000000000E+01      6.424866000000000E-01     -3.891406000000000E+01      2.884521000000000E-01     -1.737793000000000E+01
4859000000.000000      5.276680000000000E-02     -1.631562000000000E+02      6.642456000000000E-01      4.550586000000000E+01      6.402588000000000E-01     -3.949609000000000E+01      2.910156000000000E-01     -1.648730000000000E+01
4860000000.000000      5.461502000000000E-02     -1.606484000000000E+02      6.611328000000000E-01      4.470312000000000E+01      6.372375000000000E-01     -4.005859000000000E+01      2.926941000000000E-01     -1.567627000000000E+01
4861000000.000000      5.580902000000000E-02     -1.577656000000000E+02      6.572571000000000E-01      4.402344000000000E+01      6.344604000000000E-01     -4.052930000000000E+01      2.945862000000000E-01     -1.489502000000000E+01
4862000000.000000      5.776024000000000E-02     -1.546016000000000E+02      6.546326000000000E-01      4.352929000000000E+01      6.311951000000000E-01     -4.113086000000000E+01      2.976379000000000E-01     -1.401465000000000E+01
4863000000.000000      5.980110000000000E-02     -1.529297000000000E+02      6.482239000000000E-01      4.289844000000000E+01      6.290283000000000E-01     -4.160742000000000E+01      3.004913000000000E-01     -1.323877000000000E+01
4864000000.000000      6.131744000000000E-02     -1.507656000000000E+02      6.459961000000000E-01      4.230859000000000E+01      6.221924000000000E-01     -4.199023000000000E+01      3.038177000000000E-01     -1.273877000000000E+01
4865000000.000000      6.370544000000000E-02     -1.494297000000000E+02      6.422424000000000E-01      4.164063000000000E+01      6.206360000000000E-01     -4.262304000000000E+01      3.069458000000000E-01     -1.181201000000000E+01
4866000000.000000      6.575775000000000E-02     -1.479922000000000E+02      6.373901000000000E-01      4.097461000000000E+01      6.162109000000000E-01     -4.322266000000000E+01      3.110352000000000E-01     -1.124219000000000E+01
4867000000.000000      6.841278000000000E-02     -1.470000000000000E+02      6.338501000000000E-01      4.020898000000000E+01      6.120300000000000E-01     -4.364258000000000E+01      3.149872000000000E-01     -1.049902000000000E+01
4868000000.000000      7.078552000000000E-02     -1.465000000000000E+02      6.298523000000000E-01      3.950390000000000E+01      6.094360000000000E-01     -4.419141000000000E+01      3.177032000000000E-01     -9.816406000000000E+00
4869000000.000000      7.326508000000000E-02     -1.456172000000000E+02      6.250305000000000E-01      3.886523000000000E+01      6.061096000000000E-01     -4.466992000000000E+01      3.226318000000000E-01     -9.567871000000000E+00
4870000000.000000      7.546997000000000E-02     -1.451172000000000E+02      6.213074000000000E-01      3.842968000000000E+01      6.026001000000000E-01     -4.530859000000000E+01      3.265991000000000E-01     -8.898926000000000E+00
4871000000.000000      7.826996000000000E-02     -1.448984000000000E+02      6.166077000000000E-01      3.769336000000000E+01      5.983887000000000E-01     -4.587110000000000E+01      3.309784000000000E-01     -8.516113000000000E+00
4872000000.000000      8.065414000000000E-02     -1.450156000000000E+02      6.121826000000000E-01      3.717382000000000E+01      5.928040000000000E-01     -4.669141000000000E+01      3.359222000000000E-01     -7.889648000000000E+00
4873000000.000000      8.312225000000000E-02     -1.451953000000000E+02      6.050720000000000E-01      3.658789000000000E+01      5.875244000000000E-01     -4.699414000000000E+01      3.398743000000000E-01     -7.658936000000000E+00
4874000000.000000      8.550262000000000E-02     -1.451016000000000E+02      6.023865000000000E-01      3.573828000000000E+01      5.859070000000000E-01     -4.753515000000000E+01      3.445282000000000E-01     -7.201660000000000E+00
4875000000.000000      8.823776000000000E-02     -1.455078000000000E+02      5.970459000000000E-01      3.528906000000000E+01      5.820923000000000E-01     -4.807226000000000E+01      3.494110000000000E-01     -6.848633000000000E+00
4876000000.000000      9.037781000000000E-02     -1.459219000000000E+02      5.932312000000000E-01      3.451172000000000E+01      5.779114000000000E-01     -4.876953000000000E+01      3.547821000000000E-01     -6.675781000000000E+00
4877000000.000000      9.274292000000000E-02     -1.465859000000000E+02      5.871277000000000E-01      3.402929000000000E+01      5.729370000000000E-01     -4.905273000000000E+01      3.598633000000000E-01     -6.263672000000000E+00
4878000000.000000      9.582138000000000E-02     -1.470391000000000E+02      5.827637000000000E-01      3.342578000000000E+01      5.678101000000000E-01     -4.953906000000000E+01      3.640289000000000E-01     -6.219727000000000E+00
4879000000.000000      9.804916000000000E-02     -1.478047000000000E+02      5.768738000000000E-01      3.276172000000000E+01      5.640564000000000E-01     -5.022461000000000E+01      3.690338000000000E-01     -5.934082000000000E+00
4880000000.000000      1.003189000000000E-01     -1.486406000000000E+02      5.690918000000000E-01      3.200586000000000E+01      5.592346000000000E-01     -5.064843000000000E+01      3.740692000000000E-01     -5.711670000000000E+00
4881000000.000000      1.033554000000000E-01     -1.497266000000000E+02      5.660095000000000E-01      3.174414000000000E+01      5.548096000000000E-01     -5.129296000000000E+01      3.799896000000000E-01     -5.377930000000000E+00
4882000000.000000      1.054916000000000E-01     -1.506953000000000E+02      5.611572000000000E-01      3.095605000000000E+01      5.490112000000000E-01     -5.177539000000000E+01      3.848419000000000E-01     -5.302490000000000E+00
