! Network Analyzer HP8722D
! Hewlett-Packard
! Data name: Linha & Wilkinson
! Saver's name: Rodrigo Anjos
! Comments: Teste da utilização de aquisição
continua pelo VNA HP8722D
! Time and date: 15/4/2025 15:50
!              Frequency                     S11                                                   S21                                                   S12                                                   S22
# HZ  S  MA R 50
4800000000.000000      3.091583000000000E-01      8.820704000000000E+01      5.824585000000000E-01      1.502422000000000E+02      4.809113000000000E-01     -1.115703000000000E+02      7.394104000000000E-01     -5.999413000000000E+01
4801000000.000000      3.014221000000000E-01      8.835155000000000E+01      5.825195000000000E-01      1.501328000000000E+02      4.808044000000000E-01     -1.117188000000000E+02      7.357788000000000E-01     -6.014648000000000E+01
4802000000.000000      2.940369000000000E-01      8.845703000000000E+01      5.814209000000000E-01      1.501328000000000E+02      4.831390000000000E-01     -1.115859000000000E+02      7.291565000000000E-01     -6.011719000000000E+01
4803000000.000000      2.860107000000000E-01      8.862890000000000E+01      5.857849000000000E-01      1.497578000000000E+02      4.829559000000000E-01     -1.115469000000000E+02      7.248230000000000E-01     -6.035937000000000E+01
4804000000.000000      2.778625000000000E-01      8.900391000000000E+01      5.859375000000000E-01      1.494219000000000E+02      4.835052000000000E-01     -1.115273000000000E+02      7.202759000000000E-01     -6.032031000000000E+01
4805000000.000000      2.703705000000000E-01      8.908983000000000E+01      5.870056000000000E-01      1.492734000000000E+02      4.833679000000000E-01     -1.114414000000000E+02      7.145386000000000E-01     -6.045312000000000E+01
4806000000.000000      2.611084000000000E-01      8.939453000000000E+01      5.864258000000000E-01      1.490469000000000E+02      4.835358000000000E-01     -1.114570000000000E+02      7.074890000000000E-01     -6.067383000000000E+01
4807000000.000000      2.535706000000000E-01      8.955469000000000E+01      5.868530000000000E-01      1.485547000000000E+02      4.852905000000000E-01     -1.114023000000000E+02      7.021790000000000E-01     -6.065820000000000E+01
4808000000.000000      2.447052000000000E-01      8.993750000000000E+01      5.885925000000000E-01      1.483828000000000E+02      4.863892000000000E-01     -1.114336000000000E+02      6.982117000000000E-01     -6.066015000000000E+01
4809000000.000000      2.360992000000000E-01      9.025391000000000E+01      5.899048000000000E-01      1.480547000000000E+02      4.871979000000000E-01     -1.114180000000000E+02      6.924438000000000E-01     -6.079492000000000E+01
4810000000.000000      2.274780000000000E-01      9.050390000000000E+01      5.898743000000000E-01      1.481094000000000E+02      4.873199000000000E-01     -1.114297000000000E+02      6.877441000000000E-01     -6.095508000000000E+01
4811000000.000000      2.188263000000000E-01      9.096094000000000E+01      5.922241000000000E-01      1.476016000000000E+02      4.908905000000000E-01     -1.111836000000000E+02      6.812439000000000E-01     -6.093554000000000E+01
4812000000.000000      2.104416000000000E-01      9.132030000000000E+01      5.900269000000000E-01      1.472578000000000E+02      4.896851000000000E-01     -1.112148000000000E+02      6.778870000000000E-01     -6.110546000000000E+01
4813000000.000000      2.016602000000000E-01      9.170702000000000E+01      5.892029000000000E-01      1.469922000000000E+02      4.894867000000000E-01     -1.110938000000000E+02      6.731873000000000E-01     -6.108398000000000E+01
4814000000.000000      1.915665000000000E-01      9.196484000000000E+01      5.906982000000000E-01      1.467187000000000E+02      4.917450000000000E-01     -1.110078000000000E+02      6.667175000000000E-01     -6.124609000000000E+01
4815000000.000000      1.822357000000000E-01      9.244921000000000E+01      5.911560000000000E-01      1.463359000000000E+02      4.922485000000000E-01     -1.110000000000000E+02      6.616516000000000E-01     -6.128906000000000E+01
4816000000.000000      1.742783000000000E-01      9.302343000000000E+01      5.914307000000000E-01      1.461875000000000E+02      4.934692000000000E-01     -1.109219000000000E+02      6.570435000000000E-01     -6.147851000000000E+01
4817000000.000000      1.643066000000000E-01      9.370703000000000E+01      5.928650000000000E-01      1.455156000000000E+02      4.927979000000000E-01     -1.109375000000000E+02      6.509705000000000E-01     -6.142773000000000E+01
4818000000.000000      1.550751000000000E-01      9.413280000000000E+01      5.914307000000000E-01      1.454531000000000E+02      4.957581000000000E-01     -1.107461000000000E+02      6.463928000000000E-01     -6.162109000000000E+01
4819000000.000000      1.461945000000000E-01      9.495703000000000E+01      5.914917000000000E-01      1.450234000000000E+02      4.950714000000000E-01     -1.107656000000000E+02      6.415710000000000E-01     -6.173046000000000E+01
4820000000.000000      1.362381000000000E-01      9.562109000000000E+01      5.914917000000000E-01      1.448594000000000E+02      4.951782000000000E-01     -1.106289000000000E+02      6.371460000000000E-01     -6.171484000000000E+01
4821000000.000000      1.277466000000000E-01      9.637108000000000E+01      5.914307000000000E-01      1.442266000000000E+02      4.964905000000000E-01     -1.107500000000000E+02      6.327209000000000E-01     -6.179492000000000E+01
4822000000.000000      1.178284000000000E-01      9.741796000000000E+01      5.901184000000000E-01      1.439687000000000E+02      4.960938000000000E-01     -1.105976000000000E+02      6.279907000000000E-01     -6.194921000000000E+01
4823000000.000000      1.081429000000000E-01      9.854687000000000E+01      5.916138000000000E-01      1.435313000000000E+02      4.970551000000000E-01     -1.103828000000000E+02      6.231995000000000E-01     -6.194530000000000E+01
4824000000.000000      9.968948000000000E-02      9.975389000000000E+01      5.898132000000000E-01      1.431484000000000E+02      4.975891000000000E-01     -1.102812000000000E+02      6.187744000000000E-01     -6.202148000000000E+01
4825000000.000000      8.984756000000000E-02      1.010352000000000E+02      5.896301000000000E-01      1.429766000000000E+02      4.991760000000000E-01     -1.101211000000000E+02      6.153564000000000E-01     -6.224023000000000E+01
4826000000.000000      8.079529000000000E-02      1.030781000000000E+02      5.907288000000000E-01      1.424687000000000E+02      4.988098000000000E-01     -1.103203000000000E+02      6.107788000000000E-01     -6.225976000000000E+01
4827000000.000000      7.165909000000000E-02      1.056250000000000E+02      5.896301000000000E-01      1.422188000000000E+02      4.989471000000000E-01     -1.101328000000000E+02      6.072998000000000E-01     -6.226171000000000E+01
4828000000.000000      6.275177000000000E-02      1.079062000000000E+02      5.898743000000000E-01      1.418828000000000E+02      4.988708000000000E-01     -1.100937000000000E+02      6.026001000000000E-01     -6.241211000000000E+01
4829000000.000000      5.360413000000000E-02      1.117109000000000E+02      5.871582000000000E-01      1.413750000000000E+02      5.017700000000000E-01     -1.099062000000000E+02      6.000061000000000E-01     -6.247070000000000E+01
4830000000.000000      4.486084000000000E-02      1.173281000000000E+02      5.868835000000000E-01      1.410000000000000E+02      5.011292000000000E-01     -1.098320000000000E+02      5.950928000000000E-01     -6.260547000000000E+01
4831000000.000000      3.665543000000000E-02      1.240078000000000E+02      5.848694000000000E-01      1.404766000000000E+02      5.005798000000000E-01     -1.096562000000000E+02      5.915527000000000E-01     -6.260156000000000E+01
4832000000.000000      3.002644000000000E-02      1.347188000000000E+02      5.840759000000000E-01      1.402266000000000E+02      5.012817000000000E-01     -1.096211000000000E+02      5.877380000000000E-01     -6.273046000000000E+01
4833000000.000000      2.424240000000000E-02      1.507734000000000E+02      5.830383000000000E-01      1.398281000000000E+02      5.023499000000000E-01     -1.096055000000000E+02      5.831299000000000E-01     -6.281054000000000E+01
4834000000.000000      2.176380000000000E-02      1.748828000000000E+02      5.823364000000000E-01      1.394063000000000E+02      5.029297000000000E-01     -1.096250000000000E+02      5.802002000000000E-01     -6.285937000000000E+01
4835000000.000000      2.234554000000000E-02     -1.621250000000000E+02      5.807190000000000E-01      1.389922000000000E+02      5.038452000000000E-01     -1.094922000000000E+02      5.770264000000000E-01     -6.300390000000000E+01
4836000000.000000      2.718163000000000E-02     -1.423828000000000E+02      5.776062000000000E-01      1.387266000000000E+02      5.032959000000000E-01     -1.092812000000000E+02      5.722351000000000E-01     -6.301952000000000E+01
4837000000.000000      3.416824000000000E-02     -1.290703000000000E+02      5.753784000000000E-01      1.381953000000000E+02      5.030212000000000E-01     -1.093594000000000E+02      5.695496000000000E-01     -6.297265000000000E+01
4838000000.000000      4.161453000000000E-02     -1.210234000000000E+02      5.762329000000000E-01      1.379688000000000E+02      5.039063000000000E-01     -1.091836000000000E+02      5.664063000000000E-01     -6.302539000000000E+01
4839000000.000000      4.864120000000000E-02     -1.153437000000000E+02      5.728149000000000E-01      1.375469000000000E+02      5.054932000000000E-01     -1.091094000000000E+02      5.638123000000000E-01     -6.316601000000000E+01
4840000000.000000      5.764198000000000E-02     -1.112891000000000E+02      5.694275000000000E-01      1.372656000000000E+02      5.056458000000000E-01     -1.091640000000000E+02      5.607910000000000E-01     -6.325000000000000E+01
4841000000.000000      6.557083000000000E-02     -1.082383000000000E+02      5.690613000000000E-01      1.367578000000000E+02      5.065613000000000E-01     -1.091172000000000E+02      5.571289000000000E-01     -6.333398000000000E+01
4842000000.000000      7.464600000000000E-02     -1.058633000000000E+02      5.656738000000000E-01      1.363750000000000E+02      5.047607000000000E-01     -1.089766000000000E+02      5.554199000000000E-01     -6.337891000000000E+01
4843000000.000000      8.309937000000000E-02     -1.036797000000000E+02      5.649414000000000E-01      1.360234000000000E+02      5.071411000000000E-01     -1.089101000000000E+02      5.524292000000000E-01     -6.334374000000000E+01
4844000000.000000      9.175873000000000E-02     -1.019648000000000E+02      5.618591000000000E-01      1.358125000000000E+02      5.062256000000000E-01     -1.087031000000000E+02      5.490723000000000E-01     -6.343750000000000E+01
4845000000.000000      1.000557000000000E-01     -1.002891000000000E+02      5.591736000000000E-01      1.353594000000000E+02      5.069275000000000E-01     -1.089063000000000E+02      5.468750000000000E-01     -6.358203000000000E+01
4846000000.000000      1.084137000000000E-01     -9.896484000000000E+01      5.570374000000000E-01      1.351172000000000E+02      5.074768000000000E-01     -1.088320000000000E+02      5.438538000000000E-01     -6.356054000000000E+01
4847000000.000000      1.170807000000000E-01     -9.802343000000000E+01      5.554199000000000E-01      1.346719000000000E+02      5.074158000000000E-01     -1.088594000000000E+02      5.413208000000000E-01     -6.373241000000000E+01
4848000000.000000      1.253738000000000E-01     -9.728516000000000E+01      5.513916000000000E-01      1.344922000000000E+02      5.061951000000000E-01     -1.088711000000000E+02      5.384216000000000E-01     -6.371288000000000E+01
4849000000.000000      1.337128000000000E-01     -9.691015000000000E+01      5.478821000000000E-01      1.340078000000000E+02      5.079651000000000E-01     -1.087187000000000E+02      5.354919000000000E-01     -6.363476000000000E+01
4850000000.000000      1.422424000000000E-01     -9.554296000000000E+01      5.473938000000000E-01      1.337265000000000E+02      5.052185000000000E-01     -1.087930000000000E+02      5.325623000000000E-01     -6.371484000000000E+01
4851000000.000000      1.507492000000000E-01     -9.511328000000000E+01      5.470886000000000E-01      1.334609000000000E+02      5.074463000000000E-01     -1.086172000000000E+02      5.327454000000000E-01     -6.373632000000000E+01
4852000000.000000      1.586609000000000E-01     -9.451952000000000E+01      5.423889000000000E-01      1.331328000000000E+02      5.082092000000000E-01     -1.085078000000000E+02      5.297852000000000E-01     -6.366405000000000E+01
4853000000.000000      1.667862000000000E-01     -9.405077000000000E+01      5.392456000000000E-01      1.328203000000000E+02      5.081787000000000E-01     -1.086562000000000E+02      5.267639000000000E-01     -6.391406000000000E+01
4854000000.000000      1.752396000000000E-01     -9.342968000000000E+01      5.356140000000000E-01      1.323672000000000E+02      5.069580000000000E-01     -1.085469000000000E+02      5.253601000000000E-01     -6.380468000000000E+01
4855000000.000000      1.823959000000000E-01     -9.308985000000000E+01      5.327759000000000E-01      1.321797000000000E+02      5.069275000000000E-01     -1.084727000000000E+02      5.221252000000000E-01     -6.373047000000000E+01
4856000000.000000      1.899261000000000E-01     -9.261719000000000E+01      5.315552000000000E-01      1.318750000000000E+02      5.060425000000000E-01     -1.086055000000000E+02      5.205078000000000E-01     -6.375195000000000E+01
4857000000.000000      1.981125000000000E-01     -9.230078000000000E+01      5.287476000000000E-01      1.317031000000000E+02      5.051270000000000E-01     -1.085039000000000E+02      5.177307000000000E-01     -6.378906000000000E+01
4858000000.000000      2.047424000000000E-01     -9.163280000000000E+01      5.256653000000000E-01      1.314609000000000E+02      5.040894000000000E-01     -1.085156000000000E+02      5.152893000000000E-01     -6.384375000000000E+01
4859000000.000000      2.128677000000000E-01     -9.153906000000000E+01      5.239258000000000E-01      1.311406000000000E+02      5.048523000000000E-01     -1.086523000000000E+02      5.158997000000000E-01     -6.381836000000000E+01
4860000000.000000      2.198257000000000E-01     -9.127733000000000E+01      5.201416000000000E-01      1.311016000000000E+02      5.026245000000000E-01     -1.085078000000000E+02      5.122986000000000E-01     -6.358007000000000E+01
4861000000.000000      2.272491000000000E-01     -9.075781000000000E+01      5.160522000000000E-01      1.306015000000000E+02      5.030518000000000E-01     -1.084961000000000E+02      5.093689000000000E-01     -6.370312000000000E+01
4862000000.000000      2.344284000000000E-01     -9.061718000000000E+01      5.144653000000000E-01      1.303906000000000E+02      5.031433000000000E-01     -1.085352000000000E+02      5.096436000000000E-01     -6.385742000000000E+01
4863000000.000000      2.410278000000000E-01     -9.039454000000000E+01      5.114136000000000E-01      1.300313000000000E+02      5.030823000000000E-01     -1.086172000000000E+02      5.075989000000000E-01     -6.367382000000000E+01
4864000000.000000      2.482910000000000E-01     -9.016016000000000E+01      5.084839000000000E-01      1.299609000000000E+02      5.010071000000000E-01     -1.085312000000000E+02      5.044861000000000E-01     -6.364843000000000E+01
4865000000.000000      2.540131000000000E-01     -9.008593000000000E+01      5.043030000000000E-01      1.296484000000000E+02      5.002747000000000E-01     -1.087734000000000E+02      5.044861000000000E-01     -6.338476000000000E+01
4866000000.000000      2.604218000000000E-01     -8.986328000000000E+01      5.016174000000000E-01      1.293906000000000E+02      4.997406000000000E-01     -1.089414000000000E+02      5.014038000000000E-01     -6.343554000000000E+01
4867000000.000000      2.662964000000000E-01     -8.971874000000000E+01      5.000305000000000E-01      1.289922000000000E+02      4.987183000000000E-01     -1.087852000000000E+02      5.006714000000000E-01     -6.311328000000000E+01
4868000000.000000      2.729034000000000E-01     -8.965235000000000E+01      4.970245000000000E-01      1.289609000000000E+02      4.983673000000000E-01     -1.087539000000000E+02      4.982452000000000E-01     -6.325000000000000E+01
4869000000.000000      2.782440000000000E-01     -8.949610000000000E+01      4.943237000000000E-01      1.286953000000000E+02      4.963074000000000E-01     -1.088398000000000E+02      4.978638000000000E-01     -6.329102000000000E+01
4870000000.000000      2.838593000000000E-01     -8.937891000000000E+01      4.916534000000000E-01      1.284297000000000E+02      4.950867000000000E-01     -1.090391000000000E+02      4.948883000000000E-01     -6.307812000000000E+01
4871000000.000000      2.893372000000000E-01     -8.938671000000000E+01      4.864197000000000E-01      1.284062000000000E+02      4.949036000000000E-01     -1.090234000000000E+02      4.936981000000000E-01     -6.292187000000000E+01
4872000000.000000      2.948456000000000E-01     -8.933594000000000E+01      4.843292000000000E-01      1.280859000000000E+02      4.923553000000000E-01     -1.092031000000000E+02      4.924774000000000E-01     -6.275391000000000E+01
4873000000.000000      2.995758000000000E-01     -8.926561000000000E+01      4.815521000000000E-01      1.278828000000000E+02      4.904633000000000E-01     -1.091992000000000E+02      4.900970000000000E-01     -6.278906000000000E+01
4874000000.000000      3.043060000000000E-01     -8.928514000000000E+01      4.786835000000000E-01      1.276211000000000E+02      4.908752000000000E-01     -1.091602000000000E+02      4.885406000000000E-01     -6.249023000000000E+01
4875000000.000000      3.089447000000000E-01     -8.938280000000000E+01      4.759674000000000E-01      1.274609000000000E+02      4.896088000000000E-01     -1.093008000000000E+02      4.875488000000000E-01     -6.234375000000000E+01
4876000000.000000      3.128815000000000E-01     -8.927734000000000E+01      4.731445000000000E-01      1.272734000000000E+02      4.866791000000000E-01     -1.093320000000000E+02      4.867249000000000E-01     -6.235156000000000E+01
4877000000.000000      3.172760000000000E-01     -8.939844000000000E+01      4.703827000000000E-01      1.270703000000000E+02      4.857025000000000E-01     -1.094570000000000E+02      4.852905000000000E-01     -6.211132000000000E+01
4878000000.000000      3.209229000000000E-01     -8.955858000000000E+01      4.690094000000000E-01      1.269375000000000E+02      4.852142000000000E-01     -1.095000000000000E+02      4.839478000000000E-01     -6.194921000000000E+01
4879000000.000000      3.246460000000000E-01     -8.958202000000000E+01      4.633331000000000E-01      1.265781000000000E+02      4.818115000000000E-01     -1.095976000000000E+02      4.815521000000000E-01     -6.175781000000000E+01
4880000000.000000      3.281250000000000E-01     -8.974609000000000E+01      4.636536000000000E-01      1.264414000000000E+02      4.808197000000000E-01     -1.096016000000000E+02      4.802551000000000E-01     -6.137695000000000E+01
4881000000.000000      3.312531000000000E-01     -8.989452000000000E+01      4.609222000000000E-01      1.263398000000000E+02      4.792175000000000E-01     -1.098242000000000E+02      4.788971000000000E-01     -6.130664000000000E+01
4882000000.000000      3.335571000000000E-01     -8.998827000000000E+01      4.580383000000000E-01      1.261094000000000E+02      4.782257000000000E-01     -1.098516000000000E+02      4.777222000000000E-01     -6.107616000000000E+01
