! Network Analyzer HP8722D
! Hewlett-Packard
! Data name: Linha & Wilkinson
! Saver's name: Rodrigo Anjos
! Comments: Teste da utilização de aquisição
continua pelo VNA HP8722D
! Time and date: 15/4/2025 16:53
!              Frequency                     S11                                                   S21                                                   S12                                                   S22
# HZ  S  MA R 50
4800000000.000000      3.312988000000000E-01     -1.140703000000000E+02      2.841797000000000E-01     -6.075195000000000E+01      2.782135000000000E-01     -1.751172000000000E+02      6.545410000000000E-01     -8.961329000000000E+01
4801000000.000000      3.298950000000000E-01     -1.149180000000000E+02      2.897491000000000E-01     -6.099609000000000E+01      2.822418000000000E-01     -1.751094000000000E+02      6.531372000000000E-01     -8.970312000000000E+01
4802000000.000000      3.288269000000000E-01     -1.158984000000000E+02      2.941284000000000E-01     -6.094140000000000E+01      2.865143000000000E-01     -1.748437000000000E+02      6.511841000000000E-01     -8.963282000000000E+01
4803000000.000000      3.286285000000000E-01     -1.169062000000000E+02      2.989960000000000E-01     -6.118554000000000E+01      2.899475000000000E-01     -1.747109000000000E+02      6.503296000000000E-01     -8.989452000000000E+01
4804000000.000000      3.280487000000000E-01     -1.180273000000000E+02      3.027191000000000E-01     -6.113671000000000E+01      2.947540000000000E-01     -1.747890000000000E+02      6.508789000000000E-01     -8.995312000000000E+01
4805000000.000000      3.287506000000000E-01     -1.189453000000000E+02      3.073273000000000E-01     -6.133203000000000E+01      2.990875000000000E-01     -1.744766000000000E+02      6.493835000000000E-01     -9.005859000000000E+01
4806000000.000000      3.275604000000000E-01     -1.199101000000000E+02      3.121796000000000E-01     -6.142773000000000E+01      3.019714000000000E-01     -1.742656000000000E+02      6.495361000000000E-01     -9.031250000000000E+01
4807000000.000000      3.278351000000000E-01     -1.210469000000000E+02      3.167419000000000E-01     -6.160351000000000E+01      3.070679000000000E-01     -1.743594000000000E+02      6.486511000000000E-01     -9.027735000000000E+01
4808000000.000000      3.286743000000000E-01     -1.220195000000000E+02      3.215790000000000E-01     -6.157617000000000E+01      3.101349000000000E-01     -1.742656000000000E+02      6.482239000000000E-01     -9.041016000000000E+01
4809000000.000000      3.289490000000000E-01     -1.230586000000000E+02      3.261108000000000E-01     -6.209765000000000E+01      3.155975000000000E-01     -1.742578000000000E+02      6.476746000000000E-01     -9.052734000000000E+01
4810000000.000000      3.293610000000000E-01     -1.241758000000000E+02      3.304443000000000E-01     -6.197851000000000E+01      3.189392000000000E-01     -1.740859000000000E+02      6.478271000000000E-01     -9.057812000000000E+01
4811000000.000000      3.302765000000000E-01     -1.252539000000000E+02      3.347931000000000E-01     -6.231445000000000E+01      3.240356000000000E-01     -1.739531000000000E+02      6.465759000000000E-01     -9.057032000000000E+01
4812000000.000000      3.321075000000000E-01     -1.262500000000000E+02      3.387909000000000E-01     -6.248632000000000E+01      3.278351000000000E-01     -1.738594000000000E+02      6.466675000000000E-01     -9.061718000000000E+01
4813000000.000000      3.332214000000000E-01     -1.272617000000000E+02      3.426666000000000E-01     -6.272461000000000E+01      3.309174000000000E-01     -1.737656000000000E+02      6.466675000000000E-01     -9.074999000000000E+01
4814000000.000000      3.340912000000000E-01     -1.286094000000000E+02      3.473206000000000E-01     -6.276953000000000E+01      3.350525000000000E-01     -1.737500000000000E+02      6.466370000000000E-01     -9.089062000000000E+01
4815000000.000000      3.358612000000000E-01     -1.294688000000000E+02      3.520203000000000E-01     -6.295312000000000E+01      3.388519000000000E-01     -1.737109000000000E+02      6.465149000000000E-01     -9.083984000000000E+01
4816000000.000000      3.377533000000000E-01     -1.305781000000000E+02      3.559723000000000E-01     -6.320703000000000E+01      3.438721000000000E-01     -1.734844000000000E+02      6.463623000000000E-01     -9.101563000000000E+01
4817000000.000000      3.405609000000000E-01     -1.316328000000000E+02      3.604584000000000E-01     -6.350390000000000E+01      3.469696000000000E-01     -1.737187000000000E+02      6.463318000000000E-01     -9.110155000000000E+01
4818000000.000000      3.428955000000000E-01     -1.328125000000000E+02      3.629913000000000E-01     -6.370703000000000E+01      3.516235000000000E-01     -1.735547000000000E+02      6.463318000000000E-01     -9.124218000000000E+01
4819000000.000000      3.455353000000000E-01     -1.338672000000000E+02      3.669891000000000E-01     -6.393749000000000E+01      3.549805000000000E-01     -1.734844000000000E+02      6.478882000000000E-01     -9.135157000000000E+01
4820000000.000000      3.469391000000000E-01     -1.348828000000000E+02      3.712311000000000E-01     -6.410937000000000E+01      3.598175000000000E-01     -1.734141000000000E+02      6.486206000000000E-01     -9.139452000000000E+01
4821000000.000000      3.501587000000000E-01     -1.359609000000000E+02      3.759155000000000E-01     -6.451562000000000E+01      3.632050000000000E-01     -1.735937000000000E+02      6.486206000000000E-01     -9.150000000000000E+01
4822000000.000000      3.547516000000000E-01     -1.370000000000000E+02      3.786621000000000E-01     -6.466797000000000E+01      3.670044000000000E-01     -1.735859000000000E+02      6.502686000000000E-01     -9.143358000000000E+01
4823000000.000000      3.572083000000000E-01     -1.379922000000000E+02      3.835297000000000E-01     -6.498828000000000E+01      3.708954000000000E-01     -1.733594000000000E+02      6.504822000000000E-01     -9.162109000000000E+01
4824000000.000000      3.617249000000000E-01     -1.390781000000000E+02      3.862000000000000E-01     -6.530078000000000E+01      3.764191000000000E-01     -1.734453000000000E+02      6.520691000000000E-01     -9.173437000000000E+01
4825000000.000000      3.646393000000000E-01     -1.400547000000000E+02      3.901825000000000E-01     -6.538671000000000E+01      3.802032000000000E-01     -1.734297000000000E+02      6.531677000000000E-01     -9.173437000000000E+01
4826000000.000000      3.692932000000000E-01     -1.411328000000000E+02      3.944702000000000E-01     -6.582812000000000E+01      3.833160000000000E-01     -1.735078000000000E+02      6.546021000000000E-01     -9.180468000000000E+01
4827000000.000000      3.730011000000000E-01     -1.419062000000000E+02      3.976593000000000E-01     -6.580859000000000E+01      3.874664000000000E-01     -1.734219000000000E+02      6.555786000000000E-01     -9.188280000000000E+01
4828000000.000000      3.779449000000000E-01     -1.429219000000000E+02      4.028168000000000E-01     -6.628906000000000E+01      3.914337000000000E-01     -1.733438000000000E+02      6.567383000000000E-01     -9.199219000000000E+01
4829000000.000000      3.803558000000000E-01     -1.437969000000000E+02      4.047546000000000E-01     -6.661327000000000E+01      3.959351000000000E-01     -1.733828000000000E+02      6.585693000000000E-01     -9.194139000000000E+01
4830000000.000000      3.859100000000000E-01     -1.448359000000000E+02      4.083862000000000E-01     -6.698047000000000E+01      3.993683000000000E-01     -1.733828000000000E+02      6.594849000000000E-01     -9.207422000000000E+01
4831000000.000000      3.898315000000000E-01     -1.456719000000000E+02      4.121704000000000E-01     -6.718359000000000E+01      4.041443000000000E-01     -1.733516000000000E+02      6.621094000000000E-01     -9.216406000000000E+01
4832000000.000000      3.954773000000000E-01     -1.465703000000000E+02      4.163666000000000E-01     -6.743750000000000E+01      4.078217000000000E-01     -1.734375000000000E+02      6.631470000000000E-01     -9.224609000000000E+01
4833000000.000000      4.004059000000000E-01     -1.475391000000000E+02      4.189148000000000E-01     -6.767968000000000E+01      4.122620000000000E-01     -1.734766000000000E+02      6.640320000000000E-01     -9.237499000000000E+01
4834000000.000000      4.053955000000000E-01     -1.483281000000000E+02      4.227295000000000E-01     -6.794531000000000E+01      4.167938000000000E-01     -1.735312000000000E+02      6.658325000000000E-01     -9.235546000000000E+01
4835000000.000000      4.097290000000000E-01     -1.491562000000000E+02      4.260712000000000E-01     -6.842578000000000E+01      4.208374000000000E-01     -1.735547000000000E+02      6.687012000000000E-01     -9.237890000000000E+01
4836000000.000000      4.152985000000000E-01     -1.499687000000000E+02      4.289856000000000E-01     -6.871875000000000E+01      4.241028000000000E-01     -1.735156000000000E+02      6.693115000000000E-01     -9.235546000000000E+01
4837000000.000000      4.206696000000000E-01     -1.506719000000000E+02      4.320984000000000E-01     -6.916406000000000E+01      4.286499000000000E-01     -1.736953000000000E+02      6.721191000000000E-01     -9.252733000000000E+01
4838000000.000000      4.261627000000000E-01     -1.515938000000000E+02      4.361725000000000E-01     -6.913280000000000E+01      4.326477000000000E-01     -1.737109000000000E+02      6.735229000000000E-01     -9.260937000000000E+01
4839000000.000000      4.309235000000000E-01     -1.522500000000000E+02      4.385376000000000E-01     -6.950781000000000E+01      4.367981000000000E-01     -1.736406000000000E+02      6.769104000000000E-01     -9.256639000000000E+01
4840000000.000000      4.350586000000000E-01     -1.530625000000000E+02      4.408417000000000E-01     -6.973437000000000E+01      4.413605000000000E-01     -1.737969000000000E+02      6.779785000000000E-01     -9.267187000000000E+01
4841000000.000000      4.415588000000000E-01     -1.539219000000000E+02      4.444427000000000E-01     -7.017968000000000E+01      4.454956000000000E-01     -1.740625000000000E+02      6.805115000000000E-01     -9.284374000000000E+01
4842000000.000000      4.463959000000000E-01     -1.545156000000000E+02      4.486542000000000E-01     -7.056250000000000E+01      4.484253000000000E-01     -1.740469000000000E+02      6.828613000000000E-01     -9.275782000000000E+01
4843000000.000000      4.510956000000000E-01     -1.552813000000000E+02      4.503479000000000E-01     -7.094140000000000E+01      4.530182000000000E-01     -1.740156000000000E+02      6.849976000000000E-01     -9.283983000000000E+01
4844000000.000000      4.564362000000000E-01     -1.559375000000000E+02      4.531708000000000E-01     -7.119141000000000E+01      4.569397000000000E-01     -1.741953000000000E+02      6.890259000000000E-01     -9.290234000000000E+01
4845000000.000000      4.613342000000000E-01     -1.566562000000000E+02      4.562225000000000E-01     -7.153515000000000E+01      4.610596000000000E-01     -1.743125000000000E+02      6.903381000000000E-01     -9.287889000000000E+01
4846000000.000000      4.669647000000000E-01     -1.571875000000000E+02      4.589081000000000E-01     -7.176171000000000E+01      4.659576000000000E-01     -1.743359000000000E+02      6.929016000000000E-01     -9.301952000000000E+01
4847000000.000000      4.728088000000000E-01     -1.578750000000000E+02      4.617157000000000E-01     -7.216797000000000E+01      4.703217000000000E-01     -1.745391000000000E+02      6.966248000000000E-01     -9.309374000000000E+01
4848000000.000000      4.775391000000000E-01     -1.585000000000000E+02      4.642029000000000E-01     -7.224999000000000E+01      4.739990000000000E-01     -1.745781000000000E+02      6.982422000000000E-01     -9.312109000000000E+01
4849000000.000000      4.822845000000000E-01     -1.594063000000000E+02      4.662933000000000E-01     -7.289063000000000E+01      4.785156000000000E-01     -1.747734000000000E+02      7.014160000000000E-01     -9.313280000000000E+01
4850000000.000000      4.876251000000000E-01     -1.597734000000000E+02      4.692383000000000E-01     -7.312500000000000E+01      4.819031000000000E-01     -1.747578000000000E+02      7.046204000000000E-01     -9.316015000000000E+01
4851000000.000000      4.924622000000000E-01     -1.603828000000000E+02      4.729767000000000E-01     -7.348437000000000E+01      4.853821000000000E-01     -1.749609000000000E+02      7.073975000000000E-01     -9.316406000000000E+01
4852000000.000000      4.974670000000000E-01     -1.609609000000000E+02      4.746399000000000E-01     -7.378124000000000E+01      4.902496000000000E-01     -1.750625000000000E+02      7.109070000000000E-01     -9.335546000000000E+01
4853000000.000000      5.022888000000000E-01     -1.615156000000000E+02      4.748688000000000E-01     -7.410937000000000E+01      4.939880000000000E-01     -1.752734000000000E+02      7.128601000000000E-01     -9.344530000000000E+01
4854000000.000000      5.061646000000000E-01     -1.620859000000000E+02      4.791870000000000E-01     -7.463672000000000E+01      4.977417000000000E-01     -1.753828000000000E+02      7.159119000000000E-01     -9.338282000000000E+01
4855000000.000000      5.095520000000000E-01     -1.625703000000000E+02      4.797211000000000E-01     -7.472265000000000E+01      5.013428000000000E-01     -1.754844000000000E+02      7.180176000000000E-01     -9.332811000000000E+01
4856000000.000000      5.153198000000000E-01     -1.631641000000000E+02      4.818115000000000E-01     -7.497265000000000E+01      5.053101000000000E-01     -1.756641000000000E+02      7.220764000000000E-01     -9.348047000000000E+01
4857000000.000000      5.192871000000000E-01     -1.636562000000000E+02      4.847412000000000E-01     -7.547656000000000E+01      5.087280000000000E-01     -1.757187000000000E+02      7.238159000000000E-01     -9.347265000000000E+01
4858000000.000000      5.218201000000000E-01     -1.641719000000000E+02      4.857483000000000E-01     -7.571484000000000E+01      5.114136000000000E-01     -1.760547000000000E+02      7.271729000000000E-01     -9.355860000000000E+01
4859000000.000000      5.261536000000000E-01     -1.646328000000000E+02      4.884644000000000E-01     -7.600780000000000E+01      5.148926000000000E-01     -1.763515000000000E+02      7.312317000000000E-01     -9.369921000000000E+01
4860000000.000000      5.301514000000000E-01     -1.651562000000000E+02      4.913940000000000E-01     -7.625781000000000E+01      5.182800000000000E-01     -1.763281000000000E+02      7.326660000000000E-01     -9.355469000000000E+01
4861000000.000000      5.337524000000000E-01     -1.654375000000000E+02      4.921875000000000E-01     -7.675781000000000E+01      5.238953000000000E-01     -1.766172000000000E+02      7.361755000000000E-01     -9.382813000000000E+01
4862000000.000000      5.360718000000000E-01     -1.659609000000000E+02      4.953461000000000E-01     -7.675781000000000E+01      5.273132000000000E-01     -1.766875000000000E+02      7.403564000000000E-01     -9.365625000000000E+01
4863000000.000000      5.388489000000000E-01     -1.662969000000000E+02      4.952393000000000E-01     -7.743359000000000E+01      5.301514000000000E-01     -1.768906000000000E+02      7.425842000000000E-01     -9.379686000000000E+01
4864000000.000000      5.428162000000000E-01     -1.667266000000000E+02      4.970703000000000E-01     -7.764843000000000E+01      5.327759000000000E-01     -1.769766000000000E+02      7.454224000000000E-01     -9.386328000000000E+01
4865000000.000000      5.451660000000000E-01     -1.672500000000000E+02      4.977722000000000E-01     -7.775781000000000E+01      5.365906000000000E-01     -1.773125000000000E+02      7.487488000000000E-01     -9.370703000000000E+01
4866000000.000000      5.462341000000000E-01     -1.675390000000000E+02      4.998322000000000E-01     -7.810937000000000E+01      5.398254000000000E-01     -1.774062000000000E+02      7.508545000000000E-01     -9.375391000000000E+01
4867000000.000000      5.498352000000000E-01     -1.678750000000000E+02      5.011597000000000E-01     -7.844921000000000E+01      5.427246000000000E-01     -1.777109000000000E+02      7.535400000000000E-01     -9.386328000000000E+01
4868000000.000000      5.526123000000000E-01     -1.683437000000000E+02      5.031738000000000E-01     -7.883984000000000E+01      5.462952000000000E-01     -1.778125000000000E+02      7.562561000000000E-01     -9.389452000000000E+01
4869000000.000000      5.530701000000000E-01     -1.686953000000000E+02      5.032959000000000E-01     -7.896874000000000E+01      5.498352000000000E-01     -1.780703000000000E+02      7.595520000000000E-01     -9.407812000000000E+01
4870000000.000000      5.551453000000000E-01     -1.688984000000000E+02      5.058899000000000E-01     -7.910937000000000E+01      5.524292000000000E-01     -1.782656000000000E+02      7.618408000000000E-01     -9.397655000000000E+01
4871000000.000000      5.573120000000000E-01     -1.693047000000000E+02      5.073242000000000E-01     -7.949219000000000E+01      5.546875000000000E-01     -1.784531000000000E+02      7.638855000000000E-01     -9.413671000000000E+01
4872000000.000000      5.597229000000000E-01     -1.694297000000000E+02      5.055847000000000E-01     -7.962891000000000E+01      5.580139000000000E-01     -1.787656000000000E+02      7.670898000000000E-01     -9.411327000000000E+01
4873000000.000000      5.604248000000000E-01     -1.697187000000000E+02      5.083008000000000E-01     -7.989843000000000E+01      5.602112000000000E-01     -1.788828000000000E+02      7.698059000000000E-01     -9.422655000000000E+01
4874000000.000000      5.607910000000000E-01     -1.699922000000000E+02      5.090637000000000E-01     -8.022264000000000E+01      5.629272000000000E-01     -1.792656000000000E+02      7.699585000000000E-01     -9.405468000000000E+01
4875000000.000000      5.632324000000000E-01     -1.702891000000000E+02      5.106812000000000E-01     -8.046875000000000E+01      5.651245000000000E-01     -1.792969000000000E+02      7.740173000000000E-01     -9.433985000000000E+01
4876000000.000000      5.627747000000000E-01     -1.705312000000000E+02      5.109863000000000E-01     -8.067577000000000E+01      5.661316000000000E-01     -1.794922000000000E+02      7.777405000000000E-01     -9.423046000000000E+01
4877000000.000000      5.636902000000000E-01     -1.706328000000000E+02      5.115967000000000E-01     -8.088671000000000E+01      5.698853000000000E-01     -1.799141000000000E+02      7.787476000000000E-01     -9.436327000000000E+01
4878000000.000000      5.644226000000000E-01     -1.707813000000000E+02      5.144958000000000E-01     -8.107422000000000E+01      5.722656000000000E-01      1.799922000000000E+02      7.817688000000000E-01     -9.448046000000000E+01
4879000000.000000      5.656433000000000E-01     -1.710625000000000E+02      5.156250000000000E-01     -8.118750000000000E+01      5.731812000000000E-01      1.798047000000000E+02      7.844543000000000E-01     -9.425781000000000E+01
4880000000.000000      5.639343000000000E-01     -1.712422000000000E+02      5.163879000000000E-01     -8.147655000000000E+01      5.769958000000000E-01      1.795391000000000E+02      7.861023000000000E-01     -9.446093000000000E+01
4881000000.000000      5.663452000000000E-01     -1.712656000000000E+02      5.170593000000000E-01     -8.157421000000000E+01      5.789185000000000E-01      1.792109000000000E+02      7.878723000000000E-01     -9.456640000000000E+01
4882000000.000000      5.648804000000000E-01     -1.714375000000000E+02      5.178833000000000E-01     -8.184374000000000E+01      5.812073000000000E-01      1.791328000000000E+02      7.887878000000000E-01     -9.455858000000000E+01
