! Network Analyzer HP8722D
! Hewlett-Packard
! Data name: Linha & Wilkinson
! Saver's name: Rodrigo Anjos
! Comments: Teste da utilização de aquisição
continua pelo VNA HP8722D
! Time and date: 15/4/2025 17:08
!              Frequency                     S11                                                   S21                                                   S12                                                   S22
# HZ  S  MA R 50
4800000000.000000      3.303833000000000E-01     -1.136797000000000E+02      2.815552000000000E-01     -6.083789000000000E+01      2.751312000000000E-01     -1.750156000000000E+02      6.539001000000000E-01     -8.944921000000000E+01
4801000000.000000      3.293152000000000E-01     -1.145703000000000E+02      2.865143000000000E-01     -6.073047000000000E+01      2.783508000000000E-01     -1.748750000000000E+02      6.536255000000000E-01     -8.944139000000000E+01
4802000000.000000      3.284302000000000E-01     -1.155586000000000E+02      2.905273000000000E-01     -6.074413000000000E+01      2.833862000000000E-01     -1.746797000000000E+02      6.516724000000000E-01     -8.949610000000000E+01
4803000000.000000      3.278961000000000E-01     -1.165117000000000E+02      2.959442000000000E-01     -6.078906000000000E+01      2.869263000000000E-01     -1.745937000000000E+02      6.507874000000000E-01     -8.968359000000000E+01
4804000000.000000      3.276978000000000E-01     -1.176250000000000E+02      3.004456000000000E-01     -6.104882000000000E+01      2.922211000000000E-01     -1.745391000000000E+02      6.501160000000000E-01     -8.980860000000000E+01
4805000000.000000      3.281250000000000E-01     -1.185352000000000E+02      3.050995000000000E-01     -6.114062000000000E+01      2.956696000000000E-01     -1.742891000000000E+02      6.508179000000000E-01     -8.996094000000000E+01
4806000000.000000      3.269806000000000E-01     -1.195078000000000E+02      3.095398000000000E-01     -6.122460000000000E+01      2.984009000000000E-01     -1.739922000000000E+02      6.497192000000000E-01     -9.006639000000000E+01
4807000000.000000      3.272705000000000E-01     -1.205781000000000E+02      3.133850000000000E-01     -6.122851000000000E+01      3.040161000000000E-01     -1.741719000000000E+02      6.476135000000000E-01     -8.994141000000000E+01
4808000000.000000      3.277130000000000E-01     -1.214414000000000E+02      3.190155000000000E-01     -6.140234000000000E+01      3.075714000000000E-01     -1.740156000000000E+02      6.475830000000000E-01     -9.004297000000000E+01
4809000000.000000      3.281097000000000E-01     -1.226680000000000E+02      3.228760000000000E-01     -6.181054000000000E+01      3.125458000000000E-01     -1.739844000000000E+02      6.482239000000000E-01     -9.032030000000000E+01
4810000000.000000      3.289642000000000E-01     -1.237695000000000E+02      3.274689000000000E-01     -6.166797000000000E+01      3.159485000000000E-01     -1.738906000000000E+02      6.473999000000000E-01     -9.045702000000000E+01
4811000000.000000      3.297577000000000E-01     -1.248398000000000E+02      3.318787000000000E-01     -6.214062000000000E+01      3.209076000000000E-01     -1.737813000000000E+02      6.469116000000000E-01     -9.038280000000000E+01
4812000000.000000      3.311920000000000E-01     -1.258047000000000E+02      3.363190000000000E-01     -6.224999000000000E+01      3.252258000000000E-01     -1.736719000000000E+02      6.470337000000000E-01     -9.054688000000000E+01
4813000000.000000      3.323975000000000E-01     -1.268945000000000E+02      3.400726000000000E-01     -6.241601000000000E+01      3.280792000000000E-01     -1.734844000000000E+02      6.468811000000000E-01     -9.049999000000000E+01
4814000000.000000      3.329163000000000E-01     -1.281719000000000E+02      3.444672000000000E-01     -6.265038000000000E+01      3.324280000000000E-01     -1.734844000000000E+02      6.452332000000000E-01     -9.066015000000000E+01
4815000000.000000      3.346863000000000E-01     -1.291406000000000E+02      3.481750000000000E-01     -6.280273000000000E+01      3.367615000000000E-01     -1.733984000000000E+02      6.459961000000000E-01     -9.073046000000000E+01
4816000000.000000      3.369751000000000E-01     -1.301953000000000E+02      3.528900000000000E-01     -6.298242000000000E+01      3.418884000000000E-01     -1.733125000000000E+02      6.471558000000000E-01     -9.083202000000000E+01
4817000000.000000      3.395233000000000E-01     -1.312344000000000E+02      3.570099000000000E-01     -6.322266000000000E+01      3.447723000000000E-01     -1.734609000000000E+02      6.459961000000000E-01     -9.095703000000000E+01
4818000000.000000      3.412933000000000E-01     -1.323984000000000E+02      3.606110000000000E-01     -6.335546000000000E+01      3.491211000000000E-01     -1.733047000000000E+02      6.461487000000000E-01     -9.104296000000000E+01
4819000000.000000      3.446198000000000E-01     -1.334297000000000E+02      3.643646000000000E-01     -6.356054000000000E+01      3.522797000000000E-01     -1.732500000000000E+02      6.480103000000000E-01     -9.117188000000000E+01
4820000000.000000      3.461151000000000E-01     -1.345078000000000E+02      3.682404000000000E-01     -6.381445000000000E+01      3.573608000000000E-01     -1.731562000000000E+02      6.479492000000000E-01     -9.117188000000000E+01
4821000000.000000      3.497467000000000E-01     -1.355781000000000E+02      3.729401000000000E-01     -6.419922000000000E+01      3.607178000000000E-01     -1.733438000000000E+02      6.472778000000000E-01     -9.132813000000000E+01
4822000000.000000      3.537445000000000E-01     -1.365781000000000E+02      3.764954000000000E-01     -6.429688000000000E+01      3.649292000000000E-01     -1.732422000000000E+02      6.502686000000000E-01     -9.139843000000000E+01
4823000000.000000      3.561249000000000E-01     -1.375469000000000E+02      3.805389000000000E-01     -6.468359000000000E+01      3.686523000000000E-01     -1.730547000000000E+02      6.501160000000000E-01     -9.135546000000000E+01
4824000000.000000      3.602142000000000E-01     -1.387187000000000E+02      3.847046000000000E-01     -6.497265000000000E+01      3.734741000000000E-01     -1.731484000000000E+02      6.520386000000000E-01     -9.150391000000000E+01
4825000000.000000      3.636322000000000E-01     -1.396172000000000E+02      3.874664000000000E-01     -6.510937000000000E+01      3.781281000000000E-01     -1.730469000000000E+02      6.532898000000000E-01     -9.157030000000000E+01
4826000000.000000      3.680115000000000E-01     -1.406172000000000E+02      3.915253000000000E-01     -6.549609000000000E+01      3.807373000000000E-01     -1.732109000000000E+02      6.534119000000000E-01     -9.173046000000000E+01
4827000000.000000      3.719025000000000E-01     -1.414687000000000E+02      3.953857000000000E-01     -6.549609000000000E+01      3.848114000000000E-01     -1.731172000000000E+02      6.542969000000000E-01     -9.167187000000000E+01
4828000000.000000      3.767395000000000E-01     -1.424922000000000E+02      3.997040000000000E-01     -6.601563000000000E+01      3.891754000000000E-01     -1.730234000000000E+02      6.573792000000000E-01     -9.175390000000000E+01
4829000000.000000      3.791809000000000E-01     -1.433984000000000E+02      4.024811000000000E-01     -6.631640000000000E+01      3.930511000000000E-01     -1.730547000000000E+02      6.589661000000000E-01     -9.165625000000000E+01
4830000000.000000      3.846283000000000E-01     -1.443672000000000E+02      4.058075000000000E-01     -6.660937000000000E+01      3.983002000000000E-01     -1.730625000000000E+02      6.593018000000000E-01     -9.188671000000000E+01
4831000000.000000      3.883209000000000E-01     -1.452031000000000E+02      4.095764000000000E-01     -6.698047000000000E+01      4.021454000000000E-01     -1.730625000000000E+02      6.606750000000000E-01     -9.193750000000000E+01
4832000000.000000      3.943176000000000E-01     -1.461328000000000E+02      4.145966000000000E-01     -6.709765000000000E+01      4.058533000000000E-01     -1.731250000000000E+02      6.622925000000000E-01     -9.212891000000000E+01
4833000000.000000      3.990021000000000E-01     -1.471797000000000E+02      4.173584000000000E-01     -6.738281000000000E+01      4.099274000000000E-01     -1.731016000000000E+02      6.652832000000000E-01     -9.213671000000000E+01
4834000000.000000      4.038849000000000E-01     -1.479531000000000E+02      4.198608000000000E-01     -6.774219000000000E+01      4.145660000000000E-01     -1.731875000000000E+02      6.651306000000000E-01     -9.217188000000000E+01
4835000000.000000      4.080048000000000E-01     -1.487266000000000E+02      4.239197000000000E-01     -6.804296000000000E+01      4.185791000000000E-01     -1.731875000000000E+02      6.683350000000000E-01     -9.226171000000000E+01
4836000000.000000      4.144592000000000E-01     -1.495312000000000E+02      4.277649000000000E-01     -6.825000000000000E+01      4.220581000000000E-01     -1.732031000000000E+02      6.689758000000000E-01     -9.224609000000000E+01
4837000000.000000      4.194489000000000E-01     -1.502891000000000E+02      4.308929000000000E-01     -6.873828000000000E+01      4.260559000000000E-01     -1.733828000000000E+02      6.712952000000000E-01     -9.234375000000000E+01
4838000000.000000      4.248047000000000E-01     -1.511719000000000E+02      4.337769000000000E-01     -6.891015000000000E+01      4.309082000000000E-01     -1.733594000000000E+02      6.744690000000000E-01     -9.240234000000000E+01
4839000000.000000      4.297943000000000E-01     -1.518203000000000E+02      4.366302000000000E-01     -6.919922000000000E+01      4.351654000000000E-01     -1.733906000000000E+02      6.752319000000000E-01     -9.234766000000000E+01
4840000000.000000      4.338379000000000E-01     -1.526719000000000E+02      4.398193000000000E-01     -6.946094000000000E+01      4.387207000000000E-01     -1.734844000000000E+02      6.784973000000000E-01     -9.253515000000000E+01
4841000000.000000      4.401398000000000E-01     -1.534922000000000E+02      4.427948000000000E-01     -7.001953000000000E+01      4.437103000000000E-01     -1.736406000000000E+02      6.817017000000000E-01     -9.249609000000000E+01
4842000000.000000      4.455109000000000E-01     -1.541250000000000E+02      4.452820000000000E-01     -7.014843000000000E+01      4.466705000000000E-01     -1.736094000000000E+02      6.830139000000000E-01     -9.253515000000000E+01
4843000000.000000      4.502411000000000E-01     -1.549219000000000E+02      4.490509000000000E-01     -7.067968000000000E+01      4.509583000000000E-01     -1.737500000000000E+02      6.858826000000000E-01     -9.264843000000000E+01
4844000000.000000      4.557037000000000E-01     -1.555781000000000E+02      4.514465000000000E-01     -7.075000000000000E+01      4.550629000000000E-01     -1.738906000000000E+02      6.891174000000000E-01     -9.275000000000000E+01
4845000000.000000      4.604645000000000E-01     -1.561953000000000E+02      4.548187000000000E-01     -7.122656000000000E+01      4.598389000000000E-01     -1.739375000000000E+02      6.909180000000000E-01     -9.275000000000000E+01
4846000000.000000      4.654694000000000E-01     -1.568203000000000E+02      4.572601000000000E-01     -7.153515000000000E+01      4.646149000000000E-01     -1.739297000000000E+02      6.926575000000000E-01     -9.268749000000000E+01
4847000000.000000      4.720306000000000E-01     -1.575391000000000E+02      4.599152000000000E-01     -7.167187000000000E+01      4.679871000000000E-01     -1.741797000000000E+02      6.970520000000000E-01     -9.293360000000000E+01
4848000000.000000      4.766998000000000E-01     -1.581016000000000E+02      4.623566000000000E-01     -7.200000000000000E+01      4.723511000000000E-01     -1.741953000000000E+02      6.987000000000000E-01     -9.289063000000000E+01
4849000000.000000      4.817657000000000E-01     -1.589844000000000E+02      4.647064000000000E-01     -7.250390000000000E+01      4.768982000000000E-01     -1.744219000000000E+02      7.014465000000000E-01     -9.287109000000000E+01
4850000000.000000      4.863892000000000E-01     -1.593516000000000E+02      4.680023000000000E-01     -7.279297000000000E+01      4.804993000000000E-01     -1.744453000000000E+02      7.038879000000000E-01     -9.294922000000000E+01
4851000000.000000      4.916992000000000E-01     -1.599609000000000E+02      4.705200000000000E-01     -7.331249000000000E+01      4.840393000000000E-01     -1.745703000000000E+02      7.073364000000000E-01     -9.296875000000000E+01
4852000000.000000      4.964294000000000E-01     -1.605547000000000E+02      4.731903000000000E-01     -7.334374000000000E+01      4.880981000000000E-01     -1.747187000000000E+02      7.088928000000000E-01     -9.306250000000000E+01
4853000000.000000      5.011597000000000E-01     -1.611328000000000E+02      4.730682000000000E-01     -7.367578000000000E+01      4.928589000000000E-01     -1.748828000000000E+02      7.121277000000000E-01     -9.317968000000000E+01
4854000000.000000      5.054321000000000E-01     -1.616406000000000E+02      4.768677000000000E-01     -7.424218000000000E+01      4.959259000000000E-01     -1.750547000000000E+02      7.161865000000000E-01     -9.314844000000000E+01
4855000000.000000      5.087891000000000E-01     -1.622422000000000E+02      4.785767000000000E-01     -7.446484000000000E+01      5.000610000000000E-01     -1.751562000000000E+02      7.169800000000000E-01     -9.320313000000000E+01
4856000000.000000      5.146179000000000E-01     -1.626406000000000E+02      4.805908000000000E-01     -7.472656000000000E+01      5.043640000000000E-01     -1.752500000000000E+02      7.208862000000000E-01     -9.329687000000000E+01
4857000000.000000      5.185242000000000E-01     -1.632500000000000E+02      4.842072000000000E-01     -7.506640000000000E+01      5.083923000000000E-01     -1.755156000000000E+02      7.241821000000000E-01     -9.334764000000000E+01
4858000000.000000      5.207520000000000E-01     -1.637109000000000E+02      4.848022000000000E-01     -7.536718000000000E+01      5.105591000000000E-01     -1.756641000000000E+02      7.267151000000000E-01     -9.331640000000000E+01
4859000000.000000      5.252075000000000E-01     -1.642422000000000E+02      4.878082000000000E-01     -7.573828000000000E+01      5.143738000000000E-01     -1.759063000000000E+02      7.296143000000000E-01     -9.342968000000000E+01
4860000000.000000      5.297546000000000E-01     -1.647500000000000E+02      4.896545000000000E-01     -7.587500000000000E+01      5.183411000000000E-01     -1.758906000000000E+02      7.336731000000000E-01     -9.337500000000000E+01
4861000000.000000      5.331116000000000E-01     -1.650469000000000E+02      4.912262000000000E-01     -7.638281000000000E+01      5.236206000000000E-01     -1.761250000000000E+02      7.358093000000000E-01     -9.351563000000000E+01
4862000000.000000      5.366211000000000E-01     -1.655547000000000E+02      4.941101000000000E-01     -7.658203000000000E+01      5.271912000000000E-01     -1.762031000000000E+02      7.396240000000000E-01     -9.345312000000000E+01
4863000000.000000      5.387573000000000E-01     -1.659453000000000E+02      4.932556000000000E-01     -7.706640000000000E+01      5.304871000000000E-01     -1.764766000000000E+02      7.429504000000000E-01     -9.350000000000000E+01
4864000000.000000      5.422668000000000E-01     -1.663359000000000E+02      4.967957000000000E-01     -7.715625000000000E+01      5.318298000000000E-01     -1.767812000000000E+02      7.453918000000000E-01     -9.363672000000000E+01
4865000000.000000      5.445557000000000E-01     -1.668750000000000E+02      4.970398000000000E-01     -7.749609000000000E+01      5.357361000000000E-01     -1.768594000000000E+02      7.477722000000000E-01     -9.354687000000000E+01
4866000000.000000      5.468140000000000E-01     -1.670703000000000E+02      4.981384000000000E-01     -7.776562000000000E+01      5.402832000000000E-01     -1.771094000000000E+02      7.507324000000000E-01     -9.366014000000000E+01
4867000000.000000      5.487671000000000E-01     -1.674844000000000E+02      4.996643000000000E-01     -7.812890000000000E+01      5.417175000000000E-01     -1.773359000000000E+02      7.549133000000000E-01     -9.366405000000000E+01
4868000000.000000      5.523987000000000E-01     -1.679688000000000E+02      5.021667000000000E-01     -7.833202000000000E+01      5.460510000000000E-01     -1.775469000000000E+02      7.565918000000000E-01     -9.370703000000000E+01
4869000000.000000      5.539246000000000E-01     -1.682109000000000E+02      5.016785000000000E-01     -7.859765000000000E+01      5.484924000000000E-01     -1.777812000000000E+02      7.601013000000000E-01     -9.385546000000000E+01
4870000000.000000      5.557251000000000E-01     -1.685859000000000E+02      5.036926000000000E-01     -7.878124000000000E+01      5.504456000000000E-01     -1.779922000000000E+02      7.617188000000000E-01     -9.373827000000000E+01
4871000000.000000      5.575867000000000E-01     -1.688594000000000E+02      5.062866000000000E-01     -7.913671000000000E+01      5.538940000000000E-01     -1.781875000000000E+02      7.641296000000000E-01     -9.392187000000000E+01
4872000000.000000      5.598450000000000E-01     -1.691250000000000E+02      5.065613000000000E-01     -7.935156000000000E+01      5.564575000000000E-01     -1.785000000000000E+02      7.673340000000000E-01     -9.388281000000000E+01
4873000000.000000      5.606995000000000E-01     -1.693438000000000E+02      5.079346000000000E-01     -7.970703000000000E+01      5.587158000000000E-01     -1.785391000000000E+02      7.681580000000000E-01     -9.400391000000000E+01
4874000000.000000      5.610962000000000E-01     -1.695703000000000E+02      5.086060000000000E-01     -8.000000000000000E+01      5.631104000000000E-01     -1.789297000000000E+02      7.720642000000000E-01     -9.382421000000000E+01
4875000000.000000      5.641174000000000E-01     -1.698828000000000E+02      5.098267000000000E-01     -8.013281000000000E+01      5.648193000000000E-01     -1.789531000000000E+02      7.728271000000000E-01     -9.403124000000000E+01
4876000000.000000      5.623779000000000E-01     -1.701250000000000E+02      5.113831000000000E-01     -8.050390000000000E+01      5.656433000000000E-01     -1.792812000000000E+02      7.770996000000000E-01     -9.402735000000000E+01
4877000000.000000      5.640564000000000E-01     -1.703047000000000E+02      5.122986000000000E-01     -8.058203000000000E+01      5.694885000000000E-01     -1.795000000000000E+02      7.784119000000000E-01     -9.423046000000000E+01
4878000000.000000      5.645752000000000E-01     -1.704922000000000E+02      5.140991000000000E-01     -8.062891000000000E+01      5.705566000000000E-01     -1.796719000000000E+02      7.816162000000000E-01     -9.421875000000000E+01
4879000000.000000      5.668335000000000E-01     -1.706719000000000E+02      5.136108000000000E-01     -8.106640000000000E+01      5.733948000000000E-01     -1.799766000000000E+02      7.822266000000000E-01     -9.417578000000000E+01
4880000000.000000      5.650635000000000E-01     -1.708203000000000E+02      5.150146000000000E-01     -8.140234000000000E+01      5.766602000000000E-01      1.799453000000000E+02      7.865906000000000E-01     -9.419922000000000E+01
4881000000.000000      5.659790000000000E-01     -1.708984000000000E+02      5.169983000000000E-01     -8.125391000000000E+01      5.780945000000000E-01      1.795703000000000E+02      7.878113000000000E-01     -9.424608000000000E+01
4882000000.000000      5.653381000000000E-01     -1.711016000000000E+02      5.174255000000000E-01     -8.159765000000000E+01      5.796814000000000E-01      1.795312000000000E+02      7.898560000000000E-01     -9.436327000000000E+01
