! Network Analyzer HP8722D
! Hewlett-Packard
! Data name: Linha & Wilkinson
! Saver's name: Rodrigo Anjos
! Comments: Teste da utilização de aquisição
continua pelo VNA HP8722D
! Time and date: 15/4/2025 17:00
!              Frequency                     S11                                                   S21                                                   S12                                                   S22
# HZ  S  MA R 50
4800000000.000000      3.308105000000000E-01     -1.137422000000000E+02      2.831268000000000E-01     -6.076172000000000E+01      2.761536000000000E-01     -1.749922000000000E+02      6.540833000000000E-01     -8.953125000000000E+01
4801000000.000000      3.297119000000000E-01     -1.147070000000000E+02      2.880249000000000E-01     -6.083202000000000E+01      2.795715000000000E-01     -1.748672000000000E+02      6.529846000000000E-01     -8.958593000000000E+01
4802000000.000000      3.289185000000000E-01     -1.156406000000000E+02      2.915192000000000E-01     -6.079883000000000E+01      2.852783000000000E-01     -1.746953000000000E+02      6.510925000000000E-01     -8.954687000000000E+01
4803000000.000000      3.284302000000000E-01     -1.167344000000000E+02      2.976837000000000E-01     -6.101953000000000E+01      2.883453000000000E-01     -1.746172000000000E+02      6.517944000000000E-01     -8.974218000000000E+01
4804000000.000000      3.278198000000000E-01     -1.177578000000000E+02      3.016357000000000E-01     -6.091210000000000E+01      2.923889000000000E-01     -1.746719000000000E+02      6.495361000000000E-01     -8.983593000000000E+01
4805000000.000000      3.277893000000000E-01     -1.186953000000000E+02      3.056793000000000E-01     -6.123632000000000E+01      2.970428000000000E-01     -1.742656000000000E+02      6.491394000000000E-01     -8.999218000000000E+01
4806000000.000000      3.271027000000000E-01     -1.197422000000000E+02      3.102264000000000E-01     -6.124218000000000E+01      3.001862000000000E-01     -1.740703000000000E+02      6.488953000000000E-01     -9.008984000000000E+01
4807000000.000000      3.277130000000000E-01     -1.208242000000000E+02      3.152618000000000E-01     -6.152344000000000E+01      3.050079000000000E-01     -1.741875000000000E+02      6.477966000000000E-01     -9.021484000000000E+01
4808000000.000000      3.275604000000000E-01     -1.217109000000000E+02      3.196716000000000E-01     -6.148632000000000E+01      3.086853000000000E-01     -1.740234000000000E+02      6.469421000000000E-01     -9.024609000000000E+01
4809000000.000000      3.275452000000000E-01     -1.228320000000000E+02      3.238068000000000E-01     -6.192383000000000E+01      3.135529000000000E-01     -1.740391000000000E+02      6.472168000000000E-01     -9.044922000000000E+01
4810000000.000000      3.291473000000000E-01     -1.239609000000000E+02      3.287811000000000E-01     -6.198632000000000E+01      3.174591000000000E-01     -1.739063000000000E+02      6.476440000000000E-01     -9.044531000000000E+01
4811000000.000000      3.297729000000000E-01     -1.250117000000000E+02      3.325195000000000E-01     -6.222656000000000E+01      3.217163000000000E-01     -1.737500000000000E+02      6.460876000000000E-01     -9.045313000000000E+01
4812000000.000000      3.316650000000000E-01     -1.259414000000000E+02      3.367004000000000E-01     -6.238476000000000E+01      3.261108000000000E-01     -1.737813000000000E+02      6.464539000000000E-01     -9.058203000000000E+01
4813000000.000000      3.321228000000000E-01     -1.270039000000000E+02      3.415985000000000E-01     -6.246288000000000E+01      3.290558000000000E-01     -1.734922000000000E+02      6.464233000000000E-01     -9.058203000000000E+01
4814000000.000000      3.332214000000000E-01     -1.283281000000000E+02      3.459930000000000E-01     -6.271289000000000E+01      3.331451000000000E-01     -1.737656000000000E+02      6.460876000000000E-01     -9.074610000000000E+01
4815000000.000000      3.348846000000000E-01     -1.292344000000000E+02      3.491364000000000E-01     -6.280273000000000E+01      3.375092000000000E-01     -1.736172000000000E+02      6.458130000000000E-01     -9.080858000000000E+01
4816000000.000000      3.374023000000000E-01     -1.303906000000000E+02      3.540802000000000E-01     -6.300390000000000E+01      3.424988000000000E-01     -1.733203000000000E+02      6.460266000000000E-01     -9.083984000000000E+01
4817000000.000000      3.399658000000000E-01     -1.313750000000000E+02      3.580322000000000E-01     -6.330078000000000E+01      3.451538000000000E-01     -1.734531000000000E+02      6.463013000000000E-01     -9.098047000000000E+01
4818000000.000000      3.419952000000000E-01     -1.325234000000000E+02      3.614197000000000E-01     -6.356054000000000E+01      3.496857000000000E-01     -1.733906000000000E+02      6.465149000000000E-01     -9.111328000000000E+01
4819000000.000000      3.448029000000000E-01     -1.335938000000000E+02      3.656006000000000E-01     -6.386328000000000E+01      3.533325000000000E-01     -1.733828000000000E+02      6.482849000000000E-01     -9.121094000000000E+01
4820000000.000000      3.462982000000000E-01     -1.346094000000000E+02      3.696899000000000E-01     -6.388476000000000E+01      3.584290000000000E-01     -1.733594000000000E+02      6.481934000000000E-01     -9.115234000000000E+01
4821000000.000000      3.495636000000000E-01     -1.357656000000000E+02      3.737335000000000E-01     -6.435937000000000E+01      3.618164000000000E-01     -1.734766000000000E+02      6.482544000000000E-01     -9.137890000000000E+01
4822000000.000000      3.541412000000000E-01     -1.367891000000000E+02      3.775482000000000E-01     -6.443749000000000E+01      3.653717000000000E-01     -1.733906000000000E+02      6.495972000000000E-01     -9.142969000000000E+01
4823000000.000000      3.564301000000000E-01     -1.377031000000000E+02      3.822632000000000E-01     -6.484375000000000E+01      3.692932000000000E-01     -1.731719000000000E+02      6.503601000000000E-01     -9.146484000000000E+01
4824000000.000000      3.606262000000000E-01     -1.388203000000000E+02      3.856354000000000E-01     -6.512500000000000E+01      3.746338000000000E-01     -1.731250000000000E+02      6.520081000000000E-01     -9.160156000000000E+01
4825000000.000000      3.636475000000000E-01     -1.397578000000000E+02      3.884277000000000E-01     -6.527344000000000E+01      3.787994000000000E-01     -1.731797000000000E+02      6.528320000000000E-01     -9.158983000000000E+01
4826000000.000000      3.683167000000000E-01     -1.408437000000000E+02      3.927002000000000E-01     -6.566406000000000E+01      3.815308000000000E-01     -1.732734000000000E+02      6.534119000000000E-01     -9.171875000000000E+01
4827000000.000000      3.720093000000000E-01     -1.417031000000000E+02      3.961029000000000E-01     -6.566406000000000E+01      3.856964000000000E-01     -1.731875000000000E+02      6.544800000000000E-01     -9.174219000000000E+01
4828000000.000000      3.768463000000000E-01     -1.426875000000000E+02      4.012299000000000E-01     -6.606250000000000E+01      3.896027000000000E-01     -1.732422000000000E+02      6.577454000000000E-01     -9.179688000000000E+01
4829000000.000000      3.796082000000000E-01     -1.435469000000000E+02      4.033813000000000E-01     -6.632030000000000E+01      3.938904000000000E-01     -1.731797000000000E+02      6.581116000000000E-01     -9.185547000000000E+01
4830000000.000000      3.850555000000000E-01     -1.445234000000000E+02      4.075775000000000E-01     -6.657812000000000E+01      3.987579000000000E-01     -1.731172000000000E+02      6.587830000000000E-01     -9.196484000000000E+01
4831000000.000000      3.888702000000000E-01     -1.454062000000000E+02      4.106140000000000E-01     -6.712109000000000E+01      4.029541000000000E-01     -1.731016000000000E+02      6.615601000000000E-01     -9.208202000000000E+01
4832000000.000000      3.949280000000000E-01     -1.463047000000000E+02      4.148560000000000E-01     -6.710938000000000E+01      4.062805000000000E-01     -1.732344000000000E+02      6.630249000000000E-01     -9.211718000000000E+01
4833000000.000000      3.997955000000000E-01     -1.472656000000000E+02      4.191589000000000E-01     -6.752343000000000E+01      4.106140000000000E-01     -1.733516000000000E+02      6.641846000000000E-01     -9.220312000000000E+01
4834000000.000000      4.042664000000000E-01     -1.481172000000000E+02      4.210052000000000E-01     -6.785937000000000E+01      4.146881000000000E-01     -1.733594000000000E+02      6.660156000000000E-01     -9.220312000000000E+01
4835000000.000000      4.085083000000000E-01     -1.489141000000000E+02      4.248352000000000E-01     -6.815234000000000E+01      4.193878000000000E-01     -1.733281000000000E+02      6.681519000000000E-01     -9.229687000000000E+01
4836000000.000000      4.143829000000000E-01     -1.496719000000000E+02      4.284058000000000E-01     -6.827343000000000E+01      4.230194000000000E-01     -1.732891000000000E+02      6.691589000000000E-01     -9.233202000000000E+01
4837000000.000000      4.199371000000000E-01     -1.504844000000000E+02      4.306488000000000E-01     -6.893359000000000E+01      4.269257000000000E-01     -1.735078000000000E+02      6.702271000000000E-01     -9.228516000000000E+01
4838000000.000000      4.252777000000000E-01     -1.513359000000000E+02      4.349518000000000E-01     -6.903125000000000E+01      4.317780000000000E-01     -1.735078000000000E+02      6.741028000000000E-01     -9.242579000000000E+01
4839000000.000000      4.300995000000000E-01     -1.520313000000000E+02      4.369507000000000E-01     -6.941406000000000E+01      4.360504000000000E-01     -1.734375000000000E+02      6.762695000000000E-01     -9.242188000000000E+01
4840000000.000000      4.349213000000000E-01     -1.528594000000000E+02      4.403381000000000E-01     -6.961719000000000E+01      4.398956000000000E-01     -1.736875000000000E+02      6.790161000000000E-01     -9.257813000000000E+01
4841000000.000000      4.403229000000000E-01     -1.536562000000000E+02      4.435883000000000E-01     -7.002343000000000E+01      4.441376000000000E-01     -1.737266000000000E+02      6.806335000000000E-01     -9.255077000000000E+01
4842000000.000000      4.458466000000000E-01     -1.542344000000000E+02      4.473114000000000E-01     -7.028125000000000E+01      4.470215000000000E-01     -1.737813000000000E+02      6.833801000000000E-01     -9.264843000000000E+01
4843000000.000000      4.507294000000000E-01     -1.550703000000000E+02      4.503326000000000E-01     -7.072266000000000E+01      4.517059000000000E-01     -1.739063000000000E+02      6.855774000000000E-01     -9.268358000000000E+01
4844000000.000000      4.561310000000000E-01     -1.557422000000000E+02      4.521790000000000E-01     -7.103906000000000E+01      4.553375000000000E-01     -1.739375000000000E+02      6.883545000000000E-01     -9.274218000000000E+01
4845000000.000000      4.609222000000000E-01     -1.563594000000000E+02      4.552002000000000E-01     -7.128906000000000E+01      4.603424000000000E-01     -1.740547000000000E+02      6.913757000000000E-01     -9.278515000000000E+01
4846000000.000000      4.661713000000000E-01     -1.569844000000000E+02      4.576721000000000E-01     -7.160546000000000E+01      4.650421000000000E-01     -1.741562000000000E+02      6.933899000000000E-01     -9.285547000000000E+01
4847000000.000000      4.721375000000000E-01     -1.576797000000000E+02      4.606018000000000E-01     -7.194921000000000E+01      4.687805000000000E-01     -1.742812000000000E+02      6.965942000000000E-01     -9.296875000000000E+01
4848000000.000000      4.771576000000000E-01     -1.582734000000000E+02      4.623413000000000E-01     -7.214062000000000E+01      4.732513000000000E-01     -1.744062000000000E+02      6.984558000000000E-01     -9.297266000000000E+01
4849000000.000000      4.822998000000000E-01     -1.591875000000000E+02      4.654236000000000E-01     -7.269921000000000E+01      4.772339000000000E-01     -1.745234000000000E+02      7.016296000000000E-01     -9.291796000000000E+01
4850000000.000000      4.868774000000000E-01     -1.595156000000000E+02      4.684753000000000E-01     -7.286718000000000E+01      4.807587000000000E-01     -1.745391000000000E+02      7.035522000000000E-01     -9.303514000000000E+01
4851000000.000000      4.917755000000000E-01     -1.601328000000000E+02      4.718933000000000E-01     -7.332421000000000E+01      4.845123000000000E-01     -1.747344000000000E+02      7.070618000000000E-01     -9.301952000000000E+01
4852000000.000000      4.972382000000000E-01     -1.607031000000000E+02      4.731293000000000E-01     -7.351953000000000E+01      4.889679000000000E-01     -1.748125000000000E+02      7.096863000000000E-01     -9.301952000000000E+01
4853000000.000000      5.016174000000000E-01     -1.613047000000000E+02      4.738617000000000E-01     -7.384766000000000E+01      4.932709000000000E-01     -1.750781000000000E+02      7.126770000000000E-01     -9.324999000000000E+01
4854000000.000000      5.054626000000000E-01     -1.617734000000000E+02      4.778442000000000E-01     -7.439062000000000E+01      4.964447000000000E-01     -1.751797000000000E+02      7.157288000000000E-01     -9.318750000000000E+01
4855000000.000000      5.092163000000000E-01     -1.624141000000000E+02      4.792480000000000E-01     -7.448047000000000E+01      5.009155000000000E-01     -1.752812000000000E+02      7.185669000000000E-01     -9.325390000000000E+01
4856000000.000000      5.146179000000000E-01     -1.628828000000000E+02      4.814453000000000E-01     -7.476953000000000E+01      5.043945000000000E-01     -1.753594000000000E+02      7.223816000000000E-01     -9.328905000000000E+01
4857000000.000000      5.186157000000000E-01     -1.633203000000000E+02      4.839783000000000E-01     -7.522655000000000E+01      5.089417000000000E-01     -1.755156000000000E+02      7.232056000000000E-01     -9.330078000000000E+01
4858000000.000000      5.209961000000000E-01     -1.639062000000000E+02      4.860687000000000E-01     -7.544140000000000E+01      5.125427000000000E-01     -1.758203000000000E+02      7.279053000000000E-01     -9.335546000000000E+01
4859000000.000000      5.258179000000000E-01     -1.644063000000000E+02      4.876709000000000E-01     -7.592187000000000E+01      5.146790000000000E-01     -1.759063000000000E+02      7.300720000000000E-01     -9.363672000000000E+01
4860000000.000000      5.297241000000000E-01     -1.648672000000000E+02      4.893494000000000E-01     -7.606250000000000E+01      5.180359000000000E-01     -1.760703000000000E+02      7.337952000000000E-01     -9.342188000000000E+01
4861000000.000000      5.339355000000000E-01     -1.652578000000000E+02      4.904022000000000E-01     -7.648046000000000E+01      5.234070000000000E-01     -1.762500000000000E+02      7.355957000000000E-01     -9.357422000000000E+01
4862000000.000000      5.362549000000000E-01     -1.657500000000000E+02      4.933624000000000E-01     -7.678905000000000E+01      5.275269000000000E-01     -1.764453000000000E+02      7.392883000000000E-01     -9.353516000000000E+01
4863000000.000000      5.392151000000000E-01     -1.660625000000000E+02      4.935760000000000E-01     -7.730078000000000E+01      5.302734000000000E-01     -1.766875000000000E+02      7.420044000000000E-01     -9.360546000000000E+01
4864000000.000000      5.422974000000000E-01     -1.665078000000000E+02      4.964752000000000E-01     -7.738281000000000E+01      5.336609000000000E-01     -1.768125000000000E+02      7.451172000000000E-01     -9.373827000000000E+01
4865000000.000000      5.450439000000000E-01     -1.670391000000000E+02      4.976807000000000E-01     -7.748047000000000E+01      5.364685000000000E-01     -1.770078000000000E+02      7.482910000000000E-01     -9.361719000000000E+01
4866000000.000000      5.467224000000000E-01     -1.673125000000000E+02      4.989929000000000E-01     -7.792187000000000E+01      5.393677000000000E-01     -1.772344000000000E+02      7.508545000000000E-01     -9.365234000000000E+01
4867000000.000000      5.499573000000000E-01     -1.676250000000000E+02      5.009155000000000E-01     -7.823047000000000E+01      5.436707000000000E-01     -1.773438000000000E+02      7.531738000000000E-01     -9.377344000000000E+01
4868000000.000000      5.519104000000000E-01     -1.680547000000000E+02      5.035706000000000E-01     -7.859375000000000E+01      5.473633000000000E-01     -1.777344000000000E+02      7.554016000000000E-01     -9.382030000000000E+01
4869000000.000000      5.534973000000000E-01     -1.683281000000000E+02      5.024109000000000E-01     -7.879296000000000E+01      5.485840000000000E-01     -1.778750000000000E+02      7.581482000000000E-01     -9.402344000000000E+01
4870000000.000000      5.553284000000000E-01     -1.686406000000000E+02      5.054932000000000E-01     -7.889062000000000E+01      5.502319000000000E-01     -1.781016000000000E+02      7.628784000000000E-01     -9.382030000000000E+01
4871000000.000000      5.571594000000000E-01     -1.690859000000000E+02      5.058289000000000E-01     -7.926562000000000E+01      5.535583000000000E-01     -1.783203000000000E+02      7.641602000000000E-01     -9.394531000000000E+01
4872000000.000000      5.598450000000000E-01     -1.692031000000000E+02      5.070190000000000E-01     -7.935937000000000E+01      5.567627000000000E-01     -1.786797000000000E+02      7.675781000000000E-01     -9.398046000000000E+01
4873000000.000000      5.600586000000000E-01     -1.695156000000000E+02      5.078125000000000E-01     -7.993359000000000E+01      5.590515000000000E-01     -1.787578000000000E+02      7.689209000000000E-01     -9.408594000000000E+01
4874000000.000000      5.613708000000000E-01     -1.697578000000000E+02      5.097351000000000E-01     -8.019140000000000E+01      5.633240000000000E-01     -1.789141000000000E+02      7.721558000000000E-01     -9.403515000000000E+01
4875000000.000000      5.628052000000000E-01     -1.700312000000000E+02      5.091248000000000E-01     -8.011328000000000E+01      5.633850000000000E-01     -1.791797000000000E+02      7.737427000000000E-01     -9.412109000000000E+01
4876000000.000000      5.621033000000000E-01     -1.702500000000000E+02      5.115967000000000E-01     -8.061327000000000E+01      5.671082000000000E-01     -1.793906000000000E+02      7.776184000000000E-01     -9.414454000000000E+01
4877000000.000000      5.634460000000000E-01     -1.704219000000000E+02      5.123291000000000E-01     -8.070704000000000E+01      5.691223000000000E-01     -1.796953000000000E+02      7.780457000000000E-01     -9.427343000000000E+01
4878000000.000000      5.650024000000000E-01     -1.706250000000000E+02      5.151978000000000E-01     -8.103516000000000E+01      5.710144000000000E-01     -1.797422000000000E+02      7.806091000000000E-01     -9.436718000000000E+01
4879000000.000000      5.655212000000000E-01     -1.708203000000000E+02      5.123596000000000E-01     -8.126953000000000E+01      5.734863000000000E-01     -1.799609000000000E+02      7.836609000000000E-01     -9.424219000000000E+01
4880000000.000000      5.646667000000000E-01     -1.709922000000000E+02      5.143433000000000E-01     -8.148438000000000E+01      5.769043000000000E-01      1.797812000000000E+02      7.853394000000000E-01     -9.421484000000000E+01
4881000000.000000      5.665283000000000E-01     -1.711250000000000E+02      5.158997000000000E-01     -8.153906000000000E+01      5.790710000000000E-01      1.794922000000000E+02      7.884521000000000E-01     -9.419140000000000E+01
4882000000.000000      5.652161000000000E-01     -1.712656000000000E+02      5.180054000000000E-01     -8.180859000000000E+01      5.803528000000000E-01      1.793672000000000E+02      7.894287000000000E-01     -9.431641000000000E+01
