! Network Analyzer HP8722D
! Hewlett-Packard
! Data name: Linha & Wilkinson
! Saver's name: Rodrigo Anjos
! Comments: Teste da utilização de aquisição
continua pelo VNA HP8722D
! Time and date: 15/4/2025 16:21
!              Frequency                     S11                                                   S21                                                   S12                                                   S22
# HZ  S  MA R 50
4800000000.000000      3.310242000000000E-01     -1.137812000000000E+02      2.816315000000000E-01     -6.071094000000000E+01      2.752075000000000E-01     -1.750078000000000E+02      6.535950000000000E-01     -8.950781000000000E+01
4801000000.000000      3.299713000000000E-01     -1.146562000000000E+02      2.861786000000000E-01     -6.091406000000000E+01      2.786407000000000E-01     -1.749687000000000E+02      6.538086000000000E-01     -8.941797000000000E+01
4802000000.000000      3.288879000000000E-01     -1.156445000000000E+02      2.907562000000000E-01     -6.087304000000000E+01      2.834930000000000E-01     -1.747656000000000E+02      6.510925000000000E-01     -8.958202000000000E+01
4803000000.000000      3.280182000000000E-01     -1.166992000000000E+02      2.960968000000000E-01     -6.097265000000000E+01      2.871552000000000E-01     -1.745469000000000E+02      6.500549000000000E-01     -8.972265000000000E+01
4804000000.000000      3.277130000000000E-01     -1.177187000000000E+02      3.001251000000000E-01     -6.104882000000000E+01      2.918396000000000E-01     -1.745391000000000E+02      6.497803000000000E-01     -8.970703000000000E+01
4805000000.000000      3.278046000000000E-01     -1.186680000000000E+02      3.052063000000000E-01     -6.117773000000000E+01      2.959290000000000E-01     -1.743047000000000E+02      6.506348000000000E-01     -8.995312000000000E+01
4806000000.000000      3.273468000000000E-01     -1.195742000000000E+02      3.097992000000000E-01     -6.125195000000000E+01      2.985840000000000E-01     -1.741406000000000E+02      6.481628000000000E-01     -9.009766000000000E+01
4807000000.000000      3.272705000000000E-01     -1.207617000000000E+02      3.133392000000000E-01     -6.152929000000000E+01      3.040771000000000E-01     -1.741875000000000E+02      6.483459000000000E-01     -9.007421000000000E+01
4808000000.000000      3.274994000000000E-01     -1.216875000000000E+02      3.191223000000000E-01     -6.150391000000000E+01      3.083038000000000E-01     -1.740937000000000E+02      6.469116000000000E-01     -9.019140000000000E+01
4809000000.000000      3.286743000000000E-01     -1.227812000000000E+02      3.232269000000000E-01     -6.188867000000000E+01      3.125763000000000E-01     -1.740547000000000E+02      6.473083000000000E-01     -9.031641000000000E+01
4810000000.000000      3.293304000000000E-01     -1.240078000000000E+02      3.272858000000000E-01     -6.182617000000000E+01      3.165436000000000E-01     -1.738906000000000E+02      6.472778000000000E-01     -9.044922000000000E+01
4811000000.000000      3.299561000000000E-01     -1.250469000000000E+02      3.317261000000000E-01     -6.213085000000000E+01      3.215332000000000E-01     -1.737890000000000E+02      6.455688000000000E-01     -9.042969000000000E+01
4812000000.000000      3.317413000000000E-01     -1.258984000000000E+02      3.357544000000000E-01     -6.225780000000000E+01      3.248291000000000E-01     -1.736875000000000E+02      6.464233000000000E-01     -9.058203000000000E+01
4813000000.000000      3.322449000000000E-01     -1.271992000000000E+02      3.397522000000000E-01     -6.251367000000000E+01      3.280640000000000E-01     -1.736016000000000E+02      6.464539000000000E-01     -9.055859000000000E+01
4814000000.000000      3.334656000000000E-01     -1.282891000000000E+02      3.447876000000000E-01     -6.253711000000000E+01      3.326874000000000E-01     -1.735781000000000E+02      6.469116000000000E-01     -9.077343000000000E+01
4815000000.000000      3.352814000000000E-01     -1.292734000000000E+02      3.483734000000000E-01     -6.293750000000000E+01      3.362885000000000E-01     -1.735312000000000E+02      6.448975000000000E-01     -9.075781000000000E+01
4816000000.000000      3.369446000000000E-01     -1.303125000000000E+02      3.534241000000000E-01     -6.297265000000000E+01      3.410950000000000E-01     -1.733984000000000E+02      6.461487000000000E-01     -9.086329000000000E+01
4817000000.000000      3.400574000000000E-01     -1.314141000000000E+02      3.568878000000000E-01     -6.328125000000000E+01      3.442230000000000E-01     -1.734453000000000E+02      6.449890000000000E-01     -9.089844000000000E+01
4818000000.000000      3.420715000000000E-01     -1.325000000000000E+02      3.607635000000000E-01     -6.349023000000000E+01      3.492737000000000E-01     -1.733516000000000E+02      6.463318000000000E-01     -9.112890000000000E+01
4819000000.000000      3.443298000000000E-01     -1.335547000000000E+02      3.642273000000000E-01     -6.370703000000000E+01      3.518524000000000E-01     -1.732969000000000E+02      6.480408000000000E-01     -9.117968000000000E+01
4820000000.000000      3.463593000000000E-01     -1.345391000000000E+02      3.695984000000000E-01     -6.394140000000000E+01      3.574371000000000E-01     -1.733203000000000E+02      6.481018000000000E-01     -9.126171000000000E+01
4821000000.000000      3.499451000000000E-01     -1.356484000000000E+02      3.736877000000000E-01     -6.428124000000000E+01      3.606720000000000E-01     -1.733594000000000E+02      6.482239000000000E-01     -9.142969000000000E+01
4822000000.000000      3.541107000000000E-01     -1.367500000000000E+02      3.767242000000000E-01     -6.444921000000000E+01      3.646393000000000E-01     -1.733281000000000E+02      6.493530000000000E-01     -9.133204000000000E+01
4823000000.000000      3.568420000000000E-01     -1.377109000000000E+02      3.802032000000000E-01     -6.479687000000000E+01      3.683929000000000E-01     -1.730547000000000E+02      6.500549000000000E-01     -9.153515000000000E+01
4824000000.000000      3.609924000000000E-01     -1.387812000000000E+02      3.851013000000000E-01     -6.503515000000000E+01      3.736572000000000E-01     -1.732656000000000E+02      6.517334000000000E-01     -9.150000000000000E+01
4825000000.000000      3.636475000000000E-01     -1.397266000000000E+02      3.878021000000000E-01     -6.511328000000000E+01      3.773193000000000E-01     -1.732109000000000E+02      6.528015000000000E-01     -9.158203000000000E+01
4826000000.000000      3.683777000000000E-01     -1.408125000000000E+02      3.923340000000000E-01     -6.557031000000000E+01      3.814697000000000E-01     -1.732656000000000E+02      6.540527000000000E-01     -9.173828000000000E+01
4827000000.000000      3.719635000000000E-01     -1.415859000000000E+02      3.963165000000000E-01     -6.568359000000000E+01      3.856201000000000E-01     -1.731172000000000E+02      6.549072000000000E-01     -9.167187000000000E+01
4828000000.000000      3.771515000000000E-01     -1.426406000000000E+02      4.002380000000000E-01     -6.606640000000000E+01      3.890686000000000E-01     -1.731484000000000E+02      6.572571000000000E-01     -9.173828000000000E+01
4829000000.000000      3.797607000000000E-01     -1.435391000000000E+02      4.034424000000000E-01     -6.629687000000000E+01      3.933716000000000E-01     -1.732031000000000E+02      6.577454000000000E-01     -9.174999000000000E+01
4830000000.000000      3.850403000000000E-01     -1.444453000000000E+02      4.064789000000000E-01     -6.648828000000000E+01      3.978577000000000E-01     -1.730859000000000E+02      6.589050000000000E-01     -9.199999000000000E+01
4831000000.000000      3.888092000000000E-01     -1.453516000000000E+02      4.098358000000000E-01     -6.687500000000000E+01      4.021149000000000E-01     -1.730859000000000E+02      6.603699000000000E-01     -9.205078000000000E+01
4832000000.000000      3.950043000000000E-01     -1.462969000000000E+02      4.145966000000000E-01     -6.716797000000000E+01      4.055634000000000E-01     -1.732109000000000E+02      6.618652000000000E-01     -9.213282000000000E+01
4833000000.000000      3.993378000000000E-01     -1.472422000000000E+02      4.175262000000000E-01     -6.738281000000000E+01      4.102936000000000E-01     -1.733203000000000E+02      6.646118000000000E-01     -9.212109000000000E+01
4834000000.000000      4.037933000000000E-01     -1.480547000000000E+02      4.204102000000000E-01     -6.774219000000000E+01      4.145203000000000E-01     -1.732656000000000E+02      6.658020000000000E-01     -9.220312000000000E+01
4835000000.000000      4.089050000000000E-01     -1.488516000000000E+02      4.246674000000000E-01     -6.816015000000000E+01      4.187775000000000E-01     -1.732109000000000E+02      6.685181000000000E-01     -9.229296000000000E+01
4836000000.000000      4.143066000000000E-01     -1.495859000000000E+02      4.271545000000000E-01     -6.842187000000000E+01      4.224396000000000E-01     -1.732188000000000E+02      6.690979000000000E-01     -9.238281000000000E+01
4837000000.000000      4.195251000000000E-01     -1.503984000000000E+02      4.303894000000000E-01     -6.887890000000000E+01      4.258881000000000E-01     -1.735078000000000E+02      6.722107000000000E-01     -9.235155000000000E+01
4838000000.000000      4.249115000000000E-01     -1.512891000000000E+02      4.343262000000000E-01     -6.884375000000000E+01      4.308014000000000E-01     -1.734844000000000E+02      6.743164000000000E-01     -9.242188000000000E+01
4839000000.000000      4.301453000000000E-01     -1.519531000000000E+02      4.366760000000000E-01     -6.932422000000000E+01      4.349976000000000E-01     -1.734453000000000E+02      6.756287000000000E-01     -9.238672000000000E+01
4840000000.000000      4.344482000000000E-01     -1.527734000000000E+02      4.399109000000000E-01     -6.953125000000000E+01      4.389191000000000E-01     -1.736797000000000E+02      6.778259000000000E-01     -9.247656000000000E+01
4841000000.000000      4.403076000000000E-01     -1.536016000000000E+02      4.433289000000000E-01     -6.996875000000000E+01      4.432983000000000E-01     -1.737578000000000E+02      6.805115000000000E-01     -9.261328000000000E+01
4842000000.000000      4.462433000000000E-01     -1.542187000000000E+02      4.466095000000000E-01     -7.019531000000000E+01      4.464874000000000E-01     -1.737578000000000E+02      6.838379000000000E-01     -9.256639000000000E+01
4843000000.000000      4.504089000000000E-01     -1.550469000000000E+02      4.481812000000000E-01     -7.058594000000000E+01      4.514160000000000E-01     -1.738437000000000E+02      6.855469000000000E-01     -9.263672000000000E+01
4844000000.000000      4.561920000000000E-01     -1.556875000000000E+02      4.514771000000000E-01     -7.101171000000000E+01      4.551086000000000E-01     -1.739453000000000E+02      6.889954000000000E-01     -9.267187000000000E+01
4845000000.000000      4.605103000000000E-01     -1.562969000000000E+02      4.549408000000000E-01     -7.128124000000000E+01      4.595795000000000E-01     -1.740547000000000E+02      6.901550000000000E-01     -9.271875000000000E+01
4846000000.000000      4.660797000000000E-01     -1.568828000000000E+02      4.567108000000000E-01     -7.143749000000000E+01      4.643097000000000E-01     -1.740625000000000E+02      6.934509000000000E-01     -9.277735000000000E+01
4847000000.000000      4.718933000000000E-01     -1.576172000000000E+02      4.601440000000000E-01     -7.192577000000000E+01      4.683838000000000E-01     -1.743047000000000E+02      6.970825000000000E-01     -9.292187000000000E+01
4848000000.000000      4.765930000000000E-01     -1.581484000000000E+02      4.616852000000000E-01     -7.203125000000000E+01      4.725647000000000E-01     -1.743047000000000E+02      6.987610000000000E-01     -9.290234000000000E+01
4849000000.000000      4.812012000000000E-01     -1.590781000000000E+02      4.652100000000000E-01     -7.258203000000000E+01      4.766083000000000E-01     -1.744375000000000E+02      7.014465000000000E-01     -9.286327000000000E+01
4850000000.000000      4.866943000000000E-01     -1.594453000000000E+02      4.678497000000000E-01     -7.286327000000000E+01      4.803619000000000E-01     -1.744922000000000E+02      7.035828000000000E-01     -9.288671000000000E+01
4851000000.000000      4.915009000000000E-01     -1.600703000000000E+02      4.710693000000000E-01     -7.318359000000000E+01      4.841003000000000E-01     -1.747109000000000E+02      7.076111000000000E-01     -9.302343000000000E+01
4852000000.000000      4.969177000000000E-01     -1.606328000000000E+02      4.731445000000000E-01     -7.350390000000000E+01      4.887848000000000E-01     -1.747734000000000E+02      7.096863000000000E-01     -9.310156000000000E+01
4853000000.000000      5.014038000000000E-01     -1.612031000000000E+02      4.733582000000000E-01     -7.367578000000000E+01      4.928284000000000E-01     -1.750078000000000E+02      7.125244000000000E-01     -9.326563000000000E+01
4854000000.000000      5.051880000000000E-01     -1.617422000000000E+02      4.768982000000000E-01     -7.428515000000000E+01      4.956970000000000E-01     -1.751016000000000E+02      7.151489000000000E-01     -9.316797000000000E+01
4855000000.000000      5.087891000000000E-01     -1.623828000000000E+02      4.792480000000000E-01     -7.444921000000000E+01      5.003357000000000E-01     -1.752344000000000E+02      7.176208000000000E-01     -9.324999000000000E+01
4856000000.000000      5.141296000000000E-01     -1.627578000000000E+02      4.809265000000000E-01     -7.478906000000000E+01      5.021667000000000E-01     -1.753672000000000E+02      7.218018000000000E-01     -9.330078000000000E+01
4857000000.000000      5.184631000000000E-01     -1.633359000000000E+02      4.842987000000000E-01     -7.505468000000000E+01      5.082397000000000E-01     -1.756172000000000E+02      7.234192000000000E-01     -9.333202000000000E+01
4858000000.000000      5.201111000000000E-01     -1.638438000000000E+02      4.851685000000000E-01     -7.553124000000000E+01      5.103455000000000E-01     -1.757969000000000E+02      7.263794000000000E-01     -9.340235000000000E+01
4859000000.000000      5.253906000000000E-01     -1.643594000000000E+02      4.881134000000000E-01     -7.577343000000000E+01      5.149841000000000E-01     -1.759531000000000E+02      7.301636000000000E-01     -9.346094000000000E+01
4860000000.000000      5.293884000000000E-01     -1.648438000000000E+02      4.886475000000000E-01     -7.616015000000000E+01      5.184631000000000E-01     -1.760547000000000E+02      7.324219000000000E-01     -9.327734000000000E+01
4861000000.000000      5.331116000000000E-01     -1.651797000000000E+02      4.911041000000000E-01     -7.641406000000000E+01      5.216980000000000E-01     -1.762187000000000E+02      7.342529000000000E-01     -9.357422000000000E+01
4862000000.000000      5.360413000000000E-01     -1.656406000000000E+02      4.931335000000000E-01     -7.652344000000000E+01      5.254517000000000E-01     -1.764688000000000E+02      7.394714000000000E-01     -9.352734000000000E+01
4863000000.000000      5.387268000000000E-01     -1.659922000000000E+02      4.932404000000000E-01     -7.718750000000000E+01      5.302429000000000E-01     -1.766641000000000E+02      7.426147000000000E-01     -9.348047000000000E+01
4864000000.000000      5.419312000000000E-01     -1.664687000000000E+02      4.965973000000000E-01     -7.724609000000000E+01      5.323181000000000E-01     -1.768594000000000E+02      7.438965000000000E-01     -9.367968000000000E+01
4865000000.000000      5.446777000000000E-01     -1.669609000000000E+02      4.956207000000000E-01     -7.766796000000000E+01      5.344238000000000E-01     -1.768828000000000E+02      7.473145000000000E-01     -9.344141000000000E+01
4866000000.000000      5.462036000000000E-01     -1.672344000000000E+02      4.993286000000000E-01     -7.785937000000000E+01      5.385437000000000E-01     -1.773125000000000E+02      7.507935000000000E-01     -9.362499000000000E+01
4867000000.000000      5.497131000000000E-01     -1.675781000000000E+02      5.009460000000000E-01     -7.817968000000000E+01      5.418701000000000E-01     -1.773828000000000E+02      7.542725000000000E-01     -9.370703000000000E+01
4868000000.000000      5.521240000000000E-01     -1.679922000000000E+02      5.017090000000000E-01     -7.835546000000000E+01      5.462646000000000E-01     -1.774844000000000E+02      7.558594000000000E-01     -9.369921000000000E+01
4869000000.000000      5.532532000000000E-01     -1.683125000000000E+02      5.016479000000000E-01     -7.875781000000000E+01      5.484314000000000E-01     -1.777734000000000E+02      7.614441000000000E-01     -9.396484000000000E+01
4870000000.000000      5.545959000000000E-01     -1.685625000000000E+02      5.046997000000000E-01     -7.893359000000000E+01      5.514526000000000E-01     -1.780625000000000E+02      7.630615000000000E-01     -9.378124000000000E+01
4871000000.000000      5.574341000000000E-01     -1.689219000000000E+02      5.033264000000000E-01     -7.929688000000000E+01      5.529480000000000E-01     -1.782344000000000E+02      7.628784000000000E-01     -9.401171000000000E+01
4872000000.000000      5.593262000000000E-01     -1.691719000000000E+02      5.053101000000000E-01     -7.938281000000000E+01      5.564880000000000E-01     -1.787188000000000E+02      7.673340000000000E-01     -9.394531000000000E+01
4873000000.000000      5.605774000000000E-01     -1.693203000000000E+02      5.076599000000000E-01     -7.969531000000000E+01      5.586853000000000E-01     -1.787031000000000E+02      7.694702000000000E-01     -9.400391000000000E+01
4874000000.000000      5.608215000000000E-01     -1.696640000000000E+02      5.086670000000000E-01     -8.005468000000000E+01      5.633240000000000E-01     -1.788828000000000E+02      7.728577000000000E-01     -9.395702000000000E+01
4875000000.000000      5.636902000000000E-01     -1.699844000000000E+02      5.086365000000000E-01     -8.013281000000000E+01      5.637817000000000E-01     -1.792891000000000E+02      7.737427000000000E-01     -9.403906000000000E+01
4876000000.000000      5.630188000000000E-01     -1.701719000000000E+02      5.108948000000000E-01     -8.044140000000000E+01      5.655518000000000E-01     -1.792187000000000E+02      7.768555000000000E-01     -9.412500000000000E+01
4877000000.000000      5.642395000000000E-01     -1.703828000000000E+02      5.130005000000000E-01     -8.062891000000000E+01      5.693054000000000E-01     -1.796875000000000E+02      7.789307000000000E-01     -9.406250000000000E+01
4878000000.000000      5.648499000000000E-01     -1.705391000000000E+02      5.137024000000000E-01     -8.080078000000000E+01      5.712585000000000E-01     -1.797578000000000E+02      7.809143000000000E-01     -9.426952000000000E+01
4879000000.000000      5.660706000000000E-01     -1.707656000000000E+02      5.123596000000000E-01     -8.111328000000000E+01      5.730286000000000E-01      1.799687000000000E+02      7.831726000000000E-01     -9.421875000000000E+01
4880000000.000000      5.653381000000000E-01     -1.709531000000000E+02      5.148010000000000E-01     -8.139843000000000E+01      5.768127000000000E-01      1.797656000000000E+02      7.863159000000000E-01     -9.421093000000000E+01
4881000000.000000      5.664368000000000E-01     -1.710000000000000E+02      5.172424000000000E-01     -8.141796000000000E+01      5.774841000000000E-01      1.794453000000000E+02      7.887878000000000E-01     -9.427734000000000E+01
4882000000.000000      5.650024000000000E-01     -1.711641000000000E+02      5.179138000000000E-01     -8.164063000000000E+01      5.793152000000000E-01      1.793594000000000E+02      7.884216000000000E-01     -9.428125000000000E+01
