! Network Analyzer HP8722D
! Hewlett-Packard
! Data name: Linha & Wilkinson
! Saver's name: Rodrigo Anjos
! Comments: Teste da utilização de aquisição
continua pelo VNA HP8722D
! Time and date: 15/4/2025 17:05
!              Frequency                     S11                                                   S21                                                   S12                                                   S22
# HZ  S  MA R 50
4800000000.000000      3.306122000000000E-01     -1.136758000000000E+02      2.821503000000000E-01     -6.061718000000000E+01      2.754211000000000E-01     -1.750469000000000E+02      6.543274000000000E-01     -8.948437000000000E+01
4801000000.000000      3.294983000000000E-01     -1.146016000000000E+02      2.866974000000000E-01     -6.077929000000000E+01      2.788239000000000E-01     -1.748281000000000E+02      6.534119000000000E-01     -8.953516000000000E+01
4802000000.000000      3.282623000000000E-01     -1.155742000000000E+02      2.906036000000000E-01     -6.071679000000000E+01      2.835236000000000E-01     -1.747187000000000E+02      6.514587000000000E-01     -8.957811000000000E+01
4803000000.000000      3.275909000000000E-01     -1.165703000000000E+02      2.964172000000000E-01     -6.094531000000000E+01      2.873688000000000E-01     -1.745469000000000E+02      6.514587000000000E-01     -8.973436000000000E+01
4804000000.000000      3.278656000000000E-01     -1.175898000000000E+02      3.003540000000000E-01     -6.106054000000000E+01      2.917938000000000E-01     -1.745156000000000E+02      6.499023000000000E-01     -8.969141000000000E+01
4805000000.000000      3.277893000000000E-01     -1.186172000000000E+02      3.046722000000000E-01     -6.122656000000000E+01      2.960510000000000E-01     -1.742578000000000E+02      6.506042000000000E-01     -8.985546000000000E+01
4806000000.000000      3.272858000000000E-01     -1.195391000000000E+02      3.094788000000000E-01     -6.109961000000000E+01      2.991791000000000E-01     -1.740547000000000E+02      6.489868000000000E-01     -9.001171000000000E+01
4807000000.000000      3.270721000000000E-01     -1.206172000000000E+02      3.138733000000000E-01     -6.136719000000000E+01      3.038635000000000E-01     -1.741875000000000E+02      6.474915000000000E-01     -9.007030000000000E+01
4808000000.000000      3.275909000000000E-01     -1.216523000000000E+02      3.190613000000000E-01     -6.135742000000000E+01      3.076782000000000E-01     -1.740469000000000E+02      6.462708000000000E-01     -9.019531000000000E+01
4809000000.000000      3.280182000000000E-01     -1.226914000000000E+02      3.232117000000000E-01     -6.176758000000000E+01      3.125153000000000E-01     -1.739766000000000E+02      6.473083000000000E-01     -9.027344000000000E+01
4810000000.000000      3.282318000000000E-01     -1.238945000000000E+02      3.274536000000000E-01     -6.179296000000000E+01      3.163605000000000E-01     -1.738047000000000E+02      6.470032000000000E-01     -9.041796000000000E+01
4811000000.000000      3.292847000000000E-01     -1.249180000000000E+02      3.317566000000000E-01     -6.205859000000000E+01      3.214569000000000E-01     -1.737187000000000E+02      6.461487000000000E-01     -9.045702000000000E+01
4812000000.000000      3.313293000000000E-01     -1.258906000000000E+02      3.362427000000000E-01     -6.222265000000000E+01      3.254089000000000E-01     -1.736641000000000E+02      6.466370000000000E-01     -9.047266000000000E+01
4813000000.000000      3.318024000000000E-01     -1.269687000000000E+02      3.403320000000000E-01     -6.233203000000000E+01      3.284912000000000E-01     -1.734922000000000E+02      6.459045000000000E-01     -9.059374000000000E+01
4814000000.000000      3.328705000000000E-01     -1.282578000000000E+02      3.447571000000000E-01     -6.250000000000000E+01      3.330383000000000E-01     -1.736562000000000E+02      6.463013000000000E-01     -9.068359000000000E+01
4815000000.000000      3.349304000000000E-01     -1.291719000000000E+02      3.486481000000000E-01     -6.278125000000000E+01      3.364868000000000E-01     -1.734453000000000E+02      6.460266000000000E-01     -9.074219000000000E+01
4816000000.000000      3.374176000000000E-01     -1.302813000000000E+02      3.531189000000000E-01     -6.278125000000000E+01      3.412933000000000E-01     -1.733672000000000E+02      6.470032000000000E-01     -9.080858000000000E+01
4817000000.000000      3.398895000000000E-01     -1.312969000000000E+02      3.576508000000000E-01     -6.325195000000000E+01      3.444977000000000E-01     -1.733906000000000E+02      6.467896000000000E-01     -9.110937000000000E+01
4818000000.000000      3.418274000000000E-01     -1.324609000000000E+02      3.605652000000000E-01     -6.343945000000000E+01      3.494873000000000E-01     -1.733281000000000E+02      6.470947000000000E-01     -9.105860000000000E+01
4819000000.000000      3.445129000000000E-01     -1.334844000000000E+02      3.649139000000000E-01     -6.357812000000000E+01      3.527222000000000E-01     -1.731797000000000E+02      6.483154000000000E-01     -9.112499000000000E+01
4820000000.000000      3.462982000000000E-01     -1.345000000000000E+02      3.693695000000000E-01     -6.391211000000000E+01      3.578033000000000E-01     -1.732422000000000E+02      6.481934000000000E-01     -9.119141000000000E+01
4821000000.000000      3.494110000000000E-01     -1.356172000000000E+02      3.736267000000000E-01     -6.419140000000000E+01      3.611145000000000E-01     -1.733047000000000E+02      6.472778000000000E-01     -9.135157000000000E+01
4822000000.000000      3.542023000000000E-01     -1.366484000000000E+02      3.762665000000000E-01     -6.432812000000000E+01      3.649750000000000E-01     -1.732656000000000E+02      6.500244000000000E-01     -9.146093000000000E+01
4823000000.000000      3.562164000000000E-01     -1.376016000000000E+02      3.806152000000000E-01     -6.457812000000000E+01      3.689575000000000E-01     -1.730547000000000E+02      6.503296000000000E-01     -9.143749000000000E+01
4824000000.000000      3.603821000000000E-01     -1.388281000000000E+02      3.837738000000000E-01     -6.494531000000000E+01      3.734894000000000E-01     -1.731953000000000E+02      6.517029000000000E-01     -9.151171000000000E+01
4825000000.000000      3.636780000000000E-01     -1.397344000000000E+02      3.878174000000000E-01     -6.503515000000000E+01      3.786621000000000E-01     -1.731250000000000E+02      6.517334000000000E-01     -9.159765000000000E+01
4826000000.000000      3.680573000000000E-01     -1.406797000000000E+02      3.921814000000000E-01     -6.558203000000000E+01      3.811340000000000E-01     -1.732500000000000E+02      6.538086000000000E-01     -9.169531000000000E+01
4827000000.000000      3.719788000000000E-01     -1.415156000000000E+02      3.961029000000000E-01     -6.555078000000000E+01      3.856964000000000E-01     -1.731094000000000E+02      6.562195000000000E-01     -9.164454000000000E+01
4828000000.000000      3.764191000000000E-01     -1.425937000000000E+02      3.997345000000000E-01     -6.603125000000000E+01      3.890533000000000E-01     -1.730625000000000E+02      6.567993000000000E-01     -9.173828000000000E+01
4829000000.000000      3.792572000000000E-01     -1.434453000000000E+02      4.025726000000000E-01     -6.631640000000000E+01      3.938141000000000E-01     -1.731094000000000E+02      6.581116000000000E-01     -9.181641000000000E+01
4830000000.000000      3.849945000000000E-01     -1.443750000000000E+02      4.066010000000000E-01     -6.652734000000000E+01      3.980255000000000E-01     -1.730469000000000E+02      6.597900000000000E-01     -9.193750000000000E+01
4831000000.000000      3.888397000000000E-01     -1.452656000000000E+02      4.096375000000000E-01     -6.695313000000000E+01      4.019012000000000E-01     -1.730937000000000E+02      6.610107000000000E-01     -9.205469000000000E+01
4832000000.000000      3.947144000000000E-01     -1.461719000000000E+02      4.142303000000000E-01     -6.693749000000000E+01      4.057007000000000E-01     -1.731484000000000E+02      6.628418000000000E-01     -9.207422000000000E+01
4833000000.000000      3.996124000000000E-01     -1.471172000000000E+02      4.174805000000000E-01     -6.740624000000000E+01      4.101105000000000E-01     -1.732500000000000E+02      6.649475000000000E-01     -9.203905000000000E+01
4834000000.000000      4.036255000000000E-01     -1.478984000000000E+02      4.198761000000000E-01     -6.763672000000000E+01      4.141235000000000E-01     -1.732500000000000E+02      6.661377000000000E-01     -9.221094000000000E+01
4835000000.000000      4.085846000000000E-01     -1.487578000000000E+02      4.242096000000000E-01     -6.808594000000000E+01      4.194183000000000E-01     -1.732656000000000E+02      6.678772000000000E-01     -9.226954000000000E+01
4836000000.000000      4.146271000000000E-01     -1.495391000000000E+02      4.272003000000000E-01     -6.839844000000000E+01      4.226074000000000E-01     -1.732109000000000E+02      6.694641000000000E-01     -9.218359000000000E+01
4837000000.000000      4.192963000000000E-01     -1.503047000000000E+02      4.301453000000000E-01     -6.889453000000000E+01      4.265594000000000E-01     -1.734062000000000E+02      6.721191000000000E-01     -9.230469000000000E+01
4838000000.000000      4.245605000000000E-01     -1.512109000000000E+02      4.342041000000000E-01     -6.897265000000000E+01      4.312897000000000E-01     -1.734062000000000E+02      6.748047000000000E-01     -9.231249000000000E+01
4839000000.000000      4.302368000000000E-01     -1.518047000000000E+02      4.373169000000000E-01     -6.916406000000000E+01      4.350128000000000E-01     -1.733828000000000E+02      6.766357000000000E-01     -9.240625000000000E+01
4840000000.000000      4.343719000000000E-01     -1.527344000000000E+02      4.393921000000000E-01     -6.953906000000000E+01      4.395294000000000E-01     -1.735625000000000E+02      6.781921000000000E-01     -9.251953000000000E+01
4841000000.000000      4.401550000000000E-01     -1.535938000000000E+02      4.434052000000000E-01     -7.002343000000000E+01      4.434357000000000E-01     -1.736016000000000E+02      6.807251000000000E-01     -9.254297000000000E+01
4842000000.000000      4.456329000000000E-01     -1.541719000000000E+02      4.466553000000000E-01     -7.024219000000000E+01      4.469452000000000E-01     -1.736797000000000E+02      6.835327000000000E-01     -9.254686000000000E+01
4843000000.000000      4.502716000000000E-01     -1.548828000000000E+02      4.490356000000000E-01     -7.062500000000000E+01      4.517365000000000E-01     -1.737578000000000E+02      6.853943000000000E-01     -9.259375000000000E+01
4844000000.000000      4.552612000000000E-01     -1.556641000000000E+02      4.520264000000000E-01     -7.089062000000000E+01      4.549255000000000E-01     -1.738672000000000E+02      6.880798000000000E-01     -9.276171000000000E+01
4845000000.000000      4.604645000000000E-01     -1.562422000000000E+02      4.542236000000000E-01     -7.111328000000000E+01      4.595032000000000E-01     -1.739687000000000E+02      6.895142000000000E-01     -9.271484000000000E+01
4846000000.000000      4.655762000000000E-01     -1.568438000000000E+02      4.571686000000000E-01     -7.148438000000000E+01      4.650726000000000E-01     -1.740313000000000E+02      6.931458000000000E-01     -9.278906000000000E+01
4847000000.000000      4.719086000000000E-01     -1.575625000000000E+02      4.609528000000000E-01     -7.177734000000000E+01      4.686890000000000E-01     -1.741797000000000E+02      6.968079000000000E-01     -9.295702000000000E+01
4848000000.000000      4.762726000000000E-01     -1.580937000000000E+02      4.626007000000000E-01     -7.206249000000000E+01      4.726257000000000E-01     -1.742422000000000E+02      6.981506000000000E-01     -9.301561000000000E+01
4849000000.000000      4.817352000000000E-01     -1.590156000000000E+02      4.649658000000000E-01     -7.262500000000000E+01      4.769592000000000E-01     -1.744062000000000E+02      7.009583000000000E-01     -9.291016000000000E+01
4850000000.000000      4.864197000000000E-01     -1.594453000000000E+02      4.680176000000000E-01     -7.283593000000000E+01      4.803009000000000E-01     -1.744453000000000E+02      7.037354000000000E-01     -9.295702000000000E+01
4851000000.000000      4.918365000000000E-01     -1.599922000000000E+02      4.704742000000000E-01     -7.329687000000000E+01      4.836731000000000E-01     -1.746797000000000E+02      7.075806000000000E-01     -9.302343000000000E+01
4852000000.000000      4.966125000000000E-01     -1.605703000000000E+02      4.728088000000000E-01     -7.362890000000000E+01      4.890137000000000E-01     -1.746797000000000E+02      7.107849000000000E-01     -9.307421000000000E+01
4853000000.000000      5.015869000000000E-01     -1.611719000000000E+02      4.728394000000000E-01     -7.374609000000000E+01      4.928894000000000E-01     -1.749063000000000E+02      7.125244000000000E-01     -9.323046000000000E+01
4854000000.000000      5.056458000000000E-01     -1.616875000000000E+02      4.772034000000000E-01     -7.424999000000000E+01      4.965057000000000E-01     -1.750078000000000E+02      7.163086000000000E-01     -9.316015000000000E+01
4855000000.000000      5.088196000000000E-01     -1.622656000000000E+02      4.788971000000000E-01     -7.448828000000000E+01      5.004272000000000E-01     -1.751484000000000E+02      7.174683000000000E-01     -9.316406000000000E+01
4856000000.000000      5.143433000000000E-01     -1.627578000000000E+02      4.803467000000000E-01     -7.478125000000000E+01      5.048828000000000E-01     -1.752734000000000E+02      7.218323000000000E-01     -9.323046000000000E+01
4857000000.000000      5.188293000000000E-01     -1.633047000000000E+02      4.832458000000000E-01     -7.513281000000000E+01      5.071716000000000E-01     -1.754141000000000E+02      7.239075000000000E-01     -9.319921000000000E+01
4858000000.000000      5.212097000000000E-01     -1.637266000000000E+02      4.850769000000000E-01     -7.529687000000000E+01      5.106812000000000E-01     -1.756016000000000E+02      7.270203000000000E-01     -9.336718000000000E+01
4859000000.000000      5.256653000000000E-01     -1.642266000000000E+02      4.875488000000000E-01     -7.574219000000000E+01      5.153809000000000E-01     -1.759375000000000E+02      7.307434000000000E-01     -9.349218000000000E+01
4860000000.000000      5.300293000000000E-01     -1.647422000000000E+02      4.895630000000000E-01     -7.596484000000000E+01      5.191650000000000E-01     -1.760000000000000E+02      7.336121000000000E-01     -9.350780000000000E+01
4861000000.000000      5.331421000000000E-01     -1.651719000000000E+02      4.907074000000000E-01     -7.642578000000000E+01      5.223389000000000E-01     -1.761094000000000E+02      7.359009000000000E-01     -9.352734000000000E+01
4862000000.000000      5.358276000000000E-01     -1.656250000000000E+02      4.935913000000000E-01     -7.663671000000000E+01      5.256042000000000E-01     -1.763438000000000E+02      7.405396000000000E-01     -9.351954000000000E+01
4863000000.000000      5.380859000000000E-01     -1.659688000000000E+02      4.937592000000000E-01     -7.708593000000000E+01      5.300293000000000E-01     -1.764844000000000E+02      7.422485000000000E-01     -9.343750000000000E+01
4864000000.000000      5.422974000000000E-01     -1.664687000000000E+02      4.957123000000000E-01     -7.720312000000000E+01      5.321655000000000E-01     -1.766094000000000E+02      7.445068000000000E-01     -9.367968000000000E+01
4865000000.000000      5.444031000000000E-01     -1.668750000000000E+02      4.968262000000000E-01     -7.741405000000000E+01      5.353699000000000E-01     -1.769453000000000E+02      7.482605000000000E-01     -9.357422000000000E+01
4866000000.000000      5.463257000000000E-01     -1.671953000000000E+02      4.978485000000000E-01     -7.761719000000000E+01      5.398865000000000E-01     -1.771328000000000E+02      7.513123000000000E-01     -9.359766000000000E+01
4867000000.000000      5.489502000000000E-01     -1.675156000000000E+02      5.010376000000000E-01     -7.827343000000000E+01      5.421753000000000E-01     -1.772266000000000E+02      7.543030000000000E-01     -9.363672000000000E+01
4868000000.000000      5.524292000000000E-01     -1.679531000000000E+02      5.020752000000000E-01     -7.840234000000000E+01      5.462646000000000E-01     -1.775078000000000E+02      7.562866000000000E-01     -9.378124000000000E+01
4869000000.000000      5.530090000000000E-01     -1.681797000000000E+02      5.022888000000000E-01     -7.868359000000000E+01      5.487366000000000E-01     -1.777266000000000E+02      7.593689000000000E-01     -9.387499000000000E+01
4870000000.000000      5.556641000000000E-01     -1.685078000000000E+02      5.038757000000000E-01     -7.887500000000000E+01      5.519104000000000E-01     -1.779375000000000E+02      7.624817000000000E-01     -9.370703000000000E+01
4871000000.000000      5.577698000000000E-01     -1.688828000000000E+02      5.061340000000000E-01     -7.927343000000000E+01      5.538025000000000E-01     -1.782891000000000E+02      7.640381000000000E-01     -9.385546000000000E+01
4872000000.000000      5.597534000000000E-01     -1.691406000000000E+02      5.061340000000000E-01     -7.934375000000000E+01      5.566101000000000E-01     -1.784531000000000E+02      7.671509000000000E-01     -9.396484000000000E+01
4873000000.000000      5.605774000000000E-01     -1.693594000000000E+02      5.068665000000000E-01     -7.976171000000000E+01      5.589600000000000E-01     -1.785547000000000E+02      7.696533000000000E-01     -9.408983000000000E+01
4874000000.000000      5.613098000000000E-01     -1.696328000000000E+02      5.088196000000000E-01     -7.996094000000000E+01      5.634460000000000E-01     -1.788125000000000E+02      7.719421000000000E-01     -9.385157000000000E+01
4875000000.000000      5.636292000000000E-01     -1.699609000000000E+02      5.099792000000000E-01     -8.011719000000000E+01      5.633545000000000E-01     -1.792344000000000E+02      7.734070000000000E-01     -9.400782000000000E+01
4876000000.000000      5.625305000000000E-01     -1.700859000000000E+02      5.098267000000000E-01     -8.042969000000000E+01      5.660095000000000E-01     -1.791797000000000E+02      7.769775000000000E-01     -9.406641000000000E+01
4877000000.000000      5.637512000000000E-01     -1.703359000000000E+02      5.128174000000000E-01     -8.064844000000000E+01      5.686646000000000E-01     -1.795703000000000E+02      7.785034000000000E-01     -9.419140000000000E+01
4878000000.000000      5.649719000000000E-01     -1.705234000000000E+02      5.134888000000000E-01     -8.085938000000000E+01      5.707703000000000E-01     -1.796875000000000E+02      7.818909000000000E-01     -9.416796000000000E+01
4879000000.000000      5.647583000000000E-01     -1.707656000000000E+02      5.137634000000000E-01     -8.102343000000000E+01      5.722351000000000E-01      1.799766000000000E+02      7.841187000000000E-01     -9.412500000000000E+01
4880000000.000000      5.652771000000000E-01     -1.709063000000000E+02      5.159607000000000E-01     -8.119141000000000E+01      5.752258000000000E-01      1.799297000000000E+02      7.846680000000000E-01     -9.421484000000000E+01
4881000000.000000      5.662842000000000E-01     -1.710078000000000E+02      5.165100000000000E-01     -8.138281000000000E+01      5.779419000000000E-01      1.796094000000000E+02      7.875671000000000E-01     -9.428514000000000E+01
4882000000.000000      5.643616000000000E-01     -1.710859000000000E+02      5.179443000000000E-01     -8.169140000000000E+01      5.810242000000000E-01      1.794375000000000E+02      7.889099000000000E-01     -9.427734000000000E+01
