! Network Analyzer HP8722D
! Hewlett-Packard
! Data name: Linha & Wilkinson
! Saver's name: Rodrigo Anjos
! Comments: Teste da utilização de aquisição
continua pelo VNA HP8722D
! Time and date: 15/4/2025 16:36
!              Frequency                     S11                                                   S21                                                   S12                                                   S22
# HZ  S  MA R 50
4800000000.000000      3.305054000000000E-01     -1.136992000000000E+02      2.814484000000000E-01     -6.076172000000000E+01      2.747955000000000E-01     -1.750313000000000E+02      6.530762000000000E-01     -8.952734000000000E+01
4801000000.000000      3.300323000000000E-01     -1.146172000000000E+02      2.861176000000000E-01     -6.075195000000000E+01      2.788239000000000E-01     -1.748750000000000E+02      6.534424000000000E-01     -8.944921000000000E+01
4802000000.000000      3.287354000000000E-01     -1.154844000000000E+02      2.905731000000000E-01     -6.087695000000000E+01      2.829590000000000E-01     -1.748359000000000E+02      6.510010000000000E-01     -8.953905000000000E+01
4803000000.000000      3.281708000000000E-01     -1.166406000000000E+02      2.964325000000000E-01     -6.088867000000000E+01      2.866364000000000E-01     -1.745469000000000E+02      6.506653000000000E-01     -8.969530000000000E+01
4804000000.000000      3.276672000000000E-01     -1.175312000000000E+02      2.997437000000000E-01     -6.097851000000000E+01      2.911224000000000E-01     -1.745234000000000E+02      6.499329000000000E-01     -8.973047000000000E+01
4805000000.000000      3.280487000000000E-01     -1.186016000000000E+02      3.044739000000000E-01     -6.118750000000000E+01      2.952576000000000E-01     -1.742656000000000E+02      6.498413000000000E-01     -8.992968000000000E+01
4806000000.000000      3.271179000000000E-01     -1.194765000000000E+02      3.089905000000000E-01     -6.113086000000000E+01      2.984467000000000E-01     -1.740391000000000E+02      6.491089000000000E-01     -9.008204000000000E+01
4807000000.000000      3.273621000000000E-01     -1.206562000000000E+02      3.128357000000000E-01     -6.139453000000000E+01      3.031464000000000E-01     -1.740781000000000E+02      6.479492000000000E-01     -9.008204000000000E+01
4808000000.000000      3.278656000000000E-01     -1.215195000000000E+02      3.180847000000000E-01     -6.137109000000000E+01      3.075256000000000E-01     -1.739766000000000E+02      6.472168000000000E-01     -9.006639000000000E+01
4809000000.000000      3.284454000000000E-01     -1.226601000000000E+02      3.225861000000000E-01     -6.189843000000000E+01      3.115845000000000E-01     -1.740313000000000E+02      6.473999000000000E-01     -9.023829000000000E+01
4810000000.000000      3.293610000000000E-01     -1.238437000000000E+02      3.270264000000000E-01     -6.165429000000000E+01      3.157654000000000E-01     -1.738047000000000E+02      6.477356000000000E-01     -9.044531000000000E+01
4811000000.000000      3.304901000000000E-01     -1.248789000000000E+02      3.322296000000000E-01     -6.195313000000000E+01      3.207092000000000E-01     -1.736797000000000E+02      6.464844000000000E-01     -9.043749000000000E+01
4812000000.000000      3.312988000000000E-01     -1.258906000000000E+02      3.357086000000000E-01     -6.225195000000000E+01      3.246155000000000E-01     -1.735312000000000E+02      6.473999000000000E-01     -9.048437000000000E+01
4813000000.000000      3.320618000000000E-01     -1.269844000000000E+02      3.394470000000000E-01     -6.248241000000000E+01      3.275604000000000E-01     -1.735000000000000E+02      6.460571000000000E-01     -9.058594000000000E+01
4814000000.000000      3.329468000000000E-01     -1.281328000000000E+02      3.443298000000000E-01     -6.261328000000000E+01      3.322296000000000E-01     -1.735312000000000E+02      6.463623000000000E-01     -9.066406000000000E+01
4815000000.000000      3.352356000000000E-01     -1.291875000000000E+02      3.484497000000000E-01     -6.276757000000000E+01      3.358002000000000E-01     -1.734297000000000E+02      6.457825000000000E-01     -9.077734000000000E+01
4816000000.000000      3.368530000000000E-01     -1.301797000000000E+02      3.525848000000000E-01     -6.284570000000000E+01      3.411102000000000E-01     -1.733750000000000E+02      6.463928000000000E-01     -9.077343000000000E+01
4817000000.000000      3.400574000000000E-01     -1.312266000000000E+02      3.564606000000000E-01     -6.315234000000000E+01      3.444977000000000E-01     -1.733281000000000E+02      6.461182000000000E-01     -9.098436000000000E+01
4818000000.000000      3.414001000000000E-01     -1.323984000000000E+02      3.597260000000000E-01     -6.350390000000000E+01      3.486786000000000E-01     -1.732656000000000E+02      6.469421000000000E-01     -9.109375000000000E+01
4819000000.000000      3.445587000000000E-01     -1.335391000000000E+02      3.647919000000000E-01     -6.375977000000000E+01      3.524017000000000E-01     -1.732969000000000E+02      6.487732000000000E-01     -9.109766000000000E+01
4820000000.000000      3.459167000000000E-01     -1.344453000000000E+02      3.681488000000000E-01     -6.378515000000000E+01      3.572845000000000E-01     -1.732812000000000E+02      6.496887000000000E-01     -9.114843000000000E+01
4821000000.000000      3.493347000000000E-01     -1.355703000000000E+02      3.730469000000000E-01     -6.414844000000000E+01      3.602295000000000E-01     -1.732891000000000E+02      6.482544000000000E-01     -9.132421000000000E+01
4822000000.000000      3.538971000000000E-01     -1.366250000000000E+02      3.769226000000000E-01     -6.428124000000000E+01      3.641510000000000E-01     -1.731328000000000E+02      6.492310000000000E-01     -9.132030000000000E+01
4823000000.000000      3.562927000000000E-01     -1.376250000000000E+02      3.805237000000000E-01     -6.461328000000000E+01      3.683929000000000E-01     -1.731172000000000E+02      6.504822000000000E-01     -9.142187000000000E+01
4824000000.000000      3.605652000000000E-01     -1.387031000000000E+02      3.841095000000000E-01     -6.499609000000000E+01      3.734741000000000E-01     -1.732188000000000E+02      6.516418000000000E-01     -9.146093000000000E+01
4825000000.000000      3.629456000000000E-01     -1.396641000000000E+02      3.873901000000000E-01     -6.502734000000000E+01      3.772888000000000E-01     -1.732188000000000E+02      6.527100000000000E-01     -9.151953000000000E+01
4826000000.000000      3.677521000000000E-01     -1.406719000000000E+02      3.917542000000000E-01     -6.536327000000000E+01      3.803864000000000E-01     -1.732031000000000E+02      6.543579000000000E-01     -9.158203000000000E+01
4827000000.000000      3.719482000000000E-01     -1.415625000000000E+02      3.956146000000000E-01     -6.565234000000000E+01      3.848114000000000E-01     -1.730625000000000E+02      6.554871000000000E-01     -9.161718000000000E+01
4828000000.000000      3.766785000000000E-01     -1.425469000000000E+02      3.995361000000000E-01     -6.597656000000000E+01      3.888092000000000E-01     -1.730078000000000E+02      6.578674000000000E-01     -9.167187000000000E+01
4829000000.000000      3.788452000000000E-01     -1.434531000000000E+02      4.024506000000000E-01     -6.628515000000000E+01      3.926849000000000E-01     -1.730312000000000E+02      6.586304000000000E-01     -9.176952000000000E+01
4830000000.000000      3.844452000000000E-01     -1.443672000000000E+02      4.064636000000000E-01     -6.656640000000000E+01      3.974762000000000E-01     -1.730234000000000E+02      6.592712000000000E-01     -9.188671000000000E+01
4831000000.000000      3.885040000000000E-01     -1.453359000000000E+02      4.104614000000000E-01     -6.687890000000000E+01      4.021301000000000E-01     -1.730312000000000E+02      6.612244000000000E-01     -9.189453000000000E+01
4832000000.000000      3.943024000000000E-01     -1.461484000000000E+02      4.141388000000000E-01     -6.719531000000000E+01      4.051971000000000E-01     -1.730703000000000E+02      6.636658000000000E-01     -9.200781000000000E+01
4833000000.000000      3.994141000000000E-01     -1.470937000000000E+02      4.170380000000000E-01     -6.735156000000000E+01      4.095612000000000E-01     -1.731875000000000E+02      6.641846000000000E-01     -9.205858000000000E+01
4834000000.000000      4.036865000000000E-01     -1.479063000000000E+02      4.199829000000000E-01     -6.768749000000000E+01      4.139252000000000E-01     -1.732265000000000E+02      6.661377000000000E-01     -9.222656000000000E+01
4835000000.000000      4.081116000000000E-01     -1.487187000000000E+02      4.242554000000000E-01     -6.801562000000000E+01      4.184265000000000E-01     -1.731641000000000E+02      6.685791000000000E-01     -9.220312000000000E+01
4836000000.000000      4.143372000000000E-01     -1.494766000000000E+02      4.271545000000000E-01     -6.826953000000000E+01      4.222412000000000E-01     -1.732969000000000E+02      6.688232000000000E-01     -9.216797000000000E+01
4837000000.000000      4.194336000000000E-01     -1.502969000000000E+02      4.298553000000000E-01     -6.896093000000000E+01      4.262238000000000E-01     -1.734375000000000E+02      6.723022000000000E-01     -9.225780000000000E+01
4838000000.000000      4.248047000000000E-01     -1.511797000000000E+02      4.335175000000000E-01     -6.890625000000000E+01      4.304962000000000E-01     -1.733359000000000E+02      6.738281000000000E-01     -9.236719000000000E+01
4839000000.000000      4.298248000000000E-01     -1.518047000000000E+02      4.367981000000000E-01     -6.923046000000000E+01      4.351654000000000E-01     -1.733594000000000E+02      6.775818000000000E-01     -9.237499000000000E+01
4840000000.000000      4.345856000000000E-01     -1.526562000000000E+02      4.403076000000000E-01     -6.952734000000000E+01      4.391479000000000E-01     -1.735156000000000E+02      6.781921000000000E-01     -9.248047000000000E+01
4841000000.000000      4.401703000000000E-01     -1.534844000000000E+02      4.421692000000000E-01     -6.995703000000000E+01      4.434357000000000E-01     -1.736719000000000E+02      6.805725000000000E-01     -9.258984000000000E+01
4842000000.000000      4.455872000000000E-01     -1.541172000000000E+02      4.456482000000000E-01     -7.020702000000000E+01      4.467926000000000E-01     -1.736484000000000E+02      6.831360000000000E-01     -9.255859000000000E+01
4843000000.000000      4.502106000000000E-01     -1.549062000000000E+02      4.491730000000000E-01     -7.064843000000000E+01      4.514771000000000E-01     -1.737344000000000E+02      6.848450000000000E-01     -9.264843000000000E+01
4844000000.000000      4.553070000000000E-01     -1.555547000000000E+02      4.510956000000000E-01     -7.090234000000000E+01      4.546509000000000E-01     -1.738203000000000E+02      6.877441000000000E-01     -9.274218000000000E+01
4845000000.000000      4.606628000000000E-01     -1.561797000000000E+02      4.542236000000000E-01     -7.118359000000000E+01      4.593506000000000E-01     -1.739609000000000E+02      6.894531000000000E-01     -9.259766000000000E+01
4846000000.000000      4.657593000000000E-01     -1.567891000000000E+02      4.569702000000000E-01     -7.148438000000000E+01      4.640656000000000E-01     -1.739922000000000E+02      6.930237000000000E-01     -9.271093000000000E+01
4847000000.000000      4.716949000000000E-01     -1.574844000000000E+02      4.603424000000000E-01     -7.181250000000000E+01      4.679565000000000E-01     -1.742188000000000E+02      6.966553000000000E-01     -9.287109000000000E+01
4848000000.000000      4.767456000000000E-01     -1.580937000000000E+02      4.618378000000000E-01     -7.212500000000000E+01      4.721832000000000E-01     -1.742266000000000E+02      6.976929000000000E-01     -9.287889000000000E+01
4849000000.000000      4.818726000000000E-01     -1.589766000000000E+02      4.653778000000000E-01     -7.246484000000000E+01      4.761963000000000E-01     -1.744062000000000E+02      7.008057000000000E-01     -9.296875000000000E+01
4850000000.000000      4.862976000000000E-01     -1.593437000000000E+02      4.668274000000000E-01     -7.271484000000000E+01      4.800568000000000E-01     -1.744922000000000E+02      7.031860000000000E-01     -9.288280000000000E+01
4851000000.000000      4.918060000000000E-01     -1.599688000000000E+02      4.711609000000000E-01     -7.321094000000000E+01      4.839935000000000E-01     -1.746172000000000E+02      7.068787000000000E-01     -9.298828000000000E+01
4852000000.000000      4.965820000000000E-01     -1.605469000000000E+02      4.730225000000000E-01     -7.343359000000000E+01      4.883423000000000E-01     -1.746719000000000E+02      7.090149000000000E-01     -9.289454000000000E+01
4853000000.000000      5.016479000000000E-01     -1.610937000000000E+02      4.737244000000000E-01     -7.375000000000000E+01      4.929352000000000E-01     -1.749219000000000E+02      7.145081000000000E-01     -9.323437000000000E+01
4854000000.000000      5.055847000000000E-01     -1.616250000000000E+02      4.766541000000000E-01     -7.430469000000000E+01      4.959412000000000E-01     -1.750391000000000E+02      7.164307000000000E-01     -9.317186000000000E+01
4855000000.000000      5.088501000000000E-01     -1.622578000000000E+02      4.792328000000000E-01     -7.446484000000000E+01      4.998932000000000E-01     -1.751094000000000E+02      7.168274000000000E-01     -9.319139000000000E+01
4856000000.000000      5.145569000000000E-01     -1.626953000000000E+02      4.806824000000000E-01     -7.468750000000000E+01      5.031128000000000E-01     -1.752344000000000E+02      7.203979000000000E-01     -9.323828000000000E+01
4857000000.000000      5.185852000000000E-01     -1.632578000000000E+02      4.831848000000000E-01     -7.500390000000000E+01      5.085449000000000E-01     -1.753828000000000E+02      7.249451000000000E-01     -9.325781000000000E+01
4858000000.000000      5.211792000000000E-01     -1.637578000000000E+02      4.858246000000000E-01     -7.547656000000000E+01      5.105286000000000E-01     -1.756406000000000E+02      7.275696000000000E-01     -9.328905000000000E+01
4859000000.000000      5.249023000000000E-01     -1.642578000000000E+02      4.875946000000000E-01     -7.576953000000000E+01      5.140381000000000E-01     -1.758281000000000E+02      7.295837000000000E-01     -9.344921000000000E+01
4860000000.000000      5.301514000000000E-01     -1.647578000000000E+02      4.888306000000000E-01     -7.589453000000000E+01      5.196228000000000E-01     -1.759219000000000E+02      7.321167000000000E-01     -9.336329000000000E+01
4861000000.000000      5.330505000000000E-01     -1.650859000000000E+02      4.907990000000000E-01     -7.632813000000000E+01      5.223694000000000E-01     -1.760547000000000E+02      7.361755000000000E-01     -9.358202000000000E+01
4862000000.000000      5.361938000000000E-01     -1.655625000000000E+02      4.939117000000000E-01     -7.657421000000000E+01      5.270996000000000E-01     -1.762969000000000E+02      7.395325000000000E-01     -9.348436000000000E+01
4863000000.000000      5.389099000000000E-01     -1.659141000000000E+02      4.945374000000000E-01     -7.708202000000000E+01      5.304260000000000E-01     -1.765078000000000E+02      7.420044000000000E-01     -9.354687000000000E+01
4864000000.000000      5.422363000000000E-01     -1.662891000000000E+02      4.969482000000000E-01     -7.703906000000000E+01      5.320435000000000E-01     -1.766172000000000E+02      7.433472000000000E-01     -9.357813000000000E+01
4865000000.000000      5.448303000000000E-01     -1.668047000000000E+02      4.974365000000000E-01     -7.744531000000000E+01      5.358276000000000E-01     -1.769531000000000E+02      7.470398000000000E-01     -9.358593000000000E+01
4866000000.000000      5.461731000000000E-01     -1.671094000000000E+02      4.991455000000000E-01     -7.785937000000000E+01      5.388489000000000E-01     -1.771172000000000E+02      7.509155000000000E-01     -9.355860000000000E+01
4867000000.000000      5.497131000000000E-01     -1.674766000000000E+02      5.022583000000000E-01     -7.830859000000000E+01      5.419006000000000E-01     -1.771406000000000E+02      7.549744000000000E-01     -9.366014000000000E+01
4868000000.000000      5.516357000000000E-01     -1.678516000000000E+02      5.025940000000000E-01     -7.846874000000000E+01      5.455933000000000E-01     -1.774297000000000E+02      7.565613000000000E-01     -9.369921000000000E+01
4869000000.000000      5.535889000000000E-01     -1.681953000000000E+02      5.023193000000000E-01     -7.860937000000000E+01      5.473022000000000E-01     -1.776406000000000E+02      7.591553000000000E-01     -9.389063000000000E+01
4870000000.000000      5.549927000000000E-01     -1.685313000000000E+02      5.054626000000000E-01     -7.887890000000000E+01      5.515442000000000E-01     -1.779687000000000E+02      7.624817000000000E-01     -9.376171000000000E+01
4871000000.000000      5.574341000000000E-01     -1.688672000000000E+02      5.061035000000000E-01     -7.921484000000000E+01      5.544128000000000E-01     -1.780937000000000E+02      7.638550000000000E-01     -9.387890000000000E+01
4872000000.000000      5.593872000000000E-01     -1.691250000000000E+02      5.061646000000000E-01     -7.928515000000000E+01      5.559998000000000E-01     -1.784531000000000E+02      7.661438000000000E-01     -9.389063000000000E+01
4873000000.000000      5.607605000000000E-01     -1.693516000000000E+02      5.086060000000000E-01     -7.972656000000000E+01      5.580139000000000E-01     -1.786328000000000E+02      7.694702000000000E-01     -9.392578000000000E+01
4874000000.000000      5.613708000000000E-01     -1.695469000000000E+02      5.091553000000000E-01     -7.999218000000000E+01      5.615845000000000E-01     -1.787812000000000E+02      7.729492000000000E-01     -9.378515000000000E+01
4875000000.000000      5.632324000000000E-01     -1.698984000000000E+02      5.101929000000000E-01     -8.000780000000000E+01      5.642090000000000E-01     -1.791172000000000E+02      7.740479000000000E-01     -9.398829000000000E+01
4876000000.000000      5.626526000000000E-01     -1.700312000000000E+02      5.119324000000000E-01     -8.031641000000000E+01      5.666199000000000E-01     -1.791328000000000E+02      7.774658000000000E-01     -9.402344000000000E+01
4877000000.000000      5.643921000000000E-01     -1.702891000000000E+02      5.129089000000000E-01     -8.051172000000000E+01      5.695801000000000E-01     -1.796094000000000E+02      7.794189000000000E-01     -9.417969000000000E+01
4878000000.000000      5.650024000000000E-01     -1.704609000000000E+02      5.128784000000000E-01     -8.076172000000000E+01      5.712585000000000E-01     -1.796484000000000E+02      7.807617000000000E-01     -9.416016000000000E+01
4879000000.000000      5.664063000000000E-01     -1.706328000000000E+02      5.127258000000000E-01     -8.104687000000000E+01      5.738831000000000E-01     -1.799219000000000E+02      7.817688000000000E-01     -9.415625000000000E+01
4880000000.000000      5.650940000000000E-01     -1.708516000000000E+02      5.149536000000000E-01     -8.133593000000000E+01      5.763245000000000E-01      1.799297000000000E+02      7.853088000000000E-01     -9.421484000000000E+01
4881000000.000000      5.667419000000000E-01     -1.709844000000000E+02      5.167542000000000E-01     -8.141016000000000E+01      5.786438000000000E-01      1.796328000000000E+02      7.874756000000000E-01     -9.432421000000000E+01
4882000000.000000      5.645752000000000E-01     -1.710859000000000E+02      5.179749000000000E-01     -8.169140000000000E+01      5.801697000000000E-01      1.795859000000000E+02      7.898254000000000E-01     -9.433985000000000E+01
