! Network Analyzer HP8722D
! Hewlett-Packard
! Data name: Linha & Wilkinson
! Saver's name: Rodrigo Anjos
! Comments: Teste da utilização de aquisição
continua pelo VNA HP8722D
! Time and date: 15/4/2025 17:05
!              Frequency                     S11                                                   S21                                                   S12                                                   S22
# HZ  S  MA R 50
4800000000.000000      3.305054000000000E-01     -1.136836000000000E+02      2.818451000000000E-01     -6.072851000000000E+01      2.754517000000000E-01     -1.750547000000000E+02      6.545105000000000E-01     -8.948046000000000E+01
4801000000.000000      3.296661000000000E-01     -1.146055000000000E+02      2.863922000000000E-01     -6.086132000000000E+01      2.789917000000000E-01     -1.749063000000000E+02      6.532288000000000E-01     -8.949219000000000E+01
4802000000.000000      3.282776000000000E-01     -1.155664000000000E+02      2.911682000000000E-01     -6.069140000000000E+01      2.836456000000000E-01     -1.745937000000000E+02      6.505737000000000E-01     -8.957031000000000E+01
4803000000.000000      3.273468000000000E-01     -1.166016000000000E+02      2.959442000000000E-01     -6.085938000000000E+01      2.871704000000000E-01     -1.746719000000000E+02      6.509399000000000E-01     -8.971874000000000E+01
4804000000.000000      3.272400000000000E-01     -1.175781000000000E+02      3.003235000000000E-01     -6.087695000000000E+01      2.914734000000000E-01     -1.745234000000000E+02      6.502686000000000E-01     -8.976954000000000E+01
4805000000.000000      3.276672000000000E-01     -1.186445000000000E+02      3.050385000000000E-01     -6.112305000000000E+01      2.962494000000000E-01     -1.742734000000000E+02      6.492004000000000E-01     -8.990234000000000E+01
4806000000.000000      3.272552000000000E-01     -1.195351000000000E+02      3.096313000000000E-01     -6.134375000000000E+01      2.993927000000000E-01     -1.741641000000000E+02      6.495056000000000E-01     -9.000000000000000E+01
4807000000.000000      3.275757000000000E-01     -1.206133000000000E+02      3.141785000000000E-01     -6.140038000000000E+01      3.035736000000000E-01     -1.741484000000000E+02      6.469116000000000E-01     -9.020311000000000E+01
4808000000.000000      3.275909000000000E-01     -1.215586000000000E+02      3.186340000000000E-01     -6.126171000000000E+01      3.081818000000000E-01     -1.741250000000000E+02      6.474304000000000E-01     -9.022655000000000E+01
4809000000.000000      3.282166000000000E-01     -1.226875000000000E+02      3.232269000000000E-01     -6.185156000000000E+01      3.125458000000000E-01     -1.740469000000000E+02      6.469116000000000E-01     -9.031250000000000E+01
4810000000.000000      3.289337000000000E-01     -1.238398000000000E+02      3.273315000000000E-01     -6.181835000000000E+01      3.162231000000000E-01     -1.738437000000000E+02      6.473999000000000E-01     -9.043749000000000E+01
4811000000.000000      3.298340000000000E-01     -1.248281000000000E+02      3.320465000000000E-01     -6.213281000000000E+01      3.212433000000000E-01     -1.737187000000000E+02      6.470337000000000E-01     -9.045702000000000E+01
4812000000.000000      3.312683000000000E-01     -1.259023000000000E+02      3.356934000000000E-01     -6.232422000000000E+01      3.248596000000000E-01     -1.735312000000000E+02      6.463318000000000E-01     -9.063671000000000E+01
4813000000.000000      3.318329000000000E-01     -1.269844000000000E+02      3.401794000000000E-01     -6.243945000000000E+01      3.287659000000000E-01     -1.734688000000000E+02      6.460876000000000E-01     -9.062500000000000E+01
4814000000.000000      3.328552000000000E-01     -1.282812000000000E+02      3.445435000000000E-01     -6.267578000000000E+01      3.327179000000000E-01     -1.735547000000000E+02      6.464844000000000E-01     -9.066406000000000E+01
4815000000.000000      3.353729000000000E-01     -1.292344000000000E+02      3.480377000000000E-01     -6.273242000000000E+01      3.365326000000000E-01     -1.733438000000000E+02      6.457214000000000E-01     -9.075781000000000E+01
4816000000.000000      3.369293000000000E-01     -1.301953000000000E+02      3.539734000000000E-01     -6.304492000000000E+01      3.413544000000000E-01     -1.732969000000000E+02      6.460876000000000E-01     -9.085938000000000E+01
4817000000.000000      3.393250000000000E-01     -1.312891000000000E+02      3.570862000000000E-01     -6.323437000000000E+01      3.446350000000000E-01     -1.733516000000000E+02      6.454773000000000E-01     -9.094530000000000E+01
4818000000.000000      3.417816000000000E-01     -1.324766000000000E+02      3.608704000000000E-01     -6.337695000000000E+01      3.495178000000000E-01     -1.732109000000000E+02      6.466675000000000E-01     -9.109375000000000E+01
4819000000.000000      3.449097000000000E-01     -1.334609000000000E+02      3.646088000000000E-01     -6.366015000000000E+01      3.519287000000000E-01     -1.732500000000000E+02      6.482544000000000E-01     -9.116405000000000E+01
4820000000.000000      3.461761000000000E-01     -1.345078000000000E+02      3.692474000000000E-01     -6.375586000000000E+01      3.577423000000000E-01     -1.732812000000000E+02      6.485291000000000E-01     -9.127344000000000E+01
4821000000.000000      3.500671000000000E-01     -1.356016000000000E+02      3.735809000000000E-01     -6.410937000000000E+01      3.609619000000000E-01     -1.733047000000000E+02      6.485291000000000E-01     -9.142969000000000E+01
4822000000.000000      3.537445000000000E-01     -1.366406000000000E+02      3.764191000000000E-01     -6.432031000000000E+01      3.647766000000000E-01     -1.733047000000000E+02      6.502380000000000E-01     -9.131250000000000E+01
4823000000.000000      3.562469000000000E-01     -1.376641000000000E+02      3.806763000000000E-01     -6.463672000000000E+01      3.687744000000000E-01     -1.730234000000000E+02      6.507874000000000E-01     -9.138672000000000E+01
4824000000.000000      3.601685000000000E-01     -1.387109000000000E+02      3.846893000000000E-01     -6.498828000000000E+01      3.731232000000000E-01     -1.731484000000000E+02      6.515503000000000E-01     -9.151171000000000E+01
4825000000.000000      3.637085000000000E-01     -1.396641000000000E+02      3.886261000000000E-01     -6.514453000000000E+01      3.779297000000000E-01     -1.731328000000000E+02      6.527710000000000E-01     -9.157812000000000E+01
4826000000.000000      3.678589000000000E-01     -1.407266000000000E+02      3.918304000000000E-01     -6.552343000000000E+01      3.807373000000000E-01     -1.731484000000000E+02      6.543579000000000E-01     -9.167578000000000E+01
4827000000.000000      3.720703000000000E-01     -1.415625000000000E+02      3.959503000000000E-01     -6.560547000000000E+01      3.850250000000000E-01     -1.730859000000000E+02      6.551208000000000E-01     -9.170313000000000E+01
4828000000.000000      3.766937000000000E-01     -1.425156000000000E+02      3.999634000000000E-01     -6.587891000000000E+01      3.894806000000000E-01     -1.730859000000000E+02      6.569519000000000E-01     -9.181250000000000E+01
4829000000.000000      3.795166000000000E-01     -1.435000000000000E+02      4.035645000000000E-01     -6.636719000000000E+01      3.938293000000000E-01     -1.730859000000000E+02      6.574097000000000E-01     -9.183203000000000E+01
4830000000.000000      3.847809000000000E-01     -1.444141000000000E+02      4.057617000000000E-01     -6.656640000000000E+01      3.980255000000000E-01     -1.731016000000000E+02      6.586914000000000E-01     -9.189062000000000E+01
4831000000.000000      3.886719000000000E-01     -1.452812000000000E+02      4.101410000000000E-01     -6.698047000000000E+01      4.022827000000000E-01     -1.730781000000000E+02      6.623840000000000E-01     -9.195313000000000E+01
4832000000.000000      3.942566000000000E-01     -1.462188000000000E+02      4.138641000000000E-01     -6.711328000000000E+01      4.055481000000000E-01     -1.731406000000000E+02      6.618958000000000E-01     -9.207422000000000E+01
4833000000.000000      3.997803000000000E-01     -1.471250000000000E+02      4.186096000000000E-01     -6.736718000000000E+01      4.102783000000000E-01     -1.731953000000000E+02      6.647949000000000E-01     -9.208984000000000E+01
4834000000.000000      4.038849000000000E-01     -1.479922000000000E+02      4.204254000000000E-01     -6.770312000000000E+01      4.143829000000000E-01     -1.731562000000000E+02      6.662292000000000E-01     -9.214453000000000E+01
4835000000.000000      4.083557000000000E-01     -1.487656000000000E+02      4.241943000000000E-01     -6.804688000000000E+01      4.186707000000000E-01     -1.732188000000000E+02      6.683350000000000E-01     -9.228125000000000E+01
4836000000.000000      4.142761000000000E-01     -1.495703000000000E+02      4.267426000000000E-01     -6.830078000000000E+01      4.225464000000000E-01     -1.732344000000000E+02      6.702271000000000E-01     -9.232813000000000E+01
4837000000.000000      4.196320000000000E-01     -1.503594000000000E+02      4.301147000000000E-01     -6.893749000000000E+01      4.257813000000000E-01     -1.733438000000000E+02      6.718445000000000E-01     -9.221483000000000E+01
4838000000.000000      4.244690000000000E-01     -1.512031000000000E+02      4.351654000000000E-01     -6.892187000000000E+01      4.308167000000000E-01     -1.733828000000000E+02      6.745300000000000E-01     -9.240625000000000E+01
4839000000.000000      4.301300000000000E-01     -1.518437000000000E+02      4.371948000000000E-01     -6.929296000000000E+01      4.350891000000000E-01     -1.734141000000000E+02      6.764832000000000E-01     -9.230860000000000E+01
4840000000.000000      4.345245000000000E-01     -1.527031000000000E+02      4.393311000000000E-01     -6.944921000000000E+01      4.391174000000000E-01     -1.735781000000000E+02      6.783142000000000E-01     -9.256639000000000E+01
4841000000.000000      4.397125000000000E-01     -1.535391000000000E+02      4.431763000000000E-01     -6.985546000000000E+01      4.440155000000000E-01     -1.736406000000000E+02      6.810303000000000E-01     -9.260157000000000E+01
4842000000.000000      4.457397000000000E-01     -1.541484000000000E+02      4.461060000000000E-01     -7.032031000000000E+01      4.468079000000000E-01     -1.736719000000000E+02      6.832886000000000E-01     -9.253906000000000E+01
4843000000.000000      4.505768000000000E-01     -1.549531000000000E+02      4.496002000000000E-01     -7.060937000000000E+01      4.515991000000000E-01     -1.738125000000000E+02      6.849670000000000E-01     -9.266016000000000E+01
4844000000.000000      4.558258000000000E-01     -1.555781000000000E+02      4.510803000000000E-01     -7.088281000000000E+01      4.550476000000000E-01     -1.738750000000000E+02      6.886292000000000E-01     -9.279297000000000E+01
4845000000.000000      4.602509000000000E-01     -1.562578000000000E+02      4.537811000000000E-01     -7.113671000000000E+01      4.597015000000000E-01     -1.740156000000000E+02      6.904297000000000E-01     -9.275000000000000E+01
4846000000.000000      4.655609000000000E-01     -1.568359000000000E+02      4.575043000000000E-01     -7.135547000000000E+01      4.646454000000000E-01     -1.739922000000000E+02      6.937256000000000E-01     -9.270311000000000E+01
4847000000.000000      4.716797000000000E-01     -1.575078000000000E+02      4.597321000000000E-01     -7.169140000000000E+01      4.685211000000000E-01     -1.742031000000000E+02      6.971130000000000E-01     -9.284765000000000E+01
4848000000.000000      4.766998000000000E-01     -1.581328000000000E+02      4.618530000000000E-01     -7.209374000000000E+01      4.722290000000000E-01     -1.742344000000000E+02      6.977234000000000E-01     -9.302343000000000E+01
4849000000.000000      4.816742000000000E-01     -1.590000000000000E+02      4.648438000000000E-01     -7.257813000000000E+01      4.765778000000000E-01     -1.744219000000000E+02      7.012634000000000E-01     -9.284374000000000E+01
4850000000.000000      4.866943000000000E-01     -1.594375000000000E+02      4.680786000000000E-01     -7.286327000000000E+01      4.805756000000000E-01     -1.744531000000000E+02      7.039490000000000E-01     -9.298046000000000E+01
4851000000.000000      4.917145000000000E-01     -1.599766000000000E+02      4.709625000000000E-01     -7.326562000000000E+01      4.840546000000000E-01     -1.745859000000000E+02      7.075195000000000E-01     -9.298437000000000E+01
4852000000.000000      4.966278000000000E-01     -1.605469000000000E+02      4.723053000000000E-01     -7.355859000000000E+01      4.884491000000000E-01     -1.747422000000000E+02      7.101746000000000E-01     -9.303125000000000E+01
4853000000.000000      5.014648000000000E-01     -1.611719000000000E+02      4.737701000000000E-01     -7.389843000000000E+01      4.928284000000000E-01     -1.749687000000000E+02      7.128906000000000E-01     -9.316797000000000E+01
4854000000.000000      5.057678000000000E-01     -1.616719000000000E+02      4.769592000000000E-01     -7.418750000000000E+01      4.959106000000000E-01     -1.750234000000000E+02      7.157288000000000E-01     -9.319530000000000E+01
4855000000.000000      5.088501000000000E-01     -1.623047000000000E+02      4.788208000000000E-01     -7.442577000000000E+01      5.004883000000000E-01     -1.751406000000000E+02      7.173462000000000E-01     -9.311718000000000E+01
4856000000.000000      5.143433000000000E-01     -1.626953000000000E+02      4.810638000000000E-01     -7.470312000000000E+01      5.031433000000000E-01     -1.753359000000000E+02      7.216187000000000E-01     -9.328516000000000E+01
4857000000.000000      5.185852000000000E-01     -1.633047000000000E+02      4.842072000000000E-01     -7.504296000000000E+01      5.080872000000000E-01     -1.755391000000000E+02      7.236023000000000E-01     -9.333984000000000E+01
4858000000.000000      5.205383000000000E-01     -1.637734000000000E+02      4.853058000000000E-01     -7.535156000000000E+01      5.111084000000000E-01     -1.758125000000000E+02      7.284241000000000E-01     -9.336718000000000E+01
4859000000.000000      5.251160000000000E-01     -1.643437000000000E+02      4.877319000000000E-01     -7.570313000000000E+01      5.141602000000000E-01     -1.758516000000000E+02      7.307129000000000E-01     -9.348827000000000E+01
4860000000.000000      5.295715000000000E-01     -1.647266000000000E+02      4.885559000000000E-01     -7.593359000000000E+01      5.179443000000000E-01     -1.760781000000000E+02      7.337952000000000E-01     -9.332031000000000E+01
4861000000.000000      5.326843000000000E-01     -1.651328000000000E+02      4.903412000000000E-01     -7.640234000000000E+01      5.224915000000000E-01     -1.762109000000000E+02      7.359619000000000E-01     -9.348436000000000E+01
4862000000.000000      5.363464000000000E-01     -1.655859000000000E+02      4.932251000000000E-01     -7.661327000000000E+01      5.269775000000000E-01     -1.762734000000000E+02      7.398682000000000E-01     -9.352343000000000E+01
4863000000.000000      5.385132000000000E-01     -1.659922000000000E+02      4.936066000000000E-01     -7.698437000000000E+01      5.303955000000000E-01     -1.765547000000000E+02      7.423401000000000E-01     -9.366014000000000E+01
4864000000.000000      5.421448000000000E-01     -1.663828000000000E+02      4.965820000000000E-01     -7.722265000000000E+01      5.317078000000000E-01     -1.765781000000000E+02      7.438049000000000E-01     -9.366014000000000E+01
4865000000.000000      5.440369000000000E-01     -1.668750000000000E+02      4.978180000000000E-01     -7.757030000000000E+01      5.368347000000000E-01     -1.768437000000000E+02      7.487183000000000E-01     -9.351563000000000E+01
4866000000.000000      5.462036000000000E-01     -1.671484000000000E+02      4.983521000000000E-01     -7.763281000000000E+01      5.396118000000000E-01     -1.771875000000000E+02      7.503357000000000E-01     -9.355860000000000E+01
4867000000.000000      5.497131000000000E-01     -1.675000000000000E+02      5.009766000000000E-01     -7.815234000000000E+01      5.422974000000000E-01     -1.773672000000000E+02      7.532654000000000E-01     -9.367579000000000E+01
4868000000.000000      5.523682000000000E-01     -1.679297000000000E+02      5.027161000000000E-01     -7.848437000000000E+01      5.455627000000000E-01     -1.776016000000000E+02      7.555847000000000E-01     -9.371485000000000E+01
4869000000.000000      5.533142000000000E-01     -1.682266000000000E+02      5.036316000000000E-01     -7.889453000000000E+01      5.484009000000000E-01     -1.778047000000000E+02      7.601318000000000E-01     -9.396093000000000E+01
4870000000.000000      5.559082000000000E-01     -1.685390000000000E+02      5.044861000000000E-01     -7.879687000000000E+01      5.512695000000000E-01     -1.779609000000000E+02      7.628479000000000E-01     -9.377344000000000E+01
4871000000.000000      5.572510000000000E-01     -1.689062000000000E+02      5.052490000000000E-01     -7.913671000000000E+01      5.532227000000000E-01     -1.781719000000000E+02      7.634277000000000E-01     -9.387890000000000E+01
4872000000.000000      5.598450000000000E-01     -1.691641000000000E+02      5.074768000000000E-01     -7.929296000000000E+01      5.573425000000000E-01     -1.785156000000000E+02      7.664185000000000E-01     -9.390234000000000E+01
4873000000.000000      5.599060000000000E-01     -1.693672000000000E+02      5.081177000000000E-01     -7.968750000000000E+01      5.592957000000000E-01     -1.786641000000000E+02      7.692871000000000E-01     -9.408983000000000E+01
4874000000.000000      5.618286000000000E-01     -1.695391000000000E+02      5.086365000000000E-01     -8.001562000000000E+01      5.634155000000000E-01     -1.786641000000000E+02      7.719727000000000E-01     -9.385546000000000E+01
4875000000.000000      5.632019000000000E-01     -1.699219000000000E+02      5.086670000000000E-01     -8.008984000000000E+01      5.643311000000000E-01     -1.791953000000000E+02      7.736206000000000E-01     -9.404297000000000E+01
4876000000.000000      5.629578000000000E-01     -1.701172000000000E+02      5.101624000000000E-01     -8.041016000000000E+01      5.650635000000000E-01     -1.792422000000000E+02      7.774048000000000E-01     -9.405468000000000E+01
4877000000.000000      5.638428000000000E-01     -1.703438000000000E+02      5.132751000000000E-01     -8.067577000000000E+01      5.686646000000000E-01     -1.794375000000000E+02      7.798157000000000E-01     -9.412500000000000E+01
4878000000.000000      5.645447000000000E-01     -1.705625000000000E+02      5.134277000000000E-01     -8.085938000000000E+01      5.714722000000000E-01     -1.796406000000000E+02      7.819824000000000E-01     -9.419140000000000E+01
4879000000.000000      5.665283000000000E-01     -1.707891000000000E+02      5.136719000000000E-01     -8.102343000000000E+01      5.744934000000000E-01     -1.798906000000000E+02      7.836609000000000E-01     -9.411327000000000E+01
4880000000.000000      5.652161000000000E-01     -1.708828000000000E+02      5.149231000000000E-01     -8.124609000000000E+01      5.759888000000000E-01      1.798984000000000E+02      7.876282000000000E-01     -9.419531000000000E+01
4881000000.000000      5.658569000000000E-01     -1.710234000000000E+02      5.175781000000000E-01     -8.146484000000000E+01      5.786133000000000E-01      1.795000000000000E+02      7.875671000000000E-01     -9.439453000000000E+01
4882000000.000000      5.651550000000000E-01     -1.711562000000000E+02      5.166321000000000E-01     -8.178125000000000E+01      5.794373000000000E-01      1.794453000000000E+02      7.903137000000000E-01     -9.433203000000000E+01
