! Network Analyzer HP8722D
! Hewlett-Packard
! Data name: Linha & Wilkinson
! Saver's name: Rodrigo Anjos
! Comments: Teste da utilização de aquisição
continua pelo VNA HP8722D
! Time and date: 15/4/2025 17:13
!              Frequency                     S11                                                   S21                                                   S12                                                   S22
# HZ  S  MA R 50
4800000000.000000      3.302155000000000E-01     -1.136641000000000E+02      2.815247000000000E-01     -6.074609000000000E+01      2.747955000000000E-01     -1.749375000000000E+02      6.541138000000000E-01     -8.933985000000000E+01
4801000000.000000      3.295441000000000E-01     -1.144570000000000E+02      2.860870000000000E-01     -6.078515000000000E+01      2.786865000000000E-01     -1.748125000000000E+02      6.532898000000000E-01     -8.944139000000000E+01
4802000000.000000      3.287048000000000E-01     -1.155742000000000E+02      2.901459000000000E-01     -6.077734000000000E+01      2.834778000000000E-01     -1.747109000000000E+02      6.516418000000000E-01     -8.957031000000000E+01
4803000000.000000      3.279114000000000E-01     -1.164570000000000E+02      2.958832000000000E-01     -6.083202000000000E+01      2.870178000000000E-01     -1.744844000000000E+02      6.526794000000000E-01     -8.965624000000000E+01
4804000000.000000      3.277130000000000E-01     -1.175039000000000E+02      2.993011000000000E-01     -6.083008000000000E+01      2.911987000000000E-01     -1.745078000000000E+02      6.501770000000000E-01     -8.978516000000000E+01
4805000000.000000      3.278046000000000E-01     -1.184766000000000E+02      3.043671000000000E-01     -6.109765000000000E+01      2.953033000000000E-01     -1.742031000000000E+02      6.493225000000000E-01     -8.994141000000000E+01
4806000000.000000      3.272705000000000E-01     -1.194765000000000E+02      3.090668000000000E-01     -6.121679000000000E+01      2.988892000000000E-01     -1.740625000000000E+02      6.493530000000000E-01     -9.003515000000000E+01
4807000000.000000      3.268890000000000E-01     -1.205039000000000E+02      3.136292000000000E-01     -6.137695000000000E+01      3.030396000000000E-01     -1.741250000000000E+02      6.478882000000000E-01     -9.002733000000000E+01
4808000000.000000      3.276062000000000E-01     -1.215820000000000E+02      3.185120000000000E-01     -6.127539000000000E+01      3.073273000000000E-01     -1.740937000000000E+02      6.470947000000000E-01     -9.018358000000000E+01
4809000000.000000      3.281403000000000E-01     -1.226367000000000E+02      3.227539000000000E-01     -6.179688000000000E+01      3.121643000000000E-01     -1.739453000000000E+02      6.468506000000000E-01     -9.031641000000000E+01
4810000000.000000      3.287506000000000E-01     -1.237695000000000E+02      3.272247000000000E-01     -6.169922000000000E+01      3.154144000000000E-01     -1.737656000000000E+02      6.471252000000000E-01     -9.042187000000000E+01
4811000000.000000      3.300171000000000E-01     -1.248281000000000E+02      3.313446000000000E-01     -6.213281000000000E+01      3.208618000000000E-01     -1.736484000000000E+02      6.467590000000000E-01     -9.035547000000000E+01
4812000000.000000      3.312531000000000E-01     -1.257969000000000E+02      3.357239000000000E-01     -6.224218000000000E+01      3.243713000000000E-01     -1.735391000000000E+02      6.465759000000000E-01     -9.054688000000000E+01
4813000000.000000      3.314209000000000E-01     -1.269180000000000E+02      3.396912000000000E-01     -6.233007000000000E+01      3.281555000000000E-01     -1.734141000000000E+02      6.461487000000000E-01     -9.056641000000000E+01
4814000000.000000      3.328247000000000E-01     -1.280859000000000E+02      3.443146000000000E-01     -6.254883000000000E+01      3.328552000000000E-01     -1.734141000000000E+02      6.468201000000000E-01     -9.071484000000000E+01
4815000000.000000      3.350372000000000E-01     -1.291016000000000E+02      3.473969000000000E-01     -6.266602000000000E+01      3.360596000000000E-01     -1.733750000000000E+02      6.458435000000000E-01     -9.059374000000000E+01
4816000000.000000      3.366547000000000E-01     -1.301016000000000E+02      3.526917000000000E-01     -6.289844000000000E+01      3.411102000000000E-01     -1.731875000000000E+02      6.457825000000000E-01     -9.078905000000000E+01
4817000000.000000      3.394165000000000E-01     -1.311797000000000E+02      3.567810000000000E-01     -6.316796000000000E+01      3.441925000000000E-01     -1.733359000000000E+02      6.459656000000000E-01     -9.091797000000000E+01
4818000000.000000      3.415985000000000E-01     -1.323828000000000E+02      3.593750000000000E-01     -6.338476000000000E+01      3.489075000000000E-01     -1.732344000000000E+02      6.471558000000000E-01     -9.103125000000000E+01
4819000000.000000      3.440704000000000E-01     -1.334375000000000E+02      3.645020000000000E-01     -6.366211000000000E+01      3.520355000000000E-01     -1.732109000000000E+02      6.477966000000000E-01     -9.112499000000000E+01
4820000000.000000      3.459015000000000E-01     -1.344453000000000E+02      3.682709000000000E-01     -6.384960000000000E+01      3.570709000000000E-01     -1.732031000000000E+02      6.483765000000000E-01     -9.118750000000000E+01
4821000000.000000      3.495789000000000E-01     -1.355391000000000E+02      3.726349000000000E-01     -6.419922000000000E+01      3.604431000000000E-01     -1.732812000000000E+02      6.477661000000000E-01     -9.119921000000000E+01
4822000000.000000      3.534698000000000E-01     -1.365625000000000E+02      3.757935000000000E-01     -6.438281000000000E+01      3.646698000000000E-01     -1.730937000000000E+02      6.489563000000000E-01     -9.131639000000000E+01
4823000000.000000      3.561554000000000E-01     -1.375078000000000E+02      3.808289000000000E-01     -6.460938000000000E+01      3.683472000000000E-01     -1.729687000000000E+02      6.507568000000000E-01     -9.142969000000000E+01
4824000000.000000      3.602600000000000E-01     -1.385781000000000E+02      3.840179000000000E-01     -6.492578000000000E+01      3.732758000000000E-01     -1.731406000000000E+02      6.517639000000000E-01     -9.155077000000000E+01
4825000000.000000      3.633575000000000E-01     -1.396250000000000E+02      3.886566000000000E-01     -6.513672000000000E+01      3.775177000000000E-01     -1.730703000000000E+02      6.528320000000000E-01     -9.159765000000000E+01
4826000000.000000      3.679352000000000E-01     -1.406250000000000E+02      3.917694000000000E-01     -6.559375000000000E+01      3.806763000000000E-01     -1.731094000000000E+02      6.541748000000000E-01     -9.165625000000000E+01
4827000000.000000      3.716431000000000E-01     -1.414141000000000E+02      3.957214000000000E-01     -6.562109000000000E+01      3.847961000000000E-01     -1.730547000000000E+02      6.547241000000000E-01     -9.168749000000000E+01
4828000000.000000      3.760223000000000E-01     -1.424766000000000E+02      3.988037000000000E-01     -6.592968000000000E+01      3.890991000000000E-01     -1.729141000000000E+02      6.577454000000000E-01     -9.176561000000000E+01
4829000000.000000      3.794098000000000E-01     -1.433828000000000E+02      4.031982000000000E-01     -6.628515000000000E+01      3.930054000000000E-01     -1.730547000000000E+02      6.572876000000000E-01     -9.178905000000000E+01
4830000000.000000      3.845215000000000E-01     -1.443359000000000E+02      4.055176000000000E-01     -6.652734000000000E+01      3.973846000000000E-01     -1.730000000000000E+02      6.597290000000000E-01     -9.187109000000000E+01
4831000000.000000      3.881989000000000E-01     -1.452109000000000E+02      4.098511000000000E-01     -6.678905000000000E+01      4.016113000000000E-01     -1.730000000000000E+02      6.629944000000000E-01     -9.198437000000000E+01
4832000000.000000      3.940125000000000E-01     -1.461094000000000E+02      4.139862000000000E-01     -6.708984000000000E+01      4.052277000000000E-01     -1.730781000000000E+02      6.626587000000000E-01     -9.200781000000000E+01
4833000000.000000      3.990021000000000E-01     -1.470391000000000E+02      4.166565000000000E-01     -6.733593000000000E+01      4.097900000000000E-01     -1.731172000000000E+02      6.637573000000000E-01     -9.200781000000000E+01
4834000000.000000      4.037933000000000E-01     -1.479141000000000E+02      4.208679000000000E-01     -6.758594000000000E+01      4.138336000000000E-01     -1.731953000000000E+02      6.658630000000000E-01     -9.207811000000000E+01
4835000000.000000      4.084473000000000E-01     -1.486719000000000E+02      4.244080000000000E-01     -6.794922000000000E+01      4.180756000000000E-01     -1.731719000000000E+02      6.674500000000000E-01     -9.223047000000000E+01
4836000000.000000      4.142456000000000E-01     -1.494609000000000E+02      4.272919000000000E-01     -6.832421000000000E+01      4.223938000000000E-01     -1.730937000000000E+02      6.697388000000000E-01     -9.225389000000000E+01
4837000000.000000      4.195404000000000E-01     -1.502422000000000E+02      4.298401000000000E-01     -6.885156000000000E+01      4.266205000000000E-01     -1.733672000000000E+02      6.706543000000000E-01     -9.233202000000000E+01
4838000000.000000      4.239502000000000E-01     -1.511406000000000E+02      4.342346000000000E-01     -6.895312000000000E+01      4.306946000000000E-01     -1.733125000000000E+02      6.751099000000000E-01     -9.237108000000000E+01
4839000000.000000      4.296265000000000E-01     -1.517500000000000E+02      4.369812000000000E-01     -6.914453000000000E+01      4.351044000000000E-01     -1.732969000000000E+02      6.767883000000000E-01     -9.237108000000000E+01
4840000000.000000      4.344177000000000E-01     -1.526016000000000E+02      4.402771000000000E-01     -6.943749000000000E+01      4.392853000000000E-01     -1.735000000000000E+02      6.784058000000000E-01     -9.249218000000000E+01
4841000000.000000      4.394836000000000E-01     -1.534688000000000E+02      4.429474000000000E-01     -6.992578000000000E+01      4.435120000000000E-01     -1.735859000000000E+02      6.801147000000000E-01     -9.261719000000000E+01
4842000000.000000      4.455719000000000E-01     -1.540625000000000E+02      4.464722000000000E-01     -7.019921000000000E+01      4.462128000000000E-01     -1.736094000000000E+02      6.830444000000000E-01     -9.252344000000000E+01
4843000000.000000      4.501648000000000E-01     -1.548750000000000E+02      4.486389000000000E-01     -7.054296000000000E+01      4.511108000000000E-01     -1.737031000000000E+02      6.858826000000000E-01     -9.261719000000000E+01
4844000000.000000      4.559479000000000E-01     -1.554922000000000E+02      4.515381000000000E-01     -7.073047000000000E+01      4.550171000000000E-01     -1.737656000000000E+02      6.892395000000000E-01     -9.269140000000000E+01
4845000000.000000      4.605560000000000E-01     -1.561250000000000E+02      4.544067000000000E-01     -7.098827000000000E+01      4.597473000000000E-01     -1.739063000000000E+02      6.900940000000000E-01     -9.267187000000000E+01
4846000000.000000      4.656830000000000E-01     -1.567266000000000E+02      4.569702000000000E-01     -7.146484000000000E+01      4.642029000000000E-01     -1.739453000000000E+02      6.930542000000000E-01     -9.271875000000000E+01
4847000000.000000      4.716339000000000E-01     -1.574766000000000E+02      4.606018000000000E-01     -7.175781000000000E+01      4.684601000000000E-01     -1.741641000000000E+02      6.962891000000000E-01     -9.284374000000000E+01
4848000000.000000      4.765472000000000E-01     -1.580391000000000E+02      4.616547000000000E-01     -7.189843000000000E+01      4.723053000000000E-01     -1.741875000000000E+02      6.974792000000000E-01     -9.292969000000000E+01
4849000000.000000      4.809723000000000E-01     -1.589453000000000E+02      4.647980000000000E-01     -7.253515000000000E+01      4.765167000000000E-01     -1.743594000000000E+02      7.013550000000000E-01     -9.290625000000000E+01
4850000000.000000      4.863739000000000E-01     -1.592734000000000E+02      4.678650000000000E-01     -7.277344000000000E+01      4.799347000000000E-01     -1.744062000000000E+02      7.047729000000000E-01     -9.285936000000000E+01
4851000000.000000      4.915466000000000E-01     -1.598828000000000E+02      4.702911000000000E-01     -7.318749000000000E+01      4.835815000000000E-01     -1.744844000000000E+02      7.077637000000000E-01     -9.292578000000000E+01
4852000000.000000      4.963837000000000E-01     -1.604453000000000E+02      4.729919000000000E-01     -7.330859000000000E+01      4.884186000000000E-01     -1.746484000000000E+02      7.095642000000000E-01     -9.310156000000000E+01
4853000000.000000      5.012817000000000E-01     -1.610781000000000E+02      4.736328000000000E-01     -7.370703000000000E+01      4.928589000000000E-01     -1.748906000000000E+02      7.142639000000000E-01     -9.310547000000000E+01
4854000000.000000      5.055847000000000E-01     -1.615703000000000E+02      4.769745000000000E-01     -7.421093000000000E+01      4.960480000000000E-01     -1.749609000000000E+02      7.146301000000000E-01     -9.314844000000000E+01
4855000000.000000      5.086365000000000E-01     -1.621562000000000E+02      4.784698000000000E-01     -7.444140000000000E+01      5.001526000000000E-01     -1.750859000000000E+02      7.182312000000000E-01     -9.308203000000000E+01
4856000000.000000      5.142517000000000E-01     -1.626562000000000E+02      4.806519000000000E-01     -7.463281000000000E+01      5.048828000000000E-01     -1.752031000000000E+02      7.202148000000000E-01     -9.328125000000000E+01
4857000000.000000      5.189514000000000E-01     -1.632969000000000E+02      4.843597000000000E-01     -7.500000000000000E+01      5.072327000000000E-01     -1.754766000000000E+02      7.246704000000000E-01     -9.309374000000000E+01
4858000000.000000      5.204468000000000E-01     -1.637109000000000E+02      4.853363000000000E-01     -7.526953000000000E+01      5.109863000000000E-01     -1.755234000000000E+02      7.263184000000000E-01     -9.331640000000000E+01
4859000000.000000      5.255432000000000E-01     -1.642266000000000E+02      4.870605000000000E-01     -7.572266000000000E+01      5.140381000000000E-01     -1.758359000000000E+02      7.308350000000000E-01     -9.353516000000000E+01
4860000000.000000      5.295410000000000E-01     -1.646250000000000E+02      4.886932000000000E-01     -7.599218000000000E+01      5.170593000000000E-01     -1.758750000000000E+02      7.327576000000000E-01     -9.332422000000000E+01
4861000000.000000      5.329590000000000E-01     -1.650938000000000E+02      4.914703000000000E-01     -7.633594000000000E+01      5.223694000000000E-01     -1.760156000000000E+02      7.345581000000000E-01     -9.344530000000000E+01
4862000000.000000      5.358582000000000E-01     -1.655000000000000E+02      4.941864000000000E-01     -7.637890000000000E+01      5.269775000000000E-01     -1.761953000000000E+02      7.389221000000000E-01     -9.342577000000000E+01
4863000000.000000      5.392456000000000E-01     -1.659062000000000E+02      4.937439000000000E-01     -7.688671000000000E+01      5.292358000000000E-01     -1.764609000000000E+02      7.420349000000000E-01     -9.354687000000000E+01
4864000000.000000      5.419312000000000E-01     -1.663203000000000E+02      4.967804000000000E-01     -7.698047000000000E+01      5.322571000000000E-01     -1.766094000000000E+02      7.445984000000000E-01     -9.355860000000000E+01
4865000000.000000      5.443726000000000E-01     -1.667500000000000E+02      4.981689000000000E-01     -7.735156000000000E+01      5.357666000000000E-01     -1.769140000000000E+02      7.493896000000000E-01     -9.341797000000000E+01
4866000000.000000      5.464478000000000E-01     -1.670625000000000E+02      4.992065000000000E-01     -7.762500000000000E+01      5.375671000000000E-01     -1.770156000000000E+02      7.500916000000000E-01     -9.348436000000000E+01
4867000000.000000      5.494690000000000E-01     -1.674609000000000E+02      5.009766000000000E-01     -7.814843000000000E+01      5.414429000000000E-01     -1.771563000000000E+02      7.547607000000000E-01     -9.368750000000000E+01
4868000000.000000      5.520935000000000E-01     -1.678203000000000E+02      5.022278000000000E-01     -7.823047000000000E+01      5.460510000000000E-01     -1.774141000000000E+02      7.554626000000000E-01     -9.361328000000000E+01
4869000000.000000      5.533447000000000E-01     -1.682109000000000E+02      5.025024000000000E-01     -7.867188000000000E+01      5.484314000000000E-01     -1.776797000000000E+02      7.591248000000000E-01     -9.385937000000000E+01
4870000000.000000      5.553894000000000E-01     -1.684844000000000E+02      5.053711000000000E-01     -7.864452000000000E+01      5.518188000000000E-01     -1.779609000000000E+02      7.606506000000000E-01     -9.373438000000000E+01
4871000000.000000      5.578613000000000E-01     -1.688359000000000E+02      5.047302000000000E-01     -7.921093000000000E+01      5.540771000000000E-01     -1.781172000000000E+02      7.634888000000000E-01     -9.394531000000000E+01
4872000000.000000      5.592651000000000E-01     -1.690000000000000E+02      5.047607000000000E-01     -7.924218000000000E+01      5.562744000000000E-01     -1.784609000000000E+02      7.680359000000000E-01     -9.388281000000000E+01
4873000000.000000      5.599670000000000E-01     -1.693438000000000E+02      5.071716000000000E-01     -7.972265000000000E+01      5.586243000000000E-01     -1.785312000000000E+02      7.698059000000000E-01     -9.392969000000000E+01
4874000000.000000      5.609436000000000E-01     -1.694453000000000E+02      5.081482000000000E-01     -7.983593000000000E+01      5.627136000000000E-01     -1.786562000000000E+02      7.713013000000000E-01     -9.390625000000000E+01
4875000000.000000      5.632019000000000E-01     -1.698437000000000E+02      5.097351000000000E-01     -8.009375000000000E+01      5.643311000000000E-01     -1.790156000000000E+02      7.733154000000000E-01     -9.402344000000000E+01
4876000000.000000      5.632935000000000E-01     -1.700391000000000E+02      5.112610000000000E-01     -8.031641000000000E+01      5.656128000000000E-01     -1.792266000000000E+02      7.765198000000000E-01     -9.415234000000000E+01
4877000000.000000      5.635071000000000E-01     -1.703125000000000E+02      5.119629000000000E-01     -8.058594000000000E+01      5.699158000000000E-01     -1.796094000000000E+02      7.787476000000000E-01     -9.416796000000000E+01
4878000000.000000      5.651855000000000E-01     -1.705000000000000E+02      5.150452000000000E-01     -8.056250000000000E+01      5.714111000000000E-01     -1.795156000000000E+02      7.809448000000000E-01     -9.421093000000000E+01
4879000000.000000      5.655212000000000E-01     -1.707500000000000E+02      5.122986000000000E-01     -8.095703000000000E+01      5.736694000000000E-01     -1.798516000000000E+02      7.832336000000000E-01     -9.404297000000000E+01
4880000000.000000      5.646057000000000E-01     -1.708047000000000E+02      5.139465000000000E-01     -8.134375000000000E+01      5.761719000000000E-01      1.799453000000000E+02      7.867126000000000E-01     -9.412889000000000E+01
4881000000.000000      5.667114000000000E-01     -1.709766000000000E+02      5.179138000000000E-01     -8.121874000000000E+01      5.775757000000000E-01      1.797344000000000E+02      7.888184000000000E-01     -9.435547000000000E+01
4882000000.000000      5.652466000000000E-01     -1.710469000000000E+02      5.176392000000000E-01     -8.153906000000000E+01      5.793762000000000E-01      1.794609000000000E+02      7.887573000000000E-01     -9.425390000000000E+01
