! Network Analyzer HP8722D
! Hewlett-Packard
! Data name: Linha & Wilkinson
! Saver's name: Rodrigo Anjos
! Comments: Teste da utilização de aquisição
continua pelo VNA HP8722D
! Time and date: 15/4/2025 16:30
!              Frequency                     S11                                                   S21                                                   S12                                                   S22
# HZ  S  MA R 50
4800000000.000000      3.308411000000000E-01     -1.136367000000000E+02      2.812958000000000E-01     -6.084961000000000E+01      2.749634000000000E-01     -1.751172000000000E+02      6.538391000000000E-01     -8.946484000000000E+01
4801000000.000000      3.296509000000000E-01     -1.146875000000000E+02      2.855835000000000E-01     -6.074804000000000E+01      2.787781000000000E-01     -1.748672000000000E+02      6.525269000000000E-01     -8.943750000000000E+01
4802000000.000000      3.282623000000000E-01     -1.155820000000000E+02      2.906952000000000E-01     -6.079687000000000E+01      2.833862000000000E-01     -1.747109000000000E+02      6.517639000000000E-01     -8.950390000000000E+01
4803000000.000000      3.278961000000000E-01     -1.166055000000000E+02      2.954865000000000E-01     -6.088085000000000E+01      2.868500000000000E-01     -1.745469000000000E+02      6.497803000000000E-01     -8.969141000000000E+01
4804000000.000000      3.275757000000000E-01     -1.175586000000000E+02      3.005829000000000E-01     -6.098437000000000E+01      2.917175000000000E-01     -1.744766000000000E+02      6.489563000000000E-01     -8.971094000000000E+01
4805000000.000000      3.279877000000000E-01     -1.185781000000000E+02      3.052521000000000E-01     -6.113281000000000E+01      2.957764000000000E-01     -1.743515000000000E+02      6.502075000000000E-01     -8.994921000000000E+01
4806000000.000000      3.271027000000000E-01     -1.195547000000000E+02      3.092499000000000E-01     -6.121094000000000E+01      2.990265000000000E-01     -1.740391000000000E+02      6.486816000000000E-01     -9.004297000000000E+01
4807000000.000000      3.269196000000000E-01     -1.206953000000000E+02      3.143311000000000E-01     -6.139257000000000E+01      3.032379000000000E-01     -1.741875000000000E+02      6.480713000000000E-01     -9.012499000000000E+01
4808000000.000000      3.279266000000000E-01     -1.215664000000000E+02      3.187408000000000E-01     -6.134375000000000E+01      3.076630000000000E-01     -1.739922000000000E+02      6.463928000000000E-01     -9.009766000000000E+01
4809000000.000000      3.281403000000000E-01     -1.227266000000000E+02      3.227386000000000E-01     -6.182031000000000E+01      3.125916000000000E-01     -1.740937000000000E+02      6.465454000000000E-01     -9.031641000000000E+01
4810000000.000000      3.287964000000000E-01     -1.238984000000000E+02      3.270264000000000E-01     -6.180273000000000E+01      3.162689000000000E-01     -1.738750000000000E+02      6.467590000000000E-01     -9.040625000000000E+01
4811000000.000000      3.301239000000000E-01     -1.248750000000000E+02      3.320007000000000E-01     -6.223046000000000E+01      3.205414000000000E-01     -1.737578000000000E+02      6.459961000000000E-01     -9.042578000000000E+01
4812000000.000000      3.314362000000000E-01     -1.258984000000000E+02      3.352051000000000E-01     -6.229882000000000E+01      3.247681000000000E-01     -1.736094000000000E+02      6.478271000000000E-01     -9.046484000000000E+01
4813000000.000000      3.321838000000000E-01     -1.270351000000000E+02      3.395691000000000E-01     -6.243164000000000E+01      3.276825000000000E-01     -1.735078000000000E+02      6.463623000000000E-01     -9.047655000000000E+01
4814000000.000000      3.331146000000000E-01     -1.282266000000000E+02      3.441467000000000E-01     -6.252539000000000E+01      3.324890000000000E-01     -1.735781000000000E+02      6.459656000000000E-01     -9.069921000000000E+01
4815000000.000000      3.351898000000000E-01     -1.292031000000000E+02      3.479309000000000E-01     -6.287109000000000E+01      3.358765000000000E-01     -1.734375000000000E+02      6.457520000000000E-01     -9.074999000000000E+01
4816000000.000000      3.370209000000000E-01     -1.302266000000000E+02      3.534546000000000E-01     -6.302734000000000E+01      3.408051000000000E-01     -1.733125000000000E+02      6.459961000000000E-01     -9.085938000000000E+01
4817000000.000000      3.399048000000000E-01     -1.312891000000000E+02      3.566589000000000E-01     -6.317773000000000E+01      3.438416000000000E-01     -1.733906000000000E+02      6.461487000000000E-01     -9.094141000000000E+01
4818000000.000000      3.414612000000000E-01     -1.325156000000000E+02      3.600769000000000E-01     -6.334570000000000E+01      3.488922000000000E-01     -1.731875000000000E+02      6.455994000000000E-01     -9.100000000000000E+01
4819000000.000000      3.445740000000000E-01     -1.335156000000000E+02      3.646851000000000E-01     -6.366992000000000E+01      3.524628000000000E-01     -1.732578000000000E+02      6.482849000000000E-01     -9.121874000000000E+01
4820000000.000000      3.458099000000000E-01     -1.345078000000000E+02      3.687592000000000E-01     -6.385156000000000E+01      3.568420000000000E-01     -1.732422000000000E+02      6.477356000000000E-01     -9.121094000000000E+01
4821000000.000000      3.493347000000000E-01     -1.356094000000000E+02      3.725891000000000E-01     -6.421093000000000E+01      3.609467000000000E-01     -1.733672000000000E+02      6.477356000000000E-01     -9.134766000000000E+01
4822000000.000000      3.540192000000000E-01     -1.366172000000000E+02      3.757629000000000E-01     -6.430469000000000E+01      3.645935000000000E-01     -1.732969000000000E+02      6.495972000000000E-01     -9.141016000000000E+01
4823000000.000000      3.568115000000000E-01     -1.376406000000000E+02      3.808136000000000E-01     -6.471093000000000E+01      3.682404000000000E-01     -1.731562000000000E+02      6.499023000000000E-01     -9.139452000000000E+01
4824000000.000000      3.608856000000000E-01     -1.387812000000000E+02      3.848114000000000E-01     -6.484375000000000E+01      3.735504000000000E-01     -1.732188000000000E+02      6.519775000000000E-01     -9.155077000000000E+01
4825000000.000000      3.636932000000000E-01     -1.396328000000000E+02      3.883820000000000E-01     -6.516406000000000E+01      3.773193000000000E-01     -1.731016000000000E+02      6.528625000000000E-01     -9.154297000000000E+01
4826000000.000000      3.683929000000000E-01     -1.407344000000000E+02      3.920593000000000E-01     -6.548437000000000E+01      3.809204000000000E-01     -1.731719000000000E+02      6.524353000000000E-01     -9.176952000000000E+01
4827000000.000000      3.716583000000000E-01     -1.415390000000000E+02      3.951874000000000E-01     -6.551171000000000E+01      3.849030000000000E-01     -1.730703000000000E+02      6.551208000000000E-01     -9.166796000000000E+01
4828000000.000000      3.764648000000000E-01     -1.425781000000000E+02      4.003448000000000E-01     -6.597265000000000E+01      3.886414000000000E-01     -1.731094000000000E+02      6.577454000000000E-01     -9.179296000000000E+01
4829000000.000000      3.792877000000000E-01     -1.434219000000000E+02      4.016266000000000E-01     -6.610156000000000E+01      3.930969000000000E-01     -1.731172000000000E+02      6.572571000000000E-01     -9.176561000000000E+01
4830000000.000000      3.851776000000000E-01     -1.443906000000000E+02      4.059906000000000E-01     -6.664453000000000E+01      3.974457000000000E-01     -1.730859000000000E+02      6.588745000000000E-01     -9.191015000000000E+01
4831000000.000000      3.887482000000000E-01     -1.452578000000000E+02      4.095154000000000E-01     -6.687109000000000E+01      4.022827000000000E-01     -1.730156000000000E+02      6.614685000000000E-01     -9.201952000000000E+01
4832000000.000000      3.942871000000000E-01     -1.461953000000000E+02      4.132385000000000E-01     -6.707812000000000E+01      4.053345000000000E-01     -1.731562000000000E+02      6.625671000000000E-01     -9.200781000000000E+01
4833000000.000000      3.994446000000000E-01     -1.471484000000000E+02      4.175110000000000E-01     -6.748047000000000E+01      4.095154000000000E-01     -1.733047000000000E+02      6.637268000000000E-01     -9.213671000000000E+01
4834000000.000000      4.037933000000000E-01     -1.480000000000000E+02      4.207001000000000E-01     -6.769921000000000E+01      4.143829000000000E-01     -1.732188000000000E+02      6.651001000000000E-01     -9.222656000000000E+01
4835000000.000000      4.084930000000000E-01     -1.487578000000000E+02      4.234314000000000E-01     -6.803124000000000E+01      4.187012000000000E-01     -1.731797000000000E+02      6.684875000000000E-01     -9.232031000000000E+01
4836000000.000000      4.141235000000000E-01     -1.494844000000000E+02      4.273224000000000E-01     -6.820313000000000E+01      4.224396000000000E-01     -1.732188000000000E+02      6.694031000000000E-01     -9.225780000000000E+01
4837000000.000000      4.197998000000000E-01     -1.503281000000000E+02      4.297638000000000E-01     -6.887500000000000E+01      4.267120000000000E-01     -1.734688000000000E+02      6.708374000000000E-01     -9.228125000000000E+01
4838000000.000000      4.248352000000000E-01     -1.512187000000000E+02      4.348145000000000E-01     -6.897655000000000E+01      4.305573000000000E-01     -1.734297000000000E+02      6.728821000000000E-01     -9.227343000000000E+01
4839000000.000000      4.300690000000000E-01     -1.518672000000000E+02      4.367065000000000E-01     -6.917578000000000E+01      4.347534000000000E-01     -1.733750000000000E+02      6.762695000000000E-01     -9.233202000000000E+01
4840000000.000000      4.345245000000000E-01     -1.527031000000000E+02      4.391327000000000E-01     -6.947266000000000E+01      4.389801000000000E-01     -1.735937000000000E+02      6.784363000000000E-01     -9.244921000000000E+01
4841000000.000000      4.401703000000000E-01     -1.535078000000000E+02      4.425201000000000E-01     -6.996875000000000E+01      4.430542000000000E-01     -1.736172000000000E+02      6.810913000000000E-01     -9.255077000000000E+01
4842000000.000000      4.459991000000000E-01     -1.541250000000000E+02      4.458008000000000E-01     -7.023046000000000E+01      4.468231000000000E-01     -1.736562000000000E+02      6.837769000000000E-01     -9.259766000000000E+01
4843000000.000000      4.504700000000000E-01     -1.549141000000000E+02      4.488068000000000E-01     -7.060547000000000E+01      4.510498000000000E-01     -1.737500000000000E+02      6.854858000000000E-01     -9.267578000000000E+01
4844000000.000000      4.557037000000000E-01     -1.556015000000000E+02      4.507294000000000E-01     -7.089453000000000E+01      4.550171000000000E-01     -1.738437000000000E+02      6.888123000000000E-01     -9.272264000000000E+01
4845000000.000000      4.607086000000000E-01     -1.562422000000000E+02      4.542694000000000E-01     -7.115624000000000E+01      4.591064000000000E-01     -1.739297000000000E+02      6.909790000000000E-01     -9.271875000000000E+01
4846000000.000000      4.654083000000000E-01     -1.568438000000000E+02      4.567871000000000E-01     -7.142187000000000E+01      4.643860000000000E-01     -1.740469000000000E+02      6.932373000000000E-01     -9.276562000000000E+01
4847000000.000000      4.716492000000000E-01     -1.575781000000000E+02      4.585724000000000E-01     -7.191015000000000E+01      4.685059000000000E-01     -1.741875000000000E+02      6.968079000000000E-01     -9.289454000000000E+01
4848000000.000000      4.763336000000000E-01     -1.581484000000000E+02      4.615631000000000E-01     -7.210546000000000E+01      4.722595000000000E-01     -1.742812000000000E+02      6.989746000000000E-01     -9.299999000000000E+01
4849000000.000000      4.814758000000000E-01     -1.590156000000000E+02      4.656525000000000E-01     -7.260156000000000E+01      4.761658000000000E-01     -1.744141000000000E+02      7.008362000000000E-01     -9.287500000000000E+01
4850000000.000000      4.863892000000000E-01     -1.594531000000000E+02      4.671783000000000E-01     -7.280468000000000E+01      4.801941000000000E-01     -1.744766000000000E+02      7.024231000000000E-01     -9.296093000000000E+01
4851000000.000000      4.910583000000000E-01     -1.599453000000000E+02      4.708710000000000E-01     -7.319921000000000E+01      4.841461000000000E-01     -1.745859000000000E+02      7.082520000000000E-01     -9.298437000000000E+01
4852000000.000000      4.969482000000000E-01     -1.605859000000000E+02      4.723206000000000E-01     -7.344531000000000E+01      4.880066000000000E-01     -1.747109000000000E+02      7.103577000000000E-01     -9.298828000000000E+01
4853000000.000000      5.010071000000000E-01     -1.611328000000000E+02      4.732971000000000E-01     -7.389843000000000E+01      4.928894000000000E-01     -1.749844000000000E+02      7.129822000000000E-01     -9.320313000000000E+01
4854000000.000000      5.056458000000000E-01     -1.616875000000000E+02      4.768677000000000E-01     -7.419922000000000E+01      4.962311000000000E-01     -1.750391000000000E+02      7.154541000000000E-01     -9.311718000000000E+01
4855000000.000000      5.094299000000000E-01     -1.622500000000000E+02      4.783936000000000E-01     -7.442577000000000E+01      5.000000000000000E-01     -1.752187000000000E+02      7.174683000000000E-01     -9.312109000000000E+01
4856000000.000000      5.140686000000000E-01     -1.627031000000000E+02      4.808350000000000E-01     -7.467578000000000E+01      5.034180000000000E-01     -1.752812000000000E+02      7.207642000000000E-01     -9.320313000000000E+01
4857000000.000000      5.182495000000000E-01     -1.632578000000000E+02      4.835663000000000E-01     -7.501953000000000E+01      5.074463000000000E-01     -1.754062000000000E+02      7.254944000000000E-01     -9.326172000000000E+01
4858000000.000000      5.209351000000000E-01     -1.637656000000000E+02      4.847107000000000E-01     -7.536718000000000E+01      5.100708000000000E-01     -1.756797000000000E+02      7.256470000000000E-01     -9.324219000000000E+01
4859000000.000000      5.251160000000000E-01     -1.643125000000000E+02      4.881897000000000E-01     -7.578515000000000E+01      5.147400000000000E-01     -1.758437000000000E+02      7.312927000000000E-01     -9.348436000000000E+01
4860000000.000000      5.300598000000000E-01     -1.647656000000000E+02      4.893646000000000E-01     -7.598437000000000E+01      5.186462000000000E-01     -1.758203000000000E+02      7.334290000000000E-01     -9.339453000000000E+01
4861000000.000000      5.330200000000000E-01     -1.651250000000000E+02      4.911652000000000E-01     -7.635156000000000E+01      5.230408000000000E-01     -1.762422000000000E+02      7.347717000000000E-01     -9.346483000000000E+01
4862000000.000000      5.365601000000000E-01     -1.655078000000000E+02      4.936676000000000E-01     -7.648046000000000E+01      5.262756000000000E-01     -1.764609000000000E+02      7.395020000000000E-01     -9.354687000000000E+01
4863000000.000000      5.389404000000000E-01     -1.659609000000000E+02      4.943237000000000E-01     -7.687890000000000E+01      5.285339000000000E-01     -1.765234000000000E+02      7.431030000000000E-01     -9.356249000000000E+01
4864000000.000000      5.421143000000000E-01     -1.663594000000000E+02      4.961853000000000E-01     -7.708593000000000E+01      5.320129000000000E-01     -1.766562000000000E+02      7.439880000000000E-01     -9.358593000000000E+01
4865000000.000000      5.442200000000000E-01     -1.668594000000000E+02      4.961700000000000E-01     -7.756249000000000E+01      5.357666000000000E-01     -1.769219000000000E+02      7.479858000000000E-01     -9.351563000000000E+01
4866000000.000000      5.468445000000000E-01     -1.671016000000000E+02      4.985352000000000E-01     -7.771484000000000E+01      5.393677000000000E-01     -1.771797000000000E+02      7.505188000000000E-01     -9.356249000000000E+01
4867000000.000000      5.491638000000000E-01     -1.675078000000000E+02      5.005188000000000E-01     -7.824609000000000E+01      5.400696000000000E-01     -1.773516000000000E+02      7.540894000000000E-01     -9.366405000000000E+01
4868000000.000000      5.522461000000000E-01     -1.679609000000000E+02      5.016785000000000E-01     -7.837891000000000E+01      5.449829000000000E-01     -1.775781000000000E+02      7.543945000000000E-01     -9.369921000000000E+01
4869000000.000000      5.529785000000000E-01     -1.682422000000000E+02      5.025330000000000E-01     -7.859765000000000E+01      5.492859000000000E-01     -1.778672000000000E+02      7.597961000000000E-01     -9.393358000000000E+01
4870000000.000000      5.558472000000000E-01     -1.685547000000000E+02      5.051880000000000E-01     -7.887109000000000E+01      5.505981000000000E-01     -1.779531000000000E+02      7.622070000000000E-01     -9.370312000000000E+01
4871000000.000000      5.582581000000000E-01     -1.689453000000000E+02      5.066833000000000E-01     -7.937500000000000E+01      5.546875000000000E-01     -1.782031000000000E+02      7.638855000000000E-01     -9.395702000000000E+01
4872000000.000000      5.596924000000000E-01     -1.690859000000000E+02      5.058289000000000E-01     -7.932031000000000E+01      5.559998000000000E-01     -1.785859000000000E+02      7.654724000000000E-01     -9.392969000000000E+01
4873000000.000000      5.602417000000000E-01     -1.693125000000000E+02      5.076294000000000E-01     -7.956640000000000E+01      5.580444000000000E-01     -1.785625000000000E+02      7.692261000000000E-01     -9.408203000000000E+01
4874000000.000000      5.609741000000000E-01     -1.696406000000000E+02      5.075378000000000E-01     -8.009375000000000E+01      5.627441000000000E-01     -1.787656000000000E+02      7.722168000000000E-01     -9.390625000000000E+01
4875000000.000000      5.637817000000000E-01     -1.699609000000000E+02      5.098877000000000E-01     -8.005077000000000E+01      5.649414000000000E-01     -1.791406000000000E+02      7.732239000000000E-01     -9.400391000000000E+01
4876000000.000000      5.631104000000000E-01     -1.701250000000000E+02      5.109863000000000E-01     -8.043749000000000E+01      5.652466000000000E-01     -1.792734000000000E+02      7.772522000000000E-01     -9.408983000000000E+01
4877000000.000000      5.641174000000000E-01     -1.703047000000000E+02      5.120239000000000E-01     -8.042969000000000E+01      5.686035000000000E-01     -1.795078000000000E+02      7.779236000000000E-01     -9.410936000000000E+01
4878000000.000000      5.653992000000000E-01     -1.705156000000000E+02      5.139465000000000E-01     -8.096483000000000E+01      5.712280000000000E-01     -1.795781000000000E+02      7.823792000000000E-01     -9.423046000000000E+01
4879000000.000000      5.661926000000000E-01     -1.707266000000000E+02      5.134277000000000E-01     -8.096094000000000E+01      5.726929000000000E-01     -1.799141000000000E+02      7.835999000000000E-01     -9.410936000000000E+01
4880000000.000000      5.654907000000000E-01     -1.709375000000000E+02      5.148315000000000E-01     -8.133204000000000E+01      5.763245000000000E-01      1.799531000000000E+02      7.872925000000000E-01     -9.421093000000000E+01
4881000000.000000      5.657043000000000E-01     -1.710000000000000E+02      5.164185000000000E-01     -8.137110000000000E+01      5.776978000000000E-01      1.795234000000000E+02      7.878723000000000E-01     -9.436327000000000E+01
4882000000.000000      5.649414000000000E-01     -1.711484000000000E+02      5.169678000000000E-01     -8.168360000000000E+01      5.804138000000000E-01      1.795391000000000E+02      7.902832000000000E-01     -9.441015000000000E+01
