! Network Analyzer HP8722D
! Hewlett-Packard
! Data name: Linha & Wilkinson
! Saver's name: Rodrigo Anjos
! Comments: Teste da utilização de aquisição
continua pelo VNA HP8722D
! Time and date: 15/4/2025 17:16
!              Frequency                     S11                                                   S21                                                   S12                                                   S22
# HZ  S  MA R 50
4800000000.000000      3.301392000000000E-01     -1.134883000000000E+02      2.819061000000000E-01     -6.073828000000000E+01      2.750702000000000E-01     -1.749687000000000E+02      6.546936000000000E-01     -8.948046000000000E+01
4801000000.000000      3.291931000000000E-01     -1.144453000000000E+02      2.865906000000000E-01     -6.067773000000000E+01      2.786713000000000E-01     -1.748203000000000E+02      6.534729000000000E-01     -8.941015000000000E+01
4802000000.000000      3.283844000000000E-01     -1.155195000000000E+02      2.897339000000000E-01     -6.089062000000000E+01      2.828827000000000E-01     -1.745781000000000E+02      6.510925000000000E-01     -8.950781000000000E+01
4803000000.000000      3.279877000000000E-01     -1.165039000000000E+02      2.962341000000000E-01     -6.082617000000000E+01      2.869110000000000E-01     -1.745156000000000E+02      6.507568000000000E-01     -8.971874000000000E+01
4804000000.000000      3.270111000000000E-01     -1.175547000000000E+02      2.991638000000000E-01     -6.088867000000000E+01      2.913971000000000E-01     -1.744219000000000E+02      6.496887000000000E-01     -8.972656000000000E+01
4805000000.000000      3.279266000000000E-01     -1.184023000000000E+02      3.040619000000000E-01     -6.095117000000000E+01      2.954407000000000E-01     -1.741250000000000E+02      6.512451000000000E-01     -8.985546000000000E+01
4806000000.000000      3.265533000000000E-01     -1.193867000000000E+02      3.090363000000000E-01     -6.118164000000000E+01      2.987061000000000E-01     -1.739687000000000E+02      6.492004000000000E-01     -9.001953000000000E+01
4807000000.000000      3.271790000000000E-01     -1.205742000000000E+02      3.133698000000000E-01     -6.129101000000000E+01      3.036194000000000E-01     -1.740391000000000E+02      6.481323000000000E-01     -9.007030000000000E+01
4808000000.000000      3.268738000000000E-01     -1.215898000000000E+02      3.182983000000000E-01     -6.131836000000000E+01      3.071136000000000E-01     -1.739297000000000E+02      6.468506000000000E-01     -9.014843000000000E+01
4809000000.000000      3.278656000000000E-01     -1.225742000000000E+02      3.221283000000000E-01     -6.178711000000000E+01      3.118744000000000E-01     -1.738906000000000E+02      6.469727000000000E-01     -9.030859000000000E+01
4810000000.000000      3.284302000000000E-01     -1.237422000000000E+02      3.270874000000000E-01     -6.169726000000000E+01      3.157959000000000E-01     -1.737656000000000E+02      6.476135000000000E-01     -9.033203000000000E+01
4811000000.000000      3.295288000000000E-01     -1.248086000000000E+02      3.315735000000000E-01     -6.206249000000000E+01      3.204346000000000E-01     -1.736250000000000E+02      6.462402000000000E-01     -9.034374000000000E+01
4812000000.000000      3.313141000000000E-01     -1.257500000000000E+02      3.359985000000000E-01     -6.213672000000000E+01      3.244019000000000E-01     -1.735781000000000E+02      6.465759000000000E-01     -9.048828000000000E+01
4813000000.000000      3.318329000000000E-01     -1.268359000000000E+02      3.395996000000000E-01     -6.233398000000000E+01      3.282318000000000E-01     -1.734062000000000E+02      6.468201000000000E-01     -9.052734000000000E+01
4814000000.000000      3.326721000000000E-01     -1.280781000000000E+02      3.439941000000000E-01     -6.251562000000000E+01      3.322906000000000E-01     -1.734375000000000E+02      6.460571000000000E-01     -9.073828000000000E+01
4815000000.000000      3.343353000000000E-01     -1.290469000000000E+02      3.485260000000000E-01     -6.275585000000000E+01      3.357086000000000E-01     -1.733438000000000E+02      6.459045000000000E-01     -9.065233000000000E+01
4816000000.000000      3.365631000000000E-01     -1.301094000000000E+02      3.525848000000000E-01     -6.282617000000000E+01      3.402710000000000E-01     -1.731875000000000E+02      6.458130000000000E-01     -9.083593000000000E+01
4817000000.000000      3.393707000000000E-01     -1.311641000000000E+02      3.559723000000000E-01     -6.329492000000000E+01      3.443298000000000E-01     -1.732500000000000E+02      6.459656000000000E-01     -9.098436000000000E+01
4818000000.000000      3.414154000000000E-01     -1.323594000000000E+02      3.609161000000000E-01     -6.341797000000000E+01      3.487854000000000E-01     -1.731641000000000E+02      6.470947000000000E-01     -9.100000000000000E+01
4819000000.000000      3.440399000000000E-01     -1.333906000000000E+02      3.642273000000000E-01     -6.362109000000000E+01      3.522339000000000E-01     -1.730859000000000E+02      6.484985000000000E-01     -9.111328000000000E+01
4820000000.000000      3.457794000000000E-01     -1.343828000000000E+02      3.682098000000000E-01     -6.386523000000000E+01      3.568878000000000E-01     -1.731328000000000E+02      6.492004000000000E-01     -9.110937000000000E+01
4821000000.000000      3.489838000000000E-01     -1.355078000000000E+02      3.727112000000000E-01     -6.421484000000000E+01      3.603668000000000E-01     -1.732344000000000E+02      6.483154000000000E-01     -9.127344000000000E+01
4822000000.000000      3.539124000000000E-01     -1.365703000000000E+02      3.762970000000000E-01     -6.434375000000000E+01      3.645477000000000E-01     -1.732031000000000E+02      6.497803000000000E-01     -9.133984000000000E+01
4823000000.000000      3.554535000000000E-01     -1.375078000000000E+02      3.800812000000000E-01     -6.458593000000000E+01      3.682709000000000E-01     -1.729922000000000E+02      6.502991000000000E-01     -9.139843000000000E+01
4824000000.000000      3.600159000000000E-01     -1.386641000000000E+02      3.835449000000000E-01     -6.497656000000000E+01      3.736725000000000E-01     -1.730625000000000E+02      6.515808000000000E-01     -9.147264000000000E+01
4825000000.000000      3.633270000000000E-01     -1.395313000000000E+02      3.879089000000000E-01     -6.498047000000000E+01      3.771515000000000E-01     -1.731094000000000E+02      6.526184000000000E-01     -9.145702000000000E+01
4826000000.000000      3.677063000000000E-01     -1.405703000000000E+02      3.920441000000000E-01     -6.547265000000000E+01      3.806610000000000E-01     -1.731094000000000E+02      6.537170000000000E-01     -9.160936000000000E+01
4827000000.000000      3.718109000000000E-01     -1.414297000000000E+02      3.953094000000000E-01     -6.550390000000000E+01      3.843384000000000E-01     -1.730469000000000E+02      6.557617000000000E-01     -9.164454000000000E+01
4828000000.000000      3.764343000000000E-01     -1.424844000000000E+02      3.991089000000000E-01     -6.577343000000000E+01      3.889160000000000E-01     -1.730312000000000E+02      6.581116000000000E-01     -9.177734000000000E+01
4829000000.000000      3.789520000000000E-01     -1.433438000000000E+02      4.025421000000000E-01     -6.627343000000000E+01      3.931427000000000E-01     -1.730625000000000E+02      6.578369000000000E-01     -9.176561000000000E+01
4830000000.000000      3.849030000000000E-01     -1.442812000000000E+02      4.060059000000000E-01     -6.651172000000000E+01      3.973389000000000E-01     -1.730391000000000E+02      6.585388000000000E-01     -9.186327000000000E+01
4831000000.000000      3.881989000000000E-01     -1.451406000000000E+02      4.091492000000000E-01     -6.685156000000000E+01      4.019318000000000E-01     -1.730000000000000E+02      6.613464000000000E-01     -9.187891000000000E+01
4832000000.000000      3.941956000000000E-01     -1.460781000000000E+02      4.135437000000000E-01     -6.706640000000000E+01      4.049225000000000E-01     -1.730859000000000E+02      6.624146000000000E-01     -9.210938000000000E+01
4833000000.000000      3.989410000000000E-01     -1.470625000000000E+02      4.170532000000000E-01     -6.732812000000000E+01      4.096680000000000E-01     -1.731250000000000E+02      6.643372000000000E-01     -9.208984000000000E+01
4834000000.000000      4.036560000000000E-01     -1.478906000000000E+02      4.201965000000000E-01     -6.770702000000000E+01      4.133606000000000E-01     -1.730703000000000E+02      6.649780000000000E-01     -9.223436000000000E+01
4835000000.000000      4.084778000000000E-01     -1.486797000000000E+02      4.233856000000000E-01     -6.798828000000000E+01      4.185486000000000E-01     -1.732422000000000E+02      6.687317000000000E-01     -9.222265000000000E+01
4836000000.000000      4.141693000000000E-01     -1.494375000000000E+02      4.267883000000000E-01     -6.809765000000000E+01      4.220428000000000E-01     -1.731172000000000E+02      6.693726000000000E-01     -9.221094000000000E+01
4837000000.000000      4.194183000000000E-01     -1.502422000000000E+02      4.295197000000000E-01     -6.882813000000000E+01      4.259796000000000E-01     -1.733594000000000E+02      6.713562000000000E-01     -9.226954000000000E+01
4838000000.000000      4.244995000000000E-01     -1.510859000000000E+02      4.346771000000000E-01     -6.893749000000000E+01      4.309235000000000E-01     -1.733672000000000E+02      6.737671000000000E-01     -9.238281000000000E+01
4839000000.000000      4.292908000000000E-01     -1.517656000000000E+02      4.365540000000000E-01     -6.918750000000000E+01      4.345551000000000E-01     -1.732812000000000E+02      6.767883000000000E-01     -9.237499000000000E+01
4840000000.000000      4.343567000000000E-01     -1.526094000000000E+02      4.398193000000000E-01     -6.944530000000000E+01      4.389191000000000E-01     -1.734297000000000E+02      6.778259000000000E-01     -9.243359000000000E+01
4841000000.000000      4.397888000000000E-01     -1.534688000000000E+02      4.426422000000000E-01     -6.990234000000000E+01      4.432983000000000E-01     -1.735391000000000E+02      6.800537000000000E-01     -9.255468000000000E+01
4842000000.000000      4.452209000000000E-01     -1.540390000000000E+02      4.450226000000000E-01     -7.007421000000000E+01      4.466400000000000E-01     -1.735859000000000E+02      6.834412000000000E-01     -9.251562000000000E+01
4843000000.000000      4.499207000000000E-01     -1.548594000000000E+02      4.495087000000000E-01     -7.057812000000000E+01      4.508362000000000E-01     -1.736719000000000E+02      6.859741000000000E-01     -9.263672000000000E+01
4844000000.000000      4.553070000000000E-01     -1.555391000000000E+02      4.509125000000000E-01     -7.074609000000000E+01      4.549103000000000E-01     -1.737500000000000E+02      6.886292000000000E-01     -9.260937000000000E+01
4845000000.000000      4.601288000000000E-01     -1.560703000000000E+02      4.539032000000000E-01     -7.116405000000000E+01      4.594116000000000E-01     -1.739063000000000E+02      6.903381000000000E-01     -9.277344000000000E+01
4846000000.000000      4.654541000000000E-01     -1.567188000000000E+02      4.562378000000000E-01     -7.141015000000000E+01      4.642944000000000E-01     -1.739766000000000E+02      6.936951000000000E-01     -9.279688000000000E+01
4847000000.000000      4.714661000000000E-01     -1.574453000000000E+02      4.597626000000000E-01     -7.168750000000000E+01      4.680786000000000E-01     -1.741406000000000E+02      6.956787000000000E-01     -9.283594000000000E+01
4848000000.000000      4.765320000000000E-01     -1.580391000000000E+02      4.619293000000000E-01     -7.197656000000000E+01      4.719391000000000E-01     -1.741719000000000E+02      6.978149000000000E-01     -9.278124000000000E+01
4849000000.000000      4.811249000000000E-01     -1.589141000000000E+02      4.653015000000000E-01     -7.251953000000000E+01      4.763794000000000E-01     -1.743281000000000E+02      7.004395000000000E-01     -9.292187000000000E+01
4850000000.000000      4.861755000000000E-01     -1.592891000000000E+02      4.682922000000000E-01     -7.273828000000000E+01      4.797974000000000E-01     -1.743515000000000E+02      7.047729000000000E-01     -9.287109000000000E+01
4851000000.000000      4.909821000000000E-01     -1.599141000000000E+02      4.703217000000000E-01     -7.308984000000000E+01      4.836121000000000E-01     -1.745312000000000E+02      7.068176000000000E-01     -9.295702000000000E+01
4852000000.000000      4.958649000000000E-01     -1.604609000000000E+02      4.724884000000000E-01     -7.329296000000000E+01      4.882202000000000E-01     -1.746797000000000E+02      7.087402000000000E-01     -9.297266000000000E+01
4853000000.000000      5.012817000000000E-01     -1.610312000000000E+02      4.730682000000000E-01     -7.376953000000000E+01      4.928436000000000E-01     -1.748047000000000E+02      7.126465000000000E-01     -9.313671000000000E+01
4854000000.000000      5.052490000000000E-01     -1.615625000000000E+02      4.760437000000000E-01     -7.417578000000000E+01      4.958038000000000E-01     -1.749609000000000E+02      7.139282000000000E-01     -9.316015000000000E+01
4855000000.000000      5.090942000000000E-01     -1.622500000000000E+02      4.783020000000000E-01     -7.439843000000000E+01      5.001831000000000E-01     -1.750625000000000E+02      7.166138000000000E-01     -9.312500000000000E+01
4856000000.000000      5.138855000000000E-01     -1.626094000000000E+02      4.806213000000000E-01     -7.462891000000000E+01      5.035400000000000E-01     -1.751016000000000E+02      7.214661000000000E-01     -9.324219000000000E+01
4857000000.000000      5.186462000000000E-01     -1.632187000000000E+02      4.840393000000000E-01     -7.502734000000000E+01      5.079346000000000E-01     -1.752344000000000E+02      7.231445000000000E-01     -9.323046000000000E+01
4858000000.000000      5.204163000000000E-01     -1.636641000000000E+02      4.845581000000000E-01     -7.530468000000000E+01      5.109558000000000E-01     -1.756719000000000E+02      7.272644000000000E-01     -9.330469000000000E+01
4859000000.000000      5.252991000000000E-01     -1.642266000000000E+02      4.874268000000000E-01     -7.575390000000000E+01      5.148315000000000E-01     -1.759219000000000E+02      7.304382000000000E-01     -9.339453000000000E+01
4860000000.000000      5.294800000000000E-01     -1.646328000000000E+02      4.891357000000000E-01     -7.589844000000000E+01      5.165405000000000E-01     -1.759453000000000E+02      7.332764000000000E-01     -9.339062000000000E+01
4861000000.000000      5.335693000000000E-01     -1.650312000000000E+02      4.903107000000000E-01     -7.625000000000000E+01      5.225830000000000E-01     -1.761172000000000E+02      7.358093000000000E-01     -9.349609000000000E+01
4862000000.000000      5.359192000000000E-01     -1.654531000000000E+02      4.935303000000000E-01     -7.644921000000000E+01      5.268860000000000E-01     -1.763281000000000E+02      7.410583000000000E-01     -9.350389000000000E+01
4863000000.000000      5.382385000000000E-01     -1.659765000000000E+02      4.942017000000000E-01     -7.697266000000000E+01      5.292664000000000E-01     -1.764062000000000E+02      7.424011000000000E-01     -9.341797000000000E+01
4864000000.000000      5.420837000000000E-01     -1.663359000000000E+02      4.951172000000000E-01     -7.701172000000000E+01      5.327759000000000E-01     -1.765391000000000E+02      7.446899000000000E-01     -9.352343000000000E+01
4865000000.000000      5.448608000000000E-01     -1.667891000000000E+02      4.976349000000000E-01     -7.732031000000000E+01      5.350647000000000E-01     -1.770234000000000E+02      7.477722000000000E-01     -9.344530000000000E+01
4866000000.000000      5.463257000000000E-01     -1.670078000000000E+02      4.971313000000000E-01     -7.760156000000000E+01      5.408020000000000E-01     -1.770391000000000E+02      7.507629000000000E-01     -9.350389000000000E+01
4867000000.000000      5.497131000000000E-01     -1.673750000000000E+02      4.998779000000000E-01     -7.810156000000000E+01      5.421753000000000E-01     -1.772031000000000E+02      7.533264000000000E-01     -9.356640000000000E+01
4868000000.000000      5.521851000000000E-01     -1.678203000000000E+02      5.030823000000000E-01     -7.841797000000000E+01      5.469360000000000E-01     -1.774062000000000E+02      7.556152000000000E-01     -9.362890000000000E+01
4869000000.000000      5.537415000000000E-01     -1.681250000000000E+02      5.021057000000000E-01     -7.863671000000000E+01      5.488586000000000E-01     -1.776016000000000E+02      7.589111000000000E-01     -9.383984000000000E+01
4870000000.000000      5.554810000000000E-01     -1.684219000000000E+02      5.044861000000000E-01     -7.872656000000000E+01      5.523071000000000E-01     -1.779531000000000E+02      7.625732000000000E-01     -9.362499000000000E+01
4871000000.000000      5.581055000000000E-01     -1.687187000000000E+02      5.051880000000000E-01     -7.908984000000000E+01      5.529175000000000E-01     -1.781328000000000E+02      7.642212000000000E-01     -9.380468000000000E+01
4872000000.000000      5.599060000000000E-01     -1.690156000000000E+02      5.046692000000000E-01     -7.919922000000000E+01      5.559998000000000E-01     -1.783828000000000E+02      7.667847000000000E-01     -9.391016000000000E+01
4873000000.000000      5.600891000000000E-01     -1.693125000000000E+02      5.076599000000000E-01     -7.946094000000000E+01      5.581665000000000E-01     -1.785156000000000E+02      7.687988000000000E-01     -9.403124000000000E+01
4874000000.000000      5.613403000000000E-01     -1.695000000000000E+02      5.084229000000000E-01     -7.985156000000000E+01      5.617371000000000E-01     -1.787344000000000E+02      7.722168000000000E-01     -9.385546000000000E+01
4875000000.000000      5.635071000000000E-01     -1.698672000000000E+02      5.088196000000000E-01     -8.013672000000000E+01      5.637817000000000E-01     -1.790547000000000E+02      7.745056000000000E-01     -9.398046000000000E+01
4876000000.000000      5.627747000000000E-01     -1.701328000000000E+02      5.101318000000000E-01     -8.028124000000000E+01      5.666199000000000E-01     -1.790859000000000E+02      7.772827000000000E-01     -9.411718000000000E+01
4877000000.000000      5.637817000000000E-01     -1.702188000000000E+02      5.116272000000000E-01     -8.053125000000000E+01      5.691223000000000E-01     -1.796016000000000E+02      7.789001000000000E-01     -9.423437000000000E+01
4878000000.000000      5.648193000000000E-01     -1.705156000000000E+02      5.133972000000000E-01     -8.067968000000000E+01      5.714722000000000E-01     -1.795234000000000E+02      7.817993000000000E-01     -9.424219000000000E+01
4879000000.000000      5.653687000000000E-01     -1.707031000000000E+02      5.138855000000000E-01     -8.089844000000000E+01      5.734558000000000E-01     -1.799062000000000E+02      7.838440000000000E-01     -9.410936000000000E+01
4880000000.000000      5.654602000000000E-01     -1.708281000000000E+02      5.151978000000000E-01     -8.128515000000000E+01      5.758972000000000E-01      1.798828000000000E+02      7.864380000000000E-01     -9.419531000000000E+01
4881000000.000000      5.667725000000000E-01     -1.708750000000000E+02      5.171509000000000E-01     -8.114061000000000E+01      5.785522000000000E-01      1.796328000000000E+02      7.886658000000000E-01     -9.427734000000000E+01
4882000000.000000      5.654602000000000E-01     -1.710234000000000E+02      5.180054000000000E-01     -8.157030000000000E+01      5.801086000000000E-01      1.795625000000000E+02      7.891846000000000E-01     -9.429296000000000E+01
