! Network Analyzer HP8722D
! Hewlett-Packard
! Data name: Linha & Wilkinson
! Saver's name: Rodrigo Anjos
! Comments: Teste da utilização de aquisição
continua pelo VNA HP8722D
! Time and date: 15/4/2025 17:02
!              Frequency                     S11                                                   S21                                                   S12                                                   S22
# HZ  S  MA R 50
4800000000.000000      3.308563000000000E-01     -1.137617000000000E+02      2.825928000000000E-01     -6.079296000000000E+01      2.760162000000000E-01     -1.750078000000000E+02      6.542664000000000E-01     -8.942968000000000E+01
4801000000.000000      3.298492000000000E-01     -1.146992000000000E+02      2.877197000000000E-01     -6.081249000000000E+01      2.791901000000000E-01     -1.749844000000000E+02      6.536255000000000E-01     -8.952734000000000E+01
4802000000.000000      3.285980000000000E-01     -1.156836000000000E+02      2.914429000000000E-01     -6.081640000000000E+01      2.839355000000000E-01     -1.746406000000000E+02      6.516113000000000E-01     -8.958984000000000E+01
4803000000.000000      3.282623000000000E-01     -1.166719000000000E+02      2.962341000000000E-01     -6.079102000000000E+01      2.882843000000000E-01     -1.746562000000000E+02      6.505432000000000E-01     -8.970312000000000E+01
4804000000.000000      3.274841000000000E-01     -1.176914000000000E+02      3.010712000000000E-01     -6.098242000000000E+01      2.917328000000000E-01     -1.745312000000000E+02      6.502075000000000E-01     -8.973436000000000E+01
4805000000.000000      3.279266000000000E-01     -1.187187000000000E+02      3.053589000000000E-01     -6.105859000000000E+01      2.961731000000000E-01     -1.742734000000000E+02      6.499939000000000E-01     -8.998438000000000E+01
4806000000.000000      3.271179000000000E-01     -1.195742000000000E+02      3.096771000000000E-01     -6.115429000000000E+01      2.994232000000000E-01     -1.741719000000000E+02      6.489563000000000E-01     -9.005859000000000E+01
4807000000.000000      3.273315000000000E-01     -1.206250000000000E+02      3.136292000000000E-01     -6.141211000000000E+01      3.042450000000000E-01     -1.741562000000000E+02      6.478577000000000E-01     -9.010157000000000E+01
4808000000.000000      3.276825000000000E-01     -1.217188000000000E+02      3.184662000000000E-01     -6.138085000000000E+01      3.081970000000000E-01     -1.740703000000000E+02      6.477051000000000E-01     -9.019140000000000E+01
4809000000.000000      3.278809000000000E-01     -1.227305000000000E+02      3.224945000000000E-01     -6.187109000000000E+01      3.128204000000000E-01     -1.739766000000000E+02      6.470337000000000E-01     -9.027735000000000E+01
4810000000.000000      3.285370000000000E-01     -1.238594000000000E+02      3.281403000000000E-01     -6.173046000000000E+01      3.162842000000000E-01     -1.737813000000000E+02      6.476440000000000E-01     -9.046875000000000E+01
4811000000.000000      3.302002000000000E-01     -1.249805000000000E+02      3.327332000000000E-01     -6.216015000000000E+01      3.216095000000000E-01     -1.737187000000000E+02      6.460266000000000E-01     -9.039843000000000E+01
4812000000.000000      3.315125000000000E-01     -1.258437000000000E+02      3.370056000000000E-01     -6.230078000000000E+01      3.256683000000000E-01     -1.736562000000000E+02      6.464844000000000E-01     -9.049608000000000E+01
4813000000.000000      3.326111000000000E-01     -1.270742000000000E+02      3.409729000000000E-01     -6.234961000000000E+01      3.287964000000000E-01     -1.735469000000000E+02      6.458130000000000E-01     -9.051172000000000E+01
4814000000.000000      3.333740000000000E-01     -1.283125000000000E+02      3.444672000000000E-01     -6.262890000000000E+01      3.329010000000000E-01     -1.735469000000000E+02      6.463623000000000E-01     -9.082031000000000E+01
4815000000.000000      3.352051000000000E-01     -1.292187000000000E+02      3.486481000000000E-01     -6.282421000000000E+01      3.371429000000000E-01     -1.734922000000000E+02      6.459656000000000E-01     -9.067968000000000E+01
4816000000.000000      3.374786000000000E-01     -1.303281000000000E+02      3.528595000000000E-01     -6.301758000000000E+01      3.419495000000000E-01     -1.734375000000000E+02      6.454163000000000E-01     -9.087891000000000E+01
4817000000.000000      3.398285000000000E-01     -1.313203000000000E+02      3.571625000000000E-01     -6.326757000000000E+01      3.447266000000000E-01     -1.735000000000000E+02      6.457825000000000E-01     -9.089453000000000E+01
4818000000.000000      3.418121000000000E-01     -1.325000000000000E+02      3.611755000000000E-01     -6.348633000000000E+01      3.496399000000000E-01     -1.732812000000000E+02      6.470032000000000E-01     -9.104687000000000E+01
4819000000.000000      3.445740000000000E-01     -1.335547000000000E+02      3.651886000000000E-01     -6.367773000000000E+01      3.529968000000000E-01     -1.732812000000000E+02      6.479187000000000E-01     -9.112890000000000E+01
4820000000.000000      3.462524000000000E-01     -1.345859000000000E+02      3.690338000000000E-01     -6.380468000000000E+01      3.576202000000000E-01     -1.732656000000000E+02      6.490479000000000E-01     -9.122656000000000E+01
4821000000.000000      3.500061000000000E-01     -1.356562000000000E+02      3.732910000000000E-01     -6.424218000000000E+01      3.614197000000000E-01     -1.732969000000000E+02      6.479492000000000E-01     -9.134766000000000E+01
4822000000.000000      3.538513000000000E-01     -1.367500000000000E+02      3.768921000000000E-01     -6.429688000000000E+01      3.649902000000000E-01     -1.732031000000000E+02      6.491699000000000E-01     -9.137890000000000E+01
4823000000.000000      3.564911000000000E-01     -1.377109000000000E+02      3.810577000000000E-01     -6.472656000000000E+01      3.698730000000000E-01     -1.730703000000000E+02      6.503296000000000E-01     -9.142187000000000E+01
4824000000.000000      3.603668000000000E-01     -1.388359000000000E+02      3.849335000000000E-01     -6.503124000000000E+01      3.740387000000000E-01     -1.731484000000000E+02      6.507568000000000E-01     -9.151171000000000E+01
4825000000.000000      3.636780000000000E-01     -1.396953000000000E+02      3.883057000000000E-01     -6.530078000000000E+01      3.781738000000000E-01     -1.730859000000000E+02      6.521606000000000E-01     -9.155468000000000E+01
4826000000.000000      3.679962000000000E-01     -1.407734000000000E+02      3.922119000000000E-01     -6.562500000000000E+01      3.807678000000000E-01     -1.732422000000000E+02      6.528320000000000E-01     -9.174608000000000E+01
4827000000.000000      3.720398000000000E-01     -1.415859000000000E+02      3.961639000000000E-01     -6.561328000000000E+01      3.857117000000000E-01     -1.730547000000000E+02      6.553040000000000E-01     -9.172655000000000E+01
4828000000.000000      3.769226000000000E-01     -1.425703000000000E+02      3.995972000000000E-01     -6.603125000000000E+01      3.900757000000000E-01     -1.731406000000000E+02      6.579590000000000E-01     -9.184374000000000E+01
4829000000.000000      3.792419000000000E-01     -1.435078000000000E+02      4.035492000000000E-01     -6.633203000000000E+01      3.935699000000000E-01     -1.731172000000000E+02      6.571045000000000E-01     -9.175781000000000E+01
4830000000.000000      3.849640000000000E-01     -1.444609000000000E+02      4.073486000000000E-01     -6.666797000000000E+01      3.983307000000000E-01     -1.731562000000000E+02      6.585999000000000E-01     -9.190624000000000E+01
4831000000.000000      3.887634000000000E-01     -1.453359000000000E+02      4.106140000000000E-01     -6.694530000000000E+01      4.025421000000000E-01     -1.730859000000000E+02      6.609802000000000E-01     -9.198437000000000E+01
4832000000.000000      3.944855000000000E-01     -1.462422000000000E+02      4.139862000000000E-01     -6.711719000000000E+01      4.055176000000000E-01     -1.731719000000000E+02      6.625671000000000E-01     -9.214062000000000E+01
4833000000.000000      3.993835000000000E-01     -1.471953000000000E+02      4.169159000000000E-01     -6.734765000000000E+01      4.104462000000000E-01     -1.733516000000000E+02      6.640930000000000E-01     -9.214453000000000E+01
4834000000.000000      4.042053000000000E-01     -1.479844000000000E+02      4.204254000000000E-01     -6.772655000000000E+01      4.144287000000000E-01     -1.733281000000000E+02      6.657715000000000E-01     -9.220312000000000E+01
4835000000.000000      4.090118000000000E-01     -1.488750000000000E+02      4.252014000000000E-01     -6.802343000000000E+01      4.188385000000000E-01     -1.732344000000000E+02      6.683350000000000E-01     -9.228125000000000E+01
4836000000.000000      4.146576000000000E-01     -1.496250000000000E+02      4.279785000000000E-01     -6.839453000000000E+01      4.222717000000000E-01     -1.732891000000000E+02      6.693726000000000E-01     -9.223047000000000E+01
4837000000.000000      4.198761000000000E-01     -1.503828000000000E+02      4.302826000000000E-01     -6.879687000000000E+01      4.268646000000000E-01     -1.734453000000000E+02      6.706238000000000E-01     -9.233984000000000E+01
4838000000.000000      4.248199000000000E-01     -1.512812000000000E+02      4.346619000000000E-01     -6.899219000000000E+01      4.309235000000000E-01     -1.734453000000000E+02      6.735229000000000E-01     -9.239452000000000E+01
4839000000.000000      4.299622000000000E-01     -1.519375000000000E+02      4.369354000000000E-01     -6.925781000000000E+01      4.352722000000000E-01     -1.734062000000000E+02      6.768494000000000E-01     -9.232813000000000E+01
4840000000.000000      4.344482000000000E-01     -1.528125000000000E+02      4.393616000000000E-01     -6.967578000000000E+01      4.395294000000000E-01     -1.735703000000000E+02      6.777954000000000E-01     -9.257813000000000E+01
4841000000.000000      4.400635000000000E-01     -1.536250000000000E+02      4.432068000000000E-01     -6.996094000000000E+01      4.440002000000000E-01     -1.737734000000000E+02      6.799316000000000E-01     -9.259375000000000E+01
4842000000.000000      4.458313000000000E-01     -1.542109000000000E+02      4.467621000000000E-01     -7.023046000000000E+01      4.471130000000000E-01     -1.737031000000000E+02      6.827393000000000E-01     -9.264843000000000E+01
4843000000.000000      4.504242000000000E-01     -1.549609000000000E+02      4.492950000000000E-01     -7.061328000000000E+01      4.512939000000000E-01     -1.737813000000000E+02      6.862793000000000E-01     -9.268749000000000E+01
4844000000.000000      4.556122000000000E-01     -1.556094000000000E+02      4.525604000000000E-01     -7.095703000000000E+01      4.554596000000000E-01     -1.738906000000000E+02      6.888733000000000E-01     -9.286327000000000E+01
4845000000.000000      4.610291000000000E-01     -1.562734000000000E+02      4.551239000000000E-01     -7.125781000000000E+01      4.594421000000000E-01     -1.739766000000000E+02      6.895142000000000E-01     -9.268358000000000E+01
4846000000.000000      4.656830000000000E-01     -1.568594000000000E+02      4.571686000000000E-01     -7.151172000000000E+01      4.651642000000000E-01     -1.740703000000000E+02      6.933899000000000E-01     -9.271875000000000E+01
4847000000.000000      4.717255000000000E-01     -1.576562000000000E+02      4.597168000000000E-01     -7.185156000000000E+01      4.688110000000000E-01     -1.742578000000000E+02      6.964111000000000E-01     -9.287109000000000E+01
4848000000.000000      4.764252000000000E-01     -1.581797000000000E+02      4.628296000000000E-01     -7.217578000000000E+01      4.723969000000000E-01     -1.742969000000000E+02      6.982117000000000E-01     -9.298046000000000E+01
4849000000.000000      4.819489000000000E-01     -1.590391000000000E+02      4.655914000000000E-01     -7.254687000000000E+01      4.768677000000000E-01     -1.744375000000000E+02      7.020569000000000E-01     -9.299219000000000E+01
4850000000.000000      4.865417000000000E-01     -1.594687000000000E+02      4.688110000000000E-01     -7.293750000000000E+01      4.808350000000000E-01     -1.745000000000000E+02      7.040100000000000E-01     -9.293749000000000E+01
4851000000.000000      4.918060000000000E-01     -1.600547000000000E+02      4.716644000000000E-01     -7.324219000000000E+01      4.839478000000000E-01     -1.746797000000000E+02      7.069397000000000E-01     -9.301561000000000E+01
4852000000.000000      4.965820000000000E-01     -1.606562000000000E+02      4.729614000000000E-01     -7.353125000000000E+01      4.889679000000000E-01     -1.747813000000000E+02      7.094421000000000E-01     -9.312500000000000E+01
4853000000.000000      5.012512000000000E-01     -1.612187000000000E+02      4.738312000000000E-01     -7.382421000000000E+01      4.930878000000000E-01     -1.749453000000000E+02      7.131042000000000E-01     -9.324219000000000E+01
4854000000.000000      5.054626000000000E-01     -1.616719000000000E+02      4.774170000000000E-01     -7.430469000000000E+01      4.966431000000000E-01     -1.751094000000000E+02      7.151184000000000E-01     -9.326172000000000E+01
4855000000.000000      5.095215000000000E-01     -1.623203000000000E+02      4.795074000000000E-01     -7.435937000000000E+01      5.003662000000000E-01     -1.752187000000000E+02      7.176514000000000E-01     -9.320313000000000E+01
4856000000.000000      5.141296000000000E-01     -1.627578000000000E+02      4.808655000000000E-01     -7.474218000000000E+01      5.048828000000000E-01     -1.752812000000000E+02      7.218323000000000E-01     -9.328516000000000E+01
4857000000.000000      5.187378000000000E-01     -1.633984000000000E+02      4.836426000000000E-01     -7.512500000000000E+01      5.078735000000000E-01     -1.754609000000000E+02      7.232971000000000E-01     -9.335155000000000E+01
4858000000.000000      5.211792000000000E-01     -1.638594000000000E+02      4.855804000000000E-01     -7.537109000000000E+01      5.122070000000000E-01     -1.757578000000000E+02      7.280579000000000E-01     -9.341797000000000E+01
4859000000.000000      5.253906000000000E-01     -1.643125000000000E+02      4.877167000000000E-01     -7.579687000000000E+01      5.160217000000000E-01     -1.759922000000000E+02      7.314148000000000E-01     -9.357422000000000E+01
4860000000.000000      5.297241000000000E-01     -1.648203000000000E+02      4.888611000000000E-01     -7.599609000000000E+01      5.195007000000000E-01     -1.760469000000000E+02      7.330017000000000E-01     -9.335546000000000E+01
4861000000.000000      5.335388000000000E-01     -1.651797000000000E+02      4.908295000000000E-01     -7.653125000000000E+01      5.223389000000000E-01     -1.761641000000000E+02      7.353516000000000E-01     -9.358593000000000E+01
4862000000.000000      5.359192000000000E-01     -1.656563000000000E+02      4.935455000000000E-01     -7.670312000000000E+01      5.272522000000000E-01     -1.764297000000000E+02      7.402649000000000E-01     -9.350389000000000E+01
4863000000.000000      5.386658000000000E-01     -1.660234000000000E+02      4.934540000000000E-01     -7.709374000000000E+01      5.309448000000000E-01     -1.764062000000000E+02      7.427368000000000E-01     -9.360155000000000E+01
4864000000.000000      5.416565000000000E-01     -1.664687000000000E+02      4.967041000000000E-01     -7.717578000000000E+01      5.320740000000000E-01     -1.767187000000000E+02      7.441101000000000E-01     -9.369141000000000E+01
4865000000.000000      5.441284000000000E-01     -1.669531000000000E+02      4.979248000000000E-01     -7.755859000000000E+01      5.341492000000000E-01     -1.769375000000000E+02      7.484741000000000E-01     -9.361328000000000E+01
4866000000.000000      5.468445000000000E-01     -1.672109000000000E+02      4.985199000000000E-01     -7.783984000000000E+01      5.393372000000000E-01     -1.769844000000000E+02      7.513123000000000E-01     -9.358202000000000E+01
4867000000.000000      5.491333000000000E-01     -1.675313000000000E+02      5.003662000000000E-01     -7.809765000000000E+01      5.422363000000000E-01     -1.773516000000000E+02      7.545166000000000E-01     -9.367968000000000E+01
4868000000.000000      5.519714000000000E-01     -1.680469000000000E+02      5.019836000000000E-01     -7.846484000000000E+01      5.459595000000000E-01     -1.775312000000000E+02      7.559814000000000E-01     -9.375780000000000E+01
4869000000.000000      5.528564000000000E-01     -1.683437000000000E+02      5.024414000000000E-01     -7.893749000000000E+01      5.489502000000000E-01     -1.776406000000000E+02      7.590637000000000E-01     -9.393749000000000E+01
4870000000.000000      5.553284000000000E-01     -1.686328000000000E+02      5.032349000000000E-01     -7.887500000000000E+01      5.518799000000000E-01     -1.779297000000000E+02      7.623291000000000E-01     -9.375391000000000E+01
4871000000.000000      5.569153000000000E-01     -1.688984000000000E+02      5.065613000000000E-01     -7.905859000000000E+01      5.542297000000000E-01     -1.783125000000000E+02      7.638245000000000E-01     -9.398829000000000E+01
4872000000.000000      5.588074000000000E-01     -1.692188000000000E+02      5.060425000000000E-01     -7.925781000000000E+01      5.571899000000000E-01     -1.785078000000000E+02      7.662964000000000E-01     -9.399609000000000E+01
4873000000.000000      5.597534000000000E-01     -1.694766000000000E+02      5.068359000000000E-01     -7.958202000000000E+01      5.589294000000000E-01     -1.787578000000000E+02      7.691650000000000E-01     -9.406641000000000E+01
4874000000.000000      5.613403000000000E-01     -1.697031000000000E+02      5.094604000000000E-01     -7.998828000000000E+01      5.641174000000000E-01     -1.788750000000000E+02      7.722473000000000E-01     -9.386719000000000E+01
4875000000.000000      5.632629000000000E-01     -1.699922000000000E+02      5.094299000000000E-01     -8.012499000000000E+01      5.654907000000000E-01     -1.792969000000000E+02      7.750854000000000E-01     -9.409374000000000E+01
4876000000.000000      5.628052000000000E-01     -1.701641000000000E+02      5.119019000000000E-01     -8.036327000000000E+01      5.666199000000000E-01     -1.793203000000000E+02      7.770996000000000E-01     -9.414454000000000E+01
4877000000.000000      5.638123000000000E-01     -1.703203000000000E+02      5.123596000000000E-01     -8.067968000000000E+01      5.706787000000000E-01     -1.796562000000000E+02      7.797241000000000E-01     -9.417187000000000E+01
4878000000.000000      5.650635000000000E-01     -1.705625000000000E+02      5.134277000000000E-01     -8.077343000000000E+01      5.715942000000000E-01     -1.797109000000000E+02      7.824707000000000E-01     -9.428905000000000E+01
4879000000.000000      5.659485000000000E-01     -1.708750000000000E+02      5.137024000000000E-01     -8.101563000000000E+01      5.730286000000000E-01     -1.799922000000000E+02      7.828369000000000E-01     -9.422655000000000E+01
4880000000.000000      5.643921000000000E-01     -1.709453000000000E+02      5.144348000000000E-01     -8.126562000000000E+01      5.757141000000000E-01      1.799062000000000E+02      7.859497000000000E-01     -9.416796000000000E+01
4881000000.000000      5.662842000000000E-01     -1.710312000000000E+02      5.158997000000000E-01     -8.148438000000000E+01      5.796204000000000E-01      1.795234000000000E+02      7.877808000000000E-01     -9.431641000000000E+01
4882000000.000000      5.651855000000000E-01     -1.711562000000000E+02      5.176392000000000E-01     -8.158594000000000E+01      5.801697000000000E-01      1.794062000000000E+02      7.898865000000000E-01     -9.437891000000000E+01
