! Network Analyzer HP8722D
! Hewlett-Packard
! Data name: Linha & Wilkinson
! Saver's name: Rodrigo Anjos
! Comments: Teste da utilização de aquisição
continua pelo VNA HP8722D
! Time and date: 15/4/2025 16:29
!              Frequency                     S11                                                   S21                                                   S12                                                   S22
# HZ  S  MA R 50
4800000000.000000      3.314362000000000E-01     -1.137891000000000E+02      2.812042000000000E-01     -6.075390000000000E+01      2.752228000000000E-01     -1.749609000000000E+02      6.532288000000000E-01     -8.947657000000000E+01
4801000000.000000      3.296661000000000E-01     -1.146289000000000E+02      2.862701000000000E-01     -6.086719000000000E+01      2.786560000000000E-01     -1.749375000000000E+02      6.535950000000000E-01     -8.950390000000000E+01
4802000000.000000      3.287659000000000E-01     -1.156602000000000E+02      2.902832000000000E-01     -6.071679000000000E+01      2.832642000000000E-01     -1.746953000000000E+02      6.512756000000000E-01     -8.949219000000000E+01
4803000000.000000      3.281403000000000E-01     -1.166680000000000E+02      2.957611000000000E-01     -6.089844000000000E+01      2.866058000000000E-01     -1.746172000000000E+02      6.513367000000000E-01     -8.969530000000000E+01
4804000000.000000      3.277893000000000E-01     -1.175977000000000E+02      3.002777000000000E-01     -6.105663000000000E+01      2.910614000000000E-01     -1.745703000000000E+02      6.502380000000000E-01     -8.971094000000000E+01
4805000000.000000      3.278046000000000E-01     -1.185898000000000E+02      3.049774000000000E-01     -6.115039000000000E+01      2.954865000000000E-01     -1.743047000000000E+02      6.495361000000000E-01     -8.989452000000000E+01
4806000000.000000      3.270874000000000E-01     -1.194844000000000E+02      3.087463000000000E-01     -6.112499000000000E+01      2.990417000000000E-01     -1.741406000000000E+02      6.488647000000000E-01     -9.005859000000000E+01
4807000000.000000      3.269806000000000E-01     -1.206992000000000E+02      3.135071000000000E-01     -6.143749000000000E+01      3.035736000000000E-01     -1.741094000000000E+02      6.483154000000000E-01     -9.014843000000000E+01
4808000000.000000      3.280640000000000E-01     -1.217031000000000E+02      3.181610000000000E-01     -6.132030000000000E+01      3.075714000000000E-01     -1.740703000000000E+02      6.478271000000000E-01     -9.011328000000000E+01
4809000000.000000      3.280334000000000E-01     -1.227773000000000E+02      3.227997000000000E-01     -6.187500000000000E+01      3.121033000000000E-01     -1.740156000000000E+02      6.483765000000000E-01     -9.023438000000000E+01
4810000000.000000      3.292847000000000E-01     -1.238242000000000E+02      3.268127000000000E-01     -6.181445000000000E+01      3.156128000000000E-01     -1.738828000000000E+02      6.475830000000000E-01     -9.049219000000000E+01
4811000000.000000      3.301392000000000E-01     -1.248984000000000E+02      3.315887000000000E-01     -6.208398000000000E+01      3.204651000000000E-01     -1.737890000000000E+02      6.461487000000000E-01     -9.036327000000000E+01
4812000000.000000      3.312683000000000E-01     -1.258945000000000E+02      3.356934000000000E-01     -6.224609000000000E+01      3.244934000000000E-01     -1.736250000000000E+02      6.470642000000000E-01     -9.049999000000000E+01
4813000000.000000      3.323059000000000E-01     -1.270039000000000E+02      3.398132000000000E-01     -6.248632000000000E+01      3.281403000000000E-01     -1.734297000000000E+02      6.458740000000000E-01     -9.056250000000000E+01
4814000000.000000      3.333893000000000E-01     -1.282344000000000E+02      3.440704000000000E-01     -6.260547000000000E+01      3.319855000000000E-01     -1.735391000000000E+02      6.459351000000000E-01     -9.069530000000000E+01
4815000000.000000      3.349915000000000E-01     -1.292500000000000E+02      3.481598000000000E-01     -6.289063000000000E+01      3.357849000000000E-01     -1.734844000000000E+02      6.460876000000000E-01     -9.078516000000000E+01
4816000000.000000      3.375244000000000E-01     -1.302344000000000E+02      3.529205000000000E-01     -6.287304000000000E+01      3.408051000000000E-01     -1.733047000000000E+02      6.455383000000000E-01     -9.087891000000000E+01
4817000000.000000      3.398743000000000E-01     -1.313359000000000E+02      3.571167000000000E-01     -6.325000000000000E+01      3.444519000000000E-01     -1.733906000000000E+02      6.453857000000000E-01     -9.102734000000000E+01
4818000000.000000      3.416443000000000E-01     -1.324766000000000E+02      3.598175000000000E-01     -6.348633000000000E+01      3.489532000000000E-01     -1.732109000000000E+02      6.466980000000000E-01     -9.100780000000000E+01
4819000000.000000      3.444214000000000E-01     -1.334531000000000E+02      3.646698000000000E-01     -6.360546000000000E+01      3.523712000000000E-01     -1.732500000000000E+02      6.487122000000000E-01     -9.106249000000000E+01
4820000000.000000      3.462982000000000E-01     -1.344609000000000E+02      3.687134000000000E-01     -6.393749000000000E+01      3.571930000000000E-01     -1.732578000000000E+02      6.474304000000000E-01     -9.121485000000000E+01
4821000000.000000      3.497009000000000E-01     -1.356172000000000E+02      3.728333000000000E-01     -6.411718000000000E+01      3.607635000000000E-01     -1.733672000000000E+02      6.477356000000000E-01     -9.126171000000000E+01
4822000000.000000      3.539276000000000E-01     -1.366953000000000E+02      3.760529000000000E-01     -6.437500000000000E+01      3.637238000000000E-01     -1.731562000000000E+02      6.497498000000000E-01     -9.143749000000000E+01
4823000000.000000      3.559418000000000E-01     -1.376562000000000E+02      3.807373000000000E-01     -6.472656000000000E+01      3.681335000000000E-01     -1.730469000000000E+02      6.502075000000000E-01     -9.151171000000000E+01
4824000000.000000      3.605194000000000E-01     -1.387266000000000E+02      3.847656000000000E-01     -6.508203000000000E+01      3.734589000000000E-01     -1.731641000000000E+02      6.517029000000000E-01     -9.151562000000000E+01
4825000000.000000      3.638611000000000E-01     -1.396563000000000E+02      3.872070000000000E-01     -6.517187000000000E+01      3.775940000000000E-01     -1.731562000000000E+02      6.520386000000000E-01     -9.166016000000000E+01
4826000000.000000      3.679504000000000E-01     -1.406797000000000E+02      3.912506000000000E-01     -6.542187000000000E+01      3.808746000000000E-01     -1.732344000000000E+02      6.534424000000000E-01     -9.174608000000000E+01
4827000000.000000      3.721161000000000E-01     -1.415156000000000E+02      3.956299000000000E-01     -6.564843000000000E+01      3.852997000000000E-01     -1.731172000000000E+02      6.548462000000000E-01     -9.174608000000000E+01
4828000000.000000      3.770142000000000E-01     -1.426328000000000E+02      4.004364000000000E-01     -6.595312000000000E+01      3.889923000000000E-01     -1.730469000000000E+02      6.571350000000000E-01     -9.174608000000000E+01
4829000000.000000      3.790588000000000E-01     -1.434297000000000E+02      4.019775000000000E-01     -6.619531000000000E+01      3.930054000000000E-01     -1.731094000000000E+02      6.574097000000000E-01     -9.175781000000000E+01
4830000000.000000      3.849182000000000E-01     -1.444375000000000E+02      4.062042000000000E-01     -6.659374000000000E+01      3.973846000000000E-01     -1.731641000000000E+02      6.601257000000000E-01     -9.184374000000000E+01
4831000000.000000      3.887939000000000E-01     -1.453125000000000E+02      4.097443000000000E-01     -6.691796000000000E+01      4.020081000000000E-01     -1.730625000000000E+02      6.618652000000000E-01     -9.198437000000000E+01
4832000000.000000      3.947144000000000E-01     -1.461562000000000E+02      4.140320000000000E-01     -6.717578000000000E+01      4.053345000000000E-01     -1.731406000000000E+02      6.624146000000000E-01     -9.209375000000000E+01
4833000000.000000      4.000244000000000E-01     -1.471016000000000E+02      4.179993000000000E-01     -6.738281000000000E+01      4.095001000000000E-01     -1.732031000000000E+02      6.646423000000000E-01     -9.213282000000000E+01
4834000000.000000      4.040985000000000E-01     -1.480234000000000E+02      4.203644000000000E-01     -6.766406000000000E+01      4.136200000000000E-01     -1.731797000000000E+02      6.654663000000000E-01     -9.215235000000000E+01
4835000000.000000      4.085083000000000E-01     -1.487734000000000E+02      4.237366000000000E-01     -6.800781000000000E+01      4.186554000000000E-01     -1.731797000000000E+02      6.679382000000000E-01     -9.233202000000000E+01
4836000000.000000      4.143524000000000E-01     -1.495781000000000E+02      4.268799000000000E-01     -6.828906000000000E+01      4.224243000000000E-01     -1.732891000000000E+02      6.693115000000000E-01     -9.222656000000000E+01
4837000000.000000      4.196777000000000E-01     -1.502891000000000E+02      4.302826000000000E-01     -6.891796000000000E+01      4.257050000000000E-01     -1.733594000000000E+02      6.713257000000000E-01     -9.227734000000000E+01
4838000000.000000      4.249420000000000E-01     -1.511953000000000E+02      4.340363000000000E-01     -6.891796000000000E+01      4.300537000000000E-01     -1.733750000000000E+02      6.736450000000000E-01     -9.240625000000000E+01
4839000000.000000      4.296570000000000E-01     -1.518359000000000E+02      4.368134000000000E-01     -6.917187000000000E+01      4.348145000000000E-01     -1.734375000000000E+02      6.773071000000000E-01     -9.233593000000000E+01
4840000000.000000      4.347534000000000E-01     -1.527266000000000E+02      4.399261000000000E-01     -6.953906000000000E+01      4.390411000000000E-01     -1.735625000000000E+02      6.792603000000000E-01     -9.252344000000000E+01
4841000000.000000      4.401855000000000E-01     -1.535859000000000E+02      4.427032000000000E-01     -6.994922000000000E+01      4.438019000000000E-01     -1.736328000000000E+02      6.812744000000000E-01     -9.253124000000000E+01
4842000000.000000      4.459381000000000E-01     -1.541719000000000E+02      4.459686000000000E-01     -7.019531000000000E+01      4.461670000000000E-01     -1.736719000000000E+02      6.835022000000000E-01     -9.251562000000000E+01
4843000000.000000      4.503937000000000E-01     -1.549141000000000E+02      4.491730000000000E-01     -7.060937000000000E+01      4.513550000000000E-01     -1.737500000000000E+02      6.856995000000000E-01     -9.257421000000000E+01
4844000000.000000      4.558105000000000E-01     -1.556406000000000E+02      4.517365000000000E-01     -7.084374000000000E+01      4.546967000000000E-01     -1.738828000000000E+02      6.884460000000000E-01     -9.277735000000000E+01
4845000000.000000      4.604034000000000E-01     -1.562578000000000E+02      4.542084000000000E-01     -7.126171000000000E+01      4.601288000000000E-01     -1.739531000000000E+02      6.895142000000000E-01     -9.273046000000000E+01
4846000000.000000      4.655762000000000E-01     -1.568281000000000E+02      4.570770000000000E-01     -7.142578000000000E+01      4.641724000000000E-01     -1.740469000000000E+02      6.920776000000000E-01     -9.272655000000000E+01
4847000000.000000      4.716797000000000E-01     -1.575781000000000E+02      4.605713000000000E-01     -7.182422000000000E+01      4.678955000000000E-01     -1.742188000000000E+02      6.966858000000000E-01     -9.287500000000000E+01
4848000000.000000      4.767609000000000E-01     -1.581016000000000E+02      4.628296000000000E-01     -7.194140000000000E+01      4.723206000000000E-01     -1.742422000000000E+02      6.989746000000000E-01     -9.295313000000000E+01
4849000000.000000      4.816132000000000E-01     -1.589609000000000E+02      4.647217000000000E-01     -7.262500000000000E+01      4.765472000000000E-01     -1.744297000000000E+02      7.015076000000000E-01     -9.292578000000000E+01
4850000000.000000      4.859161000000000E-01     -1.593672000000000E+02      4.676971000000000E-01     -7.277344000000000E+01      4.804840000000000E-01     -1.744922000000000E+02      7.038574000000000E-01     -9.294531000000000E+01
4851000000.000000      4.918671000000000E-01     -1.600156000000000E+02      4.711151000000000E-01     -7.321484000000000E+01      4.837036000000000E-01     -1.746328000000000E+02      7.074890000000000E-01     -9.297655000000000E+01
4852000000.000000      4.963074000000000E-01     -1.606250000000000E+02      4.728394000000000E-01     -7.357812000000000E+01      4.889832000000000E-01     -1.747187000000000E+02      7.104187000000000E-01     -9.300390000000000E+01
4853000000.000000      5.013123000000000E-01     -1.611250000000000E+02      4.731750000000000E-01     -7.373828000000000E+01      4.926758000000000E-01     -1.749219000000000E+02      7.126770000000000E-01     -9.305859000000000E+01
4854000000.000000      5.053406000000000E-01     -1.616719000000000E+02      4.771118000000000E-01     -7.430078000000000E+01      4.959106000000000E-01     -1.750156000000000E+02      7.148743000000000E-01     -9.318359000000000E+01
4855000000.000000      5.091248000000000E-01     -1.622813000000000E+02      4.786835000000000E-01     -7.440234000000000E+01      4.998016000000000E-01     -1.751484000000000E+02      7.174988000000000E-01     -9.321093000000000E+01
4856000000.000000      5.145874000000000E-01     -1.627578000000000E+02      4.808044000000000E-01     -7.475780000000000E+01      5.034790000000000E-01     -1.754531000000000E+02      7.225952000000000E-01     -9.319139000000000E+01
4857000000.000000      5.184326000000000E-01     -1.632813000000000E+02      4.832764000000000E-01     -7.511719000000000E+01      5.074158000000000E-01     -1.755391000000000E+02      7.247314000000000E-01     -9.323437000000000E+01
4858000000.000000      5.207825000000000E-01     -1.638125000000000E+02      4.853668000000000E-01     -7.538280000000000E+01      5.105591000000000E-01     -1.757109000000000E+02      7.263184000000000E-01     -9.328125000000000E+01
4859000000.000000      5.251465000000000E-01     -1.643359000000000E+02      4.876862000000000E-01     -7.566796000000000E+01      5.153198000000000E-01     -1.757031000000000E+02      7.297974000000000E-01     -9.345312000000000E+01
4860000000.000000      5.303650000000000E-01     -1.647344000000000E+02      4.893341000000000E-01     -7.595312000000000E+01      5.184631000000000E-01     -1.759609000000000E+02      7.315674000000000E-01     -9.340235000000000E+01
4861000000.000000      5.327148000000000E-01     -1.650938000000000E+02      4.893188000000000E-01     -7.647265000000000E+01      5.231018000000000E-01     -1.761328000000000E+02      7.359314000000000E-01     -9.343359000000000E+01
4862000000.000000      5.355530000000000E-01     -1.655781000000000E+02      4.929047000000000E-01     -7.668359000000000E+01      5.267639000000000E-01     -1.763438000000000E+02      7.401733000000000E-01     -9.352343000000000E+01
4863000000.000000      5.391541000000000E-01     -1.660156000000000E+02      4.945526000000000E-01     -7.683984000000000E+01      5.302734000000000E-01     -1.765469000000000E+02      7.412720000000000E-01     -9.347656000000000E+01
4864000000.000000      5.425720000000000E-01     -1.664297000000000E+02      4.961395000000000E-01     -7.721093000000000E+01      5.321655000000000E-01     -1.767187000000000E+02      7.438660000000000E-01     -9.350389000000000E+01
4865000000.000000      5.444641000000000E-01     -1.668516000000000E+02      4.980774000000000E-01     -7.748437000000000E+01      5.349731000000000E-01     -1.768828000000000E+02      7.476807000000000E-01     -9.361719000000000E+01
4866000000.000000      5.466614000000000E-01     -1.671562000000000E+02      4.980316000000000E-01     -7.772265000000000E+01      5.395813000000000E-01     -1.771094000000000E+02      7.519836000000000E-01     -9.363672000000000E+01
4867000000.000000      5.491943000000000E-01     -1.675234000000000E+02      5.006409000000000E-01     -7.824609000000000E+01      5.440063000000000E-01     -1.772578000000000E+02      7.539063000000000E-01     -9.364452000000000E+01
4868000000.000000      5.526123000000000E-01     -1.679766000000000E+02      5.024109000000000E-01     -7.848437000000000E+01      5.457764000000000E-01     -1.775000000000000E+02      7.561035000000000E-01     -9.372265000000000E+01
4869000000.000000      5.526733000000000E-01     -1.682734000000000E+02      5.018921000000000E-01     -7.873047000000000E+01      5.487366000000000E-01     -1.778047000000000E+02      7.580261000000000E-01     -9.385546000000000E+01
4870000000.000000      5.556030000000000E-01     -1.685156000000000E+02      5.046082000000000E-01     -7.884766000000000E+01      5.498352000000000E-01     -1.778906000000000E+02      7.612610000000000E-01     -9.381250000000000E+01
4871000000.000000      5.581055000000000E-01     -1.689297000000000E+02      5.058899000000000E-01     -7.916797000000000E+01      5.533752000000000E-01     -1.780625000000000E+02      7.644958000000000E-01     -9.405859000000000E+01
4872000000.000000      5.592346000000000E-01     -1.691250000000000E+02      5.072327000000000E-01     -7.927734000000000E+01      5.568848000000000E-01     -1.785547000000000E+02      7.677307000000000E-01     -9.386328000000000E+01
4873000000.000000      5.594482000000000E-01     -1.694375000000000E+02      5.077209000000000E-01     -7.954296000000000E+01      5.584412000000000E-01     -1.785547000000000E+02      7.688904000000000E-01     -9.402735000000000E+01
4874000000.000000      5.613708000000000E-01     -1.696484000000000E+02      5.076904000000000E-01     -7.996875000000000E+01      5.630493000000000E-01     -1.787188000000000E+02      7.703247000000000E-01     -9.380468000000000E+01
4875000000.000000      5.639038000000000E-01     -1.699219000000000E+02      5.096436000000000E-01     -8.017969000000000E+01      5.638123000000000E-01     -1.791328000000000E+02      7.737427000000000E-01     -9.405859000000000E+01
4876000000.000000      5.631409000000000E-01     -1.701172000000000E+02      5.117798000000000E-01     -8.037889000000000E+01      5.657349000000000E-01     -1.792500000000000E+02      7.766418000000000E-01     -9.408594000000000E+01
4877000000.000000      5.638428000000000E-01     -1.703672000000000E+02      5.125122000000000E-01     -8.056641000000000E+01      5.693359000000000E-01     -1.795547000000000E+02      7.783813000000000E-01     -9.417578000000000E+01
4878000000.000000      5.651245000000000E-01     -1.705547000000000E+02      5.135803000000000E-01     -8.080469000000000E+01      5.722046000000000E-01     -1.796641000000000E+02      7.820129000000000E-01     -9.417969000000000E+01
4879000000.000000      5.655823000000000E-01     -1.707422000000000E+02      5.129700000000000E-01     -8.098047000000000E+01      5.737610000000000E-01     -1.798984000000000E+02      7.842712000000000E-01     -9.419140000000000E+01
4880000000.000000      5.653381000000000E-01     -1.708828000000000E+02      5.148926000000000E-01     -8.130468000000000E+01      5.753784000000000E-01      1.799297000000000E+02      7.860107000000000E-01     -9.416016000000000E+01
4881000000.000000      5.664978000000000E-01     -1.710312000000000E+02      5.174561000000000E-01     -8.139452000000000E+01      5.777283000000000E-01      1.795234000000000E+02      7.887268000000000E-01     -9.427734000000000E+01
4882000000.000000      5.649109000000000E-01     -1.711328000000000E+02      5.173035000000000E-01     -8.163671000000000E+01      5.800476000000000E-01      1.795000000000000E+02      7.892761000000000E-01     -9.432032000000000E+01
