! Network Analyzer HP8722D
! Hewlett-Packard
! Data name: Linha & Wilkinson
! Saver's name: Rodrigo Anjos
! Comments: Teste da utilização de aquisição
continua pelo VNA HP8722D
! Time and date: 15/4/2025 17:16
!              Frequency                     S11                                                   S21                                                   S12                                                   S22
# HZ  S  MA R 50
4800000000.000000      3.302307000000000E-01     -1.135234000000000E+02      2.813721000000000E-01     -6.075585000000000E+01      2.745056000000000E-01     -1.749609000000000E+02      6.547546000000000E-01     -8.943750000000000E+01
4801000000.000000      3.292999000000000E-01     -1.145000000000000E+02      2.858734000000000E-01     -6.080664000000000E+01      2.783508000000000E-01     -1.747890000000000E+02      6.531677000000000E-01     -8.947657000000000E+01
4802000000.000000      3.283691000000000E-01     -1.155234000000000E+02      2.902527000000000E-01     -6.073828000000000E+01      2.830811000000000E-01     -1.746562000000000E+02      6.519775000000000E-01     -8.947266000000000E+01
4803000000.000000      3.281555000000000E-01     -1.164961000000000E+02      2.960358000000000E-01     -6.083008000000000E+01      2.863770000000000E-01     -1.745391000000000E+02      6.507568000000000E-01     -8.971874000000000E+01
4804000000.000000      3.274231000000000E-01     -1.174883000000000E+02      3.000946000000000E-01     -6.094727000000000E+01      2.912445000000000E-01     -1.745000000000000E+02      6.502686000000000E-01     -8.972656000000000E+01
4805000000.000000      3.274536000000000E-01     -1.184531000000000E+02      3.045349000000000E-01     -6.122460000000000E+01      2.955017000000000E-01     -1.742188000000000E+02      6.485596000000000E-01     -8.998827000000000E+01
4806000000.000000      3.266907000000000E-01     -1.193633000000000E+02      3.093109000000000E-01     -6.109765000000000E+01      2.986603000000000E-01     -1.740625000000000E+02      6.497192000000000E-01     -8.996094000000000E+01
4807000000.000000      3.271790000000000E-01     -1.206250000000000E+02      3.133698000000000E-01     -6.147461000000000E+01      3.031921000000000E-01     -1.741016000000000E+02      6.477356000000000E-01     -9.008204000000000E+01
4808000000.000000      3.274536000000000E-01     -1.215312000000000E+02      3.185425000000000E-01     -6.137500000000000E+01      3.072510000000000E-01     -1.740078000000000E+02      6.477051000000000E-01     -9.002344000000000E+01
4809000000.000000      3.274689000000000E-01     -1.226133000000000E+02      3.224030000000000E-01     -6.176952000000000E+01      3.116913000000000E-01     -1.739766000000000E+02      6.470032000000000E-01     -9.029688000000000E+01
4810000000.000000      3.284912000000000E-01     -1.237500000000000E+02      3.265381000000000E-01     -6.176562000000000E+01      3.160706000000000E-01     -1.737734000000000E+02      6.472778000000000E-01     -9.042187000000000E+01
4811000000.000000      3.300934000000000E-01     -1.247930000000000E+02      3.315887000000000E-01     -6.204883000000000E+01      3.204041000000000E-01     -1.736875000000000E+02      6.458740000000000E-01     -9.042187000000000E+01
4812000000.000000      3.313446000000000E-01     -1.257500000000000E+02      3.362122000000000E-01     -6.216210000000000E+01      3.241425000000000E-01     -1.735469000000000E+02      6.463623000000000E-01     -9.051952000000000E+01
4813000000.000000      3.318634000000000E-01     -1.268594000000000E+02      3.401031000000000E-01     -6.247656000000000E+01      3.276062000000000E-01     -1.734766000000000E+02      6.463318000000000E-01     -9.055468000000000E+01
4814000000.000000      3.328705000000000E-01     -1.280703000000000E+02      3.441925000000000E-01     -6.254492000000000E+01      3.320923000000000E-01     -1.735000000000000E+02      6.467896000000000E-01     -9.067968000000000E+01
4815000000.000000      3.345490000000000E-01     -1.290703000000000E+02      3.478394000000000E-01     -6.265234000000000E+01      3.357849000000000E-01     -1.733125000000000E+02      6.453857000000000E-01     -9.068750000000000E+01
4816000000.000000      3.366089000000000E-01     -1.300781000000000E+02      3.521881000000000E-01     -6.283984000000000E+01      3.407288000000000E-01     -1.732188000000000E+02      6.466064000000000E-01     -9.081249000000000E+01
4817000000.000000      3.397827000000000E-01     -1.310781000000000E+02      3.565979000000000E-01     -6.302343000000000E+01      3.441925000000000E-01     -1.733594000000000E+02      6.462708000000000E-01     -9.094921000000000E+01
4818000000.000000      3.414612000000000E-01     -1.322578000000000E+02      3.598938000000000E-01     -6.332812000000000E+01      3.480682000000000E-01     -1.732265000000000E+02      6.462708000000000E-01     -9.097656000000000E+01
4819000000.000000      3.441010000000000E-01     -1.333828000000000E+02      3.640137000000000E-01     -6.367773000000000E+01      3.523865000000000E-01     -1.732031000000000E+02      6.480713000000000E-01     -9.116796000000000E+01
4820000000.000000      3.463135000000000E-01     -1.343984000000000E+02      3.682251000000000E-01     -6.386719000000000E+01      3.571167000000000E-01     -1.731484000000000E+02      6.481628000000000E-01     -9.122265000000000E+01
4821000000.000000      3.492126000000000E-01     -1.354531000000000E+02      3.721161000000000E-01     -6.412499000000000E+01      3.610229000000000E-01     -1.732188000000000E+02      6.476440000000000E-01     -9.130468000000000E+01
4822000000.000000      3.535614000000000E-01     -1.365703000000000E+02      3.762817000000000E-01     -6.428124000000000E+01      3.641052000000000E-01     -1.731406000000000E+02      6.500549000000000E-01     -9.134766000000000E+01
4823000000.000000      3.558807000000000E-01     -1.374844000000000E+02      3.806763000000000E-01     -6.472656000000000E+01      3.684235000000000E-01     -1.729922000000000E+02      6.512756000000000E-01     -9.139843000000000E+01
4824000000.000000      3.604431000000000E-01     -1.385937000000000E+02      3.842773000000000E-01     -6.494141000000000E+01      3.734131000000000E-01     -1.732188000000000E+02      6.520996000000000E-01     -9.157421000000000E+01
4825000000.000000      3.633575000000000E-01     -1.395313000000000E+02      3.881226000000000E-01     -6.506640000000000E+01      3.779602000000000E-01     -1.730156000000000E+02      6.532593000000000E-01     -9.160156000000000E+01
4826000000.000000      3.677063000000000E-01     -1.406094000000000E+02      3.915405000000000E-01     -6.544531000000000E+01      3.810425000000000E-01     -1.730937000000000E+02      6.539307000000000E-01     -9.158983000000000E+01
4827000000.000000      3.715515000000000E-01     -1.414141000000000E+02      3.949127000000000E-01     -6.538280000000000E+01      3.850708000000000E-01     -1.729453000000000E+02      6.551514000000000E-01     -9.164454000000000E+01
4828000000.000000      3.764343000000000E-01     -1.424844000000000E+02      3.996887000000000E-01     -6.589062000000000E+01      3.887939000000000E-01     -1.729609000000000E+02      6.570435000000000E-01     -9.180079000000000E+01
4829000000.000000      3.788757000000000E-01     -1.433516000000000E+02      4.028625000000000E-01     -6.619922000000000E+01      3.928375000000000E-01     -1.730156000000000E+02      6.581421000000000E-01     -9.174999000000000E+01
4830000000.000000      3.843384000000000E-01     -1.442969000000000E+02      4.062500000000000E-01     -6.644921000000000E+01      3.979645000000000E-01     -1.730312000000000E+02      6.584167000000000E-01     -9.185938000000000E+01
4831000000.000000      3.885498000000000E-01     -1.452266000000000E+02      4.095917000000000E-01     -6.678515000000000E+01      4.013672000000000E-01     -1.729766000000000E+02      6.617432000000000E-01     -9.193750000000000E+01
4832000000.000000      3.941956000000000E-01     -1.461250000000000E+02      4.136047000000000E-01     -6.698047000000000E+01      4.054413000000000E-01     -1.730703000000000E+02      6.622925000000000E-01     -9.198828000000000E+01
4833000000.000000      3.992310000000000E-01     -1.470781000000000E+02      4.173889000000000E-01     -6.726171000000000E+01      4.095001000000000E-01     -1.731406000000000E+02      6.645203000000000E-01     -9.200781000000000E+01
4834000000.000000      4.035187000000000E-01     -1.478906000000000E+02      4.197235000000000E-01     -6.772655000000000E+01      4.134064000000000E-01     -1.730391000000000E+02      6.658325000000000E-01     -9.211329000000000E+01
4835000000.000000      4.082947000000000E-01     -1.486797000000000E+02      4.236603000000000E-01     -6.798828000000000E+01      4.179382000000000E-01     -1.731641000000000E+02      6.683960000000000E-01     -9.226954000000000E+01
4836000000.000000      4.141083000000000E-01     -1.494375000000000E+02      4.269104000000000E-01     -6.823437000000000E+01      4.217834000000000E-01     -1.731641000000000E+02      6.701660000000000E-01     -9.224609000000000E+01
4837000000.000000      4.189453000000000E-01     -1.502578000000000E+02      4.306641000000000E-01     -6.877343000000000E+01      4.257202000000000E-01     -1.733359000000000E+02      6.718140000000000E-01     -9.232031000000000E+01
4838000000.000000      4.246368000000000E-01     -1.511328000000000E+02      4.337463000000000E-01     -6.887500000000000E+01      4.309998000000000E-01     -1.733203000000000E+02      6.730347000000000E-01     -9.226954000000000E+01
4839000000.000000      4.294586000000000E-01     -1.517969000000000E+02      4.360352000000000E-01     -6.912499000000000E+01      4.346161000000000E-01     -1.732891000000000E+02      6.770630000000000E-01     -9.229296000000000E+01
4840000000.000000      4.340515000000000E-01     -1.526094000000000E+02      4.404144000000000E-01     -6.942187000000000E+01      4.389648000000000E-01     -1.735078000000000E+02      6.779175000000000E-01     -9.238672000000000E+01
4841000000.000000      4.397278000000000E-01     -1.534297000000000E+02      4.429169000000000E-01     -6.992188000000000E+01      4.436798000000000E-01     -1.735781000000000E+02      6.806641000000000E-01     -9.254686000000000E+01
4842000000.000000      4.454498000000000E-01     -1.540547000000000E+02      4.451447000000000E-01     -7.014843000000000E+01      4.460754000000000E-01     -1.736016000000000E+02      6.825562000000000E-01     -9.261328000000000E+01
4843000000.000000      4.502563000000000E-01     -1.548359000000000E+02      4.485931000000000E-01     -7.051562000000000E+01      4.509125000000000E-01     -1.736562000000000E+02      6.854858000000000E-01     -9.267969000000000E+01
4844000000.000000      4.551697000000000E-01     -1.554922000000000E+02      4.512329000000000E-01     -7.085546000000000E+01      4.550018000000000E-01     -1.737422000000000E+02      6.887512000000000E-01     -9.259766000000000E+01
4845000000.000000      4.600830000000000E-01     -1.561172000000000E+02      4.542236000000000E-01     -7.111328000000000E+01      4.594269000000000E-01     -1.739531000000000E+02      6.902161000000000E-01     -9.262890000000000E+01
4846000000.000000      4.655457000000000E-01     -1.567734000000000E+02      4.566345000000000E-01     -7.135547000000000E+01      4.642487000000000E-01     -1.738906000000000E+02      6.933594000000000E-01     -9.264452000000000E+01
4847000000.000000      4.714050000000000E-01     -1.574375000000000E+02      4.594116000000000E-01     -7.173828000000000E+01      4.681396000000000E-01     -1.741016000000000E+02      6.964111000000000E-01     -9.285547000000000E+01
4848000000.000000      4.760895000000000E-01     -1.580625000000000E+02      4.615021000000000E-01     -7.201562000000000E+01      4.723816000000000E-01     -1.741562000000000E+02      6.984253000000000E-01     -9.293360000000000E+01
4849000000.000000      4.814911000000000E-01     -1.588984000000000E+02      4.648132000000000E-01     -7.241405000000000E+01      4.766998000000000E-01     -1.743515000000000E+02      7.009583000000000E-01     -9.284765000000000E+01
4850000000.000000      4.861908000000000E-01     -1.593203000000000E+02      4.672699000000000E-01     -7.266406000000000E+01      4.805603000000000E-01     -1.743672000000000E+02      7.051392000000000E-01     -9.295702000000000E+01
4851000000.000000      4.915466000000000E-01     -1.598984000000000E+02      4.709015000000000E-01     -7.316015000000000E+01      4.838715000000000E-01     -1.745156000000000E+02      7.065430000000000E-01     -9.294531000000000E+01
4852000000.000000      4.961395000000000E-01     -1.604922000000000E+02      4.725952000000000E-01     -7.340234000000000E+01      4.881897000000000E-01     -1.746016000000000E+02      7.093201000000000E-01     -9.291796000000000E+01
4853000000.000000      5.017090000000000E-01     -1.610469000000000E+02      4.731903000000000E-01     -7.371875000000000E+01      4.927673000000000E-01     -1.748828000000000E+02      7.122498000000000E-01     -9.314453000000000E+01
4854000000.000000      5.057678000000000E-01     -1.615234000000000E+02      4.763184000000000E-01     -7.410156000000000E+01      4.959259000000000E-01     -1.750000000000000E+02      7.159424000000000E-01     -9.315233000000000E+01
4855000000.000000      5.086975000000000E-01     -1.621641000000000E+02      4.784393000000000E-01     -7.435547000000000E+01      4.999847000000000E-01     -1.750703000000000E+02      7.172546000000000E-01     -9.314062000000000E+01
4856000000.000000      5.143738000000000E-01     -1.626328000000000E+02      4.800262000000000E-01     -7.468359000000000E+01      5.031433000000000E-01     -1.751562000000000E+02      7.208557000000000E-01     -9.320704000000000E+01
4857000000.000000      5.184021000000000E-01     -1.631719000000000E+02      4.831238000000000E-01     -7.513281000000000E+01      5.075073000000000E-01     -1.753906000000000E+02      7.240906000000000E-01     -9.321875000000000E+01
4858000000.000000      5.207825000000000E-01     -1.636719000000000E+02      4.849396000000000E-01     -7.523438000000000E+01      5.100708000000000E-01     -1.755312000000000E+02      7.251892000000000E-01     -9.337500000000000E+01
4859000000.000000      5.248718000000000E-01     -1.641719000000000E+02      4.872589000000000E-01     -7.564453000000000E+01      5.153809000000000E-01     -1.758281000000000E+02      7.316589000000000E-01     -9.345312000000000E+01
4860000000.000000      5.299072000000000E-01     -1.646406000000000E+02      4.883575000000000E-01     -7.595312000000000E+01      5.182800000000000E-01     -1.759219000000000E+02      7.325439000000000E-01     -9.337109000000000E+01
4861000000.000000      5.331421000000000E-01     -1.650000000000000E+02      4.902954000000000E-01     -7.636328000000000E+01      5.224915000000000E-01     -1.760547000000000E+02      7.353516000000000E-01     -9.352343000000000E+01
4862000000.000000      5.357361000000000E-01     -1.655234000000000E+02      4.938507000000000E-01     -7.657031000000000E+01      5.258179000000000E-01     -1.761094000000000E+02      7.391357000000000E-01     -9.346094000000000E+01
4863000000.000000      5.379333000000000E-01     -1.658203000000000E+02      4.925232000000000E-01     -7.692968000000000E+01      5.296936000000000E-01     -1.764609000000000E+02      7.416382000000000E-01     -9.350389000000000E+01
4864000000.000000      5.424500000000000E-01     -1.662422000000000E+02      4.944611000000000E-01     -7.715234000000000E+01      5.318909000000000E-01     -1.765625000000000E+02      7.452393000000000E-01     -9.358593000000000E+01
4865000000.000000      5.447998000000000E-01     -1.667578000000000E+02      4.964600000000000E-01     -7.736718000000000E+01      5.362549000000000E-01     -1.768281000000000E+02      7.480164000000000E-01     -9.357813000000000E+01
4866000000.000000      5.462646000000000E-01     -1.670234000000000E+02      4.975281000000000E-01     -7.734765000000000E+01      5.387573000000000E-01     -1.770234000000000E+02      7.518311000000000E-01     -9.350780000000000E+01
4867000000.000000      5.492249000000000E-01     -1.673828000000000E+02      5.007629000000000E-01     -7.814062000000000E+01      5.428772000000000E-01     -1.773125000000000E+02      7.536621000000000E-01     -9.364452000000000E+01
4868000000.000000      5.520020000000000E-01     -1.678594000000000E+02      5.014648000000000E-01     -7.843750000000000E+01      5.452576000000000E-01     -1.774141000000000E+02      7.567444000000000E-01     -9.364452000000000E+01
4869000000.000000      5.531616000000000E-01     -1.680547000000000E+02      5.029602000000000E-01     -7.871094000000000E+01      5.473022000000000E-01     -1.776641000000000E+02      7.598267000000000E-01     -9.391796000000000E+01
4870000000.000000      5.554199000000000E-01     -1.684297000000000E+02      5.046997000000000E-01     -7.852344000000000E+01      5.508118000000000E-01     -1.779844000000000E+02      7.622681000000000E-01     -9.382030000000000E+01
4871000000.000000      5.580139000000000E-01     -1.687891000000000E+02      5.048218000000000E-01     -7.916406000000000E+01      5.527649000000000E-01     -1.781016000000000E+02      7.640686000000000E-01     -9.390625000000000E+01
4872000000.000000      5.590515000000000E-01     -1.690469000000000E+02      5.060425000000000E-01     -7.913671000000000E+01      5.565186000000000E-01     -1.784609000000000E+02      7.677917000000000E-01     -9.380468000000000E+01
4873000000.000000      5.604248000000000E-01     -1.691953000000000E+02      5.068970000000000E-01     -7.962109000000000E+01      5.577393000000000E-01     -1.785859000000000E+02      7.697449000000000E-01     -9.392969000000000E+01
4874000000.000000      5.612488000000000E-01     -1.696016000000000E+02      5.081787000000000E-01     -7.997656000000000E+01      5.630798000000000E-01     -1.787031000000000E+02      7.713623000000000E-01     -9.384766000000000E+01
4875000000.000000      5.636902000000000E-01     -1.699062000000000E+02      5.102539000000000E-01     -8.000391000000000E+01      5.646057000000000E-01     -1.790234000000000E+02      7.745972000000000E-01     -9.403515000000000E+01
4876000000.000000      5.631104000000000E-01     -1.700469000000000E+02      5.104065000000000E-01     -8.036718000000000E+01      5.652771000000000E-01     -1.792266000000000E+02      7.788696000000000E-01     -9.399218000000000E+01
4877000000.000000      5.639038000000000E-01     -1.702266000000000E+02      5.132141000000000E-01     -8.057421000000000E+01      5.691833000000000E-01     -1.793984000000000E+02      7.793884000000000E-01     -9.422266000000000E+01
4878000000.000000      5.650635000000000E-01     -1.704687000000000E+02      5.136719000000000E-01     -8.071093000000000E+01      5.733643000000000E-01     -1.795312000000000E+02      7.810974000000000E-01     -9.425781000000000E+01
4879000000.000000      5.658875000000000E-01     -1.706094000000000E+02      5.130615000000000E-01     -8.090235000000000E+01      5.733948000000000E-01     -1.797891000000000E+02      7.831116000000000E-01     -9.394140000000000E+01
4880000000.000000      5.647888000000000E-01     -1.707187000000000E+02      5.152893000000000E-01     -8.118750000000000E+01      5.755310000000000E-01     -1.800000000000000E+02      7.851868000000000E-01     -9.421484000000000E+01
4881000000.000000      5.671997000000000E-01     -1.707891000000000E+02      5.166321000000000E-01     -8.129297000000000E+01      5.785828000000000E-01      1.797031000000000E+02      7.877197000000000E-01     -9.428125000000000E+01
4882000000.000000      5.652466000000000E-01     -1.710703000000000E+02      5.166931000000000E-01     -8.137890000000000E+01      5.800171000000000E-01      1.795469000000000E+02      7.896423000000000E-01     -9.432421000000000E+01
