! Network Analyzer HP8722D
! Hewlett-Packard
! Data name: Linha & Wilkinson
! Saver's name: Rodrigo Anjos
! Comments: Teste da utilização de aquisição
continua pelo VNA HP8722D
! Time and date: 15/4/2025 16:34
!              Frequency                     S11                                                   S21                                                   S12                                                   S22
# HZ  S  MA R 50
4800000000.000000      3.311310000000000E-01     -1.136797000000000E+02      2.814331000000000E-01     -6.076953000000000E+01      2.747345000000000E-01     -1.750469000000000E+02      6.535645000000000E-01     -8.941015000000000E+01
4801000000.000000      3.292999000000000E-01     -1.145430000000000E+02      2.865601000000000E-01     -6.081640000000000E+01      2.786865000000000E-01     -1.748203000000000E+02      6.536560000000000E-01     -8.951563000000000E+01
4802000000.000000      3.282318000000000E-01     -1.155625000000000E+02      2.906342000000000E-01     -6.065820000000000E+01      2.831116000000000E-01     -1.747422000000000E+02      6.508179000000000E-01     -8.955078000000000E+01
4803000000.000000      3.280334000000000E-01     -1.165977000000000E+02      2.967682000000000E-01     -6.093945000000000E+01      2.867432000000000E-01     -1.746250000000000E+02      6.515808000000000E-01     -8.969921000000000E+01
4804000000.000000      3.278656000000000E-01     -1.175781000000000E+02      3.002167000000000E-01     -6.094140000000000E+01      2.913361000000000E-01     -1.745469000000000E+02      6.497803000000000E-01     -8.969530000000000E+01
4805000000.000000      3.278046000000000E-01     -1.185664000000000E+02      3.048706000000000E-01     -6.108788000000000E+01      2.953339000000000E-01     -1.743359000000000E+02      6.505127000000000E-01     -8.990625000000000E+01
4806000000.000000      3.266144000000000E-01     -1.195234000000000E+02      3.089294000000000E-01     -6.123632000000000E+01      2.983093000000000E-01     -1.740547000000000E+02      6.495667000000000E-01     -9.000000000000000E+01
4807000000.000000      3.271790000000000E-01     -1.206367000000000E+02      3.133850000000000E-01     -6.146874000000000E+01      3.033295000000000E-01     -1.741172000000000E+02      6.478882000000000E-01     -9.015234000000000E+01
4808000000.000000      3.276520000000000E-01     -1.216289000000000E+02      3.182068000000000E-01     -6.136913000000000E+01      3.071289000000000E-01     -1.740703000000000E+02      6.469421000000000E-01     -9.008204000000000E+01
4809000000.000000      3.283691000000000E-01     -1.227266000000000E+02      3.223877000000000E-01     -6.172461000000000E+01      3.118286000000000E-01     -1.739453000000000E+02      6.476746000000000E-01     -9.023829000000000E+01
4810000000.000000      3.288269000000000E-01     -1.238594000000000E+02      3.271942000000000E-01     -6.177343000000000E+01      3.165283000000000E-01     -1.737969000000000E+02      6.468506000000000E-01     -9.044140000000000E+01
4811000000.000000      3.298340000000000E-01     -1.248125000000000E+02      3.313293000000000E-01     -6.210938000000000E+01      3.206177000000000E-01     -1.736797000000000E+02      6.466980000000000E-01     -9.033983000000000E+01
4812000000.000000      3.315887000000000E-01     -1.258594000000000E+02      3.354797000000000E-01     -6.234765000000000E+01      3.240051000000000E-01     -1.736719000000000E+02      6.459961000000000E-01     -9.052734000000000E+01
4813000000.000000      3.324890000000000E-01     -1.270117000000000E+02      3.400421000000000E-01     -6.243945000000000E+01      3.280487000000000E-01     -1.734922000000000E+02      6.461182000000000E-01     -9.050781000000000E+01
4814000000.000000      3.335724000000000E-01     -1.282969000000000E+02      3.439789000000000E-01     -6.264453000000000E+01      3.317261000000000E-01     -1.735156000000000E+02      6.457825000000000E-01     -9.076952000000000E+01
4815000000.000000      3.349304000000000E-01     -1.290859000000000E+02      3.475647000000000E-01     -6.289257000000000E+01      3.359375000000000E-01     -1.734375000000000E+02      6.454468000000000E-01     -9.063671000000000E+01
4816000000.000000      3.373108000000000E-01     -1.301875000000000E+02      3.526764000000000E-01     -6.285156000000000E+01      3.406067000000000E-01     -1.734297000000000E+02      6.459961000000000E-01     -9.078905000000000E+01
4817000000.000000      3.400879000000000E-01     -1.312813000000000E+02      3.562164000000000E-01     -6.326757000000000E+01      3.442841000000000E-01     -1.733359000000000E+02      6.462708000000000E-01     -9.095312000000000E+01
4818000000.000000      3.417053000000000E-01     -1.324063000000000E+02      3.605194000000000E-01     -6.348437000000000E+01      3.486786000000000E-01     -1.732109000000000E+02      6.463013000000000E-01     -9.099609000000000E+01
4819000000.000000      3.449554000000000E-01     -1.334687000000000E+02      3.645630000000000E-01     -6.363086000000000E+01      3.526001000000000E-01     -1.732734000000000E+02      6.481628000000000E-01     -9.110546000000000E+01
4820000000.000000      3.462830000000000E-01     -1.344609000000000E+02      3.685913000000000E-01     -6.389648000000000E+01      3.568420000000000E-01     -1.732265000000000E+02      6.483154000000000E-01     -9.123438000000000E+01
4821000000.000000      3.491364000000000E-01     -1.355547000000000E+02      3.731689000000000E-01     -6.430078000000000E+01      3.604736000000000E-01     -1.732578000000000E+02      6.474304000000000E-01     -9.137890000000000E+01
4822000000.000000      3.540649000000000E-01     -1.366328000000000E+02      3.770294000000000E-01     -6.437500000000000E+01      3.640747000000000E-01     -1.732265000000000E+02      6.500549000000000E-01     -9.139063000000000E+01
4823000000.000000      3.564301000000000E-01     -1.376641000000000E+02      3.805542000000000E-01     -6.455468000000000E+01      3.692627000000000E-01     -1.730156000000000E+02      6.501160000000000E-01     -9.143358000000000E+01
4824000000.000000      3.605347000000000E-01     -1.387656000000000E+02      3.840942000000000E-01     -6.494141000000000E+01      3.730621000000000E-01     -1.731484000000000E+02      6.520691000000000E-01     -9.147655000000000E+01
4825000000.000000      3.633423000000000E-01     -1.396719000000000E+02      3.875122000000000E-01     -6.516796000000000E+01      3.769531000000000E-01     -1.730937000000000E+02      6.521301000000000E-01     -9.151953000000000E+01
4826000000.000000      3.684082000000000E-01     -1.406797000000000E+02      3.921661000000000E-01     -6.554688000000000E+01      3.804321000000000E-01     -1.732344000000000E+02      6.532898000000000E-01     -9.164063000000000E+01
4827000000.000000      3.718262000000000E-01     -1.415234000000000E+02      3.953705000000000E-01     -6.557422000000000E+01      3.850250000000000E-01     -1.730937000000000E+02      6.550293000000000E-01     -9.167578000000000E+01
4828000000.000000      3.766632000000000E-01     -1.425390000000000E+02      4.001160000000000E-01     -6.587109000000000E+01      3.886566000000000E-01     -1.730547000000000E+02      6.566772000000000E-01     -9.185156000000000E+01
4829000000.000000      3.793335000000000E-01     -1.433984000000000E+02      4.026489000000000E-01     -6.629687000000000E+01      3.933105000000000E-01     -1.730625000000000E+02      6.579590000000000E-01     -9.169531000000000E+01
4830000000.000000      3.849487000000000E-01     -1.443828000000000E+02      4.056396000000000E-01     -6.658593000000000E+01      3.967285000000000E-01     -1.731016000000000E+02      6.587219000000000E-01     -9.194921000000000E+01
4831000000.000000      3.889008000000000E-01     -1.452812000000000E+02      4.096375000000000E-01     -6.695313000000000E+01      4.011688000000000E-01     -1.731094000000000E+02      6.603699000000000E-01     -9.195704000000000E+01
4832000000.000000      3.946075000000000E-01     -1.461719000000000E+02      4.138489000000000E-01     -6.713672000000000E+01      4.054718000000000E-01     -1.731641000000000E+02      6.631165000000000E-01     -9.207422000000000E+01
4833000000.000000      3.995667000000000E-01     -1.471328000000000E+02      4.171143000000000E-01     -6.736718000000000E+01      4.098969000000000E-01     -1.732109000000000E+02      6.641846000000000E-01     -9.213282000000000E+01
4834000000.000000      4.037476000000000E-01     -1.479453000000000E+02      4.208527000000000E-01     -6.771093000000000E+01      4.135895000000000E-01     -1.731797000000000E+02      6.643372000000000E-01     -9.210546000000000E+01
4835000000.000000      4.084473000000000E-01     -1.487344000000000E+02      4.243011000000000E-01     -6.794531000000000E+01      4.185028000000000E-01     -1.732734000000000E+02      6.677551000000000E-01     -9.232422000000000E+01
4836000000.000000      4.143677000000000E-01     -1.495000000000000E+02      4.270477000000000E-01     -6.831640000000000E+01      4.214630000000000E-01     -1.732812000000000E+02      6.687622000000000E-01     -9.224218000000000E+01
4837000000.000000      4.197083000000000E-01     -1.503359000000000E+02      4.301910000000000E-01     -6.880859000000000E+01      4.262238000000000E-01     -1.735078000000000E+02      6.711426000000000E-01     -9.230860000000000E+01
4838000000.000000      4.243164000000000E-01     -1.512109000000000E+02      4.342194000000000E-01     -6.883594000000000E+01      4.307404000000000E-01     -1.733750000000000E+02      6.734314000000000E-01     -9.239061000000000E+01
4839000000.000000      4.297638000000000E-01     -1.518203000000000E+02      4.369965000000000E-01     -6.916797000000000E+01      4.347992000000000E-01     -1.734219000000000E+02      6.770325000000000E-01     -9.233202000000000E+01
4840000000.000000      4.344330000000000E-01     -1.527031000000000E+02      4.397430000000000E-01     -6.945313000000000E+01      4.389954000000000E-01     -1.735156000000000E+02      6.776428000000000E-01     -9.255859000000000E+01
4841000000.000000      4.401855000000000E-01     -1.535234000000000E+02      4.430847000000000E-01     -6.998828000000000E+01      4.433899000000000E-01     -1.737266000000000E+02      6.797180000000000E-01     -9.253124000000000E+01
4842000000.000000      4.456940000000000E-01     -1.541406000000000E+02      4.461365000000000E-01     -7.022655000000000E+01      4.464874000000000E-01     -1.736797000000000E+02      6.834717000000000E-01     -9.254686000000000E+01
4843000000.000000      4.505768000000000E-01     -1.549297000000000E+02      4.492188000000000E-01     -7.067968000000000E+01      4.510345000000000E-01     -1.736484000000000E+02      6.853638000000000E-01     -9.263281000000000E+01
4844000000.000000      4.557037000000000E-01     -1.556094000000000E+02      4.512329000000000E-01     -7.083984000000000E+01      4.545746000000000E-01     -1.738828000000000E+02      6.876526000000000E-01     -9.265625000000000E+01
4845000000.000000      4.603577000000000E-01     -1.561797000000000E+02      4.540253000000000E-01     -7.121094000000000E+01      4.594116000000000E-01     -1.739687000000000E+02      6.896362000000000E-01     -9.274609000000000E+01
4846000000.000000      4.656372000000000E-01     -1.567891000000000E+02      4.570160000000000E-01     -7.144531000000000E+01      4.637451000000000E-01     -1.740703000000000E+02      6.929932000000000E-01     -9.274609000000000E+01
4847000000.000000      4.719238000000000E-01     -1.575234000000000E+02      4.597168000000000E-01     -7.186718000000000E+01      4.680939000000000E-01     -1.741953000000000E+02      6.956177000000000E-01     -9.288671000000000E+01
4848000000.000000      4.765625000000000E-01     -1.581406000000000E+02      4.620667000000000E-01     -7.213281000000000E+01      4.721375000000000E-01     -1.742344000000000E+02      6.982727000000000E-01     -9.298437000000000E+01
4849000000.000000      4.807739000000000E-01     -1.589687000000000E+02      4.649658000000000E-01     -7.258984000000000E+01      4.761963000000000E-01     -1.743594000000000E+02      7.002258000000000E-01     -9.291407000000000E+01
4850000000.000000      4.869385000000000E-01     -1.593359000000000E+02      4.670868000000000E-01     -7.278515000000000E+01      4.802704000000000E-01     -1.744531000000000E+02      7.032471000000000E-01     -9.283594000000000E+01
4851000000.000000      4.915619000000000E-01     -1.599766000000000E+02      4.712067000000000E-01     -7.315624000000000E+01      4.836884000000000E-01     -1.745859000000000E+02      7.070007000000000E-01     -9.299219000000000E+01
4852000000.000000      4.968262000000000E-01     -1.605547000000000E+02      4.732666000000000E-01     -7.337891000000000E+01      4.882355000000000E-01     -1.747266000000000E+02      7.100220000000000E-01     -9.304688000000000E+01
4853000000.000000      5.010681000000000E-01     -1.611484000000000E+02      4.730682000000000E-01     -7.371875000000000E+01      4.924774000000000E-01     -1.749453000000000E+02      7.128601000000000E-01     -9.322266000000000E+01
4854000000.000000      5.050354000000000E-01     -1.616016000000000E+02      4.765320000000000E-01     -7.414063000000000E+01      4.956970000000000E-01     -1.750234000000000E+02      7.150879000000000E-01     -9.319530000000000E+01
4855000000.000000      5.086975000000000E-01     -1.622578000000000E+02      4.786835000000000E-01     -7.448047000000000E+01      5.000916000000000E-01     -1.751250000000000E+02      7.182007000000000E-01     -9.313671000000000E+01
4856000000.000000      5.139465000000000E-01     -1.626875000000000E+02      4.809875000000000E-01     -7.463672000000000E+01      5.039673000000000E-01     -1.752266000000000E+02      7.218018000000000E-01     -9.317968000000000E+01
4857000000.000000      5.187073000000000E-01     -1.632734000000000E+02      4.840393000000000E-01     -7.501562000000000E+01      5.067444000000000E-01     -1.753047000000000E+02      7.241211000000000E-01     -9.330469000000000E+01
4858000000.000000      5.202942000000000E-01     -1.638203000000000E+02      4.851227000000000E-01     -7.533593000000000E+01      5.115967000000000E-01     -1.756953000000000E+02      7.261047000000000E-01     -9.337891000000000E+01
4859000000.000000      5.249939000000000E-01     -1.642422000000000E+02      4.872437000000000E-01     -7.578125000000000E+01      5.150452000000000E-01     -1.758750000000000E+02      7.314453000000000E-01     -9.346483000000000E+01
4860000000.000000      5.302429000000000E-01     -1.647578000000000E+02      4.892273000000000E-01     -7.585546000000000E+01      5.176086000000000E-01     -1.760547000000000E+02      7.327576000000000E-01     -9.340624000000000E+01
4861000000.000000      5.327454000000000E-01     -1.650938000000000E+02      4.910583000000000E-01     -7.634375000000000E+01      5.230103000000000E-01     -1.761719000000000E+02      7.351685000000000E-01     -9.347265000000000E+01
4862000000.000000      5.364075000000000E-01     -1.655156000000000E+02      4.937134000000000E-01     -7.666797000000000E+01      5.258789000000000E-01     -1.763515000000000E+02      7.397156000000000E-01     -9.340235000000000E+01
4863000000.000000      5.392151000000000E-01     -1.659141000000000E+02      4.947052000000000E-01     -7.692577000000000E+01      5.301819000000000E-01     -1.764062000000000E+02      7.432556000000000E-01     -9.355469000000000E+01
4864000000.000000      5.424500000000000E-01     -1.663906000000000E+02      4.970093000000000E-01     -7.727344000000000E+01      5.317993000000000E-01     -1.767109000000000E+02      7.452393000000000E-01     -9.355469000000000E+01
4865000000.000000      5.439453000000000E-01     -1.668516000000000E+02      4.962921000000000E-01     -7.750000000000000E+01      5.357666000000000E-01     -1.770078000000000E+02      7.484741000000000E-01     -9.351563000000000E+01
4866000000.000000      5.462952000000000E-01     -1.671562000000000E+02      4.989471000000000E-01     -7.766015000000000E+01      5.390625000000000E-01     -1.771406000000000E+02      7.493591000000000E-01     -9.361719000000000E+01
4867000000.000000      5.488892000000000E-01     -1.674375000000000E+02      4.990234000000000E-01     -7.800390000000000E+01      5.418701000000000E-01     -1.771406000000000E+02      7.526245000000000E-01     -9.378906000000000E+01
4868000000.000000      5.516968000000000E-01     -1.678984000000000E+02      5.024109000000000E-01     -7.836328000000000E+01      5.450439000000000E-01     -1.774375000000000E+02      7.555847000000000E-01     -9.371874000000000E+01
4869000000.000000      5.530396000000000E-01     -1.682266000000000E+02      5.032654000000000E-01     -7.868750000000000E+01      5.488892000000000E-01     -1.778906000000000E+02      7.599182000000000E-01     -9.374218000000000E+01
4870000000.000000      5.552673000000000E-01     -1.684375000000000E+02      5.034180000000000E-01     -7.872265000000000E+01      5.509338000000000E-01     -1.779922000000000E+02      7.621460000000000E-01     -9.372656000000000E+01
4871000000.000000      5.578918000000000E-01     -1.688984000000000E+02      5.068665000000000E-01     -7.908593000000000E+01      5.524597000000000E-01     -1.781719000000000E+02      7.641296000000000E-01     -9.387499000000000E+01
4872000000.000000      5.593872000000000E-01     -1.691094000000000E+02      5.057678000000000E-01     -7.937500000000000E+01      5.555725000000000E-01     -1.785234000000000E+02      7.680969000000000E-01     -9.385937000000000E+01
4873000000.000000      5.607605000000000E-01     -1.693281000000000E+02      5.077209000000000E-01     -7.957421000000000E+01      5.583801000000000E-01     -1.786328000000000E+02      7.691040000000000E-01     -9.398046000000000E+01
4874000000.000000      5.612793000000000E-01     -1.695703000000000E+02      5.092468000000000E-01     -7.999609000000000E+01      5.626221000000000E-01     -1.787656000000000E+02      7.710266000000000E-01     -9.391016000000000E+01
4875000000.000000      5.633545000000000E-01     -1.700156000000000E+02      5.110168000000000E-01     -8.024218000000000E+01      5.650940000000000E-01     -1.792500000000000E+02      7.727661000000000E-01     -9.405077000000000E+01
4876000000.000000      5.633545000000000E-01     -1.701015000000000E+02      5.103455000000000E-01     -8.043360000000000E+01      5.653381000000000E-01     -1.791016000000000E+02      7.772522000000000E-01     -9.404297000000000E+01
4877000000.000000      5.640869000000000E-01     -1.702656000000000E+02      5.128174000000000E-01     -8.065624000000000E+01      5.691833000000000E-01     -1.795625000000000E+02      7.794495000000000E-01     -9.425781000000000E+01
4878000000.000000      5.646057000000000E-01     -1.704844000000000E+02      5.124817000000000E-01     -8.066406000000000E+01      5.716553000000000E-01     -1.796562000000000E+02      7.815247000000000E-01     -9.422266000000000E+01
4879000000.000000      5.662537000000000E-01     -1.707500000000000E+02      5.134277000000000E-01     -8.100780000000000E+01      5.736694000000000E-01     -1.799609000000000E+02      7.830811000000000E-01     -9.415234000000000E+01
4880000000.000000      5.654907000000000E-01     -1.708750000000000E+02      5.144653000000000E-01     -8.119141000000000E+01      5.757446000000000E-01      1.799141000000000E+02      7.873230000000000E-01     -9.422655000000000E+01
4881000000.000000      5.661621000000000E-01     -1.710078000000000E+02      5.169067000000000E-01     -8.137890000000000E+01      5.784302000000000E-01      1.797109000000000E+02      7.876587000000000E-01     -9.428905000000000E+01
4882000000.000000      5.650330000000000E-01     -1.711719000000000E+02      5.168152000000000E-01     -8.167969000000000E+01      5.809021000000000E-01      1.795703000000000E+02      7.898560000000000E-01     -9.431250000000000E+01
