! Network Analyzer HP8722D
! Hewlett-Packard
! Data name: Linha & Wilkinson
! Saver's name: Rodrigo Anjos
! Comments: Teste da utilização de aquisição
continua pelo VNA HP8722D
! Time and date: 15/4/2025 16:28
!              Frequency                     S11                                                   S21                                                   S12                                                   S22
# HZ  S  MA R 50
4800000000.000000      3.306580000000000E-01     -1.136680000000000E+02      2.820587000000000E-01     -6.069140000000000E+01      2.749481000000000E-01     -1.750937000000000E+02      6.544800000000000E-01     -8.944139000000000E+01
4801000000.000000      3.301392000000000E-01     -1.146797000000000E+02      2.861023000000000E-01     -6.068164000000000E+01      2.783051000000000E-01     -1.748750000000000E+02      6.531067000000000E-01     -8.948437000000000E+01
4802000000.000000      3.282928000000000E-01     -1.155937000000000E+02      2.907104000000000E-01     -6.086328000000000E+01      2.832642000000000E-01     -1.746641000000000E+02      6.511841000000000E-01     -8.954687000000000E+01
4803000000.000000      3.281860000000000E-01     -1.166484000000000E+02      2.958527000000000E-01     -6.093359000000000E+01      2.864227000000000E-01     -1.745703000000000E+02      6.507263000000000E-01     -8.973436000000000E+01
4804000000.000000      3.280640000000000E-01     -1.176445000000000E+02      2.997284000000000E-01     -6.107031000000000E+01      2.914124000000000E-01     -1.746172000000000E+02      6.499329000000000E-01     -8.976563000000000E+01
4805000000.000000      3.276215000000000E-01     -1.187109000000000E+02      3.053131000000000E-01     -6.117773000000000E+01      2.960052000000000E-01     -1.742969000000000E+02      6.501465000000000E-01     -8.985937000000000E+01
4806000000.000000      3.275299000000000E-01     -1.195898000000000E+02      3.090515000000000E-01     -6.116992000000000E+01      2.991333000000000E-01     -1.741016000000000E+02      6.489563000000000E-01     -9.014843000000000E+01
4807000000.000000      3.277283000000000E-01     -1.206602000000000E+02      3.137817000000000E-01     -6.153515000000000E+01      3.039398000000000E-01     -1.741406000000000E+02      6.475525000000000E-01     -9.009766000000000E+01
4808000000.000000      3.274841000000000E-01     -1.216719000000000E+02      3.188324000000000E-01     -6.142187000000000E+01      3.073730000000000E-01     -1.740703000000000E+02      6.471558000000000E-01     -9.008984000000000E+01
4809000000.000000      3.283386000000000E-01     -1.227500000000000E+02      3.232422000000000E-01     -6.188477000000000E+01      3.121796000000000E-01     -1.739531000000000E+02      6.467590000000000E-01     -9.025782000000000E+01
4810000000.000000      3.292236000000000E-01     -1.238750000000000E+02      3.276062000000000E-01     -6.167187000000000E+01      3.160858000000000E-01     -1.738437000000000E+02      6.470947000000000E-01     -9.032421000000000E+01
4811000000.000000      3.296509000000000E-01     -1.248398000000000E+02      3.315277000000000E-01     -6.201366000000000E+01      3.205414000000000E-01     -1.736953000000000E+02      6.470032000000000E-01     -9.039454000000000E+01
4812000000.000000      3.318176000000000E-01     -1.258984000000000E+02      3.357849000000000E-01     -6.239648000000000E+01      3.247986000000000E-01     -1.736797000000000E+02      6.461487000000000E-01     -9.055079000000000E+01
4813000000.000000      3.322449000000000E-01     -1.270703000000000E+02      3.397217000000000E-01     -6.233007000000000E+01      3.283081000000000E-01     -1.735703000000000E+02      6.462402000000000E-01     -9.055859000000000E+01
4814000000.000000      3.334351000000000E-01     -1.282031000000000E+02      3.444519000000000E-01     -6.266796000000000E+01      3.329620000000000E-01     -1.735859000000000E+02      6.456604000000000E-01     -9.074999000000000E+01
4815000000.000000      3.349457000000000E-01     -1.292500000000000E+02      3.479767000000000E-01     -6.272265000000000E+01      3.361053000000000E-01     -1.734219000000000E+02      6.461792000000000E-01     -9.070704000000000E+01
4816000000.000000      3.368378000000000E-01     -1.302187000000000E+02      3.524170000000000E-01     -6.285351000000000E+01      3.405914000000000E-01     -1.733672000000000E+02      6.460571000000000E-01     -9.083984000000000E+01
4817000000.000000      3.399048000000000E-01     -1.313203000000000E+02      3.572693000000000E-01     -6.336328000000000E+01      3.448334000000000E-01     -1.735156000000000E+02      6.465454000000000E-01     -9.100780000000000E+01
4818000000.000000      3.417511000000000E-01     -1.324531000000000E+02      3.601685000000000E-01     -6.343750000000000E+01      3.493042000000000E-01     -1.732891000000000E+02      6.471558000000000E-01     -9.102343000000000E+01
4819000000.000000      3.441772000000000E-01     -1.335469000000000E+02      3.647766000000000E-01     -6.376367000000000E+01      3.527679000000000E-01     -1.733906000000000E+02      6.487122000000000E-01     -9.112890000000000E+01
4820000000.000000      3.465424000000000E-01     -1.344609000000000E+02      3.686523000000000E-01     -6.390625000000000E+01      3.573608000000000E-01     -1.732812000000000E+02      6.481018000000000E-01     -9.120703000000000E+01
4821000000.000000      3.500061000000000E-01     -1.355781000000000E+02      3.722839000000000E-01     -6.413280000000000E+01      3.610535000000000E-01     -1.732812000000000E+02      6.477661000000000E-01     -9.132030000000000E+01
4822000000.000000      3.537292000000000E-01     -1.366875000000000E+02      3.760223000000000E-01     -6.443359000000000E+01      3.642578000000000E-01     -1.732656000000000E+02      6.496887000000000E-01     -9.125000000000000E+01
4823000000.000000      3.562775000000000E-01     -1.376250000000000E+02      3.805847000000000E-01     -6.473046000000000E+01      3.686066000000000E-01     -1.730937000000000E+02      6.504211000000000E-01     -9.156250000000000E+01
4824000000.000000      3.601227000000000E-01     -1.387578000000000E+02      3.844604000000000E-01     -6.500781000000000E+01      3.737640000000000E-01     -1.732265000000000E+02      6.521912000000000E-01     -9.152735000000000E+01
4825000000.000000      3.636627000000000E-01     -1.397109000000000E+02      3.880615000000000E-01     -6.513281000000000E+01      3.781586000000000E-01     -1.731016000000000E+02      6.529846000000000E-01     -9.148438000000000E+01
4826000000.000000      3.679504000000000E-01     -1.407422000000000E+02      3.924561000000000E-01     -6.555078000000000E+01      3.814392000000000E-01     -1.732422000000000E+02      6.531677000000000E-01     -9.162889000000000E+01
4827000000.000000      3.720398000000000E-01     -1.415625000000000E+02      3.961487000000000E-01     -6.562890000000000E+01      3.851166000000000E-01     -1.731484000000000E+02      6.545410000000000E-01     -9.169531000000000E+01
4828000000.000000      3.771515000000000E-01     -1.425625000000000E+02      3.991699000000000E-01     -6.592968000000000E+01      3.895111000000000E-01     -1.731016000000000E+02      6.574707000000000E-01     -9.175781000000000E+01
4829000000.000000      3.796539000000000E-01     -1.434609000000000E+02      4.027100000000000E-01     -6.620312000000000E+01      3.932190000000000E-01     -1.731172000000000E+02      6.570129000000000E-01     -9.183985000000000E+01
4830000000.000000      3.849487000000000E-01     -1.443984000000000E+02      4.062958000000000E-01     -6.653515000000000E+01      3.973999000000000E-01     -1.730312000000000E+02      6.599426000000000E-01     -9.189062000000000E+01
4831000000.000000      3.888245000000000E-01     -1.453359000000000E+02      4.100647000000000E-01     -6.685937000000000E+01      4.014435000000000E-01     -1.730625000000000E+02      6.606140000000000E-01     -9.205858000000000E+01
4832000000.000000      3.946533000000000E-01     -1.462188000000000E+02      4.138031000000000E-01     -6.698047000000000E+01      4.059601000000000E-01     -1.732031000000000E+02      6.617432000000000E-01     -9.195313000000000E+01
4833000000.000000      3.994904000000000E-01     -1.471797000000000E+02      4.175415000000000E-01     -6.738671000000000E+01      4.098053000000000E-01     -1.732265000000000E+02      6.635742000000000E-01     -9.205469000000000E+01
4834000000.000000      4.042206000000000E-01     -1.479766000000000E+02      4.200745000000000E-01     -6.783203000000000E+01      4.138641000000000E-01     -1.732188000000000E+02      6.657104000000000E-01     -9.220312000000000E+01
4835000000.000000      4.085541000000000E-01     -1.488125000000000E+02      4.238739000000000E-01     -6.799999000000000E+01      4.183960000000000E-01     -1.732422000000000E+02      6.681824000000000E-01     -9.236719000000000E+01
4836000000.000000      4.145966000000000E-01     -1.495469000000000E+02      4.271851000000000E-01     -6.826172000000000E+01      4.216461000000000E-01     -1.732265000000000E+02      6.695251000000000E-01     -9.213282000000000E+01
4837000000.000000      4.192963000000000E-01     -1.503828000000000E+02      4.297333000000000E-01     -6.889062000000000E+01      4.266205000000000E-01     -1.734375000000000E+02      6.709595000000000E-01     -9.233984000000000E+01
4838000000.000000      4.247131000000000E-01     -1.512656000000000E+02      4.340363000000000E-01     -6.886328000000000E+01      4.308319000000000E-01     -1.734062000000000E+02      6.743164000000000E-01     -9.234766000000000E+01
4839000000.000000      4.297943000000000E-01     -1.518359000000000E+02      4.360046000000000E-01     -6.920312000000000E+01      4.350433000000000E-01     -1.734609000000000E+02      6.772156000000000E-01     -9.228516000000000E+01
4840000000.000000      4.342499000000000E-01     -1.527422000000000E+02      4.399414000000000E-01     -6.958984000000000E+01      4.387512000000000E-01     -1.735391000000000E+02      6.777954000000000E-01     -9.247265000000000E+01
4841000000.000000      4.402008000000000E-01     -1.535625000000000E+02      4.432068000000000E-01     -7.004687000000000E+01      4.428711000000000E-01     -1.736797000000000E+02      6.792603000000000E-01     -9.260937000000000E+01
4842000000.000000      4.459534000000000E-01     -1.541563000000000E+02      4.459839000000000E-01     -7.029297000000000E+01      4.464417000000000E-01     -1.737031000000000E+02      6.831055000000000E-01     -9.255468000000000E+01
4843000000.000000      4.504852000000000E-01     -1.549453000000000E+02      4.490356000000000E-01     -7.061718000000000E+01      4.507294000000000E-01     -1.737890000000000E+02      6.863708000000000E-01     -9.253515000000000E+01
4844000000.000000      4.554901000000000E-01     -1.555859000000000E+02      4.515686000000000E-01     -7.096484000000000E+01      4.549866000000000E-01     -1.738359000000000E+02      6.890564000000000E-01     -9.271093000000000E+01
4845000000.000000      4.604797000000000E-01     -1.562969000000000E+02      4.546204000000000E-01     -7.116015000000000E+01      4.595490000000000E-01     -1.739531000000000E+02      6.886597000000000E-01     -9.276953000000000E+01
4846000000.000000      4.658661000000000E-01     -1.568125000000000E+02      4.570007000000000E-01     -7.146093000000000E+01      4.640808000000000E-01     -1.740859000000000E+02      6.930542000000000E-01     -9.276953000000000E+01
4847000000.000000      4.716949000000000E-01     -1.575781000000000E+02      4.602203000000000E-01     -7.180859000000000E+01      4.683075000000000E-01     -1.741719000000000E+02      6.961975000000000E-01     -9.291016000000000E+01
4848000000.000000      4.765930000000000E-01     -1.581484000000000E+02      4.623108000000000E-01     -7.203906000000000E+01      4.718933000000000E-01     -1.742656000000000E+02      6.975403000000000E-01     -9.294140000000000E+01
4849000000.000000      4.816437000000000E-01     -1.590312000000000E+02      4.646149000000000E-01     -7.255468000000000E+01      4.772339000000000E-01     -1.744062000000000E+02      7.004089000000000E-01     -9.285156000000000E+01
4850000000.000000      4.861145000000000E-01     -1.593984000000000E+02      4.676361000000000E-01     -7.284765000000000E+01      4.802704000000000E-01     -1.744531000000000E+02      7.028809000000000E-01     -9.299999000000000E+01
4851000000.000000      4.913025000000000E-01     -1.600000000000000E+02      4.708252000000000E-01     -7.317968000000000E+01      4.839935000000000E-01     -1.746250000000000E+02      7.064514000000000E-01     -9.303905000000000E+01
4852000000.000000      4.966736000000000E-01     -1.606328000000000E+02      4.731293000000000E-01     -7.353516000000000E+01      4.882965000000000E-01     -1.747813000000000E+02      7.102356000000000E-01     -9.305079000000000E+01
4853000000.000000      5.008545000000000E-01     -1.611562000000000E+02      4.730988000000000E-01     -7.381249000000000E+01      4.927979000000000E-01     -1.749219000000000E+02      7.126160000000000E-01     -9.321093000000000E+01
4854000000.000000      5.057678000000000E-01     -1.617109000000000E+02      4.768524000000000E-01     -7.422265000000000E+01      4.960480000000000E-01     -1.750547000000000E+02      7.156067000000000E-01     -9.319921000000000E+01
4855000000.000000      5.090942000000000E-01     -1.623125000000000E+02      4.782410000000000E-01     -7.448047000000000E+01      5.001526000000000E-01     -1.751797000000000E+02      7.176514000000000E-01     -9.328125000000000E+01
4856000000.000000      5.144958000000000E-01     -1.627187000000000E+02      4.807281000000000E-01     -7.480469000000000E+01      5.034485000000000E-01     -1.753515000000000E+02      7.218628000000000E-01     -9.319530000000000E+01
4857000000.000000      5.186768000000000E-01     -1.632734000000000E+02      4.838257000000000E-01     -7.512500000000000E+01      5.067444000000000E-01     -1.755234000000000E+02      7.244263000000000E-01     -9.332031000000000E+01
4858000000.000000      5.207520000000000E-01     -1.638359000000000E+02      4.848938000000000E-01     -7.542187000000000E+01      5.109558000000000E-01     -1.757500000000000E+02      7.260437000000000E-01     -9.342188000000000E+01
4859000000.000000      5.253906000000000E-01     -1.642969000000000E+02      4.873657000000000E-01     -7.563671000000000E+01      5.152893000000000E-01     -1.758906000000000E+02      7.301636000000000E-01     -9.335938000000000E+01
4860000000.000000      5.301208000000000E-01     -1.647422000000000E+02      4.893646000000000E-01     -7.592187000000000E+01      5.181580000000000E-01     -1.759453000000000E+02      7.320251000000000E-01     -9.337500000000000E+01
4861000000.000000      5.325623000000000E-01     -1.651250000000000E+02      4.907684000000000E-01     -7.643359000000000E+01      5.211182000000000E-01     -1.762344000000000E+02      7.351074000000000E-01     -9.343359000000000E+01
4862000000.000000      5.363159000000000E-01     -1.655703000000000E+02      4.934082000000000E-01     -7.664844000000000E+01      5.268860000000000E-01     -1.763359000000000E+02      7.402649000000000E-01     -9.351563000000000E+01
4863000000.000000      5.387268000000000E-01     -1.660156000000000E+02      4.926910000000000E-01     -7.690624000000000E+01      5.297852000000000E-01     -1.765391000000000E+02      7.434082000000000E-01     -9.349218000000000E+01
4864000000.000000      5.427246000000000E-01     -1.664375000000000E+02      4.962463000000000E-01     -7.712109000000000E+01      5.324707000000000E-01     -1.766953000000000E+02      7.451782000000000E-01     -9.362890000000000E+01
4865000000.000000      5.446472000000000E-01     -1.668750000000000E+02      4.976654000000000E-01     -7.756249000000000E+01      5.347595000000000E-01     -1.769297000000000E+02      7.492981000000000E-01     -9.353125000000000E+01
4866000000.000000      5.461731000000000E-01     -1.671562000000000E+02      4.974976000000000E-01     -7.771484000000000E+01      5.397339000000000E-01     -1.771016000000000E+02      7.514343000000000E-01     -9.369141000000000E+01
4867000000.000000      5.490112000000000E-01     -1.675234000000000E+02      4.997864000000000E-01     -7.809375000000000E+01      5.415344000000000E-01     -1.773828000000000E+02      7.550049000000000E-01     -9.358202000000000E+01
4868000000.000000      5.525513000000000E-01     -1.679453000000000E+02      5.005188000000000E-01     -7.849218000000000E+01      5.458374000000000E-01     -1.775547000000000E+02      7.564087000000000E-01     -9.378515000000000E+01
4869000000.000000      5.527649000000000E-01     -1.682344000000000E+02      5.032654000000000E-01     -7.864452000000000E+01      5.486145000000000E-01     -1.776484000000000E+02      7.595215000000000E-01     -9.391796000000000E+01
4870000000.000000      5.556030000000000E-01     -1.685547000000000E+02      5.040283000000000E-01     -7.885937000000000E+01      5.511780000000000E-01     -1.780156000000000E+02      7.623596000000000E-01     -9.366014000000000E+01
4871000000.000000      5.574341000000000E-01     -1.689297000000000E+02      5.054626000000000E-01     -7.908203000000000E+01      5.528564000000000E-01     -1.781641000000000E+02      7.634583000000000E-01     -9.392969000000000E+01
4872000000.000000      5.599976000000000E-01     -1.691328000000000E+02      5.067444000000000E-01     -7.926952000000000E+01      5.571594000000000E-01     -1.784922000000000E+02      7.671509000000000E-01     -9.396484000000000E+01
4873000000.000000      5.602112000000000E-01     -1.693984000000000E+02      5.073853000000000E-01     -7.971093000000000E+01      5.580139000000000E-01     -1.786094000000000E+02      7.692871000000000E-01     -9.385546000000000E+01
4874000000.000000      5.607910000000000E-01     -1.696719000000000E+02      5.090637000000000E-01     -8.001171000000000E+01      5.613403000000000E-01     -1.787422000000000E+02      7.713318000000000E-01     -9.381639000000000E+01
4875000000.000000      5.635986000000000E-01     -1.699375000000000E+02      5.094910000000000E-01     -8.011328000000000E+01      5.645752000000000E-01     -1.791250000000000E+02      7.744446000000000E-01     -9.403515000000000E+01
4876000000.000000      5.629883000000000E-01     -1.701875000000000E+02      5.108337000000000E-01     -8.045313000000000E+01      5.657959000000000E-01     -1.791875000000000E+02      7.770081000000000E-01     -9.416407000000000E+01
4877000000.000000      5.637512000000000E-01     -1.703125000000000E+02      5.123596000000000E-01     -8.055859000000000E+01      5.696106000000000E-01     -1.796562000000000E+02      7.790222000000000E-01     -9.421875000000000E+01
4878000000.000000      5.649719000000000E-01     -1.705469000000000E+02      5.146179000000000E-01     -8.078516000000000E+01      5.712585000000000E-01     -1.796719000000000E+02      7.818298000000000E-01     -9.427734000000000E+01
4879000000.000000      5.657959000000000E-01     -1.708125000000000E+02      5.128784000000000E-01     -8.105469000000000E+01      5.735474000000000E-01     -1.798125000000000E+02      7.839355000000000E-01     -9.403906000000000E+01
4880000000.000000      5.653992000000000E-01     -1.708984000000000E+02      5.153198000000000E-01     -8.122265000000000E+01      5.763550000000000E-01      1.798906000000000E+02      7.863464000000000E-01     -9.421484000000000E+01
4881000000.000000      5.675049000000000E-01     -1.710469000000000E+02      5.169067000000000E-01     -8.140625000000000E+01      5.777283000000000E-01      1.796016000000000E+02      7.882385000000000E-01     -9.426172000000000E+01
4882000000.000000      5.653381000000000E-01     -1.711406000000000E+02      5.180969000000000E-01     -8.170702000000000E+01      5.808411000000000E-01      1.793672000000000E+02      7.894287000000000E-01     -9.431250000000000E+01
