! Network Analyzer HP8722D
! Hewlett-Packard
! Data name: Linha & Wilkinson
! Saver's name: Rodrigo Anjos
! Comments: Teste da utilização de aquisição
continua pelo VNA HP8722D
! Time and date: 15/4/2025 17:13
!              Frequency                     S11                                                   S21                                                   S12                                                   S22
# HZ  S  MA R 50
4800000000.000000      3.308411000000000E-01     -1.136641000000000E+02      2.819519000000000E-01     -6.077734000000000E+01      2.749329000000000E-01     -1.749297000000000E+02      6.543579000000000E-01     -8.940233000000000E+01
4801000000.000000      3.291779000000000E-01     -1.145195000000000E+02      2.859955000000000E-01     -6.069336000000000E+01      2.781372000000000E-01     -1.748516000000000E+02      6.539001000000000E-01     -8.951172000000000E+01
4802000000.000000      3.285828000000000E-01     -1.155391000000000E+02      2.903748000000000E-01     -6.083398000000000E+01      2.834320000000000E-01     -1.745703000000000E+02      6.516418000000000E-01     -8.951563000000000E+01
4803000000.000000      3.278809000000000E-01     -1.165625000000000E+02      2.958679000000000E-01     -6.096874000000000E+01      2.866821000000000E-01     -1.744297000000000E+02      6.513367000000000E-01     -8.964062000000000E+01
4804000000.000000      3.272705000000000E-01     -1.175508000000000E+02      3.000793000000000E-01     -6.084374000000000E+01      2.912750000000000E-01     -1.745078000000000E+02      6.510925000000000E-01     -8.967968000000000E+01
4805000000.000000      3.276367000000000E-01     -1.185156000000000E+02      3.040161000000000E-01     -6.107031000000000E+01      2.953949000000000E-01     -1.743125000000000E+02      6.493835000000000E-01     -8.998827000000000E+01
4806000000.000000      3.267822000000000E-01     -1.193906000000000E+02      3.090210000000000E-01     -6.115039000000000E+01      2.988739000000000E-01     -1.739922000000000E+02      6.494446000000000E-01     -8.997265000000000E+01
4807000000.000000      3.268738000000000E-01     -1.205547000000000E+02      3.137512000000000E-01     -6.135156000000000E+01      3.042297000000000E-01     -1.741172000000000E+02      6.483459000000000E-01     -9.013281000000000E+01
4808000000.000000      3.276520000000000E-01     -1.215664000000000E+02      3.181000000000000E-01     -6.133594000000000E+01      3.075256000000000E-01     -1.739766000000000E+02      6.470337000000000E-01     -9.008593000000000E+01
4809000000.000000      3.277893000000000E-01     -1.226719000000000E+02      3.226013000000000E-01     -6.176562000000000E+01      3.117523000000000E-01     -1.739063000000000E+02      6.481628000000000E-01     -9.026562000000000E+01
4810000000.000000      3.282013000000000E-01     -1.236484000000000E+02      3.272400000000000E-01     -6.180664000000000E+01      3.158112000000000E-01     -1.737344000000000E+02      6.469727000000000E-01     -9.044140000000000E+01
4811000000.000000      3.302460000000000E-01     -1.247227000000000E+02      3.313904000000000E-01     -6.203711000000000E+01      3.207550000000000E-01     -1.737266000000000E+02      6.461792000000000E-01     -9.035936000000000E+01
4812000000.000000      3.311157000000000E-01     -1.257031000000000E+02      3.359528000000000E-01     -6.221289000000000E+01      3.245239000000000E-01     -1.735625000000000E+02      6.465454000000000E-01     -9.042578000000000E+01
4813000000.000000      3.317719000000000E-01     -1.269609000000000E+02      3.397369000000000E-01     -6.237109000000000E+01      3.283386000000000E-01     -1.734141000000000E+02      6.463318000000000E-01     -9.050781000000000E+01
4814000000.000000      3.329468000000000E-01     -1.281328000000000E+02      3.449707000000000E-01     -6.252539000000000E+01      3.328552000000000E-01     -1.734375000000000E+02      6.470642000000000E-01     -9.066406000000000E+01
4815000000.000000      3.348389000000000E-01     -1.291016000000000E+02      3.474884000000000E-01     -6.278710000000000E+01      3.358917000000000E-01     -1.734062000000000E+02      6.453857000000000E-01     -9.072657000000000E+01
4816000000.000000      3.369751000000000E-01     -1.301250000000000E+02      3.528748000000000E-01     -6.288086000000000E+01      3.413086000000000E-01     -1.732969000000000E+02      6.465454000000000E-01     -9.076952000000000E+01
4817000000.000000      3.391724000000000E-01     -1.311875000000000E+02      3.571014000000000E-01     -6.317968000000000E+01      3.442078000000000E-01     -1.733281000000000E+02      6.462097000000000E-01     -9.091015000000000E+01
4818000000.000000      3.417664000000000E-01     -1.323516000000000E+02      3.605804000000000E-01     -6.341601000000000E+01      3.490753000000000E-01     -1.731875000000000E+02      6.472473000000000E-01     -9.097656000000000E+01
4819000000.000000      3.442993000000000E-01     -1.333750000000000E+02      3.645325000000000E-01     -6.362695000000000E+01      3.526764000000000E-01     -1.731562000000000E+02      6.488037000000000E-01     -9.118750000000000E+01
4820000000.000000      3.458405000000000E-01     -1.343984000000000E+02      3.693390000000000E-01     -6.378906000000000E+01      3.574371000000000E-01     -1.731562000000000E+02      6.482544000000000E-01     -9.119532000000000E+01
4821000000.000000      3.496094000000000E-01     -1.355000000000000E+02      3.725433000000000E-01     -6.411718000000000E+01      3.611603000000000E-01     -1.732578000000000E+02      6.482544000000000E-01     -9.131639000000000E+01
4822000000.000000      3.536377000000000E-01     -1.366172000000000E+02      3.759613000000000E-01     -6.424609000000000E+01      3.635712000000000E-01     -1.732734000000000E+02      6.509399000000000E-01     -9.133984000000000E+01
4823000000.000000      3.560028000000000E-01     -1.375859000000000E+02      3.809509000000000E-01     -6.457421000000000E+01      3.686981000000000E-01     -1.729375000000000E+02      6.506958000000000E-01     -9.144140000000000E+01
4824000000.000000      3.603821000000000E-01     -1.387031000000000E+02      3.839722000000000E-01     -6.486328000000000E+01      3.734894000000000E-01     -1.731250000000000E+02      6.522827000000000E-01     -9.151562000000000E+01
4825000000.000000      3.631287000000000E-01     -1.395078000000000E+02      3.878937000000000E-01     -6.511719000000000E+01      3.774109000000000E-01     -1.730000000000000E+02      6.527405000000000E-01     -9.158983000000000E+01
4826000000.000000      3.677979000000000E-01     -1.406406000000000E+02      3.909454000000000E-01     -6.565234000000000E+01      3.808746000000000E-01     -1.731562000000000E+02      6.539612000000000E-01     -9.165625000000000E+01
4827000000.000000      3.713226000000000E-01     -1.414531000000000E+02      3.955383000000000E-01     -6.556641000000000E+01      3.849792000000000E-01     -1.730000000000000E+02      6.555786000000000E-01     -9.168749000000000E+01
4828000000.000000      3.766632000000000E-01     -1.424766000000000E+02      3.993378000000000E-01     -6.590234000000000E+01      3.887024000000000E-01     -1.730234000000000E+02      6.571350000000000E-01     -9.167969000000000E+01
4829000000.000000      3.789673000000000E-01     -1.433281000000000E+02      4.026794000000000E-01     -6.617969000000000E+01      3.934784000000000E-01     -1.730859000000000E+02      6.579285000000000E-01     -9.183985000000000E+01
4830000000.000000      3.845062000000000E-01     -1.443438000000000E+02      4.061279000000000E-01     -6.648828000000000E+01      3.974457000000000E-01     -1.730547000000000E+02      6.597900000000000E-01     -9.184374000000000E+01
4831000000.000000      3.882904000000000E-01     -1.452031000000000E+02      4.092255000000000E-01     -6.696484000000000E+01      4.019012000000000E-01     -1.730312000000000E+02      6.617432000000000E-01     -9.191797000000000E+01
4832000000.000000      3.939514000000000E-01     -1.461172000000000E+02      4.135742000000000E-01     -6.704296000000000E+01      4.051971000000000E-01     -1.730391000000000E+02      6.627502000000000E-01     -9.203516000000000E+01
4833000000.000000      3.992615000000000E-01     -1.470469000000000E+02      4.177399000000000E-01     -6.733203000000000E+01      4.099274000000000E-01     -1.731094000000000E+02      6.643372000000000E-01     -9.201952000000000E+01
4834000000.000000      4.035492000000000E-01     -1.479375000000000E+02      4.202576000000000E-01     -6.762500000000000E+01      4.142303000000000E-01     -1.731875000000000E+02      6.647034000000000E-01     -9.219530000000000E+01
4835000000.000000      4.081421000000000E-01     -1.487266000000000E+02      4.234772000000000E-01     -6.798437000000000E+01      4.186859000000000E-01     -1.731719000000000E+02      6.687012000000000E-01     -9.229687000000000E+01
4836000000.000000      4.140625000000000E-01     -1.494375000000000E+02      4.268646000000000E-01     -6.819140000000000E+01      4.220428000000000E-01     -1.731875000000000E+02      6.702881000000000E-01     -9.225000000000000E+01
4837000000.000000      4.196014000000000E-01     -1.502344000000000E+02      4.294891000000000E-01     -6.887500000000000E+01      4.261627000000000E-01     -1.732891000000000E+02      6.730042000000000E-01     -9.232422000000000E+01
4838000000.000000      4.246826000000000E-01     -1.511250000000000E+02      4.338837000000000E-01     -6.879687000000000E+01      4.309540000000000E-01     -1.733359000000000E+02      6.736145000000000E-01     -9.235937000000000E+01
4839000000.000000      4.295502000000000E-01     -1.517891000000000E+02      4.363098000000000E-01     -6.917969000000000E+01      4.346466000000000E-01     -1.732891000000000E+02      6.771851000000000E-01     -9.240625000000000E+01
4840000000.000000      4.344177000000000E-01     -1.526406000000000E+02      4.396362000000000E-01     -6.946875000000000E+01      4.389038000000000E-01     -1.734297000000000E+02      6.783447000000000E-01     -9.242188000000000E+01
4841000000.000000      4.399261000000000E-01     -1.534765000000000E+02      4.430695000000000E-01     -7.002734000000000E+01      4.431763000000000E-01     -1.735703000000000E+02      6.811829000000000E-01     -9.269531000000000E+01
4842000000.000000      4.455109000000000E-01     -1.540703000000000E+02      4.457092000000000E-01     -7.027344000000000E+01      4.463806000000000E-01     -1.736016000000000E+02      6.831360000000000E-01     -9.255468000000000E+01
4843000000.000000      4.503326000000000E-01     -1.548750000000000E+02      4.487610000000000E-01     -7.066015000000000E+01      4.514008000000000E-01     -1.737187000000000E+02      6.860352000000000E-01     -9.253124000000000E+01
4844000000.000000      4.556580000000000E-01     -1.554766000000000E+02      4.518585000000000E-01     -7.075390000000000E+01      4.547272000000000E-01     -1.738125000000000E+02      6.891479000000000E-01     -9.261328000000000E+01
4845000000.000000      4.603729000000000E-01     -1.561406000000000E+02      4.538269000000000E-01     -7.116796000000000E+01      4.596710000000000E-01     -1.738906000000000E+02      6.906433000000000E-01     -9.264452000000000E+01
4846000000.000000      4.654999000000000E-01     -1.567578000000000E+02      4.567261000000000E-01     -7.137500000000000E+01      4.642181000000000E-01     -1.739141000000000E+02      6.941528000000000E-01     -9.281641000000000E+01
4847000000.000000      4.714661000000000E-01     -1.574687000000000E+02      4.599152000000000E-01     -7.173828000000000E+01      4.678497000000000E-01     -1.741328000000000E+02      6.969604000000000E-01     -9.290625000000000E+01
4848000000.000000      4.769440000000000E-01     -1.580312000000000E+02      4.620667000000000E-01     -7.192187000000000E+01      4.717560000000000E-01     -1.741484000000000E+02      6.989746000000000E-01     -9.285156000000000E+01
4849000000.000000      4.817200000000000E-01     -1.589531000000000E+02      4.657745000000000E-01     -7.247265000000000E+01      4.767303000000000E-01     -1.743438000000000E+02      7.016296000000000E-01     -9.289063000000000E+01
4850000000.000000      4.864960000000000E-01     -1.593281000000000E+02      4.675751000000000E-01     -7.278125000000000E+01      4.798737000000000E-01     -1.744062000000000E+02      7.038269000000000E-01     -9.285936000000000E+01
4851000000.000000      4.914093000000000E-01     -1.599062000000000E+02      4.705353000000000E-01     -7.299218000000000E+01      4.837952000000000E-01     -1.745547000000000E+02      7.073669000000000E-01     -9.300781000000000E+01
4852000000.000000      4.962463000000000E-01     -1.605078000000000E+02      4.724274000000000E-01     -7.351171000000000E+01      4.880524000000000E-01     -1.746094000000000E+02      7.094421000000000E-01     -9.301561000000000E+01
4853000000.000000      5.015564000000000E-01     -1.610859000000000E+02      4.726410000000000E-01     -7.369922000000000E+01      4.927216000000000E-01     -1.748828000000000E+02      7.126465000000000E-01     -9.310547000000000E+01
4854000000.000000      5.056458000000000E-01     -1.615781000000000E+02      4.763641000000000E-01     -7.414453000000000E+01      4.960938000000000E-01     -1.749844000000000E+02      7.156067000000000E-01     -9.316406000000000E+01
4855000000.000000      5.088806000000000E-01     -1.621719000000000E+02      4.784698000000000E-01     -7.444921000000000E+01      5.003052000000000E-01     -1.750781000000000E+02      7.181091000000000E-01     -9.306250000000000E+01
4856000000.000000      5.146179000000000E-01     -1.626094000000000E+02      4.808960000000000E-01     -7.470312000000000E+01      5.033569000000000E-01     -1.753359000000000E+02      7.224121000000000E-01     -9.313671000000000E+01
4857000000.000000      5.179138000000000E-01     -1.632578000000000E+02      4.833069000000000E-01     -7.504687000000000E+01      5.070496000000000E-01     -1.753359000000000E+02      7.245789000000000E-01     -9.324219000000000E+01
4858000000.000000      5.208130000000000E-01     -1.636484000000000E+02      4.853821000000000E-01     -7.530468000000000E+01      5.111694000000000E-01     -1.755547000000000E+02      7.266235000000000E-01     -9.326952000000000E+01
4859000000.000000      5.253906000000000E-01     -1.641562000000000E+02      4.866486000000000E-01     -7.566015000000000E+01      5.148315000000000E-01     -1.759140000000000E+02      7.306213000000000E-01     -9.348436000000000E+01
4860000000.000000      5.302734000000000E-01     -1.646875000000000E+02      4.891205000000000E-01     -7.581640000000000E+01      5.189819000000000E-01     -1.760547000000000E+02      7.316589000000000E-01     -9.332811000000000E+01
4861000000.000000      5.328369000000000E-01     -1.650078000000000E+02      4.907227000000000E-01     -7.642968000000000E+01      5.219421000000000E-01     -1.761016000000000E+02      7.353516000000000E-01     -9.357031000000000E+01
4862000000.000000      5.354614000000000E-01     -1.654453000000000E+02      4.928436000000000E-01     -7.658203000000000E+01      5.252991000000000E-01     -1.761797000000000E+02      7.400513000000000E-01     -9.353907000000000E+01
4863000000.000000      5.387268000000000E-01     -1.659297000000000E+02      4.942627000000000E-01     -7.695703000000000E+01      5.295715000000000E-01     -1.764375000000000E+02      7.433777000000000E-01     -9.345312000000000E+01
4864000000.000000      5.422974000000000E-01     -1.662812000000000E+02      4.954224000000000E-01     -7.707812000000000E+01      5.313721000000000E-01     -1.767109000000000E+02      7.456360000000000E-01     -9.355469000000000E+01
4865000000.000000      5.440369000000000E-01     -1.668594000000000E+02      4.961243000000000E-01     -7.739452000000000E+01      5.357361000000000E-01     -1.769219000000000E+02      7.478638000000000E-01     -9.342968000000000E+01
4866000000.000000      5.468140000000000E-01     -1.671250000000000E+02      4.984894000000000E-01     -7.768749000000000E+01      5.387268000000000E-01     -1.770000000000000E+02      7.516174000000000E-01     -9.354296000000000E+01
4867000000.000000      5.493469000000000E-01     -1.673750000000000E+02      5.010071000000000E-01     -7.803905000000000E+01      5.414429000000000E-01     -1.773125000000000E+02      7.537231000000000E-01     -9.364452000000000E+01
4868000000.000000      5.520630000000000E-01     -1.679219000000000E+02      5.025024000000000E-01     -7.842578000000000E+01      5.459595000000000E-01     -1.775078000000000E+02      7.567749000000000E-01     -9.369921000000000E+01
4869000000.000000      5.533142000000000E-01     -1.681328000000000E+02      5.019226000000000E-01     -7.859375000000000E+01      5.487671000000000E-01     -1.777578000000000E+02      7.600708000000000E-01     -9.386328000000000E+01
4870000000.000000      5.555115000000000E-01     -1.685078000000000E+02      5.045166000000000E-01     -7.861328000000000E+01      5.511475000000000E-01     -1.779609000000000E+02      7.616272000000000E-01     -9.371874000000000E+01
4871000000.000000      5.576172000000000E-01     -1.687969000000000E+02      5.052185000000000E-01     -7.916797000000000E+01      5.525208000000000E-01     -1.780937000000000E+02      7.655334000000000E-01     -9.392578000000000E+01
4872000000.000000      5.593262000000000E-01     -1.690938000000000E+02      5.059814000000000E-01     -7.934375000000000E+01      5.573120000000000E-01     -1.784297000000000E+02      7.672424000000000E-01     -9.387110000000000E+01
4873000000.000000      5.598145000000000E-01     -1.692266000000000E+02      5.072021000000000E-01     -7.972656000000000E+01      5.588379000000000E-01     -1.784609000000000E+02      7.693481000000000E-01     -9.394140000000000E+01
4874000000.000000      5.611267000000000E-01     -1.696016000000000E+02      5.083008000000000E-01     -7.984375000000000E+01      5.620728000000000E-01     -1.786719000000000E+02      7.713013000000000E-01     -9.382421000000000E+01
4875000000.000000      5.631409000000000E-01     -1.698125000000000E+02      5.086365000000000E-01     -8.003906000000000E+01      5.642090000000000E-01     -1.790625000000000E+02      7.734985000000000E-01     -9.402735000000000E+01
4876000000.000000      5.623474000000000E-01     -1.699609000000000E+02      5.104675000000000E-01     -8.040234000000000E+01      5.659485000000000E-01     -1.791250000000000E+02      7.773743000000000E-01     -9.403906000000000E+01
4877000000.000000      5.642090000000000E-01     -1.702500000000000E+02      5.126343000000000E-01     -8.049999000000000E+01      5.690613000000000E-01     -1.795469000000000E+02      7.806396000000000E-01     -9.420313000000000E+01
4878000000.000000      5.648499000000000E-01     -1.704141000000000E+02      5.134888000000000E-01     -8.089453000000000E+01      5.712280000000000E-01     -1.795625000000000E+02      7.828064000000000E-01     -9.421093000000000E+01
4879000000.000000      5.655518000000000E-01     -1.706406000000000E+02      5.127563000000000E-01     -8.092968000000000E+01      5.741577000000000E-01     -1.799062000000000E+02      7.848816000000000E-01     -9.401171000000000E+01
4880000000.000000      5.652771000000000E-01     -1.708047000000000E+02      5.150452000000000E-01     -8.117968000000000E+01      5.755920000000000E-01     -1.799766000000000E+02      7.852783000000000E-01     -9.421093000000000E+01
4881000000.000000      5.658875000000000E-01     -1.709141000000000E+02      5.169678000000000E-01     -8.137499000000000E+01      5.785217000000000E-01      1.797578000000000E+02      7.885437000000000E-01     -9.426561000000000E+01
4882000000.000000      5.647278000000000E-01     -1.710781000000000E+02      5.162354000000000E-01     -8.167578000000000E+01      5.809326000000000E-01      1.794844000000000E+02      7.893372000000000E-01     -9.427734000000000E+01
