! Network Analyzer HP8722D
! Hewlett-Packard
! Data name: Linha & Wilkinson
! Saver's name: Rodrigo Anjos
! Comments: Teste da utilização de aquisição
continua pelo VNA HP8722D
! Time and date: 15/4/2025 16:50
!              Frequency                     S11                                                   S21                                                   S12                                                   S22
# HZ  S  MA R 50
4800000000.000000      3.310089000000000E-01     -1.139609000000000E+02      2.850342000000000E-01     -6.083593000000000E+01      2.779541000000000E-01     -1.752266000000000E+02      6.544495000000000E-01     -8.956249000000000E+01
4801000000.000000      3.296814000000000E-01     -1.149609000000000E+02      2.888184000000000E-01     -6.096289000000000E+01      2.817841000000000E-01     -1.751250000000000E+02      6.531067000000000E-01     -8.967577000000000E+01
4802000000.000000      3.288422000000000E-01     -1.158086000000000E+02      2.933197000000000E-01     -6.092578000000000E+01      2.865906000000000E-01     -1.748750000000000E+02      6.510925000000000E-01     -8.966015000000000E+01
4803000000.000000      3.285217000000000E-01     -1.169297000000000E+02      2.987823000000000E-01     -6.109179000000000E+01      2.899017000000000E-01     -1.746406000000000E+02      6.506653000000000E-01     -8.985546000000000E+01
4804000000.000000      3.283691000000000E-01     -1.179492000000000E+02      3.026428000000000E-01     -6.121875000000000E+01      2.944641000000000E-01     -1.747031000000000E+02      6.502686000000000E-01     -8.988672000000000E+01
4805000000.000000      3.285980000000000E-01     -1.189492000000000E+02      3.076782000000000E-01     -6.135156000000000E+01      2.985229000000000E-01     -1.744609000000000E+02      6.503906000000000E-01     -9.003906000000000E+01
4806000000.000000      3.276672000000000E-01     -1.198398000000000E+02      3.122101000000000E-01     -6.135547000000000E+01      3.023224000000000E-01     -1.742812000000000E+02      6.493835000000000E-01     -9.018749000000000E+01
4807000000.000000      3.275299000000000E-01     -1.210078000000000E+02      3.166351000000000E-01     -6.157421000000000E+01      3.065948000000000E-01     -1.743906000000000E+02      6.482849000000000E-01     -9.025782000000000E+01
4808000000.000000      3.284760000000000E-01     -1.219414000000000E+02      3.217316000000000E-01     -6.157031000000000E+01      3.103638000000000E-01     -1.741953000000000E+02      6.473389000000000E-01     -9.030859000000000E+01
4809000000.000000      3.286591000000000E-01     -1.230234000000000E+02      3.256073000000000E-01     -6.206249000000000E+01      3.145294000000000E-01     -1.741641000000000E+02      6.475830000000000E-01     -9.046093000000000E+01
4810000000.000000      3.292847000000000E-01     -1.242070000000000E+02      3.298798000000000E-01     -6.194921000000000E+01      3.187561000000000E-01     -1.740625000000000E+02      6.468201000000000E-01     -9.059765000000000E+01
4811000000.000000      3.306274000000000E-01     -1.253125000000000E+02      3.350372000000000E-01     -6.227539000000000E+01      3.240814000000000E-01     -1.740000000000000E+02      6.461792000000000E-01     -9.058203000000000E+01
4812000000.000000      3.320465000000000E-01     -1.262656000000000E+02      3.386688000000000E-01     -6.246288000000000E+01      3.275757000000000E-01     -1.738672000000000E+02      6.465759000000000E-01     -9.075781000000000E+01
4813000000.000000      3.330688000000000E-01     -1.273633000000000E+02      3.427887000000000E-01     -6.272655000000000E+01      3.309479000000000E-01     -1.736953000000000E+02      6.467285000000000E-01     -9.077343000000000E+01
4814000000.000000      3.341827000000000E-01     -1.285703000000000E+02      3.471680000000000E-01     -6.291992000000000E+01      3.352356000000000E-01     -1.737031000000000E+02      6.469727000000000E-01     -9.083593000000000E+01
4815000000.000000      3.355865000000000E-01     -1.295391000000000E+02      3.507690000000000E-01     -6.306250000000000E+01      3.393097000000000E-01     -1.736719000000000E+02      6.460266000000000E-01     -9.089453000000000E+01
4816000000.000000      3.379974000000000E-01     -1.306015000000000E+02      3.561096000000000E-01     -6.306641000000000E+01      3.436890000000000E-01     -1.735937000000000E+02      6.459656000000000E-01     -9.098827000000000E+01
4817000000.000000      3.406219000000000E-01     -1.316641000000000E+02      3.597412000000000E-01     -6.351171000000000E+01      3.464050000000000E-01     -1.735781000000000E+02      6.459045000000000E-01     -9.114061000000000E+01
4818000000.000000      3.421478000000000E-01     -1.327812000000000E+02      3.623047000000000E-01     -6.367578000000000E+01      3.516541000000000E-01     -1.736016000000000E+02      6.472473000000000E-01     -9.129686000000000E+01
4819000000.000000      3.454590000000000E-01     -1.338828000000000E+02      3.672485000000000E-01     -6.391602000000000E+01      3.554840000000000E-01     -1.734531000000000E+02      6.480103000000000E-01     -9.126171000000000E+01
4820000000.000000      3.470917000000000E-01     -1.348359000000000E+02      3.713531000000000E-01     -6.412890000000000E+01      3.595276000000000E-01     -1.734844000000000E+02      6.486816000000000E-01     -9.143358000000000E+01
4821000000.000000      3.505707000000000E-01     -1.359453000000000E+02      3.753510000000000E-01     -6.437109000000000E+01      3.632355000000000E-01     -1.735703000000000E+02      6.471252000000000E-01     -9.142969000000000E+01
4822000000.000000      3.547516000000000E-01     -1.370469000000000E+02      3.786316000000000E-01     -6.464844000000000E+01      3.676758000000000E-01     -1.735156000000000E+02      6.507263000000000E-01     -9.154297000000000E+01
4823000000.000000      3.571320000000000E-01     -1.379688000000000E+02      3.831787000000000E-01     -6.486328000000000E+01      3.719025000000000E-01     -1.733203000000000E+02      6.502075000000000E-01     -9.160936000000000E+01
4824000000.000000      3.610840000000000E-01     -1.391406000000000E+02      3.866882000000000E-01     -6.527734000000000E+01      3.758698000000000E-01     -1.734688000000000E+02      6.512146000000000E-01     -9.168749000000000E+01
4825000000.000000      3.644562000000000E-01     -1.400312000000000E+02      3.907471000000000E-01     -6.542969000000000E+01      3.799438000000000E-01     -1.734531000000000E+02      6.529236000000000E-01     -9.174999000000000E+01
4826000000.000000      3.692322000000000E-01     -1.410781000000000E+02      3.941498000000000E-01     -6.587109000000000E+01      3.838501000000000E-01     -1.734062000000000E+02      6.543274000000000E-01     -9.174608000000000E+01
4827000000.000000      3.729248000000000E-01     -1.419141000000000E+02      3.984070000000000E-01     -6.585546000000000E+01      3.878021000000000E-01     -1.732812000000000E+02      6.546936000000000E-01     -9.180859000000000E+01
4828000000.000000      3.775635000000000E-01     -1.429609000000000E+02      4.018860000000000E-01     -6.619141000000000E+01      3.910522000000000E-01     -1.733594000000000E+02      6.575623000000000E-01     -9.191015000000000E+01
4829000000.000000      3.808136000000000E-01     -1.438203000000000E+02      4.041595000000000E-01     -6.651172000000000E+01      3.954620000000000E-01     -1.733594000000000E+02      6.577148000000000E-01     -9.197657000000000E+01
4830000000.000000      3.862305000000000E-01     -1.447578000000000E+02      4.086609000000000E-01     -6.680859000000000E+01      4.003754000000000E-01     -1.734141000000000E+02      6.593628000000000E-01     -9.203125000000000E+01
4831000000.000000      3.897552000000000E-01     -1.456563000000000E+02      4.122772000000000E-01     -6.721093000000000E+01      4.039307000000000E-01     -1.733516000000000E+02      6.612549000000000E-01     -9.223436000000000E+01
4832000000.000000      3.954773000000000E-01     -1.465703000000000E+02      4.153442000000000E-01     -6.742969000000000E+01      4.084320000000000E-01     -1.733906000000000E+02      6.622314000000000E-01     -9.229687000000000E+01
4833000000.000000      4.002075000000000E-01     -1.475469000000000E+02      4.189758000000000E-01     -6.767968000000000E+01      4.115601000000000E-01     -1.734688000000000E+02      6.632080000000000E-01     -9.223047000000000E+01
4834000000.000000      4.050140000000000E-01     -1.483672000000000E+02      4.223022000000000E-01     -6.793359000000000E+01      4.167175000000000E-01     -1.735078000000000E+02      6.655579000000000E-01     -9.246094000000000E+01
4835000000.000000      4.095917000000000E-01     -1.491562000000000E+02      4.261322000000000E-01     -6.844921000000000E+01      4.213409000000000E-01     -1.735703000000000E+02      6.679077000000000E-01     -9.247656000000000E+01
4836000000.000000      4.154663000000000E-01     -1.498984000000000E+02      4.284058000000000E-01     -6.849218000000000E+01      4.245758000000000E-01     -1.734609000000000E+02      6.700745000000000E-01     -9.240234000000000E+01
4837000000.000000      4.206238000000000E-01     -1.506406000000000E+02      4.320221000000000E-01     -6.919531000000000E+01      4.288177000000000E-01     -1.737187000000000E+02      6.723022000000000E-01     -9.248438000000000E+01
4838000000.000000      4.258881000000000E-01     -1.515938000000000E+02      4.362335000000000E-01     -6.928124000000000E+01      4.328461000000000E-01     -1.736562000000000E+02      6.745911000000000E-01     -9.250780000000000E+01
4839000000.000000      4.310455000000000E-01     -1.522500000000000E+02      4.390259000000000E-01     -6.946094000000000E+01      4.372864000000000E-01     -1.737109000000000E+02      6.764832000000000E-01     -9.252733000000000E+01
4840000000.000000      4.351807000000000E-01     -1.530703000000000E+02      4.414825000000000E-01     -6.992188000000000E+01      4.411163000000000E-01     -1.737969000000000E+02      6.784973000000000E-01     -9.275782000000000E+01
4841000000.000000      4.411011000000000E-01     -1.539219000000000E+02      4.445801000000000E-01     -7.012890000000000E+01      4.454803000000000E-01     -1.738594000000000E+02      6.807556000000000E-01     -9.281641000000000E+01
4842000000.000000      4.472656000000000E-01     -1.545078000000000E+02      4.473114000000000E-01     -7.059765000000000E+01      4.486389000000000E-01     -1.739766000000000E+02      6.828003000000000E-01     -9.275782000000000E+01
4843000000.000000      4.513855000000000E-01     -1.553359000000000E+02      4.515839000000000E-01     -7.090234000000000E+01      4.532776000000000E-01     -1.740000000000000E+02      6.849670000000000E-01     -9.281250000000000E+01
4844000000.000000      4.567108000000000E-01     -1.559687000000000E+02      4.529724000000000E-01     -7.112499000000000E+01      4.569244000000000E-01     -1.741328000000000E+02      6.886902000000000E-01     -9.280468000000000E+01
4845000000.000000      4.616394000000000E-01     -1.566015000000000E+02      4.562531000000000E-01     -7.141796000000000E+01      4.610443000000000E-01     -1.742578000000000E+02      6.898193000000000E-01     -9.282030000000000E+01
4846000000.000000      4.666443000000000E-01     -1.572187000000000E+02      4.587097000000000E-01     -7.168750000000000E+01      4.660339000000000E-01     -1.742891000000000E+02      6.923828000000000E-01     -9.294531000000000E+01
4847000000.000000      4.731293000000000E-01     -1.579531000000000E+02      4.623260000000000E-01     -7.197266000000000E+01      4.700928000000000E-01     -1.744766000000000E+02      6.972046000000000E-01     -9.308594000000000E+01
4848000000.000000      4.775696000000000E-01     -1.584766000000000E+02      4.642792000000000E-01     -7.231250000000000E+01      4.741058000000000E-01     -1.745625000000000E+02      6.986389000000000E-01     -9.312891000000000E+01
4849000000.000000      4.825745000000000E-01     -1.593828000000000E+02      4.671478000000000E-01     -7.285546000000000E+01      4.785156000000000E-01     -1.747344000000000E+02      7.011108000000000E-01     -9.312500000000000E+01
4850000000.000000      4.873505000000000E-01     -1.597812000000000E+02      4.688568000000000E-01     -7.309765000000000E+01      4.823456000000000E-01     -1.747813000000000E+02      7.040405000000000E-01     -9.316015000000000E+01
4851000000.000000      4.921112000000000E-01     -1.603594000000000E+02      4.722290000000000E-01     -7.346093000000000E+01      4.856110000000000E-01     -1.749453000000000E+02      7.060852000000000E-01     -9.317186000000000E+01
4852000000.000000      4.974060000000000E-01     -1.609531000000000E+02      4.743652000000000E-01     -7.369531000000000E+01      4.899902000000000E-01     -1.750391000000000E+02      7.097778000000000E-01     -9.318359000000000E+01
4853000000.000000      5.021057000000000E-01     -1.615078000000000E+02      4.745636000000000E-01     -7.411718000000000E+01      4.943542000000000E-01     -1.752266000000000E+02      7.124634000000000E-01     -9.346483000000000E+01
4854000000.000000      5.058594000000000E-01     -1.620859000000000E+02      4.786224000000000E-01     -7.452343000000000E+01      4.975128000000000E-01     -1.753594000000000E+02      7.161865000000000E-01     -9.337109000000000E+01
4855000000.000000      5.094604000000000E-01     -1.626562000000000E+02      4.803467000000000E-01     -7.472656000000000E+01      5.020752000000000E-01     -1.755391000000000E+02      7.181396000000000E-01     -9.333984000000000E+01
4856000000.000000      5.150452000000000E-01     -1.630859000000000E+02      4.816437000000000E-01     -7.509766000000000E+01      5.046997000000000E-01     -1.755234000000000E+02      7.210693000000000E-01     -9.344921000000000E+01
4857000000.000000      5.193176000000000E-01     -1.636875000000000E+02      4.845734000000000E-01     -7.532812000000000E+01      5.086060000000000E-01     -1.758750000000000E+02      7.246399000000000E-01     -9.350780000000000E+01
4858000000.000000      5.213928000000000E-01     -1.641328000000000E+02      4.861145000000000E-01     -7.566015000000000E+01      5.123901000000000E-01     -1.759140000000000E+02      7.267761000000000E-01     -9.351563000000000E+01
4859000000.000000      5.261536000000000E-01     -1.646250000000000E+02      4.891815000000000E-01     -7.611328000000000E+01      5.161438000000000E-01     -1.761250000000000E+02      7.314148000000000E-01     -9.360937000000000E+01
4860000000.000000      5.300598000000000E-01     -1.650938000000000E+02      4.900513000000000E-01     -7.616405000000000E+01      5.184326000000000E-01     -1.762266000000000E+02      7.324829000000000E-01     -9.364061000000000E+01
4861000000.000000      5.334778000000000E-01     -1.655000000000000E+02      4.914703000000000E-01     -7.676562000000000E+01      5.239563000000000E-01     -1.763594000000000E+02      7.350769000000000E-01     -9.377733000000000E+01
4862000000.000000      5.364075000000000E-01     -1.659453000000000E+02      4.941101000000000E-01     -7.688671000000000E+01      5.287170000000000E-01     -1.766875000000000E+02      7.404480000000000E-01     -9.377733000000000E+01
4863000000.000000      5.387878000000000E-01     -1.663437000000000E+02      4.948425000000000E-01     -7.737499000000000E+01      5.309753000000000E-01     -1.769531000000000E+02      7.436218000000000E-01     -9.378515000000000E+01
4864000000.000000      5.422974000000000E-01     -1.667578000000000E+02      4.975433000000000E-01     -7.744922000000000E+01      5.322266000000000E-01     -1.769687000000000E+02      7.443237000000000E-01     -9.378515000000000E+01
4865000000.000000      5.447388000000000E-01     -1.672969000000000E+02      4.979095000000000E-01     -7.787109000000000E+01      5.359497000000000E-01     -1.772344000000000E+02      7.472229000000000E-01     -9.381250000000000E+01
4866000000.000000      5.469971000000000E-01     -1.674844000000000E+02      4.981689000000000E-01     -7.811328000000000E+01      5.397644000000000E-01     -1.774219000000000E+02      7.512817000000000E-01     -9.376953000000000E+01
4867000000.000000      5.496521000000000E-01     -1.678828000000000E+02      5.018921000000000E-01     -7.832812000000000E+01      5.438843000000000E-01     -1.777500000000000E+02      7.542725000000000E-01     -9.380859000000000E+01
4868000000.000000      5.523987000000000E-01     -1.683828000000000E+02      5.012512000000000E-01     -7.866015000000000E+01      5.470581000000000E-01     -1.778984000000000E+02      7.565918000000000E-01     -9.389063000000000E+01
4869000000.000000      5.538635000000000E-01     -1.685859000000000E+02      5.021973000000000E-01     -7.896874000000000E+01      5.487061000000000E-01     -1.780859000000000E+02      7.588501000000000E-01     -9.410156000000000E+01
4870000000.000000      5.553284000000000E-01     -1.689375000000000E+02      5.043945000000000E-01     -7.915625000000000E+01      5.527954000000000E-01     -1.782656000000000E+02      7.628784000000000E-01     -9.391016000000000E+01
4871000000.000000      5.573730000000000E-01     -1.692891000000000E+02      5.070496000000000E-01     -7.954296000000000E+01      5.545654000000000E-01     -1.784453000000000E+02      7.641907000000000E-01     -9.411718000000000E+01
4872000000.000000      5.600891000000000E-01     -1.694687000000000E+02      5.066223000000000E-01     -7.960938000000000E+01      5.566406000000000E-01     -1.789141000000000E+02      7.686768000000000E-01     -9.410936000000000E+01
4873000000.000000      5.605469000000000E-01     -1.697031000000000E+02      5.077820000000000E-01     -8.012110000000000E+01      5.589905000000000E-01     -1.789609000000000E+02      7.674866000000000E-01     -9.420313000000000E+01
4874000000.000000      5.612183000000000E-01     -1.699844000000000E+02      5.097961000000000E-01     -8.029297000000000E+01      5.636597000000000E-01     -1.791953000000000E+02      7.724609000000000E-01     -9.413671000000000E+01
4875000000.000000      5.637207000000000E-01     -1.702656000000000E+02      5.101013000000000E-01     -8.055079000000000E+01      5.648499000000000E-01     -1.794609000000000E+02      7.731934000000000E-01     -9.424219000000000E+01
4876000000.000000      5.636902000000000E-01     -1.704687000000000E+02      5.117493000000000E-01     -8.068359000000000E+01      5.662537000000000E-01     -1.796172000000000E+02      7.767639000000000E-01     -9.437891000000000E+01
4877000000.000000      5.641174000000000E-01     -1.705859000000000E+02      5.132446000000000E-01     -8.076563000000000E+01      5.707397000000000E-01     -1.799219000000000E+02      7.791138000000000E-01     -9.441015000000000E+01
4878000000.000000      5.647888000000000E-01     -1.708281000000000E+02      5.145569000000000E-01     -8.102734000000000E+01      5.712280000000000E-01     -1.799922000000000E+02      7.816162000000000E-01     -9.448828000000000E+01
4879000000.000000      5.655823000000000E-01     -1.710703000000000E+02      5.134277000000000E-01     -8.135157000000000E+01      5.737610000000000E-01      1.798828000000000E+02      7.827454000000000E-01     -9.442186000000000E+01
4880000000.000000      5.647278000000000E-01     -1.712578000000000E+02      5.152283000000000E-01     -8.162109000000000E+01      5.780029000000000E-01      1.795781000000000E+02      7.862549000000000E-01     -9.446875000000000E+01
4881000000.000000      5.659485000000000E-01     -1.713359000000000E+02      5.166626000000000E-01     -8.177343000000000E+01      5.783691000000000E-01      1.793281000000000E+02      7.881470000000000E-01     -9.453905000000000E+01
4882000000.000000      5.646973000000000E-01     -1.714766000000000E+02      5.174255000000000E-01     -8.198828000000000E+01      5.798340000000000E-01      1.792266000000000E+02      7.895813000000000E-01     -9.456640000000000E+01
