! Network Analyzer HP8722D
! Hewlett-Packard
! Data name: Linha & Wilkinson
! Saver's name: Rodrigo Anjos
! Comments: Teste da utilização de aquisição
continua pelo VNA HP8722D
! Time and date: 15/4/2025 16:54
!              Frequency                     S11                                                   S21                                                   S12                                                   S22
# HZ  S  MA R 50
4800000000.000000      3.307190000000000E-01     -1.139883000000000E+02      2.849121000000000E-01     -6.098633000000000E+01      2.784119000000000E-01     -1.752187000000000E+02      6.541443000000000E-01     -8.964453000000000E+01
4801000000.000000      3.298340000000000E-01     -1.149726000000000E+02      2.891998000000000E-01     -6.088085000000000E+01      2.818909000000000E-01     -1.751328000000000E+02      6.527100000000000E-01     -8.973047000000000E+01
4802000000.000000      3.288269000000000E-01     -1.159101000000000E+02      2.933655000000000E-01     -6.097656000000000E+01      2.866669000000000E-01     -1.747890000000000E+02      6.519470000000000E-01     -8.967968000000000E+01
4803000000.000000      3.282928000000000E-01     -1.170039000000000E+02      2.986298000000000E-01     -6.087304000000000E+01      2.901459000000000E-01     -1.746719000000000E+02      6.513672000000000E-01     -8.982031000000000E+01
4804000000.000000      3.279877000000000E-01     -1.180391000000000E+02      3.030396000000000E-01     -6.124023000000000E+01      2.944031000000000E-01     -1.747344000000000E+02      6.503601000000000E-01     -8.993359000000000E+01
4805000000.000000      3.282166000000000E-01     -1.190195000000000E+02      3.077240000000000E-01     -6.127930000000000E+01      2.989655000000000E-01     -1.745078000000000E+02      6.499939000000000E-01     -9.013281000000000E+01
4806000000.000000      3.277588000000000E-01     -1.199180000000000E+02      3.122101000000000E-01     -6.138085000000000E+01      3.022919000000000E-01     -1.742734000000000E+02      6.488647000000000E-01     -9.016796000000000E+01
4807000000.000000      3.277893000000000E-01     -1.210430000000000E+02      3.165436000000000E-01     -6.172852000000000E+01      3.073578000000000E-01     -1.743672000000000E+02      6.484375000000000E-01     -9.026171000000000E+01
4808000000.000000      3.285065000000000E-01     -1.219219000000000E+02      3.222198000000000E-01     -6.162109000000000E+01      3.103790000000000E-01     -1.741953000000000E+02      6.465454000000000E-01     -9.031250000000000E+01
4809000000.000000      3.284302000000000E-01     -1.230820000000000E+02      3.249054000000000E-01     -6.200976000000000E+01      3.152008000000000E-01     -1.743281000000000E+02      6.472473000000000E-01     -9.044922000000000E+01
4810000000.000000      3.294678000000000E-01     -1.242031000000000E+02      3.305206000000000E-01     -6.199413000000000E+01      3.196869000000000E-01     -1.740937000000000E+02      6.472473000000000E-01     -9.054296000000000E+01
4811000000.000000      3.305359000000000E-01     -1.252812000000000E+02      3.346558000000000E-01     -6.234375000000000E+01      3.237762000000000E-01     -1.739531000000000E+02      6.459961000000000E-01     -9.061327000000000E+01
4812000000.000000      3.321228000000000E-01     -1.262812000000000E+02      3.389740000000000E-01     -6.254883000000000E+01      3.280182000000000E-01     -1.738203000000000E+02      6.465454000000000E-01     -9.067968000000000E+01
4813000000.000000      3.329620000000000E-01     -1.273711000000000E+02      3.433838000000000E-01     -6.272265000000000E+01      3.307648000000000E-01     -1.738203000000000E+02      6.469727000000000E-01     -9.066015000000000E+01
4814000000.000000      3.337555000000000E-01     -1.285859000000000E+02      3.471222000000000E-01     -6.274414000000000E+01      3.352966000000000E-01     -1.738516000000000E+02      6.456909000000000E-01     -9.081640000000000E+01
4815000000.000000      3.357544000000000E-01     -1.294922000000000E+02      3.506165000000000E-01     -6.304688000000000E+01      3.388519000000000E-01     -1.737656000000000E+02      6.459656000000000E-01     -9.089453000000000E+01
4816000000.000000      3.375092000000000E-01     -1.305859000000000E+02      3.560791000000000E-01     -6.322460000000000E+01      3.440857000000000E-01     -1.735078000000000E+02      6.467590000000000E-01     -9.102734000000000E+01
4817000000.000000      3.405914000000000E-01     -1.316562000000000E+02      3.593597000000000E-01     -6.353320000000000E+01      3.472137000000000E-01     -1.737187000000000E+02      6.462402000000000E-01     -9.121485000000000E+01
4818000000.000000      3.424988000000000E-01     -1.328516000000000E+02      3.628998000000000E-01     -6.370312000000000E+01      3.517609000000000E-01     -1.735625000000000E+02      6.465454000000000E-01     -9.123047000000000E+01
4819000000.000000      3.456421000000000E-01     -1.338828000000000E+02      3.667603000000000E-01     -6.398242000000000E+01      3.552551000000000E-01     -1.734531000000000E+02      6.482239000000000E-01     -9.138281000000000E+01
4820000000.000000      3.471527000000000E-01     -1.348438000000000E+02      3.709564000000000E-01     -6.416797000000000E+01      3.598938000000000E-01     -1.734141000000000E+02      6.488647000000000E-01     -9.132421000000000E+01
4821000000.000000      3.503876000000000E-01     -1.359844000000000E+02      3.757324000000000E-01     -6.440234000000000E+01      3.634338000000000E-01     -1.737109000000000E+02      6.476135000000000E-01     -9.157421000000000E+01
4822000000.000000      3.550262000000000E-01     -1.370547000000000E+02      3.788147000000000E-01     -6.464062000000000E+01      3.676147000000000E-01     -1.735312000000000E+02      6.496277000000000E-01     -9.150391000000000E+01
4823000000.000000      3.569946000000000E-01     -1.380312000000000E+02      3.828430000000000E-01     -6.480078000000000E+01      3.714294000000000E-01     -1.733281000000000E+02      6.514587000000000E-01     -9.159765000000000E+01
4824000000.000000      3.611298000000000E-01     -1.391484000000000E+02      3.867188000000000E-01     -6.520312000000000E+01      3.760681000000000E-01     -1.734609000000000E+02      6.516418000000000E-01     -9.165625000000000E+01
4825000000.000000      3.646393000000000E-01     -1.400234000000000E+02      3.905487000000000E-01     -6.548046000000000E+01      3.802490000000000E-01     -1.734688000000000E+02      6.532288000000000E-01     -9.175781000000000E+01
4826000000.000000      3.690491000000000E-01     -1.410938000000000E+02      3.952484000000000E-01     -6.582812000000000E+01      3.834229000000000E-01     -1.734375000000000E+02      6.540833000000000E-01     -9.183203000000000E+01
4827000000.000000      3.731689000000000E-01     -1.418672000000000E+02      3.990631000000000E-01     -6.582421000000000E+01      3.878174000000000E-01     -1.733359000000000E+02      6.555481000000000E-01     -9.179688000000000E+01
4828000000.000000      3.775024000000000E-01     -1.429766000000000E+02      4.023285000000000E-01     -6.626953000000000E+01      3.914185000000000E-01     -1.734062000000000E+02      6.577454000000000E-01     -9.201172000000000E+01
4829000000.000000      3.804321000000000E-01     -1.438516000000000E+02      4.052734000000000E-01     -6.658984000000000E+01      3.956451000000000E-01     -1.734453000000000E+02      6.585388000000000E-01     -9.191015000000000E+01
4830000000.000000      3.861694000000000E-01     -1.447656000000000E+02      4.086456000000000E-01     -6.689843000000000E+01      4.003906000000000E-01     -1.733828000000000E+02      6.596375000000000E-01     -9.208202000000000E+01
4831000000.000000      3.898621000000000E-01     -1.456563000000000E+02      4.126740000000000E-01     -6.724609000000000E+01      4.040222000000000E-01     -1.734062000000000E+02      6.609192000000000E-01     -9.212891000000000E+01
4832000000.000000      3.953857000000000E-01     -1.465703000000000E+02      4.168549000000000E-01     -6.743359000000000E+01      4.081421000000000E-01     -1.734766000000000E+02      6.622925000000000E-01     -9.225389000000000E+01
4833000000.000000      4.004059000000000E-01     -1.475391000000000E+02      4.198456000000000E-01     -6.770312000000000E+01      4.125824000000000E-01     -1.736719000000000E+02      6.649170000000000E-01     -9.229687000000000E+01
4834000000.000000      4.049683000000000E-01     -1.483125000000000E+02      4.225159000000000E-01     -6.805859000000000E+01      4.162598000000000E-01     -1.735547000000000E+02      6.665649000000000E-01     -9.239843000000000E+01
4835000000.000000      4.095001000000000E-01     -1.492031000000000E+02      4.260712000000000E-01     -6.839453000000000E+01      4.211731000000000E-01     -1.735703000000000E+02      6.681213000000000E-01     -9.249218000000000E+01
4836000000.000000      4.156494000000000E-01     -1.499141000000000E+02      4.290161000000000E-01     -6.856250000000000E+01      4.244537000000000E-01     -1.735547000000000E+02      6.704407000000000E-01     -9.244532000000000E+01
4837000000.000000      4.207153000000000E-01     -1.507266000000000E+02      4.326172000000000E-01     -6.914063000000000E+01      4.285431000000000E-01     -1.737109000000000E+02      6.714172000000000E-01     -9.252733000000000E+01
4838000000.000000      4.255371000000000E-01     -1.516094000000000E+02      4.357758000000000E-01     -6.922265000000000E+01      4.330444000000000E-01     -1.737266000000000E+02      6.749878000000000E-01     -9.254297000000000E+01
4839000000.000000      4.310608000000000E-01     -1.522891000000000E+02      4.388580000000000E-01     -6.950781000000000E+01      4.372406000000000E-01     -1.738047000000000E+02      6.769104000000000E-01     -9.250780000000000E+01
4840000000.000000      4.353943000000000E-01     -1.531563000000000E+02      4.420929000000000E-01     -6.984375000000000E+01      4.411469000000000E-01     -1.738750000000000E+02      6.791077000000000E-01     -9.273438000000000E+01
4841000000.000000      4.411316000000000E-01     -1.538516000000000E+02      4.451752000000000E-01     -7.038671000000000E+01      4.451599000000000E-01     -1.740000000000000E+02      6.809387000000000E-01     -9.272264000000000E+01
4842000000.000000      4.470062000000000E-01     -1.545469000000000E+02      4.489441000000000E-01     -7.057031000000000E+01      4.485474000000000E-01     -1.739687000000000E+02      6.831970000000000E-01     -9.282421000000000E+01
4843000000.000000      4.515381000000000E-01     -1.553125000000000E+02      4.507751000000000E-01     -7.098437000000000E+01      4.533691000000000E-01     -1.740781000000000E+02      6.846924000000000E-01     -9.282421000000000E+01
4844000000.000000      4.566650000000000E-01     -1.559609000000000E+02      4.537964000000000E-01     -7.119922000000000E+01      4.568176000000000E-01     -1.741875000000000E+02      6.892700000000000E-01     -9.279297000000000E+01
4845000000.000000      4.615936000000000E-01     -1.566562000000000E+02      4.554291000000000E-01     -7.148046000000000E+01      4.613342000000000E-01     -1.743125000000000E+02      6.905518000000000E-01     -9.290234000000000E+01
4846000000.000000      4.668732000000000E-01     -1.572344000000000E+02      4.603424000000000E-01     -7.188281000000000E+01      4.660187000000000E-01     -1.743438000000000E+02      6.928406000000000E-01     -9.299608000000000E+01
4847000000.000000      4.727173000000000E-01     -1.578984000000000E+02      4.612885000000000E-01     -7.209765000000000E+01      4.706116000000000E-01     -1.745156000000000E+02      6.974792000000000E-01     -9.309765000000000E+01
4848000000.000000      4.778900000000000E-01     -1.584922000000000E+02      4.640350000000000E-01     -7.245312000000000E+01      4.739685000000000E-01     -1.746172000000000E+02      6.981506000000000E-01     -9.312500000000000E+01
4849000000.000000      4.824677000000000E-01     -1.594063000000000E+02      4.671478000000000E-01     -7.285156000000000E+01      4.784088000000000E-01     -1.747890000000000E+02      7.018127000000000E-01     -9.314453000000000E+01
4850000000.000000      4.874268000000000E-01     -1.597969000000000E+02      4.681549000000000E-01     -7.316406000000000E+01      4.822083000000000E-01     -1.748047000000000E+02      7.031250000000000E-01     -9.314844000000000E+01
4851000000.000000      4.922791000000000E-01     -1.603594000000000E+02      4.719543000000000E-01     -7.358593000000000E+01      4.855652000000000E-01     -1.749531000000000E+02      7.072754000000000E-01     -9.316797000000000E+01
4852000000.000000      4.974976000000000E-01     -1.609844000000000E+02      4.736786000000000E-01     -7.384766000000000E+01      4.902649000000000E-01     -1.750156000000000E+02      7.094116000000000E-01     -9.324999000000000E+01
4853000000.000000      5.021973000000000E-01     -1.615781000000000E+02      4.744720000000000E-01     -7.415234000000000E+01      4.947052000000000E-01     -1.752500000000000E+02      7.140503000000000E-01     -9.339844000000000E+01
4854000000.000000      5.065918000000000E-01     -1.620312000000000E+02      4.783936000000000E-01     -7.451172000000000E+01      4.976196000000000E-01     -1.753750000000000E+02      7.165833000000000E-01     -9.348436000000000E+01
4855000000.000000      5.097046000000000E-01     -1.625703000000000E+02      4.797516000000000E-01     -7.471874000000000E+01      5.017700000000000E-01     -1.754844000000000E+02      7.181396000000000E-01     -9.335938000000000E+01
4856000000.000000      5.146179000000000E-01     -1.631094000000000E+02      4.819183000000000E-01     -7.507813000000000E+01      5.062256000000000E-01     -1.755625000000000E+02      7.217407000000000E-01     -9.342577000000000E+01
4857000000.000000      5.196228000000000E-01     -1.636406000000000E+02      4.860077000000000E-01     -7.540625000000000E+01      5.091553000000000E-01     -1.757422000000000E+02      7.240601000000000E-01     -9.360155000000000E+01
4858000000.000000      5.212708000000000E-01     -1.641484000000000E+02      4.864960000000000E-01     -7.564453000000000E+01      5.128784000000000E-01     -1.760078000000000E+02      7.263794000000000E-01     -9.342577000000000E+01
4859000000.000000      5.258179000000000E-01     -1.646328000000000E+02      4.887695000000000E-01     -7.601171000000000E+01      5.159912000000000E-01     -1.762812000000000E+02      7.307434000000000E-01     -9.368750000000000E+01
4860000000.000000      5.303345000000000E-01     -1.651250000000000E+02      4.916534000000000E-01     -7.628124000000000E+01      5.198975000000000E-01     -1.762812000000000E+02      7.337952000000000E-01     -9.359766000000000E+01
4861000000.000000      5.332947000000000E-01     -1.655156000000000E+02      4.918823000000000E-01     -7.671484000000000E+01      5.251465000000000E-01     -1.764375000000000E+02      7.357788000000000E-01     -9.374609000000000E+01
4862000000.000000      5.362244000000000E-01     -1.659141000000000E+02      4.943390000000000E-01     -7.677343000000000E+01      5.282288000000000E-01     -1.766719000000000E+02      7.396545000000000E-01     -9.370312000000000E+01
4863000000.000000      5.389709000000000E-01     -1.663984000000000E+02      4.956055000000000E-01     -7.740234000000000E+01      5.308838000000000E-01     -1.767969000000000E+02      7.418823000000000E-01     -9.371094000000000E+01
4864000000.000000      5.427551000000000E-01     -1.667891000000000E+02      4.972839000000000E-01     -7.758203000000000E+01      5.326843000000000E-01     -1.770625000000000E+02      7.454529000000000E-01     -9.379686000000000E+01
4865000000.000000      5.443420000000000E-01     -1.672109000000000E+02      4.987030000000000E-01     -7.782031000000000E+01      5.358582000000000E-01     -1.772500000000000E+02      7.482300000000000E-01     -9.377733000000000E+01
4866000000.000000      5.468750000000000E-01     -1.675390000000000E+02      4.995117000000000E-01     -7.819921000000000E+01      5.411377000000000E-01     -1.774765000000000E+02      7.520752000000000E-01     -9.372656000000000E+01
4867000000.000000      5.493164000000000E-01     -1.678203000000000E+02      5.012512000000000E-01     -7.847265000000000E+01      5.422974000000000E-01     -1.777500000000000E+02      7.542419000000000E-01     -9.389452000000000E+01
4868000000.000000      5.520935000000000E-01     -1.683203000000000E+02      5.033264000000000E-01     -7.864843000000000E+01      5.468445000000000E-01     -1.778359000000000E+02      7.553711000000000E-01     -9.392969000000000E+01
4869000000.000000      5.523682000000000E-01     -1.685703000000000E+02      5.023804000000000E-01     -7.911327000000000E+01      5.498962000000000E-01     -1.780781000000000E+02      7.601624000000000E-01     -9.406250000000000E+01
4870000000.000000      5.557251000000000E-01     -1.689844000000000E+02      5.036316000000000E-01     -7.914844000000000E+01      5.513000000000000E-01     -1.783359000000000E+02      7.613220000000000E-01     -9.395702000000000E+01
4871000000.000000      5.572205000000000E-01     -1.693281000000000E+02      5.065002000000000E-01     -7.951172000000000E+01      5.546265000000000E-01     -1.785312000000000E+02      7.645874000000000E-01     -9.418749000000000E+01
4872000000.000000      5.598755000000000E-01     -1.694766000000000E+02      5.073242000000000E-01     -7.978516000000000E+01      5.575867000000000E-01     -1.789063000000000E+02      7.681885000000000E-01     -9.419140000000000E+01
4873000000.000000      5.598450000000000E-01     -1.697344000000000E+02      5.079956000000000E-01     -8.008593000000000E+01      5.592957000000000E-01     -1.790156000000000E+02      7.688904000000000E-01     -9.421093000000000E+01
4874000000.000000      5.615540000000000E-01     -1.699375000000000E+02      5.103455000000000E-01     -8.025391000000000E+01      5.643616000000000E-01     -1.791563000000000E+02      7.718506000000000E-01     -9.408594000000000E+01
4875000000.000000      5.629272000000000E-01     -1.701953000000000E+02      5.095520000000000E-01     -8.039843000000000E+01      5.639954000000000E-01     -1.793516000000000E+02      7.727966000000000E-01     -9.421484000000000E+01
4876000000.000000      5.625610000000000E-01     -1.704453000000000E+02      5.119934000000000E-01     -8.072266000000000E+01      5.669556000000000E-01     -1.796406000000000E+02      7.768250000000000E-01     -9.422655000000000E+01
4877000000.000000      5.636597000000000E-01     -1.706953000000000E+02      5.126038000000000E-01     -8.077734000000000E+01      5.697632000000000E-01     -1.798672000000000E+02      7.794800000000000E-01     -9.437500000000000E+01
4878000000.000000      5.644836000000000E-01     -1.708281000000000E+02      5.138245000000000E-01     -8.113281000000000E+01      5.718384000000000E-01      1.799375000000000E+02      7.823181000000000E-01     -9.441406000000000E+01
4879000000.000000      5.661926000000000E-01     -1.710703000000000E+02      5.131836000000000E-01     -8.126953000000000E+01      5.738525000000000E-01      1.796484000000000E+02      7.834778000000000E-01     -9.430468000000000E+01
4880000000.000000      5.645447000000000E-01     -1.712734000000000E+02      5.155029000000000E-01     -8.157030000000000E+01      5.764160000000000E-01      1.795469000000000E+02      7.856750000000000E-01     -9.440233000000000E+01
4881000000.000000      5.660095000000000E-01     -1.713984000000000E+02      5.178528000000000E-01     -8.173437000000000E+01      5.795898000000000E-01      1.792969000000000E+02      7.878113000000000E-01     -9.455469000000000E+01
4882000000.000000      5.649414000000000E-01     -1.714922000000000E+02      5.178528000000000E-01     -8.199999000000000E+01      5.817566000000000E-01      1.791641000000000E+02      7.893066000000000E-01     -9.475389000000000E+01
