! Network Analyzer HP8722D
! Hewlett-Packard
! Data name: Linha & Wilkinson
! Saver's name: Rodrigo Anjos
! Comments: Teste da utilização de aquisição
continua pelo VNA HP8722D
! Time and date: 15/4/2025 16:52
!              Frequency                     S11                                                   S21                                                   S12                                                   S22
# HZ  S  MA R 50
4800000000.000000      3.313751000000000E-01     -1.140234000000000E+02      2.843781000000000E-01     -6.089453000000000E+01      2.780457000000000E-01     -1.751016000000000E+02      6.535645000000000E-01     -8.960938000000000E+01
4801000000.000000      3.305206000000000E-01     -1.148359000000000E+02      2.889862000000000E-01     -6.095117000000000E+01      2.820587000000000E-01     -1.750234000000000E+02      6.531982000000000E-01     -8.964062000000000E+01
4802000000.000000      3.291321000000000E-01     -1.159492000000000E+02      2.935486000000000E-01     -6.088085000000000E+01      2.868500000000000E-01     -1.747734000000000E+02      6.518555000000000E-01     -8.967968000000000E+01
4803000000.000000      3.286591000000000E-01     -1.169609000000000E+02      2.990112000000000E-01     -6.107422000000000E+01      2.902069000000000E-01     -1.747266000000000E+02      6.502075000000000E-01     -8.987890000000000E+01
4804000000.000000      3.275909000000000E-01     -1.179805000000000E+02      3.025360000000000E-01     -6.117188000000000E+01      2.947235000000000E-01     -1.747187000000000E+02      6.499329000000000E-01     -8.991014000000000E+01
4805000000.000000      3.283386000000000E-01     -1.189453000000000E+02      3.074188000000000E-01     -6.140038000000000E+01      2.983856000000000E-01     -1.745000000000000E+02      6.494751000000000E-01     -9.005468000000000E+01
4806000000.000000      3.278503000000000E-01     -1.198945000000000E+02      3.122101000000000E-01     -6.133984000000000E+01      3.021698000000000E-01     -1.743047000000000E+02      6.489868000000000E-01     -9.026953000000000E+01
4807000000.000000      3.277435000000000E-01     -1.210508000000000E+02      3.158875000000000E-01     -6.165820000000000E+01      3.067169000000000E-01     -1.743984000000000E+02      6.491699000000000E-01     -9.016796000000000E+01
4808000000.000000      3.279877000000000E-01     -1.220391000000000E+02      3.212585000000000E-01     -6.151562000000000E+01      3.105011000000000E-01     -1.742188000000000E+02      6.478882000000000E-01     -9.034374000000000E+01
4809000000.000000      3.287354000000000E-01     -1.230273000000000E+02      3.248749000000000E-01     -6.205664000000000E+01      3.152771000000000E-01     -1.742266000000000E+02      6.479187000000000E-01     -9.049219000000000E+01
4810000000.000000      3.293610000000000E-01     -1.241484000000000E+02      3.301239000000000E-01     -6.200781000000000E+01      3.192444000000000E-01     -1.741406000000000E+02      6.473083000000000E-01     -9.059765000000000E+01
4811000000.000000      3.303528000000000E-01     -1.252656000000000E+02      3.347473000000000E-01     -6.242188000000000E+01      3.242188000000000E-01     -1.739297000000000E+02      6.463013000000000E-01     -9.064453000000000E+01
4812000000.000000      3.318939000000000E-01     -1.263437000000000E+02      3.391266000000000E-01     -6.254687000000000E+01      3.278503000000000E-01     -1.738750000000000E+02      6.464844000000000E-01     -9.066797000000000E+01
4813000000.000000      3.325653000000000E-01     -1.273398000000000E+02      3.430786000000000E-01     -6.274609000000000E+01      3.306274000000000E-01     -1.737031000000000E+02      6.462402000000000E-01     -9.078125000000000E+01
4814000000.000000      3.342285000000000E-01     -1.285547000000000E+02      3.468170000000000E-01     -6.281836000000000E+01      3.355103000000000E-01     -1.738281000000000E+02      6.466370000000000E-01     -9.100389000000000E+01
4815000000.000000      3.354034000000000E-01     -1.295078000000000E+02      3.510284000000000E-01     -6.312304000000000E+01      3.392487000000000E-01     -1.737187000000000E+02      6.457520000000000E-01     -9.089062000000000E+01
4816000000.000000      3.378754000000000E-01     -1.305469000000000E+02      3.555756000000000E-01     -6.313867000000000E+01      3.438110000000000E-01     -1.735469000000000E+02      6.470642000000000E-01     -9.092188000000000E+01
4817000000.000000      3.402252000000000E-01     -1.316484000000000E+02      3.598633000000000E-01     -6.366796000000000E+01      3.471222000000000E-01     -1.736641000000000E+02      6.462708000000000E-01     -9.120312000000000E+01
4818000000.000000      3.426666000000000E-01     -1.328125000000000E+02      3.632355000000000E-01     -6.373241000000000E+01      3.518066000000000E-01     -1.735156000000000E+02      6.464539000000000E-01     -9.117579000000000E+01
4819000000.000000      3.455505000000000E-01     -1.338359000000000E+02      3.674774000000000E-01     -6.396874000000000E+01      3.553314000000000E-01     -1.734844000000000E+02      6.491394000000000E-01     -9.123827000000000E+01
4820000000.000000      3.468475000000000E-01     -1.348594000000000E+02      3.705292000000000E-01     -6.417969000000000E+01      3.596344000000000E-01     -1.734844000000000E+02      6.492004000000000E-01     -9.132813000000000E+01
4821000000.000000      3.505859000000000E-01     -1.360078000000000E+02      3.748779000000000E-01     -6.435547000000000E+01      3.634644000000000E-01     -1.735312000000000E+02      6.481628000000000E-01     -9.145702000000000E+01
4822000000.000000      3.546906000000000E-01     -1.370312000000000E+02      3.790741000000000E-01     -6.459765000000000E+01      3.669891000000000E-01     -1.735078000000000E+02      6.499023000000000E-01     -9.155859000000000E+01
4823000000.000000      3.571167000000000E-01     -1.380078000000000E+02      3.829346000000000E-01     -6.487109000000000E+01      3.708954000000000E-01     -1.733203000000000E+02      6.507263000000000E-01     -9.160156000000000E+01
4824000000.000000      3.614044000000000E-01     -1.391172000000000E+02      3.871155000000000E-01     -6.517187000000000E+01      3.763275000000000E-01     -1.735312000000000E+02      6.522217000000000E-01     -9.165625000000000E+01
4825000000.000000      3.645935000000000E-01     -1.400156000000000E+02      3.909912000000000E-01     -6.547656000000000E+01      3.800812000000000E-01     -1.733828000000000E+02      6.526489000000000E-01     -9.160936000000000E+01
4826000000.000000      3.691406000000000E-01     -1.410547000000000E+02      3.939514000000000E-01     -6.578906000000000E+01      3.836060000000000E-01     -1.734531000000000E+02      6.538391000000000E-01     -9.187891000000000E+01
4827000000.000000      3.726654000000000E-01     -1.418906000000000E+02      3.979645000000000E-01     -6.587500000000000E+01      3.877411000000000E-01     -1.734453000000000E+02      6.549377000000000E-01     -9.190233000000000E+01
4828000000.000000      3.778534000000000E-01     -1.428828000000000E+02      4.023285000000000E-01     -6.611718000000000E+01      3.914795000000000E-01     -1.733672000000000E+02      6.581726000000000E-01     -9.201563000000000E+01
4829000000.000000      3.804474000000000E-01     -1.438594000000000E+02      4.043884000000000E-01     -6.658984000000000E+01      3.955994000000000E-01     -1.734141000000000E+02      6.583862000000000E-01     -9.189453000000000E+01
4830000000.000000      3.859100000000000E-01     -1.448047000000000E+02      4.088440000000000E-01     -6.677734000000000E+01      3.996429000000000E-01     -1.734062000000000E+02      6.595764000000000E-01     -9.212891000000000E+01
4831000000.000000      3.901367000000000E-01     -1.457031000000000E+02      4.119415000000000E-01     -6.723827000000000E+01      4.046326000000000E-01     -1.734609000000000E+02      6.612549000000000E-01     -9.208984000000000E+01
4832000000.000000      3.955231000000000E-01     -1.464844000000000E+02      4.164124000000000E-01     -6.748828000000000E+01      4.079132000000000E-01     -1.734766000000000E+02      6.629944000000000E-01     -9.231249000000000E+01
4833000000.000000      4.005585000000000E-01     -1.475469000000000E+02      4.193878000000000E-01     -6.769921000000000E+01      4.123383000000000E-01     -1.735391000000000E+02      6.648560000000000E-01     -9.231640000000000E+01
4834000000.000000      4.047394000000000E-01     -1.483203000000000E+02      4.224701000000000E-01     -6.801952000000000E+01      4.161072000000000E-01     -1.735469000000000E+02      6.656189000000000E-01     -9.235155000000000E+01
4835000000.000000      4.096985000000000E-01     -1.491406000000000E+02      4.259033000000000E-01     -6.824609000000000E+01      4.207306000000000E-01     -1.735937000000000E+02      6.682434000000000E-01     -9.245703000000000E+01
4836000000.000000      4.154510000000000E-01     -1.499141000000000E+02      4.291077000000000E-01     -6.854297000000000E+01      4.245453000000000E-01     -1.735859000000000E+02      6.689148000000000E-01     -9.243359000000000E+01
4837000000.000000      4.204712000000000E-01     -1.506719000000000E+02      4.321594000000000E-01     -6.911718000000000E+01      4.285736000000000E-01     -1.737422000000000E+02      6.713257000000000E-01     -9.254686000000000E+01
4838000000.000000      4.259186000000000E-01     -1.515859000000000E+02      4.365997000000000E-01     -6.925781000000000E+01      4.326172000000000E-01     -1.737500000000000E+02      6.751404000000000E-01     -9.255468000000000E+01
4839000000.000000      4.310150000000000E-01     -1.522266000000000E+02      4.389038000000000E-01     -6.941796000000000E+01      4.372559000000000E-01     -1.736719000000000E+02      6.770020000000000E-01     -9.254297000000000E+01
4840000000.000000      4.358521000000000E-01     -1.530859000000000E+02      4.409027000000000E-01     -6.978516000000000E+01      4.407959000000000E-01     -1.738906000000000E+02      6.781311000000000E-01     -9.265625000000000E+01
4841000000.000000      4.409332000000000E-01     -1.539297000000000E+02      4.449921000000000E-01     -7.024219000000000E+01      4.453735000000000E-01     -1.739531000000000E+02      6.811829000000000E-01     -9.269922000000000E+01
4842000000.000000      4.470062000000000E-01     -1.545000000000000E+02      4.473724000000000E-01     -7.052734000000000E+01      4.481354000000000E-01     -1.739922000000000E+02      6.844177000000000E-01     -9.276562000000000E+01
4843000000.000000      4.512482000000000E-01     -1.553281000000000E+02      4.512634000000000E-01     -7.092187000000000E+01      4.530029000000000E-01     -1.741172000000000E+02      6.854858000000000E-01     -9.279688000000000E+01
4844000000.000000      4.563293000000000E-01     -1.559766000000000E+02      4.534912000000000E-01     -7.125390000000000E+01      4.570007000000000E-01     -1.741953000000000E+02      6.881104000000000E-01     -9.293360000000000E+01
4845000000.000000      4.615784000000000E-01     -1.566172000000000E+02      4.550934000000000E-01     -7.150000000000000E+01      4.615784000000000E-01     -1.743125000000000E+02      6.896362000000000E-01     -9.287889000000000E+01
4846000000.000000      4.664917000000000E-01     -1.571875000000000E+02      4.590149000000000E-01     -7.176952000000000E+01      4.663239000000000E-01     -1.743438000000000E+02      6.930237000000000E-01     -9.292187000000000E+01
4847000000.000000      4.728394000000000E-01     -1.578906000000000E+02      4.609070000000000E-01     -7.198828000000000E+01      4.708710000000000E-01     -1.745000000000000E+02      6.965332000000000E-01     -9.307421000000000E+01
4848000000.000000      4.776306000000000E-01     -1.584687000000000E+02      4.633942000000000E-01     -7.248047000000000E+01      4.739075000000000E-01     -1.746172000000000E+02      6.972351000000000E-01     -9.316797000000000E+01
4849000000.000000      4.822540000000000E-01     -1.593906000000000E+02      4.672241000000000E-01     -7.292578000000000E+01      4.784393000000000E-01     -1.747890000000000E+02      7.010498000000000E-01     -9.303905000000000E+01
4850000000.000000      4.871674000000000E-01     -1.597969000000000E+02      4.698944000000000E-01     -7.320703000000000E+01      4.819794000000000E-01     -1.747734000000000E+02      7.030029000000000E-01     -9.316015000000000E+01
4851000000.000000      4.921875000000000E-01     -1.603672000000000E+02      4.730377000000000E-01     -7.350780000000000E+01      4.855804000000000E-01     -1.749453000000000E+02      7.079468000000000E-01     -9.312109000000000E+01
4852000000.000000      4.978485000000000E-01     -1.609844000000000E+02      4.743042000000000E-01     -7.381249000000000E+01      4.900818000000000E-01     -1.750937000000000E+02      7.089539000000000E-01     -9.314844000000000E+01
4853000000.000000      5.018311000000000E-01     -1.615391000000000E+02      4.748993000000000E-01     -7.403125000000000E+01      4.945984000000000E-01     -1.752656000000000E+02      7.129517000000000E-01     -9.335546000000000E+01
4854000000.000000      5.063171000000000E-01     -1.620625000000000E+02      4.774933000000000E-01     -7.449219000000000E+01      4.978943000000000E-01     -1.753828000000000E+02      7.163391000000000E-01     -9.329296000000000E+01
4855000000.000000      5.096436000000000E-01     -1.626719000000000E+02      4.804077000000000E-01     -7.471093000000000E+01      5.014038000000000E-01     -1.754844000000000E+02      7.183228000000000E-01     -9.335546000000000E+01
4856000000.000000      5.151367000000000E-01     -1.630938000000000E+02      4.820709000000000E-01     -7.508984000000000E+01      5.063477000000000E-01     -1.756562000000000E+02      7.225342000000000E-01     -9.346094000000000E+01
4857000000.000000      5.195618000000000E-01     -1.636797000000000E+02      4.853058000000000E-01     -7.546875000000000E+01      5.093994000000000E-01     -1.757969000000000E+02      7.231750000000000E-01     -9.353125000000000E+01
4858000000.000000      5.213623000000000E-01     -1.641484000000000E+02      4.878082000000000E-01     -7.571094000000000E+01      5.133057000000000E-01     -1.759063000000000E+02      7.268677000000000E-01     -9.350780000000000E+01
4859000000.000000      5.259094000000000E-01     -1.647031000000000E+02      4.884186000000000E-01     -7.601563000000000E+01      5.157776000000000E-01     -1.761719000000000E+02      7.319031000000000E-01     -9.369532000000000E+01
4860000000.000000      5.305176000000000E-01     -1.651484000000000E+02      4.898376000000000E-01     -7.630859000000000E+01      5.195618000000000E-01     -1.763281000000000E+02      7.315369000000000E-01     -9.349218000000000E+01
4861000000.000000      5.337524000000000E-01     -1.654922000000000E+02      4.926910000000000E-01     -7.668750000000000E+01      5.241699000000000E-01     -1.765000000000000E+02      7.360840000000000E-01     -9.378515000000000E+01
4862000000.000000      5.362244000000000E-01     -1.658984000000000E+02      4.948730000000000E-01     -7.696094000000000E+01      5.281372000000000E-01     -1.766328000000000E+02      7.401733000000000E-01     -9.365234000000000E+01
4863000000.000000      5.386963000000000E-01     -1.663594000000000E+02      4.944763000000000E-01     -7.735937000000000E+01      5.312500000000000E-01     -1.768203000000000E+02      7.429199000000000E-01     -9.368359000000000E+01
4864000000.000000      5.428162000000000E-01     -1.667734000000000E+02      4.970703000000000E-01     -7.733984000000000E+01      5.336304000000000E-01     -1.769531000000000E+02      7.446594000000000E-01     -9.383984000000000E+01
4865000000.000000      5.447693000000000E-01     -1.673281000000000E+02      4.991302000000000E-01     -7.769921000000000E+01      5.370178000000000E-01     -1.773281000000000E+02      7.485657000000000E-01     -9.368750000000000E+01
4866000000.000000      5.470276000000000E-01     -1.675156000000000E+02      5.010986000000000E-01     -7.826953000000000E+01      5.416870000000000E-01     -1.774297000000000E+02      7.511292000000000E-01     -9.392578000000000E+01
4867000000.000000      5.496826000000000E-01     -1.679062000000000E+02      5.010071000000000E-01     -7.850390000000000E+01      5.431519000000000E-01     -1.776250000000000E+02      7.537231000000000E-01     -9.391796000000000E+01
4868000000.000000      5.520935000000000E-01     -1.683047000000000E+02      5.049744000000000E-01     -7.857422000000000E+01      5.470276000000000E-01     -1.778047000000000E+02      7.556458000000000E-01     -9.386328000000000E+01
4869000000.000000      5.530090000000000E-01     -1.685703000000000E+02      5.030518000000000E-01     -7.898828000000000E+01      5.492859000000000E-01     -1.781094000000000E+02      7.583008000000000E-01     -9.407812000000000E+01
4870000000.000000      5.556641000000000E-01     -1.688828000000000E+02      5.073242000000000E-01     -7.910937000000000E+01      5.520020000000000E-01     -1.782422000000000E+02      7.629395000000000E-01     -9.395702000000000E+01
4871000000.000000      5.572205000000000E-01     -1.693125000000000E+02      5.066528000000000E-01     -7.946484000000000E+01      5.529175000000000E-01     -1.784453000000000E+02      7.638245000000000E-01     -9.412109000000000E+01
4872000000.000000      5.593567000000000E-01     -1.694375000000000E+02      5.065613000000000E-01     -7.949219000000000E+01      5.572510000000000E-01     -1.788125000000000E+02      7.677917000000000E-01     -9.409374000000000E+01
4873000000.000000      5.599976000000000E-01     -1.697187000000000E+02      5.087891000000000E-01     -7.999609000000000E+01      5.599976000000000E-01     -1.789141000000000E+02      7.684021000000000E-01     -9.427734000000000E+01
4874000000.000000      5.611267000000000E-01     -1.699375000000000E+02      5.094299000000000E-01     -8.025391000000000E+01      5.633850000000000E-01     -1.792031000000000E+02      7.719421000000000E-01     -9.408203000000000E+01
4875000000.000000      5.631104000000000E-01     -1.702656000000000E+02      5.100403000000000E-01     -8.041016000000000E+01      5.658264000000000E-01     -1.794219000000000E+02      7.735596000000000E-01     -9.434765000000000E+01
4876000000.000000      5.624084000000000E-01     -1.704531000000000E+02      5.102539000000000E-01     -8.047266000000000E+01      5.660095000000000E-01     -1.795547000000000E+02      7.783813000000000E-01     -9.431641000000000E+01
4877000000.000000      5.631714000000000E-01     -1.706797000000000E+02      5.136108000000000E-01     -8.106249000000000E+01      5.698242000000000E-01     -1.798984000000000E+02      7.793884000000000E-01     -9.439453000000000E+01
4878000000.000000      5.647888000000000E-01     -1.708594000000000E+02      5.146484000000000E-01     -8.125391000000000E+01      5.709534000000000E-01      1.799375000000000E+02      7.817383000000000E-01     -9.448046000000000E+01
4879000000.000000      5.650635000000000E-01     -1.710234000000000E+02      5.155029000000000E-01     -8.142187000000000E+01      5.746765000000000E-01      1.797734000000000E+02      7.839661000000000E-01     -9.435938000000000E+01
4880000000.000000      5.643921000000000E-01     -1.712031000000000E+02      5.154724000000000E-01     -8.166016000000000E+01      5.769348000000000E-01      1.796094000000000E+02      7.850952000000000E-01     -9.438671000000000E+01
4881000000.000000      5.656433000000000E-01     -1.713047000000000E+02      5.157471000000000E-01     -8.164843000000000E+01      5.788574000000000E-01      1.792266000000000E+02      7.890015000000000E-01     -9.442577000000000E+01
4882000000.000000      5.642090000000000E-01     -1.714609000000000E+02      5.191650000000000E-01     -8.188280000000000E+01      5.807190000000000E-01      1.791719000000000E+02      7.895813000000000E-01     -9.460938000000000E+01
